! Created with skrf 1.8.0 (http://scikit-rf.org).
# GHz S RI R 50.0 
!freq ReS11 ImS11 ReS12 ImS12 ReS13 ImS13
! ReS14 ImS14
! ReS21 ImS21 ReS22 ImS22 ReS23 ImS23
! ReS24 ImS24
! ReS31 ImS31 ReS32 ImS32 ReS33 ImS33
! ReS34 ImS34
! ReS41 ImS41 ReS42 ImS42 ReS43 ImS43
! ReS44 ImS44
!
0.0 0.001570782826841 0.0 0.9984292171634 0.0 6.080229522111e-05 0.0 -6.080229564903e-05 7.446133674739563e-21
 0.9984292171634 0.0 0.001570782826846 0.0 -6.080229564868e-05 7.4461336746967e-21 6.080229522169e-05 0.0
 6.080229522111e-05 0.0 -6.080229564868e-05 7.4461336746967e-21 0.00157078283108 0.0 0.9984292171677 0.0
 -6.080229564903e-05 7.446133674739563e-21 6.080229522169e-05 0.0 0.9984292171677 0.0 0.0015707828311 0.0
0.005 0.001690142322716865 0.0012817928991845616 0.9982781794097606 -0.0032904966491303957 8.576134749305186e-05 0.0006887858279117471 -8.312284618894294e-05 -0.0004290395251960378
 0.9982781794097606 -0.0032904966491303957 0.001690164138527038 0.0012817801030769202 -8.312264940560573e-05 -0.0004290393092895566 8.562405604363748e-05 0.0006888380130233998
 8.576134749305186e-05 0.0006887858279117471 -8.312264940560573e-05 -0.0004290393092895566 0.001690143103301303 0.0012818596701353103 0.9982781797706377 -0.0032904295778471942
 -8.312284618894294e-05 -0.0004290395251960378 8.562405604363748e-05 0.0006888380130233998 0.9982781797706377 -0.0032904295778471942 0.0016901640731154814 0.0012818474686603946
0.006252605252188 0.0017214688166786432 0.0016072946569001588 0.9982382806610222 -0.004113922914683925 9.291980564419805e-05 0.0008613045879014228 -8.943847669235152e-05 -0.0005368568199749231
 0.9982382806610222 -0.004113922914683925 0.0017215029196555672 0.0016072784287046514 -8.94381710062209e-05 -0.0005368565523875599 9.27052994465699e-05 0.0008613723703260037
 9.291980564419805e-05 0.0008613045879014228 -8.94381710062209e-05 -0.0005368565523875599 0.0017214699591556058 0.0016073780959451485 0.9982382811470727 -0.0041138390909422696
 -8.943847669235152e-05 -0.0005368568199749231 9.27052994465699e-05 0.0008613723703260037 0.9982382811470727 -0.0041138390909422696 0.0017215027386977063 0.0016073626237040077
0.01250521050438 0.0018865073090261486 0.0032483381367597584 0.9980266506032746 -0.00822863748036651 0.00013411753719474312 0.001722888618576055 -0.000125346032394517 -0.0010763165562131445
 0.9980266506032746 -0.00822863748036651 0.0018866434947369883 0.0032483033357957247 -0.00012534483398994088 -0.0010763160455386602 0.00013326209976711627 0.0017230517251161051
 0.00013411753719474312 0.001722888618576055 -0.00012534483398994088 -0.0010763160455386602 0.0018865113327876106 0.0032485046554759744 0.9980266520009026 -0.008228470075042533
 -0.000125346032394517 -0.0010763165562131445 0.00013326209976711627 0.0017230517251161051 0.9980266520009026 -0.008228470075042533 0.0018866422186026614 0.003248471502547176
0.01875781575657 0.0020662648038452876 0.004912777961523952 0.9977940597529593 -0.012354154632207836 0.0001844905780269 0.0025853424383520123 -0.00016863717464838122 -0.0016175720928816042
 0.9977940597529593 -0.012354154632207836 0.00206657084304174 0.004912722074004985 -0.00016863451088982654 -0.0016175713661376423 0.00018256884692697113 0.002585633853410608
 0.0001844905780269 0.0025853424383520123 -0.00016863451088982654 -0.0016175713661376423 0.0020662734317809105 0.0049130273131258485 0.9977940624718864 -0.01235390370974093
 -0.00016863717464838122 -0.0016175720928816042 0.00018256884692697113 0.002585633853410608 0.9977940624718864 -0.01235390370974093 0.0020665675315046095 0.004912974133439752
0.02501042100875 0.0022610965656472575 0.0065982702044459435 0.9975402301684361 -0.01649246546347771 0.00024413586909889597 0.0034486989208343415 -0.00021942023878302375 -0.002160367595057241
 0.9975402301684361 -0.01649246546347771 0.0022616401094555645 0.0065981905726623285 -0.00021941554664631351 -0.0021603666825450547 0.0002407222766556635 0.0034491568926869717
 0.00024413586909889597 0.0034486989208343415 -0.00021941554664631351 -0.0021603666825450547 0.002261111529759679 0.006598602117915662 0.9975402346275749 -0.016492131047668262
 -0.00021942023878302375 -0.002160367595057241 0.0002407222766556635 0.0034491568926869717 0.9975402346275749 -0.016492131047668262 0.0022616338195523347 0.0065985264521924315
0.03126302626094 0.002471343147580745 0.008303604169562093 0.9972648699648894 -0.02064441652700678 0.0003131509112749576 0.004312909137370475 -0.0002778003603615597 -0.002704522755041942
 0.9972648699648894 -0.02064441652700678 0.00247219176603222 0.008303497996879714 -0.0002777930848013844 -0.0027045216903700377 0.00030781929500033983 0.004313577210360822
 0.0003131509112749576 0.004312909137370475 -0.0002777930848013844 -0.0027045216903700377 0.002471366178791062 0.008304018340717777 0.9972648765834935 -0.020643998609428314
 -0.0002778003603615597 -0.002704522755041942 0.00030781929500033983 0.004313577210360822 0.9972648765834935 -0.020643998609428314 0.0024721815413977556 0.008303917622015515
0.037515631513130004 0.0026973376378633053 0.010027987085020928 0.9969676808014927 -0.024810425081870115 0.00039163270213944424 0.005177891783693826 -0.00034388025609249115 -0.0032498833630233244
 0.9969676808014927 -0.024810425081870115 0.0026985588463630085 0.010027851438398915 -0.00034386984914132253 -0.003249882183086179 0.0003839561320759239 0.00517881885220967
 0.00039163270213944424 0.005177891783693826 -0.00034386984914132253 -0.003249882183086179 0.002697370467953601 0.010028483168928902 0.9969676900020501 -0.024809923629053664
 -0.00034388025609249115 -0.0032498833630233244 0.0003839561320759239 0.00517881885220967 0.9969676900020501 -0.024809923629053664 0.0026985437192035846 0.010028354725521209
0.043768236765320004 0.0029394084624849294 0.011770826400356567 0.9966483609274341 -0.028990696726349702 0.0004796772373329685 0.006043548210865751 -0.00041776050093578383 -0.0037963062797215304
 0.9966483609274341 -0.028990696726349702 0.002941069742890517 0.011770658211715865 -0.00041774642111101214 -0.003796305024648851 0.00046922793619216227 0.0060447885800596545
 0.0004796772373329685 0.006043548210865751 -0.00041774642111101214 -0.003796305024648851 0.0029394528226800204 0.01177140401080927 0.9966483731357749 -0.02899011167977198
 -0.00041776050093578383 -0.0037963062797215304 0.00046922793619216227 0.0060447885800596545 0.9966483731357749 -0.02899011167977198 0.0029410487329450566 0.011771245068094544
0.050020842017509996 0.0031978806851945115 0.013531639830819729 0.9963066067313255 -0.033185315281912084 0.0005773792127941809 0.006909768634094558 -0.0004995396241853902 -0.00434365323524157
 0.9963066067313255 -0.033185315281912084 0.0032000495042241047 0.013531435897757899 -0.0004995213360631283 -0.00434365194834771 0.0005637285253028788 0.006911382083316511
 0.0005773792127941809 0.006909768634094558 -0.0004995213360631283 -0.00434365194834771 0.003197938305715174 0.0135322985309183 0.9963066223779066 -0.03318464656707545
 -0.0004995396241853902 -0.00434365323524157 0.0005637285253028788 0.006911382083316511 0.9963066223779066 -0.03318464656707545 0.0032000216188628207 0.013532106212545804
0.055454545454549996 0.003436071245587463 0.015076112836474885 0.9959911560448157 -0.03684222358351754 0.000670200623938941 0.00766290709177865 -0.0005770980155535516 -0.004819958775917395
 0.9959911560448157 -0.03684222358351754 0.0034387359237236154 0.015075875135391438 -0.0005770756399471878 -0.004819957498976526 0.0006534190315788732 0.007664897607125656
 0.000670200623938941 0.00766290709177865 -0.0005770756399471878 -0.004819957498976526 0.0034361417926488144 0.015076841614154351 0.9959911750318664 -0.036841482082685464
 -0.0005770980155535516 -0.004819958775917395 0.0006534190315788732 0.007664897607125656 0.9959911750318664 -0.036841482082685464 0.003438701246373092 0.015076617876819517
0.056273447269699996 0.0034730766695082608 0.015310011192234017 0.9959421136565982 -0.03739428688849273 0.000684831811747559 0.007776435188117978 -0.0005893141283946333 -0.004891787785595881
 0.9959421136565982 -0.03739428688849273 0.003475820496248615 0.015309768178068424 -0.0005892911023159733 -0.004891786513322626 0.0006675502040244879 0.007778487035520235
 0.000684831811747559 0.007776435188117978 -0.0005892911023159733 -0.004891786513322626 0.003473149277837524 0.015310750497348742 0.9959421331758561 -0.03739353441139955
 -0.0005893141283946333 -0.004891787785595881 0.0006675502040244879 0.007778487035520235 0.9959421331758561 -0.03739353441139955 0.0034757847289394 0.015310521825836601
0.06252605252188 0.0037653164290831864 0.01710556613288328 0.9955545768088464 -0.04161756420581557 0.0008021265381853215 0.008643423601600116 -0.0006871784651585864 -0.005440573654783672
 0.9955545768088464 -0.04161756420581557 0.0037687027513110295 0.017105280566184593 -0.0006871501769646529 -0.005440572446655577 0.0007807836165988002 0.008645984769149526
 0.0008021265381853215 0.008643423601600116 -0.0006871501769646529 -0.005440572446655577 0.0037654057504946624 0.017106385509267907 0.9955546006415285 -0.04161672785406037
 -0.0006871784651585864 -0.005440573654783672 0.0007807836165988002 0.008645984769149526 0.9955546006415285 -0.04161672785406037 0.0037686580827971734 0.017106117406013147
0.06877865777407 0.004074917810122905 0.018917957657447856 0.9951436914001897 -0.045855060826975866 0.0009293530730098985 0.009510604206018762 -0.0007932249890962598 -0.005989873747262099
 0.9951436914001897 -0.045855060826975866 0.004079014150119641 0.018917625931144575 -0.0007931909198985466 -0.0059898726558293425 0.0009035176170929737 0.009513751284487953
 0.0009293530730098985 0.009510604206018762 -0.0007931909198985466 -0.0059898726558293425 0.00407502556547033 0.018918856525463008 0.9951437199929765 -0.04585414046607774
 -0.0007932249890962598 -0.005989873747262099 0.0009035176170929737 0.009513751284487953 0.9951437199929765 -0.04585414046607774 0.004078959546819928 0.01891854581028593
0.07503126302626001 0.004402196570030196 0.020746856961257273 0.9947091530940637 -0.05010666038661785 0.0010665991452818862 0.0103778425802608 -0.0009075438966930407 -0.006539549529797339
 0.9947091530940637 -0.05010666038661785 0.004407070500360325 0.02074647533115424 -0.0009075035326799516 -0.00653954861059403 0.0010358391512665707 0.010381657893888448
 0.0010665991452818862 0.0103778425802608 -0.0009075035326799516 -0.00653954861059403 0.0044023244752701765 0.020747834685550717 0.9947091869005069 -0.05010565586953272
 -0.0009075438966930407 -0.006539549529797339 0.0010358391512665707 0.010381657893888448 0.9947091869005069 -0.05010565586953272 0.0044070049146623155 0.020747478075706233
0.08128386827845 0.0047474663941756345 0.022591947320560492 0.9942506582912627 -0.05437222261850911 0.001213950412259771 0.011244999982128094 -0.0010302231560271248 -0.00708946063175114
 0.9942506582912627 -0.05437222261850911 0.0047531855533688985 0.022591511903274724 -0.0010301759883527648 -0.007089459943240448 0.0011778331446263785 0.011249571652792247
 0.001213950412259771 0.011244999982128094 -0.0010301759883527648 -0.007089459943240448 0.004747616159155036 0.022593003218239417 0.994250697772499 -0.05437113377720269
 -0.0010302231560271248 -0.00708946063175114 0.0011778331446263785 0.011249571652792247 0.994250697772499 -0.05437113377720269 0.004753107922505664 0.022592597326875536
0.08753647353064001 0.005111038869614374 0.024452919876859276 0.9937679043776388 -0.058651587524793686 0.0013714903453301943 0.012111933657308189 -0.0011613484298425313 -0.00763946457335204
 0.9937679043776388 -0.058651587524793686 0.005117670977718373 0.024452426647352636 -0.0011612939544065513 -0.007639464176892746 0.0013295823951730858 0.012117355668025178
 0.0013714903453301943 0.012111933657308189 -0.0011612939544065513 -0.007639464176892746 0.005111212197087465 0.024454053214031168 0.9937679500029053 -0.05865041417339095
 -0.0011613484298425313 -0.00763946457335204 0.0013295823951730858 0.012117355668025178 0.9937679500029053 -0.05865041417339095 0.005117580223992604 0.02445359454808376
0.09378907878283 0.005493223430625074 0.026329470631791713 0.9932605899466745 -0.06294457834080783 0.0015393001197261094 0.012978497066098235 -0.0013010029940262182 -0.008189416581934119
 0.9932605899466745 -0.06294457834080783 0.005500836304724411 0.026328915420281762 -0.0013009407113896273 -0.008189416541728866 0.0014911674686907688 0.01298486932375035
 0.0015393001197261094 0.012978497066098235 -0.0013009407113896273 -0.008189416541728866 0.0054934220149508665 0.02633068062179686 0.9932606421941592 -0.06294332027713698
 -0.0013010029940262182 -0.008189416581934119 0.0014911674686907688 0.01298486932375035 0.9932606421941592 -0.06294332027713698 0.005500731334539463 0.02633016557944991
0.100041684035 0.005894327282643618 0.028221298234869248 0.992728415004206 -0.06725100371328818 0.0017174585069842027 0.013844540059625664 -0.00144926765279553 -0.00873916946444158
 0.992728415004206 -0.06725100371328818 0.005902988852238586 0.028220676723182462 -0.0014491970680191265 -0.008739169847504712 0.0016626665958011072 0.013851968456745753
 0.0017174585069842027 0.013844540059625664 -0.0014491970680191265 -0.008739169847504712 0.005894552808792313 0.028222584039514602 0.9927284743613637 -0.06724966071753356
 -0.00144926765279553 -0.00873916946444158 0.0016626665958011072 0.013851968456745753 0.9927284743613637 -0.06724966071753356 0.005902868555968499 0.02822200890693674
0.1059090909091 0.0062881992128663525 0.03001020435133192 0.9922061490794124 -0.07130416391488191 0.0018941211737218036 0.014656619444850368 -0.0015962988300113454 -0.009254739817188502
 0.9922061490794124 -0.07130416391488191 0.006297906767284549 0.03000951656077314 -0.0015962200083364084 -0.009254740660859342 0.0018326846087487574 0.014665140610396582
 0.0018941211737218036 0.014656619444850368 -0.0015962200083364084 -0.009254740660859342 0.006288451544109179 0.030011560490005338 0.9922062155610178 -0.07130274100532355
 -0.0015962988300113454 -0.009254739817188502 0.0018326846087487574 0.014665140610396582 0.9922062155610178 -0.07130274100532355 0.006297771065091211 0.03001092548835798
0.1062942892872 0.006314655310128822 0.03012810233076215 0.9921710811604005 -0.07157065932583351 0.0019060417693130506 0.014709909018772635 -0.001606220650927371 -0.009288573523173605
 0.9921710811604005 -0.07157065932583351 0.006324433633208512 0.03012741004813307 -0.001606141273467804 -0.009288574399288234 0.0018441555709539001 0.014718505494427683
 0.0019060417693130506 0.014709909018772635 -0.001606141273467804 -0.009288574399288234 0.006314909452506794 0.030129463058723115 0.9921711481253026 -0.07156923116196612
 -0.001606220650927371 -0.009288573523173605 0.0018441555709539001 0.014718505494427683 0.9921711481253026 -0.07156923116196612 0.006324296884623235 0.030128824006299713
0.11254689453939999 0.006754509973534396 0.032049582299497885 0.9915882918143045 -0.07590332913807439 0.0021051235552602783 0.015574446971079747 -0.0017719375845476415 -0.009837476499637787
 0.9915882918143045 -0.07590332913807439 0.006765473252091689 0.03204881461775004 -0.0017718489281385202 -0.009837477941328988 0.002035707651483312 0.015584329570604663
 0.0021051235552602783 0.015574446971079747 -0.0017718489281385202 -0.009837477941328988 0.0067547943949140335 0.03205101700813544 0.9915883668958098 -0.07590181555200066
 -0.0017719375845476415 -0.009837476499637787 0.002035707651483312 0.015584329570604663 0.9915883668958098 -0.07590181555200066 0.006765318908036395 0.032050310086074625
0.11879949979160001 0.007214191196965786 0.03398543627151775 0.9909797523315413 -0.08024878635718069 0.0023147747964978346 0.016437993691012096 -0.0019464913100366086 -0.010385723541239735
 0.9909797523315413 -0.08024878635718069 0.007226407792905548 0.03398458839964959 -0.00194639289256946 -0.01038572562373839 0.002237393458141468 0.01644928662458794
 0.0023147747964978346 0.016437993691012096 -0.00194639289256946 -0.01038572562373839 0.007214507547100083 0.033986943966676085 0.9909798360501576 -0.08024718707681147
 -0.0019464913100366086 -0.010385723541239735 0.002237393458141468 0.01644928662458794 0.9909798360501576 -0.08024718707681147 0.007226234692747985 0.03398616510005457
0.1250521050438 0.00769399624737486 0.03593536036342376 0.9903451702167274 -0.08460679419581214 0.002535063605596522 0.017300385790630417 -0.0021299518518511037 -0.01093315718380879
 0.9903451702167274 -0.08460679419581214 0.007707534698545355 0.03593442734154351 -0.002129843195259604 -0.01093315998500224 0.002449280875846302 0.017313219490716417
 0.002535063605596522 0.017300385790630417 -0.002129843195259604 -0.01093315998500224 0.007694346161984933 0.035936939996040196 0.990345263105481 -0.0846051089346149
 -0.0021299518518511037 -0.01093315718380879 0.002449280875846302 0.017313219490716417 0.990345263105481 -0.0846051089346149 0.007707341663731707 0.03593608497905963
0.131304710296 0.008194219609466471 0.037899048057191256 0.9896842552844951 -0.08897710649404898 0.0027660551743501362 0.0181614568000894 -0.002322386309616107 -0.011479617350767931
 0.9896842552844951 -0.08897710649404898 0.008209148645383853 0.037898024749875164 -0.0023222669398127276 -0.01147962095122933 0.002671434955020784 0.018175967977445754
 0.0027660551743501362 0.0181614568000894 -0.0023222669398127276 -0.01147962095122933 0.008194604708846814 0.037900698526948585 0.9896843578894685 -0.08897533494739877
 -0.002322386309616107 -0.011479617350767931 0.002671434955020784 0.018175967977445754 0.9896843578894685 -0.08897533494739877 0.008208934479086053 0.03789976301667808
0.1375573155481 0.008601502567554067 0.03961954586109625 0.9891104146685032 -0.0931027103499272 0.0029794628477500104 0.018995390312027446 -0.002495624419480318 -0.011999230297372222
 0.9891104146685032 -0.0931027103499272 0.008617894917015593 0.039618448154785144 -0.002495493448664934 -0.011999234695305191 0.002875790607722427 0.019011559970235844
 0.0029794628477500104 0.018995390312027446 -0.002495493448664934 -0.011999234695305191 0.00860192365677803 0.03962126656447294 0.989110527439506 -0.09310085234345526
 -0.002495624419480318 -0.011999230297372222 0.002875790607722427 0.019011559970235844 0.989110527439506 -0.09310085234345526 0.008617659406951236 0.03962026644873225
0.1438099208003 0.009023139551187104 0.04133073854854032 0.9885163229811668 -0.09721761962366679 0.0032015012859252672 0.019825765993863 -0.002675789266783773 -0.012515639588152591
 0.9885163229811668 -0.09721761962366679 0.009041064773508512 0.04132956248011344 -0.0026756461522793326 -0.012515644867622733 0.0030883807432464153 0.019843719308639915
 0.0032015012859252672 0.019825765993863 -0.0026756461522793326 -0.012515644867622733 0.0090235980813876 0.04133252838806231 0.9885164464634458 -0.09721567486068049
 -0.002675789266783773 -0.012515639588152591 0.0030883807432464153 0.019843719308639915 0.9885164464634458 -0.09721567486068049 0.009040806874898765 0.0413314604307644
0.1500625260525 0.00945897841794808 0.04303247624015702 0.9879021365958349 -0.1013217250325924 0.0034320922637001436 0.02065249264999396 -0.002862805882070365 -0.01302876115972466
 0.9879021365958349 -0.1013217250325924 0.00947850626853692 0.04303121759013174 -0.0028626500801188963 -0.013028767408521266 0.00330912956180332 0.020672359364507436
 0.0034320922637001436 0.02065249264999396 -0.0028626500801188963 -0.013028767408521266 0.00945947581568728 0.043034334076492826 0.9879022713454432 -0.10131969320566052
 -0.002862805882070365 -0.01302876115972466 0.00330912956180332 0.020672359364507436 0.9879022713454432 -0.10131969320566052 0.009478224930502342 0.043033194811258425
0.15631513130469998 0.009908865900625058 0.04472461357331086 0.9872680127304225 -0.10541491783173577 0.0036711565988668234 0.02147548065874336 -0.0030565983463963194 -0.013538512766599406
 0.9872680127304225 -0.10541491783173577 0.009930066336546358 0.04472326785755508 -0.00305642931205861 -0.01353852007635434 0.0035379603440324086 0.021497395035029242
