! Created with skrf 1.8.0 (http://scikit-rf.org).
# GHz S RI R 50.0 
!freq ReS11 ImS11 ReS12 ImS12 ReS13 ImS13
! ReS14 ImS14
! ReS21 ImS21 ReS22 ImS22 ReS23 ImS23
! ReS24 ImS24
! ReS31 ImS31 ReS32 ImS32 ReS33 ImS33
! ReS34 ImS34
! ReS41 ImS41 ReS42 ImS42 ReS43 ImS43
! ReS44 ImS44
!
0.0 0.001508907209096 0.0 0.9984910927824 0.0 5.808043690676e-05 0.0 -5.808043695207e-05 7.112802120643218e-21
 0.9984910927824 0.0 0.001508907209146 0.0 -5.808043695263e-05 7.112802120711799e-21 5.808043690916e-05 0.0
 5.808043690676e-05 0.0 -5.808043695263e-05 7.112802120711799e-21 0.001508907213369 0.0 0.9984910927866 0.0
 -5.808043695207e-05 7.112802120643218e-21 5.808043690916e-05 0.0 0.9984910927866 0.0 0.001508907213393 0.0
0.005 0.0016233610589064327 0.001235634553926689 0.9983463371446843 -0.003160842091280758 8.103306793929775e-05 0.000632836512842467 -7.884582508527363e-05 -0.0003984623006091204
 0.9983463371446843 -0.003160842091280758 0.0016233383300882202 0.0012356478655763741 -7.884808451544147e-05 -0.000398464062622748 8.116977532034598e-05 0.0006327845588021856
 8.103306793929775e-05 0.000632836512842467 -7.884808451544147e-05 -0.000398464062622748 0.001623360110318093 0.0012357023929896584 0.9983463374995506 -0.003160775046844307
 -7.884582508527363e-05 -0.0003984623006091204 8.116977532034598e-05 0.0006327845588021856 0.9983463374995506 -0.003160775046844307 0.0016233399826116471 0.0012357141106060078
0.006252605252188 0.0016533529047473453 0.0015494024715568167 0.9983081773174327 -0.00395182976819491 8.75444338763863e-05 0.0007913592435514988 -8.469153425355214e-05 -0.0004985930785118832
 0.9983081773174327 -0.00395182976819491 0.0016533173749065074 0.0015494193474062965 -8.469504991985428e-05 -0.0004985952516984951 8.775802810860582e-05 0.0007912917744648699
 8.75444338763863e-05 0.0007913592435514988 -8.469504991985428e-05 -0.0004985952516984951 0.0016533513469146341 0.0015494872881601813 0.9983081777976385 -0.0039517459470702855
 -8.469153425355214e-05 -0.0004985930785118832 8.775802810860582e-05 0.0007912917744648699 0.9983081777976385 -0.0039517459470702855 0.0016533198838908055 0.0015495021622933855
0.01250521050438 0.001811084961409754 0.0031312608486473693 0.9981062250728415 -0.00790448602702783 0.00012464396614026053 0.0015831284178293911 -0.00011776736397676863 -0.0009996149817580722
 0.9981062250728415 -0.00790448602702783 0.0018109430829723351 0.0031312969919210817 -0.00011778121669378613 -0.000999619007233608 0.00012549577770614768 0.0015829662705900093
 0.00012464396614026053 0.0015831284178293911 -0.00011778121669378613 -0.000999619007233608 0.001811078174421528 0.0031314302650044005 0.9981062264319112 -0.007904318619332865
 -0.00011776736397676863 -0.0009996149817580722 0.00012549577770614768 0.0015829662705900093 0.9981062264319112 -0.007904318619332865 0.0018109525464140722 0.003131462289658784
0.01875781575657 0.0019824418508924283 0.004735649195619894 0.9978849889920577 -0.011867593314334469 0.00016946595718525601 0.0023758352178119375 -0.000157408348841251 -0.0015023577292814837
 0.9978849889920577 -0.011867593314334469 0.0019821230307234703 0.004735707207164557 -0.00015743923797706993 -0.0015023632259367292 0.00017137957038317316 0.00237554596319556
 0.00016946595718525601 0.0023758352178119375 -0.00015743923797706993 -0.0015023632259367292 0.0019824261681940353 0.004735903139636082 0.9978849916309016 -0.0118673424051044
 -0.000157408348841251 -0.0015023577292814837 0.00017137957038317316 0.00237554596319556 0.9978849916309016 -0.0118673424051044 0.0019821438860718036 0.004735954729753329
0.02501042100875 0.002167752416058951 0.0063603304924093875 0.9976442124123115 -0.01584307730158992 0.00022209768941341797 0.0031695163899735966 -0.0002037117898125079 -0.0020065988093802326
 0.9976442124123115 -0.01584307730158992 0.002167186194424342 0.006360413156077405 -0.00020376633392858875 -0.0020066053290860447 0.0002254969173650587 0.0031690625588344156
 0.00022209768941341797 0.0031695163899735966 -0.00020376633392858875 -0.0020066053290860447 0.0021677241617730557 0.00636066894676076 0.9976442167262614 -0.015842742914423766
 -0.0002037117898125079 -0.0020065988093802326 0.0002254969173650587 0.0031690625588344156 0.9976442167262614 -0.015842742914423766 0.002167222867043302 0.0063607426329786425
0.03126302626094 0.0023673319038893335 0.00800415614613469 0.9973836253589334 -0.019831765239365456 0.0002826266512051859 0.003964136750880783 -0.0002567723255317866 -0.0025121822758936794
 0.9973836253589334 -0.019831765239365456 0.0023664479160703474 0.008004266423607782 -0.0002568570761823345 -0.002512189302648 0.0002879359287237279 0.0039634758040398435
 0.0002826266512051859 0.003964136750880783 -0.0002568570761823345 -0.002512189302648 0.002367287402009388 0.008004579106074071 0.9973836317495252 -0.019831347378442662
 -0.0002567723255317866 -0.0025121822758936794 0.0002879359287237279 0.0039634758040398435 0.9973836317495252 -0.019831347378442662 0.0023665048317933267 0.00800467752946544
0.037515631513130004 0.00258148881008544 0.00966637921571724 0.9971029516047206 -0.023834072670123756 0.00035113982773343555 0.004759632727983992 -0.00031668260994401726 -0.0030189752191526697
 0.9971029516047206 -0.023834072670123756 0.0025802167609500254 0.009666520244157546 -0.00031680405874711336 -0.0030189821688480457 0.0003587843880615969 0.004758717004534869
 0.00035113982773343555 0.004759632727983992 -0.00031680405874711336 -0.0030189821688480457 0.0025814243775647357 0.009666886695351833 0.9971029604739817 -0.02383357131400615
 -0.00031668260994401726 -0.0030189752191526697 0.0003587843880615969 0.004758717004534869 0.9971029604739817 -0.02383357131400615 0.002580298340544711 0.00966701260435951
0.043768236765320004 0.002810527512994982 0.01134644541868745 0.9968019115148612 -0.027850212350930294 0.00042772336463130206 0.0055559255867808546 -0.00038353355181196995 -0.003526854542008458
 0.9968019115148612 -0.027850212350930294 0.0028087971572417375 0.011346620509533807 -0.00038369813471708555 -0.0035268607623520523 0.00043812932383645217 0.0055547022456976
 0.00042772336463130206 0.0055559255867808546 -0.00038369813471708555 -0.0035268607623520523 0.0028104394608632157 0.011347037445522125 0.9968019232679477 -0.027849627458228134
 -0.00038353355181196995 -0.003526854542008458 0.00043812932383645217 0.0055547022456976 0.9968019232679477 -0.027849627458228134 0.002808907817727988 0.011347193693911456
0.050020842017509996 0.0030547495019726516 0.013043906769983111 0.9964802234881108 -0.03188028054259469 0.0005124623594163798 0.0063529269058865655 -0.00045741440240834396 -0.004035701487501173
 0.9964802234881108 -0.03188028054259469 0.0030524906269350665 0.013044119408327398 -0.00045762850233813454 -0.004035706258007293 0.0005260567518557803 0.006351337864864046
 0.0005124623594163798 0.0063529269058865655 -0.00045762850233813454 -0.004035706258007293 0.003054634134007924 0.01304458337676748 0.9964802385333194 -0.03187961206042002
 -0.00045741440240834396 -0.004035701487501173 0.0005260567518557803 0.006351337864864046 0.9964802385333194 -0.03187961206042002 0.003052634780944707 0.013044772922049681
0.055454545454549996 0.003279548943433534 0.014532879670892363 0.9961836786367007 -0.03539386212180477 0.0005927915347074345 0.007046046590865017 -0.0005273963309561984 -0.0044785997774196085
 0.9961836786367007 -0.03539386212180477 0.0032767737615475422 0.014533127904299436 -0.0005276586066500594 -0.0044786026498865655 0.0006095042942501432 0.007044088458032123
 0.0005927915347074345 0.007046046590865017 -0.0005276586066500594 -0.0044786026498865655 0.003279406830357144 0.014533629817417562 0.9961836968779227 -0.035393120939554976
 -0.0005273963309561984 -0.0044785997774196085 0.0006095042942501432 0.007044088458032123 0.9961836968779227 -0.035393120939554976 0.003276950602714543 0.014533850780445626
0.056273447269699996 0.0033144540066277696 0.01475837918158527 0.9961376048019678 -0.03592429933908678 0.000605440710726864 0.007150541257272172 -0.0005384127734842902 -0.004545398963222032
 0.9961376048019678 -0.03592429933908678 0.0033115964167106616 0.014758633026128032 -0.0005386827222264287 -0.004545401495211911 0.0006226514949017392 0.007148523130371002
 0.000605440710726864 0.007150541257272172 -0.0005386827222264287 -0.004545401495211911 0.0033143076200584684 0.014759140413676599 0.9961376235520288 -0.0359235471958628
 -0.0005384127734842902 -0.004545398963222032 0.0006226514949017392 0.007148523130371002 0.9961376235520288 -0.0359235471958628 0.0033117784725971568 0.014759366316182543
0.06252605252188 0.003589938338336316 0.016489519152410634 0.995773772172916 -0.03998223990887603 0.0007067409952840997 0.007948667682019545 -0.0006266146206535301 -0.005055830073048151
 0.995773772172916 -0.03998223990887603 0.0035864118402644815 0.016489818035878897 -0.0006269467000850553 -0.005055829509689426 0.0007279970401426404 0.00794615171681093
 0.0007067409952840997 0.007948667682019545 -0.0006269467000850553 -0.005055829509689426 0.0035897572218285554 0.016490365067600172 0.9957737950439154 -0.03998140401487676
 -0.0006266146206535301 -0.005055830073048151 0.0007279970401426404 0.00794615171681093 0.9957737950439154 -0.03998140401487676 0.003586636200072155 0.016490630489891266
0.06877865777407 0.0038814980683255923 0.018237009880183674 0.9953884421565903 -0.044054036317696145 0.0008164443605248738 0.008747200571487831 -0.0007221042062917553 -0.005566877246898689
 0.9953884421565903 -0.044054036317696145 0.0038772324570583217 0.018237357810236117 -0.0007225046492346754 -0.005566872663236229 0.000842175418121466 0.008744112586141816
 0.0008164443605248738 0.008747200571487831 -0.0007225046492346754 -0.005566872663236229 0.0038812785029393327 0.018237940542271815 0.9953884695701035 -0.04405311657181369
 -0.0007221042062917553 -0.005566877246898689 0.000842175418121466 0.008744112586141816 0.9953884695701035 -0.04405311657181369 0.003877503517151394 0.01823824874898717
0.07503126302626001 0.00418942711408266 0.02000055244411221 0.9949813314606349 -0.048139594284296296 0.0009346304261897172 0.009546030231972449 -0.0008249640503232483 -0.006078421690727792
 0.9949813314606349 -0.048139594284296296 0.0041843521588367325 0.020000953604592905 -0.0008254390411579093 -0.006078412093726156 0.0009652670936604475 0.009542290552572686
 0.0009346304261897172 0.009546030231972449 -0.0008254390411579093 -0.006078412093726156 0.004189165372746315 0.020001567930432496 0.9949813638436946 -0.048138590566836455
 -0.0008249640503232483 -0.006078421690727792 0.0009652670936604475 0.009542290552572686 0.9949813638436946 -0.048138590566836455 0.00418467430865888 0.020001922288690164
0.08128386827845 0.004514017765706064 0.02177985994512411 0.9945521571996309 -0.05223879698285939 0.001061377191881795 0.010345043258469125 -0.000935274871981421 -0.00659034303146185
 0.9945521571996309 -0.05223879698285939 0.0045080631963209375 0.021780318697852685 -0.000935830547008272 -0.006590327360064881 0.001097350865768496 0.01034056665668715
 0.001061377191881795 0.010345043258469125 -0.000935830547008272 -0.006590327360064881 0.004513710112162208 0.021780960341212966 0.9945521949847651 -0.05223770916125519
 -0.000935274871981421 -0.00659034303146185 0.001097350865768496 0.01034056665668715 0.9945521949847651 -0.05223770916125519 0.004508440816916732 0.021781364321319472
0.08753647353064001 0.004855560672695465 0.02357465345197153 0.9941006371152703 -0.056351509044007535 0.0011967609472430668 0.011144122803580746 -0.0010531155270664043 -0.00710251907098673
 0.9941006371152703 -0.056351509044007535 0.004848656166179968 0.023575174338911542 -0.0010537579747455876 -0.007102496196168472 0.0012385037710035268 0.011138818434921482
 0.0011967609472430668 0.011144122803580746 -0.0010537579747455876 -0.007102496196168472 0.004855203362293301 0.023575838854211023 0.994100680741773 -0.056350336970611925
 -0.0010531155270664043 -0.00710251907098673 0.0012385037710035268 0.011138818434921482 0.994100680741773 -0.056350336970611925 0.004849093630188851 0.023576296030870778
0.09378907878283 0.00521434480407479 0.025384659108305074 0.9936264897720023 -0.060477579399771976 0.0013408561852047522 0.01194314876994047 -0.0011785629400852483 -0.00761482562092049
 0.9936264897720023 -0.060477579399771976 0.005206419970944717 0.025385246854258078 -0.0011792982011254187 -0.00761479434575015 0.0013888009913922694 0.01193692011266145
 0.0013408561852047522 0.01194314876994047 -0.0011792982011254187 -0.00761479434575015 0.005213934082878824 0.025385929624878418 0.9936265396861497 -0.06047632291129997
 -0.0011785629400852483 -0.00761482562092049 0.0013888009913922694 0.01193692011266145 0.9936265396861497 -0.06047632291129997 0.005206921641020371 0.02538644367894631
0.100041684035 0.00559065738883853 0.027209606006686555 0.9931294347368426 -0.06461684336653672 0.0014937355161536137 0.012741997958856287 -0.001311692033944513 -0.00812713638581733
 0.9931294347368426 -0.06461684336653672 0.005581641759410734 0.02721026552246097 -0.001312526101281005 -0.008127095445539466 0.0015483157639408114 0.012734742753554743
 0.0014937355161536137 0.012741997958856287 -0.001312526101281005 -0.008127095445539466 0.0055901894935921 0.027210961755777793 0.9931294913925367 -0.06461550228637583
 -0.001311692033944513 -0.00812713638581733 0.0015483157639408114 0.012734742753554743 0.9931294913925367 -0.06461550228637583 0.005582211987616747 0.02721153647634225
0.1059090909091 0.005959983041886664 0.028935473879450207 0.9926419182326695 -0.06851294573189116 0.0016452485436859393 0.013491360053933374 -0.0014436708930824797 -0.008607775112199456
 0.9926419182326695 -0.06851294573189116 0.005949879641323418 0.028936205378704526 -0.0014446030875546547 -0.008607723891609497 0.0017064501755853652 0.013483043375127924
 0.0016452485436859393 0.013491360053933374 -0.0014446030875546547 -0.008607723891609497 0.005959458063707315 0.02893690972871486 0.9926419816346648 -0.06851152509716665
 -0.0014436708930824797 -0.008607775112199456 0.0017064501755853652 0.013483043375127924 0.9926419816346648 -0.06851152509716665 0.005950518151631445 0.028937544923276548
0.1062942892872 0.005984783841402429 0.029049224595134277 0.9926091927476368 -0.06876912420087229 0.0016554695834226727 0.013540544187666386 -0.0014525756569877782 -0.008639322882125034
 0.9926091927476368 -0.06876912420087229 0.005974606852463504 0.029049960981066377 -0.0014535144757342547 -0.008639270944232618 0.0017171192919197345 0.013532154377845282
 0.0016554695834226727 0.013540544187666386 -0.0014535144757342547 -0.008639270944232618 0.005984254999270857 0.02905066570755178 0.992609256606918 -0.06876769833685298
 -0.0014525756569877782 -0.008639322882125034 0.0017171192919197345 0.013532154377845282 0.992609256606918 -0.06876769833685298 0.005975249978921361 0.029051304994661353
0.11254689453939999 0.006397007676960129 0.030903245459117587 0.9920654858734271 -0.07293423428515015 0.00182612697918456 0.014338658385559679 -0.001601284508442956 -0.009151254383545448
 0.9920654858734271 -0.07293423428515015 0.006385598657887553 0.030904064009344038 -0.0016023339757149163 -0.009151190047876153 0.0018952806571985083 0.014329020059011975
 0.00182612697918456 0.014338658385559679 -0.0016023339757149163 -0.009151190047876153 0.006396414105454181 0.03090477207619146 0.9920655574071713 -0.07293272343228316
 -0.001601284508442956 -0.009151254383545448 0.0018952806571985083 0.014329020059011975 0.9920655574071713 -0.07293272343228316 0.0063863190100256475 0.030905479943935752
0.11879949979160001 0.0068276104173553565 0.032771398371884045 0.9914980376687123 -0.07711197605072075 0.002005774161005325 0.015136208675556841 -0.0017578870623164925 -0.009662797885058241
 0.9914980376687123 -0.07711197605072075 0.006814898576400186 0.03277230457888369 -0.0017590530270134648 -0.009662719683888396 0.002082866733376145 0.015125202006797536
 0.002005774161005325 0.015136208675556841 -0.0017590530270134648 -0.009662719683888396 0.0068269483236962 0.032773010647722874 0.9914981173567271 -0.07711037998935812
 -0.0017578870623164925 -0.009662797885058241 0.002082866733376145 0.015125202006797536 0.9914981173567271 -0.07711037998935812 0.0068157004674585615 0.032773791228037676
0.1250521050438 0.00727687149014041 0.03465341154733814 0.9909065733240696 -0.08130214270412232 0.002194475368680681 0.015933060444946492 -0.0019224494900734565 -0.010173818083474217
 0.9909065733240696 -0.08130214270412232 0.007262785900766904 0.03465441110712995 -0.001923737752679871 -0.01017372448161425 0.0022799420996915576 0.015920559638664084
 0.002194475368680681 0.015933060444946492 -0.001923737752679871 -0.01017372448161425 0.007276137071691184 0.03465510965046464 0.9909066616563679 -0.08130046119894706
 -0.0019224494900734565 -0.010173818083474217 0.0022799420996915576 0.015920559638664084 0.9909066616563679 -0.08130046119894706 0.0072636736290086325 0.034655967197282096
0.131304710296 0.007745068122595164 0.036549011044083035 0.9902908198134608 -0.08550451880819605 0.002392292541300588 0.016729076411642913 -0.0020950355827502494 -0.010684177367035794
 0.9902908198134608 -0.08550451880819605 0.007729537709490347 0.03655010986196075 -0.002096451894950729 -0.01068406676198689 0.0024865689551030524 0.01671494964735064
 0.002392292541300588 0.016729076411642913 -0.002096451894950729 -0.01068406676198689 0.007744257566169624 0.0365507951553454 0.9902909172903348 -0.08550275161094673
 -0.0020950355827502494 -0.010684177367035794 0.0024865689551030524 0.01671494964735064 0.9902909172903348 -0.08550275161094673 0.0077305155568441215 0.03655173404939463
0.1375573155481 0.008124554563087803 0.038211121069642626 0.9897584696448432 -0.08947196099906683 0.0025735958640706966 0.017499379524162913 -0.002249907589510219 -0.011169090627851107
 0.9897584696448432 -0.08947196099906683 0.00810750386203437 0.03821230374252703 -0.002251460541000839 -0.011168962907790663 0.0026768963097118692 0.01748364834906839
 0.0025735958640706966 0.017499379524162913 -0.002251460541000839 -0.011168962907790663 0.008123664815533383 0.038212991334111886 0.9897585766872649 -0.08947010797543081
 -0.002249907589510219 -0.011169090627851107 0.0026768963097118692 0.01748364834906839 0.9897585766872649 -0.08947010797543081 0.00810857549028856 0.03821399490151066
0.1438099208003 0.008517387301737993 0.03986461243937321 0.9892074361456626 -0.09342947688734297 0.002762199990785817 0.018266683853991886 -0.002410972116609597 -0.01165119560975066
 0.9892074361456626 -0.09342947688734297 0.008498744388913923 0.03986588367923587 -0.0024126679000749385 -0.01165104919818887 0.002874920388543567 0.0182492278595675
 0.002762199990785817 0.018266683853991886 -0.0024126679000749385 -0.01165104919818887 0.008516414672520858 0.03986656902300796 0.989207553252413 -0.09342753779762018
 -0.002410972116609597 -0.01165119560975066 0.002874920388543567 0.0182492278595675 0.989207553252413 -0.09342753779762018 0.008499913945340349 0.039867640433796044
0.1500625260525 0.008923430396702254 0.041509350693295075 0.9886378593554549 -0.09737697194923271 0.002958040088412067 0.019030915326614564 -0.002578164913321687 -0.0121304200714535
 0.9886378593554549 -0.09737697194923271 0.008903123186340291 0.04151071548934633 -0.0025800097089285347 -0.012130253328418591 0.003080574044711184 0.019011609715659857
 0.002958040088412067 0.019030915326614564 -0.0025800097089285347 -0.012130253328418591 0.008922371194467451 0.04151139377103238 0.9886379870343948 -0.09737494654255809
 -0.002578164913321687 -0.0121304200714535 0.003080574044711184 0.019011609715659857 0.9886379870343948 -0.09737494654255809 0.008904394795496448 0.04151253641126421
0.15631513130469998 0.00934254696793052 0.04314520543726534 0.9880498799996795 -0.10131435192043962 0.0031610505693244603 0.01979200112397159 -0.002751420946618213 -0.0126066932867774
 0.9880498799996795 -0.10131435192043962 0.00932050320756007 0.04314666906293442 -0.0027534209216793027 -0.01260650450907855 0.0032937893422470806 0.019770716755797803
