! Created with skrf 1.8.0 (http://scikit-rf.org).
# GHz S RI R 50.0 
!freq ReS11 ImS11 ReS12 ImS12 ReS13 ImS13
! ReS14 ImS14
! ReS21 ImS21 ReS22 ImS22 ReS23 ImS23
! ReS24 ImS24
! ReS31 ImS31 ReS32 ImS32 ReS33 ImS33
! ReS34 ImS34
! ReS41 ImS41 ReS42 ImS42 ReS43 ImS43
! ReS44 ImS44
!
0.0 0.001352815722384 0.0 0.9986471842627 0.0 5.186649937918e-05 0.0 -5.186649918476e-05 6.351814220959514e-21
 0.9986471842627 0.0 0.001352815722359 0.0 -5.186649918413e-05 6.351814220882361e-21 5.186649937826e-05 0.0
 5.186649937918e-05 0.0 -5.186649918413e-05 6.351814220882361e-21 0.001352815729652 0.0 0.99864718427 0.0
 -5.186649918476e-05 6.351814220959514e-21 5.186649937826e-05 0.0 0.99864718427 0.0 0.001352815729658 0.0
0.005 0.0014550250017259618 0.0011070103751076813 0.9985179531183042 -0.0028343563626317746 7.241401027599505e-05 0.0005721633981783595 -7.035299012827938e-05 -0.000359107440415514
 0.9985179531183042 -0.0028343563626317746 0.0014550372145015957 0.0011070032864385563 -7.035551907354977e-05 -0.00035910940016160576 7.233605436878479e-05 0.0005721931314800723
 7.241401027599505e-05 0.0005721633981783595 -7.035551907354977e-05 -0.00035910940016160576 0.0014550232868632378 0.0011069441435096112 0.9985179527861134 -0.002834423434522069
 -7.035299012827938e-05 -0.000359107440415514 7.233605436878479e-05 0.0005721931314800723 0.9985179527861134 -0.002834423434522069 0.0014550382683907411 0.0011069353768009753
0.006252605252188 0.0014816858184017675 0.0013881383376896938 0.9984840532485991 -0.003543661291248878 7.8207620470626e-05 0.0007154899773639659 -7.55046321294013e-05 -0.0004493571463787346
 0.9984840532485991 -0.003543661291248878 0.0014817049085563434 0.0013881292951121625 -7.550856729374907e-05 -0.0004493595636972505 7.808582129687047e-05 0.0007155285507546163
 7.8207620470626e-05 0.0007154899773639659 -7.550856729374907e-05 -0.0004493595636972505 0.0014816831986714043 0.0013880555712574467 0.9984840527904079 -0.003543745112965354
 -7.55046321294013e-05 -0.0004493571463787346 7.808582129687047e-05 0.0007155285507546163 0.9984840527904079 -0.003543745112965354 0.0014817066175162748 0.0013880444239533969
0.01250521050438 0.001621186722881534 0.0028055728516453446 0.9983056059763179 -0.007088264829539147 0.00011102713170348638 0.001431384854063005 -0.00010437056505285203 -0.0009009850697786221
 0.9983056059763179 -0.007088264829539147 0.0016212629417963994 0.0028055529419377372 -0.00010438607248743722 -0.0009009895529035028 0.0001105414267179824 0.0014314770656503558
 0.00011102713170348638 0.001431384854063005 -0.00010438607248743722 -0.0009009895529035028 0.0016211768131430707 0.002805407631482307 0.9983056047014174 -0.00708843222881412
 -0.00010437056505285203 -0.0009009850697786221 0.0001105414267179824 0.0014314770656503558 0.9983056047014174 -0.00708843222881412 0.0016212703267716366 0.0028053834195892182
0.01875781575657 0.0017715933636855668 0.00424342544822032 0.9981116419065091 -0.01064246828540345 0.00015039590748411037 0.002148182276255054 -0.00013854682370554526 -0.001354251258166175
 0.9981116419065091 -0.01064246828540345 0.0017717646160596177 0.0042433927483890195 -0.00013858140560675598 -0.001354257395841832 0.00014930482612692393 0.002148345876673023
 0.00015039590748411037 0.002148182276255054 -0.00013858140560675598 -0.001354257395841832 0.0017715715092702575 0.004243177983458662 0.99811163946123 -0.010642719177286297
 -0.00013854682370554526 -0.001354251258166175 0.00014930482612692393 0.002148345876673023 0.99811163946123 -0.010642719177286297 0.001771781643128242 0.004243138624784185
0.02501042100875 0.0019331741094147517 0.005699715142866421 0.9979019534462192 -0.014208024962269063 0.00019638611060895686 0.002865930545609488 -0.0001781137252583759 -0.001808968643398741
 0.9979019534462192 -0.014208024962269063 0.0019334782129134737 0.005699667642251217 -0.00017817479489636126 -0.001808975956914902 0.00019444807907021636 0.0028661858588824697
 0.00019638611060895686 0.002865930545609488 -0.00017817479489636126 -0.001808975956914902 0.0019331356609462783 0.005699385659355081 0.9979019494768939 -0.014208359298832478
 -0.0001781137252583759 -0.001808968643398741 0.00019444807907021636 0.0028661858588824697 0.9979019494768939 -0.014208359298832478 0.0019335088481203001 0.005699328921675191
0.03126302626094 0.0021061860751365076 0.007173438029636399 0.9976763213890902 -0.017785703798337445 0.0002490706212903966 0.003584612498085351 -0.000223149616005602 -0.0022650116583956084
 0.9976763213890902 -0.017785703798337445 0.0021066607793486774 0.007173373632398427 -0.00022324451316729535 -0.002265019600605946 0.0002460437290398631 0.0035849824341353427
 0.0002490706212903966 0.003584612498085351 -0.00022324451316729535 -0.002265019600605946 0.0021061263837783128 0.0071730267807750304 0.9976763155387988 -0.01778612155814589
 -0.000223149616005602 -0.0022650116583956084 0.0002460437290398631 0.0035849824341353427 0.9976763155387988 -0.01778612155814589 0.002106708987935386 0.007172950284071253
0.037515631513130004 0.0022908809796093484 0.008663951293378451 0.9974345209064267 -0.021375905300865156 0.0003085223019140278 0.00430418538923147 -0.0002737314533693946 -0.002722276337772427
 0.9974345209064267 -0.021375905300865156 0.0022915639787311638 0.008663867819722577 -0.0002738674523884732 -0.0027222842927599796 0.00030416419312366473 0.004304695469103087
 0.0003085223019140278 0.00430418538923147 -0.0002738674523884732 -0.0027222842927599796 0.0022907954014019277 0.008663458577704435 0.9974345128191736 -0.02137640647177183
 -0.0002737314533693946 -0.002722276337772427 0.00030416419312366473 0.004304695469103087 0.9974345128191736 -0.02137640647177183 0.0022916337307464746 0.00866335979502176
0.043768236765320004 0.0024875074231579886 0.010170785790760833 0.9971763239610414 -0.024978848904172183 0.00037481366265913773 0.005024593008255013 -0.0003299350197655164 -0.003180668192780623
 0.9971763239610414 -0.024978848904172183 0.002488436365376462 0.01017068097803236 -0.0003301193342583736 -0.003180675475741346 0.0003688814808140019 0.005025271393305594
 0.00037481366265913773 0.005024593008255013 -0.0003301193342583736 -0.003180675475741346 0.002487391316798471 0.010170211939327862 0.9971763132800183 -0.024979433496571904
 -0.0003299350197655164 -0.003180668192780623 0.0003688814808140019 0.005025271393305594 0.9971763132800183 -0.024979433496571904 0.0024885316348325567 0.010170088196932723
0.050020842017509996 0.0026963119448623583 0.011693568567715142 0.9969015005029722 -0.028594650389374903 0.00044801666512066186 0.005745770691008363 -0.00039183500872243883 -0.0036400971891148597
 0.9969015005029722 -0.028594650389374903 0.002697524440747035 0.011693440071135952 -0.0003920747947470353 -0.003640103046290448 0.0004402670258994797 0.005746648213747008
 0.00044801666512066186 0.005745770691008363 -0.0003920747947470353 -0.003640103046290448 0.0026961606705550967 0.01169291396102914 0.9969014868687514 -0.028595318419835775
 -0.00039183500872243883 -0.0036400971891148597 0.0004402670258994797 0.005746648213747008 0.9969014868687514 -0.028595318419835775 0.0026976492044957336 0.011692762438390495
0.055454545454549996 0.002887849828517771 0.013029619379230202 0.9966489881644082 -0.031747373742273634 0.0005173007676083392 0.006373066573853498 -0.000450311380461957 -0.004040128798449908
 0.9966489881644082 -0.031747373742273634 0.002889339261797727 0.013029468333042445 -0.00045060514140943914 -0.004040132750866513 0.0005077736271472157 0.00637414429138067
 0.0005173007676083392 0.006373066573853498 -0.00045060514140943914 -0.004040132750866513 0.0028876642266447384 0.013028894940796896 0.9966489716711526 -0.031748114302057324
 -0.000450311380461957 -0.004040128798449908 0.0005077736271472157 0.00637414429138067 0.9966489716711526 -0.031748114302057324 0.002889492890503707 0.013028716871409753
0.056273447269699996 0.0029175395792607707 0.013231984839357183 0.9966098191682544 -0.032223359841556984 0.0005282025874667761 0.0064676477676137226 -0.0004595050535696598 -0.0041004752918590145
 0.9966098191682544 -0.032223359841556984 0.0029190732090448052 0.01323183023257592 -0.00045980741171829564 -0.0041004789005238095 0.0005183915683936397 0.006468757963324015
 0.0005282025874667761 0.0064676477676137226 -0.00045980741171829564 -0.0041004789005238095 0.0029173485002277053 0.01323124990434202 0.9966098022202452 -0.03222411133644561
 -0.0004595050535696598 -0.0041004752918590145 0.0005183915683936397 0.006468757963324015 0.9966098022202452 -0.03222411133644561 0.0029192314487465594 0.013231067633796816
0.06252605252188 0.0031514341607355757 0.01478575709196665 0.9963010477271387 -0.03586498248581186 0.0006154419214389511 0.007190148912547446 -0.0005330177253917499 -0.004561715110011047
 0.9963010477271387 -0.03586498248581186 0.0031533264813025704 0.014785573867472352 -0.0005333897023271749 -0.004561715578450085 0.00060332506279313 0.007191528051278195
 0.0006154419214389511 0.007190148912547446 -0.0005333897023271749 -0.004561715578450085 0.0031511986430747155 0.014784942301635655 0.9963010271023777 -0.03586581748227192
 -0.0005330177253917499 -0.004561715110011047 0.00060332506279313 0.007191528051278195 0.9963010271023777 -0.03586581748227192 0.003153522183012417 0.014784726167895655
0.06877865777407 0.0033982384966092273 0.016354632609682448 0.9959749534044535 -0.03951949110035187 0.0007098042853255624 0.007913194943398877 -0.000612444515388058 -0.005023729094508007
 0.9959749534044535 -0.03951949110035187 0.0034005270482056595 0.016354418179089097 -0.0006128931048868565 -0.0050237254620404065 0.0006951365987761751 0.00791488206206332
 0.0007098042853255624 0.007913194943398877 -0.0006128931048868565 -0.0050237254620404065 0.003397953909345177 0.016353738484383526 0.995974928737348 -0.0395204096456625
 -0.000612444515388058 -0.005023729094508007 0.0006951365987761751 0.00791488206206332 0.995974928737348 -0.0395204096456625 0.003400764202314318 0.016353485223822645
0.07503126302626001 0.003658194457141425 0.017938375571802286 0.9956313031189314 -0.04318683386100795 0.0008113583476161652 0.008636703333603855 -0.0006978558060402697 -0.005486429024601709
 0.9956313031189314 -0.04318683386100795 0.003660916769718833 0.017938127265825447 -0.0006983879497184671 -0.005486420261580969 0.0007938943307808253 0.008638740268082668
 0.0008113583476161652 0.008636703333603855 -0.0006983879497184671 -0.005486420261580969 0.0036578561731627573 0.01793740268258019 0.9956312740416097 -0.04318783600978873
 -0.0006978558060402697 -0.005486429024601709 0.0007938943307808253 0.008638740268082668 0.9956312740416097 -0.04318783600978873 0.003661199371928922 0.017937108882380034
0.08128386827845 0.0039315430184731805 0.019536761801411815 0.9952698636788005 -0.04686693953658692 0.0009201717566912363 0.009360588545078296 -0.0007893208357110678 -0.00594972567677068
 0.9952698636788005 -0.04686693953658692 0.003934736618260975 0.019536476869821753 -0.0007899434235959115 -0.005949710684612596 0.0008996654119860659 0.009363019962220161
 0.0009201717566912363 0.009360588545078296 -0.0007899434235959115 -0.005949710684612596 0.003931146414416206 0.01953571076603911 0.9952698298201637 -0.04686802535545287
 -0.0007893208357110678 -0.00594972567677068 0.0008996654119860659 0.009363019962220161 0.9952698298201637 -0.04686802535545287 0.003935068668747417 0.019535372863132026
0.08753647353064001 0.004218524271031046 0.021149575114746424 0.9948904019451585 -0.0505597210862589 0.001036311074555358 0.010084762268819993 -0.0008869076582923357 -0.006413528588231066
 0.9948904019451585 -0.0505597210862589 0.004222226686777401 0.021149250726040025 -0.0008876275291371896 -0.006413506199434733 0.0010125159317951 0.010087635698229066
 0.001036311074555358 0.010084762268819993 -0.0008876275291371896 -0.006413506199434733 0.004218064728221601 0.021148446604596555 0.994890362930709 -0.05056089064742553
 -0.0008869076582923357 -0.006413528588231066 0.0010125159317951 0.010087635698229066 0.994890362930709 -0.05056089064742553 0.004222612190883899 0.02114806088443532
0.09378907878283 0.00451937740631032 0.022776604729212366 0.9944926849754896 -0.05426507820075092 0.0011598417127806472 0.010809133590699002 -0.0009906830998101732 -0.00687774589786409
 0.9944926849754896 -0.05426507820075092 0.004523626175707764 0.02277623797013456 -0.0009915070413148456 -0.006877714876058154 0.0011325108547307653 0.010812499456324214
 0.0011598417127806472 0.010809133590699002 -0.0009915070413148456 -0.006877714876058154 0.00451885031105191 0.022775399464952314 0.9944926404272587 -0.05426633158701067
 -0.0009906830998101732 -0.00687774589786409 0.0011325108547307653 0.010812499456324214 0.9944926404272587 -0.05426633158701067 0.004524069143742089 0.022774962060082594
0.100041684035 0.0048343406864362354 0.024417643350515876 0.9940764801539961 -0.057982899167514104 0.0012908278706646062 0.011533609120347245 -0.001100712711956285 -0.007342284226833652
 0.9940764801539961 -0.057982899167514104 0.004839173362352223 0.024417231225419223 -0.0011016474608637633 -0.007342243266808938 0.0012597139610630468 0.011537520771722593
 0.0012908278706646062 0.011533609120347245 -0.0011016474608637633 -0.007342243266808938 0.00483374143074043 0.024416362105301268 0.9940764296902226 -0.057984236469589695
 -0.001100712711956285 -0.007342284226833652 0.0012597139610630468 0.011537520771722593 0.9940764296902226 -0.057984236469589695 0.004839677809850654 0.02441586899375334
0.1059090909091 0.0051429447304277565 0.025970142232419606 0.9936688947560909 -0.061482907251644674 0.0014205812704990019 0.012213462060107913 -0.0012097091645941172 -0.007778411556353205
 0.9936688947560909 -0.061482907251644674 0.005148359513888214 0.02596968473746328 -0.0012107539760952562 -0.0077783600220153295 0.0013856920720753552 0.012217937027619039
 0.0014205812704990019 0.012213462060107913 -0.0012107539760952562 -0.0077783600220153295 0.005142273574465125 0.025968790435390753 0.9936688383900999 -0.06148432339147097
 -0.0012097091645941172 -0.007778411556353205 0.0013856920720753552 0.012217937027619039 0.9936688383900999 -0.06148432339147097 0.005148925310058428 0.025968241251882313
0.1062942892872 0.005163651402352487 0.02607248573829722 0.9936415553118546 -0.06171306226034057 0.0014293324741422697 0.012258093086443596 -0.0012170607238988621 -0.00780704859556521
 0.9936415553118546 -0.06171306226034057 0.005169105559366979 0.026072025168272207 -0.0012181129659933581 -0.007806996323328051 0.0013941877880268207 0.01226260682966066
 0.0014293324741422697 0.012258093086443596 -0.0012181129659933581 -0.007806996323328051 0.0051629753844871645 0.02607112933611871 0.9936414985464161 -0.06171448357900518
 -0.0012170607238988621 -0.00780704859556521 0.0013941877880268207 0.01226260682966066 0.9936414985464161 -0.06171448357900518 0.005169675507076484 0.026070576339604374
0.11254689453939999 0.005507545823089763 0.0277409276057174 0.9931876788409889 -0.06545543679810749 0.0015754171157004448 0.012982487414987549 -0.00133978999229768 -0.008271942360633996
 0.9931876788409889 -0.06545543679810749 0.0055136590638020224 0.027740415427497726 -0.0013409663623575345 -0.008271877333465424 0.0015359935716214904 0.012987662543227836
 0.0015754171157004448 0.012982487414987549 -0.0013409663623575345 -0.008271877333465424 0.0055067884478315395 0.02773949692435721 0.9931876153832859 -0.06545694224186786
 -0.00133978999229768 -0.008271942360633996 0.0015359935716214904 0.012987662543227836 0.9931876153832859 -0.06545694224186786 0.005514298537289803 0.027738879706287474
0.11879949979160001 0.005866259136449465 0.029422764762067916 0.9927146198025787 -0.06920988396392813 0.0017291419946518065 0.013706691791948045 -0.0014689619501689047 -0.008736867170269065
 0.9927146198025787 -0.06920988396392813 0.00587306909804711 0.0294221977267882 -0.0014702690318403172 -0.008736787876787316 0.0016851911886130396 0.013712590615691179
 0.0017291419946518065 0.013706691791948045 -0.0014702690318403172 -0.008736787876787316 0.005865415816457078 0.029421260734480495 0.992714549257266 -0.06921147364805329
 -0.0014689619501689047 -0.008736867170269065 0.0016851911886130396 0.013712590615691179 0.992714549257266 -0.06921147364805329 0.0058737821283138016 0.029420574797750315
0.1250521050438 0.006240025386030178 0.031117792436419624 0.9922221480324447 -0.07297625744644849 0.001890565857722363 0.014430603716749077 -0.0016046365546259504 -0.009201722931982353
 0.9922221480324447 -0.07297625744644849 0.0062475697465874495 0.031117167208093433 -0.0016060808802065604 -0.009201627792224831 0.001841839098785532 0.01443729159347378
 0.001890565857722363 0.014430603716749077 -0.0016060808802065604 -0.009201627792224831 0.006239091541788384 0.031116216047450528 0.9922220699989257 -0.07297793149685115
 -0.0016046365546259504 -0.009201722931982353 0.001841839098785532 0.01443729159347378 0.9922220699989257 -0.07297793149685115 0.006248360369707584 0.03111545673199196
0.131304710296 0.006629077401579039 0.0328258047298825 0.9917100342442435 -0.07675440395628458 0.0020597459399678696 0.015154118548205833 -0.0017468722335687462 -0.009666407790971006
 0.9917100342442435 -0.07675440395628458 0.006637393886921536 0.032825117883713145 -0.001748460283845189 -0.009666295156468132 0.0020059942873789315 0.015161663911655354
 0.0020597459399678696 0.015154118548205833 -0.001748460283845189 -0.009666295156468132 0.006628048462741488 0.03282415701846603 0.991709948316626 -0.07675616250773626
 -0.0017468722335687462 -0.009666407790971006 0.0020059942873789315 0.015161663911655354 0.991709948316626 -0.07675616250773626 0.006638266144195794 0.03282331949863598
0.1375573155481 0.006939793944926533 0.03432351742683485 0.9912719300831568 -0.0803210164275284 0.0022143101036207 0.015854358037855842 -0.0018733592074991507 -0.01010801161437557
 0.9912719300831568 -0.0803210164275284 0.006948923965984082 0.03432278321853088 -0.0018751005745398328 -0.010107881513549155 0.002155406494092381 0.015862744792591095
 0.0022143101036207 0.015854358037855842 -0.0018751005745398328 -0.010107881513549155 0.006938665881303983 0.03432179934709247 0.9912718359029865 -0.08032285953889765
 -0.0018733592074991507 -0.01010801161437557 0.002155406494092381 0.015862744792591095 0.9912718359029865 -0.08032285953889765 0.006949881273628416 0.03432089652852104
0.1438099208003 0.007261282020784347 0.03581410297535721 0.990818710406742 -0.08387935926121326 0.002375127751572481 0.01655219328189858 -0.0020049181416439644 -0.010547440243460486
 0.990818710406742 -0.08387935926121326 0.00727126395023912 0.03581331919186493 -0.002006819792807415 -0.010547291070703227 0.002310844952055859 0.01656148352684139
 0.002375127751572481 0.01655219328189858 -0.002006819792807415 -0.010547291070703227 0.007260050371679571 0.0358123155951443 0.9908186075702495 -0.08388128706060022
 -0.0020049181416439644 -0.010547440243460486 0.002310844952055859 0.01656148352684139 0.9908186075702495 -0.08388128706060022 0.007272310243491699 0.035811343828216866
0.1500625260525 0.007593438313301418 0.03729745957858304 0.9903504818887837 -0.08742936720209496 0.0025421496385590586 0.017247567111470036 -0.0021415016810061014 -0.010984640048631936
 0.9903504818887837 -0.08742936720209496 0.0076043105963732715 0.03729662387642201 -0.002143570571826782 -0.010984470134036195 0.002472261596401199 0.017257825198622585
 0.0025421496385590586 0.017247567111470036 -0.002143570571826782 -0.010984470134036195 0.007592098632880586 0.0372956040080388 0.9903503699877074 -0.08743137982293041
 -0.0021415016810061014 -0.010984640048631936 0.002472261596401199 0.017257825198622585 0.9903503699877074 -0.08743137982293041 0.007605449808190052 0.037294559455155536
0.15631513130469998 0.007936158890941299 0.03877348863532682 0.9898673516149795 -0.09097097477884375 0.0027153260041427717 0.017940423209944864 -0.0022830619502952057 -0.011419558456470575
