! Created with skrf 1.8.0 (http://scikit-rf.org).
# GHz S RI R 50.0 
!freq ReS11 ImS11 ReS12 ImS12 ReS13 ImS13
! ReS14 ImS14
! ReS21 ImS21 ReS22 ImS22 ReS23 ImS23
! ReS24 ImS24
! ReS31 ImS31 ReS32 ImS32 ReS33 ImS33
! ReS34 ImS34
! ReS41 ImS41 ReS42 ImS42 ReS43 ImS43
! ReS44 ImS44
!
0.0 0.001616386024914 0.0 0.9983836139749 0.0 6.25898768105e-05 0.0 -6.258987565606e-05 7.665049088122472e-21
 0.9983836139749 0.0 0.001616386024884 0.0 -6.258987565518e-05 7.665049088014704e-21 6.258987680999e-05 0.0
 6.25898768105e-05 0.0 -6.258987565518e-05 7.665049088014704e-21 0.001616386022063 0.0 0.998383613972 0.0
 -6.258987565606e-05 7.665049088122472e-21 6.258987680999e-05 0.0 0.998383613972 0.0 0.001616386022076 0.0
0.005 0.0017393400406174964 0.0013199335104616284 0.9982280125073482 -0.003385749407479398 8.819893873293347e-05 0.000703133213574317 -8.552413403210589e-05 -0.00043895100472431554
 0.9982280125073482 -0.003385749407479398 0.0017393574941130896 0.0013199233661933892 -8.552260159614567e-05 -0.00043894992244069897 8.808488895634891e-05 0.0007031765069314547
 8.819893873293347e-05 0.000703133213574317 -8.552260159614567e-05 -0.00043894992244069897 0.001739339995951635 0.0013198663217626656 0.9982280121450656 -0.0033858164757614466
 -8.552413403210589e-05 -0.00043895100472431554 8.808488895634891e-05 0.0007031765069314547 0.9982280121450656 -0.0033858164757614466 0.0017393568202830815 0.0013198564239240357
0.006252605252188 0.0017716514740434835 0.001655110179650192 0.9981868505241019 -0.004233005158375936 9.556177178679763e-05 0.0008792458509943635 -9.203147654277261e-05 -0.0005492552293550097
 0.9981868505241019 -0.004233005158375936 0.0017716787572406153 0.0016550973447540611 -9.202909120513167e-05 -0.0005492538970880764 9.538357833020422e-05 0.0008793021027361065
 9.556177178679763e-05 0.0008792458509943635 -9.202909120513167e-05 -0.0005492538970880764 0.0017716514793398805 0.0016550262189576625 0.9981868500332399 -0.004233088978933004
 -9.203147654277261e-05 -0.0005492552293550097 9.538357833020422e-05 0.0008793021027361065 0.9981868500332399 -0.004233088978933004 0.0017716777799599043 0.0016550136768214917
0.01250521050438 0.0019421204548912363 0.003344873241054957 0.997968190193037 -0.008466750656044445 0.00013803044488067058 0.001758771785925749 -0.00012912565857033578 -0.0011011408205757174
 0.997968190193037 -0.008466750656044445 0.0019422293948516613 0.0033448460219779362 -0.00012911624902102052 -0.0011011383837970484 0.00013731980347433492 0.0017589073745505218
 0.00013803044488067058 0.001758771785925749 -0.00012911624902102052 -0.0011011383837970484 0.001942121011156787 0.0033447056764856894 0.9979681887742506 -0.00846691806225447
 -0.00012912565857033578 -0.0011011408205757174 0.00013731980347433492 0.0017589073745505218 0.9979681887742506 -0.00846691806225447 0.0019422260457644073 0.003344678890739719
0.01875781575657 0.002128179791651538 0.005058628881727502 0.9977273509301436 -0.012711526455910881 0.00019009565257147653 0.0026391684911631188 -0.00017398990273795355 -0.0016548330979617512
 0.9977273509301436 -0.012711526455910881 0.002128424580081787 0.005058585617034203 -0.00017396890655732434 -0.0016548298338109066 0.00018849916642345999 0.0026394111477081052
 0.00019009565257147653 0.0026391684911631188 -0.00017396890655732434 -0.0016548298338109066 0.002128181446721848 0.005058377953035258 0.9977273481582243 -0.01271177737440836
 -0.00017398990273795355 -0.0016548330979617512 0.00018849916642345999 0.0026394111477081052 0.9977273481582243 -0.01271177737440836 0.002128417495456592 0.005058335113129182
0.02501042100875 0.002330203986576413 0.00679395588284411 0.9974640391641572 -0.01696937118426914 0.0002518588746432989 0.003520462277176242 -0.0002267375176454661 -0.002210066065447464
 0.9974640391641572 -0.01696937118426914 0.0023306387081094785 0.006793894821616115 -0.0002267004230352255 -0.002210062304800881 0.0002490229605532347 0.0035208442347896096
 0.0002518588746432989 0.003520462277176242 -0.0002267004230352255 -0.002210062304800881 0.002330207281504364 0.006793621831947937 0.9974640346131646 -0.016969705585239123
 -0.0002267375176454661 -0.002210066065447464 0.0002490229605532347 0.0035208442347896096 0.9974640346131646 -0.016969705585239123 0.0023306265414839255 0.00679356103880524
0.03126302626094 0.0025485520405064952 0.008549598634635775 0.9971779469021234 -0.021241145587532262 0.00032342200965191563 0.004402596483524983 -0.00028747837810079235 -0.002766649945853901
 0.9971779469021234 -0.021241145587532262 0.002549230706356073 0.008549517941106049 -0.0002874207154416421 -0.0027666460739087556 0.0003189925800683812 0.004403154506276446
 0.00032342200965191563 0.004402596483524983 -0.0002874207154416421 -0.0027666460739087556 0.0025485575082973915 0.008549181710609305 0.9971779401415851 -0.021241563480030198
 -0.00028747837810079235 -0.002766649945853901 0.0003189925800683812 0.004403154506276446 0.9971779401415851 -0.021241563480030198 0.0025492121247391386 0.008549100981074823
0.037515631513130004 0.002783575001192978 0.010324731151560554 0.9968687595459276 -0.025527268456547996 0.00040488629135813225 0.005285481490632568 -0.00035631972533566 -0.0033244211738284084
 0.9968687595459276 -0.025527268456547996 0.0027845515721244985 0.010324628907699286 -0.0003562370629864068 -0.003324417630341632 0.0003985086154249028 0.005286256920131675
 0.00040488629135813225 0.005285481490632568 -0.0003562370629864068 -0.003324417630341632 0.002783583169582786 0.010324231632046824 0.9968687501419724 -0.025527769867435473
 -0.00035631972533566 -0.0033244211738284084 0.0003985086154249028 0.005286256920131675 0.9968687501419724 -0.025527769867435473 0.002784525257230844 0.01032412890124929
0.043768236765320004 0.0030356188812055594 0.012118733122885372 0.9965361590830527 -0.02982794050535042 0.000496351774725956 0.006169009937197567 -0.0004333664482593203 -0.003883227187911325
 0.9965361590830527 -0.02982794050535042 0.003036947286191975 0.012118607329983766 -0.0004332543901308161 -0.0038832244673381797 0.00048767041636306555 0.006170048744710727
 0.000496351774725956 0.006169009937197567 -0.0004332543901308161 -0.0038832244673381797 0.003035630275518236 0.012118151311334858 0.9965361465995233 -0.02982852548231666
 -0.0004333664482593203 -0.003883227187911325 0.00048767041636306555 0.006170048744710727 0.9965361465995233 -0.02982852548231666 0.00303691193636502 0.012118024434138387
0.050020842017509996 0.0033050260039357627 0.013931097361314334 0.9961798257097909 -0.03414323685025015 0.0005979170263388002 0.007053063007534162 -0.0005187211767990654 -0.004442920156730786
 0.9961798257097909 -0.03414323685025015 0.0033067601570610687 0.013930945940800807 -0.0005185753609512741 -0.004442918808299975 0.0005865758229552409 0.0070544158482810275
 0.0005979170263388002 0.007053063007534162 -0.0005185753609512741 -0.004442918808299975 0.003305041147397122 0.013930433588630664 0.9961798097061648 -0.03414390546040861
 -0.0005187211767990654 -0.004442920156730786 0.0005865758229552409 0.0070544158482810275 0.9961798097061648 -0.03414390546040861 0.003306714486210191 0.01393028034041136
0.055454545454549996 0.0035535136361589605 0.015520666675582512 0.9958506381785603 -0.03790523438478038 0.0006944578221818358 0.007821659375314307 -0.0005997221595777177 -0.0049299170863136765
 0.9958506381785603 -0.03790523438478038 0.0035556441818381003 0.015520491234033965 -0.0005995434906851828 -0.0049299174189529745 0.0006805153235346683 0.007823329938015931
 0.0006944578221818358 0.007821659375314307 -0.0005995434906851828 -0.0049299174189529745 0.0035535324618491656 0.015519931965182176 0.9958506187547097 -0.037905975745446366
 -0.0005997221595777177 -0.0049299170863136765 0.0006805153235346683 0.007823329938015931 0.9958506187547097 -0.037905975745446366 0.003555588509494344 0.015519753931614299
0.056273447269699996 0.0035921356896003774 0.01576138436719723 0.99579943879843 -0.038473152375525156 0.0007096789003189734 0.007937513524970201 -0.0006124842957385278 -0.005003353903717809
 0.99579943879843 -0.038473152375525156 0.0035943295057897263 0.01576120516091986 -0.0006123003935045424 -0.0050033545315071835 0.000695320966414418 0.007939235793332647
 0.0007096789003189734 0.007937513524970201 -0.0006123003935045424 -0.0050033545315071835 0.0035921551045108987 0.015760638990325745 0.9957994188299713 -0.03847390470693694
 -0.0006124842957385278 -0.005003353903717809 0.000695320966414418 0.007939235793332647 0.9957994188299713 -0.03847390470693694 0.003594272243769525 0.015760457067304823
0.06252605252188 0.003897284613476142 0.017609197353063162 0.9953946775423128 -0.04281762664253206 0.0008317323618280243 0.00882222765130986 -0.0007147539133163001 -0.005564382230893258
 0.9953946775423128 -0.04281762664253206 0.003899992023320915 0.017608988123161088 -0.0007145276287611441 -0.00556438549387174 0.0008140001089257104 0.008824379536278142
 0.0008317323618280243 0.00882222765130986 -0.0007145276287611441 -0.00556438549387174 0.003897308821546254 0.017608370764430014 0.9953946531584588 -0.04281846279495509
 -0.0007147539133163001 -0.005564382230893258 0.0008140001089257104 0.008824379536278142 0.9953946531584588 -0.04281846279495509 0.003899921915508325 0.017608157783451685
0.06877865777407 0.0042208069865709175 0.01947416736264694 0.994965221427419 -0.04717655870937198 0.0009641703334223135 0.009707065909021066 -0.0008256258073759879 -0.006125857925363996
 0.994965221427419 -0.04717655870937198 0.004224081951134973 0.019473925790873675 -0.0008253528770620379 -0.006125864537447127 0.0009427055016873326 0.009709712449562813
 0.0009641703334223135 0.009707065909021066 -0.0008253528770620379 -0.006125864537447127 0.0042208365109600325 0.019473259980708455 0.9949651921718796 -0.04717747880385709
 -0.0008256258073759879 -0.006125857925363996 0.0009427055016873326 0.009709712449562813 0.9949651921718796 -0.04717747880385709 0.004223997759530069 0.019473013478600514
0.07503126302626001 0.0045630346309868544 0.021355943835288157 0.9945107506020949 -0.05154981651096154 0.0011070835564914296 0.01059188383793623 -0.0009451933562575834 -0.006687632137099366
 0.9945107506020949 -0.05154981651096154 0.004566931156192147 0.021355667521845614 -0.0009448695491758143 -0.006687642867162183 0.0010815272549849326 0.010595094978019899
 0.0011070835564914296 0.01059188383793623 -0.0009448695491758143 -0.006687642867162183 0.00456306999730598 0.021354956108793767 0.9945107160124637 -0.05155082068553732
 -0.0009451933562575834 -0.006687632137099366 0.0010815272549849326 0.010595094978019899 0.9945107160124637 -0.05155082068553732 0.004566831659543235 0.02135467354131289
0.08128386827845 0.004924296989318642 0.02325418832331421 0.9940309461866584 -0.055937243092169305 0.001260560461761852 0.011476532436040295 -0.0010735474597965311 -0.0072495539786089965
 0.9940309461866584 -0.055937243092169305 0.004928869140264409 0.02325387478521739 -0.001073168577405736 -0.00724956965050688 0.0012305532157856562 0.011480383079148528
 0.001260560461761852 0.011476532436040295 -0.001073168577405736 -0.00724956965050688 0.004924338726017192 0.023253120735310717 0.9940309057928918 -0.05593833149796221
 -0.0010735474597965311 -0.0072495539786089965 0.0012305532157856562 0.011480383079148528 0.9940309057928918 -0.05593833149796221 0.004928753133789105 0.02325279947557526
0.08753647353064001 0.005304921088005519 0.025168570166144117 0.9935254905401675 -0.06033866089115724 0.0014246870457018915 0.012360858477931018 -0.001210776453771687 -0.007811470253184606
 0.9935254905401675 -0.06033866089115724 0.005310223003701694 0.02516821683508007 -0.0012103383302126474 -0.007811491745759935 0.0013898688495985016 0.012365428540933684
 0.0014246870457018915 0.012360858477931018 -0.0012103383302126474 -0.007811491745759935 0.005304969728491678 0.025167423226177724 0.9935254438644525 -0.06033983370001585
 -0.001210776453771687 -0.007811470253184606 0.0013898688495985016 0.012365428540933684 0.9935254438644525 -0.06033983370001585 0.005310089300105397 0.025167060562588703
0.09378907878283 0.005705231472649342 0.027098763384720358 0.9929940675022727 -0.06475387480903422 0.001599546750875422 0.013244704747744463 -0.0013569660195753958 -0.00837322527505016
 0.9929940675022727 -0.06475387480903422 0.005711317379931772 0.02709836760445048 -0.001356464521856741 -0.008373253522124204 0.0015595571255994577 0.013250079214011192
 0.001599546750875422 0.013244704747744463 -0.001356464521856741 -0.008373253522124204 0.0057052875556611315 0.027097537637837957 0.9929940140584002 -0.06475513220460359
 -0.0013569660195753958 -0.00837322527505016 0.0015595571255994577 0.013250079214011192 0.9929940140584002 -0.06475513220460359 0.00571116480939437 0.02709713077156443
0.100041684035 0.006125550119157019 0.029044444424297107 0.9924363626162193 -0.06918267443876527 0.0017852203491000225 0.014127910221173032 -0.001512199090302027 -0.00893466074696518
 0.9924363626162193 -0.06918267443876527 0.006132474347400542 0.0290440034474364 -0.0015116301186382567 -0.008934696737325826 0.0017396984037895064 0.014134179192861886
 0.0017852203491000225 0.014127910221173032 -0.0015116301186382567 -0.008934696737325826 0.0061256141900054946 0.029043140442935884 0.992436301908679 -0.06918401662442888
 -0.001512199090302027 -0.00893466074696518 0.0017396984037895064 0.014134179192861886 0.992436301908679 -0.06918401662442888 0.0061323017580261745 0.02904268648481811
0.1059090909091 0.006538456350852199 0.03088405813675937 0.9918888342452982 -0.07335078982077589 0.0019693599509622377 0.014955975434297991 -0.0016661652109706332 -0.00946107438871701
 0.9918888342452982 -0.07335078982077589 0.0065462167704541776 0.030883572164565564 -0.0016655292233831848 -0.009461118593549119 0.001918317974311959 0.014963170356253873
 0.0019693599509622377 0.014955975434297991 -0.0016655292233831848 -0.009461118593549119 0.006538528420599546 0.030882681291263005 0.9918887662622058 -0.07335221176969027
 -0.0016661652109706332 -0.00946107438871701 0.001918317974311959 0.014963170356253873 0.9918887662622058 -0.07335221176969027 0.006546024364281912 0.03088218043130435
0.1062942892872 0.0065661963294651885 0.03100529045139156 0.991852063338893 -0.07362483574732391 0.0019817858266175706 0.015010310214418615 -0.0016765557541779607 -0.009495615677664545
 0.991852063338893 -0.07362483574732391 0.006574013325169404 0.031004801435731297 -0.0016759152423878973 -0.009495660455021683 0.0019303703238570033 0.0150175689638189
 0.0019817858266175706 0.015010310214418615 -0.0016759152423878973 -0.009495660455021683 0.006566268941684026 0.031003908841639668 0.991851994862459 -0.07362626293970012
 -0.0016765557541779607 -0.009495615677664545 0.0019303703238570033 0.0150175689638189 0.991851994862459 -0.07362626293970012 0.006573819583526799 0.03100340480873678
0.11254689453939999 0.007027486615249384 0.03298097806127231 0.9912408592420892 -0.07808012235515398 0.0021893182706379214 0.01589173650649972 -0.0018501131562094373 -0.010055926332709143
 0.9912408592420892 -0.07808012235515398 0.007036250956534295 0.032980438065498746 -0.0018493970720947599 -0.010055980995657883 0.002131647694902797 0.01590008552639987
 0.0021893182706379214 0.01589173650649972 -0.0018493970720947599 -0.010055980995657883 0.007027568331244721 0.032979519457476514 0.9912407824811234 -0.07808163478934563
 -0.0018501131562094373 -0.010055926332709143 0.002131647694902797 0.01590008552639987 0.9912407824811234 -0.07808163478934563 0.007036034947911199 0.032978962268882576
0.11879949979160001 0.007509734571200273 0.03497118227043915 0.9906024422074478 -0.08254828653874106 0.0024078897571187187 0.01677201744720206 -0.0020329453983242607 -0.010615426206730715
 0.9906024422074478 -0.08254828653874106 0.007519500982674567 0.0349705882493372 -0.002032149744174174 -0.010615491908681938 0.0023436023860428433 0.016781562500170055
 0.0024078897571187187 0.01677201744720206 -0.002032149744174174 -0.010615491908681938 0.007509825963641172 0.034969647340154154 0.9906023566349583 -0.08254988446301956
 -0.0020329453983242607 -0.010615426206730715 0.0023436023860428433 0.016781562500170055 0.9906023566349583 -0.08254988446301956 0.007519261611335276 0.034969033812376225
0.1250521050438 0.008013250741111254 0.03697557573501926 0.9899365066158649 -0.08702907001539063 0.0026375692395535703 0.01765097805515515 -0.0022251234383407637 -0.01117394601261274
 0.9899365066158649 -0.08702907001539063 0.00802407410822987 0.03697492453407056 -0.0022242442513683886 -0.01117402396173401 0.0025663032179943294 0.017661830221654056
 0.0026375692395535703 0.01765097805515515 -0.0022242442513683886 -0.01117402396173401 0.008013352393989483 0.03697396517427412 0.9899364116929202 -0.08703075369570848
 -0.0022251234383407637 -0.01117394601261274 0.0025663032179943294 0.017661830221654056 0.9899364116929202 -0.08703075369570848 0.008023810298281739 0.036973292016040604
0.131304710296 0.00853834247734659 0.038993828116892566 0.9892427495336706 -0.09152220458889831 0.002878422438584373 0.018528440107180407 -0.002426714988182519 -0.011731313686590259
 0.9892427495336706 -0.09152220458889831 0.008550277861625207 0.0389931164662322 -0.002425748341043792 -0.01173140514569615 0.0027998158552925696 0.018540715832518706
 0.002878422438584373 0.018528440107180407 -0.002425748341043792 -0.01173140514569615 0.008538454987216445 0.03899214265370045 0.9892426447088858 -0.09152397430495335
 -0.002426714988182519 -0.011731313686590259 0.0027998158552925696 0.018540715832518706 0.9892426447088858 -0.09152397430495335 0.008549988557193357 0.03899140646013155
0.1375573155481 0.00896736257987158 0.04076222555654293 0.9886388708311223 -0.09576390389743378 0.0031012237622281714 0.019378128271960223 -0.00260859481605184 -0.01226121210029248
 0.9886388708311223 -0.09576390389743378 0.008980469765480996 0.040761463873514946 -0.0026075351434574263 -0.012261317232816194 0.003015101097170112 0.019391813362804426
 0.0031012237622281714 0.019378128271960223 -0.0026075351434574263 -0.012261317232816194 0.0089674875289284 0.0407604652133931 0.9886387556462299 -0.09576575980372204
 -0.00260859481605184 -0.01226121210029248 0.003015101097170112 0.019391813362804426 0.9886387556462299 -0.09576575980372204 0.008980152759793416 0.040759677483707984
0.1438099208003 0.00941154774793764 0.04252082328649944 0.9880135997004516 -0.09999436502020201 0.0033330254583480087 0.02022404813600067 -0.0027977369110002174 -0.012787697277367989
 0.9880135997004516 -0.09999436502020201 0.009425882762858133 0.04252000892993272 -0.002796580041388169 -0.012787817322854689 0.0032390583665943564 0.020239249360583012
 0.0033330254583480087 0.02022404813600067 -0.002796580041388169 -0.012787817322854689 0.009411685929558484 0.04251898875023576 0.9880134736052323 -0.09999630738913841
 -0.0027977369110002174 -0.012787697277367989 0.0032390583665943564 0.020239249360583012 0.9880134736052323 -0.09999630738913841 0.00942553681921933 0.042518146842036426
0.1500625260525 0.009870734295976095 0.04426946007544324 0.9873671042014898 -0.10421346828836765 0.0035737435053048794 0.021066102352333173 -0.0029940604104445726 -0.01331067898113103
 0.9873671042014898 -0.10421346828836765 0.00988635336274845 0.04426859020906595 -0.0029928021864606205 -0.013310815228258688 0.0034716057389319824 0.02108293037277715
 0.0035737435053048794 0.021066102352333173 -0.0029928021864606205 -0.013310815228258688 0.009870886527750207 0.04426755205607843 0.9873669666352626 -0.10421549740267948
 -0.0029940604104445726 -0.01331067898113103 0.0034716057389319824 0.02108293037277715 0.9873669666352626 -0.10421549740267948 0.00988597724995135 0.04426665313785149
0.15631513130469998 0.010344757288112235 0.04600797952760018 0.9866995533458283 -0.10842109476824789 0.003823292832505112 0.021904195311528676 -0.003197483407574737 -0.013830068961351534
 0.9866995533458283 -0.10842109476824789 0.01036171682935518 0.046007051112122326 -0.003196119686357718 -0.013830222747615454 0.0037126602739866363 0.021922764641126347
