! Created with skrf 1.8.0 (http://scikit-rf.org).
# GHz S RI R 50.0 
!freq ReS11 ImS11 ReS12 ImS12 ReS13 ImS13
! ReS14 ImS14
! ReS21 ImS21 ReS22 ImS22 ReS23 ImS23
! ReS24 ImS24
! ReS31 ImS31 ReS32 ImS32 ReS33 ImS33
! ReS34 ImS34
! ReS41 ImS41 ReS42 ImS42 ReS43 ImS43
! ReS44 ImS44
!
0.0 0.001801497363782 0.0 0.9981985026306 0.0 7.016033700223e-05 0.0 -7.016033602447e-05 8.592163093946992e-21
 0.9981985026306 0.0 0.001801497363796 0.0 -7.016033602563e-05 8.592163094089052e-21 7.016033700189e-05 0.0
 7.016033700223e-05 0.0 -7.016033602563e-05 8.592163094089052e-21 0.001801497346748 0.0 0.9981985026135 0.0
 -7.016033602447e-05 8.592163093946992e-21 7.016033700189e-05 0.0 0.9981985026135 0.0 0.00180149734671 0.0
0.005 0.0019391924485229028 0.001468470609640133 0.9980241478422729 -0.003772957204761392 9.945913903079268e-05 0.0008003672781316441 -9.640842225046424e-05 -0.0004974260687476394
 0.9980241478422729 -0.003772957204761392 0.001939179574974672 0.001468478097036381 -9.640604435909437e-05 -0.0004974242040180515 9.954811232919114e-05 0.0008003333696411051
 9.945913903079268e-05 0.0008003672781316441 -9.640604435909437e-05 -0.0004974242040180515 0.0019391934875646784 0.0014684026781476758 0.998024147461444 -0.0037730242674863784
 -9.640842225046424e-05 -0.0004974260687476394 9.954811232919114e-05 0.0008003333696411051 0.998024147461444 -0.0037730242674863784 0.0019391777846710615 0.0014684119129165054
0.006252605252188 0.001975569558106484 0.0018413491458729029 0.9979777558804532 -0.00471707909852246 0.00010796292181713126 0.0010008176761325991 -0.00010394740942334097 -0.0006224155642608547
 0.9979777558804532 -0.00471707909852246 0.001975549434680953 0.001841358662534384 -0.00010394370958682398 -0.0006224132650330072 0.00010810193272717372 0.0010007736120244523
 0.00010796292181713126 0.0010008176761325991 -0.00010394370958682398 -0.0006224132650330072 0.0019755712592006832 0.0018412642384099606 0.9979777553612607 -0.004717162918750807
 -0.00010394740942334097 -0.0006224155642608547 0.00010810193272717372 0.0010007736120244523 0.9979777553612607 -0.004717162918750807 0.001975546711883127 0.0018412759513599844
0.01250521050438 0.00216860183878988 0.0037210418579772726 0.9977297763233439 -0.009434673657564112 0.00015743444439077488 0.002001793839352014 -0.00014741005583397606 -0.0012476940138762221
 0.9977297763233439 -0.009434673657564112 0.002168521488182904 0.0037210624637129533 -0.00014739547949667675 -0.0012476897665210493 0.0001579887578600892 0.0020016874141497096
 0.00015743444439077488 0.002001793839352014 -0.00014739547949667675 -0.0012476897665210493 0.002168609188210577 0.0037208722684209886 0.9977297747955957 -0.009434841076459907
 -0.00014741005583397606 -0.0012476940138762221 0.0001579887578600892 0.0020016874141497096 0.9977297747955957 -0.009434841076459907 0.0021685111590849264 0.0037208974177364135
0.01875781575657 0.0023810695932062415 0.005627147837290689 0.9974542176272672 -0.01416420446375007 0.00021869827458186384 0.003003586652023599 -0.00020069385885441703 -0.0018748549481923935
 0.9974542176272672 -0.01416420446375007 0.0023808890442498206 0.005627181184564062 -0.00020066135996408665 -0.0018748491802158466 0.00021994340083310892 0.0030033955537944416
 0.00021869827458186384 0.003003586652023599 -0.00020066135996408665 -0.0018748491802158466 0.0023810865559046246 0.005626893669780808 0.9974542146171834 -0.01416445541577326
 -0.00020069385885441703 -0.0018748549481923935 0.00021994340083310892 0.0030033955537944416 0.9974542146171834 -0.01416445541577326 0.0023808662554050024 0.005626934148304253
0.02501042100875 0.002613430802544931 0.007556919229216204 0.9971507185055364 -0.018907893052377403 0.00029187861053550293 0.0040062003822543355 -0.0002639382424062772 -0.002503562408335785
 0.9971507185055364 -0.018907893052377403 0.0026131101613647047 0.007556967036096647 -0.0002638808620867361 -0.002503555630654471 0.0002940900877549713 0.00400589839981163
 0.00029187861053550293 0.0040062003822543355 -0.0002638808620867361 -0.002503555630654471 0.00261346133961823 0.007556580539100411 0.9971507135260674 -0.018908227557406152
 -0.0002639382424062772 -0.002503562408335785 0.0002940900877549713 0.00400589839981163 0.9971507135260674 -0.018908227557406152 0.0026130700577213727 0.007556638391431504
0.03126302626094 0.002866124278201589 0.009508905832501779 0.9968189014111747 -0.02366664648776376 0.0003770992403335774 0.005009542575680594 -0.0003372776805099247 -0.0031335678453113924
 0.9968189014111747 -0.02366664648776376 0.0028656237027956115 0.009508969879608687 -0.0003371885327021721 -0.0031335606530395917 0.0003805528723668806 0.005009099575231322
 0.0003770992403335774 0.005009542575680594 -0.0003371885327021721 -0.0031335606530395917 0.0028661723643221247 0.00950848269408807 0.9968188939753913 -0.02366706458334752
 -0.0003372776805099247 -0.0031335678453113924 0.0003805528723668806 0.005009099575231322 0.9968188939753913 -0.02366706458334752 0.002865561441324276 0.009508560114012654
0.037515631513130004 0.0031395785218152976 0.01148213477201541 0.9964583818176753 -0.028440877639165522 0.0004744823280996653 0.00601348195012564 -0.00042084268231142524 -0.0037646522809296375
 0.9964583818176753 -0.028440877639165522 0.00313885820284624 0.01148221690089816 -0.00042071494641086985 -0.003764645353547886 0.0004794542805082856 0.0060128638374576885
 0.0004744823280996653 0.00601348195012564 -0.00042071494641086985 -0.003764645353547886 0.003139648139573496 0.011481627248730645 0.996458371430621 -0.028441379410186055
 -0.00042084268231142524 -0.0037646522809296375 0.0004794542805082856 0.0060128638374576885 0.996458371430621 -0.028441379410186055 0.0031387689462322593 0.011481726578526585
0.043768236765320004 0.0034342151077043767 0.013475860833864806 0.9960687720215369 -0.03323075478364518 0.0005841478175954968 0.007017866026848954 -0.0005147601191297106 -0.004396608727036686
 0.9960687720215369 -0.03323075478364518 0.0034332352531988852 0.013475962945995141 -0.0005145870357949053 -0.004396602828396117 0.0005909146532379813 0.007017034705136728
 0.0005841478175954968 0.007017866026848954 -0.0005145870357949053 -0.004396602828396117 0.003434310252951779 0.013475268999216387 0.9960687581826212 -0.03323134034100785
 -0.0005147601191297106 -0.004396608727036686 0.0005909146532379813 0.007017034705136728 0.9960687581826212 -0.03323134034100785 0.003433114174231413 0.013475392729906775
0.050020842017509996 0.0037504502356711694 0.015489463317140573 0.9956496831183226 -0.03803630469275426 0.0007062130558640983 0.008022528424204008 -0.0006191533160300535 -0.005029234946162183
 0.9956496831183226 -0.03803630469275426 0.003749171056160239 0.015489587373581963 -0.0006189281844176403 -0.005029230924432056 0.0007150517379038014 0.008021441750331468
 0.0007062130558640983 0.008022528424204008 -0.0006189281844176403 -0.005029230924432056 0.00375057491732317 0.01548878725242792 0.9956496653192644 -0.03803697417521069
 -0.0006191533160300535 -0.005029234946162183 0.0007150517379038014 0.008021441750331468 0.9956496653192644 -0.03803697417521069 0.0037490133383168323 0.015488938024658857
0.055454545454549996 0.0040431285743861515 0.017255060998838917 0.9952612394600271 -0.04222515326418336 0.0008224505368224851 0.008895699514779821 -0.0007184748742061529 -0.005579394120521327
 0.9952612394600271 -0.04222515326418336 0.00404155695020873 0.01725520576456051 -0.0007181991132748719 -0.005579392484126612 0.0008333149425033784 0.008894353530971873
 0.0008224505368224851 0.008895699514779821 -0.0007181991132748719 -0.005579392484126612 0.004043282190666403 0.01725431180333889 0.9952612177997409 -0.04222589581844938
 -0.0007184748742061529 -0.005579394120521327 0.0008333149425033784 0.008894353530971873 0.9952612177997409 -0.04222589581844938 0.004041363489811872 0.017254488337256645
0.056273447269699996 0.004088695497359264 0.01752239541028074 0.9952007261976119 -0.04285746319984448 0.000840792510594884 0.009027292456625244 -0.0007341420411988895 -0.005662329913813996
 0.9952007261976119 -0.04285746319984448 0.004087077192305306 0.017522543431832228 -0.0007338582172360072 -0.005662328701401053 0.0008519803855560571 0.009025904196995593
 0.000840792510594884 0.009027292456625244 -0.0007338582172360072 -0.005662328701401053 0.004088853738523056 0.017521635198619875 0.995200703921189 -0.04285821677951059
 -0.0007341420411988895 -0.005662329913813996 0.0008519803855560571 0.009025904196995593 0.995200703921189 -0.04285821677951059 0.0040868780312268635 0.01752181580406176
0.06252605252188 0.004449358257782656 0.019574156352015815 0.9947215131591679 -0.047694102990858904 0.0009879975365914707 0.010031973118411747 -0.0008598424406173656 -0.0062956919043379
 0.9947215131591679 -0.047694102990858904 0.004447361002642485 0.019574330419753608 -0.0008594933359438622 -0.006295694517790324 0.0010018123047359495 0.010030232904792599
 0.0009879975365914707 0.010031973118411747 -0.0008594933359438622 -0.006295694517790324 0.004449554096688366 0.019573312084409704 0.9947214858779225 -0.0476949408665576
 -0.0008598424406173656 -0.0062956919043379 0.0010018123047359495 0.010030232904792599 0.9947214858779225 -0.0476949408665576 0.00444711560700624 0.019573525467696903
0.06877865777407 0.004832841825652461 0.02164427486967923 0.9942116573215942 -0.05254605012664287 0.0011479361671359318 0.011036378297765477 -0.0009963669448951012 -0.006929117355627563
 0.9942116573215942 -0.05254605012664287 0.004830425758196239 0.02164447712621159 -0.000995946026057857 -0.006929124895539964 0.0011646558426945445 0.011034231583615002
 0.0011479361671359318 0.011036378297765477 -0.000995946026057857 -0.006929124895539964 0.004833079316235726 0.021643346644128456 0.994211624496832 -0.05254697252416211
 -0.0009963669448951012 -0.006929117355627563 0.0011646558426945445 0.011034231583615002 0.994211624496832 -0.05254697252416211 0.004830129351830332 0.021643595905369892
0.07503126302626001 0.0052395454976022415 0.02373229866425468 0.9936707739124759 -0.057413094529342144 0.0013207129233606372 0.01204030954729325 -0.00114382415458926 -0.007562400187225672
 0.9936707739124759 -0.057413094529342144 0.00523667070547528 0.023732531315206598 -0.0011433249426489138 -0.00756241383812238 0.0013406157882952623 0.012037697564616916
 0.0013207129233606372 0.01204030954729325 -0.0011433249426489138 -0.00756241383812238 0.005239828711246486 0.02373128658283844 0.993670734993243 -0.057414101703689206
 -0.00114382415458926 -0.007562400187225672 0.0013406157882952623 0.012037697564616916 0.993670734993243 -0.057414101703689206 0.005236318529636557 0.023731574980405595
0.08128386827845 0.005669864524061992 0.02583778744447988 0.9930984804830684 -0.06229499693033191 0.001506428631648155 0.01304356263240815 -0.001302318716231737 -0.008195331350627031
 0.9930984804830684 -0.06229499693033191 0.005666491031516978 0.02583805276070518 -0.0013017347865846094 -0.008195352380842812 0.001529793183142752 0.013040422349431527
 0.001506428631648155 0.01304356263240815 -0.0013017347865846094 -0.008195352380842812 0.005670197549588614 0.025836691615434188 0.9930984349043863 -0.062296089162890984
 -0.001302318716231737 -0.008195331350627031 0.001529793183142752 0.013040422349431527 0.9930984349043863 -0.062296089162890984 0.005666078345786545 0.025837022569440482
0.08753647353064001 0.006124190021856911 0.027960308105911793 0.9924943972751189 -0.06719149368523164 0.0017051802487601853 0.014045927916856903 -0.0014719511887916806 -0.008827698552945852
 0.9924943972751189 -0.06719149368523164 0.0061202777767037095 0.027960608426104375 -0.001471276171062805 -0.00882772831450033 0.0017322851424570334 0.014042191996596884
 0.0017051802487601853 0.014045927916856903 -0.001471276171062805 -0.00882772831450033 0.00612457696680808 0.027959128643298532 0.9924943444575269 -0.06719267128326648
 -0.0014719511887916806 -0.008827698552945852 0.0017322851424570334 0.014042191996596884 0.9924943444575269 -0.06719267128326648 0.006119799861790609 0.027959505739563798
0.09378907878283 0.00660290884992558 0.030099431312545357 0.9918581475557358 -0.07210230019826072 0.001917060691088948 0.015047190666247974 -0.0016528179053426203 -0.00945928607336772
 0.9918581475557358 -0.07210230019826072 0.006598417710848045 0.030099769046433456 -0.001652045483551311 -0.00945932600181908 0.0019481846800813135 0.015042787426077748
 0.001917060691088948 0.015047190666247974 -0.001652045483551311 -0.00945932600181908 0.0066033538416479486 0.03009816833347114 0.9918580869039629 -0.07210356349683433
 -0.0016528179053426203 -0.00945928607336772 0.0019481846800813135 0.015042787426077748 0.9918580869039629 -0.07210356349683433 0.006597869870368684 0.030098595327956626
0.100041684035 0.007106403460016989 0.03225472899107694 0.9911893579303567 -0.07702711344667801 0.002142158667637232 0.01604713128766231 -0.0018450108305088943 -0.010089874654568405
 0.9911893579303567 -0.07702711344667801 0.007101293183246185 0.03225510662319422 -0.0018441347432869566 -0.010089926268855381 0.002177580538157993 0.01604198465998995
 0.002142158667637232 0.01604713128766231 -0.0018441347432869566 -0.010089926268855381 0.007106910645846445 0.0322533826141005 0.9911892888312429 -0.07702846280919681
 -0.0018450108305088943 -0.010089874654568405 0.002177580538157993 0.01604198465998995 0.9911892888312429 -0.07702846280919681 0.007100670745057731 0.03225386343798442
0.1059090909091 0.007601749720480063 0.034291575919513546 0.9905318456869979 -0.08166098286868101 0.002365485631106258 0.01698406734501801 -0.002035742529839493 -0.010680508161680922
 0.9905318456869979 -0.08166098286868101 0.007596021744761476 0.03429199332193624 -0.0020347635177860347 -0.01068057219751956 0.00240519413106274 0.01697815000473304
 0.002365485631106258 0.01698406734501801 -0.0020347635177860347 -0.01068057219751956 0.007602319059999475 0.03429015139564485 0.9905317680873266 -0.08166241334395409
 -0.002035742529839493 -0.010680508161680922 0.00240519413106274 0.01697815000473304 0.9905317680873266 -0.08166241334395409 0.0075953250798368 0.034290686468941275
0.1062942892872 0.007635051726171006 0.034425772463328626 0.9904876586386913 -0.08196561387991746 0.002380558515639041 0.017045525532499044 -0.0020486174153213047 -0.01071924144201196
 0.9904876586386913 -0.08196561387991746 0.0076292819525393026 0.03442619255730172 -0.0020476314561222527 -0.010719306344339458 0.0024205570198004593 0.017039555026572305
 0.002380558515639041 0.017045525532499044 -0.0020476314561222527 -0.010719306344339458 0.0076356252749650326 0.0344243428122396 0.9904875804611252 -0.08196704969341509
 -0.0020486174153213047 -0.01071924144201196 0.0024205570198004593 0.017039555026572305 0.9904875804611252 -0.08196704969341509 0.007628580272093304 0.03442488157737229
0.11254689453939999 0.008189226761942218 0.036612131039555476 0.9897526838409456 -0.0869174668712188 0.002632340038191565 0.018042144673419337 -0.0022637204506122375 -0.011347159960682373
 0.9897526838409456 -0.0869174668712188 0.008182757003743378 0.036612596242976185 -0.002262618468165895 -0.01134723983627709 0.002677193823802045 0.018035265338464182
 0.002632340038191565 0.018042144673419337 -0.002262618468165895 -0.01134723983627709 0.008189870864549791 0.03661061823866832 0.9897525959341854 -0.08691898954988743
 -0.0022637204506122375 -0.011347159960682373 0.002677193823802045 0.018035265338464182 0.9897525959341854 -0.08691898954988743 0.008181971465297934 0.03661121924381257
0.11879949979160001 0.008769296724993162 0.038813370926931226 0.988984071895246 -0.09188232386765054 0.002897578344266894 0.019036755663546085 -0.00249039791893433 -0.011973400120961947
 0.988984071895246 -0.09188232386765054 0.008762086352534 0.038813883976954955 -0.0024891738175847264 -0.011973496737943568 0.0029475658822347753 0.019028878053127276
 0.002897578344266894 0.019036755663546085 -0.0024891738175847264 -0.011973496737943568 0.008770015594493157 0.03881177510123005 0.9889839735869872 -0.09188393385155787
 -0.00249039791893433 -0.011973400120961947 0.0029475658822347753 0.019028878053127276 0.9889839735869872 -0.09188393385155787 0.008761212371397173 0.03881244283869596
0.1250521050438 0.009375624612441036 0.04102905438563099 0.9881814656275285 -0.09685982330644265 0.0031763436901540423 0.020029121287789994 -0.0027287228465367867 -0.012597728244149528
 0.9881814656275285 -0.09685982330644265 0.009367632841209447 0.04102961811497827 -0.0027273705868119 -0.01259784345330962 0.0032317431994237033 0.020020151425688405
 0.0031763436901540423 0.020029121287789994 -0.0027273705868119 -0.01259784345330962 0.009376422485872655 0.04102737566039299 0.9881813562236682 -0.09686152106055922
 -0.0027287228465367867 -0.012597728244149528 0.0032317431994237033 0.020020151425688405 0.9881813562236682 -0.09686152106055922 0.009366665866385642 0.04102811482340611
0.131304710296 0.010008568051025927 0.04325873906958759 0.9873445125983693 -0.10184959136075632 0.0034687013232039157 0.021019000304073093 -0.002978763154723063 -0.013219907109916728
 0.9873445125983693 -0.10184959136075632 0.009999753928458081 0.04325935641330757 -0.0029772767538130875 -0.013220042844497145 0.0035297906938215754 0.021008839651490294
 0.0034687013232039157 0.021019000304073093 -0.0029772767538130875 -0.013220042844497145 0.010009449189801354 0.04325697756789517 0.9873443913811556 -0.10185137737616311
 -0.002978763154723063 -0.013219907109916728 0.0035297906938215754 0.021008839651490294 0.9873443913811556 -0.10185137737616311 0.00999868944460539 0.043257793058436765
0.1375573155481 0.010532575139648916 0.045211022242360524 0.9866088429166991 -0.10656009207745636 0.003740281609037068 0.02197792455162534 -0.003206090164943922 -0.013811554959339955
 0.9866088429166991 -0.10656009207745636 0.010522893904315489 0.045211681577830135 -0.0032044605746443106 -0.013811711591503763 0.0038071994857700898 0.02196657885458934
 0.003740281609037068 0.02197792455162534 -0.0032044605746443106 -0.013811711591503763 0.010533542829558516 0.04520917819512609 0.9866087093236237 -0.1065619666467985
 -0.003206090164943922 -0.013811554959339955 0.0038071994857700898 0.02196657885458934 0.9866087093236237 -0.1065619666467985 0.010521728100434613 0.0452100598525796
0.1438099208003 0.011075265480295353 0.04715124758789552 0.9858467838591214 -0.11125686698060519 0.00402276318461631 0.02293193830442334 -0.003442436457456513 -0.014398654875008264
 0.9858467838591214 -0.11125686698060519 0.011064675381358852 0.04715195108107277 -0.0034406572250984813 -0.014398834332451586 0.004095761906408882 0.022919316594543312
 0.00402276318461631 0.02293193830442334 -0.0034406572250984813 -0.014398834332451586 0.011076323842668427 0.047149321167335514 0.9858466371709556 -0.11125883058423314
 -0.003442436457456513 -0.014398654875008264 0.004095761906408882 0.022919316594543312 0.9858466371709556 -0.11125883058423314 0.011063403918829009 0.047150273124025845
0.1500625260525 0.011636420001719015 0.049079200805121195 0.985058559842032 -0.11593974621174413 0.004316030009347139 0.023880911058329485 -0.0036876880710438064 -0.014981083091210018
 0.985058559842032 -0.11593974621174413 0.01162487911125659 0.0490799507983894 -0.0036857527616878448 -0.014981287379661165 0.0043953600059150255 0.0238669190593081
 0.004316030009347139 0.023880911058329485 -0.0036857527616878448 -0.014981287379661165 0.011637573170171656 0.04907719219129923 0.9850583993192884 -0.1159417993442349
 -0.0036876880710438064 -0.014981083091210018 0.0043953600059150255 0.0238669190593081 0.9850583993192884 -0.1159417993442349 0.011623497693864572 0.04907821883368715
0.15631513130469998 0.012215817734573716 0.05099467400572282 0.9842443968065915 -0.12060856174455224 0.004619964473971202 0.024824714965575943 -0.003941729456083729 -0.015558718829836083
 0.9842443968065915 -0.12060856174455224 0.012203283943305535 0.050995473026066086 -0.003939631652840363 -0.015558950032790824 0.004705874230930169 0.024809255134954626
