! Created with skrf 1.8.0 (http://scikit-rf.org).
# GHz S RI R 50.0 
!freq ReS11 ImS11 ReS12 ImS12 ReS13 ImS13
! ReS14 ImS14
! ReS21 ImS21 ReS22 ImS22 ReS23 ImS23
! ReS24 ImS24
! ReS31 ImS31 ReS32 ImS32 ReS33 ImS33
! ReS34 ImS34
! ReS41 ImS41 ReS42 ImS42 ReS43 ImS43
! ReS44 ImS44
!
0.0 0.000826619345465 0.0 0.9991733806544 0.0 3.071097893577e-05 0.0 -3.071097911383e-05 3.761010227043313e-21
 0.9991733806544 0.0 0.0008266193454542 0.0 -3.071097911325e-05 3.7610102269722835e-21 3.071097893607e-05 0.0
 3.071097893577e-05 0.0 -3.071097911325e-05 3.7610102269722835e-21 0.0008266193454533 0.0 0.9991733806544 0.0
 -3.071097911383e-05 3.761010227043313e-21 3.071097893607e-05 0.0 0.9991733806544 0.0 0.0008266193454702 0.0
0.005 0.000888194768658105 0.0006758372400922321 0.9990956250125327 -0.0017334324569646608 4.250391501671847e-05 0.0003437431888473298 -4.136837253028397e-05 -0.00021502188541092367
 0.9990956250125327 -0.0017334324569646608 0.0008881950967336868 0.0006758370228230154 -4.136619087938652e-05 -0.0002150202060926205 4.2517669149234666e-05 0.00034373812510080434
 4.250391501671847e-05 0.0003437431888473298 -4.136619087938652e-05 -0.0002150202060926205 0.000888196185731485 0.0006759036355186017 0.999095625307189 -0.001733365391718559
 -4.136837253028397e-05 -0.00021502188541092367 4.2517669149234666e-05 0.00034373812510080434 0.999095625307189 -0.001733365391718559 0.0008881942683351449 0.0006759047576671833
0.006252605252188 0.0009040138966147361 0.0008475073169893706 0.9990755764830028 -0.002167264279808375 4.5688662182321854e-05 0.00042986342833522027 -4.42293792925657e-05 -0.0002690751345841196
 0.9990755764830028 -0.002167264279808375 0.0009040144095234292 0.0008475070146153529 -4.4225984363982705e-05 -0.00026907306192767907 4.5710154409548496e-05 0.00042985684237770193
 4.5688662182321854e-05 0.00042986342833522027 -4.4225984363982705e-05 -0.00026907306192767907 0.0009040160386638832 0.0008475902967060899 0.9990755768702243 -0.0021671804614766177
 -4.42293792925657e-05 -0.0002690751345841196 4.5710154409548496e-05 0.00042985684237770193 0.9990755768702243 -0.0021671804614766177 0.0009040130409928705 0.000847591670985934
0.01250521050438 0.0009853656842163836 0.0017132958281479453 0.9989720497215537 -0.004335485233634888 6.297804773972647e-05 0.0008601132053104119 -5.9667589079248824e-05 -0.0005396594537221662
 0.9989720497215537 -0.004335485233634888 0.0009853677355928599 0.0017132949053022262 -5.965420774855822e-05 -0.0005396555878761512 6.30638274705587e-05 0.0008600973703962738
 6.297804773972647e-05 0.0008601132053104119 -5.965420774855822e-05 -0.0005396555878761512 0.00098537368567654 0.0017134615271398373 0.9989720507132299 -0.004335317838062338
 -5.9667589079248824e-05 -0.0005396594537221662 6.30638274705587e-05 0.0008600973703962738 0.9989720507132299 -0.004335317838062338 0.0009853617135575715 0.0017134639912794285
0.01875781575657 0.0010707807174467948 0.0025919697313352965 0.9988627237047032 -0.006510004555419765 8.260697866854206e-05 0.0012910800441023036 -7.705715518778148e-05 -0.0008113916245392562
 0.9988627237047032 -0.006510004555419765 0.0010707853361000537 0.0025919678386664927 -7.702730914147297e-05 -0.0008113862732268293 8.279984704307087e-05 0.0012910520003034441
 8.260697866854206e-05 0.0012910800441023036 -7.702730914147297e-05 -0.0008113862732268293 0.0010707982839124085 0.002592218013751646 0.9988627255149392 -0.006509753679354215
 -7.705715518778148e-05 -0.0008113916245392562 8.279984704307087e-05 0.0012910520003034441 0.9988627255149392 -0.006509753679354215 0.001070771379905435 0.002592221286383001
0.02501042100875 0.0011603650807485858 0.0034823572751380436 0.9987475210509424 -0.00869193819546731 0.0001046034741572156 0.001722821451690974 -9.642937882626629e-05 -0.0010841825928727398
 0.9987475210509424 -0.00869193819546731 0.0011603732987256904 0.0034823540303777186 -9.63766632566853e-05 -0.00108417609890424 0.00010494635849535135 0.0017227779546867901
 0.0001046034741572156 0.001722821451690974 -9.63766632566853e-05 -0.00108417609890424 0.0011603959157429412 0.0034826880201386033 0.9987475238950805 -0.008691603902622984
 -9.642937882626629e-05 -0.0010841825928727398 0.00010494635849535135 0.0017227779546867901 0.9987475238950805 -0.008691603902622984 0.0011603481322080187 0.0034826918177185222
0.03126302626094 0.0012542195589813998 0.004383886298189966 0.9986263583104631 -0.010881800807395202 0.00012899605003447112 0.002155355773899068 -0.00011781500830366626 -0.0013579815446137676
 0.9986263583104631 -0.010881800807395202 0.001254232411608896 0.0043838812852011605 -0.00011773307843647863 -0.001357974286892056 0.00012953204386970777 0.002155293292431432
 0.00012899605003447112 0.002155355773899068 -0.00011773307843647863 -0.001357974286892056 0.0012542673612301642 0.004384299387656057 0.9986263624009643 -0.010881383140844454
 -0.00011781500830366626 -0.0013579815446137676 0.00012953204386970777 0.002155293292431432 0.9986263624009643 -0.010881383140844454 0.0012541927565940325 0.004384303423209471
0.037515631513130004 0.0013524426397521438 0.005296207147017759 0.9984991489874407 -0.01307988281146675 0.00015581346116147254 0.0025886865009029578 -0.0001412444898499972 -0.0016327515945311476
 0.9984991489874407 -0.01307988281146675 0.0013524611649727532 0.005296199915010461 -0.00014112705382395623 -0.0016327439884234907 0.0001565858443601756 0.0025886012128706875
 0.00015581346116147254 0.0025886865009029578 -0.00014112705382395623 -0.0016327439884234907 0.001352511108628705 0.005296702451923284 0.9984991545388557 -0.013079381807166252
 -0.0001412444898499972 -0.0016327515945311476 0.0001565858443601756 0.0025886012128706875 0.9984991545388557 -0.013079381807166252 0.0013524037453216365 0.0052967064343496925
0.043768236765320004 0.0014551316766408984 0.0062190779124299414 0.9983658047244349 -0.01528636513745731 0.00018508458517752912 0.0030228096660091506 -0.00016674807288082815 -0.0019084623803943541
 0.9983658047244349 -0.01528636513745731 0.0014551569145358951 0.006219067975191554 -0.00016658888742107823 -0.0019084548779277984 0.00018613683575960897 0.0030226974541205155
 0.00018508458517752912 0.0030228096660091506 -0.00016658888742107823 -0.0019084548779277984 0.0014552245103833731 0.006219655291783018 0.9983658119502951 -0.015285780825091516
 -0.00016674807288082815 -0.0019084623803943541 0.00018613683575960897 0.0030226974541205155 0.9983658119502951 -0.015285780825091516 0.0014550784531754358 0.006219658925413849
0.050020842017509996 0.0015623834354591506 0.007152317004964471 0.9982262358683395 -0.017501366627531652 0.000216838363010901 0.0034577168906764 -0.00019435585700357865 -0.002185087010402582
 0.9982262358683395 -0.017501366627531652 0.001562416427789216 0.007152303840172576 -0.00019414872450433082 -0.0021850801003822492 0.0002182141645298961 0.003457573337952707
 0.000216838363010901 0.0034577168906764 -0.00019414872450433082 -0.0021850801003822492 0.0015625043321304474 0.007152976308092967 0.9982262449825835 -0.017500699028014603
 -0.00019435585700357865 -0.002185087010402582 0.0002182141645298961 0.003457573337952707 0.9982262449825835 -0.017500699028014603 0.0015623136468714393 0.007152979292346057
0.055454545454549996 0.001659368879656672 0.007971637484229991 0.998099820801519 -0.019433251484634848 0.000246472072510673 0.0038362924882180227 -0.00022008000947166506 -0.002426204954926381
 0.998099820801519 -0.019433251484634848 0.0016594094576069909 0.007971621061841745 -0.00021982621022025207 -0.002426198985355096 0.00024816468926256054 0.003836117876013236
 0.000246472072510673 0.0038362924882180227 -0.00021982621022025207 -0.002426198985355096 0.0016595171667037438 0.00797236784343454 0.9980998317302969 -0.019432511524309286
 -0.00022008000947166506 -0.002426204954926381 0.00024816468926256054 0.003836117876013236 0.9980998317302969 -0.019432511524309286 0.001659282879096366 0.007972370015209876
0.056273447269699996 0.0016742943860655413 0.008095779896847751 0.9980803517838026 -0.01972496727224436 0.000251103760291005 0.0038933968854329678 -0.0002240978172084954 -0.0024626005546277713
 0.9980803517838026 -0.01972496727224436 0.001674336175516559 0.008095762945376735 -0.00022383658364213767 -0.002462594762717415 0.00025284700665474067 0.0038932172705965066
 0.000251103760291005 0.0038933968854329678 -0.00022383658364213767 -0.002462594762717415 0.0016744470431984562 0.00809652095272104 0.998080362999969 -0.01972421640812586
 -0.0002240978172084954 -0.0024626005546277713 0.00025284700665474067 0.0038932172705965066 0.998080362999969 -0.01972421640812586 0.001674205795757423 0.00809652298180055
0.06252605252188 0.0017909608719673352 0.009049346310132805 0.9979280610443163 -0.02195722100009453 0.00028790974151691713 0.004329836263518046 -0.0002560038157224203 -0.0027409792237371197
 0.9979280610443163 -0.02195722100009453 0.001791012501674221 0.009049324975375974 -0.0002556823691268036 -0.0027409751125269896 0.00029006454010196975 0.004329615556314088
 0.00028790974151691713 0.004329836263518046 -0.0002556823691268036 -0.0027409751125269896 0.0017911489875423487 0.009050168936146958 0.9979280745762436 -0.02195638688651049
 -0.0002560038157224203 -0.0027409792237371197 0.00029006454010196975 0.004329615556314088 0.9979280745762436 -0.02195638688651049 0.0017908512427173382 0.009050169698795123
0.06877865777407 0.0019124792147437247 0.010012912615969215 0.9977692715584976 -0.024198163255889825 0.0003272852499641675 0.00476702003208191 -0.00029010360770182945 -0.0030201998702285393
 0.9977692715584976 -0.024198163255889825 0.0019125417275098336 0.01001288626318614 -0.0002897158769863497 -0.0030201980392801785 0.0003298959235665498 0.004766752888578046
 0.0003272852499641675 0.00476702003208191 -0.0002897158769863497 -0.0030201980392801785 0.0019127064868617837 0.010013816610139866 0.9977692876199172 -0.024197245908120887
 -0.00029010360770182945 -0.0030201998702285393 0.0003298959235665498 0.004766752888578046 0.9977692876199172 -0.024197245908120887 0.0019123463076553182 0.010013815789403028
0.07503126302626001 0.0020389457807762413 0.010986386980597517 0.9976038906592751 -0.02644781583235666 0.0003692591914573456 0.005204931894185915 -0.00032642684261685725 -0.0033002396790056906
 0.9976038906592751 -0.02644781583235666 0.002039020218525347 0.010986354936259707 -0.0003259667966800571 -0.003300240764904162 0.0003723702794031197 0.0052046126520136965
 0.0003692591914573456 0.005204931894185915 -0.0003259667966800571 -0.003300240764904162 0.0020392159074392032 0.010987372126504434 0.9976039094636596 -0.026446815260580295
 -0.00032642684261685725 -0.0033002396790056906 0.0003723702794031197 0.0052046126520136965 0.9976039094636596 -0.026446815260580295 0.0020387873540658324 0.010987369399567183
0.08128386827845 0.0021704570233081104 0.011969686164824937 0.9974318251687697 -0.028706190048378797 0.00041386042040849957 0.005643554455891168 -0.0003650030630585848 -0.0035810759530022045
 0.9974318251687697 -0.028706190048378797 0.002170544426208044 0.011969647715996143 -0.00036446471006686625 -0.0035810806293874483 0.00041751667904150845 0.005643177129484356
 0.00041386042040849957 0.005643554455891168 -0.00036446471006686625 -0.0035810806293874483 0.0021707737032885454 0.01197075222666229 0.9974318469303509 -0.028705106262350795
 -0.0003650030630585848 -0.0035810759530022045 0.00041751667904150845 0.005643177129484356 0.9974318469303509 -0.028705106262350795 0.002170270832340992 0.011970747264614815
0.08753647353064001 0.002307109511009742 0.012962733293232208 0.9972529814506609 -0.030973288957436708 0.00046111772731596476 0.006082869361913458 -0.0004058617017584469 -0.003862685970427614
 0.9972529814506609 -0.030973288957436708 0.0023072109169286637 0.012962687686903113 -0.00040523908858947424 -0.0038626949480293016 0.0004653641299495112 0.006082427637707861
 0.00046111772731596476 0.006082869361913458 -0.00040523908858947424 -0.0038626949480293016 0.0023074764433415195 0.012963880018523919 0.9972530063836322 -0.03097212196351304
 -0.0004058617017584469 -0.003862685970427614 0.0004653641299495112 0.006082427637707861 0.9972530063836322 -0.03097212196351304 0.0023068933070421577 0.012963872486207563
0.09378907878283 0.0024489999451262324 0.013965456271666012 0.9970672654511131 -0.033249108908095536 0.0005110598273157531 0.006522857394533064 -0.0004490320771795136 -0.004145046878930784
 0.9970672654511131 -0.033249108908095536 0.0024491163887729733 0.013965402714178893 -0.0004483192889672346 -0.004145060905601004 0.0005159415638818614 0.00652234462616037
 0.0005110598273157531 0.006522857394533064 -0.0004483192889672346 -0.004145060905601004 0.0024494208291547955 0.013966683388494645 0.9970672937697846 -0.033247858711660756
 -0.0004490320771795136 -0.004145046878930784 0.0005159415638818614 0.00652234462616037 0.9970672937697846 -0.033247858711660756 0.002448751474540084 0.01396667294439042
0.100041684035 0.0025962251692600922 0.014977786617136056 0.9968745827326553 -0.035533640692008275 0.0005637153492080556 0.006963498545009064 -0.0004945433884236816 -0.004428135617481799
 0.9968745827326553 -0.035533640692008275 0.0025963576814353826 0.014977724273548218 -0.0004937345482102599 -0.004428155478216197 0.0005692778254782635 0.006962907748465431
 0.0005637153492080556 0.006963498545009064 -0.0004937345482102599 -0.004428155478216197 0.002596703704722453 0.014979093834410404 0.9968746146517837 -0.0355323072969846
 -0.0004945433884236816 -0.004428135617481799 0.0005692778254782635 0.006962907748465431 0.9968746146517837 -0.0355323072969846 0.002595942172824743 0.014979080130452106
0.1059090909091 0.002739318757415094 0.015936430470283657 0.9966873498511852 -0.03768534244935981 0.0006156202163046352 0.007377569060183817 -0.0005394058822587372 -0.004694425550719576
 0.9966873498511852 -0.03768534244935981 0.0027394672815523736 0.015936359085205284 -0.000538501595914086 -0.004694451633158418 0.0006218629820109669 0.007376898385600624
 0.0006156202163046352 0.007377569060183817 -0.000538501595914086 -0.004694451633158418 0.0027398547577719102 0.015937812573655966 0.9966873853444771 -0.03768393098112078
 -0.0005394058822587372 -0.004694425550719576 0.0006218629820109669 0.007376898385600624 0.9966873853444771 -0.03768393098112078 0.0027390013016911374 0.015937795488180858
0.1062942892872 0.002748882175372676 0.015999658583583345 0.9966748385057299 -0.037826870396316756 0.0006191128252237267 0.007404772065063721 -0.0005424247090251635 -0.004711928858379156
 0.9966748385057299 -0.037826870396316756 0.002749031782212187 0.015999586577074867 -0.0005415139774684926 -0.004711955375340753 0.0006254016618155953 0.007404095913881902
 0.0006191128252237267 0.007404772065063721 -0.0005415139774684926 -0.004711955375340753 0.0027494220624397986 0.01600104559249197 0.9966748742404036 -0.03782545380338839
 -0.0005424247090251635 -0.004711928858379156 0.0006254016618155953 0.007404095913881902 0.9966748742404036 -0.03782545380338839 0.0027485623875956227 0.016001028273970527
0.11254689453939999 0.002907068104175445 0.017031008490054515 0.9964679376540148 -0.04012878005385054 0.0006772806806706302 0.007846656506688672 -0.0005927049806245407 -0.004996402961180987
 0.9964679376540148 -0.04012878005385054 0.0029072358262268697 0.017030925901347308 -0.0005916865557860517 -0.004996436993723409 0.0006843417117590708 0.007845887327076343
 0.0006772806806706302 0.007846656506688672 -0.0005916865557860517 -0.004996436993723409 0.00290767304314307 0.01703247496194377 0.9964679774194112 -0.04012728026230507
 -0.0005927049806245407 -0.004996402961180987 0.0006843417117590708 0.007845887327076343 0.9964679774194112 -0.04012728026230507 0.002906709252036885 0.01703245366735452
0.11879949979160001 0.0030708802437017465 0.01807177419888502 0.9962537847592134 -0.042439348143421124 0.000738247224146128 0.008289129752312843 -0.000645413005711596 -0.005281533936503373
 0.9962537847592134 -0.042439348143421124 0.0030710670952169964 0.018071680065649035 -0.0006442811228875268 -0.005281576381177918 0.0007461264960781827 0.008288259518307755
 0.000738247224146128 0.008289129752312843 -0.0006442811228875268 -0.005281576381177918 0.003071553935142057 0.018073319783222797 0.9962538287708418 -0.04243776515286903
 -0.000645413005711596 -0.005281533936503373 0.0007461264960781827 0.008288259518307755 0.9962538287708418 -0.04243776515286903 0.0030704800461373452 0.018073294144222384
0.1250521050438 0.00324041602492164 0.019121894693749232 0.9960322841228775 -0.04475854999049385 0.000802040637567205 0.008732169037564533 -0.0007005774403679086 -0.005567297417476827
 0.9960322841228775 -0.04475854999049385 0.0032406230129501533 0.019121788010037315 -0.0006993263719622503 -0.005567349208049776 0.0008107844071917454 0.00873118936615814
 0.000802040637567205 0.008732169037564533 -0.0006993263719622503 -0.005567349208049776 0.0032411621697674394 0.019123519022757718 0.9960323325968969 -0.04475688379599217
 -0.0007005774403679086 -0.005567297417476827 0.0008107844071917454 0.00873118936615814 0.9960323325968969 -0.04475688379599217 0.0032399721921143845 0.019123488664016593
0.131304710296 0.003415773016224738 0.020181309752685794 0.9958033397881632 -0.04708635807313605 0.000868688966496811 0.009175750969276116 -0.0007582267863857497 -0.005853668636214549
 0.9958033397881632 -0.04708635807313605 0.0034160011396435655 0.02018118946840446 -0.0007568508417963583 -0.005853730743675232 0.0008783436993595079 0.009174653115549547
 0.000868688966496811 0.009175750969276116 -0.0007568508417963583 -0.005853730743675232 0.003416595315316631 0.020183012435996385 0.9958033929410877 -0.04708460867025071
 -0.0007582267863857497 -0.005853668636214549 0.0008783436993595079 0.009174653115549547 0.9958033929410877 -0.04708460867025071 0.0034152832483350434 0.020182976975141938
0.1375573155481 0.003545912242698158 0.02111046828572475 0.9956179989753563 -0.04928323425067332 0.0009267450617534214 0.009604941208299732 -0.0008069014454138111 -0.00612572271584727
 0.9956179989753563 -0.04928323425067332 0.0035461616504788174 0.021110336484244232 -0.0008053923717974668 -0.006125794666471608 0.0009373279796258335 0.009603730539162303
 0.0009267450617534214 0.009604941208299732 -0.0008053923717974668 -0.006125794666471608 0.0035468140951506535 0.021112248808642358 0.9956180570150749 -0.049281401650723033
 -0.0008069014454138111 -0.00612572271584727 0.0009373279796258335 0.009603730539162303 0.9956180570150749 -0.049281401650723033 0.0035453737085402157 0.021112211275878232
0.1438099208003 0.003680166490135402 0.02203627461472488 0.9954269249594494 -0.05147612140714037 0.0009871014053750768 0.010033337613266179 -0.0008575048760982 -0.0063970476446302904
 0.9954269249594494 -0.05147612140714037 0.003680438016209272 0.022036130525922557 -0.0008558565736018386 -0.006397130335824015 0.0009986539615422982 0.010032006563874553
 0.0009871014053750768 0.010033337613266179 -0.0008558565736018386 -0.006397130335824015 0.0036811515418673332 0.022038132564064086 0.9954269881011827 -0.05147420560698623
 -0.0008575048760982 -0.0063970476446302904 0.0009986539615422982 0.010032006563874553 0.9954269881011827 -0.05147420560698623 0.003679576780768294 0.02203809290551811
0.1500625260525 0.003818503657959034 0.022958697407813745 0.995230151285271 -0.053665012106148303 0.0010497450342905343 0.010460927858641627 -0.0009100243865186536 -0.006667630389225993
 0.995230151285271 -0.053665012106148303 0.0038187981190626586 0.022958540232163323 -0.0009082307595191088 -0.00666772475300203 0.0010623085361236146 0.010459468607208056
 0.0010497450342905343 0.010460927858641627 -0.0009082307595191088 -0.00666772475300203 0.0038195755516575347 0.022960632354805024 0.995230219744659 -0.05366301310157911
 -0.0009100243865186536 -0.006667630389225993 0.0010623085361236146 0.010459468607208056 0.995230219744659 -0.05366301310157911 0.0038178603496002213 0.022960590515764413
