! Created with skrf 1.8.0 (http://scikit-rf.org).
# GHz S RI R 50.0 
!freq ReS11 ImS11 ReS12 ImS12 ReS13 ImS13
! ReS14 ImS14
! ReS21 ImS21 ReS22 ImS22 ReS23 ImS23
! ReS24 ImS24
! ReS31 ImS31 ReS32 ImS32 ReS33 ImS33
! ReS34 ImS34
! ReS41 ImS41 ReS42 ImS42 ReS43 ImS43
! ReS44 ImS44
!
0.0 0.001612410834455 0.0 0.9983875891343 0.0 6.223682589985e-05 0.0 -6.223682598856e-05 7.62181297359808e-21
 0.9983875891343 0.0 0.001612410834416 0.0 -6.223682598793e-05 7.621812973520927e-21 6.223682589901e-05 0.0
 6.223682589985e-05 0.0 -6.223682598793e-05 7.621812973520927e-21 0.001612410835866 0.0 0.9983875891357 0.0
 -6.223682598856e-05 7.62181297359808e-21 6.223682589901e-05 0.0 0.9983875891357 0.0 0.001612410835861 0.0
0.005 0.0017350085289483139 0.001320231510250564 0.998232457329236 -0.0033772981041036575 8.712903627208367e-05 0.0006775497697754815 -8.462739062069469e-05 -0.00042668271736302847
 0.998232457329236 -0.0033772981041036575 0.0017350231921464863 0.0013202230179094724 -8.462923001726342e-05 -0.0004266841673896926 8.70190760795007e-05 0.0006775914563157563
 8.712903627208367e-05 0.0006775497697754815 -8.462923001726342e-05 -0.0004266841673896926 0.0017350077551190485 0.0013202992718640044 0.9982324576977932 -0.0033772310512323062
 -8.462739062069469e-05 -0.00042668271736302847 8.70190760795007e-05 0.0006775914563157563 0.9982324576977932 -0.0033772310512323062 0.0017350247000214218 0.0013202893603986455
0.006252605252188 0.0017672216884617941 0.0016554680432629056 0.9981914290336734 -0.004222438152006059 9.427761752074375e-05 0.0008472649479776603 -9.097315866760458e-05 -0.0005338994605743877
 0.9981914290336734 -0.004222438152006059 0.0017672446094959674 0.0016554572989439006 -9.097602061759863e-05 -0.0005339012490584512 9.41058131078765e-05 0.0008473191191772911
 9.427761752074375e-05 0.0008472649479776603 -9.097602061759863e-05 -0.0005339012490584512 0.0017672203961878153 0.0016555527538376622 0.9981914295277381 -0.004222354331799889
 -9.097315866760458e-05 -0.0005338994605743877 9.41058131078765e-05 0.0008473191191772911 0.9981914295277381 -0.004222354331799889 0.0017672468848974011 0.0016555402248057693
0.01250521050438 0.0019371452315981308 0.0033454728310716754 0.9979735328544561 -0.008445602463371945 0.00013546804378779538 0.0016948807049039854 -0.00012710730558319232 -0.0010703390147436226
 0.9979735328544561 -0.008445602463371945 0.0019372367505230295 0.003345450064319711 -0.00012711858068545514 -0.0010703423275451982 0.00013478286442856742 0.001695011346269436
 0.00013546804378779538 0.0016948807049039854 -0.00012711858068545514 -0.0010703423275451982 0.001937139500339618 0.003345642055286054 0.9979735342638569 -0.008445435069218002
 -0.00012710730558319232 -0.0010703390147436226 0.00013478286442856742 0.001695011346269436 0.9979735342638569 -0.008445435069218002 0.0019372452781333093 0.0033456155881086006
0.01875781575657 0.0021225658002156336 0.005059387707327321 0.9977336202896914 -0.012679754615515562 0.00018590521607779806 0.002543393071282862 -0.00017075295935473864 -0.0016085481775676403
 0.9977336202896914 -0.012679754615515562 0.0021227714360266287 0.005059351581968348 -0.00017077809813353261 -0.0016085526984676675 0.0001843658868281253 0.0025436269561307295
 0.00018590521607779806 0.002543393071282862 -0.00017077809813353261 -0.0016085526984676675 0.002122552490516673 0.005059641416407613 0.9977336230410523 -0.012679503742988965
 -0.00017075295935473864 -0.0016085481775676403 0.0001843658868281253 0.0025436269561307295 0.9977336230410523 -0.012679503742988965 0.002122790192253894 0.005059599475982479
0.02501042100875 0.0023238555894349215 0.0067948007109383595 0.9974713996098731 -0.016926929495449897 0.0002456877896729729 0.0033928222894879585 -0.00022201990435427872 -0.002148275560331008
 0.9974713996098731 -0.016926929495449897 0.002324220765896375 0.006794749851551879 -0.00022206429043158916 -0.002148280915526054 0.00024295332335963135 0.0033931905297710924
 0.0002456877896729729 0.0033928222894879585 -0.00022206429043158916 -0.002148280915526054 0.0023238315493018845 0.006795138936736233 0.9974714041201682 -0.01692659519538713
 -0.00022201990435427872 -0.002148275560331008 0.00024295332335963135 0.0033931905297710924 0.9974714041201682 -0.01692659519538713 0.002324253715354205 0.006795079883569464
0.03126302626094 0.002541371398033769 0.008550462077232656 0.9971865646781763 -0.021187987673112404 0.0003149147803938247 0.004243111242141207 -0.00028101467576396524 -0.0026893406132917773
 0.9971865646781763 -0.021187987673112404 0.002541941472486492 0.008550395074108229 -0.00028108363718794364 -0.0026893463707369095 0.00031064366735213583 0.004243649317683417
 0.0003149147803938247 0.004243111242141207 -0.00028108363718794364 -0.0026893463707369095 0.0025413334762807486 0.008550884886275771 0.9971865713698953 -0.021187569977500997
 -0.00028101467576396524 -0.0026893406132917773 0.00031064366735213583 0.004243649317683417 0.9971865713698953 -0.021187569977500997 0.0025419925839473435 0.00855080698123184
0.037515631513130004 0.00277546216693516 0.010325550468284095 0.9968788027531342 -0.02546334910942887 0.00039368454703155866 0.0050941720153316675 -0.0003478413093065397 -0.0032315870653963664
 0.9968788027531342 -0.02546334910942887 0.00277628245107992 0.010325465880441594 -0.0003479401243347213 -0.003231592734646842 0.00038753461698317617 0.005094919820086489
 0.00039368454703155866 0.0050941720153316675 -0.0003479401243347213 -0.003231592734646842 0.002775407206264432 0.01032605795415842 0.99687881204824 -0.025462848039193298
 -0.0003478413093065397 -0.0032315870653963664 0.00038753461698317617 0.005094919820086489 0.99687881204824 -0.025462848039193298 0.00277635569150637 0.010325959360690057
0.043768236765320004 0.003026471876195065 0.01211944965653954 0.9965477976528533 -0.029753216400618992 0.0004820943114538731 0.005945900052720378 -0.0004226015992432011 -0.003774868777984613
 0.9965477976528533 -0.029753216400618992 0.0030275876529282527 0.012119346013925537 -0.0004227354997548239 -0.003774873810166208 0.0004737226692960542 0.005946901946368253
 0.0004820943114538731 0.005945900052720378 -0.0004227354997548239 -0.003774873810166208 0.003026396714423366 0.012120041940059787 0.9965478099743532 -0.029752631965738196
 -0.0004226015992432011 -0.003774868777984613 0.0004737226692960542 0.005946901946368253 0.9965478099743532 -0.029752631965738196 0.0030276869891652037 0.012119920725584552
0.050020842017509996 0.0032947408883019 0.01393165625790732 0.9961932313699291 -0.03405766697158546 0.0005802398623905564 0.006798180026787257 -0.0005053951876091869 -0.004319043885316942
 0.9961932313699291 -0.03405766697158546 0.003296197427635564 0.013931532062972794 -0.0005055693613484515 -0.004319047673132358 0.0005693028627878898 0.006799484888558107
 0.0005802398623905564 0.006798180026787257 -0.0005055693613484515 -0.004319047673132358 0.0032946423569897585 0.013932333489621695 0.9961932471413001 -0.03405699916878381
 -0.0005053951876091869 -0.004319043885316942 0.0005693028627878898 0.006799484888558107 0.9961932471413001 -0.03405699916878381 0.003296326824713127 0.01393218762619954
0.055454545454549996 0.003542153582505169 0.015521046878267476 0.9958657203193216 -0.037810207899671905 0.0006735111324866627 0.007539189838554029 -0.0005839451206101238 -0.004792565017919718
 0.9958657203193216 -0.037810207899671905 0.0035439430208468346 0.015520903586125588 -0.0005841584729074741 -0.004792567185809694 0.0006600650937006674 0.007540801236044009
 0.0006735111324866627 0.007539189838554029 -0.0005841584729074741 -0.004792567185809694 0.0035420321654220347 0.015521798069405297 0.9958657394342114 -0.037809467643441765
 -0.0005839451206101238 -0.004792565017919718 0.0006600650937006674 0.007540801236044009 0.9958657394342114 -0.037809467643441765 0.0035441017614377054 0.015521629064480725
0.056273447269699996 0.003580606628512071 0.015761734436199215 0.9958147850284108 -0.03837669829970807 0.0006882153466021177 0.007650888694254526 -0.0005963195711059688 -0.00486397195536051
 0.9958147850284108 -0.03837669829970807 0.0035824492024832157 0.015761588165116337 -0.0005965391631431495 -0.0048639738331416275 0.0006743685927929871 0.007652549977721423
 0.0006882153466021177 0.007650888694254526 -0.0005965391631431495 -0.0048639738331416275 0.0035804815542741933 0.015762496784468505 0.9958148046750986 -0.038375947124767426
 -0.0005963195711059688 -0.00486397195536051 0.0006743685927929871 0.007652549977721423 0.9958148046750986 -0.038375947124767426 0.0035826126247688896 0.01576232414903813
0.06252605252188 0.0038844039448385345 0.017609290993013862 0.9954121395243173 -0.04271025275703769 0.0008061130982996099 0.008503896495678502 -0.0006954700721330669 -0.005409512411332049
 0.9954121395243173 -0.04271025275703769 0.0038866778413909875 0.017609121096303762 -0.0006957401858357803 -0.005409511655081618 0.0007890114560297441 0.008505972283918061
 0.0008061130982996099 0.008503896495678502 -0.0006957401858357803 -0.005409511655081618 0.0038842491489173995 0.017610138658280733 0.9954121634735872 -0.04270941819078422
 -0.0006954700721330669 -0.005409512411332049 0.0007890114560297441 0.008505972283918061 0.9954121634735872 -0.04270941819078422 0.0038868792520238464 0.017609937032311354
0.06877865777407 0.004206465289813436 0.019473960531462945 0.9949849759925898 -0.0470582323833026 0.0009340234935716872 0.009357068501086488 -0.0008029397845931063 -0.005955523612431088
 0.9949849759925898 -0.0470582323833026 0.004209215827505267 0.01947376543421679 -0.000803265482377731 -0.005955519439871118 0.0009133211165513965 0.009359621561870528
 0.0009340234935716872 0.009357068501086488 -0.000803265482377731 -0.005955519439871118 0.004206277587802868 0.01947489373597103 0.9949850046737123 -0.047057314402270595
 -0.0008029397845931063 -0.005955523612431088 0.0009133211165513965 0.009359621561870528 0.9949850046737123 -0.047057314402270595 0.004209459187076888 0.0194746608048638
0.07503126302626001 0.004547120796800596 0.02135539604755971 0.9945329761733918 -0.05142050823695059 0.0010720348174920883 0.010210265017501441 -0.000918819506959989 -0.006501862278192323
 0.9945329761733918 -0.05142050823695059 0.0045503933384695985 0.02135517414934279 -0.0009192058107155521 -0.006501853848832417 0.0010473851811031048 0.01021336285832177
 0.0010720348174920883 0.010210265017501441 -0.0009192058107155521 -0.006501853848832417 0.004546896999228483 0.021356415036543657 0.9945330100178895 -0.051419506812441514
 -0.000918819506959989 -0.006501862278192323 0.0010473851811031048 0.01021336285832177 0.9945330100178895 -0.051419506812441514 0.004550682605179668 0.02135614838844133
0.08128386827845 0.004906698290444028 0.023253262665146893 0.9940558227156371 -0.05579692660841413 0.0012202331398441424 0.011063342005316838 -0.0010431976659446044 -0.007048383109799944
 0.9940558227156371 -0.05579692660841413 0.004910538257323199 0.02325301233931874 -0.0010436495573053928 -0.007048369525006628 0.0011912890812906943 0.011067056928019087
 0.0012202331398441424 0.011063342005316838 -0.0010436495573053928 -0.007048369525006628 0.004906435202511449 0.023254367711980226 0.9940558621578598 -0.055795841701836844
 -0.0010431976659446044 -0.007048383109799944 0.0011912890812906943 0.011067056928019087 0.9940558621578598 -0.055795841701836844 0.0049108773862478776 0.02325406483613189
0.08753647353064001 0.005285523253827274 0.02516723332126505 0.9935531994428007 -0.060187313289709075 0.0013787021969202953 0.011916151371137372 -0.0011761602331204002 -0.007594938540820967
 0.9935531994428007 -0.060187313289709075 0.0052899761397113805 0.025166952913914093 -0.0011766826536521527 -0.00759491884388207 0.0013451159608114474 0.01192056052613262
 0.0013787021969202953 0.011916151371137372 -0.0011766826536521527 -0.00759491884388207 0.005285217675538114 0.0251684247228537 0.9935532449198231 -0.06018614485744595
 -0.0011761602331204002 -0.007594938540820967 0.0013451159608114474 0.01192056052613262 0.9935532449198231 -0.06018614485744595 0.005290369081848408 0.025168083007702697
0.09378907878283 0.005683918764175738 0.027096985669560203 0.9930247915895742 -0.06459147663238277 0.0015475232761064676 0.012768541184593862 -0.0013177906380059364 -0.008141378570178145
 0.9930247915895742 -0.06459147663238277 0.00568903014955707 0.027096673497947074 -0.001318388489251365 -0.008141351746382764 0.0015089465645434512 0.012773726624440674
 0.0015475232761064676 0.012768541184593862 -0.001318388489251365 -0.008141351746382764 0.005683567490558234 0.027098263747977663 0.9930248435415839 -0.06459022462455781
 -0.0013177906380059364 -0.008141378570178145 0.0015089465645434512 0.012773726624440674 0.9930248435415839 -0.06459022462455781 0.005689480851367767 0.027097880478575292
0.100041684035 0.006102205407447219 0.029042199825426485 0.9924702860225504 -0.06900920977115191 0.0017267751040242346 0.013620355849410426 -0.0014681696769455986 -0.008687550647041938
 0.9924702860225504 -0.06900920977115191 0.0061080209737984685 0.02904185417597773 -0.0014688478203819279 -0.008687515623767555 0.0016828591302431265 0.013626404581814255
 0.0017267751040242346 0.013620355849410426 -0.0014688478203819279 -0.008687515623767555 0.006101805228633923 0.029043564928667 0.9924703448932974 -0.06900787413131622
 -0.0014681696769455986 -0.008687550647041938 0.0016828591302431265 0.013626404581814255 0.9924703448932974 -0.06900787413131622 0.006108533376527229 0.02904313728372221
0.1059090909091 0.006513097124536752 0.030881355065963557 0.9919259284542146 -0.07316692917672522 0.0019045383678819806 0.014419028775593253 -0.0016173108227010278 -0.009199693317116552
 0.9919259284542146 -0.07316692917672522 0.006519615139549347 0.030880976412925573 -0.0016180686975786202 -0.009199649572446292 0.0018552944601311818 0.014425971208885474
 0.0019045383678819806 0.014419028775593253 -0.0016180686975786202 -0.009199649572446292 0.00651264813014949 0.030882802173005916 0.9919259942245141 -0.07316551499953755
 -0.0016173108227010278 -0.009199693317116552 0.0018552944601311818 0.014425971208885474 0.9919259942245141 -0.07316551499953755 0.006520189021161147 0.030882330222682452
0.1062942892872 0.006540701176137641 0.031002556669492497 0.991889371446719 -0.07344029229636746 0.0019165337353814701 0.014471436242344976 -0.0016273754202385782 -0.00923329959447449
 0.991889371446719 -0.07344029229636746 0.006547266720400357 0.031002175795243045 -0.0016281386772257597 -0.009233255241270593 0.0018669292812205226 0.014478440282329696
 0.0019165337353814701 0.014471436242344976 -0.0016281386772257597 -0.009233255241270593 0.006540248877873516 0.031004009172106294 0.9918894376838765 -0.07343887296115222
 -0.0016273754202385782 -0.00923329959447449 0.0018669292812205226 0.014478440282329696 0.9918894376838765 -0.07343887296115222 0.006547844759325698 0.03100353422058152
0.11254689453939999 0.0069997213554535125 0.03297773655480518 0.9912817386041237 -0.07788449153036178 0.0021168724441292114 0.015321619826029517 -0.0017954831168630098 -0.009778467565521738
 0.9912817386041237 -0.07788449153036178 0.007007082804688295 0.03297731867237772 -0.0017963362684756286 -0.009778412694209284 0.002061229920236926 0.015329676247364128
 0.0021168724441292114 0.015321619826029517 -0.0017963362684756286 -0.009778412694209284 0.006999213718966994 0.03297927685728972 0.9912818126595374 -0.07788298843062694
 -0.0017954831168630098 -0.009778467565521738 0.002061229920236926 0.015329676247364128 0.9912818126595374 -0.07788298843062694 0.007007730408261261 0.03297875155438112
0.11879949979160001 0.007479578399395664 0.034967418302531125 0.9906470804655569 -0.08234156352322916 0.002327861615382409 0.016170740751684006 -0.0019725650979027366 -0.010322894016243611
 0.9906470804655569 -0.08234156352322916 0.007487781825094314 0.034966961588583895 -0.001973512884699452 -0.010322827381026368 0.0022658311241763795 0.016179951737498775
 0.002327861615382409 0.016170740751684006 -0.001973512884699452 -0.010322827381026368 0.0074790122012130264 0.0349690468330783 0.9906471627946888 -0.08233997658255626
 -0.0019725650979027366 -0.010322894016243611 0.0022658311241763795 0.016179951737498775 0.9906471627946888 -0.08233997658255626 0.007488502913848433 0.034968468015814214
0.1250521050438 0.007980581798699168 0.03697127841750995 0.989985092416887 -0.08681125383663522 0.002549568637881347 0.017018629949010315 -0.0021586906792152977 -0.010866415698434398
 0.989985092416887 -0.08681125383663522 0.007989673431904017 0.036970781004618446 -0.002159737801086259 -0.010866335995976851 0.002480800039228908 0.0170291028413219
 0.002549568637881347 0.017018629949010315 -0.002159737801086259 -0.010866335995976851 0.007979953811721716 0.036972995630520915 0.9899851834805887 -0.08680958297337112
 -0.0021586906792152977 -0.010866415698434398 0.002480800039228908 0.0170291028413219 0.9899851834805887 -0.08680958297337112 0.007990471918217872 0.03697236001274267
0.131304710296 0.008503037943400077 0.03898899045958728 0.9892954724429266 -0.09129329818014406 0.0027820577977993744 0.017865115212255925 -0.002353926062921821 -0.011408866662889197
 0.9892954724429266 -0.09129329818014406 0.008513064189576843 0.038988450431577275 -0.002355077178696055 -0.01140877253249048 0.002706200776970794 0.017876962560669805
 0.0027820577977993744 0.017865115212255925 -0.002355077178696055 -0.01140877253249048 0.008502344936382968 0.038990796836960516 0.9892955727066329 -0.09129154330649554
 -0.002353926062921821 -0.011408866662889197 0.002706200776970794 0.017876962560669805 0.9892955727066329 -0.09129154330649554 0.008513943976307973 0.038990101003784264
0.1375573155481 0.008929660327014225 0.04075783838832422 0.9886955588182225 -0.09552490868247543 0.0029969811396195925 0.018684255708258667 -0.002530018301492111 -0.01192426301832917
 0.9886955588182225 -0.09552490868247543 0.008940672810412683 0.04075726539356484 -0.002531280436601544 -0.011924154300440961 0.0029138669423186005 0.01869746383160262
 0.0029969811396195925 0.018684255708258667 -0.002531280436601544 -0.011924154300440961 0.008928899893808859 0.04075973425354942 0.9886956687000249 -0.09552306978249693
 -0.002530018301492111 -0.01192426301832917 0.0029138669423186005 0.01869746383160262 0.9886956687000249 -0.09552306978249693 0.00894163706301776 0.040758986798337365
0.1438099208003 0.009371368996925299 0.042516966776269365 0.988074398014423 -0.09974537152102526 0.003220579187590152 0.01949974942926003 -0.0027131338855271776 -0.012436354093731035
 0.988074398014423 -0.09974537152102526 0.009383415183328003 0.04251635939661859 -0.0027145120658684232 -0.012436229441430914 0.0031298900277334308 0.01951442153984348
 0.003220579187590152 0.01949974942926003 -0.0027145120658684232 -0.012436229441430914 0.009370538050398154 0.042518952606708016 0.9880745179766481 -0.09974344851500207
 -0.0027131338855271776 -0.012436354093731035 0.0031298900277334308 0.01951442153984348 0.9880745179766481 -0.09974344851500207 0.009384467659594133 0.0425181506173542
0.1500625260525 0.009828002278422478 0.04426621631665269 0.9874321560243533 -0.10395456906074946 0.003452770880163815 0.020311502387875827 -0.0029031947756546278 -0.012945052975435262
 0.9874321560243533 -0.10395456906074946 0.009841129834117899 0.044265572994571574 -0.0029046940162413947 -0.012944910987314973 0.00335419089891724 0.020327745483667413
 0.003452770880163815 0.020311502387875827 -0.0029046940162413947 -0.012944910987314973 0.009827097737588558 0.044268292607968315 0.9874322865330278 -0.10395256186694771
 -0.0029031947756546278 -0.012945052975435262 0.00335419089891724 0.020327745483667413 0.9874322865330278 -0.10395256186694771 0.009842274274460095 0.04426743297430929
0.15631513130469998 0.010299397277569152 0.04600543247751243 0.9867689997628305 -0.10815238435565584 0.003693474148041388 0.02111942227161064 -0.0031001219300588003 -0.013450274656733227
