! Created with skrf 1.8.0 (http://scikit-rf.org).
# GHz S RI R 50.0 
!freq ReS11 ImS11 ReS12 ImS12 ReS13 ImS13
! ReS14 ImS14
! ReS21 ImS21 ReS22 ImS22 ReS23 ImS23
! ReS24 ImS24
! ReS31 ImS31 ReS32 ImS32 ReS33 ImS33
! ReS34 ImS34
! ReS41 ImS41 ReS42 ImS42 ReS43 ImS43
! ReS44 ImS44
!
0.0 0.00136638605048 0.0 0.9986336139495 0.0 5.189785244195e-05 0.0 -5.189785317393e-05 6.355653977207268e-21
 0.9986336139495 0.0 0.001366386050498 0.0 -5.189785317422e-05 6.355653977242783e-21 5.189785244061e-05 0.0
 5.189785244195e-05 0.0 -5.189785317422e-05 6.355653977242783e-21 0.001366386037869 0.0 0.9986336139369 0.0
 -5.189785317393e-05 6.355653977207268e-21 5.189785244061e-05 0.0 0.9986336139369 0.0 0.001366386037876 0.0
0.005 0.0014695504181606177 0.001127637628018759 0.9985032130037738 -0.0028622636179816596 7.0969616922792e-05 0.0005146612362428027 -6.93479927961246e-05 -0.00033309484209437153
 0.9985032130037738 -0.0028622636179816596 0.001469553534492831 0.001127635768964697 -6.934754850144794e-05 -0.0003330944553959152 7.096059089265951e-05 0.0005146647741991305
 7.0969616922792e-05 0.0005146612362428027 -6.934754850144794e-05 -0.0003330944553959152 0.0014695512445804342 0.0011277043660375536 0.9985032133481117 -0.0028621965550338527
 -6.93479927961246e-05 -0.00033309484209437153 7.096059089265951e-05 0.0005146647741991305 0.9985032133481117 -0.0028621965550338527 0.0014695533938927994 0.0011277031550759856
0.006252605252188 0.0014964695531393573 0.001413958055443893 0.9984690004527794 -0.0035785467985354567 7.632929204067698e-05 0.0006436115046730501 -7.420338055977213e-05 -0.00041679349009360203
 0.9984690004527794 -0.0035785467985354567 0.0014964744246074013 0.0014139556653283284 -7.420268954891499e-05 -0.0004167930122330839 7.631519079330404e-05 0.0006436160787705175
 7.632929204067698e-05 0.0006436115046730501 -7.420268954891499e-05 -0.0004167930122330839 0.0014964707708267097 0.0014140414611486048 0.9984690009165837 -0.0035784629805045124
 -7.420338055977213e-05 -0.00041679349009360203 7.631519079330404e-05 0.0006436160787705175 0.9984690009165837 -0.0035784629805045124 0.0014964741299126221 0.001414039891535006
0.01250521050438 0.0016373754374922921 0.0028573889620375032 0.9982888736577401 -0.007157976415505658 0.00010659658034457122 0.0012878040174232976 -0.00010136861450149267 -0.0008356343787360904
 0.9982888736577401 -0.007157976415505658 0.0016373948940747996 0.0028573835017824717 -0.0001013658955087256 -0.0008356334825776 0.00010654038345501768 0.001287814802026066
 0.00010659658034457122 0.0012878040174232976 -0.0001013658955087256 -0.0008356334825776 0.0016373797295456047 0.002857555460812289 0.9982888749340005 -0.00715780901921231
 -0.00010136861450149267 -0.0008356343787360904 0.00010654038345501768 0.001287814802026066 0.9982888749340005 -0.00715780901921231 0.0016373931341394639 0.0028575517548295225
0.01875781575657 0.001789382334936014 0.004321340497919016 0.9980930302380866 -0.010747019193334999 0.00014276706267289985 0.001932961033256403 -0.0001334699182702598 -0.0012560150212405866
 0.9980930302380866 -0.010747019193334999 0.0017894260666318543 0.00432133122004561 -0.00013346386064431198 -0.0012560137753808087 0.0001426409068599628 0.0019329799788572427
 0.00014276706267289985 0.001932961033256403 -0.00013346386064431198 -0.0012560137753808087 0.0017893915709295443 0.004321589888804448 0.9980930326869796 -0.010746768315611758
 -0.0001334699182702598 -0.0012560150212405866 0.0001426409068599628 0.0019329799788572427 0.9980930326869796 -0.010746768315611758 0.0017894216775613103 0.0043215834418132175
0.02501042100875 0.0019527621752610065 0.005803815122628844 0.9978812595946377 -0.014347443444826333 0.00018490870726306356 0.0025791115697470605 -0.00017058193062735957 -0.0016777785560213399
 0.9978812595946377 -0.014347443444826333 0.0019528398590594512 0.005803801213860315 -0.00017057124116740636 -0.001677777039560424 0.00018468476911857705 0.002579140922398375
 0.00018490870726306356 0.0025791115697470605 -0.00017057124116740636 -0.001677777039560424 0.0019527782220359127 0.005804147224496699 0.9978812635715165 -0.014347109131855612
 -0.00017058193062735957 -0.0016777785560213399 0.00018468476911857705 0.002579140922398375 0.9978812635715165 -0.014347109131855612 0.0019528316653911978 0.005804137394467775
0.03126302626094 0.0021277755399548982 0.0073038004842905235 0.9976533393744571 -0.017960024913415428 0.0002330899012050372 0.0032262327930503414 -0.0002127776454747444 -0.00210081627156844
 0.9976533393744571 -0.017960024913415428 0.0021278968433744478 0.007303781065083433 -0.00021276104544866158 -0.0021008145742637077 0.00023274036922402738 0.0032262750941374203
 0.0002330899012050372 0.0032262327930503414 -0.00021276104544866158 -0.0021008145742637077 0.002127800265944982 0.00730421509987505 0.9976533452337559 -0.01795960719635683
 -0.0002127776454747444 -0.00210081627156844 0.00023274036922402738 0.0032262750941374203 0.9976533452337559 -0.01795960719635683 0.0021278836612946394 0.007304201207227527
0.037515631513130004 0.0023146775817326623 0.00882064835472407 0.9974090415267066 -0.021585167782177034 0.00028737890559473014 0.003874281428504699 -0.0002601288594260304 -0.0025250361875938064
 0.9974090415267066 -0.021585167782177034 0.002314852164624975 0.008820622478760518 -0.0002601050830004035 -0.0025250344098775804 0.0002868759681217317 0.0038743395163439737
 0.00028737890559473014 0.003874281428504699 -0.0002601050830004035 -0.0025250344098775804 0.0023147128593624796 0.008821145267517054 0.9974090496245105 -0.02158466667997031
 -0.0002601288594260304 -0.0025250361875938064 0.0002868759681217317 0.0038743395163439737 0.9974090496245105 -0.02158466667997031 0.002314832804204915 0.008821126594983183
0.043768236765320004 0.00251372032304885 0.010353885591225357 0.9971481347385716 -0.02522309364895387 0.00034784359593329384 0.004523203319085736 -0.0003127063381670455 -0.002950353487335379
 0.9971481347385716 -0.02522309364895387 0.0025139578386005126 0.010353852244876042 -0.0003126741314313258 -0.0029503517403060998 0.0003471594357854935 0.004523280331153198
 0.00034784359593329384 0.004523203319085736 -0.0003126741314313258 -0.0029503517403060998 0.0025137680271759967 0.010354464568178687 0.9971481454319455 -0.025222509165155418
 -0.0003127063381670455 -0.002950353487335379 0.0003471594357854935 0.004523280331153198 0.9971481454319455 -0.025222509165155418 0.002513931102237863 0.010354440360673707
0.050020842017509996 0.002725153726736195 0.01190313603487507 0.9968703856464022 -0.02887391956275688 0.0004145513072826025 0.005172937367288108 -0.0003705798785746778 -0.003376686567098512
 0.9968703856464022 -0.02887391956275688 0.002725463821810118 0.011903094136647242 -0.0003705379988700276 -0.0033766849724955563 0.00041365809978822566 0.005173036742621066
 0.0004145513072826025 0.005172937367288108 -0.0003705379988700276 -0.0033766849724955563 0.0027252157337704468 0.011903796814633542 0.9968703992925306 -0.0288732516970602
 -0.0003705798785746778 -0.003376686567098512 0.00041365809978822566 0.005173036742621066 0.9968703992925306 -0.0288732516970602 0.002725428503769519 0.011903766279119259
0.055454545454549996 0.0029191514945232215 0.013262238645120973 0.9966151529932198 -0.03205711500135518 0.0004776442355502418 0.005738184270613638 -0.00042522827970644164 -0.003747945477493385
 0.9966151529932198 -0.03205711500135518 0.002919532493247668 0.013262188383595587 -0.00042517699309504563 -0.0037479441224618957 0.00047654675708931735 0.005738306109278682
 0.0004776442355502418 0.005738184270613638 -0.00042517699309504563 -0.0037479441224618957 0.002919227457156057 0.01326297028740031 0.996615169496883 -0.03205637466302462
 -0.00042522827970644164 -0.003747945477493385 0.00047654675708931735 0.005738306109278682 0.996615169496883 -0.03205637466302462 0.0029194887329040617 0.013262933579012239
0.056273447269699996 0.0029492262545068857 0.013468082162000348 0.996575559536191 -0.03253769630694366 0.0004875687255261916 0.005823417458637028 -0.0004338183239230358 -0.0038039551054484455
 0.996575559536191 -0.03253769630694366 0.0029496185701524394 0.013468030561946998 -0.00043376553939397064 -0.003803953795618556 0.00048643863900639365 0.005823542940295452
 0.0004875687255261916 0.005823417458637028 -0.00043376553939397064 -0.003803953795618556 0.0029493044438125113 0.013468824463040034 0.9965755764943541 -0.03253694504656231
 -0.0004338183239230358 -0.0038039551054484455 0.00048643863900639365 0.005823542940295452 0.9965755764943541 -0.03253694504656231 0.002949573457963372 0.013468786768365243
0.06252605252188 0.0031861851792169887 0.015048444006215706 0.9962634208006897 -0.03621442941267352 0.0005669617997427265 0.006474573532016562 -0.0005024895574394974 -0.004232078987240708
 0.9962634208006897 -0.03621442941267352 0.003186669350591006 0.01504838148536329 -0.0005024246466882846 -0.004232078105112523 0.0005655669969974662 0.0064747291696024105
 0.0005669617997427265 0.006474573532016562 -0.0005024246466882846 -0.004232078105112523 0.003186281431095905 0.01504926752266752 0.9962634414312324 -0.036213594736241306
 -0.0005024895574394974 -0.004232078987240708 0.0005655669969974662 0.0064747291696024105 0.9962634414312324 -0.036213594736241306 0.0031866132234566725 0.015049221799449413
0.06877865777407 0.003436276755886135 0.016643966589417577 0.9959337332591864 -0.03990409166514346 0.0006527956684359537 0.007126332202811466 -0.0005766604804768894 -0.00466097767683802
 0.9959337332591864 -0.03990409166514346 0.003436862412531629 0.01664389185911332 -0.0005765822323169616 -0.004660977375878751 0.000651108309690331 0.007126522354918724
 0.0006527956684359537 0.007126332202811466 -0.0005765822323169616 -0.004660977375878751 0.003436392952828317 0.016644870987010278 0.9959337579247272 -0.03990317354630004
 -0.0005766604804768894 -0.00466097767683802 0.000651108309690331 0.007126522354918724 0.9959337579247272 -0.03990317354630004 0.003436794042709905 0.016644816327480914
0.07503126302626001 0.0036997463157685587 0.018254411948774713 0.9955862604010797 -0.04360663101555436 0.0007451345928335955 0.00777861716807626 -0.0006563969829587213 -0.005090569811333177
 0.9955862604010797 -0.04360663101555436 0.0037004430812781893 0.01825432365018553 -0.000656304196182106 -0.005090570255521569 0.0007431268390406419 0.007778846504750606
 0.0007451345928335955 0.00777861716807626 -0.000656304196182106 -0.005090570255521569 0.003699884340606349 0.018255396864632286 0.9955862894657053 -0.04360562942291181
 -0.0006563969829587213 -0.005090569811333177 0.0007431268390406419 0.007778846504750606 0.9955862894657053 -0.04360562942291181 0.0037003612328488883 0.018255332322425887
0.08128386827845 0.003976838308448474 0.019879553829898006 0.9952207655816073 -0.047321975829460586 0.0008440418946173638 0.008431349467620594 -0.0007417639078713956 -0.005520772940172053
 0.9952207655816073 -0.047321975829460586 0.00397765580052604 0.019879450533249212 -0.0007416553911198629 -0.005520774303958983 0.0008416859116207084 0.008431622972719257
 0.0008440418946173638 0.008431349467620594 -0.0007416553911198629 -0.005520774303958983 0.003977000044899554 0.019880618880997267 0.9952207994119903 -0.047320890717680274
 -0.0007417639078713956 -0.005520772940172053 0.0008416859116207084 0.008431622972719257 0.9952207994119903 -0.047320890717680274 0.003977559230063694 0.01988054347102801
0.08753647353064001 0.0042677963116732 0.021519174020271384 0.9948370121877562 -0.05105003849700593 0.0009495798962815978 0.009084447673495023 -0.0008328250122948463 -0.00595150333867334
 0.9948370121877562 -0.05105003849700593 0.004268744141787388 0.02151905422435438 -0.0008326995839060587 -0.005951505806949201 0.0009468478592920248 0.00908477064700132
 0.0009495798962815978 0.009084447673495023 -0.0008326995839060587 -0.005951505806949201 0.00426798364343278 0.02152031879025579 0.994837051152714 -0.05104886981976904
 -0.0008328250122948463 -0.00595150333867334 0.0009468478592920248 0.00908477064700132 0.994837051152714 -0.05104886981976904 0.004268631598086606 0.021520231488498607
0.09378907878283 0.004572863016811103 0.023173059723938724 0.9944347637819587 -0.054790718004953054 0.0010618098637353126 0.009737828020793872 -0.0009296429249883041 -0.006382675882717524
 0.9944347637819587 -0.054790718004953054 0.0045739507901906345 0.02317292185535203 -0.0009294994129038156 -0.006382679650776193 0.0010586739622223413 0.009738206081043085
 0.0010618098637353126 0.009737828020793872 -0.0009294994129038156 -0.006382679650776193 0.004573077827644547 0.023174283770597135 0.9944348082534178 -0.054789465707090625
 -0.0009296429249883041 -0.006382675882717524 0.0010586739622223413 0.009738206081043085 0.9944348082534178 -0.054789465707090625 0.004573821014694433 0.023174183513883475
0.100041684035 0.0048922802002535105 0.024841001635793055 0.9940137842345159 -0.05854390181162609 0.0011807919497872016 0.010391404509262505 -0.001032279102086657 -0.006814203955145848
 0.9940137842345159 -0.05854390181162609 0.004893517515267622 0.02484084404838778 -0.0010321163437482718 -0.006814209228653118 0.0011772243927376592 0.010391843595094874
 0.0011807919497872016 0.010391404509262505 -0.0010321163437482718 -0.006814209228653118 0.004892524372847894 0.024842304488289415 0.9940138345869128 -0.0585425658316029
 -0.001032279102086657 -0.006814203955145848 0.0011772243927376592 0.010391843595094874 0.9940138345869128 -0.0585425658316029 0.004893369241556406 0.024842190174055832
0.1059090909091 0.00520528548245753 0.02641878752736225 0.9936014938466029 -0.0620771301203856 0.001298637553145829 0.011004816607169137 -0.0011339375909466551 -0.0072193921073507895
 0.9936014938466029 -0.0620771301203856 0.005206671850002618 0.02641860987335916 -0.001133755723142635 -0.007219398989817533 0.001294639679892682 0.011005318647643111
 0.001298637553145829 0.011004816607169137 -0.001133755723142635 -0.007219398989817533 0.005205558919283226 0.026420163876604244 0.9936015500613344 -0.062075715552084514
 -0.0011339375909466551 -0.0072193921073507895 0.001294639679892682 0.011005318647643111 0.9936015500613344 -0.062075715552084514 0.00520650505898061 0.026420035332845346
0.1062942892872 0.005226288680071728 0.02652279249080688 0.9935738378438888 -0.062309467250116476 0.0013065851384508106 0.011045088977914333 -0.0011407937809436283 -0.007245999381784939
 0.9935738378438888 -0.062309467250116476 0.005227685128247202 0.026522613464985936 -0.0011406106232607245 -0.007246006376739664 0.001302558159969678 0.011045595350708814
 0.0013065851384508106 0.011045088977914333 -0.0011406106232607245 -0.007246006376739664 0.005226564096034956 0.026524173648772326 0.9935738944551437 -0.06230804752063435
 -0.0011407937809436283 -0.007245999381784939 0.001302558159969678 0.011045595350708814 0.9935738944551437 -0.06230804752063435 0.005227517082180166 0.026524044134872086
0.11254689453939999 0.005575128264782621 0.02821822595464947 0.9931146894519273 -0.06608728259311927 0.0014392471895803207 0.011698791168432235 -0.0012552459328496466 -0.007677972381364506
 0.9931146894519273 -0.06608728259311927 0.005576693430348213 0.028218023696664686 -0.001255041232116043 -0.0076779813240657 0.001434733054686637 0.011699371414082747
 0.0014392471895803207 0.011698791168432235 -0.001255041232116043 -0.0076779813240657 0.005575436804100473 0.02821968488974577 0.9931147527032649 -0.06608577903931151
 -0.0012552459328496466 -0.007677972381364506 0.001434733054686637 0.011699371414082747 0.9931147527032649 -0.06608577903931151 0.005576504330233383 0.02821953899416383
0.11879949979160001 0.005939037695056806 0.02992709575891896 0.9926361045535639 -0.0698772078764837 0.0015788345840196062 0.012352418775253036 -0.001375693214340563 -0.00811003153153276
 0.9926361045535639 -0.0698772078764837 0.005940781154566261 0.029926868400254852 -0.0013754658361877796 -0.008110042658547745 0.0015738055945844116 0.012353079805999178
 0.0015788345840196062 0.012352418775253036 -0.0013754658361877796 -0.008110042658547745 0.005939381235215543 0.029928631914563193 0.9926361748297476 -0.06987562041584063
 -0.001375693214340563 -0.00811003153153276 0.0015738055945844116 0.012353079805999178 0.9926361748297476 -0.06987562041584063 0.005940569710850294 0.029928468415130832
0.1250521050438 0.00631825457856212 0.031649195017376314 0.9921378494027385 -0.0736790955449764 0.001725402468855389 0.013005877487416235 -0.001502191917482039 -0.008542083745926344
 0.9921378494027385 -0.0736790955449764 0.0063201859005306855 0.03164894061397146 -0.0015019407368656772 -0.008542097304047024 0.001719830969932808 0.01300662654360235
 0.001725402468855389 0.013005877487416235 -0.0015019407368656772 -0.008542097304047024 0.006318634994581917 0.03165080780502397 0.9921379270926425 -0.07367742409086914
 -0.001502191917482039 -0.008542083745926344 0.001719830969932808 0.01300662654360235 0.9921379270926425 -0.07367742409086914 0.006319950816176367 0.031650625439173394
0.131304710296 0.0067130153209395355 0.03338431566845783 0.9916196911168247 -0.077492790975413 0.0018790046025175904 0.013659071027658011 -0.0016347969197729121 -0.008974034256874413
 0.9916196911168247 -0.077492790975413 0.00671514406534834 0.03338403220008029 -0.0016345208209280968 -0.008974050503096444 0.0018728629887225553 0.013659915679365144
 0.0018790046025175904 0.013659071027658011 -0.0016345208209280968 -0.008974050503096444 0.0067134344843820075 0.033386004471053186 0.9916197766131954 -0.0774910354334265
 -0.0016347969197729121 -0.008974034256874413 0.0018728629887225553 0.013659915679365144 0.9916197766131954 -0.0774910354334265 0.006714884035487951 0.03338580193547765
0.1375573155481 0.007028440800399423 0.03490817368390363 0.9911765421355981 -0.08109398120827815 0.0020189548724608526 0.014289774108042485 -0.0017528298802499957 -0.009383662556550142
 0.9911765421355981 -0.08109398120827815 0.0070307759194351005 0.03490786541739962 -0.0017525270818019517 -0.009383681483802106 0.002012225658030827 0.01429071267584988
 0.0020189548724608526 0.014289774108042485 -0.0017525270818019517 -0.009383681483802106 0.007028899855499061 0.034909938230156645 0.9911766357922405 -0.08109214154718164
 -0.0017528298802499957 -0.009383662556550142 0.002012225658030827 0.01429071267584988 0.9911766357922405 -0.08109214154718164 0.0070304904378701 0.03490971992309537
0.1438099208003 0.00735483666568146 0.03642485322899636 0.9907180762033245 -0.08468684926480557 0.002164541453938838 0.014918261625644042 -0.0018755747373386904 -0.009791244000899615
 0.9907180762033245 -0.08468684926480557 0.007357387582229558 0.036424518621978416 -0.0018752440170317667 -0.009791265862592517 0.002157198938543727 0.014919301026552026
 0.002164541453938838 0.014918261625644042 -0.0018752440170317667 -0.009791265862592517 0.0073553373481839756 0.03642669291761599 0.9907181784107018 -0.084684925396155
 -0.0018755747373386904 -0.009791244000899615 0.002157198938543727 0.014919301026552026 0.9907181784107018 -0.084684925396155 0.007357075478452219 0.03642645797140443
0.1500625260525 0.007692098713407855 0.03793425155116438 0.9902444008742322 -0.08827132962861378 0.0023157189265543333 0.015544481547744717 -0.0020029872535574024 -0.01019672894340078
 0.9902444008742322 -0.08827132962861378 0.007694874832249424 0.037933888995108286 -0.0020026273900542006 -0.01019675400327072 0.002307737575599858 0.015545628945925191
 0.0023157189265543333 0.015544481547744717 -0.0020026273900542006 -0.01019675400327072 0.007692642747254551 0.03793616575767648 0.9902445120261809 -0.08826932146084825
 -0.0020029872535574024 -0.01019672894340078 0.002307737575599858 0.015545628945925191 0.9902445120261809 -0.08826932146084825 0.007694534937832207 0.03793591326359948
0.15631513130469998 0.008040122132198752 0.039436269109349976 0.9897556241027009 -0.09184735655941123 0.0024724413986589463 0.01616838264296051 -0.002135022711242906 -0.010600068708031289
