! Created with skrf 1.8.0 (http://scikit-rf.org).
# GHz S RI R 50.0 
!freq ReS11 ImS11 ReS12 ImS12 ReS13 ImS13
! ReS14 ImS14
! ReS21 ImS21 ReS22 ImS22 ReS23 ImS23
! ReS24 ImS24
! ReS31 ImS31 ReS32 ImS32 ReS33 ImS33
! ReS34 ImS34
! ReS41 ImS41 ReS42 ImS42 ReS43 ImS43
! ReS44 ImS44
!
0.0 0.001673518059808 0.0 0.9983264819402 0.0 6.450255956242e-05 0.0 -6.450255947283e-05 7.899285299521306e-21
 0.9983264819402 0.0 0.001673518059861 0.0 -6.450255947451e-05 7.899285299727045e-21 6.450255956259e-05 0.0
 6.450255956242e-05 0.0 -6.450255947451e-05 7.899285299727045e-21 0.001673518057017 0.0 0.9983264819373 0.0
 -6.450255947283e-05 7.899285299521306e-21 6.450255956259e-05 0.0 0.9983264819373 0.0 0.001673518056979 0.0
0.005 0.001800915352529477 0.0013736507357036377 0.9981652664882598 -0.0035048799385419046 8.980621530735556e-05 0.0006808239075704954 -8.739561203801277e-05 -0.0004324851104548529
 0.9981652664882598 -0.0035048799385419046 0.0018009205212996828 0.0013736476545939094 -8.739433996238012e-05 -0.0004324840862871463 8.978256213181876e-05 0.0006808329517770985
 8.980621530735556e-05 0.0006808239075704954 -8.739433996238012e-05 -0.0004324840862871463 0.001800916625472394 0.0013737172148795692 0.998165266853918 -0.0035048128812315235
 -8.739561203801277e-05 -0.0004324851104548529 8.978256213181876e-05 0.0006808329517770985 0.998165266853918 -0.0035048128812315235 0.001800919978280234 0.001373715290594851
0.006252605252188 0.0018344467714369026 0.0017224273187581537 0.9981225521335012 -0.004381935705687069 9.708490895939765e-05 0.0008513668978723798 -9.39041835363763e-05 -0.00054115168092976
 0.9981225521335012 -0.004381935705687069 0.0018344548516409911 0.0017224234013827036 -9.390220444941106e-05 -0.0005411504173514992 9.704795365496292e-05 0.0008513786408530249
 9.708490895939765e-05 0.0008513668978723798 -9.390220444941106e-05 -0.0005411504173514992 0.0018344486928981538 0.0017225103993568423 0.9981225526363371 -0.0043818518963466375
 -9.39041835363763e-05 -0.00054115168092976 9.704795365496292e-05 0.0008513786408530249 0.9981225526363371 -0.0043818518963466375 0.0018344539336371886 0.0017225079402034334
0.01250521050438 0.0020116557010985566 0.003480573390429992 0.9978952609715175 -0.008764510463416858 0.00013908896682528413 0.0017031373680411826 -0.0001310742028487328 -0.0010848221382007135
 0.9978952609715175 -0.008764510463416858 0.002011687973741468 0.003480564873485799 -0.0001310664081375392 -0.0010848197941278747 0.0001389416124582338 0.0017031656054191653
 0.00013908896682528413 0.0017031373680411826 -0.0001310664081375392 -0.0010848197941278747 0.002011662813668308 0.0034807392462412276 0.997895262412538 -0.00876434307911091
 -0.0001310742028487328 -0.0010848221382007135 0.0001389416124582338 0.0017031656054191653 0.997895262412538 -0.00876434307911091 0.002011683733402728 0.003480733788142519
0.01875781575657 0.002205556623174653 0.0052634024773984016 0.9976443080976923 -0.013158356365570095 0.00019061679831520334 0.002555829503794508 -0.0001761310840944239 -0.0016302525079567823
 0.9976443080976923 -0.013158356365570095 0.002205629157981102 0.005263388591061418 -0.00017611370831077298 -0.0016302493031642572 0.00019028581983459477 0.0025558799820115255
 0.00019061679831520334 0.002555829503794508 -0.00017611370831077298 -0.0016302493031642572 0.0022055721929425663 0.005263650898867935 0.9976443109096945 -0.013158105514873418
 -0.0001761310840944239 -0.0016302525079567823 0.00019028581983459477 0.0025558799820115255 0.9976443109096945 -0.013158105514873418 0.0022056191886011553 0.0052636418739283345
0.02501042100875 0.002416547686323347 0.007068399699426449 0.9973693806046521 -0.0175655712366758 0.00025177148525829565 0.00340945162467061 -0.00022918917395519357 -0.002177186650788715
 0.9973693806046521 -0.0175655712366758 0.0024166765312481913 0.0070683795912646315 -0.00022915849906322857 -0.0021771828456044616 0.000251183657518172 0.0034095310518784372
 0.00025177148525829565 0.00340945162467061 -0.00022915849906322857 -0.0021771828456044616 0.002416574983667497 0.007068730485047696 0.9973693852227028 -0.017565236990911667
 -0.00022918917395519357 -0.002177186650788715 0.000251183657518172 0.0034095310518784372 0.9973693852227028 -0.017565236990911667 0.0024166584248052777 0.007068717300379635
0.03126302626094 0.0026450106025881297 0.008894255318564356 0.997070150549455 -0.021987034325909875 0.00032265615517557464 0.004263936739071948 -0.0002903593763978492 -0.0027254367067180907
 0.997070150549455 -0.021987034325909875 0.0026452117916088173 0.008894228053913246 -0.0002903117238545929 -0.0027254326024342564 0.00032173818785402803 0.004264052790017163
 0.00032265615517557464 0.004263936739071948 -0.0002903117238545929 -0.0027254326024342564 0.0026450528990797396 0.008894668252125577 0.9970701574066169 -0.02198661674155851
 -0.0002903593763978492 -0.0027254367067180907 0.00032173818785402803 0.004264052790017163 0.9970701574066169 -0.02198661674155851 0.0026451831334283115 0.008894650290623226
0.037515631513130004 0.002891318569644404 0.010740103580703755 0.9967462831808995 -0.02642316740262122 0.00040337302153696286 0.005119187674870182 -0.0003597498853568178 -0.003274837981463127
 0.9967462831808995 -0.02642316740262122 0.002891608127517312 0.010740068142567328 -0.0003596816120031646 -0.0032748339204242403 0.00040205153222823246 0.005119348999765987
 0.00040337302153696286 0.005119187674870182 -0.0003596816120031646 -0.0032748339204242403 0.002891379138343535 0.010740598423616542 0.9967462927080407 -0.02642266652846004
 -0.0003597498853568178 -0.003274837981463127 0.00040205153222823246 0.005119348999765987 0.9967462927080407 -0.02642266652846004 0.002891566496379671 0.010740575044472971
0.043768236765320004 0.003155839325168475 0.012605291064060756 0.9963974402993389 -0.030874166334209724 0.0004940229193139011 0.0059750908078816875 -0.0004374664326623379 -0.0038252352348962316
 0.9963974402993389 -0.030874166334209724 0.003156233270954324 0.012605246352570338 -0.0004373739283350188 -0.0038252316004779977 0.0004922244226299966 0.005975307042424792
 0.0004940229193139011 0.0059750908078816875 -0.0004373739283350188 -0.0038252316004779977 0.00315592144337177 0.012605867557881954 0.9963974529283516 -0.03087358220820813
 -0.0004374664326623379 -0.0038252352348962316 0.0004922244226299966 0.005975307042424792 0.9963974529283516 -0.03087358220820813 0.0031561762413788246 0.012605838096950251
0.050020842017509996 0.0034389365550284907 0.014489280970750345 0.9960232819765298 -0.0353400967193917 0.0005947050143981445 0.00683152173909252 -0.0005236123638994103 -0.0043764770238013595
 0.9960232819765298 -0.0353400967193917 0.003439450905542672 0.01448922580262553 -0.0005234920499570605 -0.004376474240372483 0.0005923559200509361 0.006831803514929946
 0.0005947050143981445 0.00683152173909252 -0.0005234920499570605 -0.004376474240372483 0.003439043502522008 0.014489938825064936 0.9960232981379692 -0.03533942938026866
 -0.0005236123638994103 -0.0043764770238013595 0.0005923559200509361 0.006831803514929946 0.9960232981379692 -0.03533942938026866 0.0034393760454679 0.014489902595134557
0.055454545454549996 0.00370032293413453 0.01614143109276229 0.9956773032747993 -0.03923323950740588 0.0006904237821673128 0.007576112162468008 -0.0006053999490677532 -0.004856091891415158
 0.9956773032747993 -0.03923323950740588 0.0037009549271801267 0.016141365811214912 -0.000605252585047418 -0.004856090223948952 0.0006875363582746979 0.007576460311372924
 0.0006904237821673128 0.007576112162468008 -0.000605252585047418 -0.004856090223948952 0.0037004541249293487 0.016142159395720067 0.9956773228554483 -0.03923249988051983
 -0.0006053999490677532 -0.004856091891415158 0.0006875363582746979 0.007576460311372924 0.9956773228554483 -0.03923249988051983 0.003700862592921502 0.016142116707452168
0.056273447269699996 0.0037409706030652576 0.016391606124214152 0.9956234675797244 -0.03982094081843987 0.0007055165900489802 0.007688348088684982 -0.0006182886373435553 -0.00492841293241817
 0.9956234675797244 -0.03982094081843987 0.003741621374642076 0.016391539232051503 -0.0006181369655269024 -0.004928411465275516 0.0007025432059931231 0.007688707044035799
 0.0007055165900489802 0.007688348088684982 -0.0006181369655269024 -0.004928411465275516 0.0037411056628958886 0.01639234502021616 0.9956234877042031 -0.03982019030147454
 -0.0006182886373435553 -0.00492841293241817 0.0007025432059931231 0.007688707044035799 0.9956234877042031 -0.03982019030147454 0.003741526247379375 0.016392301311196192
0.06252605252188 0.004062298839694602 0.018311843151955453 0.9951976564611521 -0.044316623302464504 0.000826552872385981 0.008545431033345508 -0.0007215937823613782 -0.0054808920650827484
 0.9951976564611521 -0.044316623302464504 0.004063102051082709 0.0183117631833903 -0.0007214072341829492 -0.005480892420381543 0.0008228814116554327 0.008545879823598106
 0.000826552872385981 0.008545431033345508 -0.0007214072341829492 -0.005480892420381543 0.004062465298063237 0.018312662742450487 0.9951976809790609 -0.044315789638814544
 -0.0007215937823613782 -0.0054808920650827484 0.0008228814116554327 0.008545879823598106 0.9951976809790609 -0.044315789638814544 0.004062984214653714 0.018312610821472505
0.06877865777407 0.00440327584438723 0.02024959708886192 0.9947455084648316 -0.048827026588051464 0.000957906877536411 0.009402626232538736 -0.0008336238351647643 -0.0060337621557897195
 0.9947455084648316 -0.048827026588051464 0.004404247518558749 0.02024950260570851 -0.0008333989213805415 -0.00603376488047836 0.0009534634673529323 0.009403178540785281
 0.000957906877536411 0.009402626232538736 -0.0008333989213805415 -0.00603376488047836 0.004403476990205393 0.020250496992038406 0.9947455378065554 -0.048826109810475346
 -0.0008336238351647643 -0.0060337621557897195 0.0009534634673529323 0.009403178540785281 0.9947455378065554 -0.048826109810475346 0.004404104526099648 0.020250436103389516
0.07503126302626001 0.0047642534746700545 0.02220449161156476 0.9942666843256863 -0.053352000547269775 0.0010996692706392588 0.01025978442619746 -0.0009544722609594226 -0.006586869012621307
 0.9942666843256863 -0.053352000547269775 0.004765409640817818 0.0222043810888089 -0.0009542055212292248 -0.006586874694359815 0.0010943799636538218 0.010260454973625995
 0.0010996692706392588 0.01025978442619746 -0.0009542055212292248 -0.006586874694359815 0.004764492599703164 0.022205471415770704 0.9942667189219839 -0.053351000684671135
 -0.0009544722609594226 -0.006586869012621307 0.0010943799636538218 0.010260454973625995 0.9942667189219839 -0.053351000684671135 0.004765239041397541 0.02220540078090147
0.08128386827845 0.005145580867162579 0.024176162555189992 0.9937608460050334 -0.05789136894268857 0.0012519282333734467 0.01111675184025723 -0.00108422986636401 -0.007140056160925684
 0.9937608460050334 -0.05789136894268857 0.0051469375629423055 0.024176034379845432 -0.001083917869141721 -0.007140065427997687 0.0012457190202495722 0.011117556396357088
 0.0012519282333734467 0.01111675184025723 -0.001083917869141721 -0.007140065427997687 0.0051458612655165565 0.024177221816632816 0.9937608862865189 -0.05789028602182155
 -0.00108422986636401 -0.007140056160925684 0.0012457190202495722 0.011117556396357088 0.9937608862865189 -0.05789028602182155 0.0051467369007850705 0.024177140633931223
0.08753647353064001 0.005547604390223978 0.026164253434747424 0.9932276569814535 -0.0624449338651902 0.0014147693362385077 0.01197337047693662 -0.0012229847058951374 -0.007693164608455372
 0.9932276569814535 -0.0624449338651902 0.005549177663470341 0.0261641059047377 -0.0012226240482389103 -0.0076931781296926075 0.0014075661594699085 0.011974325869502825
 0.0014147693362385077 0.01197337047693662 -0.0012226240482389103 -0.0076931781296926075 0.005547929358044535 0.026165391674223017 0.993227703378778 -0.06244376791331847
 -0.0012229847058951374 -0.007693164608455372 0.0014075661594699085 0.011974325869502825 0.993227703378778 -0.06244376791331847 0.005548944478889391 0.02616529911871232
0.09378907878283 0.005970667565453432 0.028168412234975713 0.9926667825153566 -0.06701247891138355 0.0015882754144605524 0.012829478335036776 -0.0013708219835772383 -0.008246032687631653
 0.9926667825153566 -0.06701247891138355 0.005972473475996456 0.02816824355781073 -0.0013704092911236017 -0.008246051172322027 0.0015800041833684431 0.012830602459922222
 0.0015882754144605524 0.012829478335036776 -0.0013704092911236017 -0.008246051172322027 0.005971040400767618 0.028169628938910188 0.992666835459912 -0.0670112299546969
 -0.0013708219835772383 -0.008246032687631653 0.0015800041833684431 0.012830602459922222 0.992666835459912 -0.0670112299546969 0.005972205305798642 0.02816952416189218
0.100041684035 0.006415110965509463 0.030188289077985195 0.9920778898939395 -0.07159377149176181 0.001772526446270283 0.01368490958008436 -0.0015278239515427662 -0.008798495955011495
 0.9920778898939395 -0.07159377149176181 0.006417165587120841 0.030188097369384315 -0.0015273558785749272 -0.008798520152799284 0.0017631130525774042 0.013686221410742315
 0.001772526446270283 0.01368490958008436 -0.0015273558785749272 -0.008798520152799284 0.006415534967831923 0.0301895836966563 0.9920779498172042 -0.07159243955644315
 -0.0015278239515427662 -0.008798495955011495 0.0017631130525774042 0.013686221410742315 0.9920779498172042 -0.07159243955644315 0.00641685996441853 0.03018946582524897
0.1059090909091 0.006851919724747964 0.03209771331818895 0.9914995000286477 -0.07590511203193746 0.001955267545871951 0.014486874738610541 -0.0016835594198646251 -0.009316406985135457
 0.9914995000286477 -0.07590511203193746 0.006854222368064273 0.03209749820021904 -0.001683036360756281 -0.009316437261726386 0.0019447149520593306 0.014488380935358142
 0.001955267545871951 0.014486874738610541 -0.001683036360756281 -0.009316437261726386 0.006852394743457815 0.03209908052212529 0.9914995668932876 -0.07590370225061036
 -0.0016835594198646251 -0.009316406985135457 0.0019447149520593306 0.014488380935358142 0.9914995668932876 -0.07590370225061036 0.006853879353913615 0.03209894954700328
0.1062942892872 0.006881272094685148 0.03222353446549388 0.991460648662255 -0.07618856457266288 0.0019675994327984473 0.014539494687069972 -0.001694069806125696 -0.009350387125654051
 0.991460648662255 -0.07618856457266288 0.006883591516633192 0.032223317747906224 -0.0016935430355591336 -0.00935041782645161 0.0019569697673228383 0.014541014283735408
 0.0019675994327984473 0.014539494687069972 -0.0016935430355591336 -0.00935041782645161 0.006881750564318638 0.032224906415592926 0.991460715996029 -0.07618714968183053
 -0.001694069806125696 -0.009350387125654051 0.0019569697673228383 0.014541014283735408 0.991460715996029 -0.07618714968183053 0.0068832459715808675 0.03222477455205811
0.11254689453939999 0.007369485256191392 0.03427379794746741 0.9908147308448703 -0.08079659800098674 0.0021735682793711667 0.01539306056081545 -0.0018696355822680542 -0.009901536037203363
 0.9908147308448703 -0.08079659800098674 0.007372085585162067 0.03427355414851165 -0.0018690468257751883 -0.009901574071086109 0.0021616482492069575 0.015394809079478763
 0.0021735682793711667 0.01539306056081545 -0.0018690468257751883 -0.009901574071086109 0.007370021494309163 0.034275246608745945 0.9908148060216114 -0.08079510017742834
 -0.0018696355822680542 -0.009901536037203363 0.0021616482492069575 0.015394809079478763 0.9908148060216114 -0.08079510017742834 0.007371697645283563 0.0342750998298627
0.11879949979160001 0.007880081409578158 0.03633872708143592 0.9901398111610406 -0.08541759954732378 0.0023905036781076004 0.016245430642278222 -0.002054594046301522 -0.010451769635806135
 0.9901398111610406 -0.08541759954732378 0.0078829787715187 0.0363384540321334 -0.0020539400445313827 -0.010451815872888888 0.0023772192245218406 0.016247430343292697
 0.0023905036781076004 0.016245430642278222 -0.0020539400445313827 -0.010451815872888888 0.00788067871769943 0.0363402517964014 0.9901398946138894 -0.08541601881325193
 -0.002054594046301522 -0.010451769635806135 0.0023772192245218406 0.016247430343292697 0.9901398946138894 -0.08541601881325193 0.007882545961772696 0.036340089152656935
0.1250521050438 0.008413388019946219 0.038417966626962376 0.9894355672341516 -0.09005128572340766 0.0026184729911571405 0.01709642500772114 -0.002249014588308636 -0.011000911976828674
 0.9894355672341516 -0.09005128572340766 0.008416598561322765 0.038417662060042095 -0.002248292110903738 -0.011000967327177586 0.002603750108162562 0.017098699264077578
 0.0026184729911571405 0.01709642500772114 -0.002248292110903738 -0.011000967327177586 0.008414049699177537 0.038419566701781066 0.9894356593969778 -0.09004962209894671
 -0.002249014588308636 -0.011000911976828674 0.002603750108162562 0.017098699264077578 0.9894356593969778 -0.09004962209894671 0.008416118404867438 0.038419387216382286
0.131304710296 0.008969728899971706 0.04051115790027548 0.9887016797980904 -0.09469736244913873 0.0028575401349658245 0.017945860459192258 -0.0024529631135732626 -0.01154878424219336
 0.9887016797980904 -0.09469736244913873 0.008973268789995461 0.040510819448165716 -0.0024521689594260146 -0.01154884965568375 0.002841304888312995 0.017948433764490353
 0.0028575401349658245 0.017945860459192258 -0.0024521689594260146 -0.01154884965568375 0.00897045825082667 0.04051283260186719 0.9887017811053037 -0.09469561595465459
 -0.0024529631135732626 -0.01154878424219336 0.002841304888312995 0.017948433764490353 0.9887017811053037 -0.09469561595465459 0.008972738808227253 0.04051263526974047
0.1375573155481 0.009425994247875238 0.0423468453173518 0.9880613196842734 -0.09908428656614847 0.0030786651255901355 0.01876734567346181 -0.0026374249805591467 -0.012069005184360033
 0.9880613196842734 -0.09908428656614847 0.009429879368632156 0.042346476440503655 -0.0026365542479854865 -0.012069080798352769 0.0030608795806182643 0.01877021560338249
 0.0030786651255901355 0.01876734567346181 -0.0026365542479854865 -0.012069080798352769 0.00942679373549867 0.04234859427196023 0.9880614305464597 -0.09908245726585982
 -0.0026374249805591467 -0.012069005184360033 0.0030608795806182643 0.01877021560338249 0.9880614305464597 -0.09908245726585982 0.009429297967936205 0.04234838329075961
0.1438099208003 0.009898460454137418 0.044172152265044506 0.9873981698479237 -0.10345933881373146 0.003308689999810696 0.01958499910724588 -0.002829225426958599 -0.012585696188456485
 0.9873981698479237 -0.10345933881373146 0.009902706924393288 0.04417175094733264 -0.002828274651194315 -0.012585782947806509 0.003289286820291706 0.019588188198089773
 0.003308689999810696 0.01958499910724588 -0.002828274651194315 -0.012585782947806509 0.009899333229602493 0.04417397476267354 0.9873982906946747 -0.10345742673881075
 -0.002829225426958599 -0.012585696188456485 0.003289286820291706 0.019588188198089773 0.9873982906946747 -0.10345742673881075 0.009902071784155173 0.044173749452200116
0.1500625260525 0.01038695037624641 0.04598690412691401 0.9867124119822748 -0.10782238764321542 0.003547527923493727 0.02039872154896221 -0.0030282799159692384 -0.013098763842055255
 0.9867124119822748 -0.10782238764321542 0.01039157432621736 0.04598646825315977 -0.003027245639932307 -0.013098862729912404 0.003526440256815665 0.020402253153066416
 0.003547527923493727 0.02039872154896221 -0.003027245639932307 -0.013098862729912404 0.010387899581020228 0.04598879943161338 0.9867125432434519 -0.1078203928246714
 -0.0030282799159692384 -0.013098763842055255 0.003526440256815665 0.020402253153066416 0.9867125432434519 -0.1078203928246714 0.010390883134870056 0.04598855906526812
0.15631513130469998 0.010891285487553084 0.04779093148626396 0.9860042288416949 -0.11217330246372391 0.0037950909596237937 0.0212084156434555 -0.003234502802419952 -0.013608116830433486
 0.9860042288416949 -0.11217330246372391 0.010896303059691389 0.047790458841021385 -0.003233381576930878 -0.013608228868036904 0.003772252445798423 0.021212313919005393
