! Created with skrf 1.8.0 (http://scikit-rf.org).
# GHz S RI R 50.0 
!freq ReS11 ImS11 ReS12 ImS12 ReS13 ImS13
! ReS14 ImS14
! ReS21 ImS21 ReS22 ImS22 ReS23 ImS23
! ReS24 ImS24
! ReS31 ImS31 ReS32 ImS32 ReS33 ImS33
! ReS34 ImS34
! ReS41 ImS41 ReS42 ImS42 ReS43 ImS43
! ReS44 ImS44
!
0.0 0.001648094183578 0.0 0.9983519058164 0.0 6.409635526773e-05 0.0 -6.40963550001e-05 7.84953959878849e-21
 0.9983519058164 0.0 0.001648094183613 0.0 -6.409635500098e-05 7.849539598896261e-21 6.409635526629e-05 0.0
 6.409635526773e-05 0.0 -6.409635500098e-05 7.849539598896261e-21 0.001648094176504 0.0 0.9983519058093 0.0
 -6.40963550001e-05 7.84953959878849e-21 6.409635526629e-05 0.0 0.9983519058093 0.0 0.00164809417649 0.0
0.005 0.0017736245136886711 0.0013414671252712426 0.998193027293639 -0.0034523032921891933 9.095331031976432e-05 0.000745670723633343 -8.811403303143698e-05 -0.0004610842062244929
 0.998193027293639 -0.0034523032921891933 0.001773612266674825 0.001341474262005545 -8.811103567209285e-05 -0.0004610818804653936 9.102955508586251e-05 0.0007456415084023309
 9.095331031976432e-05 0.000745670723633343 -8.811103567209285e-05 -0.0004610818804653936 0.0017736258021780718 0.0013413990547042351 0.9981930269306785 -0.003452370360011577
 -8.811403303143698e-05 -0.0004610842062244929 9.102955508586251e-05 0.0007456415084023309 0.9981930269306785 -0.003452370360011577 0.0017736102543801397 0.001341408197005655
0.006252605252188 0.0018066485931536732 0.0016821272689051799 0.9981509511185251 -0.004316210538058897 9.867216286356757e-05 0.0009324254742159601 -9.494915586471689e-05 -0.0005769541514399393
 0.9981509511185251 -0.004316210538058897 0.0018066294495582829 0.0016821363930641685 -9.494449192567092e-05 -0.0005769512836952453 9.879128564183387e-05 0.0009323875546223429
 9.867216286356757e-05 0.0009324254742159601 -9.494449192567092e-05 -0.0005769512836952453 0.0018066506713785785 0.0016820421841418412 0.9981509506148357 -0.004316294364909617
 -9.494915586471689e-05 -0.0005769541514399393 9.879128564183387e-05 0.0009323875546223429 0.9981509506148357 -0.004316294364909617 0.0018066263672001227 0.0016820538247686145
0.01250521050438 0.0019810836783342033 0.0033995823264802187 0.9979271643312647 -0.008633147509021414 0.00014318124220344378 0.0018650534593665016 -0.00013402065195511025 -0.001156673919630261
 0.9979271643312647 -0.008633147509021414 0.0019810072458843106 0.0033996026170332837 -0.00013400227423229492 -0.001156668618564153 0.0001436562040475017 0.0018649624242979498
 0.00014318124220344378 0.0018650534593665016 -0.00013400227423229492 -0.001156668618564153 0.0019810925604508635 0.003399412369369875 0.997927162897106 -0.008633314892196372
 -0.00013402065195511025 -0.001156673919630261 0.0001436562040475017 0.0018649624242979498 0.997927162897106 -0.008633314892196372 0.0019809955097670803 0.003399437818452322
0.01875781575657 0.0021718014773796914 0.0051414807906979615 0.9976802523012851 -0.012961299932535902 0.00019773045386417055 0.002798538077855904 -0.00018143665614287117 -0.0017382545465899034
 0.9976802523012851 -0.012961299932535902 0.002171629745520969 0.005141514400345756 -0.00018139567687410832 -0.0017382473346730756 0.0001987972332701998 0.002798375570646555
 0.00019773045386417055 0.002798538077855904 -0.00018139567687410832 -0.0017382473346730756 0.00217182187478369 0.005141225945113552 0.9976802495046039 -0.012961550789207497
 -0.00018143665614287117 -0.0017382545465899034 0.0001987972332701998 0.002798375570646555 0.9976802495046039 -0.012961550789207497 0.0021716037897653528 0.005141267572774667
0.02501042100875 0.0023791908884414036 0.006905343670199929 0.9974099097816201 -0.01730273840764831 0.00026242769266589526 0.003732913063908117 -0.00023731823670441478 -0.002321404218751838
 0.9974099097816201 -0.01730273840764831 0.002378885934493341 0.006905392852383376 -0.00023724587590667344 -0.002321395715423599 0.0002643222479760589 0.003732657678060947
 0.00026242769266589526 0.003732913063908117 -0.00023724587590667344 -0.002321395715423599 0.0023792275116649676 0.006905003869180783 0.997409905191319 -0.01730307266733881
 -0.00023731823670441478 -0.002321404218751838 0.0002643222479760589 0.003732657678060947 0.997409905191319 -0.01730307266733881 0.0023788401986142176 0.006905064233784905
0.03126302626094 0.002603624679846155 0.008689880863098565 0.9971158167759415 -0.02165833158697834 0.0003373810085229531 0.004668121000937207 -0.0003017826118763875 -0.002905914933333629
 0.9971158167759415 -0.02165833158697834 0.0026031486480907295 0.008689947970184743 -0.0003016701791170118 -0.0029059058560746663 0.00034033949623622013 0.004667748264757718
 0.0003373810085229531 0.004668121000937207 -0.0003016701791170118 -0.0029059058560746663 0.0026036822403011466 0.008689455977198987 0.9971158099619515 -0.02165874920327824
 -0.0003017826118763875 -0.002905914933333629 0.00034033949623622013 0.004667748264757718 0.9971158099619515 -0.02165874920327824 0.0026030775751956425 0.008689537823744048
0.037515631513130004 0.00284546726836193 0.01049424030162965 0.9967976466194131 -0.026028496972113162 0.00042269755730438155 0.005604068316313062 -0.0003749440429918202 -0.0034916075300466675
 0.9967976466194131 -0.026028496972113162 0.0028447823561175826 0.010494327783776288 -0.00037478292827919086 -0.003491598694652303 0.0004269564266326758 0.005603550664401832
 0.00042269755730438155 0.005604068316313062 -0.00037478292827919086 -0.003491598694652303 0.0028455504797931723 0.010493730154035357 0.9967976371525435 -0.026028997907171097
 -0.0003749440429918202 -0.0034916075300466675 0.0004269564266326758 0.005603550664401832 0.9967976371525435 -0.026028997907171097 0.0028446803915256284 0.010493836414202979
0.043768236765320004 0.0031050777161754565 0.012317779474809349 0.9964550692758664 -0.0304134293213876 0.0005184830992512433 0.0065406420159170855 -0.0004569141456809552 -0.004078314976781313
 0.9964550692758664 -0.0304134293213876 0.0031041461617599578 0.012317889879357221 -0.0004566958139626695 -0.004078307297451615 0.0005242791339014662 0.006539948756627401
 0.0005184830992512433 0.0065406420159170855 -0.0004566958139626695 -0.004078307297451615 0.0031051912938372737 0.012317183849102475 0.9964550567265189 -0.030414013537788373
 -0.0004569141456809552 -0.004078314976781313 0.0005242791339014662 0.006539948756627401 0.9964550567265189 -0.030414013537788373 0.003104007751886945 0.012317317641669314
0.050020842017509996 0.0033828111083483415 0.014159971019807217 0.9960877530199076 -0.03481319498771033 0.0006248416906467365 0.0074777166012667965 -0.0005478019940597358 -0.004665875474242298
 0.9960877530199076 -0.03481319498771033 0.003381595181020407 0.014160106990952062 -0.0005475179818065527 -0.004665869963563339 0.000632412022509518 0.007476813882554631
 0.0006248416906467365 0.0074777166012667965 -0.0005475179818065527 -0.004665869963563339 0.0033829597705980303 0.01415928964292579 0.9960877369592348 -0.034813862465018934
 -0.0005478019940597358 -0.004665875474242298 0.000632412022509518 0.007476813882554631 0.9960877369592348 -0.034813862465018934 0.0033814147744321054 0.01415945427483335
0.055454545454549996 0.00363916119975307 0.015775681918630755 0.995748194884187 -0.038648760459361775 0.0007259365071846782 0.008292365241980232 -0.0006341114015899166 -0.005177051904382663
 0.995748194884187 -0.038648760459361775 0.003637667518311031 0.015775842330559023 -0.0006337634913401855 -0.005177049177066633 0.0007352416053285785 0.008291250524007348
 0.0007259365071846782 0.008292365241980232 -0.0006337634913401855 -0.005177049177066633 0.0036393441842214273 0.0157749257703585 0.9957481754227502 -0.03864950027438861
 -0.0006341114015899166 -0.005177051904382663 0.0007352416053285785 0.008291250524007348 0.9957481754227502 -0.03864950027438861 0.0036374461070103094 0.015775120035354192
0.056273447269699996 0.003679019256173407 0.016020356341590675 0.9956953654477531 -0.03922777823108225 0.0007418754586817626 0.008415157469810027 -0.0006477141343939162 -0.005254129081422527
 0.9956953654477531 -0.03922777823108225 0.0036774812462378723 0.016020520620388484 -0.0006473560472912953 -0.005254126850340383 0.0007514575646205386 0.008414008244473878
 0.0007418754586817626 0.008415157469810027 -0.0006473560472912953 -0.005254126850340383 0.003679207722443568 0.016019588900972707 0.9956953454458132 -0.039228528948174926
 -0.0006477141343939162 -0.005254129081422527 0.0007514575646205386 0.008414008244473878 0.9956953454458132 -0.039228528948174926 0.003677253291759539 0.016019787868640816
0.06252605252188 0.003994051056779465 0.017898520164289708 0.9952775741497445 -0.04365710660380293 0.000869684419354601 0.009352822787445758 -0.0007567545510818578 -0.0058429158740873725
 0.9952775741497445 -0.04365710660380293 0.0039921532663245345 0.01789871558893388 -0.0007563140625331895 -0.005842918131848365 0.0008815161064267094 0.00935138677817073
 0.000869684419354601 0.009352822787445758 -0.0007563140625331895 -0.005842918131848365 0.0039942840490231465 0.017897666308395375 0.995277549776427 -0.04365794053787234
 -0.0007567545510818578 -0.0058429158740873725 0.0008815161064267094 0.00935138677817073 0.995277549776427 -0.04365794053787234 0.003991872214759157 0.017897903299333447
0.06877865777407 0.004328252672556058 0.019794075341177164 0.9948340472064489 -0.04810106608290703 0.0010083663176186516 0.010290564616891897 -0.0008750246066280565 -0.006432074853274676
 0.9948340472064489 -0.04810106608290703 0.004325957406756706 0.01979430484752017 -0.0008744934567900674 -0.006432082907335926 0.00102268570055552 0.01028879828142245
 0.0010083663176186516 0.010290564616891897 -0.0008744934567900674 -0.006432082907335926 0.004328534914568794 0.019793134665872264 0.9948340180310543 -0.048101983222468336
 -0.0008750246066280565 -0.006432074853274676 0.00102268570055552 0.01028879828142245 0.9948340180310543 -0.048101983222468336 0.004325617710173664 0.01979341356068063
0.07503126302626001 0.0046819676021410675 0.021706653221457844 0.994364453580883 -0.05255951065218676 0.0011580164819044874 0.011228229637725184 -0.0010026229647961012 -0.007021443268471605
 0.994364453580883 -0.05255951065218676 0.004679237159854334 0.02170691984392655 -0.001001992959889286 -0.007021458524438697 0.0011750619543537007 0.011226086134262344
 0.0011580164819044874 0.011228229637725184 -0.001001992959889286 -0.007021458524438697 0.004682303819438898 0.02170562528154248 0.9943644191721356 -0.05256051098508739
 -0.0010026229647961012 -0.007021443268471605 0.0011750619543537007 0.011226086134262344 0.9943644191721356 -0.05256051098508739 0.004678833272576033 0.02170595015613155
0.08128386827845 0.0050555366808686985 0.023635897260813613 0.993868463445035 -0.057032268647612835 0.0013187276866114146 0.012165659638163264 -0.00113964550330209 -0.00761085617565431
 0.993868463445035 -0.057032268647612835 0.005052333346007099 0.023636204133602786 -0.0011389085152905714 -0.007610880137177289 0.0013387378877691776 0.012163088791272092
 0.0013187276866114146 0.012165659638163264 -0.0011389085152905714 -0.007610880137177289 0.005055931600148903 0.023634781565259003 0.9938684233704421 -0.05703335216517511
 -0.00113964550330209 -0.00761085617565431 0.0013387378877691776 0.012163088791272092 0.9938684233704421 -0.05703335216517511 0.0050518597243960775 0.02363515669345483
0.08753647353064001 0.005449298036106615 0.02558145859838381 0.9933457484644078 -0.061519147143694865 0.0014905900206213325 0.013102691863563042 -0.001286185218780275 -0.008200146145662975
 0.9933457484644078 -0.061519147143694865 0.005445584068867373 0.025581808956926376 -0.001285333185253208 -0.008200180414326933 0.0015138037979741223 0.013099640130411098
 0.0014905900206213325 0.013102691863563042 -0.001285333185253208 -0.008200180414326933 0.005449756385546735 0.025580254609317808 0.9933457022906582 -0.06152031384120185
 -0.001286185218780275 -0.008200146145662975 0.0015138037979741223 0.013099640130411098 0.9933457022906582 -0.06152031384120185 0.00544503517224786 0.025580684465800873
0.09378907878283 0.005863587012222524 0.02754299289941718 0.9927959820567844 -0.06601993508219657 0.001673690758981902 0.014039159277021427 -0.0014423321270345397 -0.008789143067460639
 0.9927959820567844 -0.06601993508219657 0.005859324640126536 0.027543390082247522 -0.0014413570511991527 -0.00878918934266626 0.0017003471279136164 0.014035569714358794
 0.001673690758981902 0.014039159277021427 -0.0014413570511991527 -0.00878918934266626 0.0058641135204771325 0.027541700034409585 0.9927959293493538 -0.06602118495606323
 -0.0014423321270345397 -0.008789143067460639 0.0017003471279136164 0.014035569714358794 0.9927959293493538 -0.06602118495606323 0.005858694930770931 0.027542189297883126
0.100041684035 0.006298736071155272 0.029520158051331336 0.992218839630452 -0.0705344055555376 0.0018681142375728806 0.01497489076294205 -0.0016081731591992784 -0.009377674015907696
 0.992218839630452 -0.0705344055555376 0.0062938874801128945 0.029520605502281236 -0.001607067110027335 -0.009377734094752 0.0018984523380208226 0.014970702994582303
 0.0018681142375728806 0.01497489076294205 -0.001607067110027335 -0.009377734094752 0.0062993354673638886 0.02951877568118401 0.9922187799532611 -0.07053573860493258
 -0.0016081731591992784 -0.009377674015907696 0.0018984523380208226 0.014970702994582303 0.9922187799532611 -0.07053573860493258 0.00629317142424906 0.02951932923796658
0.1059090909091 0.0067263428503473235 0.031389429617818085 0.991652067290174 -0.07478298685282259 0.0020609303966462296 0.015852150332363403 -0.0017726887149582089 -0.009929367508804823
 0.991652067290174 -0.07478298685282259 0.0067209097185826705 0.031389927468242255 -0.0017714526068670412 -0.009929442262223394 0.0020949409775600433 0.01584734321403843
 0.0020609303966462296 0.015852150332363403 -0.0017714526068670412 -0.009929442262223394 0.006727014945635257 0.031387962641712994 0.9916520006751235 -0.07478439795579606
 -0.0017726887149582089 -0.009929367508804823 0.0020949409775600433 0.01584734321403843 0.9916520006751235 -0.07478439795579606 0.006720107606785638 0.03138858116347028
0.1062942892872 0.006755074676845023 0.03151261243631443 0.9916139988092595 -0.07506231752211243 0.0020739417294460515 0.015909711289684506 -0.0017837920551741495 -0.009965563167884509
 0.9916139988092595 -0.07506231752211243 0.006749602002226191 0.0315131137070767 -0.0017825471677111887 -0.00996563894499822 0.0021082007802115965 0.01590486147479797
 0.0020739417294460515 0.015909711289684506 -0.0017825471677111887 -0.00996563894499822 0.006755751690461164 0.03151113988375122 0.991613931725162 -0.07506373374971308
 -0.0017837920551741495 -0.009965563167884509 0.0021082007802115965 0.01590486147479797 0.991613931725162 -0.07506373374971308 0.006748794070500336 0.0315117628317946
0.11254689453939999 0.007232929167061697 0.03352001361204711 0.9909811396489728 -0.07960341712233711 0.0022912513224904387 0.01684344205022804 -0.001969269255178245 -0.010552631748114391
 0.9909811396489728 -0.07960341712233711 0.007226794484824695 0.0335205723650358 -0.0019678777308592614 -0.010552725215522979 0.002329670573427901 0.016837862852295597
 0.0022912513224904387 0.01684344205022804 -0.0019678777308592614 -0.010552725215522979 0.007233688527025322 0.03351845015258085 0.9909810647189023 -0.0796049165328654
 -0.001969269255178245 -0.010552631748114391 0.002329670573427901 0.016837862852295597 0.9909810647189023 -0.0796049165328654 0.00722588915277102 0.03351914780562623
0.11879949979160001 0.007732622615368381 0.035542017294330805 0.9903199448463387 -0.0841574387017605 0.002520117798754464 0.017775900581584167 -0.0021646817894134603 -0.011138698004017948
 0.9903199448463387 -0.0841574387017605 0.007725787932831753 0.03554263730600866 -0.0021631358965202136 -0.011138811250956771 0.0025629364807124152 0.017769521138200232
 0.002520117798754464 0.017775900581584167 -0.0021631358965202136 -0.011138811250956771 0.007733469049835362 0.035540362155215555 0.9903198616295288 -0.08415902130245315
 -0.0021646817894134603 -0.011138698004017948 0.0025629364807124152 0.017769521138200232 0.9903198616295288 -0.08415902130245315 0.007724779681391366 0.03554114004752414
0.1250521050438 0.008254474684107229 0.03757827656004601 0.9896300999425249 -0.08872410562293187 0.0027606125138734494 0.018706900875240393 -0.002370103167231394 -0.011723577197491983
 0.9896300999425249 -0.08872410562293187 0.008246901931263213 0.03757896172457078 -0.002368395241366022 -0.011723712410198003 0.0028080697872461882 0.018699646768786993
 0.0027606125138734494 0.018706900875240393 -0.002368395241366022 -0.011723712410198003 0.008255412920174333 0.03757652891959103 0.9896300079964456 -0.08872577142371228
 -0.002370103167231394 -0.011723577197491983 0.0028080697872461882 0.018699646768786993 0.9896300079964456 -0.08872577142371228 0.008245785247945945 0.03757739281093056
0.131304710296 0.008798801472923315 0.0396284412116665 0.9889112935240294 -0.09330313092531436 0.003012803278469288 0.019636253478275943 -0.002585603265022615 -0.012307081614067811
 0.9889112935240294 -0.09330313092531436 0.00879045249288328 0.03962919554503722 -0.0025837257097109517 -0.01230724107562397 0.0030651381795264577 0.01962804670744046
 0.003012803278469288 0.019636253478275943 -0.0025837257097109517 -0.01230724107562397 0.008799836236027809 0.03962660019819445 0.9889111924039958 -0.09330487993919415
 -0.002585603265022615 -0.012307081614067811 0.0030651381795264577 0.01962804670744046 0.9889111924039958 -0.09330487993919415 0.008789221872050125 0.03962755607932433
0.1375573155481 0.009244966237755416 0.041423590835000856 0.9882842232050718 -0.09762549665848462 0.0032458755997363084 0.02053688175998787 -0.0027803209914451558 -0.012862206378882307
 0.9882842232050718 -0.09762549665848462 0.009235798618028042 0.04142439844781648 -0.0027782624477550397 -0.012862390383070537 0.0033032139931812926 0.020527730761049693
 0.0032458755997363084 0.02053688175998787 -0.0027782624477550397 -0.012862390383070537 0.009246101512985428 0.0414216556360601 0.98828411249746 -0.09762732884490845
 -0.0027803209914451558 -0.012862206378882307 0.0033032139931812926 0.020527730761049693 0.98828411249746 -0.09762732884490845 0.009234449234416587 0.04142268936791976
0.1438099208003 0.009706931407159307 0.043208533217728204 0.9876348861641542 -0.10193617558724725 0.0034883468681138345 0.021433531649257414 -0.0029828161422947746 -0.013413643774213745
 0.9876348861641542 -0.10193617558724725 0.009696906207467066 0.04320939680937752 -0.0029805684340732013 -0.013413854579623581 0.0035509071860758247 0.021423364666465265
 0.0034883468681138345 0.021433531649257414 -0.0029805684340732013 -0.013413854579623581 0.009708171783719638 0.04320650294233773 0.9876347654285007 -0.10193809094647195
 -0.0029828161422947746 -0.013413643774213745 0.0035509071860758247 0.021423364666465265 0.9876347654285007 -0.10193809094647195 0.00969543268548853 0.04320761922939621
0.1500625260525 0.010184523664241774 0.04498309747098038 0.9869634604150538 -0.1062350389188489 0.003740127139580671 0.022326100496225503 -0.0031930003206377244 -0.013961295308403537
 0.9869634604150538 -0.1062350389188489 0.010173601833535198 0.044984019913592854 -0.0031905552917000676 -0.013961535264609248 0.003808126391935788 0.022314843150174637
 0.003740127139580671 0.022326100496225503 -0.0031905552917000676 -0.013961535264609248 0.010185873721072086 0.044980971188531275 0.9869633292097919 -0.10623703745407008
 -0.0031930003206377244 -0.013961295308403537 0.003808126391935788 0.022314843150174637 0.9869633292097919 -0.10623703745407008 0.010171998811397034 0.044982174988783624
0.15631513130469998 0.010677568325234088 0.046747117810307395 0.9862701250300784 -0.11052195878993595 0.004001125335983945 0.02321448754062737 -0.003410783967860871 -0.014505064695309199
 0.9862701250300784 -0.11052195878993595 0.01066571069876125 0.046748102153816556 -0.00340813348227817 -0.014505336242473502 0.004074779086520948 0.02320206285769895
