! Created with skrf 1.8.0 (http://scikit-rf.org).
# GHz S RI R 50.0 
!freq ReS11 ImS11 ReS12 ImS12 ReS13 ImS13
! ReS14 ImS14
! ReS21 ImS21 ReS22 ImS22 ReS23 ImS23
! ReS24 ImS24
! ReS31 ImS31 ReS32 ImS32 ReS33 ImS33
! ReS34 ImS34
! ReS41 ImS41 ReS42 ImS42 ReS43 ImS43
! ReS44 ImS44
!
0.0 0.001407078198053 0.0 0.9985929217767 0.0 5.430141976553e-05 0.0 -5.430141987656e-05 6.650006004098567e-21
 0.9985929217767 0.0 0.001407078198067 0.0 -5.430141987662e-05 6.650006004105915e-21 5.430141976557e-05 0.0
 5.430141976553e-05 0.0 -5.430141987662e-05 6.650006004105915e-21 0.001407078210668 0.0 0.9985929217893 0.0
 -5.430141987656e-05 6.650006004098567e-21 5.430141976557e-05 0.0 0.9985929217893 0.0 0.001407078210674 0.0
0.005 0.0015136051132150768 0.0011465609836479342 0.9984582106353446 -0.002948194767359435 7.651510648335352e-05 0.0006271500818246947 -7.424381950747974e-05 -0.00038866939642599377
 0.9984582106353446 -0.002948194767359435 0.0015135843786477812 0.0011465731283968727 -7.424529071380229e-05 -0.0003886705648378018 7.66354383806214e-05 0.0006271042783559053
 7.651510648335352e-05 0.0006271500818246947 -7.424529071380229e-05 -0.0003886705648378018 0.0015136045308808328 0.0011466286223964608 0.9984582109953394 -0.0029481277124343104
 -7.424381950747974e-05 -0.00038866939642599377 7.66354383806214e-05 0.0006271042783559053 0.9984582109953394 -0.0029481277124343104 0.0015135856749791364 0.0011466395936569204
0.006252605252188 0.0015414417536705114 0.0014377486422917666 0.998422806809265 -0.003685983273748734 8.278162989289924e-05 0.0007842362782011289 -7.982780437177942e-05 -0.0004863522866513468
 0.998422806809265 -0.003685983273748734 0.0015414093414353961 0.0014377640678301792 -7.983009341048105e-05 -0.0004863537283527403 8.29696385203252e-05 0.0007841768295466028
 8.278162989289924e-05 0.0007842362782011289 -7.983009341048105e-05 -0.0004863537283527403 0.0015414407522171326 0.0014378331913869624 0.9984228072814008 -0.0036858994561864765
 -7.982780437177942e-05 -0.0004863522866513468 8.29696385203252e-05 0.0007841768295466028 0.9984228072814008 -0.0036858994561864765 0.0015414112774693538 0.001437847140913952
0.01250521050438 0.0016873847608888466 0.0029059488147091155 0.998236059908836 -0.007372900958069061 0.00011829830925743358 0.0015688012467813487 -0.00011126114168563628 -0.0009751598029070946
 0.998236059908836 -0.007372900958069061 0.001687255332489545 0.0029059821298077723 -0.00011127015925684696 -0.0009751624818666388 0.00011904806984007215 0.0015686588097364605
 0.00011829830925743358 0.0015688012467813487 -0.00011127015925684696 -0.0009751624818666388 0.0016873801780849464 0.002906117691647588 0.9982360612187807 -0.007372733550996224
 -0.00011126114168563628 -0.0009751598029070946 0.00011904806984007215 0.0015686588097364605 0.9982360612187807 -0.007372733550996224 0.0016872624915632835 0.0029061479471771843
0.01875781575657 0.0018452043234576548 0.0043953497066760204 0.9980324642580212 -0.011069754147220999 0.00016093117331118586 0.00235426971148195 -0.00014869426346483897 -0.0014656935995650971
 0.9980324642580212 -0.011069754147220999 0.0018449134812066094 0.004395403549800195 -0.0001487143687280126 -0.0014656972763913009 0.0001626154925932798 0.0023540164474249725
 0.00016093117331118586 0.00235426971148195 -0.0001487143687280126 -0.0014656972763913009 0.0018451935888214972 0.004395602821695039 0.9980324667832029 -0.011069503224465696
 -0.00014869426346483897 -0.0014656935995650971 0.0001626154925932798 0.0023540164474249725 0.9980324667832029 -0.011069503224465696 0.00184492915479061 0.00439565186542481
0.02501042100875 0.0020151899625286502 0.005903879121740907 0.9978117951133549 -0.014778357127247689 0.000210760537961476 0.0031406994583377443 -0.00019221721109893798 -0.0019577370383921005
 0.9978117951133549 -0.014778357127247689 0.0020146734331164687 0.005903956283860633 -0.0001922527101240691 -0.001957741434207723 0.0002137524163780374 0.003140303395953772
 0.000210760537961476 0.0031406994583377443 -0.0001922527101240691 -0.001957741434207723 0.0020151704949093047 0.005904216411476663 0.9978117992267511 -0.01477802271212362
 -0.00019221721109893798 -0.0019577370383921005 0.0002137524163780374 0.003140303395953772 0.9978117992267511 -0.01477802271212362 0.002014700904156961 0.005904286831744171
0.03126302626094 0.00219761912976385 0.0074304815171587655 0.9975738155168135 -0.01849949929494213 0.00026786719468306554 0.003928072951199358 -0.0002419176410813956 -0.002451144193878685
 0.9975738155168135 -0.01849949929494213 0.0021968127304705294 0.007430584937611854 -0.00024197279598058932 -0.002451148989763657 0.0002725401813023616 0.00392749796393985
 0.00026786719468306554 0.003928072951199358 -0.00024197279598058932 -0.002451148989763657 0.002197588342877144 0.007430902925644286 0.9975738215954744 -0.01849908137915631
 -0.0002419176410813956 -0.002451144193878685 0.0002725401813023616 0.00392749796393985 0.9975738215954744 -0.01849908137915631 0.002196855281649701 0.0074309974125564915
0.037515631513130004 0.002392763411941839 0.0089744768782277 0.9973182826690195 -0.022233586225925358 0.0003323317082873921 0.0047163432261116064 -0.00029788151032205653 -0.00294579396387404
 0.9973182826690195 -0.022233586225925358 0.002391603029124715 0.008974609642793478 -0.0002979605440566225 -0.002945798800706091 0.00033906006448245916 0.004715548990436094
 0.0003323317082873921 0.0047163432261116064 -0.0002979605440566225 -0.002945798800706091 0.0023927187110475536 0.008974982349588538 0.9973182910917975 -0.022233084776916923
 -0.00029788151032205653 -0.00294579396387404 0.00033906006448245916 0.004715548990436094 0.9973182910917975 -0.022233084776916923 0.0023916639399598674 0.008975103692606234
0.043768236765320004 0.0026008909280267473 0.010535365610895487 0.9970449504915538 -0.025980834717846346 0.0004042340928485865 0.005505447845891742 -0.000360193326157404 -0.003441576111805558
 0.9970449504915538 -0.025980834717846346 0.002599312500064423 0.010535530950686111 -0.0003603004253985616 -0.0034415805902120304 0.00041339287423499397 0.005504389793471314
 0.0004042340928485865 0.005505447845891742 -0.0003603004253985616 -0.0034415805902120304 0.002600829710028471 0.010535955085246851 0.9970449616403376 -0.025980249682901985
 -0.000360193326157404 -0.003441576111805558 0.00041339287423499397 0.005504389793471314 0.9970449616403376 -0.025980249682901985 0.0025993950474069217 0.010536106171462884
0.050020842017509996 0.002822267446848546 0.012112747907390366 0.996753570909997 -0.02974135335854994 0.0004836536155705988 0.006295314663849794 -0.0004289362471889282 -0.003938385498744155
 0.996753570909997 -0.02974135335854994 0.0028202069497374953 0.01211294919826761 -0.00042907556416685273 -0.003938389179095091 0.0004956187106494735 0.006293943931271949
 0.0004836536155705988 0.006295314663849794 -0.00042907556416685273 -0.003938389179095091 0.0028221870999155145 0.012113421319623898 0.9967535851708301 -0.02974068466622369
 -0.0004289362471889282 -0.003938385498744155 0.0004956187106494735 0.006293943931271949 0.9967535851708301 -0.02974068466622369 0.0028203144075073967 0.012113605132469552
0.055454545454549996 0.003025615236084095 0.013496670893038371 0.9964855029142837 -0.03302016725014159 0.0005588373235002189 0.006982290619938206 -0.000493962366931869 -0.004370882237282442
 0.9964855029142837 -0.03302016725014159 0.0030230838304697544 0.013496906280400279 -0.0004941330284867139 -0.004370884835809555 0.0005735471144088677 0.006980605101284675
 0.0005588373235002189 0.006982290619938206 -0.0004941330284867139 -0.004370884835809555 0.003025516136818045 0.013497417193087467 0.9964855201959874 -0.033019425784260634
 -0.000493962366931869 -0.004370882237282442 0.0005735471144088677 0.006980605101284675 0.9964855201959874 -0.033019425784260634 0.0030232155916296876 0.013497631943477422
0.056273447269699996 0.003057156970336913 0.013706284174174707 0.996443894606395 -0.03351518203252704 0.0005706686603645608 0.007085864644109192 -0.0005041921138357602 -0.004436119259971911
 0.996443894606395 -0.03351518203252704 0.003054550404777417 0.013706524936589186 -0.0005043677676758876 -0.004436121662393548 0.0005858168033426128 0.0070841280214277835
 0.0005706686603645608 0.007085864644109192 -0.0005043677676758876 -0.004436121662393548 0.003057054872307972 0.013707041455055457 0.9964439123684407 -0.03351442959156162
 -0.0005041921138357602 -0.004436119259971911 0.0005858168033426128 0.0070841280214277835 0.9964439123684407 -0.03351442959156162 0.003054686042083558 0.013707261073484779
0.06252605252188 0.0033058220491218177 0.01531567327305915 0.9961156715054127 -0.03730231361565514 0.0006653566186968462 0.007877013418474708 -0.0005860414458156233 -0.004934675246988865
 0.9961156715054127 -0.03730231361565514 0.003302605427926751 0.0153159571722076 -0.0005862575233586625 -0.004934675851378437 0.0006840653849253815 0.007874853297258193
 0.0006653566186968462 0.007877013418474708 -0.0005862575233586625 -0.004934675851378437 0.0033056955691647197 0.015316514346835208 0.9961156931640932 -0.037301477317677065
 -0.0005860414458156233 -0.004934675246988865 0.0006840653849253815 0.007874853297258193 0.9961156931640932 -0.037301477317677065 0.0033027725110519094 0.015316772944717756
0.06877865777407 0.003568523959014939 0.01694063954180456 0.9957686511249936 -0.04110270689274373 0.0007677937974366954 0.008668672210034973 -0.0006745634180794936 -0.0054339511052617605
 0.9957686511249936 -0.04110270689274373 0.003564633295875779 0.016940970388124255 -0.0006748239746302306 -0.005433949351319566 0.0007904415870091491 0.008666026531213383
 0.0007677937974366954 0.008668672210034973 -0.0006748239746302306 -0.005433949351319566 0.0035683704548681093 0.016941564330529898 0.99576867708006 -0.04110178660803443
 -0.0006745634180794936 -0.0054339511052617605 0.0007904415870091491 0.008666026531213383 0.99576867708006 -0.04110178660803443 0.003564835084590294 0.01694186517647655
0.07503126302626001 0.003845522787930966 0.01858092457962028 0.9954025828397347 -0.04491629471265104 0.0008780553342821285 0.009460748419996603 -0.000769835826485855 -0.0059338436914690516
 0.9954025828397347 -0.04491629471265104 0.0038408940857571103 0.018581306329644026 -0.0007701448862611277 -0.005933838978726839 0.0009050213464561167 0.0094575506217988
 0.0008780553342821285 0.009460748419996603 -0.0007701448862611277 -0.005933838978726839 0.0038453396069982743 0.018581932993184346 0.995402613497265 -0.044915290300402096
 -0.000769835826485855 -0.0059338436914690516 0.0009050213464561167 0.0094575506217988 0.995402613497265 -0.044915290300402096 0.003841133834154589 0.018582279450627202
0.08128386827845 0.004137077474377788 0.020236281758228964 0.995017216099131 -0.04874298942110988 0.000996215120175299 0.010253146020966226 -0.000871935043748421 -0.006434248687274257
 0.995017216099131 -0.04874298942110988 0.004131646714091648 0.020236718515714448 -0.0008722966002114409 -0.00643424037513037 0.001027879321018339 0.010249324987062427
 0.000996215120175299 0.010253146020966226 -0.0008722966002114409 -0.00643424037513037 0.004136861952981247 0.020237373706571242 0.9950172518716225 -0.048741900717372694
 -0.000871935043748421 -0.006434248687274257 0.001027879321018339 0.010249324987062427 0.9950172518716225 -0.048741900717372694 0.004131927669477805 0.020237769234233188
0.08753647353064001 0.004443445807845742 0.021906472449363754 0.9946123006100603 -0.052582686580044495 0.0011223457244696692 0.011045765828084196 -0.0009809359707459101 -0.0069350603383863665
 0.9946123006100603 -0.052582686580044495 0.0044371489372113295 0.021906968466837727 -0.0009813539868315847 -0.006935047746143409 0.0011590888088306409 0.01104124583605258
 0.0011223457244696692 0.011045765828084196 -0.0009813539868315847 -0.006935047746143409 0.004443195270383097 0.02190764783324577 0.9946123419170142 -0.05258151340729361
 -0.0009809359707459101 -0.0069350603383863665 0.0011590888088306409 0.01104124583605258 0.9946123419170142 -0.05258151340729361 0.004437474338815072 0.021908095985902473
0.09378907878283 0.004764884405825876 0.023591263312033067 0.9941875864993105 -0.0564352676308234 0.0012565183224302811 0.011838505698780389 -0.0010969119836987838 -0.007436171268211415
 0.9941875864993105 -0.0564352676308234 0.0047576573284395796 0.023591822992578105 -0.0010973903919744832 -0.007436153675112521 0.001298721671228838 0.01183320636904248
 0.0012565183224302811 0.011838505698780389 -0.0010973903919744832 -0.007436153675112521 0.004764596164846596 0.023592522026714625 0.9941876337679695 -0.056434009794534105
 -0.0010969119836987838 -0.007436171268211415 0.001298721671228838 0.01183320636904248 0.9941876337679695 -0.056434009794534105 0.004758030406881643 0.023593026456328468
0.100041684035 0.005101648673603628 0.0252904243076919 0.9937428244609996 -0.060300601833113705 0.0013988026244968646 0.012631260679093193 -0.0012199348780456997 -0.007937472348393912
 0.9937428244609996 -0.060300601833113705 0.0050934272376657475 0.02529105220720583 -0.0012204775808222351 -0.00793744899367446 0.0014468482580172633 0.012625096924284675
 0.0013988026244968646 0.012631260679093193 -0.0012204775808222351 -0.00793744899367446 0.005101320029689195 0.02529176624608159 0.9937428781273187 -0.06029925911894172
 -0.0012199348780456997 -0.007937472348393912 0.0014468482580172633 0.012625096924284675 0.9937428781273187 -0.06029925911894172 0.005093851214180903 0.025292330703289078
0.1059090909091 0.005431831151907944 0.026897772842159922 0.9933070076314973 -0.06393928097460914 0.0015397596064103752 0.013375095031217697 -0.001341850394175414 -0.008407964350449609
 0.9933070076314973 -0.06393928097460914 0.005422618211480907 0.02689846903981415 -0.001342456952683019 -0.008407934861551896 0.0015936355733280369 0.01336803848156238
 0.0015397596064103752 0.013375095031217697 -0.001342456952683019 -0.008407934861551896 0.005431462127248855 0.026899192772445808 0.9933070677051222 -0.06393785840447354
 -0.001341850394175414 -0.008407964350449609 0.0015936355733280369 0.01336803848156238 0.9933070677051222 -0.06393785840447354 0.0054230928702254984 0.026899817059884024
0.1062942892872 0.0054539927512995716 0.02700372721146257 0.9932777658945353 -0.06417854771148873 0.0015492668058853984 0.013423923119959264 -0.0013500748105617073 -0.008438852602828565
 0.9932777658945353 -0.06417854771148873 0.005444712738471993 0.02700442804117151 -0.001350685679892494 -0.008438822685759946 0.001603537333773977 0.013416805094921077
 0.0015492668058853984 0.013423923119959264 -0.001350685679892494 -0.008438822685759946 0.005453620991790097 0.027005152258395743 0.9932778264027349 -0.0641771198913237
 -0.0013500748105617073 -0.008438852602828565 0.001603537333773977 0.013416805094921077 0.9932778264027349 -0.0641771198913237 0.005445190823241603 0.02700578059436814
0.11254689453939999 0.005822169450026185 0.0287309444685743 0.9927921630338064 -0.068068954160794 0.0017079774374757657 0.014216382767954233 -0.0014874002390639334 -0.008940199140798993
 0.9927921630338064 -0.068068954160794 0.005811766564391835 0.02873172309800792 -0.0014880831168012797 -0.008940161820735143 0.0017688560054884648 0.014208215820369664
 0.0017079774374757657 0.014216382767954233 -0.0014880831168012797 -0.008940161820735143 0.0058217518494938295 0.028732452506078993 0.9927922308379595 -0.06806744098792346
 -0.0014874002390639334 -0.008940199140798993 0.0017688560054884648 0.014208215820369664 0.9927922308379595 -0.06806744098792346 0.005812301955952886 0.028733148674779375
0.11879949979160001 0.006206430181759116 0.030471848302971977 0.9922857690724454 -0.07197166130348613 0.0018749994168458357 0.015008526841273644 -0.0016319778609278882 -0.009441397108554012
 0.9922857690724454 -0.07197166130348613 0.0061948400384174125 0.03047270976329154 -0.0016327365586009648 -0.0094413515049981 0.0019428696508505638 0.014999211462951497
 0.0018749994168458357 0.015008526841273644 -0.0016327365586009648 -0.0094413515049981 0.006205964001156879 0.030473439208137908 0.992285844636733 -0.07197006251503918
 -0.0016319778609278882 -0.009441397108554012 0.0019428696508505638 0.014999211462951497 0.992285844636733 -0.07197006251503918 0.006195435922723502 0.030474207268913207
0.1250521050438 0.006607024882306053 0.03222621001584395 0.9917583382853503 -0.0758865011611747 0.0020503958993524783 0.015800240093434434 -0.0017838725504441973 -0.00994232965698945
 0.9917583382853503 -0.0758865011611747 0.006594182996163406 0.03222715950353082 -0.0017847108492299053 -0.009942274849634976 0.0021256418468996773 0.015789671872397323
 0.0020503958993524783 0.015800240093434434 -0.0017847108492299053 -0.009942274849634976 0.006606507368642613 0.0322278836616023 0.9917584220845804 -0.07588481647783993
 -0.0017838725504441973 -0.00994232965698945 0.0021256418468996773 0.015789671872397323 0.9917584220845804 -0.07588481647783993 0.0065948425451471185 0.03222872778226869
0.131304710296 0.007024201929074577 0.03399379942403043 0.9912096261470291 -0.07981329819080027 0.002234228229703306 0.01659140487064531 -0.001943147295053695 -0.010442877919405527
 0.9912096261470291 -0.07981329819080027 0.0070100437034268945 0.0339948423050302 -0.0019440689457312147 -0.010442812948229534 0.002317234299100707 0.016579474443941217
 0.002234228229703306 0.01659140487064531 -0.0019440689457312147 -0.010442812948229534 0.007023630315339035 0.033995555678930416 0.9912097186673936 -0.07981152731745983
 -0.001943147295053695 -0.010442877919405527 0.002317234299100707 0.016579474443941217 0.9912097186673936 -0.07981152731745983 0.0070107700740723415 0.03399648013925227
0.1375573155481 0.007359568088672335 0.03554244794056659 0.9907380644816741 -0.08351983167612449 0.0024020563441448845 0.01735789913831117 -0.0020852696589945255 -0.010919000995613626
 0.9907380644816741 -0.08351983167612449 0.007344024858300568 0.03554356675022382 -0.0020862803034362386 -0.010918925857245302 0.0024930149939552124 0.017344629494249343
 0.0024020563441448845 0.01735789913831117 -0.0020862803034362386 -0.010918925857245302 0.0073589403886593 0.03554428658569675 0.9907381661233994 -0.08351797443597497
 -0.0020852696589945255 -0.010919000995613626 0.0024930149939552124 0.017344629494249343 0.9907381661233994 -0.08351797443597497 0.007344820577871788 0.03554527319775744
0.1438099208003 0.007706624912981062 0.03708342846676899 0.9902501274246598 -0.08721749463523422 0.0025766610238387292 0.018121737487072395 -0.0022330991778788866 -0.011392644695023555
 0.9902501274246598 -0.08721749463523422 0.007689631321904611 0.03708462711377181 -0.002234202863725109 -0.01139255845013928 0.0026759224490075614 0.01810702918382412
 0.0025766610238387292 0.018121737487072395 -0.002234202863725109 -0.01139255845013928 0.007705938480536109 0.03708534933454756 0.9902502386728443 -0.08721555073924607
 -0.0022330991778788866 -0.011392644695023555 0.0026759224490075614 0.01810702918382412 0.9902502386728443 -0.08721555073924607 0.007690499412162702 0.03708640093071255
0.1500625260525 0.008065257550603794 0.03861662735096258 0.9897459335372566 -0.09090621113680454 0.002757986577644787 0.018882856367369853 -0.0023865806884989854 -0.011863746353844235
 0.9897459335372566 -0.09090621113680454 0.008046748114356059 0.03861790996996275 -0.0023877814570097324 -0.011863648025366168 0.0028658990871971387 0.018866606348442845
 0.002757986577644787 0.018882856367369853 -0.0023877814570097324 -0.011863648025366168 0.008064509734910227 0.03861863026981865 0.9897460548866207 -0.09090418028151938
 -0.0023865806884989854 -0.011863746353844235 0.0028658990871971387 0.018866606348442845 0.9897460548866207 -0.09090418028151938 0.008047691575324397 0.03861974986657456
0.15631513130469998 0.008435350416701685 0.04014193444520355 0.9892256018960286 -0.09458590520141898 0.002945976711445224 0.019641193225628854 -0.0025456583943458673 -0.012332244573611524
