! Created with skrf 1.8.0 (http://scikit-rf.org).
# GHz S RI R 50.0 
!freq ReS11 ImS11 ReS12 ImS12 ReS13 ImS13
! ReS14 ImS14
! ReS21 ImS21 ReS22 ImS22 ReS23 ImS23
! ReS24 ImS24
! ReS31 ImS31 ReS32 ImS32 ReS33 ImS33
! ReS34 ImS34
! ReS41 ImS41 ReS42 ImS42 ReS43 ImS43
! ReS44 ImS44
!
0.0 0.001363963183551 0.0 0.9986360368095 0.0 5.236468832001e-05 0.0 -5.2364688298e-05 6.412824791249456e-21
 0.9986360368095 0.0 0.001363963183584 0.0 -5.236468829837e-05 6.412824791294769e-21 5.236468832076e-05 0.0
 5.236468832001e-05 0.0 -5.236468829837e-05 6.412824791294769e-21 0.001363963187018 0.0 0.998636036813 0.0
 -5.2364688298e-05 6.412824791249456e-21 5.236468832076e-05 0.0 0.998636036813 0.0 0.001363963187034 0.0
0.005 0.001467052666177917 0.0011151919355899586 0.9985056821403768 -0.002857727423367188 7.327996472353808e-05 0.0005831942500879276 -7.114465674519186e-05 -0.0003650626498244322
 0.9985056821403768 -0.002857727423367188 0.0014670690163426797 0.0011151824317998606 -7.114653361368597e-05 -0.00036506411981736427 7.317610510926478e-05 0.0005832338053707532
 7.327996472353808e-05 0.0005831942500879276 -7.114653361368597e-05 -0.00036506411981736427 0.0014670512181364107 0.0011151255545002697 0.998505681794639 -0.002857794486448742
 -7.114465674519186e-05 -0.0003650626498244322 7.317610510926478e-05 0.0005832338053707532 0.998505681794639 -0.002857794486448742 0.001467069777997847 0.0011151146913605462
0.006252605252188 0.0014939513061880967 0.0013984007052704518 0.9984714743962878 -0.0035728800888107847 7.918687179804234e-05 0.0007292806396006536 -7.638330831180128e-05 -0.00045680976421244915
 0.9984714743962878 -0.0035728800888107847 0.0014939768638606186 0.0013983886078628713 -7.638622868172968e-05 -0.00045681157771261055 7.902459973291227e-05 0.0007293319670465005
 7.918687179804234e-05 0.0007292806396006536 -7.638622868172968e-05 -0.00045681157771261055 0.0014939491175002381 0.0013983177484242905 0.9984714739309614 -0.0035729639044988428
 -7.638330831180128e-05 -0.00045680976421244915 7.902459973291227e-05 0.0007293319670465005 0.9984714739309614 -0.0035729639044988428 0.001493978130123351 0.0013983039436750468
0.01250521050438 0.0016347448308046742 0.0028263355999006323 0.9982913306996389 -0.007146701252810347 0.00011269927390652421 0.0014589455313591885 -0.00010576523901115187 -0.0009159277380504071
 0.9982913306996389 -0.007146701252810347 0.0016348468748346027 0.0028263092211124594 -0.00010577674586843947 -0.0009159311046223774 0.00011205215220741199 0.0014590683571952645
 0.00011269927390652421 0.0014589455313591885 -0.00010577674586843947 -0.0009159311046223774 0.0016347366614404802 0.0028261700009203847 0.9982913294150856 -0.007146868657227092
 -0.00010576523901115187 -0.0009159277380504071 0.00011205215220741199 0.0014590683571952645 0.9982913294150856 -0.007146868657227092 0.001634852512210986 0.0028261401077666966
0.01875781575657 0.001786623235780435 0.004274850208700467 0.9980954018971757 -0.010730191834183004 0.0001529743433842841 0.0021895070377542843 -0.00014059507328832087 -0.0013767023828570246
 0.9980954018971757 -0.010730191834183004 0.0017868525173925954 0.004274807239850867 -0.00014062073162590905 -0.0013767069979870202 0.00015152060781170357 0.0021897251387035517
 0.0001529743433842841 0.0021895070377542843 -0.00014062073162590905 -0.0013767069979870202 0.0017866052944022555 0.004274602203578026 0.9980953994318031 -0.010730442744593524
 -0.00014059507328832087 -0.0013767023828570246 0.00015152060781170357 0.0021897251387035517 0.9980953994318031 -0.010730442744593524 0.0017868656221689983 0.004274553758795569
0.02501042100875 0.0019498592036010115 0.005741944981137625 0.9978834769077604 -0.014325117800412608 0.0002000859938907425 0.0029210147334968687 -0.00018095509360128818 -0.0018389409399018652
 0.9978834769077604 -0.014325117800412608 0.001950266360406753 0.005741883005070119 -0.00018100040170554118 -0.001838946449258722 0.00019750371254605446 0.0029213553461146487
 0.0002000859938907425 0.0029210147334968687 -0.00018100040170554118 -0.001838946449258722 0.0019498277030922872 0.005741614815149572 0.99788347289927 -0.014325452189003156
 -0.00018095509360128818 -0.0018389409399018652 0.00019750371254605446 0.0029213553461146487 0.99788347289927 -0.014325452189003156 0.001950290032218449 0.005741545195131812
0.03126302626094 0.0021247139973525676 0.00722660553301105 0.9976553329151627 -0.017932252476222068 0.0002541089130357945 0.003653450755858206 -0.00022692553956457602 -0.002302513999046208
 0.9976553329151627 -0.017932252476222068 0.0021253495792645017 0.007226522027592691 -0.00022699594054390994 -0.0023025199977430287 0.00025007567626608615 0.003653944594606699
 0.0002541089130357945 0.003653450755858206 -0.00022699594054390994 -0.0023025199977430287 0.002124665154761655 0.007226193495643743 0.9976553270016654 -0.01793267033547093
 -0.00022692553956457602 -0.002302513999046208 0.00025007567626608615 0.003653944594606699 0.9976553270016654 -0.01793267033547093 0.0021253869245235943 0.00722609991975695
0.037515631513130004 0.002311443388355131 0.00872818155253989 0.9974107414336092 -0.021551997583530165 0.0003151177838276804 0.004386770891962796 -0.0002785852084883148 -0.002767314396162117
 0.9974107414336092 -0.021551997583530165 0.0023123578751469984 0.008728073892555588 -0.0002786860963318752 -0.0027673204285328114 0.000309310559653284 0.004387452183981878
 0.0003151177838276804 0.004386770891962796 -0.0002786860963318752 -0.0027673204285328114 0.002311373423567648 0.008727687967531267 0.9974107332514919 -0.021552498936594326
 -0.0002785852084883148 -0.002767314396162117 0.000309310559653284 0.004387452183981878 0.9974107332514919 -0.021552498936594326 0.002312412006269407 0.008727567499556655
0.043768236765320004 0.0025102999588927743 0.010246197775664023 0.9971494707503193 -0.025184572204588123 0.0003831869319094438 0.005120917050282431 -0.0003360116751927257 -0.003233244730522694
 0.9971494707503193 -0.025184572204588123 0.0025115437731027894 0.010246063234324941 -0.000336148398303986 -0.0032332502900445643 0.00037528199178968905 0.005121823575389119
 0.0003831869319094438 0.005120917050282431 -0.000336148398303986 -0.0032332502900445643 0.0025102050934648896 0.010245623024136946 0.9971494599325939 -0.02518515708275969
 -0.0003360116751927257 -0.003233244730522694 0.00037528199178968905 0.005121823575389119 0.9971494599325939 -0.02518515708275969 0.0025116178084140283 0.010245472573054599
0.050020842017509996 0.0027215341701699175 0.01178027587542038 0.9968712871369255 -0.02883009082894762 0.00045839011544094606 0.005855822428999973 -0.0003992813834833019 -0.003700212187313085
 0.9968712871369255 -0.02883009082894762 0.0027231576887756033 0.011780111625445589 -0.0003994592470552774 -0.003700216716577579 0.0004480629976474271 0.005856995561924381
 0.00045839011544094606 0.005855822428999973 -0.0003994592470552774 -0.003700216716577579 0.0027214106287336264 0.011779620381951355 0.9968712733144363 -0.028830759286190458
 -0.0003992813834833019 -0.003700212187313085 0.0004480629976474271 0.005856995561924381 0.9968712733144363 -0.028830759286190458 0.0027232547540238334 0.011779436702277142
0.055454545454549996 0.0029153486037244475 0.013126231069503643 0.9966156192657046 -0.032008707746822476 0.0005295944239757304 0.0064950374909447505 -0.0004590686446307771 -0.004106792816638393
 0.9966156192657046 -0.032008707746822476 0.0029173429815240646 0.013126038628217738 -0.0004592865366254839 -0.004106795958365522 0.0005168982774560418 0.006496478739981633
 0.0005295944239757304 0.0064950374909447505 -0.0004592865366254839 -0.004106795958365522 0.0029151970785832575 0.013125505793805376 0.9966156025296047 -0.03200944889220828
 -0.0004590686446307771 -0.004106792816638393 0.0005168982774560418 0.006496478739981633 0.9966156025296047 -0.03200944889220828 0.0029174626050807893 0.013125290481816529
0.056273447269699996 0.0029453949262674144 0.01333009611674923 0.9965759555601589 -0.03248860163517369 0.0005408003847308317 0.006591414037378018 -0.0004684696738413757 -0.004168126009145441
 0.9965759555601589 -0.03248860163517369 0.0029474484908938435 0.013329899231094617 -0.0004686939414451263 -0.00416812889984885 0.0005277258801710347 0.0065928987909923955
 0.0005408003847308317 0.006591414037378018 -0.0004686939414451263 -0.00416812889984885 0.0029452389370263846 0.013329360357299796 0.996575938360551 -0.03248935374070061
 -0.0004684696738413757 -0.004168126009145441 0.0005277258801710347 0.0065928987909923955 0.996575938360551 -0.03248935374070061 0.002947571719915308 0.013329140049128557
0.06252605252188 0.003182129882947021 0.014895376277071758 0.9962632401393888 -0.036160107507644694 0.0006304899733007734 0.007327614084162829 -0.0005436507820069408 -0.0046368961026037134
 0.9962632401393888 -0.036160107507644694 0.0031846638097595284 0.01489514372949126 -0.0005439266767471962 -0.004636896695564934 0.0006143421259331984 0.007329459153242267
 0.0006304899733007734 0.007327614084162829 -0.0005439266767471962 -0.004636896695564934 0.003181937676947836 0.014894560779550647 0.996263219186045 -0.03616094334600048
 -0.0005436507820069408 -0.0046368961026037134 0.0006143421259331984 0.007329459153242267 0.996263219186045 -0.03616094334600048 0.0031848163434646743 0.014894300288272393
0.06877865777407 0.0034319856180684014 0.016475859071418977 0.995932904469477 -0.03984457855064911 0.0007275302068877447 0.00806434080280188 -0.0006248978203016699 -0.005106432210305394
 0.995932904469477 -0.03984457855064911 0.0034350502068015826 0.016475587736838514 -0.0006252305255893551 -0.005106429795482663 0.00070798232451963 0.008066598607973286
 0.0007275302068877447 0.00806434080280188 -0.0006252305255893551 -0.005106429795482663 0.0034317534309810794 0.016474964420174293 0.9959328793818187 -0.03984549821775602
 -0.0006248978203016699 -0.005106432210305394 0.00070798232451963 0.008066598607973286 0.9959328793818187 -0.03984549821775602 0.0034352351950838996 0.01647466003604991
0.07503126302626001 0.003695207723907239 0.018071304197734082 0.9955847118676273 -0.04354195998457779 0.0008319914235462107 0.008801508975465182 -0.0007122827477101138 -0.005576643386587301
 0.9955847118676273 -0.04354195998457779 0.003698853267385484 0.01807099085219816 -0.000712677407901279 -0.005576637203094845 0.0008087160963553261 0.008804235707152127
 0.0008319914235462107 0.008801508975465182 -0.000712677407901279 -0.005576637203094845 0.0036949317962045843 0.018070331028536227 0.9955846822603747 -0.04354296359328343
 -0.0007122827477101138 -0.005576643386587301 0.0008087160963553261 0.008804235707152127 0.9955846822603747 -0.04354296359328343 0.003699073868537431 0.018069978885891395
0.08128386827845 0.003972040848931472 0.01968148301529594 0.9952184255725895 -0.047252177411126986 0.0009439429001164326 0.009539030284737997 -0.0008058763331927684 -0.006047437648046183
 0.9952184255725895 -0.047252177411126986 0.003976317641648718 0.01968112433589255 -0.0008063380539146224 -0.0060474268841955005 0.0009166120252427167 0.009542285946995813
 0.0009439429001164326 0.009539030284737997 -0.0008063380539146224 -0.0060474268841955005 0.003971717426370158 0.019680432017704228 0.9952183910553665 -0.04725326508942576
 -0.0008058763331927684 -0.006047437648046183 0.0009166120252427167 0.009542285946995813 0.9952183910553665 -0.04725326508942576 0.003976577023139504 0.019680028094008102
0.08753647353064001 0.004262728703688433 0.021306174886947034 0.9948338089110037 -0.05097514041759325 0.0010634527830384085 0.010276813552432196 -0.0009057481140413453 -0.006518721739662174
 0.9948338089110037 -0.05097514041759325 0.004267687051050399 0.021305767451279607 -0.0009062819625123335 -0.006518705532984551 0.0010317375936880172 0.010280662006555573
 0.0010634527830384085 0.010276813552432196 -0.0009062819625123335 -0.006518705532984551 0.00426235403828731 0.021305046806975283 0.9948337690879961 -0.050976312306444255
 -0.0009057481140413453 -0.006518721739662174 0.0010317375936880172 0.010280662006555573 0.9948337690879961 -0.050976312306444255 0.004267988389784452 0.02130458692154952
0.09378907878283 0.004567514046919481 0.022945164552958537 0.994430625446207 -0.054710745152375215 0.0011905880218986973 0.011014764916352254 -0.0010119663505772662 -0.006990400965706102
 0.994430625446207 -0.054710745152375215 0.0045732042741269225 0.022944704838531938 -0.0010125773557987474 -0.006990378403001693 0.0011541591205195471 0.011019273924181464
 0.0011905880218986973 0.011014764916352254 -0.0010125773557987474 -0.006990378403001693 0.004567084397198643 0.022943960193224974 0.9944305799149222 -0.05471200140604199
 -0.0010119663505772662 -0.006990400965706102 0.0011541591205195471 0.011019273924181464 0.9944305799149222 -0.05471200140604199 0.004573550756059855 0.022943440005791998
0.100041684035 0.004886638652382131 0.024598240206574546 0.9940086391104357 -0.05845887620162929 0.0013254143047350434 0.011752787960810298 -0.0011245979782408594 -0.007462379069751891
 0.9940086391104357 -0.05845887620162929 0.0048931111132919205 0.024597724589811524 -0.0011252911310409338 -0.007462349187126977 0.0012839416997465491 0.011758029227690729
 0.0013254143047350434 0.011752787960810298 -0.0011252911310409338 -0.007462349187126977 0.004886150284962176 0.024596960424252655 0.9940085874624243 -0.05846021699023622
 -0.0011245979782408594 -0.007462379069751891 0.0012839416997465491 0.011758029227690729 0.9940085874624243 -0.05846021699023622 0.004893505934954891 0.024596375433147008
0.1059090909091 0.0051993591166082645 0.026162100518149142 0.9935953388337777 -0.06198738046679576 0.0014589867423635773 0.01244532146550429 -0.00123618214244701 -0.00790546509672308
 0.9935953388337777 -0.06198738046679576 0.005206611450753865 0.026161529056237632 -0.001236956887200593 -0.007905427423368095 0.0014124805381088427 0.012451318645257522
 0.0014589867423635773 0.01244532146550429 -0.001236956887200593 -0.007905427423368095 0.0051988122606555 0.02616075079238761 0.9935952810677505 -0.061988800747157465
 -0.00123618214244701 -0.00790546509672308 0.0014124805381088427 0.012451318645257522 0.9935952810677505 -0.061988800747157465 0.005207054549973893 0.026160100750198163
0.1062942892872 0.005220343265489417 0.026265192047542615 0.9935676143291724 -0.062219407991394464 0.0014679959948162961 0.01249078381762476 -0.0012437085575983658 -0.00793455814713644
 0.9935676143291724 -0.062219407991394464 0.00522764835178811 0.026264616802550364 -0.0012444888107030936 -0.007934519930057534 0.001421149139810417 0.012496833034923679
 0.0014679959948162961 0.01249078381762476 -0.0012444888107030936 -0.007934519930057534 0.005219792455248848 0.026263837758969875 0.9935675561486248 -0.06222083349667978
 -0.0012437085575983658 -0.00793455814713644 0.001421149139810417 0.012496833034923679 0.9935675561486248 -0.06222083349667978 0.005228094719552561 0.026263183299157875
0.11254689453939999 0.0055688675494972575 0.027945811173964316 0.9931073161378896 -0.065992205854394 0.0016183960678132425 0.013228651245778423 -0.0013693622227359719 -0.008406838581772519
 0.9931073161378896 -0.065992205854394 0.005577055699491258 0.027945172471032582 -0.0013702344906795334 -0.008406790965121855 0.0015658439038719915 0.0132355881329996
 0.0016183960678132425 0.013228651245778423 -0.0013702344906795334 -0.008406790965121855 0.00556825058039925 0.027944383349943258 0.9931072510014841 -0.06599371627492079
 -0.0013693622227359719 -0.008406838581772519 0.0015658439038719915 0.0132355881329996 0.9931072510014841 -0.06599371627492079 0.005577556830336521 0.027943654590678685
0.11879949979160001 0.005932450024694102 0.029639888715621635 0.9926275102939044 -0.06977712685896434 0.0017766760500763628 0.013966286695433632 -0.0015016216281171387 -0.008879119001741483
 0.9926275102939044 -0.06977712685896434 0.005941571732833998 0.02963918261943879 -0.001502590787240452 -0.00887906086987323 0.001718087049997456 0.013974195041721434
 0.0017766760500763628 0.013966286695433632 -0.001502590787240452 -0.00887906086987323 0.005931763191005764 0.029638388386246557 0.9926274377704302 -0.06977872240568675
 -0.0015016216281171387 -0.008879119001741483 0.001718087049997456 0.013974195041721434 0.9926274377704302 -0.06977872240568675 0.005942130854343595 0.029637580328516593
0.1250521050438 0.006311328001899246 0.03134721515327692 0.992127963384808 -0.07357402045566726 0.0019428959569023588 0.014703584364989713 -0.0016405478945526377 -0.009351296244921143
 0.992127963384808 -0.07357402045566726 0.006321433827586014 0.0313464376208058 -0.0016416187828185557 -0.009351226431736475 0.0018779381717144313 0.014712552070153914
 0.0019428959569023588 0.014703584364989713 -0.0016416187828185557 -0.009351226431736475 0.006310567608838482 0.031345643408386616 0.9921278830344559 -0.07357570135174771
 -0.0016405478945526377 -0.009351296244921143 0.0018779381717144313 0.014712552070153914 0.9921278830344559 -0.07357570135174771 0.006322054178527042 0.03134475088197631
0.131304710296 0.006705737511271443 0.03306757976875867 0.9916084429345817 -0.07738272899643242 0.0021171142309404393 0.015440436249145362 -0.0017862005542382193 -0.00982326533691639
 0.9916084429345817 -0.07738272899643242 0.00671687808833768 0.03306672664683544 -0.0017873779711129454 -0.009823182625929188 0.002045455338573398 0.015450555364074555
 0.0021171142309404393 0.015440436249145362 -0.0017873779711129454 -0.009823182625929188 0.006704899875781543 0.0330659377545753 0.9916083543084242 -0.07738449548104788
 -0.0017862005542382193 -0.00982326533691639 0.002045455338573398 0.015450555364074555 0.9916083543084242 -0.07738449548104788 0.006717562918673912 0.03306495541492844
0.1375573155481 0.007021081928945496 0.03457586680041134 0.9911635764000363 -0.08097811369501864 0.0022764897782881874 0.01615374174423352 -0.0019158235590564093 -0.010271881289057337
 0.9911635764000363 -0.08097811369501864 0.007033312707560242 0.034574954860196634 -0.0019171146565923646 -0.010271785697786204 0.002197962296006366 0.016164991115234777
 0.0022764897782881874 0.01615374174423352 -0.0019171146565923646 -0.010271785697786204 0.007020163950978067 0.03457415546991248 0.9911634791203615 -0.08097996590348018
 -0.0019158235590564093 -0.010271881289057337 0.002197962296006366 0.016164991115234777 0.9911634791203615 -0.08097996590348018 0.007034064559830094 0.03457309912211374
0.1438099208003 0.00734736718909423 0.03607691854814976 0.9907033394197802 -0.08456510926629304 0.002442320379153895 0.0168645762570346 -0.0020506472269705665 -0.010718265671770364
 0.9907033394197802 -0.08456510926629304 0.007360739666066464 0.03607594502247697 -0.002052057173201741 -0.01071815601385542 0.0023566212900757244 0.016877039437588302
 0.002442320379153895 0.0168645762570346 -0.002052057173201741 -0.01071815601385542 0.0073463653078207096 0.036075139077386055 0.9907032330390482 -0.08456704743078108
 -0.0020506472269705665 -0.010718265671770364 0.0023566212900757244 0.016877039437588302 0.9907032330390482 -0.08456704743078108 0.007361561678349276 0.03607400475278536
0.1500625260525 0.007684487678593721 0.03757063087863258 0.9902278409758254 -0.08814364838216368 0.0026145552240259937 0.017572880770537792 -0.0021906227996002572 -0.011162363197261342
 0.9902278409758254 -0.08814364838216368 0.007699053456585084 0.03756959283342212 -0.0021921567540080984 -0.01116223823883651 0.0025213830729094015 0.01758664435081219
 0.0026145552240259937 0.017572880770537792 -0.0021921567540080984 -0.01116223823883651 0.007683398351388335 0.03756878448871501 0.990227725039145 -0.08814567274567738
 -0.0021906227996002572 -0.011162363197261342 0.0025213830729094015 0.01758664435081219 0.990227725039145 -0.08814567274567738 0.007699948769670198 0.0375675680040694
0.15631513130469998 0.008032337145177445 0.03905690291259465 0.9897371904808245 -0.0917136635313727 0.002793142970463372 0.01827859715073484 -0.002335700979720295 -0.011604119670606327
