! Created with skrf 1.8.0 (http://scikit-rf.org).
# GHz S RI R 50.0 
!freq ReS11 ImS11 ReS12 ImS12 ReS13 ImS13
! ReS14 ImS14
! ReS21 ImS21 ReS22 ImS22 ReS23 ImS23
! ReS24 ImS24
! ReS31 ImS31 ReS32 ImS32 ReS33 ImS33
! ReS34 ImS34
! ReS41 ImS41 ReS42 ImS42 ReS43 ImS43
! ReS44 ImS44
!
0.0 0.001487593075791 0.0 0.9985124068788 0.0 5.708587955415e-05 0.0 -5.708588008739e-05 6.99100403255318e-21
 0.9985124068788 0.0 0.00148759307575 0.0 -5.708588008679e-05 6.9910040324797e-21 5.708587955423e-05 0.0
 5.708587955415e-05 0.0 -5.708588008679e-05 6.9910040324797e-21 0.001487593098507 0.0 0.9985124069015 0.0
 -5.708588008739e-05 6.99100403255318e-21 5.708587955423e-05 0.0 0.9985124069015 0.0 0.001487593098499 0.0
0.005 0.001600334591319259 0.001220867843945529 0.9983698304792021 -0.00311605090767631 7.924866169534715e-05 0.0006065120039368564 -7.718094560718118e-05 -0.00038463909432747887
 0.9983698304792021 -0.00311605090767631 0.0016003242459165365 0.0012208738454138003 -7.718051008676412e-05 -0.00038463870606412294 7.931051222887993e-05 0.0006064883848529149
 7.924866169534715e-05 0.0006065120039368564 -7.718051008676412e-05 -0.00038463870606412294 0.0016003347390647399 0.0012208004350320871 0.9983698301196758 -0.0031161179740166333
 -7.718094560718118e-05 -0.00038463909432747887 7.931051222887993e-05 0.0006064883848529149 0.9983698301196758 -0.0031161179740166333 0.0016003233798685776 0.001220807120620806
0.006252605252188 0.001629857401827474 0.0015308764107003028 0.998332273219922 -0.003895831569843034 8.55320687176537e-05 0.0007584486131957508 -8.282683871198212e-05 -0.0004812936869095163
 0.998332273219922 -0.003895831569843034 0.00162984123074597 0.0015308840573833354 -8.282616142566955e-05 -0.000481293207016727 8.562870390280689e-05 0.0007584179615541052
 8.55320687176537e-05 0.0007584486131957508 -8.282616142566955e-05 -0.000481293207016727 0.001629857722763471 0.0015307921591111247 0.9983322727474336 -0.0038959153872225195
 -8.282683871198212e-05 -0.0004812936869095163 8.562870390280689e-05 0.0007584179615541052 0.9983322727474336 -0.0038959153872225195 0.0016298399660783494 0.0015308006723795072
0.01250521050438 0.0017850044984853357 0.00309375156062154 0.9981336710110805 -0.007792494431708786 0.00012131180461839675 0.0015173543275954062 -0.00011471211671530857 -0.000964929056268517
 0.9981336710110805 -0.007792494431708786 0.0017849399365926027 0.0030937683175198006 -0.00011470945275958648 -0.0009649281553141385 0.00012169714422939016 0.0015172808751687157
 0.00012131180461839675 0.0015173543275954062 -0.00011470945275958648 -0.0009649281553141385 0.0017850063321920534 0.003093583241775616 0.9981336696692957 -0.007792661814671339
 -0.00011471211671530857 -0.000964929056268517 0.00012169714422939016 0.0015172808751687157 0.9981336696692957 -0.007792661814671339 0.0017849354243678931 0.003093601857892501
0.01875781575657 0.0019533633631646998 0.004678848184673008 0.9979163601210183 -0.011699478346945074 0.00016450816380819325 0.0022772075635901193 -0.00015283727142914908 -0.00145024705354536
 0.9979163601210183 -0.011699478346945074 0.0019532183076234277 0.004678875622642519 -0.00015283133779502736 -0.0014502457996646712 0.00016537374341626043 0.0022770768301844926
 0.00016450816380819325 0.0022772075635901193 -0.00015283133779502736 -0.0014502457996646712 0.0019533679216860917 0.004678595811205597 0.9979163575301951 -0.011699729194699889
 -0.00015283727142914908 -0.00145024705354536 0.00016537374341626043 0.0022770768301844926 0.9979163575301951 -0.011699729194699889 0.001953208578619166 0.0046786262602442515
0.02501042100875 0.0021352538410820895 0.006283966451224738 0.9976800911508151 -0.01561868612737769 0.00021520484332392624 0.003038041808260603 -0.0001972950735019364 -0.0019370404715334947
 0.9976800911508151 -0.01561868612737769 0.0021349962658372946 0.006284006238561365 -0.0001972846048072889 -0.0019370389435999114 0.00021674224817110418 0.0030378370708445427
 0.00021520484332392624 0.003038041808260603 -0.0001972846048072889 -0.0019370389435999114 0.002135262336818076 0.006283629988644585 0.9976800869260749 -0.015619020366050312
 -0.0001972950735019364 -0.0019370404715334947 0.00021674224817110418 0.0030378370708445427 0.9976800869260749 -0.015619020366050312 0.0021349793409905214 0.0062836741306194375
0.03126302626094 0.0023309825543943712 0.007907979291620107 0.9974246016173591 -0.019550938268619575 0.0002734858504455457 0.00379982359335499 -0.00024817588218674363 -0.002425164034921866
 0.9974246016173591 -0.019550938268619575 0.0023305804933145225 0.007908033192170691 -0.00024815962762704964 -0.002425162322676281 0.0002758868968821493 0.003799525874545422
 0.0002734858504455457 0.00379982359335499 -0.00024815962762704964 -0.002425162322676281 0.002330996206815745 0.007907558670722462 0.9974245953758757 -0.019551355838852476
 -0.00024817588218674363 -0.002425164034921866 0.0002758868968821493 0.003799525874545422 0.9974245953758757 -0.019551355838852476 0.0023305543899977362 0.007907618493971513
0.037515631513130004 0.002540849596518122 0.009550155615722294 0.9971496228464757 -0.02349664967277498 0.0003394348088514656 0.004562493001590397 -0.00030556825698625843 -0.002914493898692368
 0.9971496228464757 -0.02349664967277498 0.002540271132586065 0.009550225488021548 -0.00030554497876736814 -0.002914492102754976 0.00034289162647081805 0.004562081047886682
 0.0003394348088514656 0.004562493001590397 -0.00030554497876736814 -0.002914492102754976 0.0025408696301136837 0.009549650739522495 0.9971496142051921 -0.023497150522688637
 -0.00030556825698625843 -0.002914493898692368 0.00034289162647081805 0.004562081047886682 0.9971496142051921 -0.023497150522688637 0.0025402338622817445 0.00954972836028243
0.043768236765320004 0.0027651511185905484 0.011209954346846114 0.9968548827559653 -0.02745603554359215 0.00041313462316451956 0.005325975983421989 -0.0003695591815822223 -0.003404915330665052
 0.9968548827559653 -0.02745603554359215 0.0027643643756080465 0.011210042143460964 -0.00036952765394519175 -0.003404913562514739 0.0004178396946597463 0.005325426240193647
 0.00041313462316451956 0.005325975983421989 -0.00036952765394519175 -0.003404913562514739 0.0027651787653005765 0.011209365095175484 0.9968548713338315 -0.027456619624100027
 -0.0003695591815822223 -0.003404915330665052 0.0004178396946597463 0.005325426240193647 0.9968548713338315 -0.027456619624100027 0.0027643139463973867 0.011209462757386579
0.050020842017509996 0.003004180534845278 0.01288693931007896 0.9965401072594439 -0.03142919642613303 0.0004946672776322561 0.00609018943961275 -0.0004402341422781676 -0.0038963176282709984
 0.9965401072594439 -0.03142919642613303 0.003003153669939768 0.012887047077385715 -0.00044019315081805067 -0.003896316010205433 0.0005008134560632671 0.006089476024821039
 0.0004946672776322561 0.00609018943961275 -0.00044019315081805067 -0.003896316010205433 0.003004217031067596 0.012886265536502038 0.9965400926751293 -0.031429863693905935
 -0.0004402341422781676 -0.0038963176282709984 0.0005008134560632671 0.006089476024821039 0.9965400926751293 -0.031429863693905935 0.0030030880839541766 0.012886385612048789
0.055454545454549996 0.003224091474310858 0.014357956524078935 0.9962500728467271 -0.034893203420759876 0.0005719457216276263 0.0067548378369620635 -0.0005071463608432068 -0.004324072896750901
 0.9962500728467271 -0.034893203420759876 0.0032228300969629285 0.014358083381090403 -0.0005070961672787864 -0.004324071516800742 0.0005795011764524383 0.00675395933944614
 0.0005719457216276263 0.0067548378369620635 -0.0005070961672787864 -0.004324071516800742 0.003224136670010333 0.014357209164292206 0.9962500552057254 -0.03489394294473584
 -0.0005071463608432068 -0.004324072896750901 0.0005795011764524383 0.00675395933944614 0.9962500552057254 -0.03489394294473584 0.003222749713571331 0.014357350743630308
0.056273447269699996 0.003258229141268406 0.01458073744887448 0.9962050210876816 -0.035416159918948246 0.000584113689016403 0.0068550437238704956 -0.0005176771460226455 -0.004388591617101899
 0.9962050210876816 -0.035416159918948246 0.003256930338484906 0.014580867326827271 -0.0005176254872428106 -0.004388590282193162 0.0005918942014910253 0.00685413840119392
 0.000584113689016403 0.0068550437238704956 -0.0005176254872428106 -0.004388590282193162 0.0032582757295908102 0.014579978988693686 0.9962050029611398 -0.035416910328256695
 -0.0005176771460226455 -0.004388591617101899 0.0005918942014910253 0.00685413840119392 0.9962050029611398 -0.035416910328256695 0.0032568475937317437 0.01458012397777635
0.06252605252188 0.0035275864530816083 0.016291015859182457 0.9958493483308739 -0.03941690357077442 0.0006815535897844461 0.007620444006914864 -0.0006019707041180159 -0.004881628290676538
 0.9958493483308739 -0.03941690357077442 0.003525983917485854 0.016291170081358452 -0.0006019071850734012 -0.004881627382725987 0.0006911620323576367 0.007619316158613801
 0.0006815535897844461 0.007620444006914864 -0.0006019071850734012 -0.004881627382725987 0.0035276443812820683 0.016290172523260343 0.9958493262828174 -0.039417737079540306
 -0.0006019707041180159 -0.004881628290676538 0.0006911620323576367 0.007619316158613801 0.9958493262828174 -0.039417737079540306 0.003525882007281441 0.01629034505492745
0.06877865777407 0.0038125403830897185 0.01801746809097937 0.9954728128260556 -0.043431368512607434 0.0007870654255254355 0.008386291102283583 -0.0006931957988896943 -0.0053753179915309686
 0.9954728128260556 -0.043431368512607434 0.003810602334551846 0.018017648984882624 -0.00069311923691048 -0.005375317665035706 0.0007986957516230446 0.008384907702038405
 0.0007870654255254355 0.008386291102283583 -0.00069311923691048 -0.005375317665035706 0.003812610903676393 0.01801653966926455 0.9954727864775365 -0.04343228507880507
 -0.0006931957988896943 -0.0053753179915309686 0.0007986957516230446 0.008384907702038405 0.9954727864775365 -0.04343228507880507 0.003810479247486012 0.01801674250216386
0.07503126302626001 0.004113377329927722 0.019759805465724773 0.99507513845704 -0.04745946807754435 0.0009007262625264668 0.009152481981729342 -0.0007914318377337454 -0.0058695499061439645
 0.99507513845704 -0.04745946807754435 0.004111071997670223 0.019760015453037443 -0.0007913410602109359 -0.005869550326238545 0.0009145727667111129 0.009150807567570515
 0.0009007262625264668 0.009152481981729342 -0.0007913410602109359 -0.005869550326238545 0.004113461699997858 0.019758791728174623 0.9950751074297928 -0.04746046765801541
 -0.0007914318377337454 -0.0058695499061439645 0.0009145727667111129 0.009150807567570515 0.9950751074297928 -0.04746046765801541 0.004110925717941801 0.01975902775141059
0.08128386827845 0.004430382208108763 0.02151775129823055 0.99465604940035 -0.051501093519606175 0.001022611699836044 0.009918910130128702 -0.0008967566006615455 -0.006364211723931948
 0.99465604940035 -0.051501093519606175 0.004427677824843191 0.021517992895472307 -0.0008966504448853036 -0.006364213066354918 0.0010388689979658268 0.009916906777517847
 0.001022611699836044 0.009918910130128702 -0.0008966504448853036 -0.006364213066354918 0.004430481688938946 0.021516651992639805 0.9946560133166875 -0.05150217607228801
 -0.0008967566006615455 -0.006364211723931948 0.0010388689979658268 0.009916906777517847 0.9946560133166875 -0.05150217607228801 0.004427506332307732 0.021516924226874092
0.08753647353064001 0.004763838438514138 0.023291036900337146 0.9942152703344838 -0.05555611795531765 0.0011527957861493696 0.010685465787320986 -0.0010092461813984582 -0.006859189413134359
 0.9942152703344838 -0.05555611795531765 0.004760703235026206 0.023291312719578215 -0.00100912349440666 -0.006859191864180061 0.0011716587924326422 0.010683093082472112
 0.0011527957861493696 0.010685465787320986 -0.00100912349440666 -0.006859191864180061 0.004763954295280102 0.023289851752433026 0.994215228817092 -0.05555728343890537
 -0.0010092461813984582 -0.006859189413134359 0.0011716587924326422 0.010683093082472112 0.994215228817092 -0.05555728343890537 0.004760504505441391 0.023290163351129108
0.09378907878283 0.0051140279141293574 0.025079398723471414 0.9937525266275888 -0.05962439917047455 0.0012913509378995956 0.011452036128207006 -0.0011289749255539694 -0.007354367062344286
 0.9937525266275888 -0.05962439917047455 0.005110430113691991 0.025079711473203193 -0.0011288345640496369 -0.007354370818820513 0.0013130148396191222 0.011449251141706912
 0.0012913509378995956 0.011452036128207006 -0.0011288345640496369 -0.007354370818820513 0.005114161415745147 0.025078127442377217 0.9937524792998441 -0.05962564753887123
 -0.0011289749255539694 -0.007354367062344286 0.0013130148396191222 0.011449251141706912 0.9937524792998441 -0.05962564753887123 0.005110202118910259 0.025078481693192014
0.100041684035 0.005481230945599662 0.026882576272129022 0.9932675445082697 -0.06370578166068605 0.0014383478592273026 0.012218505399903237 -0.001256015365731498 -0.007849626769074969
 0.9932675445082697 -0.06370578166068605 0.0054771387581401985 0.0268829287584938 -0.0012558561959102085 -0.007849632038265867 0.001463008089303654 0.012215262660651378
 0.0014383478592273026 0.012218505399903237 -0.0012558561959102085 -0.007849632038265867 0.0054813833641957 0.02688121854229007 0.9932674909943058 -0.06370711287100336
 -0.001256015365731498 -0.007849626769074969 0.001463008089303654 0.012215262660651378 0.9932674909943058 -0.06370711287100336 0.005476879466750738 0.026881618868691573
0.1059090909091 0.005841533936424102 0.02858791114109971 0.9927919716602174 -0.06754749286879042 0.0015840279861907788 0.012937558007666194 -0.0013819422130277228 -0.008314343265528313
 0.9927919716602174 -0.06754749286879042 0.0058369488900522305 0.028588303556261824 -0.0013817643709069431 -0.00831435015204799 0.0016116778897201582 0.012933842073855891
 0.0015840279861907788 0.012937558007666194 -0.0013817643709069431 -0.00831435015204799 0.005841705266142275 0.028586471982554467 0.9927919119993788 -0.06754890177790242
 -0.0013819422130277228 -0.008314343265528313 0.0016116778897201582 0.012933842073855891 0.9927919119993788 -0.06754890177790242 0.005836658378995347 0.0285869187822212
0.1062942892872 0.005865726192872708 0.02870031052362303 0.992760051226336 -0.06780009817061111 0.0015938554631785386 0.012984755027501661 -0.0013904381540479644 -0.008344848563911711
 0.992760051226336 -0.06780009817061111 0.005861107809801623 0.02870070565159772 -0.0013902590516316233 -0.008344855563524186 0.0016217076708180795 0.012981006497015692
 0.0015938554631785386 0.012984755027501661 -0.0013902590516316233 -0.008344855563524186 0.005865898803419127 0.028698866007634553 0.9927599911502959 -0.06780151218016736
 -0.0013904381540479644 -0.008344848563911711 0.0016217076708180795 0.012981006497015692 0.9927599911502959 -0.06780151218016736 0.005860815186414357 0.02869931597074699
0.11254689453939999 0.006267790586047967 0.030532342724707034 0.9922297752038599 -0.07190717086097154 0.0017579407931822566 0.013750663702326353 -0.0015323119934238139 -0.008839910356447826
 0.9922297752038599 -0.07190717086097154 0.006262614174298152 0.030532783499734203 -0.0015321118435096329 -0.008839919314583881 0.0017891808129554656 0.013746358749487876
 0.0017579407931822566 0.013750663702326353 -0.0015321118435096329 -0.008839919314583881 0.006267984666198296 0.030530811066994075 0.9922297081908641 -0.07190866762359782
 -0.0015323119934238139 -0.008839910356447826 0.0017891808129554656 0.013746358749487876 0.9922297081908641 -0.07190866762359782 0.006262286180665715 0.03053131436750568
0.11879949979160001 0.006687699237949602 0.032378413459731255 0.9916764461831928 -0.07602681220955787 0.001930668945112881 0.014516107455099328 -0.0016817035672781263 -0.00933468790069324
 0.9916764461831928 -0.07602681220955787 0.0066819329344229 0.032378902989380474 -0.0016814812642932406 -0.009334699055805239 0.0019654927645408357 0.014511192831320643
 0.001930668945112881 0.014516107455099328 -0.0016814812642932406 -0.009334699055805239 0.006687916067462085 0.032376794281128364 0.9916763718585971 -0.07602839168088035
 -0.0016817035672781263 -0.00933468790069324 0.0019654927645408357 0.014511192831320643 0.9916763718585971 -0.07602839168088035 0.006681567529361046 0.03237735476155615
0.1250521050438 0.007125725349468841 0.03423826190859707 0.9910997953684949 -0.08015882572761239 0.0021121029897508917 0.015280959721457845 -0.0018386774681037811 -0.009829054772691944
 0.9910997953684949 -0.08015882572761239 0.007119337255403904 0.03423880340451315 -0.0018384319158061147 -0.009829068373533737 0.002150706715452665 0.015275379536290259
 0.0021121029897508917 0.015280959721457845 -0.0018384319158061147 -0.009829068373533737 0.007125966210053798 0.03423655480812707 0.9910997133583188 -0.08016048786317244
 -0.0018386774681037811 -0.009829054772691944 0.002150706715452665 0.015275379536290259 0.9910997133583188 -0.08016048786317244 0.007118932395046348 0.034237176455186896
0.131304710296 0.007582140110023131 0.03611162525351512 0.9904995555663405 -0.0843030065327866 0.0023023038955191713 0.016045091399733626 -0.0020032961251599713 -0.010322882360377402
 0.9904995555663405 -0.0843030065327866 0.007575098285278762 0.03611222203358018 -0.002003026236539167 -0.010322898665980773 0.002344883718139226 0.01603878709702236
 0.0023023038955191713 0.016045091399733626 -0.002003026236539167 -0.010322898665980773 0.00758240628489254 0.03610982981054716 0.9904994654970649 -0.0843047512858202
 -0.0020032961251599713 -0.010322882360377402 0.002344883718139226 0.01603878709702236 0.9904994654970649 -0.0843047512858202 0.007574651923549728 0.03611051675776659
0.1375573155481 0.007951233962115486 0.03775495649614656 0.9899814809143022 -0.08821574807130914 0.0024766209341797654 0.016784140694745393 -0.002150866168760649 -0.010791859344086127
 0.9899814809143022 -0.08821574807130914 0.007943503115057279 0.03775559792541515 -0.0021505701785654446 -0.0107918783623763 0.0025232776415194873 0.016777122262366023
 0.0024766209341797654 0.016784140694745393 -0.0021505701785654446 -0.0107918783623763 0.007951525888822811 0.037753072593085385 0.9899813824244658 -0.08821757536842585
 -0.002150866168760649 -0.010791859344086127 0.0025232776415194873 0.016777122262366023 0.9899813824244658 -0.08821757536842585 0.007943014024721244 0.037753814346502886
0.1438099208003 0.008333289729542852 0.03938990720075622 0.9894452598189445 -0.09211883135884197 0.002657965458372553 0.01752034780424185 -0.0023043367318136805 -0.011258186444655538
 0.9894452598189445 -0.09211883135884197 0.008324837329733221 0.03939059569705136 -0.0023040134443426436 -0.011258208433552722 0.002708878111205953 0.017512561734616457
 0.002657965458372553 0.01752034780424185 -0.0023040134443426436 -0.011258208433552722 0.008333608539286271 0.03938793442966439 0.9894451525390052 -0.09212074114534223
 -0.0023043367318136805 -0.011258186444655538 0.002708878111205953 0.017512561734616457 0.9894451525390052 -0.09212074114534223 0.008324303608348939 0.039388734172415174
0.1500625260525 0.008728176926762171 0.041016348253126084 0.9888910266485582 -0.0960121669994103 0.0028462765738836797 0.018253643080694614 -0.0024636478649688286 -0.01172179617845787
 0.9888910266485582 -0.0960121669994103 0.00871897037958887 0.041017086371813345 -0.0024632960853221485 -0.011721821406461596 0.0029016232073634735 0.018245033913640463
 0.0028462765738836797 0.018253643080694614 -0.0024632960853221485 -0.011721821406461596 0.008728523741899115 0.041014286189264774 0.9888909102097443 -0.09601415921948259
 -0.0024636478649688286 -0.01172179617845787 0.0029016232073634735 0.018245033913640463 0.9888909102097443 -0.09601415921948259 0.008718390131428524 0.04101514727058524
0.15631513130469998 0.009135764191557417 0.042634154454090294 0.9883189163996855 -0.09989566576006803 0.003041492695795282 0.018983958037391592 -0.0026287389055682842 -0.012182622454770753
