! Created with skrf 1.8.0 (http://scikit-rf.org).
# GHz S RI R 50.0 
!freq ReS11 ImS11 ReS12 ImS12 ReS13 ImS13
! ReS14 ImS14
! ReS21 ImS21 ReS22 ImS22 ReS23 ImS23
! ReS24 ImS24
! ReS31 ImS31 ReS32 ImS32 ReS33 ImS33
! ReS34 ImS34
! ReS41 ImS41 ReS42 ImS42 ReS43 ImS43
! ReS44 ImS44
!
0.0 0.001197761797947 0.0 0.9988022381686 0.0 4.588132652478e-05 0.0 -4.588132707994e-05 5.61884203490813e-21
 0.9988022381686 0.0 0.001197761797943 0.0 -4.588132707986e-05 5.6188420348983326e-21 4.588132652481e-05 0.0
 4.588132652478e-05 0.0 -4.588132707986e-05 5.6188420348983326e-21 0.001197761814647 0.0 0.9988022381853 0.0
 -4.588132707994e-05 5.61884203490813e-21 4.588132652481e-05 0.0 0.9988022381853 0.0 0.001197761814651 0.0
0.005 0.0012879545326966336 0.0009754443688297155 0.9986882392673788 -0.0025103208589208597 6.454328271508551e-05 0.0005352909514328033 -6.259865027491669e-05 -0.0003309433839005214
 0.9986882392673788 -0.0025103208589208597 0.0012879553644404092 0.0009754438347049871 -6.259645279774354e-05 -0.00033094167677523103 6.455580605950008e-05 0.0005352863672674308
 6.454328271508551e-05 0.0005352909514328033 -6.259645279774354e-05 -0.00033094167677523103 0.0012879560688989719 0.000975510701275527 0.9986882395957568 -0.0025102537923854546
 -6.259865027491669e-05 -0.0003309433839005214 6.455580605950008e-05 0.0005352863672674308 0.9986882395957568 -0.0025102537923854546 0.0012879544823550901 0.0009755116334239979
0.006252605252188 0.0013113796451474469 0.0012231982589003979 0.9986584797239891 -0.003138552972417133 6.973958728811134e-05 0.000669374481574369 -6.721369630612674e-05 -0.0004141278246188144
 0.9986584797239891 -0.003138552972417133 0.0013113809453643528 0.0012231975472519194 -6.721027693503124e-05 -0.0004141257183750724 6.975915632244748e-05 0.0006693685073867899
 6.973958728811134e-05 0.000669374481574369 -6.721027693503124e-05 -0.0004141257183750724 0.0013113819652851228 0.001223281169544873 0.9986584801557519 -0.0031384691402132937
 -6.721369630612674e-05 -0.0004141278246188144 6.975915632244748e-05 0.0006693685073867899 0.9986584801557519 -0.0031384691402132937 0.0013113794846219729 0.0012232822966624104
0.01250521050438 0.0014333570128720963 0.002472545735929288 0.9985026603352329 -0.006278133876318497 9.882446162069852e-05 0.001339099967750808 -9.283585886767848e-05 -0.0008304424474205071
 0.9985026603352329 -0.006278133876318497 0.0014333622082712604 0.002472543853143481 -9.282238393028127e-05 -0.0008304385326876492 9.890257071365449e-05 0.0013390854443265827
 9.882446162069852e-05 0.001339099967750808 -9.282238393028127e-05 -0.0008304385326876492 0.0014333657492593313 0.0024727112398987418 0.9985026615274646 -0.006277966475157428
 -9.283585886767848e-05 -0.0008304424474205071 9.890257071365449e-05 0.0013390854443265827 0.9985026615274646 -0.006277966475157428 0.0014333558383274258 0.002472713109878057
0.01875781575657 0.001563912078237781 0.0037401906189519435 0.9983346209940616 -0.009426437193962947 0.00013319493228799317 0.002009689575521738 -0.00012281642899803193 -0.001248333517329312
 0.9983346209940616 -0.009426437193962947 0.0015639237607041052 0.0037401870472540447 -0.00012278637900066226 -0.0012483281362566485 0.00013337056576526174 0.002009663544466062
 0.00013319493228799317 0.002009689575521738 -0.00012278637900066226 -0.0012483281362566485 0.0015639313000808644 0.003740438538261709 0.9983346232573522 -0.009426186305760077
 -0.00012281642899803193 -0.001248333517329312 0.00013337056576526174 0.002009663544466062 0.9983346232573522 -0.009426186305760077 0.0015639090199868672 0.0037404407593170748
0.02501042100875 0.0017032590118709774 0.005024396148806596 0.9981541978800454 -0.0125850372342024 0.00017291082260279274 0.0026812114495807305 -0.0001572224266815712 -0.0016676327445575199
 0.9981541978800454 -0.0125850372342024 0.0017032797714516693 0.00502439031042228 -0.00015716935874429344 -0.0016676262904611009 0.0001732230841925043 0.002681170577332567
 0.00017291082260279274 0.0026812114495807305 -0.00015716935874429344 -0.0016676262904611009 0.0017032927848775975 0.005024726294206035 0.9981542015249849 -0.012584702911768443
 -0.0001572224266815712 -0.0016676327445575199 0.0001732230841925043 0.002681170577332567 0.9981542015249849 -0.012584702911768443 0.0017032531985067202 0.005024728461806625
0.03126302626094 0.0018516027488515681 0.0063242924124357665 0.9979612172265424 -0.015754636310579724 0.00021803270250934454 0.003353669346031611 -0.00019611933170017955 -0.0020882333233618977
 0.9979612172265424 -0.015754636310579724 0.0018516351730103724 0.006324283668281469 -0.00019603686599610349 -0.0020882262416347056 0.00021852084960886404 0.0033536099194874784
 0.00021803270250934454 0.003353669346031611 -0.00019603686599610349 -0.0020882262416347056 0.0018516551413698507 0.0063247045834179776 0.9979612225691771 -0.015754218577486916
 -0.00019611933170017955 -0.0020882333233618977 0.00021852084960886404 0.0033536099194874784 0.9979612225691771 -0.015754218577486916 0.0018515933093502094 0.0063247062789577166
0.037515631513130004 0.002009143955235132 0.007639330298982749 0.9977555003752135 -0.018935610741240002 0.00026862130052941166 0.004027042168067287 -0.00023957161543637797 -0.0025100503869647482
 0.9977555003752135 -0.018935610741240002 0.0020091906281185304 0.007639317947566137 -0.00023945342812603285 -0.0025100431753885106 0.000269324761364229 0.0040269600890652495
 0.00026862130052941166 0.004027042168067287 -0.00023945342812603285 -0.0025100431753885106 0.0020092190329811977 0.007639824256475504 0.9977555077308056 -0.018935109618780505
 -0.00023957161543637797 -0.0025100503869647482 0.000269324761364229 0.0040269600890652495 0.9977555077308056 -0.018935109618780505 0.002009130011433941 0.0076398250465514
0.043768236765320004 0.0021760809418862473 0.0089691153137033 0.9975368657763346 -0.02212817698588604 0.00032473724168455867 0.004701295993804512 -0.00028764294317378295 -0.0029330089681294616
 0.9975368657763346 -0.02212817698588604 0.0021761444429916846 0.008969098590072184 -0.00028748276218726977 -0.0029330021770080663 0.0003256956245663285 0.0047011867731975715
 0.00032473724168455867 0.004701295993804512 -0.00028748276218726977 -0.0029330021770080663 0.002176182768443593 0.008969690796678191 0.9975368754598309 -0.022127592476021748
 -0.00028764294317378295 -0.0029330089681294616 0.0003256956245663285 0.0047011867731975715 0.9975368754598309 -0.022127592476021748 0.002176061606503117 0.008969690232703394
0.050020842017509996 0.00235261056609391 0.010313338919485809 0.9973051299798147 -0.025332460253430684 0.0003864408983088666 0.005376389031334621 -0.0003403962611539558 -0.003357039032300053
 0.9973051299798147 -0.025332460253430684 0.0023526934690664544 0.010313316994196974 -0.000340187863328642 -0.0033570332645347953 0.00038769399728254825 0.005376247782858958
 0.0003864408983088666 0.005376389031334621 -0.000340187863328642 -0.0033570332645347953 0.0023527432050434853 0.010313995633362903 0.9973051423081551 -0.025331792349887413
 -0.0003403962611539558 -0.003357039032300053 0.00038769399728254825 0.005376247782858958 0.9973051423081551 -0.025331792349887413 0.002352584943461492 0.010313993251135129
0.055454545454549996 0.002513962704938332 0.011493035881679917 0.9970929612918847 -0.02812664874777573 0.00044464777813181235 0.005963710313753077 -0.0003900912155987358 -0.003726351682365385
 0.9970929612918847 -0.02812664874777573 0.0025140645533071495 0.011493008711596139 -0.00038983589845153604 -0.003726347334434896 0.0004461894584868266 0.005963536950759884
 0.00044464777813181235 0.005963710313753077 -0.00038983589845153604 -0.003726347334434896 0.0025141254202304783 0.011493762921293178 0.9970929761770132 -0.028125908361846277
 -0.0003900912155987358 -0.003726351682365385 0.0004461894584868266 0.005963536950759884 0.9970929761770132 -0.028125908361846277 0.0025139308825045835 0.011493758569682757
0.056273447269699996 0.002538928709777514 0.011671744827748756 0.9970601082036491 -0.02854852815971675 0.00045379229010678073 0.0060522740572582275 -0.000397893833049158 -0.0037820730277696064
 0.9970601082036491 -0.02854852815971675 0.002539033581111094 0.011671716805937182 -0.0003976310422157827 -0.003782068938895872 0.00045538008804127346 0.006052095491321359
 0.00045379229010678073 0.0060522740572582275 -0.0003976310422157827 -0.003782068938895872 0.002539096223468335 0.011672482442610528 0.9970601234947661 -0.028547776849340487
 -0.000397893833049158 -0.0037820730277696064 0.00045538008804127346 0.006052095491321359 0.9970601234947661 -0.028547776849340487 0.002538895892769577 0.011672477762118057
0.06252605252188 0.0027352305459864344 0.013044110464303645 0.9968016146926277 -0.03177640921077919 0.0005268510096754261 0.0067288997433292185 -0.00046019724959383814 -0.004208044548612577
 0.9968016146926277 -0.03177640921077919 0.002735359943432671 0.013044075384712877 -0.0004598739351397889 -0.0042080428468177205 0.0005288136799895294 0.006728678160743494
 0.0005268510096754261 0.0067288997433292185 -0.0004598739351397889 -0.0042080428468177205 0.0027354369957128238 0.013044928614514282 0.996801633265766 -0.031775574473320224
 -0.00046019724959383814 -0.004208044548612577 0.0005288136799895294 0.006728678160743494 0.996801633265766 -0.031775574473320224 0.00273518961474081 0.013044921139694032
0.06877865777407 0.0029417106955155143 0.01443023592267836 0.9965294629689273 -0.035016103799197014 0.000605676161440354 0.007406211453120781 -0.000527367423767282 -0.004634887528701898
 0.9965294629689273 -0.035016103799197014 0.002941867166769712 0.01443019275676665 -0.0005269774996574062 -0.004634888974849712 0.0006080540685049191 0.00740594073875499
 0.000605676161440354 0.007406211453120781 -0.0005269774996574062 -0.004634888974849712 0.0029419601410960467 0.014431134209345588 0.9965294851446573 -0.03501518560444094
 -0.000527367423767282 -0.004634887528701898 0.0006080540685049191 0.00740594073875499 0.9965294851446573 -0.03501518560444094 0.0029416607153464887 0.014431123427907474
0.07503126302626001 0.0031585633153882425 0.01582993695905653 0.9962434660162117 -0.03826759115992959 0.0006903263082062111 0.008084151740391468 -0.0005994645770514728 -0.005062535735246296
 0.9962434660162117 -0.03826759115992959 0.003158749396308594 0.01582988461012412 -0.0005990020010145598 -0.005062541142875492 0.0006931600073824416 0.008083825356805909
 0.0006903263082062111 0.008084151740391468 -0.0005990020010145598 -0.005062541142875492 0.0031588598157561063 0.015830914944548028 0.9962434921175881 -0.03826658947262156
 -0.0005994645770514728 -0.005062535735246296 0.0006931600073824416 0.008083825356805909 0.9962434921175881 -0.03826658947262156 0.003158503336003332 0.01583090032790208
0.08128386827845 0.003385982149137542 0.017243040327443733 0.9959434364277846 -0.04153083398699704 0.0007808594233883604 0.008762660681479038 -0.0006765482193230658 -0.005490922429613945
 0.9959434364277846 -0.04153083398699704 0.0033862003623329508 0.01724297762978661 -0.0006760069923183206 -0.005490932664941268 0.0007841896599557328 0.008762271662536417
 0.0007808594233883604 0.008762660681479038 -0.0006760069923183206 -0.005490932664941268 0.0033863297605352467 0.017244097539030886 0.9959434667787961 -0.041529748762755093
 -0.0006765482193230658 -0.005490922429613945 0.0007841896599557328 0.008762271662536417 0.9959434667787961 -0.041529748762755093 0.00338591120146496 0.01724407854211786
0.08753647353064001 0.0036241605460420124 0.018669380557780474 0.9956291865249804 -0.044805781608692814 0.0008773328455344749 0.009441676103993126 -0.0007586771250774945 -0.005919980133292575
 0.9956291865249804 -0.044805781608692814 0.0036244133992064595 0.01866930627585211 -0.000758051290928649 -0.0059199961152026715 0.0008812005535026717 0.00944121704844599
 0.0008773328455344749 0.009441676103993126 -0.000758051290928649 -0.0059199961152026715 0.003624563323450279 0.018670516482073483 0.9956292214523608 -0.044804612798997
 -0.0007586771250774945 -0.005919980133292575 0.0008812005535026717 0.00944121704844599 0.9956292214523608 -0.044804612798997 0.003624077641812154 0.018670492543359816
0.09378907878283 0.003873291466021929 0.02010879764545321 0.9953005284630783 -0.04809237225255318 0.0009798032355475307 0.010121133749175294 -0.000845909306324055 -0.00634964046163936
 0.9953005284630783 -0.04809237225255318 0.003873581449923647 0.02010871047310719 -0.0008451929513332893 -0.006349663161685111 0.000984249535919572 0.010120596814240563
 0.0009798032355475307 0.010121133749175294 -0.0008451929513332893 -0.006349663161685111 0.0038737534619430842 0.020110011733639955 0.9953005682960431 -0.048091119799146514
 -0.000845909306324055 -0.00634964046163936 0.000984249535919572 0.010120596814240563 0.9953005682960431 -0.048091119799146514 0.0038731955955593543 0.02010998227505598
0.100041684035 0.0041335674679106845 0.02156113536347801 0.9949572743225897 -0.05139053468948295 0.001088326534706916 0.010800967392471212 -0.000938301983498302 -0.0067798340009880284
 0.9949572743225897 -0.05139053468948295 0.004133897055036919 0.02156103392320574 -0.000937489236357386 -0.00677986444336447 0.0010933927334430698 0.010800344287383962
 0.001088326534706916 0.010800967392471212 -0.000937489236357386 -0.00677986444336447 0.004134092732224415 0.02156242702602718 0.9949573193928346 -0.0513891985290719
 -0.000938301983498302 -0.0067798340009880284 0.0010933927334430698 0.010800344287383962 0.9949573193928346 -0.0513891985290719 0.004133457598106082 0.021562391453024018
0.1059090909091 0.004388116380420774 0.02293561447515811 0.9946217243583145 -0.05449596407309647 0.0011957183592773968 0.011439200488036162 -0.0010297463753454843 -0.007183947145944152
 0.9946217243583145 -0.05449596407309647 0.004388485361363645 0.022935498328925174 -0.0010288378720876205 -0.007183985832051759 0.0012014039968528173 0.011438488576332752
 0.0011957183592773968 0.011439200488036162 -0.0010288378720876205 -0.007183985832051759 0.004388704695800974 0.022936978361702953 0.9946217746473138 -0.054494549299023476
 -0.0010297463753454843 -0.007183947145944152 0.0012014039968528173 0.011438488576332752 0.9946217746473138 -0.054494549299023476 0.004387992411474872 0.022936936495561153
0.1062942892872 0.004405180690111976 0.02302623998273885 0.9945992361945301 -0.054700189471321235 0.0012029579239727596 0.011481108932051539 -0.0010359115544413937 -0.0072104902193901544
 0.9945992361945301 -0.054700189471321235 0.004405552332419835 0.023026122824951943 -0.0010349965860312505 -0.007210529480918879 0.0012086855096321589 0.011480390911622439
 0.0012029579239727596 0.011481108932051539 -0.0010349965860312505 -0.007210529480918879 0.00440577326934931 0.02302760859097514 0.9945992868363184 -0.054698769533594316
 -0.0010359115544413937 -0.0072104902193901544 0.0012086855096321589 0.011480390911622439 0.9945992868363184 -0.054698769533594316 0.004405055762362777 0.023027566292537046
0.11254689453939999 0.004688322822213927 0.024503959300852553 0.9942262262582441 -0.05802124986141634 0.0013237517834838969 0.012161488458867152 -0.0011387935621345027 -0.007641537397493041
 0.9942262262582441 -0.05802124986141634 0.004688738949558126 0.024503824903184326 -0.0011377705855267683 -0.007641586607595836 0.0013301824246380882 0.012160666317035922
 0.0013237517834838969 0.012161488458867152 -0.0011377705855267683 -0.007641586607595836 0.004688986759952734 0.02450540418530149 0.9942262828092451 -0.05801974607020689
 -0.0011387935621345027 -0.007641537397493041 0.0013301824246380882 0.012160666317035922 0.9942262828092451 -0.05801974607020689 0.004688181751217542 0.02450535453403085
0.11879949979160001 0.004983185072364221 0.02599414187343927 0.9938380568571065 -0.06135362256477503 0.00145076165260986 0.012842034312357097 -0.0012470026611310866 -0.00807290257540989
 0.9938380568571065 -0.06135362256477503 0.004983648090606331 0.025993988640075977 -0.0012458659315633053 -0.008072962916078043 0.001457937195149006 0.012841098375744512
 0.00145076165260986 0.012842034312357097 -0.0012458659315633053 -0.008072962916078043 0.004983924407992717 0.02599566232646928 0.9938381196578754 -0.06135203483495781
 -0.0012470026611310866 -0.00807290257540989 0.001457937195149006 0.012841098375744512 0.9938381196578754 -0.06135203483495781 0.004983026743525243 0.02599560467868462
0.1250521050438 0.0052899581290210265 0.027496636415478976 0.9934345405695975 -0.06469720828975511 0.001584040190150448 0.013522673123296068 -0.0013605925832148686 -0.008504511514345392
 0.9934345405695975 -0.06469720828975511 0.005290470417865572 0.027496462676594932 -0.0013593363981432606 -0.008504584220095767 0.0015920026540947735 0.013521613244727514
 0.001584040190150448 0.013522673123296068 -0.0013593363981432606 -0.008504584220095767 0.005290776897859467 0.027498231685788153 0.9934346099640775 -0.06469553653233144
 -0.0013605925832148686 -0.008504511514345392 0.0015920026540947735 0.013521613244727514 0.9934346099640775 -0.06469553653233144 0.005289781396799116 0.02749816538169062
0.131304710296 0.005608832119277097 0.029011291310470207 0.9930154902789614 -0.06805190220407838 0.0017236391345712171 0.01420332985176318 -0.0014796161020131258 -0.008936288664693095
 0.9930154902789614 -0.06805190220407838 0.005609396030405509 0.02901109532160828 -0.0014782348011915312 -0.008936375022536155 0.0017324307109830234 0.014202135403865243
 0.0017236391345712171 0.01420332985176318 -0.0014782348011915312 -0.008936375022536155 0.0056097343517982675 0.029012960606428113 0.993015566614806 -0.06805014632241205
 -0.0014796161020131258 -0.008936288664693095 0.0017324307109830234 0.014202135403865243 0.993015566614806 -0.06805014632241205 0.0056086358049445085 0.029012884970278305
0.1375573155481 0.0058595364964889665 0.030338497271886245 0.9926611996930232 -0.07121808388502023 0.0018498041196176513 0.014862770538054616 -0.0015843093041268727 -0.009347016755257882
 0.9926611996930232 -0.07121808388502023 0.005860153568591562 0.030338281778020025 -0.0015827945409479793 -0.009347116598284456 0.001859439450354903 0.014861444908432234
 0.0018498041196176513 0.014862770538054616 -0.0015827945409479793 -0.009347116598284456 0.00586052572665315 0.030340239853312835 0.9926612832830617 -0.07121624383738545
 -0.0015843093041268727 -0.009347016755257882 0.001859439450354903 0.014861444908432234 0.9926612832830617 -0.07121624383738545 0.005859319167965025 0.030340158689694544
0.1438099208003 0.00611877693971708 0.03165984798720002 0.9922949497055243 -0.07437742342870049 0.0019810667020977763 0.015520354586258613 -0.0016932134944329133 -0.009756042010766065
 0.9922949497055243 -0.07437742342870049 0.006119449340554126 0.0316596116338045 -0.0016915591850996349 -0.009756156577466788 0.001991583233185607 0.015518888289785752
 0.0019810667020977763 0.015520354586258613 -0.0016915591850996349 -0.009756156577466788 0.006119857101645734 0.0316616630407408 0.9922950408953455 -0.07437549912265179
 -0.0016932134944329133 -0.009756042010766065 0.001991583233185607 0.015518888289785752 0.9922950408953455 -0.07437549912265179 0.006118537328621879 0.031661576091947974
0.1500625260525 0.006386476385607736 0.032975267678444053 0.9919168201947424 -0.07752987811090246 0.0021173907322516706 0.016176041347616524 -0.001806293397340923 -0.010163324484840629
 0.9919168201947424 -0.07752987811090246 0.00638720624755254 0.03297500905989459 -0.0018044934659769232 -0.010163455062915593 0.0021288257509835488 0.016174424559335862
 0.0021173907322516706 0.016176041347616524 -0.0018044934659769232 -0.010163455062915593 0.0063876514031163695 0.032977154358385476 0.9919169193328536 -0.07752786945016595
 -0.001806293397340923 -0.010163324484840629 0.0021288257509835488 0.016174424559335862 0.9919169193328536 -0.07752786945016595 0.006386213190382956 0.03297706135928893
0.15631513130469998 0.006662557384726974 0.03428468307336055 0.9915268912674491 -0.08067540470043504 0.0022587397377345753 0.016829790708111268 -0.0019235133969183649 -0.010568824982669629
