! Created with skrf 1.8.0 (http://scikit-rf.org).
# GHz S RI R 50.0 
!freq ReS11 ImS11 ReS12 ImS12 ReS13 ImS13
! ReS14 ImS14
! ReS21 ImS21 ReS22 ImS22 ReS23 ImS23
! ReS24 ImS24
! ReS31 ImS31 ReS32 ImS32 ReS33 ImS33
! ReS34 ImS34
! ReS41 ImS41 ReS42 ImS42 ReS43 ImS43
! ReS44 ImS44
!
0.0 0.00190035273571 0.0 0.9980996472615 0.0 7.43687903986e-05 0.0 -7.436879031035e-05 9.107550101003083e-21
 0.9980996472615 0.0 0.001900352735648 0.0 -7.436879030917e-05 9.107550100858573e-21 7.436879039852e-05 0.0
 7.43687903986e-05 0.0 -7.436879030917e-05 9.107550100858573e-21 0.001900352721472 0.0 0.9980996472473 0.0
 -7.436879031035e-05 9.107550101003083e-21 7.436879039852e-05 0.0 0.9980996472473 0.0 0.001900352721463 0.0
0.005 0.002045983396737851 0.0015446251628336313 0.9979151393375177 -0.003979884493024036 0.00010641030004780624 0.0008727875117305922 -0.00010283678387051841 -0.0005382656527927618
 0.9979151393375177 -0.003979884493024036 0.002046003814731491 0.0015446132713930398 -0.00010283860465214254 -0.0005382671051610502 0.00010627734107349609 0.0008728382531913848
 0.00010641030004780624 0.0008727875117305922 -0.00010283860465214254 -0.0005382671051610502 0.002045981817173125 0.0015445588505387307 0.9979151389493308 -0.003979951561805371
 -0.00010283678387051841 -0.0005382656527927618 0.00010627734107349609 0.0008728382531913848 0.9979151389493308 -0.003979951561805371 0.002046004627114211 0.0015445454544502147
0.006252605252188 0.0020845585354414753 0.0019368452193390024 0.9978658901652474 -0.004975770835683388 0.00011581015316511995 0.001091354574848445 -0.00011106967576850407 -0.0006735155891940398
 0.9978658901652474 -0.004975770835683388 0.0020845904523376 0.001936830105383912 -0.00011107250858222968 -0.000673517380303951 0.00011560242110431038 0.0010914205244202098
 0.00011581015316511995 0.001091354574848445 -0.00011107250858222968 -0.000673517380303951 0.002084556136382384 0.0019367623553551505 0.9978658896289785 -0.0049758546562535646
 -0.00011106967576850407 -0.0006735155891940398 0.00011560242110431038 0.0010914205244202098 0.9978658896289785 -0.0049758546562535646 0.0020845917933294766 0.001936745346791445
0.01250521050438 0.0022898414924249133 0.003914011447222729 0.9976017540346781 -0.009951921234598985 0.0001710116031983678 0.0021826894399108224 -0.00015882965548125877 -0.0013500749065701062
 0.9976017540346781 -0.009951921234598985 0.0022899689357259406 0.003913978716632614 -0.00015884081336869915 -0.0013500782180723289 0.00017018329895703336 0.0021828489516833296
 0.0001710116031983678 0.0021826894399108224 -0.00015884081336869915 -0.0013500782180723289 0.0022898324753576637 0.0039138461029368165 0.9976017524592324 -0.009952088642578188
 -0.00015882965548125877 -0.0013500749065701062 0.00017018329895703336 0.0021828489516833296 0.9976017524592324 -0.009952088642578188 0.0022899748682747977 0.003913809418047045
0.01875781575657 0.0025167284556255718 0.005918877667483248 0.9973068556840127 -0.014940472548749974 0.0002401103733573731 0.00327472319876396 -0.00021781358623983372 -0.002028564762142347
 0.9973068556840127 -0.014940472548749974 0.002517014829466981 0.005918824673068015 -0.00021783845969328697 -0.0020285692628706905 0.000238249886862419 0.0032750101978164825
 0.0002401103733573731 0.00327472319876396 -0.00021783845969328697 -0.0020285692628706905 0.0025167086025307366 0.00591863016134079 0.9973068525567163 -0.014940723485357415
 -0.00021781358623983372 -0.002028564762142347 0.000238249886862419 0.0032750101978164825 0.9973068525567163 -0.014940723485357415 0.0025170285984065888 0.005918570905951745
0.02501042100875 0.002765725483557649 0.00794851274254423 0.9969807950058612 -0.019943736521805786 0.0003232455964784296 0.004367440508895877 -0.00028817854220427854 -0.0027085947614476405
 0.9969807950058612 -0.019943736521805786 0.0027662340751077046 0.007948436714097479 -0.0002882224536190762 -0.0027086000543847313 0.0003199413392979964 0.00436789505968228
 0.0003232455964784296 0.004367440508895877 -0.0002882224536190762 -0.0027086000543847313 0.0027656905928250975 0.007948183448742194 0.9969807898218505 -0.019944070980486818
 -0.00028817854220427854 -0.0027085947614476405 0.0003199413392979964 0.00436789505968228 0.9969807898218505 -0.019944070980486818 0.0027662589432185586 0.007948098526489268
0.03126302626094 0.00303731714553392 0.010001354047644054 0.9966231547977096 -0.02496263668167789 0.0004205558812254874 0.005460717106988776 -0.00037007544261762277 -0.003389872273596103
 0.9966231547977096 -0.02496263668167789 0.0030381111675708977 0.010001252096102684 -0.00037014365756353755 -0.0033898778952956574 0.0004153959356609297 0.005461385450621242
 0.0004205558812254874 0.005460717106988776 -0.00037014365756353755 -0.0033898778952956574 0.003037263016524012 0.010000943411372542 0.9966231470430442 -0.02496305469334187
 -0.00037007544261762277 -0.003389872273596103 0.0004153959356609297 0.005461385450621242 0.9966231470430442 -0.02496305469334187 0.0030381504018251767 0.010000829527435365
0.037515631513130004 0.003331976093928008 0.012076341700752146 0.99623351084524 -0.02999757407828854 0.0005321776873346641 0.006554384790521097 -0.00046365019946365346 -0.004072137517777228
 0.99623351084524 -0.02999757407828854 0.0033331187154469564 0.012076210820097438 -0.00046374793231506676 -0.004072142938282426 0.0005247496669921409 0.0065553194039799905
 0.0005321776873346641 0.006554384790521097 -0.00046374793231506676 -0.004072142938282426 0.003331898534144984 0.012075850245516476 0.9962335000029778 -0.029998075704718012
 -0.00046365019946365346 -0.004072137517777228 0.0005247496669921409 0.0065553194039799905 0.9962335000029778 -0.029998075704718012 0.00333317559496689 0.012075703907446498
0.043768236765320004 0.003650166727368866 0.014172655115724695 0.995811436102591 -0.03504869068623983 0.0006582445369627546 0.007648251206664969 -0.0005690440856008648 -0.004755143851965119
 0.995811436102591 -0.03504869068623983 0.003651721100547745 0.014172492183430632 -0.0005691765029416999 -0.004755148474822566 0.0006481355388089759 0.0076495108685573675
 0.0006582445369627546 0.007648251206664969 -0.0005691765029416999 -0.004755148474822566 0.0036500615524044195 0.014172083453667493 0.9958114216496845 -0.03504927601052745
 -0.0005690440856008648 -0.004755143851965119 0.0006481355388089759 0.0076495108685573675 0.9958114216496845 -0.03504927601052745 0.0036517989157955587 0.01417190097087978
0.050020842017509996 0.003992346850045137 0.016289604145986566 0.9953565028731022 -0.0401159782190696 0.0007988865153368315 0.008742108054021298 -0.0006863938320587374 -0.005438649658658771
 0.9953565028731022 -0.0401159782190696 0.003994376134380919 0.016289405922614658 -0.0006865660548099841 -0.005438652820983476 0.0007856831206891947 0.008743757912725882
 0.0007988865153368315 0.008742108054021298 -0.0006865660548099841 -0.005438652820983476 0.003992209885433743 0.016288952965994214 0.9953564842800753 -0.04011664735813921
 -0.0006863938320587374 -0.005438649658658771 0.0007856831206891947 0.008743757912725882 0.9953564842800753 -0.04011664735813921 0.003994478188161497 0.016288730448246965
0.055454545454549996 0.004309545344370749 0.018145578111843218 0.9949341353302392 -0.0445326575649957 0.0009330436200561055 0.009692524255577295 -0.0007981866984630298 -0.006032855752599129
 0.9949341353302392 -0.0445326575649957 0.004312038657311388 0.018145346496883052 -0.0007983976376859497 -0.006032857055810253 0.000916814976493162 0.00969457111446133
 0.0009330436200561055 0.009692524255577295 -0.0007983976376859497 -0.006032857055810253 0.004309377370926195 0.01814485845853884 0.9949341127020673 -0.044533399652303726
 -0.0007981866984630298 -0.006032855752599129 0.000916814976493162 0.00969457111446133 0.9949341127020673 -0.044533399652303726 0.004312164466300775 0.01814459783293278
0.056273447269699996 0.004358968480667951 0.01842657566170272 0.9948682841469484 -0.04519933151782661 0.0009542299033359397 0.009835735123278178 -0.0008158316008059533 -0.006122414402943471
 0.9948682841469484 -0.04519933151782661 0.004361535866268776 0.018426338789588406 -0.0008160487055825188 -0.006122415375513123 0.0009375182080148722 0.009837846765763145
 0.0009542299033359397 0.009835735123278178 -0.0008160487055825188 -0.006122415375513123 0.004358795562217349 0.0184258457417493 0.9948682608755598 -0.04520008461080931
 -0.0008158316008059533 -0.006122414402943471 0.0009375182080148722 0.009837846765763145 0.9948682608755598 -0.04520008461080931 0.004361665473337981 0.018425579096657888
0.06252605252188 0.004750478238334909 0.020583004203189058 0.9943463545219485 -0.05029857787440812 0.0011243968711903986 0.01092890255648174 -0.0009574848986344482 -0.006806196484156046
 0.9943463545219485 -0.05029857787440812 0.004753646968408125 0.02058272520421259 -0.000957751918669374 -0.006806194471483684 0.0011037625361986845 0.010931554076846085
 0.0011243968711903986 0.01092890255648174 -0.000957751918669374 -0.006806194471483684 0.004750265214875599 0.020582196412040243 0.9943463260252218 -0.050299415081647245
 -0.0009574848986344482 -0.006806196484156046 0.0011037625361986845 0.010931554076846085 0.9943463260252218 -0.050299415081647245 0.004753807456938107 0.020581881341745583
0.06877865777407 0.005167317500476949 0.022758354501941164 0.9937902909026093 -0.055413494500092496 0.0013095052118489159 0.01202137221133997 -0.0011114764529773775 -0.007489751995286414
 0.9937902909026093 -0.055413494500092496 0.005171150893592517 0.022758029774431508 -0.0011117983787464524 -0.007489746135713732 0.0012845335281400521 0.01202464827872309
 0.0013095052118489159 0.01202137221133997 -0.0011117983787464524 -0.007489746135713732 0.00516706023555914 0.022757469792093546 0.993790256623318 -0.05541441601059264
 -0.0011114764529773775 -0.007489751995286414 0.0012845335281400521 0.01202464827872309 0.993790256623318 -0.05541441601059264 0.005171345605490749 0.02275710178912081
0.07503126302626001 0.0056099224212826865 0.02495211041488446 0.9931996730644831 -0.060543819594452986 0.0015096680945136214 0.0131128985601306 -0.0012779240682474794 -0.008172833961214192
 0.9931996730644831 -0.060543819594452986 0.005614483893413537 0.024951736229668613 -0.0012783058478084437 -0.008172823327011955 0.0014799440583037682 0.01311689048555069
 0.0015096680945136214 0.0131128985601306 -0.0012783058478084437 -0.008172823327011955 0.0056096167953403496 0.02495114983217621 0.9931996324347461 -0.06054482561686689
 -0.0012779240682474794 -0.008172833961214192 0.0014799440583037682 0.01311689048555069 0.9931996324347461 -0.06054482561686689 0.005614716185231545 0.02495072417435169
0.08128386827845 0.0060787238655260764 0.027163767578822013 0.9925740841398543 -0.06568925970931562 0.00172499383253522 0.014203229312570695 -0.0014569404676925534 -0.008855191866720324
 0.9925740841398543 -0.06568925970931562 0.006084076952504747 0.027163340074307738 -0.0014573870069516162 -0.008855175464174686 0.0016901022299405286 0.014208035114469527
 0.00172499383253522 0.014203229312570695 -0.0014573870069516162 -0.008855175464174686 0.006078365777433228 0.027162732257765602 0.9925740365792365 -0.06569035047688393
 -0.0014569404676925534 -0.008855191866720324 0.0016901022299405286 0.014208035114469527 0.9925740365792365 -0.06569035047688393 0.006084350194953115 0.02716224400235108
0.08753647353064001 0.00657414728348633 0.029392828357142325 0.9919131110487003 -0.07084949483551795 0.00195558566127418 0.015292105879187968 -0.0016486331267540804 -0.00953657135818968
 0.9919131110487003 -0.07084949483551795 0.006580355662249076 0.029392343533568347 -0.0016491492894371651 -0.009536548127713013 0.001915111159318311 0.015297830347426856
 0.00195558566127418 0.015292105879187968 -0.0016491492894371651 -0.009536548127713013 0.006573732652481579 0.029391719520910933 0.9919130559631018 -0.07085067060651297
 -0.0016486331267540804 -0.00953657135818968 0.001915111159318311 0.015297830347426856 0.9919130559631018 -0.07085067060651297 0.00658067324132623 0.029391163497684385
0.09378907878283 0.007096612545803928 0.031638798239681666 0.991216344893952 -0.07602418205292913 0.0022015415223732284 0.016379263728551873 -0.0018531041000986392 -0.010216714065785485
 0.991216344893952 -0.07602418205292913 0.007103740057282194 0.03163825195230846 -0.0018536947077545864 -0.010216682882032497 0.0021550687666914174 0.016386018486776836
 0.0022015415223732284 0.016379263728551873 -0.0018536947077545864 -0.010216682882032497 0.007096137314253724 0.03163761720645246 0.9912162816755861 -0.07602544310450936
 -0.0018531041000986392 -0.010216714065785485 0.0021550687666914174 0.016386018486776836 0.9912162816755861 -0.07602544310450936 0.007104105374978841 0.031636988009938444
0.100041684035 0.007646533751555505 0.03390118323484207 0.9904833813339314 -0.08121295820468181 0.0024629538537089234 0.017464432685815243 -0.002070449844873642 -0.010895357499052143
 0.9904833813339314 -0.08121295820468181 0.0076546444225511654 0.03390057118612979 -0.0020711196768367977 -0.010895317170985061 0.0024100675711097312 0.0174723362519749
 0.0024629538537089234 0.017464432685815243 -0.0020711196768367977 -0.010895317170985061 0.007645993886667669 0.03389993141087176 0.990483309358976 -0.08121430483990416
 -0.002070449844873642 -0.010895357499052143 0.0024100675711097312 0.0174723362519749 0.990483309358976 -0.08121430483990416 0.007655060896560135 0.03389922339164666
0.1059090909091 0.008187910981789066 0.036038679666102996 0.9897622957539607 -0.08609454853624954 0.002722396422937125 0.01848069437548586 -0.0022861960924024766 -0.011530591331707857
 0.9897622957539607 -0.08609454853624954 0.008197002660280502 0.03603800185505551 -0.0022869445768183214 -0.011530541281058987 0.0026631142057027476 0.018489789959725157
 0.002722396422937125 0.01848069437548586 -0.0022869445768183214 -0.011530541281058987 0.008187306821459156 0.03603736277643307 0.989762214979535 -0.08609597577493591
 -0.0022861960924024766 -0.011530591331707857 0.0026631142057027476 0.018489789959725157 0.989762214979535 -0.08609597577493591 0.00819747026200876 0.03603657542655559
0.1062942892872 0.008224319014371453 0.03617948791831506 0.9897138209348375 -0.08641544193173957 0.002739909383367556 0.01854733718193336 -0.0023007610416166226 -0.011572235006597582
 0.9897138209348375 -0.08641544193173957 0.008233477079646332 0.03617880564921787 -0.002301514834689451 -0.011572184277647807 0.0026801944891127827 0.018556515026895006
 0.002739909383367556 0.01854733718193336 -0.002301514834689451 -0.011572184277647807 0.008223710510256546 0.0361781668049476 0.9897137395627134 -0.08641687447261169
 -0.0023007610416166226 -0.011572235006597582 0.0026801944891127827 0.018556515026895006 0.9897137395627134 -0.08641687447261169 0.00823394814404123 0.03617737405993024
0.11254689453939999 0.008830370233196947 0.03847321397853155 0.9889072695116005 -0.09163123522823238 0.0030324889272711248 0.019627696480068225 -0.0025441224135739396 -0.01224707577375564
 0.9889072695116005 -0.09163123522823238 0.008840640157724063 0.03847245685866004 -0.002544964861850815 -0.012247013321942474 0.0029655306367606807 0.019638281084074418
 0.0030324889272711248 0.019627696480068225 -0.002544964861850815 -0.012247013321942474 0.00882968911331212 0.03847182516565406 0.988907178083979 -0.09163275402224542
 -0.0025441224135739396 -0.01224707577375564 0.0029655306367606807 0.019638281084074418 0.988907178083979 -0.09163275402224542 0.008841169263644711 0.038470941527339285
0.11879949979160001 0.009465082851283295 0.04078185908900038 0.9880633384580054 -0.09685992468759459 0.0033407671904955014 0.020705224883630604 -0.00280061254555288 -0.012919604853704544
 0.9880633384580054 -0.09685992468759459 0.00947652935261078 0.04078102230571458 -0.002801548300133491 -0.012919529291731499 0.003266151134567183 0.02071735579065117
 0.0033407671904955014 0.020705224883630604 -0.002801548300133491 -0.012919529291731499 0.009464325171012145 0.04078040426234788 0.9880632362980086 -0.09686153010020492
 -0.00280061254555288 -0.012919604853704544 0.003266151134567183 0.02071735579065117 0.9880632362980086 -0.09686153010020492 0.009477119968474529 0.04077942328709839
0.1250521050438 0.010128845607249568 0.043104916054714865 0.9871816450711611 -0.10210108249263761 0.0036648125714895383 0.021779631931178982 -0.003070303703051571 -0.013589543227084434
 0.9871816450711611 -0.10210108249263761 0.01014153367755476 0.04310399460119899 -0.0030713373716808896 -0.013589453102489343 0.0035821249154086823 0.021793455800913117
 0.0036648125714895383 0.021779631931178982 -0.0030713373716808896 -0.013589453102489343 0.01012800745550388 0.043103396990174465 0.9871815314813074 -0.10210277491274153
 -0.003070303703051571 -0.013589543227084434 0.0035821249154086823 0.021793455800913117 0.9871815314813074 -0.10210277491274153 0.010142189289362264 0.043102311945423175
0.131304710296 0.010822040277687645 0.045441872144016744 0.986261812866769 -0.10735426723851793 0.004004686969782725 0.022850622588259355 -0.0033532616520355264 -0.014256607880065374
 0.986261812866769 -0.10735426723851793 0.010836035206038102 0.04544086080622756 -0.003354397798751418 -0.014256501675368698 0.00391351453539703 0.02286629324574953
 0.004004686969782725 0.022850622588259355 -0.003354397798751418 -0.014256501675368698 0.010821117779812393 0.04544029071026072 0.9862616871285886 -0.10735604707545565
 -0.0033532616520355264 -0.014256607880065374 0.00391351453539703 0.02286629324574953 0.9862616871285886 -0.10735604707545565 0.01083675931790471 0.0454390945606431
0.1375573155481 0.011399208560101348 0.047486453088088944 0.985449387209215 -0.11231305939851587 0.0043221914127970695 0.02388868119159271 -0.003611399965341659 -0.01489124559243074
 0.985449387209215 -0.11231305939851587 0.011414581334012054 0.04748536977743156 -0.0036126455767937467 -0.01489112296467023 0.00422232576748562 0.023906194353392227
 0.0043221914127970695 0.02388868119159271 -0.0036126455767937467 -0.01489112296467023 0.011398198654111135 0.04748481066309956 0.9854492487470828 -0.11231492688414549
 -0.003611399965341659 -0.01489124559243074 0.00422232576748562 0.023906194353392227 0.9854492487470828 -0.11231492688414549 0.011415376385073391 0.04748352021221964
0.1438099208003 0.011996986182658258 0.04951759725898814 0.9846076729699779 -0.1172566037152053 0.004652431404587383 0.024920831761928903 -0.003879739555448552 -0.01552053976792788
 0.9846076729699779 -0.1172566037152053 0.012013803333775316 0.049516437957572525 -0.0038810995683282693 -0.015520399195572123 0.0045434971425005475 0.02494032990766493
 0.004652431404587383 0.024920831761928903 -0.0038810995683282693 -0.015520399195572123 0.011995885191176326 0.049515895734958765 0.9846075210649254 -0.11725855924509426
 -0.003879739555448552 -0.01552053976792788 0.0045434971425005475 0.02494032990766493 0.9846075210649254 -0.11725855924509426 0.012014672661946507 0.049514505177621765
0.1500625260525 0.012615117773391233 0.05153505749293175 0.9837369311127249 -0.12218469807634738 0.004995263588341333 0.025946913639425622 -0.004158142327493893 -0.016144343221466857
 0.9837369311127249 -0.12218469807634738 0.012633446137795878 0.051533817865990386 -0.004159621665512549 -0.016144183120688237 0.004876888264319177 0.025968544447110144
 0.004995263588341333 0.025946913639425622 -0.004159621665512549 -0.016144183120688237 0.012613922063285345 0.051533298832547834 0.9837367650276223 -0.12218674206015978
 -0.004158142327493893 -0.016144343221466857 0.004876888264319177 0.025968544447110144 0.9837367650276223 -0.12218674206015978 0.012634393085478169 0.051531801979292996
0.15631513130469998 0.013253345605337708 0.053538594123702626 0.9828374245319105 -0.12709714300991487 0.005350542586783456 0.026966769601005667 -0.0044464681994368736 -0.016762512522898714
 0.9828374245319105 -0.12709714300991487 0.013273252330325908 0.053537269505410094 -0.0044480717729880265 -0.016762331247815815 0.00522235677057321 0.02699068588053121
