! Created with skrf 1.8.0 (http://scikit-rf.org).
# GHz S RI R 50.0 
!freq ReS11 ImS11 ReS12 ImS12 ReS13 ImS13
! ReS14 ImS14
! ReS21 ImS21 ReS22 ImS22 ReS23 ImS23
! ReS24 ImS24
! ReS31 ImS31 ReS32 ImS32 ReS33 ImS33
! ReS34 ImS34
! ReS41 ImS41 ReS42 ImS42 ReS43 ImS43
! ReS44 ImS44
!
0.0 0.001739939273985 0.0 0.9982600607165 0.0 6.750294598088e-05 0.0 -6.750294461529e-05 8.266726505613597e-21
 0.9982600607165 0.0 0.001739939273955 0.0 -6.750294461462e-05 8.266726505531544e-21 6.750294598014e-05 0.0
 6.750294598088e-05 0.0 -6.750294461462e-05 8.266726505531544e-21 0.001739939273632 0.0 0.9982600607161 0.0
 -6.750294461529e-05 8.266726505613597e-21 6.750294598014e-05 0.0 0.9982600607161 0.0 0.001739939273631 0.0
0.005 0.001872675721573726 0.0014216518365228548 0.9980920141648536 -0.0036441191939447304 9.516073281426174e-05 0.0007507158723236464 -9.228888425367513e-05 -0.00046988279772916086
 0.9980920141648536 -0.0036441191939447304 0.0018726949953946765 0.0014216405164134223 -9.228923693046326e-05 -0.00046988298826344485 9.504540817232014e-05 0.0007507598634490075
 9.516073281426174e-05 0.0007507158723236464 -9.228923693046326e-05 -0.00046988298826344485 0.0018726763131665842 0.0014217186987654105 0.99809201454078 -0.0036440521377707293
 -9.228888425367513e-05 -0.00046988279772916086 9.504540817232014e-05 0.0007507598634490075 0.99809201454078 -0.0036440521377707293 0.00187269514383462 0.001421707754808825
0.006252605252188 0.0019076771054930127 0.0017826360370883202 0.998047390132335 -0.004556009988575964 0.0001031764535480777 0.0009387421930901385 -9.937513699716229e-05 -0.0005879508838432811
 0.998047390132335 -0.004556009988575964 0.0019077072343658375 0.0017826216446076369 -9.937568642114035e-05 -0.0005879511169441916 0.00010299627166015238 0.0009387993401762291
 0.0001031764535480777 0.0009387421930901385 -9.937568642114035e-05 -0.0005879511169441916 0.0019076779552473584 0.0017827196106127779 0.9980473906446057 -0.004555926159626291
 -9.937513699716229e-05 -0.0005879508838432811 0.00010299627166015238 0.0009387993401762291 0.9980473906446057 -0.004555926159626291 0.0019077073903696006 0.0017827057031640332
0.01250521050438 0.002093029971988566 0.0036023710813599587 0.9978093683448557 -0.009112605357026309 0.00014974607618019057 0.001877725033389366 -0.00014005493570284287 -0.001178630175381817
 0.9978093683448557 -0.009112605357026309 0.0020931502862894026 0.003602339840019468 -0.00014005710859305175 -0.0011786305844189836 0.00014902759969743595 0.0018778628045370417
 0.00014974607618019057 0.001877725033389366 -0.00014005710859305175 -0.0011786305844189836 0.0020930328158821347 0.003602537824885049 0.9978093698376764 -0.009112437931052866
 -0.00014005493570284287 -0.001178630175381817 0.00014902759969743595 0.0018778628045370417 0.9978093698376764 -0.009112437931052866 0.0020931503426417286 0.003602507710741521
0.01875781575657 0.002296442537210114 0.005447703927960874 0.9975456713363666 -0.013680829925056762 0.00020732484078099392 0.0028175509615928056 -0.00018967583468476932 -0.0017711479289443774
 0.9975456713363666 -0.013680829925056762 0.00229671290937425 0.0054476531764090655 -0.00018968069081032148 -0.0017711484413939001 0.00020571097999741927 0.002817797870853879
 0.00020732484078099392 0.0028175509615928056 -0.00018968069081032148 -0.0017711484413939001 0.002296448515722423 0.005447953515584687 0.9975456742752771 -0.013680578950402724
 -0.00018967583468476932 -0.0017711479289443774 0.00020571097999741927 0.002817797870853879 0.9975456742752771 -0.013680578950402724 0.0022967125898841357 0.0054479047161936885
0.02501042100875 0.002518343848057669 0.007315999073712288 0.9972559612795068 -0.01826284666362664 0.000276027439907272 0.003758225602121984 -0.00024836607315457645 -0.002365202792136572
 0.9972559612795068 -0.01826284666362664 0.0025188240449918946 0.007315925965418786 -0.00024837466282768796 -0.0023652033192625888 0.0002731610683012787 0.003758615046374111
 0.000276027439907272 0.003758225602121984 -0.00024837466282768796 -0.0023652033192625888 0.002518354101885 0.0073163311569360515 0.9972559661339429 -0.018262512104977563
 -0.00024836607315457645 -0.002365202792136572 0.0002731610683012787 0.003758615046374111 0.9972559661339429 -0.018262512104977563 0.0025188230571686833 0.007316261034403805
0.03126302626094 0.002759145104941239 0.00920587443703348 0.9969398846707107 -0.022859549967591628 0.00035596861123010946 0.00469966636099832 -0.00031624963000694104 -0.0029605733665756147
 0.9969398846707107 -0.022859549967591628 0.0027598948217667472 0.009205775943667383 -0.00031626299557143745 -0.0029605738032770995 0.00035149224951354656 0.004700236648253889
 0.00035596861123010946 0.00469966636099832 -0.00031626299557143745 -0.0029605738032770995 0.0027591607732592566 0.009206288576608334 0.996939891915074 -0.022859131773726536
 -0.00031624963000694104 -0.0029605733665756147 0.00035149224951354656 0.004700236648253889 0.996939891915074 -0.022859131773726536 0.0027598928557342043 0.009206194337358385
0.037515631513130004 0.0030192480683610776 0.01111640928561474 0.9965970810931811 -0.027471357671637678 0.00044726191398958054 0.0056417552799715165 -0.00039344710300574993 -0.0035570653769623085
 0.9965970810931811 -0.027471357671637678 0.003020326951891657 0.011116282198201176 -0.00039346627946338497 -0.0035570656016577712 0.00044081759831260294 0.005642549676689604
 0.00044726191398958054 0.0056417552799715165 -0.00039346627946338497 -0.0035570656016577712 0.003019270288074898 0.01111690499107751 0.9965970912090979 -0.027470855735284117
 -0.00039344710300574993 -0.0035570653769623085 0.00044081759831260294 0.005642549676689604 0.9965970912090979 -0.027470855735284117 0.003020323680518624 0.011116783687555606
0.043768236765320004 0.0032990482870643703 0.013046903249565027 0.9962271868060492 -0.032098451969113546 0.0005500191344576659 0.006584355120747884 -0.0004800760095666622 -0.004154495616234142
 0.9962271868060492 -0.032098451969113546 0.0033005159548125454 0.013046744178767715 -0.0004801020249131652 -0.004154495490789591 0.0005412483634612474 0.006585421904893408
 0.0005500191344576659 0.006584355120747884 -0.0004801020249131652 -0.004154495490789591 0.003299078189357739 0.013047479956070317 0.9962272002817845 -0.032097866149719406
 -0.0004800760095666622 -0.004154495616234142 0.0005412483634612474 0.006585421904893408 0.9962272002817845 -0.032097866149719406 0.003300511030753035 0.01304732848744356
0.050020842017509996 0.0035989365820156363 0.014996776710326433 0.9958298365938715 -0.03674087895454406 0.0006643499226889305 0.007527316008669397 -0.0005762508723609025 -0.004752685337154494
 0.9958298365938715 -0.03674087895454406 0.0036008526385445734 0.014996582086028696 -0.0005762847476593761 -0.0047526847068189325 0.0006528936465812327 0.007528708524952509
 0.0006643499226889305 0.007527316008669397 -0.0005762847476593761 -0.0047526847068189325 0.0035989752927563863 0.014997433776755434 0.9958298539278825 -0.03674020907972524
 -0.0005762508723609025 -0.004752685337154494 0.0006528936465812327 0.007528708524952509 0.9958298539278825 -0.03674020907972524 0.0036008456958394027 0.01499724888885735
0.055454545454549996 0.003876163101673166 0.016706618739072535 0.9954619457207197 -0.04078771036089265 0.0007731893492350048 0.008346947346157348 -0.0006676689194005252 -0.0052730092444812915
 0.9954619457207197 -0.04078771036089265 0.003878517229767073 0.01670639017717855 -0.0006677104491290184 -0.005273008036753323 0.0007591072804107259 0.008348670233169077
 0.0007731893492350048 0.008346947346157348 -0.0006677104491290184 -0.005273008036753323 0.0038762103744636955 0.016707345064342533 0.9954619668197191 -0.04078696727080493
 -0.0006676689194005252 -0.0052730092444812915 0.0007591072804107259 0.008348670233169077 0.9954619668197191 -0.04078696727080493 0.0038785082183545867 0.016707128371779227
0.056273447269699996 0.0039192997882313224 0.016965521911752945 0.9954046648804659 -0.04139859744796321 0.0007903615222149353 0.008470478722102994 -0.0006820832176945179 -0.005351457004920052
 0.9954046648804659 -0.04139859744796321 0.003921723841068401 0.016965287982044438 -0.0006821259671330244 -0.005351455698266881 0.0007758601575889999 0.008472255437944585
 0.0007903615222149353 0.008470478722102994 -0.0006821259671330244 -0.005351455698266881 0.0039193484241297856 0.016966258623677025 0.9954046865805092 -0.041397843310180135
 -0.0006820832176945179 -0.005351457004920052 0.0007758601575889999 0.008472255437944585 0.9954046865805092 -0.041397843310180135 0.003921714491633508 0.016966036908395647
0.06252605252188 0.004260521130656943 0.018952676103782935 0.9949513064814525 -0.04607150579260604 0.0009281585542124769 0.0094136764924104 -0.0007976815218007089 -0.005950632546492038
 0.9949513064814525 -0.04607150579260604 0.004263512804725834 0.018952398933387016 -0.000797734152571516 -0.005950630375367642 0.0009102520156774634 0.009415901054027677
 0.0009281585542124769 0.0094136764924104 -0.000797734152571516 -0.005950630375367642 0.0042605807985230185 0.018953491669920955 0.9949513330674638 -0.04607066715242901
 -0.0007976815218007089 -0.005950632546492038 0.0009102520156774634 0.009415901054027677 0.9949513330674638 -0.04607066715242901 0.004263500638942614 0.018953229564051752
0.06877865777407 0.004622980400509794 0.02095780551644132 0.9944693971634054 -0.05075945782995433 0.0010778428262822372 0.010356736100027124 -0.0009231511326966668 -0.006550032311722219
 0.9944693971634054 -0.05075945782995433 0.0046265993526537 0.02095748098463859 -0.0009232146449039993 -0.006550029071194699 0.0010561705704273067 0.010359477388111235
 0.0010778428262822372 0.010356736100027124 -0.0009232146449039993 -0.006550029071194699 0.004623052195017722 0.020958699071133045 0.9944694291677053 -0.05075853441339068
 -0.0009231511326966668 -0.006550032311722219 0.0010561705704273067 0.010359477388111235 0.9944694291677053 -0.05075853441339068 0.004626583937705291 0.02095839285461885
0.07503126302626001 0.005007054014075188 0.02298049522649326 0.9939585740892215 -0.05546227299046144 0.0012395131587935116 0.01129947858275825 -0.0010585941744021832 -0.007149474430425004
 0.9939585740892215 -0.05546227299046144 0.005011359947210139 0.0229801190244707 -0.0010586695609000115 -0.007149469898757708 0.0012137142372996611 0.011302810767591435
 0.0012395131587935116 0.01129947858275825 -0.0010586695609000115 -0.007149469898757708 0.005007139015582349 0.02298146582281637 0.9939586120584617 -0.05546126449574293
 -0.0010585941744021832 -0.007149474430425004 0.0012137142372996611 0.011302810767591435 0.9939586120584617 -0.05546126449574293 0.005011340825845855 0.022981111616433347
0.08128386827845 0.005413114994985306 0.025020342403973158 0.9934184761937856 -0.0601797430136314 0.0014132652217519117 0.012241719715499593 -0.0012041094401266115 -0.007748774406568702
 0.9934184761937856 -0.0601797430136314 0.005418167672074619 0.025019910031594404 -0.0012041976863352117 -0.0077487683451750835 0.00138297834164245 0.012245722311207526
 0.0014132652217519117 0.012241719715499593 -0.0012041976863352117 -0.0077487683451750835 0.005413214267758384 0.025021389021606652 0.9934185206897325 -0.06017864910323398
 -0.0012041094401266115 -0.007748774406568702 0.00138297834164245 0.012245722311207526 0.9934185206897325 -0.06017864910323398 0.0054181443616750525 0.02502098278415622
0.08753647353064001 0.005841532907505379 0.027076951661160847 0.9928487445129743 -0.06491163657511198 0.0015991913777063933 0.013183270363720143 -0.001359792278728171 -0.008347744847506229
 0.9928487445129743 -0.06491163657511198 0.005847392165441692 0.027076458423209868 -0.0013598943624183832 -0.008347737000931476 0.0015640549677591242 0.013188028281581058
 0.0015991913777063933 0.013183270363720143 -0.0013598943624183832 -0.008347737000931476 0.005841647497678022 0.02707807320240562 0.9928487961145039 -0.06491045687982483
 -0.001359792278728171 -0.008347744847506229 0.0015640549677591242 0.013188028281581058 0.9928487961145039 -0.06491045687982483 0.005847364156973417 0.027077610727184863
0.09378907878283 0.006292673755009862 0.02914993173568571 0.9922490224844731 -0.06965770258991498 0.001797380530100035 0.01412393674808583 -0.0015257344754576463 -0.008946195291053735
 0.9922490224844731 -0.06965770258991498 0.00629939951862194 0.02914937273752695 -0.0015258513664972947 -0.008946185386961571 0.0017570328121319383 0.01412954034870293
 0.001797380530100035 0.01412393674808583 -0.0015258513664972947 -0.008946185386961571 0.006292804688448455 0.029151127024635244 0.9922490817884905 -0.06965643670985064
 -0.0015257344754576463 -0.008946195291053735 0.0017570328121319383 0.01412954034870293 0.9922490817884905 -0.06965643670985064 0.006299366275579033 0.02915060393535882
0.100041684035 0.006766899854116991 0.031238893066669948 0.9916189562263685 -0.07441767263295163 0.0020079179746791717 0.01506352065481155 -0.0017020241292718258 -0.009543932095994623
 0.9916189562263685 -0.07441767263295163 0.006774552150125376 0.03123826320921044 -0.001702156789439178 -0.009543919845146503 0.0019619970391182534 0.015070065799174144
 0.0020079179746791717 0.01506352065481155 -0.001702156789439178 -0.009543919845146503 0.00676704813428397 0.031240160849394516 0.99161902384919 -0.07441632013751322
 -0.0017020241292718258 -0.009543932095994623 0.0019619970391182534 0.015070065799174144 0.99161902384919 -0.07441632013751322 0.0067745131068377195 0.03123957259557324
0.1059090909091 0.007233225920677135 0.03321334937811261 0.990999795476868 -0.0788967924870776 0.002216788358757506 0.015944055690232703 -0.0018769393037926043 -0.010104020300843404
 0.990999795476868 -0.0788967924870776 0.0072418023654206645 0.03321264820219864 -0.0018770876288748653 -0.01010400556969128 0.0021653083496678727 0.015951576501364917
 0.002216788358757506 0.015944055690232703 -0.0018770876288748653 -0.01010400556969128 0.007233391369821947 0.03321468397824555 0.9909998714852115 -0.07889535829403363
 -0.0018769393037926043 -0.010104020300843404 0.0021653083496678727 0.015951576501364917 0.9909998714852115 -0.07889535829403363 0.007241757338483464 0.03321403027590272
0.1062942892872 0.007264569689867747 0.033343445978095694 0.9909581948020524 -0.07919126276324759 0.0022308852533508778 0.016001819612767025 -0.0018887455276265452 -0.010140758375354353
 0.9909581948020524 -0.07919126276324759 0.007273208660525775 0.033342739952287474 -0.0018888949103168938 -0.01014074347161042 0.002179029138802072 0.016009407711880107
 0.0022308852533508778 0.016001819612767025 -0.0018888949103168938 -0.01014074347161042 0.007264736295821144 0.033344784923154305 0.9909582713809061 -0.07918982319099699
 -0.0018887455276265452 -0.010140758375354353 0.002179029138802072 0.016009407711880107 0.9909582713809061 -0.07918982319099699 0.007273163221749708 0.03334412677474239
0.11254689453939999 0.007786037757155157 0.03546319930458031 0.990266390473581 -0.08397817491669735 0.002466360010481563 0.01693862704469837 -0.002085979019096181 -0.01073647396493032
 0.990266390473581 -0.08397817491669735 0.007795723674663082 0.03546241158513326 -0.002086146069032846 -0.010736456085263761 0.002408206786708742 0.016947365107878632
 0.002466360010481563 0.01693862704469837 -0.002086146069032846 -0.010736456085263761 0.007786223641336251 0.03546460800449304 0.9902664766682954 -0.08397664777434996
 -0.002085979019096181 -0.01073647396493032 0.002408206786708742 0.016947365107878632 0.9902664766682954 -0.08397664777434996 0.007795671213877275 0.03546387504583222
0.11879949979160001 0.008331654391849701 0.037597759331110314 0.9895431989490243 -0.08877809799651201 0.0027144158505344107 0.01787373240341413 -0.002293800885156267 -0.011330875416690186
 0.9895431989490243 -0.08877809799651201 0.008342447671993814 0.03759688416967522 -0.002293986538176006 -0.01133085422119067 0.002649603704533021 0.017883733085121672
 0.0027144158505344107 0.01787373240341413 -0.002293986538176006 -0.01133085422119067 0.008331860477942073 0.03759923629942974 0.9895432954428548 -0.08877648276234913
 -0.002293800885156267 -0.011330875416690186 0.002649603704533021 0.017883733085121672 0.9895432954428548 -0.08877648276234913 0.008342387530306711 0.03759842342273584
0.1250521050438 0.008901765593116572 0.039746728958749526 0.9887882796226029 -0.09359070874913697 0.0029751221973804906 0.018806921298523214 -0.002512283211123899 -0.011923756011352172
 0.9887882796226029 -0.09359070874913697 0.008913726809207061 0.039745760376368094 -0.0025124883937788786 -0.011923731143258794 0.0029032895224501433 0.018818302943565356
 0.0029751221973804906 0.018806921298523214 -0.0025124883937788786 -0.011923731143258794 0.008901992773410304 0.039748272632674504 0.9887883871237889 -0.09358900487110933
 -0.002512283211123899 -0.011923756011352172 0.0029032895224501433 0.018818302943565356 0.9887883871237889 -0.09358900487110933 0.008913658294220599 0.03974737453055051
0.131304710296 0.009496712838342546 0.04190970705597923 0.9880012958108774 -0.09841567246661023 0.0032485441553790494 0.019737975616075647 -0.002741493756388419 -0.012514905788056986
 0.9880012958108774 -0.09841567246661023 0.009509902735347013 0.04190863883486683 -0.002741719385813123 -0.012514876873779833 0.003169329642857304 0.01975086230324498
 0.0032485441553790494 0.019737975616075647 -0.002741719385813123 -0.012514876873779833 0.009496961972342639 0.041911315797743216 0.9880014150546428 -0.09841387936161755
 -0.002741493756388419 -0.012514905788056986 0.003169329642857304 0.01975086230324498 0.9880014150546428 -0.09841387936161755 0.009509825119936725 0.04191032695527117
0.1375573155481 0.009986982301596342 0.04380469763787115 0.9873118282571018 -0.10297089581043 0.003502526733771277 0.0206393952968133 -0.002949374426473318 -0.013076785953355511
 0.9873118282571018 -0.10297089581043 0.01000146495632252 0.04380354575562781 -0.0029496216472081507 -0.013076752921369707 0.003415747984084227 0.020653777536356485
 0.003502526733771277 0.0206393952968133 -0.0029496216472081507 -0.013076752921369707 0.00998725336523858 0.04380637048458255 0.9873119598047682 -0.10296901311541229
 -0.002949374426473318 -0.013076785953355511 0.003415747984084227 0.020653777536356485 0.9873119598047682 -0.10296901311541229 0.010001378697185155 0.043805306547562435
0.1438099208003 0.010494688584781166 0.04568845071506184 0.9865977177062282 -0.10751329395833002 0.003766735985295413 0.021536324804040524 -0.003165517091511746 -0.01363459287681854
 0.9865977177062282 -0.10751329395833002 0.01051052542756345 0.04568721021817382 -0.003165786848323451 -0.013634555363410234 0.0036720643685692425 0.021552316986144845
 0.003766735985295413 0.021536324804040524 -0.003165786848323451 -0.013634555363410234 0.01049498222957602 0.04569018601738152 0.9865978622957684 -0.10751132109924093
 -0.003165517091511746 -0.01363459287681854 0.0036720643685692425 0.021552316986144845 0.9865978622957684 -0.10751132109924093 0.010510429962049409 0.04568904263754845
0.1500625260525 0.011019633126415644 0.04756077163055512 0.9858591675919953 -0.11204271578514742 0.004041068048861494 0.02242864525820062 -0.003389821696588689 -0.014188216895973242
 0.9858591675919953 -0.11204271578514742 0.011036885756372494 0.0475594372640185 -0.0033901149279838825 -0.014188174523476345 0.003938177274623942 0.022446365944235797
 0.004041068048861494 0.02242864525820062 -0.0033901149279838825 -0.014188174523476345 0.01101994996090876 0.04756256767506933 0.9858593259835271 -0.11204065217002723
 -0.003389821696588689 -0.014188216895973242 0.003938177274623942 0.022446365944235797 0.9858593259835271 -0.11204065217002723 0.011036780501609155 0.04756134022193158
0.15631513130469998 0.01156161571774401 0.04942147154517525 0.9850963826449337 -0.11655901156095086 0.004325417687344744 0.023316240081572306 -0.0036221868262260944 -0.014737550910206372
 0.9850963826449337 -0.11655901156095086 0.011580345907005076 0.049420037744029616 -0.003622504464296925 -0.014737503287152356 0.004213983845626069 0.023335811954138714
