! Created with skrf 1.8.0 (http://scikit-rf.org).
# GHz S RI R 50.0 
!freq ReS11 ImS11 ReS12 ImS12 ReS13 ImS13
! ReS14 ImS14
! ReS21 ImS21 ReS22 ImS22 ReS23 ImS23
! ReS24 ImS24
! ReS31 ImS31 ReS32 ImS32 ReS33 ImS33
! ReS34 ImS34
! ReS41 ImS41 ReS42 ImS42 ReS43 ImS43
! ReS44 ImS44
!
0.0 0.001505520740783 0.0 0.9984944792421 0.0 5.793284456178e-05 0.0 -5.793284456196e-05 7.094727265830545e-21
 0.9984944792421 0.0 0.001505520740802 0.0 -5.793284456224e-05 7.094727265864836e-21 5.793284456242e-05 0.0
 5.793284456178e-05 0.0 -5.793284456224e-05 7.094727265864836e-21 0.001505520749318 0.0 0.9984944792507 0.0
 -5.793284456196e-05 7.094727265830545e-21 5.793284456242e-05 0.0 0.9984944792507 0.0 0.001505520749326 0.0
0.005 0.001619693784538383 0.0012330894855847338 0.9983500662906653 -0.0031537473203258554 8.086280404940327e-05 0.0006299140247506332 -7.861937460260457e-05 -0.0003968704907766094
 0.9983500662906653 -0.0031537473203258554 0.0016196947206801161 0.0012330890122651162 -7.861682976717613e-05 -0.0003968686398825138 8.08504001317078e-05 0.0006299185628123789
 8.086280404940327e-05 0.0006299140247506332 -7.861682976717613e-05 -0.0003968686398825138 0.0016196949025993352 0.0012331561591334243 0.9983500666344288 -0.0031536802522919224
 -7.861937460260457e-05 -0.0003968704907766094 8.08504001317078e-05 0.0006299185628123789 0.9983500666344288 -0.0031536802522919224 0.0016196942843316635 0.0012331564696517552
0.006252605252188 0.001649605563744222 0.001546210619063177 0.9983120011018389 -0.003942959913118175 8.738653871153039e-05 0.0007877041410398583 -8.44419553507314e-05 -0.0004966011040007031
 0.9983120011018389 -0.003942959913118175 0.0016496070269473551 0.001546210083346271 -8.443799452934598e-05 -0.0004965988239808339 8.73671564875224e-05 0.0007877100629631109
 8.738653871153039e-05 0.0007877041410398583 -8.443799452934598e-05 -0.0004965988239808339 0.0016496072578021856 0.0015462939466442207 0.998312001586276 -0.003942876097764866
 -8.44419553507314e-05 -0.0004966011040007031 8.73671564875224e-05 0.0007877100629631109 0.998312001586276 -0.003942876097764866 0.0016496062922116592 0.0015462943749746847
0.01250521050438 0.0018068792661982314 0.0031248074623579283 0.9981105744190726 -0.00788674813306626 0.00012465524315332532 0.0015758085529071523 -0.00011738179188976496 -0.0009956217340476373
 0.9981105744190726 -0.00788674813306626 0.0018068851026937136 0.0031248069625268338 -0.00011736617220884785 -0.000995617543104523 0.0001245778824879244 0.0015758230608698565
 0.00012465524315332532 0.0015758085529071523 -0.00011736617220884785 -0.000995617543104523 0.0018068854447668913 0.0031249739240182006 0.9981105757790417 -0.00788658072785645
 -0.00011738179188976496 -0.0009956217340476373 0.0001245778824879244 0.0015758230608698565 0.9981105757790417 -0.00788658072785645 0.0018068816015843312 0.0031249752035974548
0.01875781575657 0.001977678961491595 0.004725887917195806 0.9978899532169992 -0.011840968076371316 0.0001698249194406326 0.0023648349327955102 -0.00015685206694236725 -0.0014963589795881792
 0.9978899532169992 -0.011840968076371316 0.001977692061324055 0.00472588805901253 -0.00015681721972076652 -0.0014963533204772805 0.00016965097484740528 0.002364861164613387
 0.0001698249194406326 0.0023648349327955102 -0.00015681721972076652 -0.0014963533204772805 0.001977692397610597 0.004726137410473111 0.9978899558505163 -0.011840717160205107
 -0.00015685206694236725 -0.0014963589795881792 0.00016965097484740528 0.002364861164613387 0.9978899558505163 -0.011840717160205107 0.001977683784475966 0.004726140024384407
0.02501042100875 0.002162332152214544 0.0063472208406657 0.9976498819616442 -0.015807541791439804 0.00022298257383006846 0.003154817507550365 -0.00020294945089994088 -0.0019985920568083766
 0.9976498819616442 -0.015807541791439804 0.0021623553938673293 0.006347222269266851 -0.00020288789294674463 -0.001998585453319897 0.00022267332770808 0.003154859068445579
 0.00022298257383006846 0.003154817507550365 -0.00020288789294674463 -0.001998585453319897 0.0021623556016415277 0.0063475532543605375 0.9976498862697564 -0.015807207397849746
 -0.00020294945089994088 -0.0019985920568083766 0.00022267332770808 0.003154859068445579 0.9976498862697564 -0.015807207397849746 0.002162340344820824 0.006347557747778431
0.03126302626094 0.0023611527941775423 0.007987661025095452 0.9973900918532516 -0.019787295462415196 0.0002842156383736756 0.0039457190539574334 -0.0002557679983257195 -0.0025021662988002516
 0.9973900918532516 -0.019787295462415196 0.002361189047938051 0.007987664426575499 -0.0002556723172651741 -0.002502159356756535 0.00028373222790557947 0.003945780022259768
 0.0002842156383736756 0.0039457190539574334 -0.0002556723172651741 -0.002502159356756535 0.0023611889904968176 0.007988076235257624 0.9973900982348168 -0.019786877583612965
 -0.0002557679983257195 -0.0025021662988002516 0.00028373222790557947 0.003945780022259768 0.9973900982348168 -0.019786877583612965 0.0023611652355364043 0.007988083216548484
0.037515631513130004 0.0025744481060094382 0.009646464050186728 0.9971103078415959 -0.02378064449609412 0.000353611151899231 0.004737474132663085 -0.00031539981314148455 -0.0030069499223230023
 0.9971103078415959 -0.02378064449609412 0.002574500237790007 0.009646470152683505 -0.0003152626601089842 -0.0030069433299604537 0.0003529145538994888 0.0047375590668248275
 0.000353611151899231 0.004737474132663085 -0.0003152626601089842 -0.0030069433299604537 0.0025744997662009335 0.00964696188910992 0.997110316698539 -0.023780143113703106
 -0.00031539981314148455 -0.0030069499223230023 0.0003529145538994888 0.0047375590668248275 0.997110316698539 -0.023780143113703106 0.0025744656791879122 0.00964697203090394
0.043768236765320004 0.0028025212081410076 0.011323077725549514 0.9968102514709787 -0.027787802009597934 0.0004312553794556485 0.005530002220072349 -0.00038193528179282407 -0.003512820895404486
 0.9968102514709787 -0.027787802009597934 0.002802592081909955 0.011323087300030883 -0.00038174936711520626 -0.0035128154235680347 0.00043030640193232036 0.005530116165989184
 0.0004312553794556485 0.005530002220072349 -0.00038174936711520626 -0.0035128154235680347 0.0028025910321707267 0.011323658000721396 0.9968102632083783 -0.027787217075492955
 -0.00038193528179282407 -0.003512820895404486 0.00043030640193232036 0.005530116165989184 0.9968102632083783 -0.027787217075492955 0.0028025448010463934 0.011323672040724816
0.050020842017509996 0.003045672346125999 0.0130170559450658 0.9964896423131818 -0.03180886490439325 0.0005172335773918674 0.006323213146339629 -0.00045546316086683306 -0.004019661500159136
 0.9964896423131818 -0.03180886490439325 0.0030457648266074217 0.013017069806007435 -0.00045522125140365143 -0.004019658002425326 0.0005159928554617332 0.006323361644945442
 0.0005172335773918674 0.006323213146339629 -0.00045522125140365143 -0.004019658002425326 0.003045763016276347 0.013017718419783697 0.996489657339301 -0.031808196359790354
 -0.00045546316086683306 -0.004019661500159136 0.0005159928554617332 0.006323361644945442 0.996489657339301 -0.031808196359790354 0.0030457028523122242 0.013017737161683073
0.055454545454549996 0.0032694547535172674 0.01450297840731747 0.9961941132083363 -0.035314602468567505 0.0005987847753173547 0.007013016712511044 -0.0005251075281937407 -0.00446081865468124
 0.9961941132083363 -0.035314602468567505 0.0032695683400463717 0.01450299668902757 -0.0005248111259498172 -0.004460817630039406 0.0005972584138540422 0.007013200128599628
 0.0005987847753173547 0.007013016712511044 -0.0005248111259498172 -0.004460817630039406 0.0032695657051673294 0.014503712095282425 0.9961941314276553 -0.035313861201724576
 -0.0005251075281937407 -0.00446081865468124 0.0005972584138540422 0.007013200128599628 0.9961941314276553 -0.035313861201724576 0.0032694920001988775 0.014503735627756007
0.056273447269699996 0.0033041995190181053 0.014728016372324624 0.9961481988088546 -0.035843856109942444 0.0006116298299385728 0.0071170097523639815 -0.0005360705928497393 -0.004527355679222746
 0.9961481988088546 -0.035843856109942444 0.0033043164744703812 0.01472803537830647 -0.000535765510246623 -0.0045273550919962685 0.0006100578239427485 0.007117198847291411
 0.0006116298299385728 0.0071170097523639815 -0.000535765510246623 -0.0045273550919962685 0.0033043137012655943 0.014728760773722519 0.9961482175367629 -0.03584310387703609
 -0.0005360705928497393 -0.004527355679222746 0.0006100578239427485 0.007117198847291411 0.9961482175367629 -0.03584310387703609 0.0033042378411440197 0.014728785087909159
0.06252605252188 0.0035783988216986484 0.016455617190299626 0.9957856388254961 -0.03989274776560902 0.0007145269157018665 0.007911289358604658 -0.0006238430906433016 -0.0050357875735277694
 0.9957856388254961 -0.03989274776560902 0.003578543126165765 0.016455642244455476 -0.0006234677102423387 -0.005035790916112963 0.0007125839109101323 0.007911525603927943
 0.0007145269157018665 0.007911289358604658 -0.0006234677102423387 -0.005035790916112963 0.003578539163357259 0.01645644320768523 0.9957856616720607 -0.039891911748990705
 -0.0006238430906433016 -0.0050357875735277694 0.0007125839109101323 0.007911525603927943 0.9957856616720607 -0.039891911748990705 0.003578445870613972 0.016456474032021086
0.06877865777407 0.003868564621858706 0.018199543243541904 0.9954016800552948 -0.04395547501311608 0.0008260061955943072 0.008705944637116977 -0.0007188644993119355 -0.005544840660430911
 0.9954016800552948 -0.04395547501311608 0.0038687391580523294 0.01819957529401224 -0.0007184117494775765 -0.005544849035082643 0.0008236523029638368 0.008706235105137882
 0.0008260061955943072 0.008705944637116977 -0.0007184117494775765 -0.005544849035082643 0.0038687337530085835 0.01820045052600406 0.9954017074427165 -0.04395455510180441
 -0.0007188644993119355 -0.005544840660430911 0.0008236523029638368 0.008706235105137882 0.9954017074427165 -0.04395455510180441 0.003868621320025458 0.01820048886648655
0.07503126302626001 0.004174989647904982 0.019959497237791498 0.9949960403260258 -0.048031944735355145 0.0009461475088728993 0.009500864172558451 -0.0008212169482781105 -0.006054397206664333
 0.9949960403260258 -0.048031944735355145 0.0041751973093467395 0.019959537278061507 -0.0008206798099750302 -0.006054411798636223 0.0009433426667202131 0.0095012164616345
 0.0009461475088728993 0.009500864172558451 -0.0008206798099750302 -0.006054411798636223 0.0041751901804411694 0.019960485392338193 0.9949960726822442 -0.04803094080450471
 -0.0008212169482781105 -0.006054397206664333 0.0009433426667202131 0.0095012164616345 0.9949960726822442 -0.04803094080450471 0.0041750569304916454 0.019960532323727197
0.08128386827845 0.004497965015079983 0.021735193896784008 0.9945684378548172 -0.05212204134212918 0.0010750290777737702 0.01029593283659437 -0.0009309807934759559 -0.006564337911973894
 0.9945684378548172 -0.05212204134212918 0.004498208709308529 0.02173524296596781 -0.0009303523001852944 -0.006564359989541809 0.0010717330540651944 0.010296355078965652
 0.0010750290777737702 0.01029593283659437 -0.0009303523001852944 -0.006564359989541809 0.004498199542791634 0.021736262492430932 0.9945684756141049 -0.052120953248594094
 -0.0009309807934759559 -0.006564337911973894 0.0010717330540651944 0.010296355078965652 0.9945684756141049 -0.052120953248594094 0.004498043832049769 0.02173631915884781
0.08753647353064001 0.0048377802136395694 0.023526355919266197 0.99411859146601 -0.05622563076028211 0.0012127274156854134 0.011091032047135107 -0.001048234554867292 -0.007074541672059067
 0.99411859146601 -0.05622563076028211 0.004838062864132875 0.02352641510235069 -0.001047507792546609 -0.0070745725865463535 0.0012088998106333593 0.011091532916791857
 0.0012127274156854134 0.011091032047135107 -0.001047507792546609 -0.0070745725865463535 0.004838051311382366 0.02352750448399417 0.9941186350694458 -0.056224458345477096
 -0.001048234554867292 -0.007074541672059067 0.0012088998106333593 0.011091532916791857 0.9941186350694458 -0.056224458345477096 0.004837871530870679 0.023527572099430356
0.09378907878283 0.005194723069608714 0.025332711088520858 0.9936462207867142 -0.06034256327584902 0.0013593172378441774 0.011886039967713077 -0.0011730548497633196 -0.00758488540582254
 0.9936462207867142 -0.06034256327584902 0.005195047618866898 0.025332781516518486 -0.001172222957030562 -0.007584926591591971 0.0013549174873523783 0.011886628688245943
 0.0013593172378441774 0.011886039967713077 -0.001172222957030562 -0.007584926591591971 0.005195033292764166 0.025333939105488878 0.9936462706825555 -0.06034130636932622
 -0.0011730548497633196 -0.00758488540582254 0.0013549174873523783 0.011886628688245943 0.9936462706825555 -0.06034130636932622 0.005194827870788659 0.025334018954317198
0.100041684035 0.005569079685466406 0.027153990149809328 0.9931510464241645 -0.06447267561350778 0.0015148713744459535 0.012680831651029479 -0.0013055163230270461 -0.008095243942854562
 0.9931510464241645 -0.06447267561350778 0.005569449097487822 0.02715407299984344 -0.0013045724914265604 -0.008095296917300397 0.0015098587535674497 0.012681518003467384
 0.0015148713744459535 0.012680831651029479 -0.0013045724914265604 -0.008095296917300397 0.005569431570132657 0.027155297064978243 0.9931511030689851 -0.06447133402517106
 -0.0013055163230270461 -0.008095243942854562 0.0015098587535674497 0.012681518003467384 0.9931511030689851 -0.06447133402517106 0.005569198974259504 0.027155390502360054
0.1059090909091 0.005936464568934302 0.028876401860653336 0.9926653902326648 -0.06836017889638486 0.0016690585251023875 0.01342634875158266 -0.001436831633180674 -0.008574061359176802
 0.9926653902326648 -0.06836017889638486 0.00593687879727772 0.028876497479122236 -0.0014357766141077897 -0.008574126850035727 0.0016634336116874112 0.013427136120406535
 0.0016690585251023875 0.01342634875158266 -0.0014357766141077897 -0.008574126850035727 0.00593685783735901 0.02887778226992566 0.9926654536334023 -0.06835875765901625
 -0.001436831633180674 -0.008574061359176802 0.0016634336116874112 0.013427136120406535 0.9926654536334023 -0.06835875765901625 0.005936598384840646 0.028877889754655082
0.1062942892872 0.005961134367033189 0.028989925228268303 0.992632790133108 -0.06861579248061689 0.0016794606847308727 0.013475279154080495 -0.0014456915749815934 -0.008605489943963244
 0.992632790133108 -0.06861579248061689 0.00596155163018608 0.02899002172358776 -0.0014446290493740942 -0.008605556307480375 0.0016737943116132345 0.013476073484745226
 0.0016794606847308727 0.013475279154080495 -0.0014446290493740942 -0.008605556307480375 0.005961530429350865 0.028991310443035247 0.9926328539919671 -0.06861436600789624
 -0.0014456915749815934 -0.008605489943963244 0.0016737943116132345 0.013476073484745226 0.9926328539919671 -0.06861436600789624 0.00596126916869412 0.0289914188953258
0.11254689453939999 0.006371169539710153 0.030840248604716014 0.9920911749753981 -0.07277172775881229 0.0018531539718818976 0.014269251638019462 -0.0015936510877008483 -0.009115493841704136
 0.9920911749753981 -0.07277172775881229 0.006371637669306186 0.030840360014679272 -0.0015924631666675917 -0.009115575277649217 0.001846792812055099 0.014270164866357588
 0.0018531539718818976 0.014269251638019462 -0.0015924631666675917 -0.009115575277649217 0.006371612275126335 0.030841711479848804 0.9920912465222869 -0.07277021618256402
 -0.0015936510877008483 -0.009115493841704136 0.001846792812055099 0.014270164866357588 0.9920912465222869 -0.07277021618256402 0.006371320902745857 0.030841836444896388
0.11879949979160001 0.006799465654755572 0.032704691775739966 0.9915259254723022 -0.07694028541678305 0.0020360178989356336 0.015062615444016299 -0.0017494631495542496 -0.009625123809749217
 0.9915259254723022 -0.07694028541678305 0.006799987695942399 0.03270481941568231 -0.001748143185914504 -0.009625222084375652 0.0020289207697282343 0.01506365907040649
 0.0020360178989356336 0.015062615444016299 -0.001748143185914504 -0.009625222084375652 0.006799957537857066 0.03270623162778195 0.9915260051913846 -0.07693868850491913
 -0.0017494631495542496 -0.009625123809749217 0.0020289207697282343 0.01506365907040649 0.9915260051913846 -0.07693868850491913 0.006799634653263256 0.03270637467516913
0.1250521050438 0.007246301090029675 0.034582984701082384 0.9909367677545634 -0.08112126024167171 0.0022281169046901605 0.015855234167349203 -0.0019131937790454834 -0.0101342457388724
 0.9909367677545634 -0.08112126024167171 0.007246880120500734 0.034583129932148064 -0.001911735180392747 -0.010134362701262464 0.002220242479937987 0.015856420280887143
 0.0022281169046901605 0.015855234167349203 -0.001911735180392747 -0.010134362701262464 0.007246844573638661 0.03458460080590469 0.9909368561399443 -0.08111957774538246
 -0.0019131937790454834 -0.0101342457388724 0.002220242479937987 0.015856420280887143 0.9909368561399443 -0.08111957774538246 0.007246488825049749 0.03458476357717199
0.131304710296 0.007711952044056444 0.03647485521422608 0.9903234297079755 -0.08531443841297574 0.0024295131202552054 0.016646968721336006 -0.0020849066474005144 -0.01064272322824393
 0.9903234297079755 -0.08531443841297574 0.007712591177017674 0.03647501944306316 -0.002083302876768513 -0.010642860810192825 0.0024208199354573126 0.01664831000759535
 0.0024295131202552054 0.016646968721336006 -0.002083302876768513 -0.010642860810192825 0.007712549559166098 0.03647654680532356 0.9903235272649815 -0.08531267006847343
 -0.0020849066474005144 -0.01064272322824393 0.0024208199354573126 0.01664831000759535 0.9903235272649815 -0.08531267006847343 0.0077121596459172135 0.036476731014132784
0.1375573155481 0.008089079366138533 0.03813375847917616 0.9897932940789729 -0.08927321592063453 0.0026145771598300874 0.017413083119762956 -0.0022389918034502743 -0.011125830101645993
 0.9897932940789729 -0.08927321592063453 0.008089783164342897 0.03813393728362063 -0.0022372334878274606 -0.011125988456408852 0.0026050510667132098 0.01741457740758539
 0.0026145771598300874 0.017413083119762956 -0.0022372334878274606 -0.011125988456408852 0.008089734512133427 0.03813552418000118 0.9897934012299685 -0.08927136158250433
 -0.0022389918034502743 -0.011125830101645993 0.0026050510667132098 0.01741457740758539 0.9897934012299685 -0.08927136158250433 0.00808930839201469 0.038135727112180565
0.1438099208003 0.008479457701636396 0.03978408120710604 0.9892445585248753 -0.09322210828451527 0.002807112201283578 0.018176161264217165 -0.0023992395575327115 -0.011606149513832494
 0.9892445585248753 -0.09322210828451527 0.008480229585580602 0.03978427545010878 -0.002397319728397224 -0.011606330532211023 0.0027967164713649973 0.018177820054493574
 0.002807112201283578 0.018176161264217165 -0.002397319728397224 -0.011606330532211023 0.00848017309037338 0.03978592014242108 0.9892446757738789 -0.0932201676967565
 -0.0023992395575327115 -0.011606149513832494 0.0027967164713649973 0.018177820054493574 0.9892446757738789 -0.0932201676967565 0.008479709394686763 0.0397861431343229
0.1500625260525 0.008882951856193262 0.04142568986120161 0.9886773622056355 -0.09716102176085865 0.0030070528521843713 0.018936127559971445 -0.0025655862732431763 -0.012083609832215014
 0.9886773622056355 -0.09716102176085865 0.008883795295666215 0.04142590043105053 -0.00256349798092703 -0.01208381548039165 0.002995750940730201 0.01893796277578984
 0.0030070528521843713 0.018936127559971445 -0.00256349798092703 -0.01208381548039165 0.008883730092342695 0.04142760111858664 0.988677490065821 -0.09715899465750895
 -0.0025655862732431763 -0.012083609832215014 0.002995750940730201 0.01893796277578984 0.988677490065821 -0.09715899465750895 0.00888322749050217 0.041427845556763765
0.15631513130469998 0.009299425703522058 0.04305845495262909 0.9880918449581961 -0.10108986284862301 0.003214332959677839 0.019692907675458296 -0.002737967542435169 -0.012558140921423605
