! Created with skrf 1.8.0 (http://scikit-rf.org).
# GHz S RI R 50.0 
!freq ReS11 ImS11 ReS12 ImS12 ReS13 ImS13
! ReS14 ImS14
! ReS21 ImS21 ReS22 ImS22 ReS23 ImS23
! ReS24 ImS24
! ReS31 ImS31 ReS32 ImS32 ReS33 ImS33
! ReS34 ImS34
! ReS41 ImS41 ReS42 ImS42 ReS43 ImS43
! ReS44 ImS44
!
0.0 0.001775324606624 0.0 0.9982246753934 0.0 6.896632797148e-05 0.0 -6.896632796017e-05 8.445939278536879e-21
 0.9982246753934 0.0 0.001775324606604 0.0 -6.896632796048e-05 8.445939278574844e-21 6.896632797134e-05 0.0
 6.896632797148e-05 0.0 -6.896632796048e-05 8.445939278574844e-21 0.001775324590103 0.0 0.9982246753769 0.0
 -6.896632796017e-05 8.445939278536879e-21 6.896632797134e-05 0.0 0.9982246753769 0.0 0.001775324590073 0.0
0.005 0.0019108838279377836 0.0014498015897137196 0.9980530295605755 -0.003718083135683235 9.742527037493766e-05 0.0007713071195636556 -9.442863430044981e-05 -0.00048200443988837027
 0.9980530295605755 -0.003718083135683235 0.0019109074119635675 0.001449787851972679 -9.443043190634523e-05 -0.0004820058664252391 9.727393229479836e-05 0.0007713648445452188
 9.742527037493766e-05 0.0007713071195636556 -9.443043190634523e-05 -0.0004820058664252391 0.0019108822861607902 0.0014497352595199018 0.9980530291765707 -0.0037181501905040317
 -9.442863430044981e-05 -0.00048200443988837027 9.727393229479836e-05 0.0007713648445452188 0.9980530291765707 -0.0037181501905040317 0.0019109081862239347 0.0014497200705599845
0.006252605252188 0.0019466642364316155 0.0018179316887632455 0.9980073988811755 -0.004648476967055927 0.00010569850242481645 0.000964486057082861 -0.00010172539636162265 -0.0006031171554148784
 0.9980073988811755 -0.004648476967055927 0.001946701102117791 0.0018179142232932876 -0.00010172819319042693 -0.0006031189147765766 0.00010546205383945227 0.0009645610555831507
 0.00010569850242481645 0.000964486057082861 -0.00010172819319042693 -0.0006031189147765766 0.001946661906660759 0.0018178487813320502 0.9980073983616624 -0.004648560785960319
 -0.00010172539636162265 -0.0006031171554148784 0.00010546205383945227 0.0009645610555831507 0.9980073983616624 -0.004648560785960319 0.0019467023937117208 0.0018178294891831447
0.01250521050438 0.0021363433966012017 0.0036736680490455226 0.9977637183943601 -0.00929749446043463 0.00015389553182142094 0.001929174071799797 -0.00014370448980344393 -0.001209012980755019
 0.9977637183943601 -0.00929749446043463 0.002136490596229318 0.003673630163101863 -0.00014371550696743232 -0.001209016235954428 0.00015295269512331287 0.0019293550290587584
 0.00015389553182142094 0.001929174071799797 -0.00014371550696743232 -0.001209016235954428 0.002136334662367199 0.003673502559075968 0.9977637168961644 -0.0092976618384693
 -0.00014370448980344393 -0.001209012980755019 0.00015295269512331287 0.0019293550290587584 0.9977637168961644 -0.0092976618384693 0.0021364963369401475 0.0036734608687996294
0.01875781575657 0.0023448241852275353 0.005555463945402168 0.9974932973173918 -0.013958311921612364 0.0002136748519393418 0.0028946805967534728 -0.00019504286702525357 -0.001816762724801151
 0.9974932973173918 -0.013958311921612364 0.002345154941027865 0.005555402480743505 -0.00019506742844043547 -0.0018167671562084996 0.00021155703536581303 0.0028950052119093416
 0.0002136748519393418 0.0028946805967534728 -0.00019506742844043547 -0.0018167671562084996 0.002344804974910794 0.005555216075857668 0.9974932943812939 -0.013958562748801768
 -0.00019504286702525357 -0.001816762724801151 0.00021155703536581303 0.0028950052119093416 0.9974932943812939 -0.013958562748801768 0.0023451682848418076 0.0055551486027122605
0.02501042100875 0.002572552042829801 0.007460620568360605 0.997195784562873 -0.01863312639222549 0.00028515572422336817 0.0038610051227364905 -0.00025587409266561017 -0.0024260499537412336
 0.997195784562873 -0.01863312639222549 0.0025731394293284494 0.007460532188065742 -0.0002559174557445671 -0.0024260551802597593 0.0002813942953032925 0.003861517633391504
 0.00028515572422336817 0.0038610051227364905 -0.0002559174557445671 -0.0024260551802597593 0.0025725182781551853 0.007460290512677886 0.9971957797247093 -0.018633460594945854
 -0.00025587409266561017 -0.0024260499537412336 0.0002813942953032925 0.003861517633391504 0.9971957797247093 -0.018633460594945854 0.002573163525692311 0.007460193620228873
0.03126302626094 0.002819953814201913 0.00938771771547005 0.9968708130266191 -0.023322840232395274 0.0003684573827276596 0.004828055813498604 -0.00032632713526099724 -0.0030366407526692465
 0.9968708130266191 -0.023322840232395274 0.0028208708025123127 0.009387598908819426 -0.00032639450197765235 -0.003036646331142654 0.00036258325538598583 0.004828807034547349
 0.0003684573827276596 0.004828055813498604 -0.00032639450197765235 -0.003036646331142654 0.0028199014227942992 0.009387305694620237 0.9968708058310843 -0.02332325773666055
 -0.00032632713526099724 -0.0030366407526692465 0.00036258325538598583 0.004828807034547349 0.9968708058310843 -0.02332325773666055 0.00282090881108889 0.009387175499350756
0.037515631513130004 0.00308744641516464 0.011335805683077396 0.9965180086399842 -0.028027869175849655 0.0004636977159293012 0.005795704139291471 -0.00040652729253574975 -0.003648329119710212
 0.9965180086399842 -0.028027869175849655 0.003088765904304521 0.011335652767974772 -0.00040662381500421993 -0.003648334544807649 0.0004552411788135275 0.005796751526707493
 0.0004636977159293012 0.005795704139291471 -0.00040662381500421993 -0.003648334544807649 0.003087371318505114 0.011335311934028544 0.9965179986292524 -0.02802836991945939
 -0.00040652729253574975 -0.003648329119710212 0.0004552411788135275 0.005796751526707493 0.9965179986292524 -0.02802836991945939 0.0030888209841482533 0.01133514430679848
0.043768236765320004 0.003375440150618255 0.013304159299832427 0.9961369940777632 -0.032748388231449974 0.0005709926307941428 0.006763801507152188 -0.0004965964996767263 -0.004260920372352961
 0.9961369940777632 -0.032748388231449974 0.0033772349939008546 0.013303968423864736 -0.0004967272835247298 -0.004260925076576252 0.0005594832794516034 0.006765209229292314
 0.0005709926307941428 0.006763801507152188 -0.0004967272835247298 -0.004260925076576252 0.0033753382697200773 0.013303584088760138 0.996136980797591 -0.03274897215145964
 -0.0004965964996767263 -0.004260920372352961 0.0005594832794516034 0.006765209229292314 0.996136980797591 -0.03274897215145964 0.0033773103087236136 0.013303374654942995
0.050020842017509996 0.0036843402397390133 0.015292176300696732 0.9957273906795779 -0.037484433244232646 0.0006904556574507755 0.007732186141599337 -0.0005966534187598631 -0.004874224310513213
 0.9957273906795779 -0.037484433244232646 0.0036866832680713065 0.015291943441352502 -0.0005968235251968295 -0.004874227664245436 0.0006754223812675071 0.007734025153430961
 0.0006904556574507755 0.007732186141599337 -0.0005968235251968295 -0.004874227664245436 0.003684207491674974 0.015291519923068618 0.9957273736758375 -0.037485100277592706
 -0.0005966534187598631 -0.004874224310513213 0.0006754223812675071 0.007734025153430961 0.9957273736758375 -0.037485100277592706 0.0036867819826871227 0.015291264061645644
0.055454545454549996 0.003970073745429527 0.017035380079010353 0.9953479210477089 -0.04161276897527684 0.0008042408159021643 0.008573841986840787 -0.0006918068503200022 -0.0054076359816772595
 0.9953479210477089 -0.04161276897527684 0.003972952309982946 0.0170351073354884 -0.0006920152061026058 -0.005407637602274805 0.0007857620098515171 0.008576118753989052
 0.0008042408159021643 0.008573841986840787 -0.0006920152061026058 -0.005407637602274805 0.00396991085540339 0.01703465342856464 0.9953479004408785 -0.0416135081852511
 -0.0006918068503200022 -0.0054076359816772595 0.0007857620098515171 0.008576118753989052 0.9953479004408785 -0.0416135081852511 0.003973073932357716 0.017034353274682154
0.056273447269699996 0.004014547570356636 0.01729932745596853 0.9952888196057172 -0.04223595070586015 0.0008221976599661902 0.008700686474483929 -0.000706813429809314 -0.0054880518782493256
 0.9952888196057172 -0.04223595070586015 0.0040175116142364365 0.017299048419995685 -0.0007070278769517717 -0.005488053189827039 0.000803168663171379 0.008703034592768756
 0.0008221976599661902 0.008700686474483929 -0.0007070278769517717 -0.005488053189827039 0.004014379869924719 0.017298590235636412 0.9952887984262923 -0.0422367007910361
 -0.000706813429809314 -0.0054880518782493256 0.000803168663171379 0.008703034592768756 0.9952887984262923 -0.0422367007910361 0.004017636896364292 0.017298283077498474
0.06252605252188 0.004366459080817933 0.019325129148345256 0.9948209026268919 -0.04700282512401309 0.0009663266012858722 0.00966912301993175 -0.0008271885713735916 -0.006102213348685789
 0.9948209026268919 -0.04700282512401309 0.004370116991857555 0.0193247995703904 -0.0008274523352367228 -0.006102211864482306 0.0009428294459589127 0.009672064998513369
 0.0009663266012858722 0.00966912301993175 -0.0008274523352367228 -0.006102211864482306 0.004366252340547302 0.01932431144434419 0.9948208768213067 -0.04700365819497463
 -0.0008271885713735916 -0.006102213348685789 0.0009428294459589127 0.009672064998513369 0.9948208768213067 -0.04700365819497463 0.004370272010791085 0.01932394786980835
0.06877865777407 0.004740467933462131 0.021369127051917573 0.9943232627104582 -0.05178489529846815 0.0011229473364242815 0.010637309511219785 -0.0009578874538641117 -0.006716517255853446
 0.9943232627104582 -0.05178489529846815 0.004744892604945628 0.02136874239234202 -0.0009582054689127919 -0.006716512160361351 0.0010945090017240124 0.010640937115811662
 0.0011229473364242815 0.010637309511219785 -0.0009582054689127919 -0.006716512160361351 0.004740218062484317 0.021368229251653614 0.9943232318288562 -0.05178581129219308
 -0.0009578874538641117 -0.006716517255853446 0.0010945090017240124 0.010640937115811662 0.9943232318288562 -0.05178581129219308 0.00474508053023412 0.021367803887190086
0.07503126302626001 0.005136963565852913 0.023430885762879813 0.993795524490189 -0.05658196465476544 0.0012921614247331766 0.01160505363320535 -0.001099015154113158 -0.007330769740142716
 0.993795524490189 -0.05658196465476544 0.0051422279536718915 0.02343044130486271 -0.00109939231369726 -0.007330760156062307 0.0012583083781396928 0.01160946571536031
 0.0012921614247331766 0.01160505363320535 -0.00109939231369726 -0.007330760156062307 0.0051366664715204605 0.02342990829073231 0.9937954880847107 -0.05658296350340294
 -0.001099015154113158 -0.007330769740142716 0.0012583083781396928 0.01160946571536031 0.9937954880847107 -0.05658296350340294 0.005142451955421855 0.023429415505034846
0.08128386827845 0.005556331663498688 0.025509981941633352 0.9932373146621757 -0.06139380807667829 0.001474066952567387 0.012572157531006566 -0.001250673099447165 -0.00794477412702562
 0.9932373146621757 -0.06139380807667829 0.00556250880651484 0.025509472787439744 -0.0012511142559533525 -0.007944759115371977 0.0014343252307463857 0.01257746010096285
 0.001474066952567387 0.012572157531006566 -0.0012511142559533525 -0.007944759115371977 0.00555598325120194 0.025508925257730092 0.9932372722865275 -0.06139488970950125
 -0.001250673099447165 -0.00794477412702562 0.0014343252307463857 0.01257746010096285 0.9932372722865275 -0.06139488970950125 0.005562772054747302 0.025508359156771705
0.08753647353064001 0.005998954083249035 0.027605999560283333 0.9926482623365218 -0.06622017664401722 0.0016687583638400427 0.013538418174444554 -0.0014129589436625463 -0.008558330659805376
 0.9926482623365218 -0.06622017664401722 0.0060061171238820045 0.02760542062667401 -0.001413468908634551 -0.00855830921999691 0.0016226536612209527 0.013544724472694192
 0.0016687583638400427 0.013538418174444554 -0.001413468908634551 -0.00855830921999691 0.005998550256427344 0.02760486415789791 0.9926482135456066 -0.06622134099077806
 -0.0014129589436625463 -0.008558330659805376 0.0016226536612209527 0.013544724472694192 0.9926482135456066 -0.06622134099077806 0.006006422787298842 0.02760421857940773
0.09378907878283 0.006465208738786804 0.029718526518307847 0.9920279993549402 -0.07106080101340931 0.001876326295477874 0.01450362764156402 -0.001585966437907609 -0.009171236323221463
 0.9920279993549402 -0.07106080101340931 0.006473430943626799 0.02971787253119821 -0.0015865499819965405 -0.009171207393203769 0.001823384059591705 0.014511058208951525
 0.001876326295477874 0.01450362764156402 -0.0015865499819965405 -0.009171207393203769 0.006464745399599385 0.029717312929342914 0.992027943705687 -0.07106204799968134
 -0.001585966437907609 -0.009171236323221463 0.001823384059591705 0.014511058208951525 0.992027943705687 -0.07106204799968134 0.006473782189465675 0.029716581436273915
0.100041684035 0.006955469462351139 0.031847152184021454 0.9913761605895027 -0.07591539388500422 0.00209685741670245 0.015467573342044927 -0.0017697852977936553 -0.00978328473748286
 0.9913761605895027 -0.07591539388500422 0.0069648242427877895 0.03184641767221397 -0.0017704471507203913 -0.00978324719382916 0.002036602949266843 0.015476256088196777
 0.00209685741670245 0.015467573342044927 -0.0017704471507203913 -0.00978324719382916 0.006954942511869469 0.031845860975927905 0.9913760976400671 -0.07591672343592841
 -0.0017697852977936553 -0.00978328473748286 0.002036602949266843 0.015476256088196777 0.9913760976400671 -0.07591672343592841 0.006965224235578751 0.03184503684922613
0.1059090909091 0.007437689694954798 0.03385891708123955 0.9907354388689161 -0.08048334855446539 0.002315665946382279 0.016370791455742655 -0.0019521888780474111 -0.010356660751416953
 0.9907354388689161 -0.08048334855446539 0.00744817419116418 0.033858101847739984 -0.0019529284804416435 -0.010356614048483127 0.002248117955553667 0.0163807721939316
 0.002315665946382279 0.016370791455742655 -0.0019529284804416435 -0.010356614048483127 0.007437099323542467 0.033857553588630865 0.990735368668853 -0.08048475551073055
 -0.0019521888780474111 -0.010356660751416953 0.002248117955553667 0.0163807721939316 0.990735368668853 -0.08048475551073055 0.007448622803359007 0.03385663616576406
0.1062942892872 0.007470105845550637 0.0339914655413768 0.9906923842231639 -0.08078365187564686 0.0023304342714571945 0.016430038206664794 -0.001964501067843228 -0.010394266096567814
 0.9906923842231639 -0.08078365187564686 0.007480666778111843 0.03399064482947013 -0.0019652459181203783 -0.01039421875461568 0.0022623928344031362 0.016440108476696254
 0.0023304342714571945 0.016430038206664794 -0.0019652459181203783 -0.01039421875461568 0.007469511184313356 0.033990097323338325 0.9906923135336859 -0.08078506391054541
 -0.001964501067843228 -0.010394266096567814 0.0022623928344031362 0.016440108476696254 0.9906923135336859 -0.08078506391054541 0.007481118679640709 0.03398917355371364
0.11254689453939999 0.008009483068035166 0.03615105380139031 0.9899763120224512 -0.08566525693987782 0.0025771351228110265 0.01739080085156156 -0.0021701949842920236 -0.011003967142292025
 0.9899763120224512 -0.08566525693987782 0.00802132391566193 0.036150141001660606 -0.0021710274791403596 -0.011003908756274125 0.0025008320489652994 0.017402401490945674
 0.0025771351228110265 0.01739080085156156 -0.0021710274791403596 -0.011003908756274125 0.008008816596361304 0.036149609217002686 0.9899762331545916 -0.08566675138026907
 -0.0021701949842920236 -0.011003967142292025 0.0025008320489652994 0.017402401490945674 0.9899762331545916 -0.08566675138026907 0.00802183088344279 0.03614857849591692
0.11879949979160001 0.008573961713745738 0.038325501316801035 0.9892275896002617 -0.09055987750015726 0.0028370337996993043 0.018349635726431508 -0.0023869438365943093 -0.011612171165240135
 0.9892275896002617 -0.09055987750015726 0.008587156446227706 0.038324490320265754 -0.002387868581584607 -0.011612100428399465 0.0027519946077655664 0.01836291714374732
 0.0028370337996993043 0.018349635726431508 -0.002387868581584607 -0.011612100428399465 0.008573219332333801 0.03832398105222996 0.989227502117746 -0.09056145426239658
 -0.0023869438365943093 -0.011612171165240135 0.0027519946077655664 0.01836291714374732 0.989227502117746 -0.09056145426239658 0.008587721633470775 0.03832283576186184
0.1250521050438 0.009163897578829289 0.040514388750119736 0.9884458666729006 -0.09546716933663639 0.0031101995454774515 0.019306313253387827 -0.002614819828467485 -0.012218658025719396
 0.9884458666729006 -0.09546716933663639 0.009178520393500724 0.04051327321665651 -0.0026158413872667107 -0.012218573570468889 0.00301595005866445 0.019321433481116233
 0.0031101995454774515 0.019306313253387827 -0.0026158413872667107 -0.012218573570468889 0.00916307518908603 0.04051279353060518 0.9884457701411279 -0.09546882833619431
 -0.002614819828467485 -0.012218658025719396 0.00301595005866445 0.019321433481116233 0.9884457701411279 -0.09546882833619431 0.00917914694781954 0.04051152573294442
0.131304710296 0.009779641472686536 0.04271729241044828 0.987630797312452 -0.10038677632131181 0.003396696868198087 0.0202605999585938 -0.002853890438752443 -0.012823204193030199
 0.987630797312452 -0.10038677632131181 0.00979576681579683 0.04271606575777089 -0.002855013332707181 -0.012823104591132865 0.003292763336608974 0.020277724711618615
 0.003396696868198087 0.0202605999585938 -0.002855013332707181 -0.012823104591132865 0.009778734977603664 0.04271562300434602 0.9876306912989788 -0.10038851746936793
 -0.002853890438752443 -0.012823204193030199 0.003292763336608974 0.020277724711618615 0.9876306912989788 -0.10038851746936793 0.009796457878630965 0.04271422442932804
0.1375573155481 0.010288213835716493 0.0446469171517401 0.9869154304737398 -0.10503129900108764 0.003663252266258564 0.02118461325825403 -0.003071006139910372 -0.01339786812885609
 0.9869154304737398 -0.10503129900108764 0.010305922938056012 0.04464560011807208 -0.0030722372491707355 -0.013397753117807543 0.003549395745166098 0.021203731806093386
 0.003663252266258564 0.02118461325825403 -0.0030722372491707355 -0.013397753117807543 0.010287219996054699 0.04464517398303787 0.9869153145572382 -0.10503312218106539
 -0.003071006139910372 -0.01339786812885609 0.003549395745166098 0.021203731806093386 0.9869153145572382 -0.10503312218106539 0.010306680763156712 0.044643664282181965
0.1438099208003 0.010814894806414045 0.04656485426069973 0.9861744396877058 -0.10966249985565556 0.00394053350036825 0.022103853683323415 -0.0032967388943287296 -0.013968222814357924
 0.9861744396877058 -0.10966249985565556 0.010834263476796769 0.046563441763740845 -0.0032980831036605123 -0.013968090969523188 0.0038163231621980796 0.02212511898471507
 0.00394053350036825 0.022103853683323415 -0.0032980831036605123 -0.013968090969523188 0.010813809678803118 0.04656303806884487 0.9861743134419371 -0.109664404967358
 -0.0032967388943287296 -0.013968222814357924 0.0038163231621980796 0.02212511898471507 0.9861743134419371 -0.109664404967358 0.010835091035541271 0.04656141049029222
0.1500625260525 0.011359474461979146 0.04847089847396485 0.9854080398650273 -0.11428021756389808 0.0042284290652942 0.023018193809216433 -0.003530981639613731 -0.014534151625301063
 0.9854080398650273 -0.11428021756389808 0.011380578779658954 0.04846938508170963 -0.0035324438214366523 -0.014534001464204213 0.004093437182174125 0.023041764411332426
 0.0042284290652942 0.023018193809216433 -0.0035324438214366523 -0.014534001464204213 0.011358294113346422 0.04846901002492992 0.985407902866263 -0.11428220450515784
 -0.003530981639613731 -0.014534151625301063 0.004093437182174125 0.023041764411332426 0.985407902866263 -0.11428220450515784 0.011381479026594967 0.04846725740170233
0.15631513130469998 0.011921741095320699 0.050364850674688294 0.9846164473341338 -0.11888429243361788 0.004526825952551896 0.023927508727664255 -0.0037736258362506044 -0.015095540716640817
 0.9846164473341338 -0.11888429243361788 0.011944657416934632 0.05036323059282669 -0.003775210850358319 -0.015095370699200096 0.004380627950715215 0.023953548699338037
