! Created with skrf 1.8.0 (http://scikit-rf.org).
# GHz S RI R 50.0 
!freq ReS11 ImS11 ReS12 ImS12 ReS13 ImS13
! ReS14 ImS14
! ReS21 ImS21 ReS22 ImS22 ReS23 ImS23
! ReS24 ImS24
! ReS31 ImS31 ReS32 ImS32 ReS33 ImS33
! ReS34 ImS34
! ReS41 ImS41 ReS42 ImS42 ReS43 ImS43
! ReS44 ImS44
!
0.0 0.001169498227559 0.0 0.9988305017724 0.0 4.450577896878e-05 0.0 -4.450577887993e-05 5.450385964886615e-21
 0.9988305017724 0.0 0.001169498227546 0.0 -4.450577887951e-05 5.45038596483518e-21 4.450577896832e-05 0.0
 4.450577896878e-05 0.0 -4.450577887951e-05 5.45038596483518e-21 0.001169498203743 0.0 0.9988305017486 0.0
 -4.450577887993e-05 5.450385964886615e-21 4.450577896832e-05 0.0 0.9988305017486 0.0 0.001169498203751 0.0
0.005 0.0012574544920946403 0.0009568337360504907 0.998719363737802 -0.002450868482198728 6.188500154231046e-05 0.000493502673142703 -6.0225943073979004e-05 -0.00030935564960053746
 0.998719363737802 -0.002450868482198728 0.0012574413273481497 0.0009568413939261344 -6.022365243351134e-05 -0.00030935387569099476 6.198035819918746e-05 0.0004934665718961899
 6.188500154231046e-05 0.000493502673142703 -6.022365243351134e-05 -0.00030935387569099476 0.0012574554109441361 0.0009567659291046008 0.9987193634120393 -0.002450935539800055
 -6.0225943073979004e-05 -0.00030935564960053746 6.198035819918746e-05 0.0004934665718961899 0.9987193634120393 -0.002450935539800055 0.0012574397610937468 0.0009567750890124598
0.006252605252188 0.0012802809310999465 0.001199842815064108 0.9986903817193121 -0.0030642230281082744 6.669647118853647e-05 0.000617132463141437 -6.455251643758554e-05 -0.0003871093322642242
 0.9986903817193121 -0.0030642230281082744 0.0012802603522665949 0.001199852522345929 -6.454895205615167e-05 -0.00038710714366531964 6.684546175650092e-05 0.0006170856142107182
 6.669647118853647e-05 0.000617132463141437 -6.454895205615167e-05 -0.00038710714366531964 0.0012802824425065516 0.0011997580566215115 0.9986903812849259 -0.0030643068487207128
 -6.455251643758554e-05 -0.0003871093322642242 6.684546175650092e-05 0.0006170856142107182 0.9986903812849259 -0.0030643068487207128 0.0012802579783211976 0.001199769647064015
0.01250521050438 0.0013990358621074942 0.0024251995023140452 0.9985388111848694 -0.006129455665792238 9.347840920025277e-05 0.001234700191317746 -8.850057780379421e-05 -0.0007762512949995736
 0.9985388111848694 -0.006129455665792238 0.0013989536939800179 0.0024252202568899556 -8.848653076995051e-05 -0.0007762472274057017 9.40726635891035e-05 0.0012345882245521577
 9.347840920025277e-05 0.001234700191317746 -8.848653076995051e-05 -0.0007762472274057017 0.0013990424586772818 0.002425030219578887 0.9985388100057886 -0.006129623064413954
 -8.850057780379421e-05 -0.0007762512949995736 9.40726635891035e-05 0.0012345882245521577 0.9985388100057886 -0.006129623064413954 0.0013989447675686244 0.002425054812770846
0.01875781575657 0.0015259706461769487 0.0036684138389572844 0.9983756388111599 -0.009203208905149378 0.0001249061605290328 0.0018531522461376591 -0.00011641238847132821 -0.0011668913772412384
 0.9983756388111599 -0.009203208905149378 0.001525786020419857 0.0036684470374905914 -0.00011638106170074406 -0.0011668857858131388 0.00012624136266152632 0.0018529540272773076
 0.0001249061605290328 0.0018531522461376591 -0.00011638106170074406 -0.0011668857858131388 0.001525985900269563 0.0036681600965592477 0.9983756365807409 -0.009203459810454099
 -0.00011641238847132821 -0.0011668913772412384 0.00012624136266152632 0.0018529540272773076 0.9983756365807409 -0.009203459810454099 0.0015257663766314405 0.0036681992136525614
0.02501042100875 0.001661289383691102 0.004927795552398077 0.9982007088152695 -0.012287023066460628 0.0001610345442316349 0.0024725484471064293 -0.0001483490983940882 -0.001558881655135656
 0.9982007088152695 -0.012287023066460628 0.001660961522085501 0.004927842632192695 -0.0001482937743090916 -0.0015588749476441745 0.00016340668324096703 0.002472240104221264
 0.0001610345442316349 0.0024725484471064293 -0.0001482937743090916 -0.0015588749476441745 0.0016613168679722988 0.004927457397022526 0.9982007052264298 -0.01228735742882954
 -0.0001483490983940882 -0.001558881655135656 0.00016340668324096703 0.002472240104221264 0.9982007052264298 -0.01228735742882954 0.0016609270009190593 0.0049275126483108635
0.03126302626094 0.001805187335795453 0.006202500229580775 0.998013855794063 -0.015381587855045498 0.00020191890111256248 0.003092892283215911 -0.00018437054687751053 -0.0019521279503116112
 0.998013855794063 -0.015381587855045498 0.0018046755290335517 0.0062025626646537825 -0.0001842845732898276 -0.0019521205880945526 0.0002056245594473831 0.0030924471918767006
 0.00020191890111256248 0.003092892283215911 -0.0001842845732898276 -0.0019521205880945526 0.0018052306231939974 0.006202077674439172 0.9980138505370875 -0.015382005662308533
 -0.00018437054687751053 -0.0019521279503116112 0.0002056245594473831 0.0030924471918767006 0.9980138505370875 -0.015382005662308533 0.0018046219719045182 0.006202150755362231
0.037515631513130004 0.0019578557014375718 0.007491996554158214 0.997814909583988 -0.01848727508136331 0.0002476146573623039 0.003714165503697438 -0.0002245357166166334 -0.0023465552359868795
 0.997814909583988 -0.01848727508136331 0.0019571192953816534 0.007492075852730876 -0.0002244124994077266 -0.002346547734280616 0.00025295114948023517 0.0037135542579147425
 0.0002476146573623039 0.003714165503697438 -0.0002244124994077266 -0.002346547734280616 0.0019579183691091646 0.007491489599140279 0.9978149023488396 -0.018487776338639416
 -0.0002245357166166334 -0.0023465552359868795 0.00025295114948023517 0.0037135542579147425 0.9978149023488396 -0.018487776338639416 0.001957042547356622 0.007491582288173298
0.043768236765320004 0.002119483472035986 0.00879590419829872 0.9976036971949349 -0.02160430072198893 0.000298177127899782 0.004336338624053721 -0.00026890290639147626 -0.0027420971213702955
 0.9976036971949349 -0.02160430072198893 0.0021184818571793875 0.008796001900837848 -0.00026873590506408665 -0.00274209004945306 0.000305442575379384 0.004335529002762171
 0.000298177127899782 0.004336338624053721 -0.00026873590506408665 -0.00274209004945306 0.0021195691013815507 0.008795312835578668 0.9976036876707013 -0.021604885446013897
 -0.00026890290639147626 -0.0027420971213702955 0.000305442575379384 0.004335529002762171 0.9976036876707013 -0.021604885446013897 0.0021183777662152473 0.008795426992837828
0.050020842017509996 0.0022902583023587707 0.010113926841931888 0.9973800437620115 -0.024732791851596846 0.0003536614014111357 0.004959375270628679 -0.0003175298068019336 -0.003138691496151702
 0.9973800437620115 -0.024732791851596846 0.0022889509051010194 0.01011404451945294 -0.00031731253159183727 -0.0031386854774264677 0.0003631547746039463 0.0049583322022956535
 0.0003536614014111357 0.004959375270628679 -0.00031731253159183727 -0.0031386854774264677 0.002290370478083085 0.010113251052676634 0.9973800316349379 -0.024733460073835197
 -0.0003175298068019336 -0.003138691496151702 0.0003631547746039463 0.0049583322022956535 0.9973800316349379 -0.024733460073835197 0.0022888153202638675 0.010113388618881778
0.055454545454549996 0.0024462404140570913 0.011270600192499293 0.9971754416849965 -0.027460913029744065 0.00040591858007735416 0.00550148242801659 -0.0003632918334927588 -0.0034841521756026825
 0.9971754416849965 -0.027460913029744065 0.0024446343535801927 0.011270736527370174 -0.00036302563609634406 -0.003484147620486021 0.0004175915642918014 0.005500205763610692
 0.00040591858007735416 0.00550148242801659 -0.00036302563609634406 -0.003484147620486021 0.002446378574531988 0.011269851012036158 0.9971754270396902 -0.027461653849539573
 -0.0003632918334927588 -0.0034841521756026825 0.0004175915642918014 0.005500205763610692 0.9971754270396902 -0.027461653849539573 0.0024444680308597453 0.011270010559412678
0.056273447269699996 0.002470366970015757 0.011445819262530103 0.9971437730864546 -0.027872819503852862 0.00041412226363914757 0.005583234301975124 -0.0003704735305432237 -0.0035362783982080957
 0.9971437730864546 -0.027872819503852862 0.0024687132444394 0.011445958515135283 -0.00037019954033746144 -0.0035362741102500468 0.00042614340320908025 0.005581919828257696
 0.00041412226363914757 0.005583234301975124 -0.00037019954033746144 -0.0035362741102500468 0.0024705092819500827 0.011445059019863613 0.9971437580409103 -0.027873571267451526
 -0.0003704735305432237 -0.0035362783982080957 0.00042614340320908025 0.005581919828257696 0.9971437580409103 -0.027873571267451526 0.0024685420177983654 0.011445222015524281
0.06252605252188 0.0026599956369494243 0.01279136927938681 0.9968947079797963 -0.031024416678112298 0.00047961413801052993 0.006207870977175026 -0.00042779062104193657 -0.003934798834902773
 0.9968947079797963 -0.031024416678112298 0.0026579550575088285 0.012791531734983302 -0.000427453521971145 -0.003934797009484328 0.0004944637632848096 0.006206244216087712
 0.00047961413801052993 0.006207870977175026 -0.000427453521971145 -0.003934797009484328 0.002660171680529505 0.012790524545239441 0.9968946896983106 -0.03102525204079882
 -0.00042779062104193657 -0.003934798834902773 0.0004944637632848096 0.006206244216087712 0.9968946896983106 -0.03102525204079882 0.0026577440440038987 0.012790715070103775
0.06877865777407 0.002859330001080882 0.014150386958314104 0.9966326705002142 -0.03418758908621901 0.0005501910367703854 0.006833237645518541 -0.0004895370477462491 -0.004334194083840143
 0.9966326705002142 -0.03418758908621901 0.0028568620553927828 0.014150574271448852 -0.0004891304920866301 -0.0043341955069518155 0.0005681707451021761 0.006831254754311022
 0.0005501910367703854 0.006833237645518541 -0.0004891304920866301 -0.0043341955069518155 0.002859543376478347 0.014149457691421537 0.9966326486620484 -0.03418850811212641
 -0.0004895370477462491 -0.004334194083840143 0.0005681707451021761 0.006831254754311022 0.9966326486620484 -0.03418850811212641 0.0028566071122580047 0.014149677924081309
0.07503126302626001 0.00306855538486745 0.015522697791094187 0.9963574821269496 -0.037362321925282334 0.0006259065177812554 0.007459284184297566 -0.0005557681938225814 -0.00473440524647566
 0.9963574821269496 -0.037362321925282334 0.003065619566663902 0.01552291164202738 -0.0005552858792058663 -0.004734410758336562 0.0006473187770338871 0.0074568983222192435
 0.0006259065177812554 0.007459284184297566 -0.0005552858792058663 -0.004734410758336562 0.0030688096982273002 0.01552168393660588 0.9963574564085097 -0.03736332469523005
 -0.0005557681938225814 -0.00473440524647566 0.0006473187770338871 0.0074568983222192435 0.9963574564085097 -0.03736332469523005 0.003065316554638588 0.015521936134194966
0.08128386827845 0.0032878567860635368 0.016908138135380373 0.996068963898619 -0.0405485843911966 0.0007068136447770191 0.00808595828784594 -0.0006265388386467641 -0.005135372951560553
 0.996068963898619 -0.0405485843911966 0.003284412588262417 0.01690838022921953 -0.0006259745074785004 -0.005135383446625152 0.0007319617807240365 0.008083119578881318
 0.0007068136447770191 0.00808595828784594 -0.0006259745074785004 -0.005135383446625152 0.0032881556495438303 0.016907039633524752 0.9960689339732905 -0.04054967099365861
 -0.0006265388386467641 -0.005135372951560553 0.0007319617807240365 0.008083119578881318 0.9960689339732905 -0.04054967099365861 0.0032840573717935416 0.01690732613169705
0.08753647353064001 0.00351741890047433 0.018306552071776474 0.9957669365254866 -0.04374633277575744 0.0007929649497993038 0.008713205666815898 -0.0007019031367798892 -0.005537037149519526
 0.9957669365254866 -0.04374633277575744 0.0035134258085804983 0.018306824137845488 -0.0007012505758381763 -0.00553705357647201 0.0008221531294469635 0.008709861162457444
 0.0007929649497993038 0.008713205666815898 -0.0007012505758381763 -0.00553705357647201 0.0035177659320543265 0.018305368854369525 0.9957669020626708 -0.043747503310227885
 -0.0007019031367798892 -0.005537037149519526 0.0008221531294469635 0.008709861162457444 0.9957669020626708 -0.043747503310227885 0.0035130142556119947 0.0183056920673164
0.09378907878283 0.003757426127350394 0.019717789158265244 0.9954512204852863 -0.04695551266790354 0.0008844123972510453 0.009340970189219396 -0.0007819145942261265 -0.005939336966288659
 0.9954512204852863 -0.04695551266790354 0.0037528436123455524 0.019718092949539648 -0.0007811676343260997 -0.0059393603280394145 0.0009179456086946072 0.009337063831340458
 0.0008844123972510453 0.009340970189219396 -0.0007811676343260997 -0.0059393603280394145 0.0037578249519138176 0.01971652114701698 0.9954511811509742 -0.046956767246299734
 -0.0007819145942261265 -0.005939336966288659 0.0009179456086946072 0.009337063831340458 0.9954511811509742 -0.046956767246299734 0.003752371595880029 0.019716883567766214
0.100041684035 0.0040080625636390015 0.021141702768990318 0.9951216361101496 -0.0501760605717567 0.0009812073484179295 0.009969193985043031 -0.0008666260430046275 -0.006342210594864677
 0.9951216361101496 -0.0501760605717567 0.004002850075161629 0.02114204006180296 -0.000865778558812479 -0.006342241948537792 0.0010193913779585702 0.009964666568917821
 0.0009812073484179295 0.009969193985043031 -0.000865778558812479 -0.006342241948537792 0.004008516811939958 0.02114034987862465 0.995121591565511 -0.050177399315082395
 -0.0008666260430046275 -0.006342210594864677 0.0010193913779585702 0.009964666568917821 0.995121591565511 -0.050177399315082395 0.004002313472349428 0.021140754079378175
0.1059090909091 0.004253089136040693 0.022489295484722956 0.9947995829261436 -0.0532084787873176 0.0010769478317943226 0.010559080081484188 -0.0009504397900682846 -0.006720730697055669
 0.9947995829261436 -0.0532084787873176 0.004247248579333358 0.02248966585133838 -0.0009494924425303071 -0.006720770560020748 0.0011197749588826738 0.01055391318671236
 0.0010769478317943226 0.010559080081484188 -0.0009494924425303071 -0.006720770560020748 0.004253598702276568 0.022487862858195224 0.9947995331806078 -0.05320989663068056
 -0.0009504397900682846 -0.006720730697055669 0.0011197749588826738 0.01055391318671236 0.9947995331806078 -0.05320989663068056 0.004246647624599805 0.02248830867551078
0.1062942892872 0.004269511986123781 0.022578148859924894 0.9947780036629748 -0.05340790509925702 0.0010834005269718609 0.010597817521850924 -0.0009560896138122043 -0.006745595217224945
 0.9947780036629748 -0.05340790509925702 0.004263628945869563 0.022578521453739616 -0.000955135523732503 -0.006745635674140479 0.0011265419338246751 0.010592606659332997
 0.0010834005269718609 0.010597817521850924 -0.000955135523732503 -0.006745635674140479 0.004270025296191789 0.022576710995378252 0.9947779535651919 -0.05340932814005802
 -0.0009560896138122043 -0.006745595217224945 0.0011265419338246751 0.010592606659332997 0.9947779535651919 -0.05340932814005802 0.004263023639656747 0.022577159628127393
0.11254689453939999 0.004541957829763195 0.024026985010624356 0.9944201434108713 -0.05665096788806077 0.0011910419845330385 0.011226779666848511 -0.0010503567078114374 -0.007149426941162221
 0.9944201434108713 -0.05665096788806077 0.004535363624153956 0.024027394728037582 -0.0010492899739096028 -0.007149477666811309 0.0012394480732713638 0.011220819749777105
 0.0011910419845330385 0.011226779666848511 -0.0010492899739096028 -0.007149477666811309 0.004542533846255487 0.02402546206742953 0.9944200874121024 -0.05665247536984522
 -0.0010503567078114374 -0.007149426941162221 0.0012394480732713638 0.011220819749777105 0.9944200874121024 -0.05665247536984522 0.004534685503094413 0.024025957864668875
0.11879949979160001 0.004825583157685906 0.02548806967872167 0.9940478756930438 -0.05990516430823768 0.001304181066467006 0.011856017731989429 -0.0011494779671722493 -0.007553640755472244
 0.9940478756930438 -0.05990516430823768 0.004818237131063069 0.025488518365634007 -0.0011482925951959144 -0.007553702969490141 0.0013581598576438748 0.01184923989586757
 0.001304181066467006 0.011856017731989429 -0.0011482925951959144 -0.007553702969490141 0.0048262255324285006 0.025486461544278173 0.9940478134401571 -0.05990675638386425
 -0.0011494779671722493 -0.007553640755472244 0.0013581598576438748 0.01184923989586757 0.9940478134401571 -0.05990675638386425 0.004817482090078211 0.02548700731989518
0.1250521050438 0.005120570628431196 0.026961261612778037 0.9936610209861827 -0.06317040401229922 0.001422866377757948 0.012485467513134056 -0.0012535032448551145 -0.007958170492670304
 0.9936610209861827 -0.06317040401229922 0.005112432075934365 0.026961751138724777 -0.0012521932842582079 -0.007958245468800128 0.001482726576785748 0.012477799601022329
 0.001422866377757948 0.012485467513134056 -0.0012521932842582079 -0.007958245468800128 0.0051212830206679785 0.02695956816299019 0.9936609521208218 -0.06317208084701399
 -0.0012535032448551145 -0.007958170492670304 0.001482726576785748 0.012477799601022329 0.9936609521208218 -0.06317208084701399 0.005111596017078773 0.026960166813428978
0.131304710296 0.005427102459409994 0.028446419374789228 0.99325939996866 -0.06644659137712917 0.0015471457488066141 0.013115063319659672 -0.001362481573648511 -0.0083629488026574
 0.99325939996866 -0.06644659137712917 0.005418130619814725 0.028446951633485977 -0.0013610411176903535 -0.008363037868709762 0.001613196713252325 0.01310642984640171
 0.0015471457488066141 0.013115063319659672 -0.0013610411176903535 -0.008363037868709762 0.005427888535598035 0.028444640477083925 0.9932593241263805 -0.06644835314525598
 -0.001362481573648511 -0.0083629488026574 0.001613196713252325 0.01310642984640171 0.9932593241263805 -0.06644835314525598 0.005417209452432273 0.02844529498255628
0.1375573155481 0.005667230724715454 0.029748909046557193 0.9929209835152677 -0.06953907624667596 0.0016588082189545746 0.013724378143565192 -0.001458124802193276 -0.008747606624469637
 0.9929209835152677 -0.06953907624667596 0.00565738094128479 0.029749473296220248 -0.0014565451622651651 -0.00874770959058274 0.0017311984052551022 0.013714804862250582
 0.0016588082189545746 0.013724378143565192 -0.0014565451622651651 -0.00874770959058274 0.005668093607772085 0.029747044482242035 0.9929209003814922 -0.06954092304517294
 -0.001458124802193276 -0.008747606624469637 0.0017311984052551022 0.013714804862250582 0.9929209003814922 -0.06954092304517294 0.005656371031817585 0.029747745230329373
0.1438099208003 0.005915514583088124 0.031045791121012536 0.9925711989248142 -0.07262499953076862 0.0017749598147858874 0.014332032938826393 -0.0015576042676809323 -0.0091307135290026
 0.9925711989248142 -0.07262499953076862 0.005904745391601756 0.031046388454777182 -0.0015558790984016248 -0.009130831670856515 0.0018539703425649973 0.014321452214985864
 0.0017749598147858874 0.014332032938826393 -0.0015558790984016248 -0.009130831670856515 0.005916457851633078 0.0310438407557145 0.9925711081369724 -0.07262693153012158
 -0.0015576042676809323 -0.0091307135290026 0.0018539703425649973 0.014321452214985864 0.9925711081369724 -0.07262693153012158 0.005903642742986498 0.031044589962509448
0.1500625260525 0.006171881882896501 0.03233699476928836 0.9922101210548883 -0.07570432293501919 0.0018955686707369903 0.014937992427877123 -0.0016608883482548142 -0.009512233978510136
 0.9922101210548883 -0.07570432293501919 0.0061601517348116586 0.03233762635954659 -0.0016590113124878752 -0.009512368622398563 0.001981479399007682 0.014926334203142082
 0.0018955686707369903 0.014937992427877123 -0.0016590113124878752 -0.009512368622398563 0.006172909116160022 0.032334958461613175 0.9922100222454774 -0.07570634031444852
 -0.0016608883482548142 -0.009512233978510136 0.001981479399007682 0.014926334203142082 0.9922100222454774 -0.07570634031444852 0.006158952362498747 0.03233575846740743
0.15631513130469998 0.006436260132492268 0.033622451536951044 0.9918378249537251 -0.0787770076074012 0.0020206026465287 0.015542221795743234 -0.001767945127311353 -0.00989213309467008
