! Created with skrf 1.8.0 (http://scikit-rf.org).
# GHz S RI R 50.0 
!freq ReS11 ImS11 ReS12 ImS12 ReS13 ImS13
! ReS14 ImS14
! ReS21 ImS21 ReS22 ImS22 ReS23 ImS23
! ReS24 ImS24
! ReS31 ImS31 ReS32 ImS32 ReS33 ImS33
! ReS34 ImS34
! ReS41 ImS41 ReS42 ImS42 ReS43 ImS43
! ReS44 ImS44
!
0.0 0.001500394982636 0.0 0.9984996050174 0.0 5.830277965467e-05 0.0 -5.830277989958e-05 7.14003127854133e-21
 0.9984996050174 0.0 0.001500394982634 0.0 -5.830277989911e-05 7.14003127848377e-21 5.830277965541e-05 0.0
 5.830277965467e-05 0.0 -5.830277989911e-05 7.14003127848377e-21 0.001500394979558 0.0 0.9984996050143 0.0
 -5.830277989958e-05 7.14003127854133e-21 5.830277965541e-05 0.0 0.9984996050143 0.0 0.001500394979589 0.0
0.005 0.0016142947760655014 0.0012182114955470085 0.9983554969471338 -0.003143571511807959 8.302850093105923e-05 0.0006987384210411185 -8.032120977959577e-05 -0.0004287680071248641
 0.9983554969471338 -0.003143571511807959 0.0016142936206474533 0.001218212204035879 -8.031837634880097e-05 -0.000428765944505038 8.30425333348221e-05 0.0006987330972259044
 8.302850093105923e-05 0.0006987384210411185 -8.031837634880097e-05 -0.000428765944505038 0.0016142953312474385 0.001218143972176921 0.9983554965963535 -0.003143638578883914
 -8.032120977959577e-05 -0.0004287680071248641 8.30425333348221e-05 0.0006987330972259044 0.9983554965963535 -0.003143638578883914 0.001614292374723421 0.001218145604912051
0.006252605252188 0.0016441354369970847 0.001527604484297074 0.9983175055271362 -0.003930242576870037 9.007415947196786e-05 0.0008737375925395081 -8.653139240747118e-05 -0.000536529286280032
 0.9983175055271362 -0.003930242576870037 0.0016441336306309712 0.0015276053985081085 -8.652698244429343e-05 -0.0005365267453083278 9.009608401327889e-05 0.0008737306788060014
 9.007415947196786e-05 0.0008737375925395081 -8.652698244429343e-05 -0.0005365267453083278 0.0016441363761633052 0.0015275200981301662 0.9983175050504063 -0.003930326406292233
 -8.653139240747118e-05 -0.000536529286280032 9.009608401327889e-05 0.0008737306788060014 0.9983175050504063 -0.003930326406292233 0.0016441317551707075 0.0015275221513542188
0.01250521050438 0.0018010380477587178 0.0030876019567037923 0.998116431524857 -0.007861373091107102 0.00013038223796311963 0.001747680019438317 -0.00012173262358872737 -0.0010757347959612534
 0.998116431524857 -0.007861373091107102 0.0018010308281467572 0.003087604064956903 -0.00012171523275829726 -0.0010757301234035853 0.00013046967409001645 0.0017476634037122357
 0.00013038223796311963 0.001747680019438317 -0.00012171523275829726 -0.0010757301234035853 0.0018010423261290579 0.0030874335893527846 0.9981164301539867 -0.007861540513638918
 -0.00012173262358872737 -0.0010757347959612534 0.00013046967409001645 0.0017476634037122357 0.9981164301539867 -0.007861540513638918 0.001801023886732204 0.003087437820501663
0.01875781575657 0.001971439604269655 0.00467010467435299 0.9978961373516916 -0.01180297553796242 0.00017931868228930576 0.0026224800073453105 -0.00016401488111550505 -0.001616766700792403
 0.9978961373516916 -0.01180297553796242 0.0019714233673953827 0.004670108249445715 -0.00016397608264797904 -0.001616760386737572 0.00017951511375749482 0.0026224503675750872
 0.00017931868228930576 0.0026224800073453105 -0.00016397608264797904 -0.001616760386737572 0.001971449632310996 0.00466985260318725 0.9978961346920734 -0.011803226522348692
 -0.00016401488111550505 -0.001616766700792403 0.00017951511375749482 0.0026224503675750872 0.9978961346920734 -0.011803226522348692 0.0019714082217883143 0.004669859157248528
0.02501042100875 0.002155667279341682 0.006272883103953668 0.9976563679055286 -0.015756965734013414 0.0002369765172026916 0.00349819300081232 -0.00021348286253582713 -0.002159366649565827
 0.9976563679055286 -0.015756965734013414 0.0021556384206379933 0.00627288841135878 -0.00021341432481668254 -0.0021593592730333394 0.00023732545650495562 0.0034981464992502476
 0.0002369765172026916 0.00349819300081232 -0.00021341432481668254 -0.0021593592730333394 0.0021556854482922124 0.006272547639779071 0.9976563635487359 -0.015757300295151513
 -0.00021348286253582713 -0.002159366649565827 0.00023732545650495562 0.0034981464992502476 0.9976563635487359 -0.015757300295151513 0.002155611945382023 0.006272556677874187
0.03126302626094 0.0023540346401480262 0.007894791745427164 0.9973968548793704 -0.019724165463028947 0.00030344935139477907 0.004374787204617045 -0.00027023820222032004 -0.0027033577556252525
 0.9973968548793704 -0.019724165463028947 0.002353989552631144 0.007894799042838081 -0.00027013167253918033 -0.002703349985676611 0.0003039943821418191 0.0043747194843498875
 0.00030344935139477907 0.004374787204617045 -0.00027013167253918033 -0.002703349985676611 0.0023540633352231344 0.007894373232828468 0.9973968484117802 -0.019724583662036634
 -0.00027023820222032004 -0.0027033577556252525 0.0003039943821418191 0.0043747194843498875 0.9973968484117802 -0.019724583662036634 0.0023539486439476706 0.007894384931490714
0.037515631513130004 0.0025668484564712853 0.009535085126777516 0.9971173237798705 -0.023704986422434005 0.00037883040954697313 0.005252196600879392 -0.0003343802928054853 -0.003248591583886978
 0.9971173237798705 -0.023704986422434005 0.002566783529470668 0.009535094663719552 -0.00033422758916100496 -0.0032485841800523898 0.0003796152067882182 0.005252102780093989
 0.00037883040954697313 0.005252196600879392 -0.00033422758916100496 -0.0032485841800523898 0.0025668900608301444 0.009534583946272551 0.997117314783637 -0.02370548836484047
 -0.0003343802928054853 -0.003248591583886978 0.0003796152067882182 0.005252102780093989 0.997117314783637 -0.02370548836484047 0.0025667251067999644 0.009534598497061187
0.043768236765320004 0.002794411334407067 0.011193209632254805 0.9968174967730946 -0.027699638328255734 0.0004632120891358022 0.006130337063033627 -0.0004060065764956717 -0.003794932038573766
 0.9968174967730946 -0.027699638328255734 0.0027943229516894175 0.011193221649764449 -0.000405799582747124 -0.00379492585107176 0.0004642804301371024 0.006130211728558997
 0.0004632120891358022 0.006130337063033627 -0.000405799582747124 -0.00379492585107176 0.0027944682295106362 0.011192626212857621 0.9968174848235891 -0.027700224151656336
 -0.0004060065764956717 -0.003794932038573766 0.0004642804301371024 0.006130211728558997 0.9968174848235891 -0.027700224151656336 0.002794243956690616 0.011192643822211593
0.050020842017509996 0.0030370229371059136 0.012868717505918063 0.996497094119793 -0.03170821484330618 0.0005566856925441207 0.007009113017681798 -0.0004852126575733272 -0.004342248704437241
 0.996497094119793 -0.03170821484330618 0.003036907475934759 0.012868732236042483 -0.0004849433205014764 -0.0043422446743125774 0.0005580814626954209 0.007008950218163447
 0.0005566856925441207 0.007009113017681798 -0.0004849433205014764 -0.0043422446743125774 0.003037097504857993 0.01286805232360896 0.996497078784467 -0.03170888471894395
 -0.0004852126575733272 -0.004342248704437241 0.0005580814626954209 0.007008950218163447 0.996497078784467 -0.03170888471894395 0.0030368048728944426 0.012868073212738895
0.055454545454549996 0.0032603121652289356 0.014338602567803308 0.9962017264989983 -0.03520311453720642 0.0006453707881879085 0.007773231636551762 -0.0005602737574228041 -0.004818576841952263
 0.9962017264989983 -0.03520311453720642 0.0032601702236860052 0.014338619836597618 -0.0005599437492925468 -0.004818575521521398 0.0006470868305745817 0.007773031022349667
 0.0006453707881879085 0.007773231636551762 -0.0005599437492925468 -0.004818575521521398 0.0032604040269107173 0.014337866755579387 0.996201707862888 -0.03520385762062644
 -0.0005602737574228041 -0.004818576841952263 0.0006470868305745817 0.007773031022349667 0.996201707862888 -0.03520385762062644 0.003260044657165771 0.014337890686044373
0.056273447269699996 0.0032949806139380643 0.014561224608253412 0.9961558350222621 -0.03573073575302375 0.0006593412388058808 0.007888420712226422 -0.0005720923329608143 -0.004890413584881501
 0.9961558350222621 -0.03573073575302375 0.003294834443473381 0.014561242273844567 -0.0005717526603055907 -0.004890412744113577 0.0006611084344001504 0.007888213951184359
 0.0006593412388058808 0.007888420712226422 -0.0005717526603055907 -0.004890412744113577 0.0032950752383660285 0.01456047818699755 0.996155815859573 -0.0357314898849541
 -0.0005720923329608143 -0.004890413584881501 0.0006611084344001504 0.007888213951184359 0.996155815859573 -0.0357314898849541 0.003294705220051351 0.014560502591867967
0.06252605252188 0.0035685797370337553 0.016270387214512523 0.9957934381820148 -0.039767170102696446 0.0007712673157947478 0.008768150012486296 -0.0006667375799562247 -0.005439299313648899
 0.9957934381820148 -0.039767170102696446 0.0035683992168759533 0.016270408028840097 -0.0006663196391431481 -0.005439302785230054 0.0007734500450003136 0.008767892241211052
 0.0007712673157947478 0.008768150012486296 -0.0006663196391431481 -0.005439302785230054 0.0035686968056307545 0.016269560125392213 0.9957934147403077 -0.0397680087285509
 -0.0006667375799562247 -0.005439299313648899 0.0007734500450003136 0.008767892241211052 0.9957934147403077 -0.0397680087285509 0.003568240384711106 0.016269588296834777
0.06877865777407 0.0038581138782560775 0.01799588817240847 0.9954096222019077 -0.043817449978307076 0.0008925509544681302 0.009648185474422498 -0.0007692385200339616 -0.005988778096216763
 0.9954096222019077 -0.043817449978307076 0.0038578953573292023 0.017995912338869564 -0.0007687344374523173 -0.005988787094213215 0.0008951934368043239 0.009647869084859298
 0.0008925509544681302 0.009648185474422498 -0.0007687344374523173 -0.005988787094213215 0.003858255784851203 0.01799498103649184 0.9954095940191371 -0.043818373366488306
 -0.0007692385200339616 -0.005988778096216763 0.0008951934368043239 0.009647869084859298 0.9954095940191371 -0.043818373366488306 0.0038577039535317792 0.017995013240284633
0.07503126302626001 0.004163874895028038 0.01973742813329283 0.995004105899845 -0.04788147921825601 0.001023277514576947 0.010528407036259388 -0.0008796833694133857 -0.00653872103502255
 0.995004105899845 -0.04788147921825601 0.004163614709764497 0.019737455845177925 -0.0008790853299390258 -0.0065387368646209545 0.00102642407933329 0.010528023853838183
 0.001023277514576947 0.010528407036259388 -0.0008790853299390258 -0.0065387368646209545 0.0041640440399154524 0.01973644161638444 0.9950040725011736 -0.04788248767298332
 -0.0008796833694133857 -0.00653872103502255 0.00102642407933329 0.010528023853838183 0.9950040725011736 -0.04788248767298332 0.00416338779666576 0.019736478133451193
0.08128386827845 0.0044861529532818955 0.02149471971217134 0.9945766085641352 -0.051959139200350335 0.0011635305796386585 0.011408690467868434 -0.0009981583785365663 -0.007088997701837722
 0.9945766085641352 -0.051959139200350335 0.0044858474264912246 0.02149475115244066 -0.000997458625363366 -0.007089021759381582 0.0011672256636780813 0.011408231744294246
 0.0011635305796386585 0.011408690467868434 -0.000997458625363366 -0.007089021759381582 0.0044863517462395705 0.021493654531642672 0.9945765694618535 -0.051960233054682115
 -0.0009981583785365663 -0.007088997701837722 0.0011672256636780813 0.011408231744294246 0.9945765694618535 -0.051960233054682115 0.004485582093665644 0.021493695658294034
0.08753647353064001 0.004825236514448362 0.02326748345135059 0.9941268501752284 -0.05605029283007643 0.001313391855928556 0.01228890770182966 -0.00112474776621001 -0.0076394758330356905
 0.9941268501752284 -0.05605029283007643 0.0048248819536994315 0.0232675187924762 -0.0011239386008447339 -0.0076395096060349835 0.0013176800006915082 0.012288364107925592
 0.001313391855928556 0.01228890770182966 -0.0011239386008447339 -0.0076395096060349835 0.004825467375510926 0.02326634037325032 0.9941268048669675 -0.056051472448585174
 -0.00112474776621001 -0.0076394758330356905 0.0013176800006915082 0.012288364107925592 0.9941268048669675 -0.056051472448585174 0.004824575318143146 0.023266386421427837
0.09378907878283 0.005181412293198609 0.025055444946912107 0.9936545516019035 -0.0601547873709081 0.0014729410755647367 0.013168927064215578 -0.0012595336481327408 -0.008190021129936557
 0.9936545516019035 -0.0601547873709081 0.005181004989208228 0.025055484350720764 -0.0012586074305470723 -0.008190066197077827 0.0014778669236210457 0.013168288682738886
 0.0014729410755647367 0.013168927064215578 -0.0012586074305470723 -0.008190066197077827 0.005181677654896764 0.02505422478536065 0.9936544995698372 -0.06015605314989157
 -0.0012595336481327408 -0.008190021129936557 0.0014778669236210457 0.013168288682738886 0.9936544995698372 -0.06015605314989157 0.005180654197038661 0.02505427608304407
0.100041684035 0.005554965196845097 0.02685833272824516 0.9931594347823696 -0.06427245652691241 0.0016422559015023476 0.014048613457893369 -0.0014025959623402149 -0.008740497111510025
 0.9931594347823696 -0.06427245652691241 0.005554501421966746 0.026858376345821548 -0.0014015451112739303 -0.008740555142633744 0.0016478641926183 0.014047869776351246
 0.0016422559015023476 0.014048613457893369 -0.0014015451112739303 -0.008740555142633744 0.0055552675056978725 0.026857036345280753 0.9931593754919307 -0.06427380889419358
 -0.0014025959623402149 -0.008740497111510025 0.0016478641926183 0.014047869776351246 0.9931593754919307 -0.06427380889419358 0.005554103649024547 0.026857093236906025
0.1059090909091 0.005921561422345774 0.028563486352599757 0.9926738206092555 -0.06814827578231543 0.0018100889026372708 0.014873679779053201 -0.0015444413241592733 -0.009256873816736578
 0.9926738206092555 -0.06814827578231543 0.005921041247586717 0.028563534052176365 -0.0015432666753909428 -0.009256945613061682 0.0018163783673672558 0.014872827187072515
 0.0018100889026372708 0.014873679779053201 -0.0015432666753909428 -0.009256945613061682 0.005921900641271757 0.028562119269033175 0.9926737540055178 -0.06814970982194918
 -0.0015444413241592733 -0.009256873816736578 0.0018163783673672558 0.014872827187072515 0.9926737540055178 -0.06814970982194918 0.005920596847289476 0.02856218173825829
0.1062942892872 0.005946178249832861 0.028675876677203685 0.992641222893017 -0.06840312199089964 0.0018214118342188956 0.014927828501698095 -0.0015540123918054767 -0.009290765016208883
 0.992641222893017 -0.06840312199089964 0.0059456542565825025 0.028675924648864957 -0.0015528293851423567 -0.009290837772281632 0.0018277474011113622 0.014926968405229477
 0.0018214118342188956 0.014927828501698095 -0.0015528293851423567 -0.009290837772281632 0.005946519968191765 0.028674504981350688 0.9926411557918283 -0.06840456140685265
 -0.0015540123918054767 -0.009290765016208883 0.0018277474011113622 0.014926968405229477 0.9926411557918283 -0.06840456140685265 0.005945206709781925 0.028674567828232623
0.11254689453939999 0.006355332507812449 0.03050780681643092 0.992099640510516 -0.07254659462949346 0.002010482119193283 0.015806430645729206 -0.001713858285407673 -0.009840683732903694
 0.992099640510516 -0.07254659462949346 0.00635474452703103 0.030507859271690852 -0.0017125356606233298 -0.009840773065968906 0.0020175898828514805 0.015805442409968184
 0.002010482119193283 0.015806430645729206 -0.0017125356606233298 -0.009840773065968906 0.0063557161152008055 0.030506360764271167 0.9920995650269235 -0.07254812158485222
 -0.001713858285407673 -0.009840683732903694 0.0020175898828514805 0.015805442409968184 0.9920995650269235 -0.07254812158485222 0.006354244445256521 0.030506429945159896
0.11879949979160001 0.006782706962333202 0.032353852365923155 0.9915344137661157 -0.0767026754052113 0.0022095376557710556 0.016684275270452263 -0.0018822065765970247 -0.010390109753183411
 0.9915344137661157 -0.0767026754052113 0.006782051201719556 0.03235390942353878 -0.0018807369313372801 -0.010390217606292907 0.0022174626205047447 0.016683146554456862
 0.0022095376557710556 0.016684275270452263 -0.0018807369313372801 -0.010390217606292907 0.006783134957798608 0.032352332961636476 0.9915343293084062 -0.07670429042092082
 -0.0018822065765970247 -0.010390109753183411 0.0022174626205047447 0.016683146554456862 0.9915343293084062 -0.07670429042092082 0.006781495857296558 0.032352408873375496
0.1250521050438 0.007228578439400387 0.03421374100359271 0.9909452704978361 -0.08087115610095666 0.0024186469061471478 0.017561214769458024 -0.002059127701340234 -0.010938897145437141
 0.9909452704978361 -0.08087115610095666 0.007227851081866022 0.03421380277166387 -0.002057503694025935 -0.010939025552549953 0.0024274341544512613 0.017559932608701583
 0.0024186469061471478 0.017561214769458024 -0.002057503694025935 -0.010939025552549953 0.007229053342720287 0.03421214929687183 0.9909451764523209 -0.08087285972953649
 -0.002059127701340234 -0.010938897145437141 0.0024274341544512613 0.017559932608701583 0.9909451764523209 -0.08087285972953649 0.0072272377813984885 0.0342122323549695
0.131304710296 0.007693221492241208 0.03608719827252915 0.9903319403974534 -0.08505181990370311 0.002637875805200902 0.01843709862666387 -0.002244689514979305 -0.011486897539832798
 0.9903319403974534 -0.08505181990370311 0.007692418693659863 0.03608726484868187 -0.0022429038653993577 -0.011487048625737116 0.0026475704920465378 0.018435649426030706
 0.002637875805200902 0.01843709862666387 -0.0022429038653993577 -0.011487048625737116 0.007693745845815279 0.03608553535934974 0.990331836128163 -0.08505361272778504
 -0.002244689514979305 -0.011486897539832798 0.0026475704920465378 0.018435649426030706 0.990331836128163 -0.08505361272778504 0.007691744779647387 0.03608562599880441
0.1375573155481 0.008069821885092594 0.03772725654716634 0.9898012817395322 -0.08899764030620906 0.002839492818831207 0.019286322342453425 -0.0024111560274015847 -0.01200853506445442
 0.9898012817395322 -0.08899764030620906 0.00806894000252943 0.03772732532986229 -0.0024091982915165782 -0.012008708973469727 0.002850117332729787 0.019284708294012912
 0.002839492818831207 0.019286322342453425 -0.0024091982915165782 -0.012008708973469727 0.008070399210616157 0.03772552265150353 0.9898011667667163 -0.0889995227027266
 -0.0024111560274015847 -0.01200853506445442 0.002850117332729787 0.019284708294012912 0.9898011667667163 -0.0889995227027266 0.00806820156698175 0.03772562005862089
0.1438099208003 0.008459629242299292 0.03935868780157217 0.9892520171321993 -0.0929335164857896 0.003049266405018115 0.020132265515882927 -0.0025843031027617492 -0.01252717221549864
 0.9892520171321993 -0.0929335164857896 0.008458664448681399 0.03935875869231875 -0.0025821655183899243 -0.01252737102431974 0.0030608618885505272 0.020130474190563647
 0.003049266405018115 0.020132265515882927 -0.0025821655183899243 -0.01252737102431974 0.008460262293944183 0.03935688400070672 0.9892518908184312 -0.09293548903174553
 -0.0025843031027617492 -0.01252717221549864 0.0030608618885505272 0.020130474190563647 0.9892518908184312 -0.09293548903174553 0.008457858658312606 0.039356988582149637
0.1500625260525 0.008862507028746972 0.04098135719180565 0.988684287251079 -0.09685935271422655 0.003267125629477562 0.020974846027890546 -0.002764061661302629 -0.013042730784483429
 0.988684287251079 -0.09685935271422655 0.008861455477861189 0.04098143009436413 -0.0027617364869315948 -0.013042956652428349 0.0032797330316090357 0.02097286453441286
 0.003267125629477562 0.020974846027890546 -0.0027617364869315948 -0.013042956652428349 0.008863198594964521 0.040979484600737415 0.9886841489391973 -0.09686141601016238
 -0.002764061661302629 -0.013042730784483429 0.0032797330316090357 0.02097286453441286 0.9886841489391973 -0.09686141601016238 0.00886057951861184 0.04097959679226926
0.15631513130469998 0.009278317740432581 0.042595133967948735 0.9880982334904711 -0.10077505356117886 0.0034929987243498472 0.021813983120044945 -0.0029503617739156285 -0.013555134212099005
