! Created with skrf 1.8.0 (http://scikit-rf.org).
# GHz S RI R 50.0 
!freq ReS11 ImS11 ReS12 ImS12 ReS13 ImS13
! ReS14 ImS14
! ReS21 ImS21 ReS22 ImS22 ReS23 ImS23
! ReS24 ImS24
! ReS31 ImS31 ReS32 ImS32 ReS33 ImS33
! ReS34 ImS34
! ReS41 ImS41 ReS42 ImS42 ReS43 ImS43
! ReS44 ImS44
!
0.0 0.001800459530153 0.0 0.9981995404499 0.0 6.994775679258e-05 0.0 -6.994775723668e-05 8.566129700743628e-21
 0.9981995404499 0.0 0.001800459530161 0.0 -6.994775723693e-05 8.566129700774244e-21 6.994775679282e-05 0.0
 6.994775679258e-05 0.0 -6.994775723693e-05 8.566129700774244e-21 0.001800459540106 0.0 0.9981995404599 0.0
 -6.994775723668e-05 8.566129700743628e-21 6.994775679282e-05 0.0 0.9981995404599 0.0 0.001800459540106 0.0
0.005 0.0019380145021618948 0.0014707610136985713 0.9980253550989702 -0.003770672553246302 9.876028366026228e-05 0.0007787872108783693 -9.574825184323255e-05 -0.0004872638855768013
 0.9980253550989702 -0.003770672553246302 0.0019380374137949927 0.0014707475621647669 -9.574741538645282e-05 -0.00048726318020316883 9.862615059254524e-05 0.0007788384050471979
 9.876028366026228e-05 0.0007787872108783693 -9.574741538645282e-05 -0.00048726318020316883 0.0019380156235487126 0.0014708275873299675 0.9980253554725481 -0.0037706054885387756
 -9.574825184323255e-05 -0.0004872638855768013 9.862615059254524e-05 0.0007788384050471979 0.9980253554725481 -0.0037706054885387756 0.0019380370387710425 0.0014708151195374037
0.006252605252188 0.001974346658414268 0.0018442071566401469 0.9979790141297826 -0.004714221732683857 0.00010714664837540513 0.0009738397588763125 -0.00010315299618046161 -0.0006096957926889284
 0.9979790141297826 -0.004714221732683857 0.001974382473860501 0.0018441900601825732 -0.00010315169508516129 -0.0006096949218903213 0.00010693708125787198 0.0009739062729486786
 0.00010714664837540513 0.0009738397588763125 -0.00010315169508516129 -0.0006096949218903213 0.0019743483465968314 0.0018442903526872192 0.9979790146486097 -0.004714137916295871
 -0.00010315299618046161 -0.0006096957926889284 0.00010693708125787198 0.0009739062729486786 0.9979790146486097 -0.004714137916295871 0.001974381821970233 0.0018442744998119144
0.01250521050438 0.0021670950226719333 0.003726708113062104 0.9977313405209567 -0.009428944985292413 0.00015605665506237363 0.0019478801256296234 -0.00014581170610846554 -0.0012221802520927189
 0.9977313405209567 -0.009428944985292413 0.002167238043308404 0.0037266710543528334 -0.00014580658488701578 -0.0012221786308333697 0.00015522102325485622 0.0019480406491605312
 0.00015605665506237363 0.0019478801256296234 -0.00014580658488701578 -0.0012221786308333697 0.0021671012080579253 0.0037268741844718504 0.9977313420290816 -0.009428777601372042
 -0.00014581170610846554 -0.0012221802520927189 0.00015522102325485622 0.0019480406491605312 0.9977313420290816 -0.009428777601372042 0.0021672348686458125 0.003726839771355428
0.01875781575657 0.002379179062253049 0.005635586028363182 0.9974561740876392 -0.014155581285984271 0.00021679795601535525 0.0029227363516833964 -0.00019806617554270954 -0.00183651939326652
 0.9974561740876392 -0.014155581285984271 0.0023795004559711936 0.005635525885282882 -0.00019805476398660754 -0.0018365171662268356 0.00021492098243981056 0.002923024432910856
 0.00021679795601535525 0.0029227363516833964 -0.00019805476398660754 -0.0018365171662268356 0.002379192555081807 0.005635834765557261 0.997456177054809 -0.014155330451655259
 -0.00019806617554270954 -0.00183651939326652 0.00021492098243981056 0.002923024432910856 0.997456177054809 -0.014155330451655259 0.0023794928848690014 0.005635778883554899
0.02501042100875 0.0026110558074374417 0.007568097543342671 0.9971531543019317 -0.018896351951979938 0.00028949244883316716 0.003898403451188521 -0.00026005281102595677 -0.002452390391016465
 0.9971531543019317 -0.018896351951979938 0.0026116266141125184 0.007568010960947988 -0.00026003267150121574 -0.0024523877298067683 0.0002861588474678879 0.0038988585124330455
 0.00028949244883316716 0.003898403451188521 -0.00026003267150121574 -0.0024523877298067683 0.002611079418860132 0.007568428758415236 0.9971531591945857 -0.0188960177425836
 -0.00026005281102595677 -0.002452390391016465 0.0002861588474678879 0.0038988585124330455 0.9971531591945857 -0.0188960177425836 0.0026116127657524846 0.007568348319646264
0.03126302626094 0.0028631631873557335 0.009522795707201033 0.9968219043814371 -0.02365216516580345 0.00037426189024849604 0.004874784543579895 -0.0003319032658749149 -0.0030695531968027425
 0.9968219043814371 -0.02365216516580345 0.0028640543600472494 0.009522679101437592 -0.0003318719878838053 -0.003069550300206144 0.00036905600280546776 0.0048754519156878
 0.00037426189024849604 0.004874784543579895 -0.0003318719878838053 -0.003069550300206144 0.0028631997315917883 0.009523209204137129 0.9968219116639845 -0.023651747644258106
 -0.0003319032658749149 -0.0030695531968027425 0.00036905600280546776 0.0048754519156878 0.9968219116639845 -0.023651747644258106 0.0028640323473249074 0.009523100945703883
0.037515631513130004 0.003135928863208467 0.01149871045877545 0.9964620405281999 -0.028423435442635505 0.0004712265685297869 0.0058517457424159865 -0.0004137453711362505 -0.003687795684657011
 0.9964620405281999 -0.028423435442635505 0.003137211296217102 0.011498560017747359 -0.00041370056845792426 -0.003687792778655575 0.0004637322151525587 0.005852676721327812
 0.0004712265685297869 0.0058517457424159865 -0.00041370056845792426 -0.003687792778655575 0.003135981158161252 0.011499206024945668 0.9964620506638774 -0.02842293466739162
 -0.0004137453711362505 -0.003687795684657011 0.0004637322151525587 0.005852676721327812 0.9964620506638774 -0.02842293466739162 0.0031371792266958066 0.011499066510803816
0.043768236765320004 0.0034297736147329227 0.013495099230927761 0.9960731757269545 -0.03321033296254339 0.0005805046574062301 0.0068291328823614295 -0.0005057034447684758 -0.004306916966534609
 0.9960731757269545 -0.03321033296254339 0.003431518167233217 0.01349491091474206 -0.0005056427537620342 -0.004306914304262298 0.0005703050797755356 0.006830384792423108
 0.0005805046574062301 0.0068291328823614295 -0.0005056427537620342 -0.004306914304262298 0.0034298444829097404 0.013495676633107126 0.9960731891783853 -0.03320974899104291
 -0.0005057034447684758 -0.004306916966534609 0.0005703050797755356 0.006830384792423108 0.9960731891783853 -0.03320974899104291 0.0034314741443293717 0.01349550225473816
0.050020842017509996 0.0037451128938210333 0.015511343872965414 0.9956549217151233 -0.03801288658458554 0.0007022118148864949 0.0078067784273176954 -0.0006078983757613985 -0.004926720533677268
 0.9956549217151233 -0.03801288658458554 0.003747390410154859 0.015511113412963086 -0.000607819454235602 -0.004926718395376151 0.0006888896679929753 0.007808414687096145
 0.0007022118148864949 0.0078067784273176954 -0.000607819454235602 -0.004926718395376151 0.003745205161949547 0.015512002855516302 0.9956549389445456 -0.03801221947455921
 -0.0006078983757613985 -0.004926720533677268 0.0006888896679929753 0.007808414687096145 0.9956549389445456 -0.03801221947455921 0.0037473325335414206 0.015511789831775341
0.055454545454549996 0.004036927693202812 0.017279222936434288 0.9952672770679618 -0.04219911947032459 0.0008181606622834244 0.008656454248031365 -0.0007051137506548507 -0.005465750899591321
 0.9952672770679618 -0.04219911947032459 0.004039725908200743 0.017278952206528773 -0.0007050171001621852 -0.005465749465227465 0.0008017855332924568 0.008658480806201725
 0.0008181606622834244 0.008656454248031365 -0.0007050171001621852 -0.005465749465227465 0.004037040856074947 0.017279952590043834 0.9952672979544356 -0.04219838015673051
 -0.0007051137506548507 -0.005465750899591321 0.0008017855332924568 0.008658480806201725 0.9952672979544356 -0.04219838015673051 0.004039654445349456 0.017279702776890192
0.056273447269699996 0.004082357589312888 0.01754690008963532 0.9952068901705852 -0.04283103434957686 0.0008364608860369947 0.008784504884973003 -0.0007204476113975242 -0.005547010899616851
 0.9952068901705852 -0.04283103434957686 0.004085238917938242 0.017546622986622483 -0.0007203481378111932 -0.005547009592562881 0.0008195982599762517 0.008786595073874267
 0.0008364608860369947 0.008784504884973003 -0.0007203481378111932 -0.005547009592562881 0.004082474086886479 0.017547640375241112 0.9952069116385468 -0.042830284157617055
 -0.0007204476113975242 -0.005547010899616851 0.0008195982599762517 0.008786595073874267 0.9952069116385468 -0.042830284157617055 0.004085165282924589 0.017547384751544874
0.06252605252188 0.00444191441235327 0.019601269627799848 0.99472869352656 -0.04766465124243795 0.0009833616607134116 0.0097621266930589 -0.0008434650924011353 -0.006167591780203681
 0.99472869352656 -0.04766465124243795 0.004445470424421659 0.019600941149812798 -0.0008433427653419444 -0.00616759163865268 0.0009625401225872096 0.009764746617954177
 0.0009833616607134116 0.0097621266930589 -0.0008433427653419444 -0.00616759163865268 0.004442057971874998 0.01960209092006056 0.9947287196921131 -0.0476638180209581
 -0.0008434650924011353 -0.006167591780203681 0.0009625401225872096 0.009764746617954177 0.9947287196921131 -0.0476638180209581 0.004445379122881984 0.01960178856673751
0.06877865777407 0.004824186065690731 0.02167398372833203 0.9942199455746044 -0.05251356569880295 0.0011430206610515841 0.010739451362846432 -0.0009770611596388076 -0.006788265025714884
 0.9942199455746044 -0.05251356569880295 0.004828487672456065 0.021673598907531656 -0.0009769136973953078 -0.006788266410836861 0.0011178213107661714 0.010742683124180861
 0.0011430206610515841 0.010739451362846432 -0.0009769136973953078 -0.006788266410836861 0.004824359522990603 0.02167488570205232 0.9942199768963275 -0.05251264950512052
 -0.0009770611596388076 -0.006788265025714884 0.0011178213107661714 0.010742683124180861 0.9942199768963275 -0.05251264950512052 0.004828376794382881 0.021674532312064086
0.07503126302626001 0.005229571292285337 0.023764592619016353 0.9936802619537243 -0.057377570080272895 0.0013155409461485564 0.011716280220379776 -0.0011213424433618787 -0.007408829964916431
 0.9936802619537243 -0.057377570080272895 0.005234689462839019 0.023764146247970103 -0.0011211675836385786 -0.007408833264729587 0.0012855444833511046 0.011720212277477458
 0.0013155409461485564 0.011716280220379776 -0.0011211675836385786 -0.007408833264729587 0.005229777485654697 0.023765574926167245 0.9936802988892124 -0.05737657097012347
 -0.0011213424433618787 -0.007408829964916431 0.0012855444833511046 0.011720212277477458 0.9936802988892124 -0.05737657097012347 0.0052345570963152205 0.02376516601211565
0.08128386827845 0.005658464840801076 0.025872658559258126 0.9931092605609955 -0.062256427609185865 0.0015010219285763815 0.01269240892046722 -0.001276411740714676 -0.008029082986471656
 0.9931092605609955 -0.062256427609185865 0.005664470619385927 0.0258721451864662 -0.0012762072404111252 -0.00802908861579189 0.0014658087280616267 0.012697136155704291
 0.0015010219285763815 0.01269240892046722 -0.0012762072404111252 -0.00802908861579189 0.005658706610543647 0.025873720823329137 0.9931093035666797 -0.062255345641799166
 -0.001276411740714676 -0.008029082986471656 0.0014658087280616267 0.012697136155704291 0.9931093035666797 -0.062255345641799166 0.005664314851329581 0.02587325171368351
0.08753647353064001 0.006111257381329007 0.027997751017922946 0.992506561917364 -0.06714987718137823 0.0016995591984291722 0.013667627818532679 -0.0014423678855473162 -0.008648817272743756
 0.992506561917364 -0.06714987718137823 0.006118221904474881 0.027997164942616656 -0.001442131520584007 -0.0086488256731143 0.0016587093924403825 0.01367325160033287
 0.0016995591984291722 0.013667627818532679 -0.001442131520584007 -0.0086488256731143 0.006111537569472509 0.027998892837191793 0.9925066114488025 -0.06714871241567183
 -0.0014423678855473162 -0.008648817272743756 0.0016587093924403825 0.01367325160033287 0.9925066114488025 -0.06714871241567183 0.006118040821643877 0.027998358671765703
0.09378907878283 0.006588335382386035 0.03013944325425086 0.9918717894985708 -0.07205763678793417 0.0019112443523903678 0.014641722256923641 -0.0016193056130491233 -0.009267822629820678
 0.9918717894985708 -0.07205763678793417 0.006596329896203697 0.03013877852049961 -0.0016190351782884543 -0.00926783426946243 0.0018643379188834452 0.014648350501277003
 0.0019112443523903678 0.014641722256923641 -0.0016190351782884543 -0.00926783426946243 0.006588656831856994 0.030140664198583102 0.9918718460100627 -0.07205638928515522
 -0.0016193056130491233 -0.009267822629820678 0.0018643379188834452 0.014648350501277003 0.9918718460100627 -0.07205638928515522 0.006596121585300667 0.030140059923353647
0.100041684035 0.007090080963176757 0.03229730981917884 0.9912045700466571 -0.07697940602904707 0.0021361648267005768 0.015614472797474582 -0.001807315420617188 -0.009885885382000822
 0.9912045700466571 -0.07697940602904707 0.007099176840575565 0.03229656020905555 -0.0018070087297842809 -0.00988590075574836 0.0020827816829254047 0.015622220027949003
 0.0021361648267005768 0.015614472797474582 -0.0018070087297842809 -0.00988590075574836 0.007090446517721023 0.03229860943133917 0.9912046339915321 -0.07697807585094951
 -0.001807315420617188 -0.009885885382000822 0.0020827816829254047 0.015622220027949003 0.9912046339915321 -0.07697807585094951 0.007098939389624523 0.032297929792300464
0.1059090909091 0.007583687293231153 0.034336569607413096 0.9905486157680213 -0.08161042397502212 0.002359340307355026 0.01652587424474561 -0.0019938893912328595 -0.010464820989031096
 0.9905486157680213 -0.08161042397502212 0.0075938817243688395 0.03433573445484912 -0.001993546706264371 -0.010464840340535773 0.0022994974292327585 0.016534781620165438
 0.002359340307355026 0.01652587424474561 -0.001993546706264371 -0.010464840340535773 0.007584096822188095 0.03433794260151076 0.9905486870998826 -0.0816090162705454
 -0.0019938893912328595 -0.010464820989031096 0.0022994974292327585 0.016534781620165438 0.9905486870998826 -0.0816090162705454 0.007593615191171727 0.03433718727891349
0.1062942892872 0.007616871725646795 0.03447092468704404 0.9905045338637242 -0.0819148680099463 0.0023744037333430015 0.01658565541341619 -0.0020064834261547685 -0.010502788318010148
 0.9905045338637242 -0.0819148680099463 0.0076271404835021265 0.03447008371324832 -0.002006138311767374 -0.010502807947250677 0.0023141238337796985 0.016594642819478245
 0.0023744037333430015 0.01658565541341619 -0.002006138311767374 -0.010502807947250677 0.007617284229207844 0.03447230248302684 0.9905046056943972 -0.0819134552179296
 -0.0020064834261547685 -0.010502788318010148 0.0023141238337796985 0.016594642819478245 0.9905046056943972 -0.0819134552179296 0.007626871982198302 0.03447154201933517
0.11254689453939999 0.008169080572789872 0.03665985984664258 0.9897713150960125 -0.08686369079088221 0.0026260396984651223 0.017555041661570823 -0.002216891224660481 -0.011118310668036568
 0.9897713150960125 -0.08686369079088221 0.008180593888998612 0.036658920744117716 -0.0022165055380685256 -0.011118335100676084 0.0025584431369464387 0.017565397155093875
 0.0026260396984651223 0.017555041661570823 -0.0022165055380685256 -0.011118335100676084 0.008169542868734767 0.03666131531030084 0.9897713952637545 -0.0868621954508672
 -0.002216891224660481 -0.011118310668036568 0.0025584431369464387 0.017565397155093875 0.9897713952637545 -0.0868621954508672 0.008180292429649285 0.03666046834656763
0.11879949979160001 0.008747075514673294 0.038863684209071714 0.9890045520089774 -0.0918255285335983 0.002891146703037759 0.018522398835515007 -0.0024386157438693865 -0.011732228111116969
 0.9890045520089774 -0.0918255285335983 0.008759905245660407 0.038862639925836696 -0.002438187355249354 -0.011732257921491376 0.0028158138187077473 0.0185342571054717
 0.002891146703037759 0.018522398835515007 -0.002438187355249354 -0.011732257921491376 0.008747590445522497 0.038865216795708264 0.9890046409641935 -0.09182395071191102
 -0.0024386157438693865 -0.011732228111116969 0.0028158138187077473 0.0185342571054717 0.9890046409641935 -0.09182395071191102 0.008759568923850615 0.03886427743343174
0.1250521050438 0.009351219466785765 0.04108196276252824 0.9882038872561753 -0.09680002241450782 0.0031697939257122566 0.01948749011131663 -0.002671729099254426 -0.012344312801427497
 0.9882038872561753 -0.09680002241450782 0.00936543766450673 0.04108080594972072 -0.002671255897591078 -0.012344348590270863 0.003086305412350946 0.019500992676420612
 0.0031697939257122566 0.01948749011131663 -0.002671255897591078 -0.012344348590270863 0.009351789873335964 0.04108357189906519 0.9882039854478439 -0.09679836217722021
 -0.002671729099254426 -0.012344312801427497 0.003086305412350946 0.019500992676420612 0.9882039854478439 -0.09679836217722021 0.009365064579655556 0.04108253400719011
0.131304710296 0.009981870040629953 0.04331425591484995 0.9873689681431647 -0.10178680136420831 0.0034620455873064357 0.020450074685393376 -0.0029162984491405333 -0.012954333413979518
 0.9873689681431647 -0.10178680136420831 0.009997548969514056 0.04331297891580707 -0.0029157783423174087 -0.012954375808381309 0.003369982605863947 0.02046536994466508
 0.0034620455873064357 0.020450074685393376 -0.0029157783423174087 -0.012954375808381309 0.00998249876157346 0.043315940997339916 0.9873690760194218 -0.10178505877915886
 -0.0029162984491405333 -0.012954333413979518 0.003369982605863947 0.02046536994466508 0.9873690760194218 -0.10178505877915886 0.009997137226239428 0.04331479820187835
0.1375573155481 0.010503567020683967 0.04526963964461226 0.9866353288525657 -0.10649482956855817 0.0037340977012660973 0.02138205298342769 -0.0031386325207440986 -0.013534144290798007
 0.9866353288525657 -0.10649482956855817 0.010520783275123355 0.0452682606304678 -0.003138062208925611 -0.013534193410396033 0.003633248083225346 0.021399132527893067
 0.0037340977012660973 0.02138205298342769 -0.003138062208925611 -0.013534193410396033 0.01050425594906833 0.04527140052585408 0.986635446844444 -0.10649300474260184
 -0.0031386325207440986 -0.013534144290798007 0.003633248083225346 0.021399132527893067 0.986635446844444 -0.10649300474260184 0.01052033196231175 0.04527017145545303
0.1438099208003 0.011043859487866127 0.04721302094583048 0.9858753703794327 -0.11118919225370669 0.004017088431182684 0.0223091288704251 -0.0033697828912143215 -0.014109510192931347
 0.9858753703794327 -0.11118919225370669 0.011062686222757339 0.0472115336825613 -0.0033691600923402634 -0.01410956666835481 0.003907071235646622 0.022328129796221785
 0.004017088431182684 0.0223091288704251 -0.0033691600923402634 -0.01410956666835481 0.01104461129030648 0.047214857066604284 0.9858754989287049 -0.11118728526832876
 -0.0033697828912143215 -0.014109510192931347 0.003907071235646622 0.022328129796221785 0.9858754989287049 -0.11118728526832876 0.011062193631517976 0.04721353671236507
0.1500625260525 0.011602529694906539 0.049144187046375916 0.9850893155325643 -0.11586972106994213 0.004310902409376886 0.02323117122398575 -0.0036096384778652826 -0.01468031052531793
 0.9850893155325643 -0.11586972106994213 0.011623040277504946 0.04914258491914196 -0.003608960913749172 -0.014680375013282279 0.004191339508832564 0.02325223563143261
 0.004310902409376886 0.02323117122398575 -0.003608960913749172 -0.014680375013282279 0.01160334702582895 0.0491460978292083 0.9850894550791823 -0.11586773200820577
 -0.0036096384778652826 -0.01468031052531793 0.004191339508832564 0.02325223563143261 0.9850894550791823 -0.11586773200820577 0.01162250471567001 0.049144680846576874
0.15631513130469998 0.012179358019413236 0.0510629315447357 0.9842773886171682 -0.12053624945362516 0.004615422704057957 0.02414805155573739 -0.0038580866557148723 -0.01524642759583354
 0.9842773886171682 -0.12053624945362516 0.012201626033802798 0.05106120754722683 -0.0038573520518846464 -0.015246500779206335 0.004485938834581689 0.024171326488139303
