! Created with skrf 1.8.0 (http://scikit-rf.org).
# GHz S RI R 50.0 
!freq ReS11 ImS11 ReS12 ImS12 ReS13 ImS13
! ReS14 ImS14
! ReS21 ImS21 ReS22 ImS22 ReS23 ImS23
! ReS24 ImS24
! ReS31 ImS31 ReS32 ImS32 ReS33 ImS33
! ReS34 ImS34
! ReS41 ImS41 ReS42 ImS42 ReS43 ImS43
! ReS44 ImS44
!
0.0 0.001913244968327 0.0 0.998086755009 0.0 7.476196462251e-05 0.0 -7.476196524269e-05 9.155700143242598e-21
 0.998086755009 0.0 0.001913244968239 0.0 -7.476196524118e-05 9.155700143057677e-21 7.476196461791e-05 0.0
 7.476196462251e-05 0.0 -7.476196524118e-05 9.155700143057677e-21 0.001913244979664 0.0 0.9980867550203 0.0
 -7.476196524269e-05 9.155700143242598e-21 7.476196461791e-05 0.0 0.9980867550203 0.0 0.001913244979652 0.0
0.005 0.002059876957932958 0.0015573943409106384 0.9979009790959362 -0.004006770764659556 0.00010661704173997548 0.0008630365525352838 -0.00010312942164527053 -0.000534600267431974
 0.9979009790959362 -0.004006770764659556 0.0020599001864699956 0.0015573807071465157 -0.00010312592903962531 -0.0005345975607915599 0.00010648413895874464 0.0008630872438325036
 0.00010661704173997548 0.0008630365525352838 -0.00010312592903962531 -0.0005345975607915599 0.002059879269674339 0.0015574602323084798 0.9979009794888882 -0.0040067037061770365
 -0.00010312942164527053 -0.000534600267431974 0.00010648413895874464 0.0008630872438325036 0.9979009794888882 -0.0040067037061770365 0.0020598986585013556 0.001557448933522526
0.006252605252188 0.0020987292122414927 0.001952844205010353 0.9978513755628603 -0.005009381723034837 0.00011596569684118896 0.0010791672313473616 -0.00011133661173331512 -0.0006689252051923058
 0.9978513755628603 -0.005009381723034837 0.002098765523560458 0.0019528269121004002 -0.00011133117722836982 -0.0006689218690586461 0.00011575805246978013 0.0010792331234402335
 0.00011596569684118896 0.0010791672313473616 -0.00011133117722836982 -0.0006689218690586461 0.002098732749957447 0.001952926552901594 0.997851376100712 -0.005009297910364246
 -0.00011133661173331512 -0.0006689252051923058 0.00011575805246978013 0.0010792331234402335 0.997851376100712 -0.005009297910364246 0.002098763058141973 0.0019529121906257157
0.01250521050438 0.0023055553305266615 0.003946237312040093 0.9975852488628189 -0.010019110243045887 0.0001708847296076549 0.0021583544052578224 -0.00015896492895832567 -0.0013408512155971054
 0.9975852488628189 -0.010019110243045887 0.0023057003357570623 0.003946200177399262 -0.0001589435160325737 -0.0013408450691212866 0.00017005676857398841 0.002158513868293544
 0.0001708847296076549 0.0021583544052578224 -0.0001589435160325737 -0.0013408450691212866 0.0023055688885969677 0.00394640168437586 0.9975852504364789 -0.010018942860892876
 -0.00015896492895832567 -0.0013408512155971054 0.00017005676857398841 0.002158513868293544 0.9975852504364789 -0.010018942860892876 0.0023056899096906953 0.003946370572086459
0.01875781575657 0.00253425643707261 0.005967473711962769 0.9972879871550867 -0.015041282504970372 0.00023965638827219473 0.0032382550413389112 -0.00021781118401386731 -0.002014689353910596
 0.9972879871550867 -0.015041282504970372 0.0025345823015229378 0.005967413941021854 -0.00021776343960717742 -0.002014681044491462 0.00023779666216897294 0.0032385421046526946
 0.00023965638827219473 0.0032382550413389112 -0.00021776343960717742 -0.002014681044491462 0.0025342864887252185 0.00596771985933277 0.9972879902655556 -0.015041031660892712
 -0.00021781118401386731 -0.002014689353910596 0.00023779666216897294 0.0032385421046526946 0.9972879902655556 -0.015041031660892712 0.002534558434282659 0.0059676694861690105
0.02501042100875 0.0027853444853453545 0.008013600499715041 0.9969591854791808 -0.020078222687096314 0.00032241978970281584 0.004318848435828476 -0.0002880319819221841 -0.0026900539725857914
 0.9969591854791808 -0.020078222687096314 0.0027859232556422184 0.008013515077794403 -0.0002879476808062268 -0.0026900442794200135 0.0003191168752266627 0.004319303307319707
 0.00032241978970281584 0.004318848435828476 -0.0002879476808062268 -0.0026900442794200135 0.0027853974986391935 0.00801392814515578 0.9969591906280227 -0.020077888456796845
 -0.0002880319819221841 -0.0026900539725857914 0.0003191168752266627 0.004319303307319707 0.9969591906280227 -0.020077888456796845 0.00278588047085164 0.008013855897861894
0.03126302626094 0.003059309695680608 0.01008304205540064 0.996598421645747 -0.025130857650401017 0.0004193134529373637 0.005400007759439742 -0.00036977782409737043 -0.003366654360018454
 0.996598421645747 -0.025130857650401017 0.003060213345743255 0.01008292775142035 -0.00036964684819875397 -0.0033666441951911404 0.00041415560842585704 0.005400676862626153
 0.0004193134529373637 0.005400007759439742 -0.00036964684819875397 -0.0033666441951911404 0.003059392130844975 0.010083450883906612 0.9965984293289845 -0.02513044008755855
 -0.00036977782409737043 -0.003366654360018454 0.00041415560842585704 0.005400676862626153 0.9965984293289845 -0.02513044008755855 0.0030601461627832783 0.01008335405139687
0.037515631513130004 0.003356630211517766 0.012174728670029595 0.9962052664115112 -0.030199588280833713 0.000530473701887625 0.0064815632805532 -0.0004631942180808269 -0.004044231588308377
 0.9962052664115112 -0.030199588280833713 0.003357930673384044 0.012174582037287074 -0.0004630065458935623 -0.004044221997025172 0.0005230487351387764 0.006482499313159801
 0.000530473701887625 0.0064815632805532 -0.0004630065458935623 -0.004044221997025172 0.003356748527729657 0.012175218306695532 0.9962052771266922 -0.03019908743813115
 -0.0004631942180808269 -0.004044231588308377 0.0005230487351387764 0.006482499313159801 0.9962052771266922 -0.03019908743813115 0.003357833613591997 0.012175094082044832
0.043768236765320004 0.003677775802426697 0.014287831385706851 0.9957792877094817 -0.03528455460485203 0.0006560338868382976 0.007563321606582327 -0.0005684220295057662 -0.004722539351421994
 0.9957792877094817 -0.03528455460485203 0.0036795449931757065 0.014287648761013492 -0.0005681677302376968 -0.00472253151200122 0.0006459291142575474 0.007564583605559723
 0.0006560338868382976 0.007563321606582327 -0.0005681677302376968 -0.00472253151200122 0.0036779364562016205 0.014288401405201264 0.995779301952872 -0.035283970523360485
 -0.0005684220295057662 -0.004722539351421994 0.0006459291142575474 0.007564583605559723 0.995779301952872 -0.035283970523360485 0.003679412576443913 0.014288246886506397
0.050020842017509996 0.004023209535148126 0.01642165242247665 0.9953200528511278 -0.04038574532020531 0.0007961238892493772 0.008645073667967877 -0.0006855975712353884 -0.005401336070514537
 0.9953200528511278 -0.04038574532020531 0.00402551938026399 0.01642142992436062 -0.0006852668010023129 -0.005401331294295274 0.0007829261434564996 0.008646727076645473
 0.0007961238892493772 0.008645073667967877 -0.0006852668010023129 -0.005401331294295274 0.004023418980908358 0.01642230233537545 0.9953200711191017 -0.04038507804199392
 -0.0006855975712353884 -0.005401336070514537 0.0007829261434564996 0.008646727076645473 0.9953200711191017 -0.04038507804199392 0.0040253461264385315 0.016422114525653758
0.055454545454549996 0.004343482065885453 0.01829235022259355 0.994893620261322 -0.044831928079997155 0.000929764329743494 0.00958497265994218 -0.0007972321096204694 -0.005991441166442558
 0.994893620261322 -0.044831928079997155 0.004346320191577638 0.01829208974944904 -0.0007968269551884062 -0.005991440220422555 0.0009135428064893771 0.009587024389922285
 0.000929764329743494 0.00958497265994218 -0.0007968269551884062 -0.005991440220422555 0.004343739153481941 0.018293069123195754 0.994893642429449 -0.044831188530285136
 -0.0007972321096204694 -0.005991441166442558 0.0009135428064893771 0.009587024389922285 0.994893642429449 -0.044831188530285136 0.004346106998173008 0.0182928498741357
0.056273447269699996 0.004393388586261078 0.018575571422712583 0.9948271298781268 -0.045503051517236624 0.000950869754573711 0.009726598657559414 -0.0008148525715624867 -0.006080381055054058
 0.9948271298781268 -0.045503051517236624 0.0043963110419927886 0.018575304948638023 -0.0008144355711877594 -0.00608038078626663 0.0009341654223257984 0.00972871539327769
 0.000950869754573711 0.009726598657559414 -0.0008144355711877594 -0.00608038078626663 0.004393653276238771 0.018576300682941697 0.994827152666281 -0.04550230107683687
 -0.0008148525715624867 -0.006080381055054058 0.0009341654223257984 0.00972871539327769 0.994827152666281 -0.04550230107683687 0.004396091470343265 0.018576076489198696
0.06252605252188 0.004788764632463448 0.020749015907988024 0.9943000884968511 -0.05063629619901238 0.0011203933884729594 0.01080766622324463 -0.0009563140830841614 -0.00675943242295873
 0.9943000884968511 -0.05063629619901238 0.0047923717065385995 0.02074870113061741 -0.0009558011765373194 -0.006759438238582065 0.0010997684679347774 0.010810324744582107
 0.0011203933884729594 0.01080766622324463 -0.0009558011765373194 -0.006759438238582065 0.004789091016712092 0.02074982390096719 0.9943001163017505 -0.050635462634115246
 -0.0009563140830841614 -0.00675943242295873 0.0010997684679347774 0.010810324744582107 0.9943001163017505 -0.050635462634115246 0.004792100337358677 0.020749560132261233
0.06877865777407 0.005209784005432649 0.02294144368165032 0.9937385007860522 -0.05578525186850966 0.0013048122888689297 0.011888037804859712 -0.0011101043562989964 -0.007438245889441193
 0.9937385007860522 -0.05578525186850966 0.005214147778839109 0.022941076044280754 -0.001109485950053991 -0.007438259499015429 0.0012798524617909928 0.011891323177955115
 0.0013048122888689297 0.011888037804859712 -0.001109485950053991 -0.007438259499015429 0.005210178531113985 0.022942329730678345 0.9937385341036092 -0.05578433521242175
 -0.0011101043562989964 -0.007438245889441193 0.0012798524617909928 0.011891323177955115 0.9937385341036092 -0.05578433521242175 0.0052138191322581885 0.02294202309543464
0.07503126302626001 0.005656887709691343 0.025152331696301832 0.9931419417698105 -0.06094965166524337 0.0015042392994980423 0.012967467504521891 -0.001276340693119126 -0.00811657403585629
 0.9931419417698105 -0.06094965166524337 0.00566208035622189 0.025151906407401958 -0.0012756072755840417 -0.008116597281315079 0.0014745300141918844 0.012971471468085218
 0.0015042392994980423 0.012967467504521891 -0.0012756072755840417 -0.008116597281315079 0.005657356820086796 0.025153295059734664 0.9931419810960889 -0.060948651948600774
 -0.001276340693119126 -0.00811657403585629 0.0014745300141918844 0.012971471468085218 0.9931419810960889 -0.060948651948600774 0.005661688953625766 0.025152942162027073
0.08128386827845 0.006130511352035644 0.027381168665315897 0.9925099899105244 -0.06612919677283496 0.0017187823775009414 0.014045702699895215 -0.001455135286675638 -0.008794165849595673
 0.9925099899105244 -0.06612919677283496 0.006136605158997045 0.027380680692079804 -0.0014542774282513026 -0.008794200705048494 0.0016839089402586572 0.014050523728811099
 0.0017187823775009414 0.014045702699895215 -0.0014542774282513026 -0.008794200705048494 0.006131061486933551 0.02738220853169594 0.9925100357420555 -0.06612811402739228
 -0.001455135286675638 -0.008794165849595673 0.0016839089402586572 0.014050523728811099 0.9925100357420555 -0.06612811402739228 0.006136145523691173 0.027381805866762213
0.08753647353064001 0.006631085012722194 0.02962744996850414 0.9918422275464758 -0.07132356154849834 0.0019485443696010947 0.015122484499229366 -0.0016465950530982429 -0.0094707664364802
 0.9918422275464758 -0.07132356154849834 0.006638152401163655 0.029626894029589707 -0.0016456034063237447 -0.009470815008000809 0.0019080920437856543 0.015128227866332406
 0.0019485443696010947 0.015122484499229366 -0.0016456034063237447 -0.009470815008000809 0.006631722607450621 0.029628565458898547 0.9918422803803972 -0.0713223958036048
 -0.0016465950530982429 -0.0094707664364802 0.0019080920437856543 0.015128227866332406 0.9918422803803972 -0.0713223958036048 0.006637619058942065 0.029628109407611902
0.09378907878283 0.007159033077535615 0.03189067403408816 0.9911382412952617 -0.07653239719242907 0.0021936227964826664 0.016197548090892272 -0.001850821456397556 -0.010146116853147721
 0.9911382412952617 -0.07653239719242907 0.0071671466222069154 0.03189004459128996 -0.0018496867563285386 -0.0101461813785262 0.002147176907458932 0.016204325926883197
 0.0021936227964826664 0.016197548090892272 -0.0018496867563285386 -0.0101461813785262 0.00715976456195803 0.03189186419918549 0.9911383016288295 -0.07653114847687022
 -0.001850821456397556 -0.010146116853147721 0.002147176907458932 0.016204325926883197 0.9911383016288295 -0.07653114847687022 0.007166534101812628 0.03189135102158018
0.100041684035 0.007714774039527979 0.0341703397134132 0.9903976224301634 -0.08175533444152448 0.0024541096413916684 0.017270623035359447 -0.00206791033045665 -0.010819954011886122
 0.9903976224301634 -0.08175533444152448 0.007724006489081041 0.03416963096241849 -0.0020666233952152564 -0.010820036860383773 0.0024012556868027632 0.017278554386684224
 0.0024541096413916684 0.017270623035359447 -0.0020666233952152564 -0.010820036860383773 0.007715605837681691 0.03417160353406222 0.9903976907617031 -0.08175400278188423
 -0.00206791033045665 -0.010819954011886122 0.0024012556868027632 0.017278554386684224 0.9903976907617031 -0.08175400278188423 0.007723309323168929 0.034171029361912485
0.1059090909091 0.00826192275394121 0.036324069871610146 0.9896689535299081 -0.08666898723316105 0.002712639601296109 0.018275535780854064 -0.00228340375971883 -0.01145066439384511
 0.9896689535299081 -0.08666898723316105 0.008272271513294403 0.036323281173292706 -0.002281965691668607 -0.01145076670830141 0.002653395626035555 0.01828466406482454
 0.002712639601296109 0.018275535780854064 -0.002281965691668607 -0.01145076670830141 0.008262854522210285 0.0363254018193647 0.9896690298204698 -0.08666757776230004
 -0.00228340375971883 -0.01145066439384511 0.002653395626035555 0.01828466406482454 0.9896690298204698 -0.08666757776230004 0.00827148994816408 0.03632476677048643
0.1062942892872 0.008298720281476612 0.03646594432341561 0.9896199672410312 -0.08699198561261619 0.00273009114291451 0.018341433518736013 -0.0022979516985638525 -0.011492010638931224
 0.9896199672410312 -0.08699198561261619 0.008309144578115196 0.036465150183561126 -0.0022965034299838975 -0.011492114310971703 0.002670414907800965 0.01835064440323537
 0.00273009114291451 0.018341433518736013 -0.0022965034299838975 -0.011492114310971703 0.008299658810204192 0.03646728070813494 0.9896200440693559 -0.08699057103473055
 -0.0022979516985638525 -0.011492010638931224 0.002670414907800965 0.01835064440323537 0.9896200440693559 -0.08699057103473055 0.00830835730384635 0.03646664153645018
0.11254689453939999 0.008911277840925698 0.03877698217112333 0.9888048773800139 -0.09224194618172106 0.0030216475924180644 0.019409698570021408 -0.002541029590932444 -0.01216201528418322
 0.9888048773800139 -0.09224194618172106 0.008922967140943936 0.038776096274024785 -0.002539410975374373 -0.012162142411060966 0.0029547352686575216 0.019420322030252492
 0.0030216475924180644 0.019409698570021408 -0.002539410975374373 -0.012162142411060966 0.008912329509842233 0.038778389955584906 0.9888049632050017 -0.09224044871001347
 -0.002541029590932444 -0.01216201528418322 0.0029547352686575216 0.019420322030252492 0.9888049632050017 -0.09224044871001347 0.008922084300931568 0.038777681633106714
0.11879949979160001 0.009552846165459544 0.04110294343442364 0.9879519601990779 -0.09750479602466716 0.0033288531336843376 0.020475132273439976 -0.002797221862893862 -0.01282969235114472
 0.9879519601990779 -0.09750479602466716 0.009565873858611252 0.0411019591117778 -0.0027954239720865146 -0.01282984569469842 0.003254291443073697 0.020487308427653943
 0.0033288531336843376 0.020475132273439976 -0.0027954239720865146 -0.01282984569469842 0.009554017375206602 0.04110442137872433 0.9879520555213187 -0.09750321568396556
 -0.002797221862893862 -0.01282969235114472 0.003254291443073697 0.020487308427653943 0.9879520555213187 -0.09750321568396556 0.009564890001542516 0.041103639597345164
0.1250521050438 0.010223817856916166 0.043443313294401396 0.987060829078426 -0.10278010042506887 0.003651775566774612 0.021537443961437443 -0.003066600012305558 -0.0134947621618939
 0.987060829078426 -0.10278010042506887 0.010238257586255193 0.043442223564486716 -0.0030646140043065883 -0.01349494461414204 0.0035691518881253675 0.02155132005185605
 0.003651775566774612 0.021537443961437443 -0.0030646140043065883 -0.01349494461414204 0.010225114998652769 0.04344486008416636 0.9870609343997421 -0.10277843723836058
 -0.003066600012305558 -0.0134947621618939 0.0035691518881253675 0.02155132005185605 0.9870609343997421 -0.10277843723836058 0.010237167267975826 0.04344400036725997
0.131304710296 0.010924578409654054 0.045797571268439516 0.9861311037493424 -0.10806741089992086 0.003990476154486376 0.02259633840624007 -0.003349228998687727 -0.014156941038724523
 0.9861311037493424 -0.10806741089992086 0.010940504091296087 0.045796368821678 -0.003347046118858747 -0.014157155621501329 0.0038993786538447576 0.022612068844773705
 0.003990476154486376 0.02259633840624007 -0.003347046118858747 -0.014157155621501329 0.01092600786402285 0.045799185514429124 0.9861312195726768 -0.1080656648878435
 -0.003349228998687727 -0.014156941038724523 0.0038993786538447576 0.022612068844773705 0.9861312195726768 -0.1080656648878435 0.010939301875748248 0.045798243204055726
0.1375573155481 0.01150835823759878 0.047857832156397016 0.9853096438490662 -0.11305869327331358 0.004306930719473235 0.023622344711614687 -0.003607201769078929 -0.014786722892953835
 0.9853096438490662 -0.11305869327331358 0.011525847628694215 0.04785653207051295 -0.003604808813957115 -0.014786970307851574 0.0042071531521926655 0.023639925566564902
 0.004306930719473235 0.023622344711614687 -0.003604808813957115 -0.014786970307851574 0.011509925610798144 0.04785951273069569 0.9853097706446519 -0.11305686451866662
 -0.003607201769078929 -0.014786722892953835 0.0042071531521926655 0.023639925566564902 0.9853097706446519 -0.11305686451866662 0.011524528919036239 0.04785850516123857
0.1438099208003 0.012112998039574779 0.049904507433907654 0.9844585467539329 -0.11803456924852744 0.004636071840327872 0.024642447927135307 -0.003875362252995187 -0.015411149286671831
 0.9844585467539329 -0.11803456924852744 0.012132125935064885 0.049903103475155794 -0.003872749793575608 -0.015411432555680301 0.004527240472954621 0.024662022204751166
 0.004636071840327872 0.024642447927135307 -0.003872749793575608 -0.015411432555680301 0.012114709562748504 0.04990625294418911 0.9844586850182646 -0.11803265778812122
 -0.003875362252995187 -0.015411149286671831 0.004527240472954621 0.024662022204751166 0.9844586850182646 -0.11803265778812122 0.012130685457530883 0.049905176564840996
0.1500625260525 0.012738238786844944 0.051937346344239105 0.983578077039567 -0.12299483354814841 0.004977755836605379 0.025656487603083353 -0.004153571911790447 -0.016030072774936444
 0.983578077039567 -0.12299483354814841 0.012759080241819109 0.05193583187318345 -0.004150730549843801 -0.01603039504216291 0.0048595000305454205 0.02567820349676004
 0.004977755836605379 0.025656487603083353 -0.004150730549843801 -0.01603039504216291 0.012740100673286228 0.0519391553434844 0.9835782272692392 -0.12299283941987937
 -0.004153571911790447 -0.016030072774936444 0.0048595000305454205 0.02567820349676004 0.9835782272692392 -0.12299283941987937 0.012757512739818554 0.05193800630599487
0.15631513130469998 0.013383819057908917 0.053956105729383204 0.9826685012410257 -0.12793928360315268 0.00533183700240098 0.026664306751280384 -0.004441690212470199 -0.016643349683052068
 0.9826685012410257 -0.12793928360315268 0.013406449393241477 0.05395447368733044 -0.004438610581139616 -0.016643714214129166 0.0052037892729916765 0.02668831757119091
