! Created with skrf 1.8.0 (http://scikit-rf.org).
# GHz S RI R 50.0 
!freq ReS11 ImS11 ReS12 ImS12 ReS13 ImS13
! ReS14 ImS14
! ReS21 ImS21 ReS22 ImS22 ReS23 ImS23
! ReS24 ImS24
! ReS31 ImS31 ReS32 ImS32 ReS33 ImS33
! ReS34 ImS34
! ReS41 ImS41 ReS42 ImS42 ReS43 ImS43
! ReS44 ImS44
!
0.0 0.001492630749964 0.0 0.9985073692301 0.0 5.764788912548e-05 0.0 -5.764788886e-05 7.059830257000136e-21
 0.9985073692301 0.0 0.001492630749956 0.0 -5.764788885896e-05 7.059830256872773e-21 5.76478891264e-05 0.0
 5.764788912548e-05 0.0 -5.764788885896e-05 7.059830256872773e-21 0.001492630759883 0.0 0.9985073692401 0.0
 -5.764788886e-05 7.059830257000136e-21 5.76478891264e-05 0.0 0.9985073692401 0.0 0.001492630759929 0.0
0.005 0.0016058280843648867 0.0012182800807115086 0.9983641616153035 -0.003126968929082477 8.120947658229582e-05 0.0006530171913715177 -7.870047593644217e-05 -0.00040681024266467483
 0.9983641616153035 -0.003126968929082477 0.001605856289377605 0.0012182636494464767 -7.870481139529902e-05 -0.00040681356746441287 8.10186778258058e-05 0.0006530897511998334
 8.120947658229582e-05 0.0006530171913715177 -7.870481139529902e-05 -0.00040681356746441287 0.0016058255335616356 0.0012182143177203728 0.9983641612567185 -0.003127036003073245
 -7.870047593644217e-05 -0.00040681024266467483 8.10186778258058e-05 0.0006530897511998334 0.9983641612567185 -0.003127036003073245 0.0016058581294293524 0.001218195269492229
0.006252605252188 0.0016354710261055944 0.0015276620757767414 0.998326424615669 -0.003909483807816303 8.793861003941194e-05 0.0008165808267559008 -8.462612874646383e-05 -0.0005090453318513447
 0.998326424615669 -0.003909483807816303 0.0016355151153950088 0.0015276411969062482 -8.463287514716261e-05 -0.0005090494314487207 8.764050287864219e-05 0.0008166750411614516
 8.793861003941194e-05 0.0008165808267559008 -8.463287514716261e-05 -0.0005090494314487207 0.0016354671197947887 0.0015275799004087337 0.9983264241365234 -0.003909567627446422
 -8.462612874646383e-05 -0.0005090453318513447 8.764050287864219e-05 0.0008166750411614516 0.9983264241365234 -0.003909567627446422 0.0016355180736025564 0.0015275557443618392
0.01250521050438 0.0017912547839766552 0.0030874965262885513 0.9981267947208803 -0.007819829546126722 0.00012651498100375253 0.0016334677553884302 -0.00011814950909591315 -0.0010206025180460514
 0.9981267947208803 -0.007819829546126722 0.001791430829698011 0.003087451372009259 -0.00011817609734085765 -0.001020610100238156 0.00012532614789386012 0.001633694014504681
 0.00012651498100375253 0.0016334677553884302 -0.00011817609734085765 -0.001020610100238156 0.0017912397429500077 0.0030873324983171284 0.9981267933667185 -0.007819996952543215
 -0.00011814950909591315 -0.0010206025180460514 0.00012532614789386012 0.001633694014504681 0.9981267933667185 -0.007819996952543215 0.001791443207555752 0.0030872806941893358
0.01875781575657 0.0019603145397425682 0.004669679970243089 0.9979082370594309 -0.011740566005071574 0.0001734634101110869 0.002451229702750188 -0.00015832009358142688 -0.001533915887638401
 0.9979082370594309 -0.011740566005071574 0.0019607101157828317 0.0046696069694268086 -0.00015837938854211422 -0.0015339262194395953 0.00017079270360366013 0.0024516330458790713
 0.0001734634101110869 0.002451229702750188 -0.00015837938854211422 -0.0015339262194395953 0.001960281157680452 0.0046694343502177455 0.9979082344346117 -0.011740816924416208
 -0.00015832009358142688 -0.001533915887638401 0.00017079270360366013 0.0024516330458790713 0.9979082344346117 -0.011740816924416208 0.001960738361755626 0.0046693511226947254
0.02501042100875 0.0021429733716652214 0.006272000104678317 0.9976704997979474 -0.015673601163243435 0.00022887236036152342 0.0032699074735521327 -0.00020523665530615553 -0.0020487526097699585
 0.9976704997979474 -0.015673601163243435 0.0021436758724246454 0.006271895542179843 -0.0002053413692563888 -0.002048764829237842 0.00022412832586933445 0.0032705398941887814
 0.00022887236036152342 0.0032699074735521327 -0.0002053413692563888 -0.002048764829237842 0.002142914455348764 0.006271673209846513 0.99767049550689 -0.015673935558772705
 -0.00020523665530615553 -0.0020487526097699585 0.00022412832586933445 0.0032705398941887814 0.99767049550689 -0.015673935558772705 0.00214372643204952 0.0062715545372671495
0.03126302626094 0.002339540947370445 0.007893322083274704 0.9974133179795958 -0.01961975578914092 0.00029283108083659937 0.004089464605424149 -0.00025899521569289544 -0.0025649517085871154
 0.9974133179795958 -0.01961975578914092 0.0023406376369359033 0.007893182107035164 -0.0002591579345027287 -0.0025649648231830845 0.00028542140252949406 0.004090385092350565
 0.00029283108083659937 0.004089464605424149 -0.0002591579345027287 -0.0025649648231830845 0.002339449313427741 0.007892914280866978 0.9974133116253209 -0.019620173668237678
 -0.00025899521569289544 -0.0025649517085871154 0.00028542140252949406 0.004090385092350565 0.9974133116253209 -0.019620173668237678 0.0023407169553313107 0.007892755902270145
0.037515631513130004 0.0025503202658588944 0.009532908701282044 0.9971364204600134 -0.023579443197731732 0.00036542859792243666 0.0049098341868862565 -0.00031968976691679565 -0.0030823772304299185
 0.9971364204600134 -0.023579443197731732 0.0025518983115159917 0.009532729326510694 -0.0003199229633405745 -0.00308239011650141 0.00035475984654931704 0.004911108795627229
 0.00036542859792243666 0.0049098341868862565 -0.0003199229633405745 -0.00308239011650141 0.002550188738724491 0.009532420434629157 0.9971364116427163 -0.02357994458652316
 -0.00031968976691679565 -0.0030823772304299185 0.00035475984654931704 0.004911108795627229 0.9971364116427163 -0.02357994458652316 0.0025520128348269573 0.00953221785292701
0.043768236765320004 0.002775610269535606 0.011190213534780075 0.9968395327190641 -0.027552876043394205 0.0004467532414428325 0.0057309331235218 -0.0003874125405044073 -0.0036009039720196864
 0.9968395327190641 -0.027552876043394205 0.002777756769026108 0.011189990646939022 -0.00038772858210061266 -0.0036009153746120095 0.0004322307516453534 0.00573263505730504
 0.0004467532414428325 0.0057309331235218 -0.00038772858210061266 -0.0036009153746120095 0.002775431680783865 0.011189645329783272 0.9968395210353873 -0.02755346098121513
 -0.0003874125405044073 -0.0036009039720196864 0.0004322307516453534 0.00573263505730504 0.9968395210353873 -0.02755346098121513 0.002777912945333121 0.011189393813372124
0.050020842017509996 0.0030157070562525866 0.012864795456088481 0.996522378276899 -0.031540151734684066 0.0005368923734846982 0.006552668006235977 -0.0004622541009063119 -0.004120411610722798
 0.996522378276899 -0.031540151734684066 0.0030185090616046697 0.012864524813022943 -0.0004626652550935723 -0.004120420143491895 0.0005179201892335491 0.006554877700934128
 0.0005368923734846982 0.006552668006235977 -0.0004626652550935723 -0.004120420143491895 0.0030154742451841757 0.012864147911304587 0.9965223633201159 -0.03154082028497869
 -0.0004622541009063119 -0.004120411610722798 0.0005179201892335491 0.006554877700934128 0.9965223633201159 -0.03154082028497869 0.003018713342595813 0.012863842494865439
0.055454545454549996 0.003236611649719368 0.014333794447417086 0.9962300868323315 -0.03501647728175089 0.0006224514329027386 0.007267218829559093 -0.0005331441142362154 -0.004572584176895269
 0.9962300868323315 -0.03501647728175089 0.003240053987484622 0.014333478760553253 -0.0005336478115820877 -0.00457258898775991 0.000599127327427473 0.007269940790106384
 0.0006224514329027386 0.007267218829559093 -0.0005336478115820877 -0.00457258898775991 0.003236325909631076 0.01433307850185936 0.9962300686985867 -0.03501721855940148
 -0.0005331441142362154 -0.004572584176895269 0.000599127327427473 0.007269940790106384 0.9962300686985867 -0.03501721855940148 0.003240305316741567 0.014332722030710912
0.056273447269699996 0.0032709045059566267 0.014556276657568222 0.9961846795282231 -0.03554129434153135 0.0006359321952358616 0.0073749380049014605 -0.0005443033720287636 -0.00464078181305106
 0.9961846795282231 -0.03554129434153135 0.003274449045609281 0.014555953891070126 -0.0005448218094755474 -0.004640785958244545 0.0006119130566167685 0.007377743215745393
 0.0006359321952358616 0.0073749380049014605 -0.0005448218094755474 -0.004640785958244545 0.00327061032087951 0.014555550451708013 0.9961846608884398 -0.03554204658526821
 -0.0005443033720287636 -0.00464078181305106 0.0006119130566167685 0.007377743215745393 0.9961846608884398 -0.03554204658526821 0.0032747078882475497 0.014555185936194039
0.06252605252188 0.003541494616197736 0.016264319582776483 0.9958261582902432 -0.039556277597445545 0.0007439575980785384 0.0081976364536625 -0.0006336476244253571 -0.005161896655173593
 0.9958261582902432 -0.039556277597445545 0.0035458687164717445 0.01626394019941319 -0.0006342854213487066 -0.005161894763644123 0.000714292955459186 0.008201132342706738
 0.0007439575980785384 0.0081976364536625 -0.0006342854213487066 -0.005161894763644123 0.003541131913274345 0.016263515480273622 0.9958261355523553 -0.0395571136285759
 -0.0006336476244253571 -0.005161896655173593 0.000714292955459186 0.008201132342706738 0.9958261355523553 -0.0395571136285759 0.0035461885820400173 0.016263086432202107
0.06877865777407 0.003827767681672658 0.017988613178280162 0.995446536197351 -0.04358503858405609 0.0008610520381609716 0.009020651799408298 -0.0007303724412878894 -0.0056836376840717255
 0.995446536197351 -0.04358503858405609 0.0038330583872158487 0.01798817255970384 -0.0007311415809814076 -0.005683627975303444 0.0008251420854070582 0.009024941023202771
 0.0008610520381609716 0.009020651799408298 -0.0007311415809814076 -0.005683627975303444 0.0038273293263017504 0.017987732025271798 0.9954465089415823 -0.04358595851444673
 -0.0007303724412878894 -0.0056836376840717255 0.0008251420854070582 0.009024941023202771 0.9954465089415823 -0.04358595851444673 0.0038334457429600247 0.01798723277547911
0.07503126302626001 0.004130012380214988 0.01972886417214884 0.9950455350065546 -0.04762748639272667 0.0009872974248177208 0.009843868208681453 -0.0008345616711094564 -0.006205885324262887
 0.9950455350065546 -0.04762748639272667 0.004136306774549189 0.019728357574781048 -0.0008354740450109019 -0.006205865886415236 0.0009445411469453357 0.009849061005749
 0.0009872974248177208 0.009843868208681453 -0.0008354740450109019 -0.006205865886415236 0.004129491247410637 0.019727906899329947 0.9950455028071196 -0.04762849035033049
 -0.0008345616711094564 -0.006205885324262887 0.0009445411469453357 0.009849061005749 0.9950455028071196 -0.04762849035033049 0.004136768093432984 0.01972733154102745
0.08128386827845 0.004448515800235752 0.021484791262486664 0.9946228768475212 -0.05168350788016181 0.001122774017640278 0.010667165968401938 -0.0009462973717725534 -0.0067285184948550495
 0.9946228768475212 -0.05168350788016181 0.004455901026011642 0.021484213816636642 -0.0009473647800585274 -0.006728487284831135 0.001072569249677008 0.010673380246280454
 0.001122774017640278 0.010667165968401938 -0.0009473647800585274 -0.006728487284831135 0.00444790477524174 0.02148375888795435 0.9946228392722308 -0.051684596007072474
 -0.0009462973717725534 -0.0067285184948550495 0.001072569249677008 0.010673380246280454 0.9946228392722308 -0.051684596007072474 0.004456442787409355 0.021483101274206367
0.08753647353064001 0.004783563429772703 0.023256121123081383 0.9941782844374663 -0.055752971611381236 0.001267560328999336 0.011490421776504103 -0.0010656597487792513 -0.007251414341004413
 0.9941782844374663 -0.055752971611381236 0.004792126708913269 0.02325546783137296 -0.0010668939007012562 -0.007251369184534024 0.001209303823769647 0.011497783198082654
 0.001267560328999336 0.011490421776504103 -0.0010668939007012562 -0.007251369184534024 0.0047828554092611344 0.02325501474924977 0.9941782410477386 -0.05575414406787462
 -0.0010656597487792513 -0.007251414341004413 0.001209303823769647 0.011497783198082654 0.9941782410477386 -0.05575414406787462 0.004792755399264723 0.023254268489814763
0.09378907878283 0.005135439118450159 0.02504258552228381 0.9937114812735063 -0.05983573069408404 0.0014217330306265294 0.012313508945573716 -0.0011927270886958725 -0.00777444805672771
 0.9937114812735063 -0.05983573069408404 0.005145267772783344 0.02504185125750633 -0.0011941396026864876 -0.007774386648454022 0.0013548205342535917 0.012322151014736835
 0.0014217330306265294 0.012313508945573716 -0.0011941396026864876 -0.007774386648454022 0.005134627011120877 0.02504140634172978 0.9937114316231336 -0.059836987653622
 -0.0011927270886958725 -0.00777444805672771 0.0013548205342535917 0.012322151014736835 0.9937114316231336 -0.059836987653622 0.005145989885575679 0.0250405647992335
0.100041684035 0.005504425020123099 0.026843919230234506 0.9932221918066625 -0.06393162482951967 0.0015853668621900522 0.013136297565199923 -0.0013275756901489962 -0.008297492753630545
 0.9932221918066625 -0.06393162482951967 0.005515606491405445 0.026843098732456872 -0.001329178093680871 -0.008297412657233575 0.0015091931958031595 0.01314636171142259
 0.0015853668621900522 0.013136297565199923 -0.001329178093680871 -0.008297412657233575 0.005503501747659374 0.026842668522997364 0.9932221354414295 -0.06393296648233096
 -0.0013275756901489962 -0.008297492753630545 0.0015091931958031595 0.01314636171142259 0.9932221354414295 -0.06393296648233096 0.005516428527860851 0.02684172480845567
0.1059090909091 0.005866490493626089 0.028547568319776236 0.9927423500184812 -0.06778698003024344 0.0017475894546258146 0.013908007444477703 -0.001461259930350959 -0.008788209780060903
 0.9927423500184812 -0.06778698003024344 0.005879021092851108 0.02854666199634698 -0.0014630509279941971 -0.008788109814481491 0.0016621740119324548 0.013919541821245838
 0.0017475894546258146 0.013908007444477703 -0.0014630509279941971 -0.008788109814481491 0.005865456479426495 0.028546251736223632 0.9927422869315282 -0.06778840134562171
 -0.001461259930350959 -0.008788209780060903 0.0016621740119324548 0.013919541821245838 0.9927422869315282 -0.06778840134562171 0.005879942816691361 0.028545205649953907
0.1062942892872 0.005890801521202768 0.028659858436866095 0.9927101416069396 -0.06804048185775374 0.0017585345421668582 0.013958654623382222 -0.0014702797915095538 -0.008820419375162362
 0.9927101416069396 -0.06804048185775374 0.005903423392309627 0.028658946309956978 -0.0014720835209035817 -0.00882031802348437 0.0016724936894746596 0.013970290285342538
 0.0017585345421668582 0.013958654623382222 -0.0014720835209035817 -0.00882031802348437 0.0058897600194061745 0.02865853757221379 0.9927100780642718 -0.0680419084099369
 -0.0014702797915095538 -0.008820419375162362 0.0016724936894746596 0.013970290285342538 0.9927100780642718 -0.0680419084099369 0.005904351861340969 0.028657484539872328
0.11254689453939999 0.00629484715873188 0.030490139552313673 0.992175057519134 -0.07216211892580193 0.00194130667968807 0.014780444110325886 -0.0016209114972370229 -0.009343096633304982
 0.992175057519134 -0.07216211892580193 0.006308997173691443 0.0304891302597039 -0.001622927897216869 -0.009342971328506347 0.0018447918794687887 0.014793808818303769
 0.00194130667968807 0.014780444110325886 -0.001622927897216869 -0.009342971328506347 0.006293680378515091 0.030488749991969634 0.9921749863273741 -0.07216363059686308
 -0.0016209114972370229 -0.009343096633304982 0.0018447918794687887 0.014793808818303769 0.9921749863273741 -0.07216363059686308 0.006310038592617641 0.030487580233443123
0.11879949979160001 0.0067168385287627655 0.03233449826209729 0.9916166678138119 -0.0762963434064361 0.002133751687222755 0.015601527105798917 -0.0017795407025983313 -0.009865390966517971
 0.9916166678138119 -0.0762963434064361 0.0067326046142368225 0.032333386121813 -0.0017817810258354146 -0.009865238880239423 0.0020261555303985523 0.01561678656285044
 0.002133751687222755 0.015601527105798917 -0.0017817810258354146 -0.009865238880239423 0.006715539437018741 0.032333041556578665 0.9916165884912163 -0.076297940433702
 -0.0017795407025983313 -0.009865390966517971 0.0020261555303985523 0.01561678656285044 0.9916165884912163 -0.076297940433702 0.006733765508602162 0.03233174739422881
0.1250521050438 0.007157050189277295 0.03419266878934143 0.991034702333535 -0.08044295361559918 0.002335935694152818 0.01642176185207018 -0.0019462350170313216 -0.010387166517067217
 0.991034702333535 -0.08044295361559918 0.007174520475583988 0.0341914479682722 -0.0019487104235618076 -0.010386984690633748 0.002216650225129714 0.01643909001383048
 0.002335935694152818 0.01642176185207018 -0.0019487104235618076 -0.010386984690633748 0.007155611770109239 0.03419114658342715 0.9910346143881126 -0.08044463624953922
 -0.0019462350170313216 -0.010387166517067217 0.002216650225129714 0.01643909001383048 0.9910346143881126 -0.08044463624953922 0.007175807379380119 0.03418972006304852
0.131304710296 0.00761575455625292 0.03606438330576508 0.9904288926358258 -0.08460173938680773 0.002547922460890326 0.017241003823241972 -0.0021210596867389186 -0.010908285117067184
 0.9904288926358258 -0.08460173938680773 0.007635017398320697 0.036063047813258024 -0.002123781243278258 -0.010908070461695629 0.0024163392826053723 0.017260582976296752
 0.002547922460890326 0.017241003823241972 -0.002123781243278258 -0.010908070461695629 0.007614169812320482 0.03606279733862269 0.9904287955647233 -0.08460350789158914
 -0.0021210596867389186 -0.010908285117067184 0.0024163392826053723 0.017260582976296752 0.9904287955647233 -0.08460350789158914 0.007636436854723885 0.03606123022134183
0.1375573155481 0.00798681215387035 0.037704551328817684 0.9899054177229412 -0.0885275713364886 0.002743341589912224 0.018034398781856368 -0.002277800072399412 -0.011403802301220158
 0.9899054177229412 -0.0885275713364886 0.008007963743490453 0.037703127061236234 -0.002280784132166704 -0.011403554631814944 0.0025991589923885236 0.018056197869285237
 0.002743341589912224 0.018034398781856368 -0.002280784132166704 -0.011403554631814944 0.007985074527325699 0.03770290336309943 0.9899053111057254 -0.08852942585980525
 -0.002277800072399412 -0.011403802301220158 0.0025991589923885236 0.018056197869285237 0.9899053111057254 -0.08852942585980525 0.008009521712849386 0.037701219047322765
0.1438099208003 0.008370875540827823 0.03933623291124524 0.9893636006038797 -0.09244361880361877 0.0029466812661375005 0.018824637113192332 -0.0024408197658036296 -0.011896500341836333
 0.9893636006038797 -0.09244361880361877 0.008394005746435942 0.039334715817202555 -0.002444078213568596 -0.011896216628248515 0.002789345662732745 0.018848822549096218
 0.0029466812661375005 0.018824637113192332 -0.002444078213568596 -0.011896216628248515 0.008368978137982737 0.039334524755932895 0.9893634839387699 -0.09244555960250972
 -0.0024408197658036296 -0.011896500341836333 0.002789345662732745 0.018848822549096218 0.9893634839387699 -0.09244555960250972 0.008395708680048613 0.03933271684875138
0.1500625260525 0.008767811404716299 0.04095929660495012 0.988803578432409 -0.09634978957090341 0.0031578738469988633 0.01961163943291216 -0.0026100544027399 -0.012386306580825995
 0.988803578432409 -0.09634978957090341 0.008793010356931929 0.040957682348822015 -0.0026135990975468494 -0.01238598367149468 0.002986834782515997 0.019638383707017898
 0.0031578738469988633 0.01961163943291216 -0.0026135990975468494 -0.01238598367149468 0.008765747354138714 0.0409575301401195 0.9888034512085916 -0.09635181691441667
 -0.0026100544027399 -0.012386306580825995 0.002986834782515997 0.019638383707017898 0.9888034512085916 -0.09635181691441667 0.008794864708267439 0.04095559186797813
0.15631513130469998 0.009177485510094837 0.04257361495922651 0.9882254890318326 -0.10024599164813741 0.0033768509034913735 0.020395327649229276 -0.0027854388402015835 -0.012873149876169361
 0.9882254890318326 -0.10024599164813741 0.009204843609557457 0.04257189891080345 -0.0027892816148974873 -0.0128727844986316 0.00319156109918223 0.020424809266112974
