! Created with skrf 1.8.0 (http://scikit-rf.org).
# GHz S RI R 50.0 
!freq ReS11 ImS11 ReS12 ImS12 ReS13 ImS13
! ReS14 ImS14
! ReS21 ImS21 ReS22 ImS22 ReS23 ImS23
! ReS24 ImS24
! ReS31 ImS31 ReS32 ImS32 ReS33 ImS33
! ReS34 ImS34
! ReS41 ImS41 ReS42 ImS42 ReS43 ImS43
! ReS44 ImS44
!
0.0 0.001522947732029 0.0 0.9984770522656 0.0 5.850342113126e-05 0.0 -5.850342133103e-05 7.164602767221488e-21
 0.9984770522656 0.0 0.001522947732054 0.0 -5.850342133145e-05 7.164602767272923e-21 5.850342113168e-05 0.0
 5.850342113126e-05 0.0 -5.850342133145e-05 7.164602767272923e-21 0.001522947729838 0.0 0.9984770522634 0.0
 -5.850342133103e-05 7.164602767221488e-21 5.850342113168e-05 0.0 0.9984770522634 0.0 0.001522947729842 0.0
0.005 0.0016384729638038772 0.0012498122898033784 0.9983309427628901 -0.0031899895704766124 8.125144377151278e-05 0.0006215210263049986 -7.91433171321086e-05 -0.0003941457400143535
 0.9983309427628901 -0.0031899895704766124 0.0016384567121120114 0.00124982173864075 -7.91425967612914e-05 -0.00039414513611681984 8.135640079811538e-05 0.0006214810919681677
 8.125144377151278e-05 0.0006215210263049986 -7.91425967612914e-05 -0.00039414513611681984 0.0016384732438260688 0.0012497448115107322 0.9983309424039064 -0.0031900566312628668
 -7.91433171321086e-05 -0.0003941457400143535 8.135640079811538e-05 0.0006214810919681677 0.9983309424039064 -0.0031900566312628668 0.001638455716945487 0.001249755096595648
0.006252605252188 0.0016687556221383925 0.0015671662923304119 0.9982924119049824 -0.003988268367393852 8.771109956264796e-05 0.0007772160779138975 -8.495574361356373e-05 -0.0004931874778797261
 0.9982924119049824 -0.003988268367393852 0.0016687302182477003 0.0015671782932020943 -8.495462305976226e-05 -0.0004931867321891328 8.787508582349452e-05 0.0007771642229848704
 8.771109956264796e-05 0.0007772160779138975 -8.495462305976226e-05 -0.0004931867321891328 0.0016687561354287589 0.0015670819440552126 0.9982924114189035 -0.00398835218881938
 -8.495574361356373e-05 -0.0004931874778797261 8.787508582349452e-05 0.0007771642229848704 0.9982924114189035 -0.00398835218881938 0.0016687287372529555 0.0015670950017078382
0.01250521050438 0.0018280758948631254 0.0031670444876318797 0.9980884150966826 -0.007977337626654086 0.00012454975660666602 0.0015548847067304633 -0.0001178541012807529 -0.0009887555213002844
 0.9980884150966826 -0.007977337626654086 0.0018279744642272493 0.003167070403106911 -0.00011784969009641368 -0.0009887541299883475 0.00012520371455319334 0.0015547601183585069
 0.00012454975660666602 0.0015548847067304633 -0.00011784969009641368 -0.0009887541299883475 0.0018280785306229288 0.00316687599439407 0.9980884137338958 -0.007977505015143925
 -0.0001178541012807529 -0.0009887555213002844 0.00012520371455319334 0.0015547601183585069 0.9980884137338958 -0.007977505015143925 0.0018279691225288202 0.0031669041513654496
0.01875781575657 0.0020012526374799133 0.004789618767176851 0.9978648106753975 -0.011976915867992896 0.00016910625206712193 0.002333504879060231 -0.00015729836290596976 -0.0014860248203145867
 0.9978648106753975 -0.011976915867992896 0.0020010247336039967 0.004789660650875377 -0.00015728853246551447 -0.0014860229010245148 0.00017057534283858625 0.002333282633644538
 0.00016910625206712193 0.002333504879060231 -0.00015728853246551447 -0.0014860229010245148 0.0020012589983068965 0.004789366156978789 0.9978648080350211 -0.011977166737447673
 -0.00015729836290596976 -0.0014860248203145867 0.00017057534283858625 0.002333282633644538 0.9978648080350211 -0.011977166737447673 0.002001013140808488 0.004789411635376974
0.02501042100875 0.0021886200012167303 0.006432630310372541 0.9976213376182494 -0.0159889439953525 0.00022146787871550638 0.0031131072276177284 -0.00020338537824301297 -0.0019847789525592823
 0.9976213376182494 -0.0159889439953525 0.0021882152882361366 0.006432690337925713 -0.00020336802754200665 -0.0019847766427739375 0.00022407741683263272 0.003112758496733153
 0.00022146787871550638 0.0031131072276177284 -0.00020336802754200665 -0.0019847766427739375 0.0021886317004475415 0.006432293571767084 0.9976213333038193 -0.015989278292836518
 -0.00020338537824301297 -0.0019847789525592823 0.00022407741683263272 0.003112758496733153 0.9976213333038193 -0.015989278292836518 0.0021881950559529814 0.006432358755098244
0.03126302626094 0.002390498354283663 0.00809491826991214 0.9973577214463093 -0.020014254711756815 0.00028172212443613147 0.003893653668741405 -0.00025620940259176876 -0.002484864837626173
 0.9973577214463093 -0.020014254711756815 0.0023898665790929967 0.008094998735093145 -0.0002561824534997998 -0.002484862294902682 0.0002857978816676702 0.003893145696091704
 0.00028172212443613147 0.003893653668741405 -0.0002561824534997998 -0.002484862294902682 0.0023905170114907315 0.008094497376042053 0.9973577150602884 -0.020014672393479094
 -0.00025620940259176876 -0.002484864837626173 0.0002857978816676702 0.003893145696091704 0.9973577150602884 -0.020014672393479094 0.0023898353155971594 0.008094584805634764
0.037515631513130004 0.0026072011956157428 0.009775726948910404 0.9970736813559137 -0.024053265278906007 0.00034995596995292407 0.004675078913124047 -0.0003158627373540951 -0.0029861512369866107
 0.9970736813559137 -0.024053265278906007 0.002606292169181202 0.009775830261580404 -0.00031582413221875735 -0.0029861486390051666 0.0003558243126878351 0.004674374974652615
 0.00034995596995292407 0.004675078913124047 -0.00031582413221875735 -0.0029861486390051666 0.002607228438430282 0.009775221844802643 0.997073672501314 -0.024053766322863605
 -0.0003158627373540951 -0.0029861512369866107 0.0003558243126878351 0.004674374974652615 0.997073672501314 -0.024053766322863605 0.0026062474804933447 0.009775334218203481
0.043768236765320004 0.0028390378284701948 0.011474494942252866 0.9967689331089529 -0.028106188304270554 0.00042625555335838164 0.00545730308301875 -0.00038243595546790345 -0.003488516139868626
 0.9967689331089529 -0.028106188304270554 0.0028378014112146726 0.011474623626891568 -0.00038238365565053227 -0.003488513684410928 0.0004342435088480284 0.0054563624417467566
 0.00042625555335838164 0.00545730308301875 -0.00038238365565053227 -0.003488513684410928 0.0028390752930146233 0.01147390555556514 0.9967689213889102 -0.028106772699386526
 -0.00038243595546790345 -0.003488516139868626 0.0004342435088480284 0.0054563624417467566 0.9967689213889102 -0.028106772699386526 0.0028377409013448647 0.011474045725733057
0.050020842017509996 0.0030863146029006055 0.013190768002297308 0.9964431904926914 -0.03217311880173389 0.0005107059597278275 0.006240236933395593 -0.00045601798348207634 -0.003991841544898194
 0.9964431904926914 -0.03217311880173389 0.0030847006915030234 0.01319092469720508 -0.00045594996836288996 -0.003991839449815207 0.000521141244690921 0.006239014792106573
 0.0005107059597278275 0.006240236933395593 -0.00045594996836288996 -0.003991839449815207 0.0030863639321480896 0.013190094251643072 0.9964431755087051 -0.03217378653939904
 -0.00045601798348207634 -0.003991841544898194 0.000521141244690921 0.006239014792106573 0.9964431755087051 -0.03217378653939904 0.0030846219611356234 0.01319026522668751
0.055454545454549996 0.003313981076644252 0.014696173628879417 0.9961428371573682 -0.035718797442664145 0.0005907805661710671 0.006921132058153144 -0.0005257228433465793 -0.004429936099533831
 0.9961428371573682 -0.035718797442664145 0.0033119984408209856 0.014696356896109677 -0.0005256395436747374 -0.004429934510098106 0.0006036093406522456 0.0069196257142695285
 0.0005907805661710671 0.006921132058153144 -0.0005256395436747374 -0.004429934510098106 0.0033140420567234216 0.014695426483664441 0.9961428190121664 -0.03571953760892078
 -0.0005257228433465793 -0.004429936099533831 0.0006036093406522456 0.0069196257142695285 0.9961428190121664 -0.03571953760892078 0.003311901925534044 0.014695626792582442
0.056273447269699996 0.003349335553323351 0.014924156273493267 0.9960961661789648 -0.03625407688466381 0.000603391071220648 0.007023784404554348 -0.0005366961140105406 -0.00449601091227238
 0.9960961661789648 -0.03625407688466381 0.0033472940690580516 0.014924343730170599 -0.0005366103803483436 -0.004496009415436569 0.0006166020975538569 0.007022231857471702
 0.000603391071220648 0.007023784404554348 -0.0005366103803483436 -0.004496009415436569 0.0033493983973788056 0.014923398060646591 0.99609614753084 -0.0362548279663611
 -0.0005366961140105406 -0.00449601091227238 0.0006166020975538569 0.007022231857471702 0.99609614753084 -0.0362548279663611 0.0033471947157666573 0.014923603003892533
0.06252605252188 0.0036284027397705688 0.01667431077744555 0.9957275722898267 -0.040349031210752076 0.0007043934419106889 0.007807844035618829 -0.0006245559877755933 -0.005000907757954568
 0.9957275722898267 -0.040349031210752076 0.003625883617242503 0.01667453186040588 -0.0006244505492032589 -0.005000907117206385 0.0007207093075194615 0.007805908019686737
 0.0007043934419106889 0.007807844035618829 -0.0006244505492032589 -0.005000907117206385 0.0036284807576188226 0.016673467990490097 0.9957275495773132 -0.04034986564472819
 -0.0006245559877755933 -0.005000907757954568 0.0007207093075194615 0.007805908019686737 0.9957275495773132 -0.04034986564472819 0.0036257612376010264 0.0166737102209078
0.06877865777407 0.003923816430557339 0.01844090938604306 0.9953371208087007 -0.04445791294223229 0.0008137941910159498 0.008592309799755999 -0.0007196815534194028 -0.005506414829617135
 0.9953371208087007 -0.04445791294223229 0.003920769606756078 0.018441167072938178 -0.0007195544401405909 -0.005506415322720587 0.0008335446599012532 0.008589933045814973
 0.0008137941910159498 0.008592309799755999 -0.0007195544401405909 -0.005506415322720587 0.003923911288212355 0.01843998190105889 0.9953370936291388 -0.044458830741645805
 -0.0007196815534194028 -0.005506414829617135 0.0008335446599012532 0.008589933045814973 0.9953370936291388 -0.044458830741645805 0.0039206217945116795 0.018440264894086452
0.07503126302626001 0.004235875186374369 0.02022364794124257 0.994924523896025 -0.04858062456326364 0.0009316729029872366 0.009377071646044184 -0.0008221550175167417 -0.006012413579715726
 0.994924523896025 -0.04858062456326364 0.0042322505899648625 0.020223945323329023 -0.0008220042759704216 -0.006012415504303737 0.0009551883774403208 0.009374192630157811
 0.0009316729029872366 0.009377071646044184 -0.0008220042759704216 -0.006012415504303737 0.0042359885578821385 0.02022263561775209 0.994924491845328 -0.04858162575059299
 -0.0008221550175167417 -0.006012413579715726 0.0009551883774403208 0.009374192630157811 0.994924491845328 -0.04858162575059299 0.004232074937902166 0.020222963006301293
0.08128386827845 0.004564875886094854 0.02202223433564163 0.994489494150662 -0.05271704574109325 0.0010581075347433728 0.010162015853354037 -0.0009320567849676776 -0.006518783830634465
 0.994489494150662 -0.05271704574109325 0.004560623426820527 0.02202257461852842 -0.0009318804777271947 -0.006518787504152831 0.0010857190212957785 0.010158568748390905
 0.0010581075347433728 0.010162015853354037 -0.0009318804777271947 -0.006518787504152831 0.0045650094532480034 0.022021137023491143 0.9944894568227237 -0.05271813034095934
 -0.0009320567849676776 -0.006518783830634465 0.0010857190212957785 0.010158568748390905 0.9944894568227237 -0.05271813034095934 0.004560417526315592 0.02202151259942822
0.08753647353064001 0.004911113712091185 0.023836384425329985 0.9940317448342254 -0.056867037359263115 0.0011931743249305666 0.010947025292918921 -0.0010494653953758983 -0.007025403535355752
 0.9940317448342254 -0.056867037359263115 0.004906183270200738 0.02383677093012907 -0.0010492616009276042 -0.00702540929500687 0.0012252133954741558 0.010942939920516622
 0.0011931743249305666 0.010947025292918921 -0.0010492616009276042 -0.00702540929500687 0.004911269164215457 0.023835201958564957 0.9940317018205231 -0.05686820540446304
 -0.0010494653953758983 -0.007025403535355752 0.0012252133954741558 0.010942939920516622 0.9940317018205231 -0.05686820540446304 0.004905944711924348 0.02383562967443734
0.09378907878283 0.005274882107859514 0.025665819108342702 0.9935509900708532 -0.06103044439051415 0.0013369477068003127 0.011731979607193788 -0.0011744574541873894 -0.007532148626299272
 0.9935509900708532 -0.06103044439051415 0.005269223523583775 0.02566625527308663 -0.0011742242669060088 -0.007532156828987608 0.0013737464552546787 0.011727181390174505
 0.0013369477068003127 0.011731979607193788 -0.0011742242669060088 -0.007532156828987608 0.005275061142056607 0.025664551308481855 0.9935509409606135 -0.06103169591849125
 -0.0011744574541873894 -0.007532148626299272 0.0013737464552546787 0.011727181390174505 0.9935509409606135 -0.06103169591849125 0.005268949897669787 0.02566503527964779
0.100041684035 0.005656472715957229 0.027510262181302318 0.9930469450313499 -0.06520709799650894 0.0014895002214513088 0.012516755356514295 -0.0013071075618331194 -0.008038892900825993
 0.9930469450313499 -0.06520709799650894 0.005650035778846525 0.02751075156279236 -0.0013068430918590302 -0.0080389039230999 0.0015313912171101296 0.012511165271885385
 0.0014895002214513088 0.012516755356514295 -0.0013068430918590302 -0.0080389039230999 0.005656677037060205 0.02750890885929974 0.9930468894111031 -0.06520843304710948
 -0.0013071075618331194 -0.008038892900825993 0.0015313912171101296 0.012511165271885385 0.9930468894111031 -0.06520843304710948 0.005649724675827137 0.027509453366347043
0.1059090909091 0.006031022281309962 0.029254481443060747 0.9925525173198256 -0.06913833088114887 0.0016407019848154849 0.013252909191591219 -0.0014386151591527336 -0.008514303555129674
 0.9925525173198256 -0.06913833088114887 0.006023809222272547 0.02925502410543714 -0.0014383196289245123 -0.008514317583195452 0.00168767436198671 0.013246500151611806
 0.0016407019848154849 0.013252909191591219 -0.0014383196289245123 -0.008514317583195452 0.006031251888692548 0.029253047679330974 0.9925524552116622 -0.06913974435407416
 -0.0014386151591527336 -0.008514303555129674 0.00168767436198671 0.013246500151611806 0.9925524552116622 -0.06913974435407416 0.006023460759806115 0.02925365303572688
0.1062942892872 0.006056175301655453 0.029369438732947332 0.99251932610578 -0.06939681709610805 0.0016509024329054121 0.013301226129415573 -0.0014474882399071868 -0.00854550794788115
 0.99251932610578 -0.06939681709610805 0.0060489097399280285 0.029369985008960115 -0.0014471906131415483 -0.008545522185869394 0.0016982186704203235 0.013294760661979647
 0.0016509024329054121 0.013301226129415573 -0.0014471906131415483 -0.008545522185869394 0.006056406622043776 0.029367999681561896 0.992519263558883 -0.06939823571909208
 -0.0014474882399071868 -0.00854550794788115 0.0016982186704203235 0.013294760661979647 0.992519263558883 -0.06939823571909208 0.006048558750663167 0.029368609173163147
0.11254689453939999 0.006474277664446068 0.03124307391210801 0.9919678510665937 -0.07359940956484522 0.0018212228432792513 0.014085262636750267 -0.0015956698560892458 -0.009051863095581024
 0.9919678510665937 -0.07359940956484522 0.006466133134075821 0.031243680883931303 -0.0015953372141535107 -0.00905188096493716 0.0018742976899067745 0.014077833733357172
 0.0018212228432792513 0.014085262636750267 -0.0015953372141535107 -0.00905188096493716 0.006474537704088532 0.031241548911430477 0.9919677811734828 -0.0736009118140392
 -0.0015956698560892458 -0.009051863095581024 0.0018742976899067745 0.014077833733357172 0.9919677811734828 -0.0736009118140392 0.006465739850557767 0.031242228007545763
0.11879949979160001 0.0069110655412390485 0.033130891974408966 0.9913922392277758 -0.0778146731615666 0.0020005278086120425 0.014868732791189691 -0.0017517205474037532 -0.00955782537830874
 0.9913922392277758 -0.0778146731615666 0.006901991615411239 0.033131563569797864 -0.0017513510476474137 -0.009557847314146242 0.0020596949490646354 0.014860247815718744
 0.0020005278086120425 0.014868732791189691 -0.0017513510476474137 -0.009557847314146242 0.0069113560278966125 0.03312928079247122 0.991392161565652 -0.07781625909400745
 -0.0017517205474037532 -0.00955782537830874 0.0020596949490646354 0.014860247815718744 0.991392161565652 -0.07781625909400745 0.0069015536313843774 0.033130034287875906
0.1250521050438 0.00736682250277734 0.03503261552524886 0.9907922115986164 -0.0820423962645601 0.0021888814553264434 0.015651501775570384 -0.0019157061423474382 -0.01006325952001274
 0.9907922115986164 -0.0820423962645601 0.007356768660982458 0.03503335580178159 -0.0019152979578854125 -0.010063285976839488 0.0022544748340372887 0.015641863464773732
 0.0021888814553264434 0.015651501775570384 -0.0019152979578854125 -0.010063285976839488 0.00736714517155726 0.03503091791317518 0.9907921257409946 -0.08204406594514076
 -0.0019157061423474382 -0.01006325952001274 0.0022544748340372887 0.015641863464773732 0.9907921257409946 -0.08204406594514076 0.00735628357202247 0.03503175078148359
0.131304710296 0.007841829844091533 0.03694796491926254 0.9901674910354414 -0.08628235845765077 0.002386345596357436 0.016433432107626558 -0.002087690082575949 -0.010568027926240094
 0.9901674910354414 -0.08628235845765077 0.007830745460973194 0.036948778068110415 -0.0020872414022565485 -0.010568059377894127 0.002458699357758608 0.016422538527708752
 0.002386345596357436 0.016433432107626558 -0.0020872414022565485 -0.010568059377894127 0.007842186437455045 0.03694618061404277 0.9901673965516735 -0.08628411195599005
 -0.002087690082575949 -0.010568027926240094 0.002458699357758608 0.016422538527708752 0.9901673965516735 -0.08628411195599005 0.007830210865345045 0.0369470980120209
0.1375573155481 0.008227137035541959 0.03862802648986785 0.989627076441408 -0.09028557819506211 0.002567475221988974 0.01718971143761332 -0.0022421488296303486 -0.011047394536758749
 0.989627076441408 -0.09028557819506211 0.008214966666555731 0.038628898985419206 -0.0022416568225848677 -0.011047431013883911 0.0026467556022964187 0.017177578475612663
 0.002567475221988974 0.01718971143761332 -0.0022416568225848677 -0.011047431013883911 0.008227528432448677 0.03862615548933226 0.9896269729404966 -0.09028741551697017
 -0.0022421488296303486 -0.011047394536758749 0.0026467556022964187 0.017177578475612663 0.9896269729404966 -0.09028741551697017 0.008214380953856881 0.03862714422347091
0.1438099208003 0.008626012034161218 0.040299347937684436 0.9890676683119134 -0.09427874095148572 0.002755899268557926 0.01794299591574778 -0.0024027788119569595 -0.011523953059641783
 0.9890676683119134 -0.09427874095148572 0.00861270415647951 0.0403002829378614 -0.002402241506294359 -0.011523995031678225 0.0028424103517894215 0.017929530351335203
 0.002755899268557926 0.01794299591574778 -0.002402241506294359 -0.011523995031678225 0.008626439831086057 0.04029739000061164 0.9890675553664948 -0.09428066215774514
 -0.0024027788119569595 -0.011523953059641783 0.0028424103517894215 0.017929530351335203 0.9890675553664948 -0.09428066215774514 0.008612065070560556 0.04029845415431239
0.1500625260525 0.00903831625533233 0.04196179209938839 0.9884894092895199 -0.09826174999162358 0.0029515527773262096 0.01869321151309231 -0.0025695157722203086 -0.011997631344067967
 0.9884894092895199 -0.09826174999162358 0.009023819214232705 0.04196279295782869 -0.002568931199029048 -0.011997679299486924 0.003045596894891364 0.01867831671628774
 0.0029515527773262096 0.01869321151309231 -0.002568931199029048 -0.011997679299486924 0.009038782045811732 0.04195974697510962 0.9884892864693595 -0.09826375514523883
 -0.0025695157722203086 -0.011997631344067967 0.003045596894891364 0.01867831671628774 0.9884892864693595 -0.09826375514523883 0.009023124510162978 0.04196089086319172
0.15631513130469998 0.009463910153828007 0.0436152259474577 0.9878924427175522 -0.1022345088700353 0.0031543700345446238 0.01944028546998305 -0.0027422946715379903 -0.012468358751350182
