! Created with skrf 1.8.0 (http://scikit-rf.org).
# GHz S RI R 50.0 
!freq ReS11 ImS11 ReS12 ImS12 ReS13 ImS13
! ReS14 ImS14
! ReS21 ImS21 ReS22 ImS22 ReS23 ImS23
! ReS24 ImS24
! ReS31 ImS31 ReS32 ImS32 ReS33 ImS33
! ReS34 ImS34
! ReS41 ImS41 ReS42 ImS42 ReS43 ImS43
! ReS44 ImS44
!
0.0 0.001150519270832 0.0 0.9988494807292 0.0 4.344484937304e-05 0.0 -4.344484930657e-05 5.3204595642730056e-21
 0.9988494807292 0.0 0.001150519270802 0.0 -4.344484930593e-05 5.3204595641946285e-21 4.34448493727e-05 0.0
 4.344484937304e-05 0.0 -4.344484930593e-05 5.3204595641946285e-21 0.001150519266899 0.0 0.9988494807253 0.0
 -4.344484930657e-05 5.3204595642730056e-21 4.34448493727e-05 0.0 0.9988494807253 0.0 0.001150519266904 0.0
0.005 0.0012369282929564423 0.0009468613362083264 0.9987403058644067 -0.0024108449284033977 5.964710788183035e-05 0.00044846991359892384 -5.816964170024878e-05 -0.0002869181260873598
 0.9987403058644067 -0.0024108449284033977 0.0012369429564730756 0.000946852844323029 -5.817058980203032e-05 -0.0002869188853311664 5.955982924158891e-05 0.0004485031625369208
 5.964710788183035e-05 0.00044846991359892384 -5.817058980203032e-05 -0.0002869188853311664 0.0012369273162379708 0.0009467946889030367 0.9987403055420191 -0.0024109119924427226
 -5.816964170024878e-05 -0.0002869181260873598 5.955982924158891e-05 0.0004485031625369208 0.9987403055420191 -0.0024109119924427226 0.0012369432922579963 0.000946785366845503
0.006252605252188 0.0012593353940136285 0.0011873137476697468 0.9987118579008454 -0.0030141826382165024 6.41443418889536e-05 0.0005608335757950022 -6.22103926384863e-05 -0.0003590255130756809
 0.9987118579008454 -0.0030141826382165024 0.0012593583148765753 0.0011873029260004633 -6.221186775327193e-05 -0.00035902645032997023 6.400797528027428e-05 0.0005608766853203613
 6.41443418889536e-05 0.0005608335757950022 -6.221186775327193e-05 -0.00035902645032997023 0.0012593339421115343 0.001187230448294699 0.998711857472049 -0.0030142664639442275
 -6.22103926384863e-05 -0.0003590255130756809 6.400797528027428e-05 0.0005608766853203613 0.998711857472049 -0.0030142664639442275 0.0012593589152814844 0.0011872185812972348
0.01250521050438 0.0013758043587895528 0.002399688902512923 0.9985632085109946 -0.0060293469917877 8.923917246473096e-05 0.00112217884943645 -8.451101558925243e-05 -0.0007199130873157033
 0.9985632085109946 -0.0060293469917877 0.0013758958704687806 0.0023996651761678525 -8.451682651275171e-05 -0.000719914835177481 8.869534548220581e-05 0.001122281502539654
 8.923917246473096e-05 0.00112217884943645 -8.451682651275171e-05 -0.000719914835177481 0.001375799103625467 0.002399522624197479 0.9985632073448062 -0.006029514392865105
 -8.451101558925243e-05 -0.0007199130873157033 8.869534548220581e-05 0.001122281502539654 0.9985632073448062 -0.006029514392865105 0.0013758988206887751 0.002399496721391771
0.01875781575657 0.001500126710892865 0.003629604723515823 0.9984033865076146 -0.009052877401968957 0.00011877905679152246 0.0016844062089768784 -0.00011040345421857675 -0.0010822140204746879
 0.9984033865076146 -0.009052877401968957 0.0015003323205020906 0.003629565876109965 -0.00011041640998035589 -0.0010822164344914866 0.00011755733504187701 0.0016845874291013926
 0.00011877905679152246 0.0016844062089768784 -0.00011041640998035589 -0.0010822164344914866 0.001500115314438057 0.0036293556549535327 0.9984033843059834 -0.009053128302346353
 -0.00011040345421857675 -0.0010822140204746879 0.00011755733504187701 0.0016845874291013926 0.9984033843059834 -0.009053128302346353 0.0015003393825080019 0.003629313383587341
0.02501042100875 0.0016324997036741044 0.004875403324857413 0.9982322416669652 -0.01208629089251553 0.00015281462547994337 0.0022475609186002055 -0.00013994345471703845 -0.001445802492688979
 0.9982322416669652 -0.01208629089251553 0.0016328648112789387 0.004875347020027837 -0.0001399663303586974 -0.0014458054076191488 0.00015064439594657494 0.0022478421898031865
 0.00015281462547994337 0.0022475609186002055 -0.0001399663303586974 -0.0014458054076191488 0.001632479825991429 0.004875071659034014 0.9982322381290025 -0.012086625253786547
 -0.00013994345471703845 -0.001445802492688979 0.00015064439594657494 0.0022478421898031865 0.9982322381290025 -0.012086625253786547 0.0016328777493763089 0.0048750105374248
0.03126302626094 0.0017731119905881737 0.00613625812799244 0.9980496143592366 -0.015130268696014663 0.00019139719987237884 0.0028116411091908874 -0.00017318567277142607 -0.001810597500543448
 0.9980496143592366 -0.015130268696014663 0.0017736819103418959 0.006136181911980392 -0.0001732212153515721 -0.0018106007299615828 0.00018800739909336935 0.0028120463865945996
 0.00019139719987237884 0.0028116411091908874 -0.0001732212153515721 -0.0018106007299615828 0.001773081289569797 0.006135844077454843 0.9980496091813068 -0.015130686502322369
 -0.00017318567277142607 -0.001810597500543448 0.00018800739909336935 0.0028120463865945996 0.9980496091813068 -0.015130686502322369 0.0017737024925206105 0.006135761477557908
0.037515631513130004 0.0019221482965406317 0.007411650340227079 0.9978553402876473 -0.018185179735220224 0.00023457829978498123 0.003376626659633525 -0.00021018405057872584 -0.002176533958385026
 0.9978553402876473 -0.018185179735220224 0.0019229682700876302 0.007411551643149227 -0.0002102349823025045 -0.0021765372945664746 0.00022969728171848806 0.00337718239383701
 0.00023457829978498123 0.003376626659633525 -0.0002102349823025045 -0.0021765372945664746 0.0019221044308468194 0.0074111541420367934 0.9978553331662805 -0.01818568098865109
 -0.00021018405057872584 -0.002176533958385026 0.00022969728171848806 0.00337718239383701 0.9978553331662805 -0.01818568098865109 0.0019229982716279174 0.0074110472904303755
0.043768236765320004 0.0020797912290603576 0.00870120965076725 0.9976492523690681 -0.021251239881645158 0.00028240942341006586 0.00394248796431006 -0.0002509919605155134 -0.0025435539170179976
 0.9976492523690681 -0.021251239881645158 0.002080906434891841 0.008701085787606531 -0.0002510609806370555 -0.002543557130887808 0.00027576488651989516 0.003943223130218702
 0.00028240942341006586 0.00394248796431006 -0.0002510609806370555 -0.002543557130887808 0.00207973185724068 0.008700631568365012 0.9976492429996124 -0.021251824600704173
 -0.0002509919605155134 -0.0025435539170179976 0.00027576488651989516 0.003943223130218702 0.9976492429996124 -0.021251824600704173 0.002080947637832463 0.008700497546868422
0.050020842017509996 0.002246222132520351 0.010004648389086417 0.9974311816607204 -0.02432857775000849 0.00033494192199970353 0.004509189557729376 -0.000295662266949141 -0.00291160292645803
 0.9974311816607204 -0.02432857775000849 0.0022476776937960926 0.010004496560387358 -0.0002957520530577747 -0.002911605767586154 0.0003262608675746528 0.0045101356852368
 0.00033494192199970353 0.004509189557729376 -0.0002957520530577747 -0.002911605767586154 0.002246144911957887 0.010003988719305527 0.9974311697357557 -0.024329245963063677
 -0.000295662266949141 -0.00291160292645803 0.0003262608675746528 0.0045101356852368 0.9974311697357557 -0.024329245963063677 0.0022477318858531515 0.010003824465250312
0.055454545454549996 0.0023981327613308416 0.01114846270294322 0.9972318078949496 -0.02701209469602555 0.0003844520557203748 0.005002322196027092 -0.000337659549645576 -0.003232243403080702
 0.9972318078949496 -0.02701209469602555 0.0023999207092557876 0.011148284209422496 -0.0003377695403766062 -0.0032322457003098434 0.0003737789387079367 0.00500347926982105
 0.0003844520557203748 0.005002322196027092 -0.0003377695403766062 -0.0032322457003098434 0.002398038127733794 0.011147732394392413 0.9972317934985656 -0.027012835502709286
 -0.000337659549645576 -0.003232243403080702 0.0003737789387079367 0.00500347926982105 0.9972317934985656 -0.027012835502709286 0.002399987647211147 0.01114753926800571
0.056273447269699996 0.0024216215356701633 0.011321729211556074 0.9972009578813378 -0.02741726696387032 0.000392226915801118 0.005076691887608744 -0.00034424735208552886 -0.003280628251060285
 0.9972009578813378 -0.02741726696387032 0.0024234625267390672 0.011321546504018076 -0.00034436056095527566 -0.0032806304476494944 0.0003812356251245636 0.0050778830932503
 0.000392226915801118 0.005076691887608744 -0.00034436056095527566 -0.0032806304476494944 0.0024215241243944856 0.011320988277964003 0.9972009430921295 -0.027418018716153247
 -0.00034424735208552886 -0.003280628251060285 0.0003812356251245636 0.0050778830932503 0.9972009430921295 -0.027418018716153247 0.0024235315034970744 0.011320790584379676
0.06252605252188 0.0026061694095768197 0.01265224733593761 0.996958409744315 -0.030517343873467672 0.00045431523299007727 0.005644952284141535 -0.00039679912127899903 -0.0036505778893105734
 0.996958409744315 -0.030517343873467672 0.002608440862136668 0.012652030722817873 -0.00039693838955229255 -0.003650579148209315 0.0004407392565321529 0.0056464253032598374
 0.00045431523299007727 0.005644952284141535 -0.00039693838955229255 -0.003650579148209315 0.0026060494656921385 0.012651425498326277 0.996958391779556 -0.03051817921797309
 -0.00039679912127899903 -0.0036505778893105734 0.0004407392565321529 0.0056464253032598374 0.996958391779556 -0.03051817921797309 0.0026085264260489564 0.012651191013951752
0.06877865777407 0.002800045318250814 0.013996019944958396 0.9967033651857715 -0.03362881810478288 0.0005212573590856519 0.0062139255387122965 -0.0004533689988136691 -0.004021399985046579
 0.9967033651857715 -0.03362881810478288 0.002802792226871691 0.013995766286426561 -0.00045353694345479523 -0.00402139999175986 0.0005048215142577064 0.00621571975793743
 0.0005212573590856519 0.0062139255387122965 -0.00045353694345479523 -0.00402139999175986 0.002799900500622365 0.013995117594602646 0.9967033437317904 -0.033629737107378314
 -0.0004533689988136691 -0.004021399985046579 0.0005048215142577064 0.00621571975793743 0.9967033437317904 -0.033629737107378314 0.002802896188132397 0.013994842823746051
0.07503126302626001 0.0030034285063890625 0.015352879477421746 0.9964356515308742 -0.03675167922183439 0.0005931033938674796 0.0067835642670957255 -0.0005140079164580179 -0.004393042455153406
 0.9964356515308742 -0.03675167922183439 0.003006695833979668 0.01535258552078982 -0.0005142071351237076 -0.004393040873852995 0.0005735317690006086 0.006785721756967196
 0.0005931033938674796 0.0067835642670957255 -0.0005142071351237076 -0.004393040873852995 0.0030032564746780423 0.015351897040859692 0.9964356262707764 -0.03675268195793882
 -0.0005140079164580179 -0.004393042455153406 0.0005735317690006086 0.006785721756967196 0.9964356262707764 -0.03675268195793882 0.003006820010284389 0.015351578343192807
0.08128386827845 0.0032164979509920343 0.01672266915128861 0.9961550956254659 -0.039885901157798026 0.0006699030123184739 0.0073538191490557184 -0.0005787662979795015 -0.004765452741848837
 0.9961550956254659 -0.039885901157798026 0.0032203306338742183 0.016722331531103057 -0.0005789993692887861 -0.004765449215391173 0.0006469189753444418 0.00735638469671976
 0.0006699030123184739 0.0073538191490557184 -0.0005789993692887861 -0.004765449215391173 0.003216296366059734 0.016721607085957647 0.9961550662392087 -0.039886987717026874
 -0.0005787662979795015 -0.004765452741848837 0.0006469189753444418 0.00735638469671976 0.9961550662392087 -0.039886987717026874 0.003220476850727955 0.01672124067617786
0.08753647353064001 0.0034394323854836724 0.018105239874658847 0.9958615239426244 -0.04303144525909918 0.0007517054285138617 0.007924639095440214 -0.0006476940403388115 -0.005138577638511756
 0.9958615239426244 -0.04303144525909918 0.003443875338629926 0.018104855112701424 -0.0006479635241043247 -0.0051385717884545054 0.0007250316394583643 0.007927660237350823
 0.0007517054285138617 0.007924639095440214 -0.0006479635241043247 -0.0051385717884545054 0.003439198910321561 0.01810409867592102 0.9958614901070045 -0.043032615738692
 -0.0006476940403388115 -0.005138577638511756 0.0007250316394583643 0.007927660237350823 0.9958614901070045 -0.043032615738692 0.0034440454298593783 0.018103680623321856
0.09378907878283 0.0036724103086360218 0.01950044803303293 0.9955547626746044 -0.04618826245438004 0.0008385593612144941 0.008495971363890388 -0.0007208404928178935 -0.0055123631679840366
 0.9955547626746044 -0.04618826245438004 0.0036775084306626877 0.01950001253822848 -0.0007211489301838883 -0.005512354594606148 0.000807917787756577 0.008499498418462821
 0.0008385593612144941 0.008495971363890388 -0.0007211489301838883 -0.005512354594606148 0.003672142608331994 0.01949922822930193 0.9955547240624049 -0.04618951696434466
 -0.0007208404928178935 -0.0055123631679840366 0.000807917787756577 0.008499498418462821 0.9955547240624049 -0.04618951696434466 0.00367770423829721 0.019498754457192784
0.100041684035 0.003915609979613582 0.02090815386617863 0.9952346378128003 -0.04935629483485646 0.0009305130006426821 0.009067761645384788 -0.0007982544344783847 -0.005886754491184036
 0.9952346378128003 -0.04935629483485646 0.00392140815752139 0.02090766393437324 -0.0007986043480210524 -0.0058867427735067555 0.0008956249361664672 0.009071847745559004
 0.0009305130006426821 0.009067761645384788 -0.0007986043480210524 -0.0058867427735067555 0.003915305721703726 0.02090685602379991 0.9952345940927333 -0.049357633493474655
 -0.0007982544344783847 -0.005886754491184036 0.0008956249361664672 0.009071847745559004 0.9952345940927333 -0.049357633493474655 0.0039216315320574355 0.02090632230886251
0.1059090909091 0.004153282213201345 0.022240380801214092 0.994921925425663 -0.052339298990160404 0.0010214823002654737 0.009604693039590934 -0.0008748233727951918 -0.006238582336754897
 0.994921925425663 -0.052339298990160404 0.004159778137892224 0.022239836316101977 -0.0008752144851551207 -0.006238567266695354 0.0009823552910714695 0.009609354604230487
 0.0010214823002654737 0.009604693039590934 -0.0008752144851551207 -0.006238567266695354 0.004152941531390119 0.02223901027307055 0.9949218766071705 -0.052340716732195015
 -0.0008748233727951918 -0.006238582336754897 0.0009823552910714695 0.009609354604230487 0.9949218766071705 -0.052340716732195015 0.004160029071719417 0.022238416335768445
0.1062942892872 0.004169209404442079 0.022328220247112184 0.9949009752213495 -0.052535476833898344 0.001027613976042501 0.009639954127742233 -0.0008799840501477657 -0.0062616958399162904
 0.9949009752213495 -0.052535476833898344 0.004175752518973924 0.02232767206067996 -0.0008803779439986796 -0.006261680535727057 0.000988200060028884 0.009644655253415967
 0.001027613976042501 0.009639954127742233 -0.0008803779439986796 -0.006261680535727057 0.004168866259784632 0.02232684496691765 0.9949009260577367 -0.052536899771453885
 -0.0008799840501477657 -0.0062616958399162904 0.000988200060028884 0.009644655253415967 0.9949009260577367 -0.052536899771453885 0.004176005319613228 0.022326246938418275
0.11254689453939999 0.004433386315945369 0.023760511744628992 0.9945536007042513 -0.055725736124164614 0.0011299093237094968 0.010212491545299594 -0.0009660769055273703 -0.006637130464725627
 0.9945536007042513 -0.055725736124164614 0.004440719246388734 0.023759901372071828 -0.0009665172654011603 -0.006637111110602439 0.001085689563990837 0.010217866555618703
 0.0011299093237094968 0.010212491545299594 -0.0009665172654011603 -0.006637111110602439 0.004433001958893299 0.02375905966343099 0.9945535457569153 -0.05572724348182005
 -0.0009660769055273703 -0.006637130464725627 0.001085689563990837 0.010217866555618703 0.9945535457569153 -0.05572724348182005 0.004441003341134594 0.0237583928022582
0.11879949979160001 0.004708318148024839 0.02520489388855444 0.9941923400698707 -0.05892699431352967 0.001237445455432013 0.010785315217395501 -0.0010565799212713483 -0.007013000595163692
 0.9941923400698707 -0.05892699431352967 0.00471648577722997 0.025204217283842402 -0.0010570692145062104 -0.007012976706503681 0.0011881392520790774 0.010791425882877478
 0.001237445455432013 0.010785315217395501 -0.0010570692145062104 -0.007012976706503681 0.004707890256955287 0.025203365680349896 0.9941922789933307 -0.058928586242404525
 -0.0010565799212713483 -0.007013000595163692 0.0011881392520790774 0.010791425882877478 0.9941922789933307 -0.058928586242404525 0.004716803043080859 0.025202625318024988
0.1250521050438 0.004994182005760094 0.02666123259222017 0.9938170191919258 -0.06213916748505755 0.0013502681268935744 0.011358365078769962 -0.0011515393464022784 -0.007389247409487772
 0.9938170191919258 -0.06213916748505755 0.00500322922524405 0.026660485594120976 -0.0011520800219733105 -0.007389218480533809 0.0012955942978349854 0.011365276113190138
 0.0013502681268935744 0.011358365078769962 -0.0011520800219733105 -0.007389218480533809 0.004993708263806944 0.026659628968300316 0.9938169516355377 -0.062140844146415075
 -0.0011515393464022784 -0.007389247409487772 0.0012955942978349854 0.011365276113190138 0.9938169516355377 -0.062140844146415075 0.005003581548564629 0.026658810285809912
0.131304710296 0.005291154632070632 0.028129393683681635 0.9934274640685287 -0.06536216662977841 0.0014684224064527133 0.01193157970577222 -0.001251000730936023 -0.007765811009780427
 0.9934274640685287 -0.06536216662977841 0.005301126347102468 0.02812857201482962 -0.0012515952194482164 -0.007765776513653615 0.0014080992143770247 0.011939358797856946
 0.0014684224064527133 0.01193157970577222 -0.0012515952194482164 -0.007765776513653615 0.005290632727516764 0.028127715391686223 0.9934273896761582 -0.06536392819619422
 -0.001251000730936023 -0.007765811009780427 0.0014080992143770247 0.011939358797856946 0.9934273896761582 -0.06536392819619422 0.0053015156237059095 0.02812681341812841
0.1375573155481 0.0055228049613688926 0.029418367798140867 0.9931001237182777 -0.06840498497588149 0.0015750160065065577 0.012485459448122271 -0.0013381419662645132 -0.008123151187985412
 0.9931001237182777 -0.06840498497588149 0.0055337501349235745 0.029417487315723516 -0.001338793919428963 -0.008123111209599085 0.0015089001270837351 0.012494082930056901
 0.0015750160065065577 0.012485459448122271 -0.001338793919428963 -0.008123111209599085 0.005522233141563522 0.029416615374086918 0.993100042182216 -0.06840683154248653
 -0.0013381419662645132 -0.008123151187985412 0.0015089001270837351 0.012494082930056901 0.993100042182216 -0.06840683154248653 0.005534177617025823 0.02941564557551953
0.1438099208003 0.005762296949343706 0.030701913772631723 0.992761824528025 -0.07144144393787705 0.0016859072993622647 0.013037776514236675 -0.0014287649911958842 -0.00847907937370714
 0.992761824528025 -0.07144144393787705 0.005774261155750787 0.030700971624217584 -0.0014294770333795385 -0.008479033406178999 0.0016137413066752866 0.013047305081134197
 0.0016859072993622647 0.013037776514236675 -0.0014294770333795385 -0.008479033406178999 0.005761673011256373 0.030700087975242835 0.9927617354935884 -0.0714433756733432
 -0.0014287649911958842 -0.00847907937370714 0.0016137413066752866 0.013047305081134197 0.9927617354935884 -0.0714433756733432 0.005774728635638551 0.0306990468168621
0.1500625260525 0.006009561847926871 0.031979964419201964 0.9924126377644383 -0.07447150846796145 0.001801066679887361 0.013588497516094837 -0.0015228414783766383 -0.008833564098177985
 0.9924126377644383 -0.07447150846796145 0.0060225907073556675 0.03197895760446324 -0.0015236162310972767 -0.008833511614482387 0.0017225942381264413 0.013598994048685554
 0.001801066679887361 0.013588497516094837 -0.0015236162310972767 -0.008833511614482387 0.0060088836000943575 0.031978066037273045 0.9924125408724809 -0.07447352554787856
 -0.0015228414783766383 -0.008833564098177985 0.0017225942381264413 0.013598994048685554 0.9924125408724809 -0.07447352554787856 0.006023099978882381 0.03197694980998765
0.15631513130469998 0.006264530600559331 0.03325245483852086 0.9920526348562058 -0.07749514291809416 0.001920464295788253 0.014137589494359531 -0.0016203428466689165 -0.009186574467734594
