! Created with skrf 1.8.0 (http://scikit-rf.org).
# GHz S RI R 50.0 
!freq ReS11 ImS11 ReS12 ImS12 ReS13 ImS13
! ReS14 ImS14
! ReS21 ImS21 ReS22 ImS22 ReS23 ImS23
! ReS24 ImS24
! ReS31 ImS31 ReS32 ImS32 ReS33 ImS33
! ReS34 ImS34
! ReS41 ImS41 ReS42 ImS42 ReS43 ImS43
! ReS44 ImS44
!
0.0 0.002030634688578 0.0 0.9979693652593 0.0 7.87879026051e-05 0.0 -7.878790337842e-05 9.6487353683913e-21
 0.9979693652593 0.0 0.002030634688581 0.0 -7.878790337779e-05 9.648735368314147e-21 7.878790260783e-05 0.0
 7.87879026051e-05 0.0 -7.878790337779e-05 9.648735368314147e-21 0.002030634714602 0.0 0.9979693652854 0.0
 -7.878790337842e-05 9.6487353683913e-21 7.878790260783e-05 0.0 0.9979693652854 0.0 0.002030634714628 0.0
0.005 0.002186538850914692 0.0016659512336300655 0.9977718347355881 -0.004251361814223126 0.0001104385953201084 0.0008293403119153838 -0.00010733856874947187 -0.000527005858313147
 0.9977718347355881 -0.004251361814223126 0.00218655303003753 0.0016659429948646977 -0.00010734046904688697 -0.0005270073673141774 0.00011034927813461027 0.0008293745093441455
 0.0001104385953201084 0.0008293403119153838 -0.00010734046904688697 -0.0005270073673141774 0.0021865372043716924 0.0016658849723183893 0.9977718343390698 -0.004251428869993476
 -0.00010733856874947187 -0.000527005858313147 0.00011034927813461027 0.0008293745093441455 0.9977718343390698 -0.004251428869993476 0.002186553892899222 0.0016658751525347058
0.006252605252188 0.0022279747126558408 0.002088885730814359 0.9977189242308269 -0.005315149899213386 0.00011976512093975747 0.0010370606278957977 -0.00011563376361890666 -0.0006593972622266969
 0.9977189242308269 -0.005315149899213386 0.002227996876273659 0.0020888752287775525 -0.00011563672017189849 -0.0006593991226870822 0.00011962557586762765 0.0010371050762416317
 0.00011976512093975747 0.0010370606278957977 -0.00011563672017189849 -0.0006593991226870822 0.0022279722065917233 0.0020888029229378454 0.9977189236791268 -0.005315233711810746
 -0.00011563376361890666 -0.0006593972622266969 0.00011962557586762765 0.0010371050762416317 0.9977189236791268 -0.005315233711810746 0.0022279982940316438 0.0020887904292347897
0.01250521050438 0.002449284013826083 0.004220460213707062 0.997434102626149 -0.010630372301390682 0.00017475028610658793 0.002074330198662352 -0.00016395550634217652 -0.0013215956102709124
 0.997434102626149 -0.010630372301390682 0.0024493725029681823 0.004220437139332681 -0.00016396715192338427 -0.0013215990423699983 0.00017419392315992825 0.0020744378277158058
 0.00017475028610658793 0.002074330198662352 -0.00016396715192338427 -0.0013215990423699983 0.002449274564535332 0.004220294973839324 0.9974341009845524 -0.010630539709673004
 -0.00016395550634217652 -0.0013215956102709124 0.00017419392315992825 0.0020744378277158058 0.9974341009845524 -0.010630539709673004 0.002449378737724821 0.004220267729952995
0.01875781575657 0.002695155915068639 0.006381228382142366 0.9971144690326936 -0.01595845443202281 0.00024388639153649427 0.003112366295175045 -0.00022392146806093823 -0.001985607907764058
 0.9971144690326936 -0.01595845443202281 0.0026953547369110613 0.006381190486715513 -0.00022394742858902687 -0.001985612553277574 0.00024263685875837034 0.0031125603583038557
 0.00024388639153649427 0.003112366295175045 -0.00022394742858902687 -0.001985612553277574 0.002695135099221686 0.0063809810559271535 0.9971144657659885 -0.015958705363645416
 -0.00022392146806093823 -0.001985607907764058 0.00024263685875837034 0.0031125603583038557 0.9971144657659885 -0.015958705363645416 0.00269536919520794 0.006380936530712234
0.02501042100875 0.0029661587761164315 0.008568028576905105 0.9967595723805261 -0.021301826651080883 0.00032731722317563827 0.004151105273884938 -0.0002956920351038618 -0.0026510560289546054
 0.9967595723805261 -0.021301826651080883 0.0029665118429032396 0.008567973446314086 -0.00029573786481716825 -0.002651061454700464 0.0003250982838877575 0.004151413424418174
 0.00032731722317563827 0.004151105273884938 -0.00029573786481716825 -0.002651061454700464 0.0029661221720110975 0.008567699558791534 0.99675956694667 -0.021302161098000517
 -0.0002956920351038618 -0.0026510560289546054 0.0003250982838877575 0.004151413424418174 0.99675956694667 -0.021302161098000517 0.002966537935146696 0.008567634962353859
0.03126302626094 0.003262836654396963 0.010779157508656228 0.9963689432988005 -0.02666143753856224 0.0004251851544760703 0.005190390196783927 -0.00037942113113520216 -0.0033176429860415917
 0.9963689432988005 -0.02666143753856224 0.0032633878103453134 0.01077908256559495 -0.00037949232409419483 -0.0033176486833276023 0.00042172046218794454 0.0051908445122516534
 0.0004251851544760703 0.005190390196783927 -0.00037949232409419483 -0.0033176486833276023 0.003262779848761201 0.010778747272990706 0.9963689351548317 -0.026661855526397885
 -0.00037942113113520216 -0.0033176429860415917 0.00042172046218794454 0.0051908445122516534 0.9963689351548317 -0.026661855526397885 0.0032634289598729754 0.010778659558429937
0.037515631513130004 0.0035857198069573033 0.01301344687807824 0.9959421052552324 -0.0320376772554301 0.0005376296674939698 0.0062300257027063525 -0.00047525719477404003 -0.003985098160410922
 0.9959421052552324 -0.0320376772554301 0.0035865128484968718 0.01301334938269044 -0.0004753591906379467 -0.003985103544995923 0.0005326426845541083 0.006230662723917122
 0.0005376296674939698 0.0062300257027063525 -0.0004753591906379467 -0.003985103544995923 0.0035856383929420096 0.013012955981609823 0.9959420938530152 -0.03203817884182989
 -0.00047525719477404003 -0.003985098160410922 0.0005326426845541083 0.006230662723917122 0.9959420938530152 -0.03203817884182989 0.00358657249006772 0.01301284184441951
0.043768236765320004 0.003935328694464531 0.01526998239617095 0.9954785791990898 -0.03743065849108574 0.0006647865951518972 0.007269794738104032 -0.0005833434740047244 -0.004653160682316019
 0.9954785791990898 -0.03743065849108574 0.0039364073865150425 0.015269859445948199 -0.0005834816613234446 -0.004653165094491343 0.0006580005735029873 0.007270655512741659
 0.0006647865951518972 0.007269794738104032 -0.0005834816613234446 -0.004653165094491343 0.003935218272968937 0.015269411483607559 0.9954785639849735 -0.03743124376104531
 -0.0005833434740047244 -0.004653160682316019 0.0006580005735029873 0.007270655512741659 0.9954785639849735 -0.03743124376104531 0.003936488967622882 0.01526926736033097
0.050020842017509996 0.004312175776600538 0.017547987699242377 0.9949778860032981 -0.0428403325199033 0.000806787629255581 0.008309465498688806 -0.0007038180667384141 -0.005321572611116159
 0.9949778860032981 -0.0428403325199033 0.004313583867139614 0.017547836228241912 -0.000703997784970681 -0.005321575315816598 0.0007979256242948687 0.008310595626169872
 0.000806787629255581 0.008309465498688806 -0.000703997784970681 -0.005321575315816598 0.00431203195677273 0.017547337508994648 0.9949778664159424 -0.04284100158079292
 -0.0007038180667384141 -0.005321572611116159 0.0007979256242948687 0.008310595626169872 0.9949778664159424 -0.04284100158079292 0.0043136908481080675 0.017547159575072566
0.055454545454549996 0.004662180683188195 0.019544537928937254 0.9945122131266673 -0.04755494277877017 0.000942344947545363 0.009212702511994453 -0.0008186782987646553 -0.005902526013684169
 0.9945122131266673 -0.04755494277877017 0.004663910557289541 0.01954435905455741 -0.0008188984077526885 -0.0059025265791502355 0.0009314538102445154 0.00921410731657885
 0.000942344947545363 0.009212702511994453 -0.0008188984077526885 -0.0059025265791502355 0.0046620042815162695 0.01954381951596844 0.9945121892765845 -0.047555684762082065
 -0.0008186782987646553 -0.005902526013684169 0.0009314538102445154 0.00921410731657885 0.9945121892765845 -0.047555684762082065 0.004664042432847694 0.019543608888742577
0.056273447269699996 0.004716766369929989 0.01984676737310375 0.9944395479762006 -0.04826654615940226 0.0009637599413641748 0.00934879487084609 -0.0008368138527576097 -0.005990075629057595
 0.9944395479762006 -0.04826654615940226 0.004718547604256637 0.019846584150467333 -0.0008370403935336853 -0.005990075815998298 0.0009525448462695768 0.009350244547369109
 0.0009637599413641748 0.00934879487084609 -0.0008370403935336853 -0.005990075815998298 0.004716584771761653 0.019846038735910964 0.9944395234464071 -0.04826729914305025
 -0.0008368138527576097 -0.005990075629057595 0.0009525448462695768 0.009350244547369109 0.9944395234464071 -0.04826729914305025 0.004718683460078947 0.019845822902949065
0.06252605252188 0.005149599043940916 0.022165675675171862 0.993863089918212 -0.053709073044820754 0.0011358258613354112 0.010387530361746196 -0.0009824583697207949 -0.006658409261099841
 0.993863089918212 -0.053709073044820754 0.0051517971784192556 0.02216545730309794 -0.00098273697767584 -0.006658406044913898 0.001121980455189691 0.010389354424810586
 0.0011358258613354112 0.010387530361746196 -0.00098273697767584 -0.006658406044913898 0.00514937529882724 0.02216486951614123 0.9938630598665859 -0.05370991010620894
 -0.0009824583697207949 -0.006658409261099841 0.001121980455189691 0.010389354424810586 0.9938630598665859 -0.05370991010620894 0.005151965397925049 0.022164611428548548
0.06877865777407 0.0056111657598741345 0.0245040978925677 0.9932480399276896 -0.05916763228437715 0.0013231025899907095 0.011425411280962125 -0.0011408736562482638 -0.007326309858711776
 0.9932480399276896 -0.05916763228437715 0.005613824574674052 0.024503840803754447 -0.0011412095293757362 -0.007326302279120178 0.0013063495955690904 0.011427669253123185
 0.0013231025899907095 0.011425411280962125 -0.0011412095293757362 -0.007326302279120178 0.005610895513326502 0.024503215230013732 0.9932480037651544 -0.059168553603456644
 -0.0011408736562482638 -0.007326309858711776 0.0013063495955690904 0.011427669253123185 0.9932480037651544 -0.059168553603456644 0.005614028662914702 0.02450291026099857
0.07503126302626001 0.006101951858064947 0.026861438561608404 0.9925939300630995 -0.06464190027135243 0.0015257019303133255 0.012462169534814523 -0.0013121760767815808 -0.007993509987253407
 0.9925939300630995 -0.06464190027135243 0.006105115170682038 0.026861139015922523 -0.0013125743666831788 -0.007993497009217284 0.0015057640798241208 0.012464925666225868
 0.0015257019303133255 0.012462169534814523 -0.0013125743666831788 -0.007993497009217284 0.0061016307715373915 0.02686048051054569 0.9925938871890709 -0.06464290605006333
 -0.0013121760767815808 -0.007993509987253407 0.0015057640798241208 0.012464925666225868 0.9925938871890709 -0.06464290605006333 0.006105358649172691 0.02686012375757462
0.08128386827845 0.006622435950908761 0.02923711364910345 0.9919002969147848 -0.0701315185534937 0.0017437300330298568 0.013497530184446426 -0.0014964761334764337 -0.008659738066172923
 0.9919002969147848 -0.0701315185534937 0.006626147629313524 0.029236767729730356 -0.0014969419454513451 -0.008659718580061416 0.001720330139639886 0.013500853494159852
 0.0017437300330298568 0.013497530184446426 -0.0014969419454513451 -0.008659718580061416 0.00662205970332204 0.0292360814208114 0.9919002467156458 -0.07013260901669154
 -0.0014964761334764337 -0.008659738066172923 0.001720330139639886 0.013500853494159852 0.9919002467156458 -0.07013260901669154 0.006626434035732812 0.029235667700377818
0.08753647353064001 0.007173089750249092 0.03163054517267861 0.9911666821168529 -0.07563609928356338 0.001977287150470204 0.014531211874834664 -0.0016938782711662412 -0.009324718155376584
 0.9911666821168529 -0.07563609928356338 0.0071773937253602 0.0316301487815634 -0.001694416663999639 -0.009324690977151665 0.0019501481848844347 0.014535176190643137
 0.001977287150470204 0.014531211874834664 -0.001694416663999639 -0.009324690977151665 0.00717265404007321 0.031629440078614526 0.991166623965241 -0.07563727467546284
 -0.0016938782711662412 -0.009324718155376584 0.0019501481848844347 0.014535176190643137 0.991166623965241 -0.07563727467546284 0.007177726615022077 0.031628963920452245
0.09378907878283 0.0077543778512449354 0.034041157396541566 0.9903926328201504 -0.08115522911517427 0.0022264673978653706 0.015562927177896826 -0.001904480676692505 -0.009988169844879994
 0.9903926328201504 -0.08115522911517427 0.0077593181300183505 0.034040706249231174 -0.0019050966624981317 -0.009988133716280228 0.0021953125691819082 0.015567611174575748
 0.0022264673978653706 0.015562927177896826 -0.0019050966624981317 -0.009988133716280228 0.007753878398615825 0.03403998084133231 0.9903925660736476 -0.0811564897066716
 -0.001904480676692505 -0.009988169844879994 0.0021953125691819082 0.015567611174575748 0.9903925660736476 -0.0811564897066716 0.007759701076211804 0.034039436481882755
0.100041684035 0.008366757485597922 0.036468374050704556 0.9895777021380132 -0.08668847209653913 0.00249135851954231 0.01659238288626569 -0.0021283750760272115 -0.010649808211390327
 0.9895777021380132 -0.08668847209653913 0.008372378163807195 0.03646786367046083 -0.0021290736199060037 -0.010649761800148075 0.0024559113599807946 0.016597870122107675
 0.00249135851954231 0.01659238288626569 -0.0021290736199060037 -0.010649761800148075 0.00836619003445674 0.036467127541391094 0.9895776261382492 -0.08668981817621678
 -0.0021283750760272115 -0.010649808211390327 0.0024559113599807946 0.016597870122107675 0.9895776261382492 -0.08668981817621678 0.008372814758532188 0.036466508916712326
0.1059090909091 0.00897008883156077 0.03876064539999818 0.9887754024781368 -0.09189326323379662 0.002754291980902637 0.01755609676941742 -0.0023506410060489154 -0.011268778686009642
 0.9887754024781368 -0.09189326323379662 0.008976388187831306 0.038760075187268136 -0.002351421495482204 -0.011268721348138026 0.0027145658447585244 0.017562418136080556
 0.002754291980902637 0.01755609676941742 -0.002351421495482204 -0.011268721348138026 0.008969453723404111 0.03875933470402254 0.9887753171809077 -0.09189468981732023
 -0.0023506410060489154 -0.011268778686009642 0.0027145658447585244 0.017562418136080556 0.9887753171809077 -0.09189468981732023 0.008976878409593138 0.03875864059976838
0.1062942892872 0.009010678250726687 0.03891161629149293 0.9887214495709669 -0.09223537184501851 0.002772041660289412 0.01761928027037731 -0.002365646529328325 -0.011309343829478
 0.9887214495709669 -0.09223537184501851 0.009017023526157946 0.0389110420026582 -0.0023664325490488176 -0.011309285729490791 0.002732026113190621 0.017625659221878708
 0.002772041660289412 0.01761928027037731 -0.0023664325490488176 -0.011309285729490791 0.009010038571074882 0.03891030143284901 0.988721363642191 -0.09223680372385883
 -0.002365646529328325 -0.011309343829478 0.002732026113190621 0.017625659221878708 0.988721363642191 -0.09223680372385883 0.00901751738022613 0.038909602170773
0.11254689453939999 0.009686581823793627 0.04137030116360152 0.9878234414183008 -0.09779545324229898 0.0030685911408884223 0.018643315316313226 -0.002616373226100717 -0.011966482819861356
 0.9878234414183008 -0.09779545324229898 0.009693696008397533 0.04136965808434471 -0.0026172515916045237 -0.011966411551451336 0.0030237316514578564 0.01865067941107685
 0.0030685911408884223 0.018643315316313226 -0.0026172515916045237 -0.011966411551451336 0.009685865713725228 0.041368919658916446 0.9878233448661546 -0.0977969712528994
 -0.002616373226100717 -0.011966482819861356 0.0030237316514578564 0.01865067941107685 0.9878233448661546 -0.0977969712528994 0.009694250752518318 0.04136813307057126
0.11879949979160001 0.010394901661038188 0.04384384042868292 0.9868832511762284 -0.10336822378587442 0.0033810742376013353 0.019664178954265643 -0.002880626280479092 -0.012620926925345947
 0.9868832511762284 -0.10336822378587442 0.010402829194135255 0.043843123462952285 -0.002881601813459998 -0.012620840935484608 0.003331095846807042 0.019672626601735677
 0.0033810742376013353 0.019664178954265643 -0.002881601813459998 -0.012620840935484608 0.01039410494909823 0.04384239408375469 0.9868831432867713 -0.10336982827840087
 -0.002880626280479092 -0.012620926925345947 0.003331095846807042 0.019672626601735677 0.9868831432867713 -0.10336982827840087 0.010403448479216705 0.043841513154269644
0.1250521050438 0.011136062689565043 0.046331639686405704 0.9859004599292206 -0.10895317467114711 0.0037095509659514784 0.02068155727551781 -0.003158469528221985 -0.013272373616385858
 0.9859004599292206 -0.10895317467114711 0.011144848150104265 0.04633084351521729 -0.003159547001580703 -0.013272271278920895 0.003654179406589432 0.02069119189577507
 0.0037095509659514784 0.02068155727551781 -0.003159547001580703 -0.013272271278920895 0.011135181236902448 0.04633013040297558 0.9859003399677128 -0.10895486601971595
 -0.003158469528221985 -0.013272373616385858 0.003654179406589432 0.02069119189577507 0.9859003399677128 -0.10895486601971595 0.011145535647396978 0.046329147781732145
0.131304710296 0.011910480990455297 0.04883309768868951 0.9848746567323258 -0.11454978170400062 0.004054073868481732 0.021695131751046665 -0.00344995932546183 -0.013920516213321524
 0.9848746567323258 -0.11454978170400062 0.011920169109354365 0.048832216760537464 -0.0034511434627220294 -0.013920395829253482 0.003993035663864987 0.021706061801336593
 0.004054073868481732 0.021695131751046665 -0.0034511434627220294 -0.013920395829253482 0.011909510693190828 0.04883152746989706 0.9848745239418368 -0.11455156030078564
 -0.00344995932546183 -0.013920516213321524 0.003993035663864987 0.021706061801336593 0.9848745239418368 -0.11455156030078564 0.011920928511599918 0.048830435459760534
0.1375573155481 0.012559283105438525 0.05102491441816757 0.9839648221107367 -0.1198345589871341 0.004376404596265127 0.02267528744784892 -0.0037169342622710893 -0.014535728351940749
 0.9839648221107367 -0.1198345589871341 0.012569923157158401 0.05102396219724903 -0.0037182323225506578 -0.014535589447756183 0.004309558577312461 0.022687514028361545
 0.004376404596265127 0.02267528744784892 -0.0037182323225506578 -0.014535589447756183 0.012558220717567863 0.05102328472139704 0.98396467588158 -0.1198364250418948
 -0.0037169342622710893 -0.014535728351940749 0.004309558577312461 0.022687514028361545 0.98396467588158 -0.1198364250418948 0.012570757038803781 0.05102209545280372
0.1438099208003 0.013231376739769641 0.053201603282435464 0.9830219728763129 -0.1251022646684332 0.004711570502153584 0.023649162075483683 -0.0039943662309467505 -0.015145184418211687
 0.9830219728763129 -0.1251022646684332 0.013243014341511839 0.05320057521100722 -0.003995783321925614 -0.015145025281977002 0.004638668083703608 0.023662786070944457
 0.004711570502153584 0.023649162075483683 -0.003995783321925614 -0.015145025281977002 0.013230218359093602 0.05319991613335875 0.9830218124512852 -0.12510421855723602
 -0.0039943662309467505 -0.015145184418211687 0.004638668083703608 0.023662786070944457 0.9830218124512852 -0.12510421855723602 0.013243926224809348 0.05319862292801637
0.1500625260525 0.013926462818773473 0.05536287608229767 0.9820464136997719 -0.1303526586137956 0.0050594141658518955 0.02461658413876482 -0.004282102641082568 -0.015748726292356838
 0.9820464136997719 -0.1303526586137956 0.013939143751843944 0.05536176730622509 -0.0042836438531951805 -0.015748545142504514 0.004980209018318293 0.024631710086273507
 0.0050594141658518955 0.02461658413876482 -0.0042836438531951805 -0.015748545142504514 0.013925204586146822 0.05536113358337983 0.9820462383030804 -0.13035470072501307
 -0.004282102641082568 -0.015748726292356838 0.004980209018318293 0.024631710086273507 0.9820462383030804 -0.13035470072501307 0.013940137166641895 0.055359729383375994
0.15631513130469998 0.014644239414377931 0.057508453393911495 0.9810384516019561 -0.1355855042596109 0.005419775901198824 0.025577386130749186 -0.004579988671024411 -0.016346200112561254
 0.9810384516019561 -0.1355855042596109 0.014658009626793657 0.057507258753299054 -0.004581659076841599 -0.01634599509826868 0.005334023995822553 0.025594122166763936
