! Created with skrf 1.8.0 (http://scikit-rf.org).
# GHz S RI R 50.0 
!freq ReS11 ImS11 ReS12 ImS12 ReS13 ImS13
! ReS14 ImS14
! ReS21 ImS21 ReS22 ImS22 ReS23 ImS23
! ReS24 ImS24
! ReS31 ImS31 ReS32 ImS32 ReS33 ImS33
! ReS34 ImS34
! ReS41 ImS41 ReS42 ImS42 ReS43 ImS43
! ReS44 ImS44
!
0.0 0.001449376015095 0.0 0.9985506239505 0.0 5.554222192227e-05 0.0 -5.554222148408e-05 6.801960375801192e-21
 0.9985506239505 0.0 0.001449376015085 0.0 -5.554222148398e-05 6.801960375788946e-21 5.55422219229e-05 0.0
 5.554222192227e-05 0.0 -5.554222148398e-05 6.801960375788946e-21 0.001449376030911 0.0 0.9985506239663 0.0
 -5.554222148408e-05 6.801960375801192e-21 5.55422219229e-05 0.0 0.9985506239663 0.0 0.001449376030908 0.0
0.005 0.0015591106033260391 0.0011897160492441744 0.9984118629913308 -0.003036177951343109 7.702901908212065e-05 0.0005889035706473996 -7.502282391543718e-05 -0.0003737107627095682
 0.9984118629913308 -0.003036177951343109 0.0015591065386352445 0.0011897183641009419 -7.502372126789489e-05 -0.00037371137864218595 7.706317948511114e-05 0.0005888907179780519
 7.702901908212065e-05 0.0005889035706473996 -7.502372126789489e-05 -0.00037371137864218595 0.0015591108745233169 0.0011897831035615884 0.9984118633433693 -0.0030361108879930804
 -7.502282391543718e-05 -0.0003737107627095682 7.706317948511114e-05 0.0005888907179780519 0.9984118633433693 -0.0030361108879930804 0.00155910696511573 0.0011897854309188484
0.006252605252188 0.0015878141043344982 0.0014918181721791676 0.9983753551324781 -0.003795975435128566 8.3107507151012e-05 0.000736431330565199 -8.048182082511708e-05 -0.0004676206882715384
 0.9983753551324781 -0.003795975435128566 0.0015878077506396861 0.0014918210662967842 -8.04832177691559e-05 -0.0004676214462419242 8.31608815862209e-05 0.0007364146217779741
 8.3107507151012e-05 0.000736431330565199 -8.04832177691559e-05 -0.0004676214462419242 0.0015878144489283302 0.0014919019781592254 0.998375355602997 -0.003795891608635446
 -8.048182082511708e-05 -0.0004676206882715384 8.31608815862209e-05 0.0007364146217779741 0.998375355602997 -0.003795891608635446 0.0015878083371180748 0.001491904900888027
0.01250521050438 0.0017384696240124048 0.003014860231776212 0.9981825564587248 -0.00759281063752551 0.00011764939342349452 0.001473328312272683 -0.00011123477038230057 -0.0009375343921342328
 0.9981825564587248 -0.00759281063752551 0.0017384442604855077 0.0030148660167089152 -0.00011124028294060932 -0.0009375357768166376 0.00011786229839509626 0.0014732880024905268
 0.00011764939342349452 0.001473328312272683 -0.00011124028294060932 -0.0009375357768166376 0.001738470453065997 0.003015027480732158 0.9981825577853728 -0.007592643236247893
 -0.00011123477038230057 -0.0009375343921342328 0.00011786229839509626 0.0014732880024905268 0.9981825577853728 -0.007592643236247893 0.0017384460394738205 0.0030150334544458094
0.01875781575657 0.00190165560230075 0.0045596065421024245 0.997971999493362 -0.011399758659080446 0.00015924666645849629 0.002211168454272346 -0.00014789181122093007 -0.0014091061484697122
 0.997971999493362 -0.011399758659080446 0.0019015986262494672 0.004559615210366483 -0.00014790411478500377 -0.0014091080020453616 0.00015972507647068625 0.002211096394390451
 0.00015924666645849629 0.002211168454272346 -0.00014790411478500377 -0.0014091080020453616 0.0019016570599051266 0.004559857018758042 0.9979720020595572 -0.01139950773853985
 -0.00014789181122093007 -0.0014091061484697122 0.00015972507647068625 0.002211096394390451 0.9979720020595572 -0.01139950773853985 0.0019016021866992154 0.004559866173050062
0.02501042100875 0.0020776766840570333 0.006123920727418034 0.997743447187684 -0.01521868047542597 0.00020797881258083058 0.002949986843278431 -0.0001905411352091846 -0.001882138719939834
 0.997743447187684 -0.01521868047542597 0.002077575527759231 0.006123932260067669 -0.0001905628767601138 -0.0018821408555143397 0.0002088288294381525 0.0029498736657509253
 0.00020797881258083058 0.002949986843278431 -0.0001905628767601138 -0.0018821408555143397 0.002077678917486033 0.006124254191879685 0.9977434513758933 -0.015218346066583585
 -0.0001905411352091846 -0.001882138719939834 0.0002088288294381525 0.0029498736657509253 0.9977434513758933 -0.015218346066583585 0.0020775814425109517 0.006124266651426709
0.03126302626094 0.002266824883823349 0.007706711859702547 0.9974966498278508 -0.019050382762929266 0.0002639257001663793 0.003689753813611868 -0.00023926869408905045 -0.0023564949547896486
 0.9974966498278508 -0.019050382762929266 0.0022666670061074912 0.007706726224181984 -0.00023930249706789286 -0.0023564971560086 0.0002652536498419505 0.003689588923321511
 0.0002639257001663793 0.003689753813611868 -0.00023930249706789286 -0.0023564971560086 0.0022668280449116155 0.007707128059323161 0.9974966560229293 -0.01904996485993609
 -0.00023926869408905045 -0.0023564949547896486 0.0002652536498419505 0.003689588923321511 0.9974966560229293 -0.01904996485993609 0.002266675834641043 0.007707143942071811
0.037515631513130004 0.002469386038121964 0.009307275060830714 0.9972313516657662 -0.02289527723667431 0.0003271668986673623 0.004430414176689656 -0.0002941587886378299 -0.0028320585563312204
 0.9972313516657662 -0.02289527723667431 0.0024691589184514568 0.009307292209488414 -0.00029420725545552766 -0.0028320605772175302 0.0003290793758541827 0.004430185737000538
 0.0003271668986673623 0.004430414176689656 -0.00029420725545552766 -0.0028320605772175302 0.0024693902831635804 0.00930777372070356 0.9972313602554399 -0.022894775805913065
 -0.0002941587886378299 -0.0028320585563312204 0.0003290793758541827 0.004430185737000538 0.9972313602554399 -0.022894775805913065 0.002469171207033678 0.00930779313671232
0.043768236765320004 0.002685642300247783 0.010925090834985588 0.9969472935902925 -0.02675358125012016 0.00039778135790456204 0.005171899145521848 -0.00035529428079251465 -0.0033087221544671826
 0.9969472935902925 -0.02675358125012016 0.002685333433529798 0.010925110704034431 -0.0003553599941835241 -0.0033087237193163534 0.0004003852480634531 0.005171594062832158
 0.00039778135790456204 0.005171899145521848 -0.0003553599941835241 -0.0033087237193163534 0.0026856477887740537 0.010925671643234625 0.9969473049659802 -0.02675299624466349
 -0.00035529428079251465 -0.0033087221544671826 0.0004003852480634531 0.005171594062832158 0.9969473049659802 -0.02675299624466349 0.0026853497150563814 0.010925694693831922
0.050020842017509996 0.0029158733023408874 0.012559742123334296 0.9966442144696317 -0.030625400670877916 0.000475847212825356 0.005914131261104525 -0.00042275667301078663 -0.003786382375916242
 0.9966442144696317 -0.030625400670877916 0.0029154701946082196 0.012559764631894742 -0.0004228421969625252 -0.003786383179219969 0.0004792497024613639 0.005913735168744398
 0.000475847212825356 0.005914131261104525 -0.0004228421969625252 -0.003786383179219969 0.002915880195288662 0.01256040473901774 0.9966442290255656 -0.03062473202216918
 -0.00042275667301078663 -0.003786382375916242 0.0004792497024613639 0.005913735168744398 0.9966442290255656 -0.03062473202216918 0.002915490986770516 0.012560431516077391
0.055454545454549996 0.0031275159460571237 0.01399369905712026 0.9963651783690531 -0.03400113375590472 0.0005498002193081122 0.006559695345114173 -0.0004865840442336814 -0.004202213893321565
 0.9963651783690531 -0.03400113375590472 0.0031270207987617715 0.013993723779962266 -0.0004866888522466519 -0.004202213763506261 0.0005539840009194313 0.006559207494037018
 0.0005498002193081122 0.006559695345114173 -0.0004866888522466519 -0.004202213763506261 0.003127524191596786 0.01399443246532532 0.9963651960125245 -0.03400039234715207
 -0.0004865840442336814 -0.004202213893321565 0.0005539840009194313 0.006559207494037018 0.9963651960125245 -0.03400039234715207 0.0031270459203748776 0.013994462547622972
0.056273447269699996 0.0031603567579030867 0.014210873596191139 0.9963218519365237 -0.03451077051913751 0.0005614416446325133 0.006657026805635532 -0.0004966261272891878 -0.004264937429464004
 0.9963218519365237 -0.03451077051913751 0.0031598469219688706 0.014210898645535642 -0.00049673400753973 -0.004264937135837633 0.0005657502244768694 0.006656524047471914
 0.0005614416446325133 0.006657026805635532 -0.00049673400753973 -0.004264937135837633 0.003160365217938241 0.01421161764869276 0.9963218700717221 -0.034510018137320284
 -0.0004966261272891878 -0.004264937429464004 0.0005657502244768694 0.006656524047471914 0.9963218700717221 -0.034510018137320284 0.003159872728386748 0.01421164823404609
0.06252605252188 0.0034193687884912817 0.01587816928896296 0.9959799429005664 -0.03840967726426871 0.0006546407699723554 0.0074004971319149284 -0.0005769814531910475 -0.004744285777489697
 0.9959799429005664 -0.03840967726426871 0.003418739739788757 0.015878196761813745 -0.0005771142176079123 -0.004744284021614679 0.0006599632334387042 0.007399870745789433
 0.0006546407699723554 0.0074004971319149284 -0.0005771142176079123 -0.004744284021614679 0.0034193789789419265 0.01587899437096787 0.9959799650185475 -0.03840884104490651
 -0.0005769814531910475 -0.004744285777489697 0.0006599632334387042 0.007399870745789433 0.9959799650185475 -0.03840884104490651 0.0034187710490143114 0.01587902883599072
0.06877865777407 0.003693184102949352 0.01756133923730286 0.9956182239162885 -0.042322072124542184 0.000755519545548318 0.0081444494548743 -0.0006639000782454615 -0.005224325348149771
 0.9956182239162885 -0.042322072124542184 0.0036924233555227135 0.017561368997333668 -0.0006640602369767683 -0.005224321734719251 0.0007619639838395119 0.008143681156028789
 0.000755519545548318 0.0081444494548743 -0.0006640602369767683 -0.005224321734719251 0.0036931961867696073 0.017562244906945173 0.9956182504261364 -0.042321151946247144
 -0.0006639000782454615 -0.005224325348149771 0.0007619639838395119 0.008143681156028789 0.9956182504261364 -0.042321151946247144 0.003692460640693154 0.017562283312134983
0.07503126302626001 0.003982076086132875 0.019260111028016582 0.9952364314641873 -0.046247879454123626 0.000864151681304615 0.008888787353284744 -0.0007574580078106484 -0.005704953040483118
 0.9952364314641873 -0.046247879454123626 0.003981171148502472 0.01926014291942602 -0.0007576480533946276 -0.00570494714415865 0.0008718264759674161 0.008887857517752236
 0.000864151681304615 0.008888787353284744 -0.0007576480533946276 -0.00570494714415865 0.003982090225111838 0.019261096811101993 0.9952364627807705 -0.04624687517604395
 -0.0007574580078106484 -0.005704953040483118 0.0008718264759674161 0.008887857517752236 0.9952364627807705 -0.04624687517604395 0.0039812148667691975 0.01926113920587921
0.08128386827845 0.004286316833127482 0.020974224167720122 0.9948343021803463 -0.05018700231558434 0.0009806095597816727 0.009633411108699298 -0.0008577297769771751 -0.006186064395478759
 0.9948343021803463 -0.05018700231558434 0.004285255204362868 0.02097425801486893 -0.0008579521843494442 -0.006186055760838485 0.0009896233734697428 0.009632298756785038
 0.0009806095597816727 0.009633411108699298 -0.0008579521843494442 -0.006186055760838485 0.004286333187541186 0.02097528955271822 0.9948343387252127 -0.0501859137822922
 -0.0008577297769771751 -0.006186064395478759 0.0009896233734697428 0.009632298756785038 0.9948343387252127 -0.0501859137822922 0.004285305796956509 0.02097533597525981
0.08753647353064001 0.004606177146904732 0.022703426185451084 0.9944115730523378 -0.05413932632213646 0.0011049641582942568 0.010378217939887737 -0.0009647883981891147 -0.006667553375082232
 0.9944115730523378 -0.05413932632213646 0.004604946312465246 0.022703461792688936 -0.0009650456246257854 -0.00666754151659174 0.0011154259239699361 0.010376900719690019
 0.0011049641582942568 0.010378217939887737 -0.0009650456246257854 -0.00666754151659174 0.004606195874141767 0.02270457062618388 0.9944116152539378 -0.054138153360714245
 -0.0009647883981891147 -0.006667553375082232 0.0011154259239699361 0.010376900719690019 0.9944116152539378 -0.054138153360714245 0.004605004203681164 0.022704621103349483
0.09378907878283 0.004941926510220358 0.02444746984881067 0.9939679815926199 -0.05810472237010795 0.0012372849737565272 0.011123102175686888 -0.0010787053048866907 -0.007149312206278479
 0.9939679815926199 -0.05810472237010795 0.0049405139378150545 0.02444750700037098 -0.001078999789889231 -0.007149296608256023 0.0012493038824633858 0.011121556346740306
 0.0012372849737565272 0.011123102175686888 -0.001078999789889231 -0.007149296608256023 0.004941947763974494 0.02444869276418211 0.9939680298872106 -0.058103464790306335
 -0.0010787053048866907 -0.007149312206278479 0.0012493038824633858 0.011121556346740306 0.9939680298872106 -0.058103464790306335 0.004940579534777063 0.024448747311614137
0.100041684035 0.0052938330391485 0.02620611112603998 0.9935032659966214 -0.06208304862948694 0.0013776399489663813 0.011867955382823706 -0.0011995502922623705 -0.007631231273843051
 0.9935032659966214 -0.06208304862948694 0.005292226174869904 0.026206149586039163 -0.0011998844574609582 -0.007631211390430827 0.001391325436631407 0.011866155799892456
 0.0013776399489663813 0.011867955382823706 -0.0011998844574609582 -0.007631211390430827 0.005293856968983619 0.026207411896903152 0.993503320828794 -0.06208170622671369
 -0.0011995502922623705 -0.007631231273843051 0.001391325436631407 0.011866155799892456 0.993503320828794 -0.06208170622671369 0.005292299867056708 0.026207470519177486
0.1059090909091 0.0056389923414163785 0.027869469890563586 0.9930477350462048 -0.0658279095515112 0.0015167142813781378 0.012566793971878435 -0.0013193121909524455 -0.008083507607757202
 0.9930477350462048 -0.0658279095515112 0.005637191713967184 0.02786950934609723 -0.0013196857781514642 -0.008083483179612487 0.0015320634128857863 0.01256473213293576
 0.0015167142813781378 0.012566793971878435 -0.0013196857781514642 -0.008083483179612487 0.0056390189135938264 0.027870843127920496 0.9930477964252546 -0.06582648734812482
 -0.0013193121909524455 -0.008083507607757202 0.0015320634128857863 0.01256473213293576 0.9930477964252546 -0.06582648734812482 0.005637273340588097 0.027870905568586582
0.1062942892872 0.005662163423700838 0.02797910764898451 0.9930171652907814 -0.06607415203786572 0.0015260953995854358 0.012612666469722587 -0.0013273914564242864 -0.008113199040878163
 0.9930171652907814 -0.06607415203786572 0.005660349687452433 0.02797914716160247 -0.0013277677053660072 -0.008113174296023744 0.0015415571326478532 0.012610586566688174
 0.0015260953995854358 0.012612666469722587 -0.0013277677053660072 -0.008113174296023744 0.00566219017363787 0.02798048562332915 0.9930172271137743 -0.06607272458797075
 -0.0013273914564242864 -0.008113199040878163 0.0015415571326478532 0.012610586566688174 0.9930172271137743 -0.06607272458797075 0.0056604318460695075 0.027980548314280523
0.11254689453939999 0.006047182857345864 0.029766217541947988 0.9925094194719475 -0.0700778694328508 0.0016827159420661458 0.013357121766927455 -0.001462295131258783 -0.008595101996495878
 0.9925094194719475 -0.0700778694328508 0.006045149639065197 0.029766257831675212 -0.001462715849242384 -0.008595071783938124 0.0017000638025148774 0.013354733540920354
 0.0016827159420661458 0.013357121766927455 -0.001462715849242384 -0.008595071783938124 0.006047212565577455 0.029767672028599312 0.9925094887489618 -0.07007635669837174
 -0.001462295131258783 -0.008595101996495878 0.0017000638025148774 0.013354733540920354 0.9925094887489618 -0.07007635669837174 0.006045240616808024 0.029767738771706655
0.11879949979160001 0.006449154959288451 0.03156719850151458 0.9919797696429705 -0.07409402843805132 0.0018475644217624185 0.014101205096992479 -0.0016043258245302336 -0.009076824618080123
 0.9919797696429705 -0.07409402843805132 0.0064468896141795335 0.031567239273549506 -0.0016047933783426896 -0.009076788301345187 0.0018669084911977038 0.014098479092590236
 0.0018475644217624185 0.014101205096992479 -0.0016047933783426896 -0.009076788301345187 0.006449187756383936 0.03156872877540583 0.9919798468468148 -0.07409243016301002
 -0.0016043258245302336 -0.009076824618080123 0.0018669084911977038 0.014098479092590236 0.9919798468468148 -0.07409243016301002 0.0064469897442248555 0.03156879954429806
0.1250521050438 0.006868341689236703 0.03338180708016086 0.9914279581426572 -0.07812244814994657 0.0020207018416918666 0.014844797834217525 -0.0017535461524042857 -0.009558249347629543
 0.9914279581426572 -0.07812244814994657 0.006865831533846336 0.03338184802094215 -0.001754062890130737 -0.009558206260024689 0.0020421523845506446 0.014841703127945468
 0.0020207018416918666 0.014844797834217525 -0.001754062890130737 -0.009558206260024689 0.006868377698205894 0.033383412379132234 0.9914280437571473 -0.07812076406297493
 -0.0017535461524042857 -0.009558249347629543 0.0020421523845506446 0.014841703127945468 0.9914280437571473 -0.07812076406297493 0.006865941129844345 0.033383487138298605
0.131304710296 0.007305003257949181 0.03520979810418448 0.9908537286746574 -0.08216293969532318 0.0022021872909426393 0.015587778957762703 -0.0019100167735063916 -0.01003925657881956
 0.9908537286746574 -0.08216293969532318 0.007302235565556811 0.03520983888204245 -0.0019105850242304332 -0.010039206023443537 0.002225854737453661 0.015584283142736787
 0.0022021872909426393 0.015587778957762703 -0.0019105850242304332 -0.010039206023443537 0.007305042592661558 0.035211477628773524 0.9908538231950798 -0.08216116951009325
 -0.0019100167735063916 -0.01003925657881956 0.002225854737453661 0.015584283142736787 0.9908538231950798 -0.08216116951009325 0.007302354920858664 0.0352115563342723
0.1375573155481 0.007656897384377328 0.03681347006528783 0.9903593641310093 -0.08597775577055874 0.0023682890326143353 0.016306299966288386 -0.002049978379030899 -0.01049602970496871
 0.9903593641310093 -0.08597775577055874 0.007653856924030579 0.03681351060203649 -0.002050601367309216 -0.010495971637882628 0.0023942232401761195 0.01630240926252695
 0.0023682890326143353 0.016306299966288386 -0.002050601367309216 -0.010495971637882628 0.007656939307287955 0.03681522359922457 0.9903594679670479 -0.0859758993222935
 -0.002049978379030899 -0.01049602970496871 0.0023942232401761195 0.01630240926252695 0.9903594679670479 -0.0859758993222935 0.007653987332149062 0.036815305485515384
0.1438099208003 0.008021110566410748 0.03840914265199463 0.9898477522844594 -0.08978333181785597 0.002541087277946596 0.017022127277760285 -0.0021955367465479572 -0.010950312809177836
 0.9898477522844594 -0.08978333181785597 0.008017784128455887 0.03840918277193045 -0.0021962169358068534 -0.010950246552141022 0.0025693879616237535 0.017017812224565873
 0.002541087277946596 0.017022127277760285 -0.0021962169358068534 -0.010950246552141022 0.00802115502483544 0.03841096941960505 0.9898478659302286 -0.08978138882506569
 -0.0021955367465479572 -0.010950312809177836 0.0025693879616237535 0.017017812224565873 0.9898478659302286 -0.08978138882506569 0.008017926034813586 0.03841105449901811
0.1500625260525 0.00839752069695617 0.039996695265894354 0.9893190190245338 -0.09357958597749372 0.0027205250555733486 0.017735195311122706 -0.002346636130644518 -0.01140204310118272
 0.9893190190245338 -0.09357958597749372 0.008393895007590677 0.03999673480751146 -0.0023473759769454174 -0.011401967949054511 0.0027512913856807897 0.01773042537549521
 0.0027205250555733486 0.017735195311122706 -0.0023473759769454174 -0.011401967949054511 0.008397567619187467 0.03999859446208291 0.9893191429835319 -0.09357755614822867
 -0.002346636130644518 -0.01140204310118272 0.0027512913856807897 0.01773042537549521 0.9893191429835319 -0.09357755614822867 0.008394048849902892 0.03999868276534289
0.15631513130469998 0.008786004877131139 0.041576011001084184 0.988773290799041 -0.09736643642777457 0.0029065447562459925 0.018445439548867185 -0.0025032201343784246 -0.011851159070258832
