! Created with skrf 1.8.0 (http://scikit-rf.org).
# GHz S RI R 50.0 
!freq ReS11 ImS11 ReS12 ImS12 ReS13 ImS13
! ReS14 ImS14
! ReS21 ImS21 ReS22 ImS22 ReS23 ImS23
! ReS24 ImS24
! ReS31 ImS31 ReS32 ImS32 ReS33 ImS33
! ReS34 ImS34
! ReS41 ImS41 ReS42 ImS42 ReS43 ImS43
! ReS44 ImS44
!
0.0 0.001576583048001 0.0 0.998423416952 0.0 6.115124077874e-05 0.0 -6.115123966139e-05 7.488866991521395e-21
 0.998423416952 0.0 0.001576583048007 0.0 -6.115123966066e-05 7.488866991431994e-21 6.115124077492e-05 0.0
 6.115124077874e-05 0.0 -6.115123966066e-05 7.488866991431994e-21 0.001576583031994 0.0 0.998423416936 0.0
 -6.115123966139e-05 7.488866991521395e-21 6.115124077492e-05 0.0 0.998423416936 0.0 0.001576583032032 0.0
0.005 0.0016964364415006214 0.0012843592042273665 0.9982717548680157 -0.0033027496826770137 8.654234840905123e-05 0.0007056308264369053 -8.384959847608431e-05 -0.00043732937177534876
 0.9982717548680157 -0.0033027496826770137 0.001696438065688624 0.0012843583392965418 -8.384963744418113e-05 -0.0004373294704316393 8.651628345982337e-05 0.0007056405160319792
 8.654234840905123e-05 0.0007056308264369053 -8.384963744418113e-05 -0.0004373294704316393 0.0016964364355848448 0.0012844265333713722 0.9982717552184065 -0.003302682614652414
 -8.384959847608431e-05 -0.00043732937177534876 8.651628345982337e-05 0.0007056405160319792 0.9982717552184065 -0.003302682614652414 0.0016964387728523895 0.0012844251492638268
0.006252605252188 0.0017279016384510754 0.0016105217040401334 0.9982316811854837 -0.004129242220940384 9.381551713808368e-05 0.0008823634822168324 -9.027755352999256e-05 -0.0005472324618907846
 0.9982316811854837 -0.004129242220940384 0.0017279041774337389 0.0016105206687282215 -9.027761362898643e-05 -0.0005472325849938257 9.377479032772687e-05 0.0008823761026639041
 9.381551713808368e-05 0.0008823634822168324 -9.027761362898643e-05 -0.0005472325849938257 0.001727901571468906 0.0016106058500814629 0.9982316816757747 -0.004129158408870787
 -9.027755352999256e-05 -0.0005472324618907846 9.377479032772687e-05 0.0008823761026639041 0.9982316816757747 -0.004129158408870787 0.00172790522598865 0.0016106041529948887
0.01250521050438 0.0018937234271036777 0.0032549291882688265 0.9980190661547701 -0.00825928139996821 0.00013562589963334693 0.001764975705261063 -0.00012685288395811875 -0.0010971265773592502
 0.9980190661547701 -0.00825928139996821 0.0018937335615494856 0.0032549276027386597 -0.00012685311409802564 -0.0010971268220694068 0.0001354634056000297 0.001765006410909555
 0.00013562589963334693 0.001764975705261063 -0.00012685311409802564 -0.0010971268220694068 0.0018937225853099828 0.003255097324699899 0.9980190675456405 -0.008259114019744747
 -0.00012685288395811875 -0.0010971265773592502 0.0001354634056000297 0.001765006410909555 0.9980190675456405 -0.008259114019744747 0.0018937371900807044 0.003255094277562172
0.01875781575657 0.002074417778048835 0.004922826430025421 0.9977853024504039 -0.012400166745201656 0.00018668008970990497 0.002648458253349258 -0.00017099227644163553 -0.0016488418527184122
 0.9977853024504039 -0.012400166745201656 0.002074440543383284 0.0049228248431841285 -0.00017099278040982492 -0.0016488422197271256 0.0001863148672928088 0.0026485135464570653
 0.00018668008970990497 0.002648458253349258 -0.00017099278040982492 -0.0016488422197271256 0.002074415446448227 0.004923078554427559 0.9977853051496129 -0.012399915920405628
 -0.00017099227644163553 -0.0016488418527184122 0.0001863148672928088 0.0026485135464570653 0.9977853051496129 -0.012399915920405628 0.002074448287817294 0.004923074539877429
0.02501042100875 0.002270342724279517 0.0066118580006942615 0.9975301098612173 -0.016553895428284632 0.0002470772328874527 0.003532850756930195 -0.00022280672687071318 -0.00220211332468837
 0.9975301098612173 -0.016553895428284632 0.002270383146335529 0.006611857031725243 -0.0002228076042579533 -0.002202113816634221 0.00024642817733712413 0.0035329381551075685
 0.0002470772328874527 0.003532850756930195 -0.0002228076042579533 -0.002202113816634221 0.0022703381840718643 0.006612194183717581 0.9975301142777848 -0.016553561242196643
 -0.00022280672687071318 -0.00220211332468837 0.00024642817733712413 0.0035329381551075685 0.9975301142777848 -0.016553561242196643 0.002270396552052092 0.006612189626363353
0.03126302626094 0.002481841473776307 0.008320806213192353 0.997253194163429 -0.02072131541065775 0.0003169169285709945 0.004418107515883034 -0.0002824039143073829 -0.002756754947016549
 0.997253194163429 -0.02072131541065775 0.00248190457541313 0.00832080655378746 -0.0002824052612061535 -0.0027567555684797286 0.0003159027241313832 0.004418235561554831
 0.0003169169285709945 0.004418107515883034 -0.0002824052612061535 -0.0027567555684797286 0.002481833996016704 0.008321226559148225 0.9972532007007321 -0.020720897945595746
 -0.0002824039143073829 -0.002756754947016549 0.0003159027241313832 0.004418235561554831 0.9972532007007321 -0.020720897945595746 0.0024819251914633485 0.008321221927640612
0.037515631513130004 0.0027092496946628346 0.010048872907169031 0.9969542546557181 -0.024902843597668783 0.0003962982147010366 0.0053041491174745155 -0.00034988901964029464 -0.003312607980713373
 0.9969542546557181 -0.024902843597668783 0.0027093405009780244 0.01004887532317337 -0.0003498909291619738 -0.003312608738280169 0.000394837305442548 0.005304327390400071
 0.0003962982147010366 0.0053041491174745155 -0.0003498909291619738 -0.003312608738280169 0.0027092385458452454 0.010049377557336496 0.9969542637169109 -0.024902342931858293
 -0.00034988901964029464 -0.003312607980713373 0.000394837305442548 0.005304327390400071 0.9969542637169109 -0.024902342931858293 0.002709369884916504 0.010049373365526198
0.043768236765320004 0.0029528983387575552 0.011795460892568404 0.9966329872346203 -0.02909868432496186 0.0004853190880863014 0.006190878130411797 -0.0004253650179832682 -0.003869525307332504
 0.9966329872346203 -0.02909868432496186 0.0029530218817680363 0.011795466225343602 -0.00042536758047579255 -0.003869526209649331 0.0004833296652699897 0.006191117261247285
 0.0004853190880863014 0.006190878130411797 -0.00042536758047579255 -0.003869526209649331 0.002952882780448504 0.01179605002630903 0.9966329992217101 -0.02909810053140306
 -0.0004253650179832682 -0.003869525307332504 0.0004833296652699897 0.006191117261247285 0.9966329992217101 -0.02909810053140306 0.0029530615996811453 0.011796046834122066
0.050020842017509996 0.003213114943880877 0.013560083628403777 0.9962890859520799 -0.0333089196079433 0.0005840762155887481 0.007078185590830626 -0.0005089327819220531 -0.004427364952521525
 0.9962890859520799 -0.0333089196079433 0.0032132762673328036 0.013560092795962979 -0.0005089360853079293 -0.00442736601035261 0.0005814762137611743 0.007078497274985978
 0.0005840762155887481 0.007078185590830626 -0.0005089360853079293 -0.00442736601035261 0.0032130942305387306 0.013560757449486012 0.996289101262599 -0.03330825276826133
 -0.0005089327819220531 -0.004427364952521525 0.0005814762137611743 0.007078497274985978 0.996289101262599 -0.03330825276826133 0.0032133278905544893 0.013560755863664401
0.055454545454549996 0.0034529585787401776 0.015107913129626694 0.9959716055339709 -0.03697943633293448 0.0006778801050663748 0.007849661496115943 -0.0005882039827945087 -0.004912784794040138
 0.9959716055339709 -0.03697943633293448 0.0034531568429327134 0.015107926435525533 -0.0005882079996453132 -0.004912785997447487 0.0006746826461716621 0.00785004656693147
 0.0006778801050663748 0.007849661496115943 -0.0005882079996453132 -0.004912785997447487 0.0034529327772751155 0.015108660735144925 0.9959716240548783 -0.03697869739260652
 -0.0005882039827945087 -0.004912784794040138 0.0006746826461716621 0.00785004656693147 0.9959716240548783 -0.03697869739260652 0.003453220095433344 0.015108661074704044
0.056273447269699996 0.0034902242975584927 0.015342320879204743 0.9959222439374303 -0.03753355341539906 0.000692664727477049 0.007965954189457655 -0.0006006911023052066 -0.004985986911827839
 0.9959222439374303 -0.03753355341539906 0.003490428461065154 0.015342334877188508 -0.0006006952321888112 -0.004985988138113673 0.0006893718261032846 0.007966351201156626
 0.000692664727477049 0.007965954189457655 -0.0006006952321888112 -0.004985988138113673 0.0034901976803041117 0.01534307962254448 0.9959222629682717 -0.03753280361321869
 -0.0006006911023052066 -0.004985986911827839 0.0006893718261032846 0.007966351201156626 0.9959222629682717 -0.03753280361321869 0.0034904935703598873 0.015343080297033115
0.06252605252188 0.003784548790509894 0.017141794351559003 0.995532154014685 -0.04177253596629238 0.000811178053855624 0.008854060020905061 -0.0007007366650391723 -0.005545251418648172
 0.995532154014685 -0.04177253596629238 0.003784800874476191 0.01714181425412385 -0.0007007417049947276 -0.005545252828564263 0.000807109681922216 0.008854556227301259
 0.000811178053855624 0.008854060020905061 -0.0007007417049947276 -0.005545252828564263 0.0037845155160808573 0.017142638281328997 0.9955321771598069 -0.041771703289142
 -0.0007007366650391723 -0.005545251418648172 0.000807109681922216 0.008854556227301259 0.9955321771598069 -0.041771703289142 0.0037848810577012274 0.017142641917791645
0.06877865777407 0.004096408596110195 0.018958153162780992 0.9951185091486638 -0.04602577819894767 0.0009397077820752098 0.009742373640135882 -0.0008091640051134789 -0.006105017909786878
 0.9951185091486638 -0.04602577819894767 0.0040967137058334525 0.018958180123308736 -0.0008091700367887091 -0.0061050195207944125 0.0009347811257946932 0.009742984015341396
 0.0009397077820752098 0.009742373640135882 -0.0008091700367887091 -0.0061050195207944125 0.004096367907642623 0.01895908257232106 0.9951185367994242 -0.04602486273849451
 -0.0008091640051134789 -0.006105017909786878 0.0009347811257946932 0.009742984015341396 0.9951185367994242 -0.04602486273849451 0.004096810558693881 0.018959089920319534
0.07503126302626001 0.0044261217486084555 0.020791064630533953 0.9946810027943789 -0.05029316092429425 0.0010783435292656437 0.010630760729122522 -0.0009260654443180136 -0.006665144385864791
 0.9946810027943789 -0.05029316092429425 0.00442648501901309 0.02079109988215495 -0.0009260725475837081 -0.0066651462177644595 0.001072475541454944 0.010631501368147432
 0.0010783435292656437 0.010630760729122522 -0.0009260725475837081 -0.0066651462177644595 0.004426072886974337 0.02079207984202615 0.9946810353403535 -0.0502921627766633
 -0.0009260654443180136 -0.006665144385864791 0.001072475541454944 0.010631501368147432 0.9946810353403535 -0.0502921627766633 0.004426600146057063 0.02079209169909498
0.08128386827845 0.004774004158806698 0.022640208149767693 0.994219329188353 -0.054574540897185615 0.0012271728222876456 0.011519082552481326 -0.001051531019956695 -0.007225486988023321
 0.994219329188353 -0.054574540897185615 0.004774430759189132 0.02264025300587305 -0.0010515392731103607 -0.007225489063006689 0.0012202802333037624 0.011519970685169056
 0.0012271728222876456 0.011519082552481326 -0.0010515392731103607 -0.007225489063006689 0.004773946362028321 0.02264130951104079 0.9942193670155789 -0.054573460166217766
 -0.001051531019956695 -0.007225486988023321 0.0012202802333037624 0.011519970685169056 0.9942193670155789 -0.054573460166217766 0.004774565772174615 0.022641326722741554
0.08753647353064001 0.005140369585634847 0.024505270953685702 0.9937331835986218 -0.05886975500983456 0.0013862809837721895 0.012407196276797877 -0.001185648406350617 -0.007785899716646954
 0.9937331835986218 -0.05886975500983456 0.0051408647240262255 0.02450532680818427 -0.0011856578862253872 -0.00778590205933168 0.0013782803133972246 0.012408250281484404
 0.0013862809837721895 0.012407196276797877 -0.0011856578862253872 -0.00778590205933168 0.005140302089925857 0.024506458844821465 0.9937332270902486 -0.058868591800511315
 -0.001185648406350617 -0.007785899716646954 0.0013782803133972246 0.012408250281484404 0.9937332270902486 -0.058868591800511315 0.0051410212427855885 0.024506482304592677
0.09378907878283 0.005525529579330052 0.026385945094417863 0.9932222625504976 -0.06317862327163615 0.0015557510211786176 0.013294955206914642 -0.001328502831632477 -0.008346234238676573
 0.9932222625504976 -0.06317862327163615 0.005526098507276378 0.02638601342192326 -0.001328513613766746 -0.008346236876155976 0.0015465585920214741 0.013296194624014393
 0.0015557510211786176 0.013294955206914642 -0.001328513613766746 -0.008346236876155976 0.005525451619734886 0.026387219919981872 0.9932223120866658 -0.06317737769784557
 -0.001328502831632477 -0.008346234238676573 0.0015465585920214741 0.013296194624014393 0.9932223120866658 -0.06317737769784557 0.005526278159576281 0.02638725056884197
0.100041684035 0.005929793402945158 0.028281925230752705 0.9926862640349997 -0.06750095098849672 0.0017356635187384271 0.014182208968808584 -0.0014801769910274796 -0.008906339754319165
 0.9926862640349997 -0.06750095098849672 0.005930441420475423 0.028282007586621482 -0.0014801891498026796 -0.008906342716204847 0.0017251954701657587 0.014183654514224034
 0.0017356635187384271 0.014182208968808584 -0.0014801891498026796 -0.008906342716204847 0.0059297042141926125 0.028283287427017783 0.9926863199926631 -0.0674996231658247
 -0.0014801769910274796 -0.008906339754319165 0.0017251954701657587 0.014183654514224034 0.9926863199926631 -0.0674996231658247 0.005930645842241823 0.028283326253180745
0.1059090909091 0.006326800248011757 0.03007475096816713 0.9921602110281769 -0.07156905343204026 0.0019140591816805296 0.01501420602122679 -0.0016305999172501935 -0.009431594521363345
 0.9921602110281769 -0.07156905343204026 0.006327527350206703 0.030074847974527863 -0.0016306134345449848 -0.009431597816878452 0.0019023176791361195 0.015015864895737018
 0.0019140591816805296 0.01501420602122679 -0.0016306134345449848 -0.009431597816878452 0.006326699825614723 0.030076195571675107 0.9921602733514506 -0.07156764854002784
 -0.0016305999172501935 -0.009431594521363345 0.0019023176791361195 0.015015864895737018 0.9921602733514506 -0.07156764854002784 0.006327756510609283 0.030076243011634175
0.1062942892872 0.006353467938807383 0.03019290696494742 0.9921248877039329 -0.07183653039988633 0.001926096530720061 0.015068803654613432 -0.0016407509575917527 -0.009466062907695064
 0.9921248877039329 -0.07183653039988633 0.006354200399043953 0.030193004985109288 -0.0016407645663283133 -0.009466066226154523 0.0019142688337823123 0.015070477232885909
 0.001926096530720061 0.015068803654613432 -0.0016407645663283133 -0.009466066226154523 0.006353366755416153 0.030194356993255487 0.9921249504565371 -0.07183512045219578
 -0.0016407509575917527 -0.009466062907695064 0.0019142688337823123 0.015070477232885909 0.9921249504565371 -0.07183512045219578 0.006354431234313363 0.030194405031514458
0.11254689453939999 0.006796857582538315 0.032118585575126236 0.9915378350571115 -0.07618514192717142 0.0021271254765950777 0.015954581943411216 -0.0018103020903338183 -0.010025247727800422
 0.9915378350571115 -0.07618514192717142 0.00679767989664023 0.03211870097586808 -0.0018103172215060553 -0.010025251437577667 0.002113853949598736 0.015956506660712407
 0.0021271254765950777 0.015954581943411216 -0.0018103172215060553 -0.010025251437577667 0.0067967436395472884 0.03212012392706708 0.9915379049744251 -0.07618364998145469
 -0.0018103020903338183 -0.010025247727800422 0.002113853949598736 0.015956506660712407 0.9915379049744251 -0.07618364998145469 0.0067979387970278915 0.032120182258205926
0.11879949979160001 0.00726026412781407 0.03405865503493006 0.9909248096230748 -0.0805465551421762 0.002338823036507502 0.01683938320419728 -0.001988904941576458 -0.010583735593656657
 0.9909248096230748 -0.0805465551421762 0.007261181770102883 0.03405878961238769 -0.00198892166692605 -0.010583739732125296 0.0023240233612102775 0.0168415833810975
 0.002338823036507502 0.01683938320419728 -0.00198892166692605 -0.010583739732125296 0.007260136661700423 0.03406028222905488 0.990924887071261 -0.08054498133165636
 -0.001988904941576458 -0.010583735593656657 0.0023240233612102775 0.0168415833810975 0.990924887071261 -0.08054498133165636 0.007261470395349887 0.03406035197894071
0.1250521050438 0.007743986643949798 0.03601280723911233 0.9902855171350596 -0.08492052953682759 0.002561259047913459 0.017723043589655346 -0.002176631162513245 -0.011141365215095358
 0.9902855171350596 -0.08492052953682759 0.00774500515687768 0.03601296286872353 -0.002176649553156641 -0.01114136982224247 0.002544846786481127 0.017725544773592432
 0.002561259047913459 0.017723043589655346 -0.002176649553156641 -0.01114136982224247 0.007743844892728854 0.03601452382208604 0.9902856024761362 -0.08491887399984864
 -0.002176631162513245 -0.011141365215095358 0.002544846786481127 0.017725544773592432 0.9902856024761362 -0.08491887399984864 0.0077453251743534205 0.036014606160685914
0.131304710296 0.008248321347667032 0.03798073138581335 0.9896196657040066 -0.08930681514419883 0.0027945004028744882 0.018605396118974313 -0.002373549408140324 -0.011697972630941042
 0.9896196657040066 -0.08930681514419883 0.008249446346645019 0.03798091002153423 -0.002373569534743179 -0.011697977749456542 0.0027763910153570694 0.018608225096529707
 0.0027945004028744882 0.018605396118974313 -0.002373569534743179 -0.011697977749456542 0.008248164551859095 0.0379825379338714 0.9896197592958781 -0.0893050780225455
 -0.002373549408140324 -0.011697972630941042 0.0027763910153570694 0.018608225096529707 0.9896197592958781 -0.0893050780225455 0.008249799431499569 0.03798263407415845
0.1375573155481 0.008659377541930486 0.03970437242949488 0.9890411969005749 -0.09344728269662687 0.0030097339435375277 0.019460307662360374 -0.0025508793110330646 -0.012227433657870653
 0.9890411969005749 -0.09344728269662687 0.008660616003760929 0.03970457098981966 -0.0025509014735727183 -0.01222743930392603 0.0029898937069288613 0.019463460592330235
 0.0030097339435375277 0.019460307662360374 -0.0025509014735727183 -0.01222743930392603 0.00865920585550704 0.03970626912261939 0.9890412991091545 -0.09344546414041266
 -0.0025508793110330646 -0.012227433657870653 0.0029898937069288613 0.019463460592330235 0.9890412991091545 -0.09344546414041266 0.008661002910348381 0.039706376074464166
0.1438099208003 0.009084930166950233 0.041418619853041405 0.9884423027963011 -0.09757696477532336 0.003233668754931794 0.020311650235366824 -0.0027353066569860925 -0.012753622141612435
 0.9884423027963011 -0.09757696477532336 0.009086288035321648 0.041418839785800195 -0.0027353309664337965 -0.012753628352481604 0.0032120221546413346 0.020315151517967568
 0.003233668754931794 0.020311650235366824 -0.0027353309664337965 -0.012753628352481604 0.009084743000689677 0.04142060725395155 0.9884424139740083 -0.09757506493932147
 -0.0027353066569860925 -0.012753622141612435 0.0032120221546413346 0.020315151517967568 0.9884424139740083 -0.09757506493932147 0.009086710285243516 0.041420725795229214
0.1500625260525 0.009524825206557784 0.04312332153160903 0.9878231416719382 -0.10169575021486144 0.0034662260228153167 0.021159333044060275 -0.0029267547674607483 -0.013276451931371655
 0.9878231416719382 -0.10169575021486144 0.009526308505274108 0.04312356432386843 -0.0029267813370221257 -0.013276458745454084 0.0034426980340392884 0.02116320796021896
 0.0034662260228153167 0.021159333044060275 -0.0029267813370221257 -0.013276458745454084 0.009524621984629032 0.043125400227698195 0.9878232621670234 -0.10169376925654815
 -0.0029267547674607483 -0.013276451931371655 0.0034426980340392884 0.02116320796021896 0.9878232621670234 -0.10169376925654815 0.00952676761732665 0.04312553115155674
0.15631513130469998 0.009978907495774075 0.0448183299090302 0.9871838726731859 -0.10580352842082912 0.0037073259783328605 0.022003266878394632 -0.0031251459932808557 -0.013795838738381253
 0.9871838726731859 -0.10580352842082912 0.009980522331398674 0.04481859708443651 -0.003125174938533565 -0.013795846195125297 0.003681842073247379 0.022007541579979053
