! Created with skrf 1.8.0 (http://scikit-rf.org).
# GHz S RI R 50.0 
!freq ReS11 ImS11 ReS12 ImS12 ReS13 ImS13
! ReS14 ImS14
! ReS21 ImS21 ReS22 ImS22 ReS23 ImS23
! ReS24 ImS24
! ReS31 ImS31 ReS32 ImS32 ReS33 ImS33
! ReS34 ImS34
! ReS41 ImS41 ReS42 ImS42 ReS43 ImS43
! ReS44 ImS44
!
0.0 0.001469677586394 0.0 0.9985303224136 0.0 5.701474757257e-05 0.0 -5.701474766121e-05 6.982292822749487e-21
 0.9985303224136 0.0 0.001469677586402 0.0 -5.701474766176e-05 6.982292822816842e-21 5.701474757278e-05 0.0
 5.701474757257e-05 0.0 -5.701474766176e-05 6.982292822816842e-21 0.00146967758498 0.0 0.9985303224122 0.0
 -5.701474766121e-05 6.982292822749487e-21 5.701474757278e-05 0.0 0.9985303224122 0.0 0.001469677584963 0.0
0.005 0.0015811489816967273 0.0011941133554967754 0.9983893025147393 -0.0030792695552323396 8.104086984427266e-05 0.0006787423174984462 -7.841461888261818e-05 -0.00041724668165944284
 0.9983893025147393 -0.0030792695552323396 0.0015811505245269535 0.0011941124533775957 -7.841987924475582e-05 -0.00041725070424679606 8.101880163215728e-05 0.0006787507712564081
 8.104086984427266e-05 0.0006787423174984462 -7.841987924475582e-05 -0.00041725070424679606 0.0015811460438095357 0.0011940478373250636 0.998389302167129 -0.003079336608213633
 -7.841461888261818e-05 -0.00041724668165944284 8.101880163215728e-05 0.0006787507712564081 0.998389302167129 -0.003079336608213633 0.0015811527697486328 0.0011940438667283502
0.006252605252188 0.0016103273356709435 0.00149738606078512 0.9983521625385299 -0.003849852934057607 8.787589804688745e-05 0.0008487369048893083 -8.443585980066963e-05 -0.0005221130184784768
 0.9983521625385299 -0.003849852934057607 0.001610329747059551 0.0014973848726579147 -8.444404555176389e-05 -0.0005221179784429173 8.784141896501808e-05 0.0008487478716091386
 8.787589804688745e-05 0.0008487369048893083 -8.444404555176389e-05 -0.0005221179784429173 0.0016103228102896958 0.0014973041621312386 0.9983521620625981 -0.003849936753989849
 -8.443585980066963e-05 -0.0005221130184784768 8.784141896501808e-05 0.0008487478716091386 0.9983521620625981 -0.003849936753989849 0.0016103333245385972 0.0014972991342802004
0.01250521050438 0.001763595498181038 0.0030265342136982735 0.9981558087037232 -0.007700614061263088 0.00012691896236572051 0.0016977039705859166 -0.00011848854899899528 -0.0010468445952613696
 0.9981558087037232 -0.007700614061263088 0.0017636051243720308 0.0030265312459937807 -0.00011852081115093978 -0.001046853769399826 0.00012678148227447526 0.0016977302060793844
 0.00012691896236572051 0.0016977039705859166 -0.00011852081115093978 -0.001046853769399826 0.001763577986146692 0.0030263707170793343 0.9981558073643114 -0.007700781452427964
 -0.00011848854899899528 -0.0010468445952613696 0.00012678148227447526 0.0016977302060793844 0.9981558073643114 -0.007700781452427964 0.0017636199749010246 0.003026359989596506
0.01875781575657 0.001929805696932747 0.00457776582228982 0.9979410248519146 -0.011561676535789487 0.0001742316451650786 0.0025475341775005136 -0.00015927663711313384 -0.0015733776080272643
 0.9979410248519146 -0.011561676535789487 0.001929827323051806 0.0045777605003722915 -0.00015934858762254125 -0.0015733901128464308 0.00017392284451170053 0.0025475808043229895
 0.0001742316451650786 0.0025475341775005136 -0.00015934858762254125 -0.0015733901128464308 0.0019297667627034317 0.004577520935841044 0.9979410222630436 -0.011561927414296916
 -0.00015927663711313384 -0.0015733776080272643 0.00017392284451170053 0.0025475808043229895 0.9979410222630436 -0.011561927414296916 0.0019298611228644022 0.0045775037334365885
0.02501042100875 0.0021092726089560017 0.006148903234406066 0.9977075659811933 -0.015434923154923383 0.0002299031197802047 0.0033982840481545412 -0.00020690046593902859 -0.0021014660042544806
 0.9977075659811933 -0.015434923154923383 0.002109311006216448 0.006148895000144272 -0.0002070275325165046 -0.002101480802783617 0.0002293546713712617 0.0033983569765207054
 0.0002299031197802047 0.0033982840481545412 -0.0002070275325165046 -0.002101480802783617 0.0021092038321468437 0.006148577222533385 0.9977075617591886 -0.015435257449197909
 -0.00020690046593902859 -0.0021014660042544806 0.0002293546713712617 0.0033983569765207054 0.9977075617591886 -0.015435257449197909 0.0021093714245554803 0.006148552673756442
0.03126302626094 0.0023022978148570026 0.007738830750907933 0.9974551742078122 -0.019321165358357706 0.00029402322677882535 0.004249926011241957 -0.00026145751571206944 -0.0026309424246166464
 0.9974551742078122 -0.019321165358357706 0.0023023577432974354 0.007738819063393872 -0.00026165497354001656 -0.002630958324416808 0.00029316673037065564 0.004250031942719749
 0.00029402322677882535 0.004249926011241957 -0.00026165497354001656 -0.002630958324416808 0.0023021907815639945 0.007738423908306063 0.997455167966075 -0.01932158303541385
 -0.00026145751571206944 -0.0026309424246166464 0.00029316673037065564 0.004250031942719749 0.997455167966075 -0.01932158303541385 0.0023024524411863596 0.007738391046022873
0.037515631513130004 0.0025091764095834116 0.009346824657700535 0.9971835855703962 -0.023220813138083628 0.0003666815436568361 0.005102399524314765 -0.00032304318497262426 -0.0031616670778109395
 0.9971835855703962 -0.023220813138083628 0.0025092626200434597 0.009346808993899145 -0.0003233261728512675 -0.0031616827302951753 0.00036544849630831393 0.0051025459592746415
 0.0003666815436568361 0.005102399524314765 -0.0003233261728512675 -0.0031616827302951753 0.0025090227159580048 0.009346337339480648 0.9971835769246672 -0.02322131417402588
 -0.00032304318497262426 -0.0031616670778109395 0.00036544849630831393 0.0051025459592746415 0.9971835769246672 -0.02322131417402588 0.002509399258011951 0.009346295100566561
0.043768236765320004 0.0027301995582563487 0.010972349366686012 0.9968925327807906 -0.027134078831164445 0.00044796694388281165 0.005955626651988757 -0.00039175108546514003 -0.0036935121599595546
 0.9968925327807906 -0.027134078831164445 0.002730316794695695 0.010972329222232836 -0.0003921346154934715 -0.0036935260601451405 0.0004462887254134827 0.005955821898222576
 0.00044796694388281165 0.005955626651988757 -0.0003921346154934715 -0.0036935260601451405 0.0027299908053072916 0.010971781989143217 0.9968925213447273 -0.02713466321140722
 -0.00039175108546514003 -0.0036935121599595546 0.0004462887254134827 0.005955821898222576 0.9968925213447273 -0.02713466321140722 0.0027305030293565805 0.010971729213688232
0.050020842017509996 0.0029656556823830873 0.012614973156902331 0.996581746607889 -0.031061061310827313 0.0005379673422207555 0.006809518482002843 -0.0004676731508986257 -0.004226355437924749
 0.996581746607889 -0.031061061310827313 0.002965808684078096 0.012614948046897988 -0.0004681721146321832 -0.004226365924304388 0.0005357752090478498 0.006809771663796583
 0.0005379673422207555 0.006809518482002843 -0.0004681721146321832 -0.004226365924304388 0.0029653834778934542 0.01261432620278949 0.9965817319951022 -0.031061729025743872
 -0.0004676731508986257 -0.004226355437924749 0.0005357752090478498 0.006809771663796583 0.9965817319951022 -0.031061729025743872 0.002966052171477618 0.012614261633282112
0.055454545454549996 0.0031822179275694325 0.014056061692414516 0.9962954281299 -0.0344848898730384 0.0006233254850759487 0.007552041208679542 -0.0005395806750023824 -0.0046901299688128124
 0.9962954281299 -0.0344848898730384 0.003182405856807271 0.014056031889063509 -0.000540191957392646 -0.0046901360175420495 0.0006206308191214842 0.0075523527893956955
 0.0006233254850759487 0.007552041208679542 -0.000540191957392646 -0.0046901360175420495 0.0031818837702280198 0.014055346027548835 0.9962954104416918 -0.03448563000516009
 -0.0005395806750023824 -0.0046901299688128124 0.0006206308191214842 0.0075523527893956955 0.9962954104416918 -0.03448563000516009 0.0031827053151200595 0.014055270110796854
0.056273447269699996 0.0032158310752339963 0.014274326821271412 0.9962509566928359 -0.03500178727270801 0.0006367695146952202 0.007663978279139587 -0.0005508996704005373 -0.00476007709733398
 0.9962509566928359 -0.03500178727270801 0.003216024578442959 0.014274296280998104 -0.0005515288429783912 -0.0047600823518270914 0.0006339945982426825 0.0076642993465724715
 0.0006367695146952202 0.007663978279139587 -0.0005515288429783912 -0.0047600823518270914 0.003215487032090801 0.014273600838348865 0.9962509385155863 -0.0350025383201532
 -0.0005508996704005373 -0.00476007709733398 0.0006339945982426825 0.0076642993465724715 0.9962509385155863 -0.0350025383201532 0.003216332973297301 0.014273523118625153
0.06252605252188 0.0034810102317930055 0.01595008093022682 0.9958998920834503 -0.038956233906459393 0.0007444589585940454 0.008518903220726803 -0.0006415192803685194 -0.005294558012196357
 0.9958998920834503 -0.038956233906459393 0.0034812489720751198 0.015950044515887576 -0.0006422933233503648 -0.005294556060127031 0.0007410322670981418 0.00851930295906825
 0.0007444589585940454 0.008518903220726803 -0.0006422933233503648 -0.005294556060127031 0.003480585968892342 0.015949276533826728 0.9958998699533609 -0.038957068290237276
 -0.0006415192803685194 -0.005294558012196357 0.0007410322670981418 0.00851930295906825 0.9958998699533609 -0.038957068290237276 0.0034816299289687227 0.015949184208005694
0.06877865777407 0.0037614760258029185 0.017641932279652023 0.9955282816187556 -0.042924342386054665 0.0008611197728257513 0.009374185431967271 -0.0007396189346789208 -0.005829678718185965
 0.9955282816187556 -0.042924342386054665 0.0037617647400339637 0.017641889569019197 -0.0007405523979549321 -0.005829667428300465 0.0008569721953164819 0.009374675471055324
 0.0008611197728257513 0.009374185431967271 -0.0007405523979549321 -0.005829667428300465 0.0037609631673748986 0.017641050151493434 0.9955282551456988 -0.0429252601181178
 -0.0007396189346789208 -0.005829678718185965 0.0008569721953164819 0.009374675471055324 0.9955282551456988 -0.0429252601181178 0.00376222591311882 0.01764094166282126
0.07503126302626001 0.004057509796149129 0.019349595293434878 0.9951358542252484 -0.046906026408959633 0.0009868345520192725 0.010229712639897168 -0.0008452838595129124 -0.006365318771043169
 0.9951358542252484 -0.046906026408959633 0.004057853224714407 0.019349545886452324 -0.0008463911826325236 -0.006365295855528271 0.0009818968641108197 0.01023030546351228
 0.0009868345520192725 0.010229712639897168 -0.0008463911826325236 -0.006365295855528271 0.004056899972526245 0.019348636188044954 0.9951358230179461 -0.0469070275041303
 -0.0008452838595129124 -0.006365318771043169 0.0009818968641108197 0.01023030546351228 0.9951358230179461 -0.0469070275041303 0.00405840226804967 0.019348509877613832
0.08128386827845 0.004369391375318876 0.02107279630611719 0.9947223391599949 -0.05090117785925244 0.0011216842872411865 0.011085368620637229 -0.0009585975003365561 -0.006901356315649508
 0.9947223391599949 -0.05090117785925244 0.004369794264213835 0.02107273982543826 -0.0009598930132910178 -0.006901319330193265 0.0011158871580971164 0.011086077575806999
 0.0011216842872411865 0.011085368620637229 -0.0009598930132910178 -0.006901319330193265 0.004368676222688015 0.021071761046526426 0.9947223028251856 -0.05090226234051947
 -0.0009585975003365561 -0.006901356315649508 0.0011158871580971164 0.011086077575806999 0.9947223028251856 -0.05090226234051947 0.004370438831631729 0.021071615151944556
0.08753647353064001 0.004697399081358525 0.02281126961302123 0.9942874662191379 -0.05490967070716273 0.0012657482731950494 0.01194103350426428 -0.0010796414608331294 -0.00743766780157511
 0.9942874662191379 -0.05490967070716273 0.004697866184389114 0.022811205704525807 -0.001081139384499361 -0.007437614145423926 0.001259022273648297 0.01194187281044726
 0.0012657482731950494 0.01194103350426428 -0.001081139384499361 -0.007437614145423926 0.0046965702423866695 0.022810159097390804 0.9942874243617359 -0.05491083860015506
 -0.0010796414608331294 -0.00743766780157511 0.001259022273648297 0.01194187281044726 0.9942874243617359 -0.05491083860015506 0.0046986139296998995 0.022809991751420337
0.09378907878283 0.005041809682029115 0.024564754641330667 0.9938309659226884 -0.058931363792464275 0.001419104017148239 0.012796584003698038 -0.001208495438932618 -0.007974127778885086
 0.9938309659226884 -0.058931363792464275 0.005042345763204971 0.024564682974544175 -0.0012102098852502885 -0.00797405469494473 0.0014113796286078588 0.012797568761944808
 0.001419104017148239 0.012796584003698038 -0.0012102098852502885 -0.00797405469494473 0.005040858805977724 0.024563569839928117 0.9938309181451865 -0.0589326151295269
 -0.001208495438932618 -0.007974127778885086 0.0014113796286078588 0.012797568761944808 0.9938309181451865 -0.0589326151295269 0.005043204339805392 0.02456337906894507
0.100041684035 0.005402898341263246 0.026332993885527477 0.9933525696837994 -0.06296610284798218 0.0015818271510864763 0.013651893582295743 -0.001345237158315227 -0.008510608759644626
 0.9933525696837994 -0.06296610284798218 0.005403508176810583 0.026332914153964385 -0.00134718213018461 -0.008510513334574811 0.0015730347753772722 0.013653039784210057
 0.0015818271510864763 0.013651893582295743 -0.00134718213018461 -0.008510513334574811 0.005401817084682459 0.02633173584476054 0.9933525155865376 -0.06296743766521093
 -0.001345237158315227 -0.008510608759644626 0.0015730347753772722 0.013653039784210057 0.9933525155865376 -0.06296743766521093 0.005404485238045244 0.026331519567256493
0.1059090909091 0.005757153907947396 0.028005489612260584 0.9928834931038089 -0.06676399509029167 0.0017431107416616709 0.014454176338971433 -0.0014807960141312007 -0.009013942919711014
 0.9928834931038089 -0.06676399509029167 0.0057578373113480845 0.028005402055624146 -0.0014829699479335628 -0.009013823741145503 0.001733252812593121 0.014455489383899784
 0.0017431107416616709 0.014454176338971433 -0.0014829699479335628 -0.009013823741145503 0.005755942721781815 0.02800416386187689 0.9928834327103458 -0.06676540828363878
 -0.0014807960141312007 -0.009013942919711014 0.001733252812593121 0.014455489383899784 0.9928834327103458 -0.06676540828363878 0.005758932518102046 0.028003921658521037
0.1062942892872 0.005780938551169576 0.028115731347118346 0.9928520099674171 -0.0670137220236509 0.0017539913448793426 0.0145068325887327 -0.0014899422979884414 -0.009046981116650085
 0.9928520099674171 -0.0670137220236509 0.005781626932284318 0.028115643268547725 -0.0014921316890589918 -0.009046860280999961 0.0017440613144736137 0.014508157125315946
 0.0017539913448793426 0.0145068325887327 -0.0014921316890589918 -0.009046860280999961 0.005779718578446419 0.028114401188423142 0.9928519491480657 -0.06701514036303267
 -0.0014899422979884414 -0.009046981116650085 0.0017440613144736137 0.014508157125315946 0.9928519491480657 -0.06701514036303267 0.005782730130985803 0.02811415721333777
0.11254689453939999 0.006176202054118501 0.029912711349403084 0.9923290204408443 -0.07107404504067392 0.001935668221124939 0.015361268365053546 -0.0016426844190450905 -0.009583113013588183
 0.9923290204408443 -0.07107404504067392 0.006176973788955792 0.029912614666091557 -0.0016451320132326022 -0.009582963541946213 0.0019245308102122801 0.015362789035421326
 0.001935668221124939 0.015361268365053546 -0.0016451320132326022 -0.009582963541946213 0.006174835037800268 0.029911310270813656 0.9923289524944358 -0.07107554694955817
 -0.0016426844190450905 -0.009583113013588183 0.0019245308102122801 0.015362789035421326 0.9923289524944358 -0.07107554694955817 0.00617821077758101 0.029911036295824523
0.11879949979160001 0.006588958755502669 0.031723677611965276 0.9917833361185799 -0.07514688609113447 0.0021269272697896904 0.016215065336298618 -0.0018035348908539204 -0.01011887035834053
 0.9917833361185799 -0.07514688609113447 0.0065898186718562676 0.031723572090752564 -0.0018062543618602924 -0.010118688869502573 0.00211451270580668 0.016216800856238358
 0.0021269272697896904 0.016215065336298618 -0.0018062543618602924 -0.010118688869502573 0.00658743637722871 0.03172220689120761 0.9917832606372654 -0.07514847162018777
 -0.0018035348908539204 -0.01011887035834053 0.00211451270580668 0.016216800856238358 0.9917832606372654 -0.07514847162018777 0.006591197102092547 0.03172190050098734
0.1250521050438 0.0070194766309796 0.033548372519569734 0.9912146935039289 -0.07923205054853046 0.0023278357643874916 0.017068085091088692 -0.0019725628151347507 -0.010654116770201392
 0.9912146935039289 -0.07923205054853046 0.007020429578737483 0.03354825795198426 -0.0019755677257776143 -0.01065389972737998 0.002314074239895868 0.01707005510141506
 0.0023278357643874916 0.017068085091088692 -0.0019755677257776143 -0.01065389972737998 0.007017790581779285 0.033546833511631145 0.9912146100761376 -0.0792337197551748
 -0.0019725628151347507 -0.010654116770201392 0.002314074239895868 0.01707005510141506 0.9912146100761376 -0.0792337197551748 0.00702195710111034 0.03354649217592056
0.131304710296 0.0074680216274708635 0.03538653654050837 0.990622830726002 -0.08332933553447969 0.002538458677915811 0.017920186449242433 -0.002149834949509985 -0.011188713564953028
 0.990622830726002 -0.08332933553447969 0.007469072481042863 0.035386412742658205 -0.002153138750914786 -0.01118845727600159 0.0025232803631505068 0.017922411523991145
 0.002538458677915811 0.017920186449242433 -0.002153138750914786 -0.01118845727600159 0.007466163608559014 0.03538493068212883 0.990622738937416 -0.08333108847939844
 -0.002149834949509985 -0.011188713564953028 0.0025232803631505068 0.017922411523991145 0.990622738937416 -0.08333108847939844 0.007470756745097645 0.03538455175379511
0.1375573155481 0.00783057836161228 0.03699598668024968 0.9901118041530094 -0.08719650933157008 0.0027319905271391003 0.018746231994982203 -0.002308564536124522 -0.011697528159922421
 0.9901118041530094 -0.08719650933157008 0.007831733159619093 0.03699585971488356 -0.002312187050085419 -0.011697232466274498 0.00271535878113448 0.0187487083862635
 0.0027319905271391003 0.018746231994982203 -0.002312187050085419 -0.011697232466274498 0.007828540469329131 0.03699431559675596 0.9901117036248233 -0.08719834601861295
 -0.002308564536124522 -0.011697528159922421 0.00271535878113448 0.0187487083862635 0.9901117036248233 -0.08719834601861295 0.007833581352909543 0.036993902192127996
0.1438099208003 0.008205821613252349 0.038597130028810066 0.9895829133910194 -0.09105409656142006 0.002933358398038794 0.019569170506700848 -0.0024736667953328896 -0.012203513220078828
 0.9895829133910194 -0.09105409656142006 0.008207085445493622 0.03859700018553931 -0.0024776224602275 -0.012203174507546285 0.002915209361130586 0.019571916996226228
 0.002933358398038794 0.019569170506700848 -0.0024776224602275 -0.012203174507546285 0.008203595632151364 0.03859539521839955 0.9895828037117191 -0.09105601704293527
 -0.0024736667953328896 -0.012203513220078828 0.002915209361130586 0.019571916996226228 0.9895828037117191 -0.09105601704293527 0.008209105133402086 0.03859494504497821
0.1500625260525 0.008593622140352048 0.04018983890162424 0.9890362916364618 -0.09490200816361644 0.0031424958372986934 0.02038892490667947 -0.0026450772492405575 -0.01270659565743926
 0.9890362916364618 -0.09490200816361644 0.008595000127747264 0.04018970646881611 -0.0026493804732543105 -0.012706210167132555 0.0031227660132348805 0.02039196096037905
 0.0031424958372986934 0.02038892490667947 -0.0026493804732543105 -0.012706210167132555 0.008591199868573847 0.040188041921023925 0.9890361723918494 -0.09490401249659902
 -0.0026450772492405575 -0.01270659565743926 0.0031227660132348805 0.02039196096037905 0.9890361723918494 -0.09490401249659902 0.008597198869369405 0.04018755257838662
0.15631513130469998 0.008993849810911263 0.04177398950448677 0.9884720727345407 -0.09874015525922038 0.003359335629115634 0.021205419362018734 -0.0028227306439892377 -0.013206703905354727
