! Created with skrf 1.8.0 (http://scikit-rf.org).
# GHz S RI R 50.0 
!freq ReS11 ImS11 ReS12 ImS12 ReS13 ImS13
! ReS14 ImS14
! ReS21 ImS21 ReS22 ImS22 ReS23 ImS23
! ReS24 ImS24
! ReS31 ImS31 ReS32 ImS32 ReS33 ImS33
! ReS34 ImS34
! ReS41 ImS41 ReS42 ImS42 ReS43 ImS43
! ReS44 ImS44
!
0.0 0.001891475318029 0.0 0.9981085246791 0.0 7.357155555011e-05 0.0 -7.357155510624e-05 9.009916946914993e-21
 0.9981085246791 0.0 0.001891475318042 0.0 -7.35715551063e-05 9.009916946922341e-21 7.357155555054e-05 0.0
 7.357155555011e-05 0.0 -7.35715551063e-05 9.009916946922341e-21 0.001891475310918 0.0 0.998108524672 0.0
 -7.357155510624e-05 9.009916946914993e-21 7.357155555054e-05 0.0 0.998108524672 0.0 0.001891475310923 0.0
0.005 0.002036314364438992 0.0015456139840323445 0.9979250917762882 -0.003960856485551882 0.00010380634739275885 0.0008145922067346835 -0.00010077642917608643 -0.0005103657402916588
 0.9979250917762882 -0.003960856485551882 0.002036292249910669 0.0015456268575647588 -0.00010077728387355208 -0.0005103663011398842 0.0001039474484228443 0.0008145384454075117
 0.00010380634739275885 0.0008145922067346835 -0.00010077728387355208 -0.0005103663011398842 0.002036314022305695 0.00154554684308854 0.9979250913898174 -0.003960923545616461
 -0.00010077642917608643 -0.0005103657402916588 0.0001039474484228443 0.0008145384454075117 0.9979250913898174 -0.003960923545616461 0.002036291833094024 0.0015455598925042133
0.006252605252188 0.0020746725427359565 0.0019380489143108646 0.9978761551038885 -0.004951980080489542 0.00011261987629725599 0.0010186107451406491 -0.00010862673660258584 -0.0006385953513978922
 0.9978761551038885 -0.004951980080489542 0.002074637973745137 0.0019380652400861468 -0.00010862806731706936 -0.0006385960404360879 0.00011284033038892092 0.0010185408579052545
 0.00011261987629725599 0.0010186107451406491 -0.00010862806731706936 -0.0006385960404360879 0.0020746720752679916 0.0019379649827806877 0.9978761545662819 -0.004952063909202343
 -0.00010862673660258584 -0.0006385953513978922 0.00011284033038892092 0.0010185408579052545 0.9978761545662819 -0.004952063909202343 0.00207463738842243 0.0019379815452915154
0.01250521050438 0.0022787582277612414 0.003916162417020894 0.9976138395078792 -0.009904316486654869 0.00016409197557744576 0.002037406192664556 -0.00015407651685599264 -0.0012800416745559757
 0.9976138395078792 -0.009904316486654869 0.0022786201959593736 0.00391619743140475 -0.0001540817698848244 -0.0012800429173010362 0.00016497104117997076 0.002037237043351086
 0.00016409197557744576 0.002037406192664556 -0.0001540817698848244 -0.0012800429173010362 0.0022787569450973383 0.003915994809335423 0.9976138379292575 -0.009904483913181748
 -0.00015407651685599264 -0.0012800416745559757 0.00016497104117997076 0.002037237043351086 0.9976138379292575 -0.009904483913181748 0.0022786184232401183 0.00391603047192811
0.01875781575657 0.002504252693538585 0.0059217974645853575 0.9973211990109218 -0.014868969502129228 0.000228119673262945 0.003057013776796608 -0.000210075811302998 -0.0019233506958084325
 0.9973211990109218 -0.014868969502129228 0.0025039425320691165 0.0059218537241775004 -0.00021008753742816994 -0.0019233523217543297 0.00023009425764717575 0.003056709313913579
 0.000228119673262945 0.003057013776796608 -0.00021008753742816994 -0.0019233523217543297 0.0025042502674047684 0.005921546331203098 0.9973211958843105 -0.014869220502955869
 -0.000210075811302998 -0.0019233506958084325 0.00023009425764717575 0.003056709313913579 0.9973211958843105 -0.014869220502955869 0.002503938966735255 0.005921603844048308
0.02501042100875 0.0027516561012896506 0.007952045937300744 0.9969978379910215 -0.019848245238353796 0.00030483510829446383 0.004077415374281446 -0.0002767726579067094 -0.0025681691026691843
 0.9969978379910215 -0.019848245238353796 0.0027511052740635824 0.007952126167074062 -0.0002767933806317879 -0.0025681709038699275 0.0003083421457911082 0.004076933048511637
 0.00030483510829446383 0.004077415374281446 -0.0002767933806317879 -0.0025681709038699275 0.0027516522188040507 0.007951711475880809 0.9969978327992037 -0.019848579844975553
 -0.0002767726579067094 -0.0025681691026691843 0.0003083421457911082 0.004076933048511637 0.9969978327992037 -0.019848579844975553 0.0027510993054015664 0.00795179377721068
0.03126302626094 0.003021447539999744 0.010005360663852613 0.9966433437241373 -0.024843069609938654 0.00039436950604141064 0.0050984968778187935 -0.00035430955538319194 -0.003214229169405362
 0.9966433437241373 -0.024843069609938654 0.0030205875966009136 0.01000546775222689 -0.00035434177512271746 -0.0032142309001252922 0.00039984633057915507 0.005097787601052914
 0.00039436950604141064 0.0050984968778187935 -0.00035434177512271746 -0.0032142309001252922 0.0030214419152005097 0.010004943113433975 0.9966433359493986 -0.024843487914712924
 -0.00035430955538319194 -0.003214229169405362 0.00039984633057915507 0.005097787601052914 0.9966433359493986 -0.024843487914712924 0.0030205786219679198 0.010005053325108806
0.037515631513130004 0.0033140945283321966 0.012080694508887794 0.9962572963907508 -0.02985384920401916 0.0004968519430633302 0.006120105313263538 -0.00044282446445391524 -0.0038612917204844032
 0.9962572963907508 -0.02985384920401916 0.003312857071939724 0.012080831505747378 -0.0004428706606070942 -0.0038612930970643054 0.0005047364370452271 0.0061191133947319475
 0.0004968519430633302 0.006120105313263538 -0.0004428706606070942 -0.0038612930970643054 0.003314086894964253 0.01208019417435834 0.9962572855043097 -0.029854351335759408
 -0.00044282446445391524 -0.0038612917204844032 0.0005047364370452271 0.0061191133947319475 0.9962572855043097 -0.029854351335759408 0.003312844490482372 0.012080335600239366
0.043768236765320004 0.0036300566287070183 0.014177238456801177 0.9958392731898311 -0.03488073314229242 0.0006124087324630657 0.007142066236788232 -0.0005424511228082451 -0.004509128807249711
 0.9958392731898311 -0.03488073314229242 0.0036283732890156663 0.014177408572971699 -0.0005425137548028783 -0.00450912950801201 0.0006231393788901711 0.007140729312287852
 0.0006124087324630657 0.007142066236788232 -0.0005425137548028783 -0.00450912950801201 0.003630046744077593 0.014176655700268602 0.9958392586531765 -0.034881319274899965
 -0.0005424511228082451 -0.004509128807249711 0.0006231393788901711 0.007140729312287852 0.9958392586531765 -0.034881319274899965 0.0036283565064840176 0.014176831826106207
0.050020842017509996 0.003969787094784819 0.016294313344531484 0.9953888504912554 -0.03992372129579252 0.0007411630218585483 0.008164190937453788 -0.0006533191220889584 -0.0051575165839456505
 0.9953888504912554 -0.03992372129579252 0.003967589502982957 0.016294519952318592 -0.000653400629841025 -0.005157516249139213 0.0007551789053275824 0.008162439896057154
 0.0007411630218585483 0.008164190937453788 -0.000653400629841025 -0.005157516249139213 0.003969774741312087 0.016293648590369393 0.9953888317551328 -0.039924391643276005
 -0.0006533191220889584 -0.0051575165839456505 0.0007551789053275824 0.008162439896057154 0.9953888317551328 -0.039924391643276005 0.003967567935091974 0.016293863084464382
0.055454545454549996 0.004284673861878446 0.018150319988946922 0.9949707785001706 -0.044319236430814445 0.000863865422415525 0.009052426632640933 -0.0007588936266440868 -0.005721259096058008
 0.9949707785001706 -0.044319236430814445 0.004281973829482842 0.01815056117416441 -0.0007589935046250198 -0.005721257539529924 0.0008810933115512135 0.009050254289039427
 0.000863865422415525 0.009052426632640933 -0.0007589935046250198 -0.005721257539529924 0.004284659206298593 0.01814958437236671 0.9949707556578256 -0.04431998016534217
 -0.0007588936266440868 -0.005721259096058008 0.0008810933115512135 0.009050254289039427 0.9949707556578256 -0.04431998016534217 0.004281947636852075 0.01814983533187929
0.056273447269699996 0.004333733677082735 0.018431316742491984 0.9949056051517399 -0.04498271735880742 0.0008832344867393844 0.009186279998659338 -0.0007755538771469215 -0.005806231833413989
 0.9949056051517399 -0.04498271735880742 0.004330953442920856 0.018431563376966404 -0.000775656681398079 -0.005806230065149294 0.0009009752630455721 0.009184038908692268
 0.0008832344867393844 0.009186279998659338 -0.000775656681398079 -0.005806230065149294 0.004333718663265764 0.018430570479308423 0.9949055816533453 -0.04498347217307577
 -0.0007755538771469215 -0.005806231833413989 0.0009009752630455721 0.009184038908692268 0.9949055816533453 -0.04498347217307577 0.004330926516487456 0.018430827194318322
0.06252605252188 0.004722339011023093 0.02058769377334093 0.99438911541829 -0.05005755799486215 0.001038739072860484 0.010208125273657697 -0.0009092765392429091 -0.00645505008896171
 0.99438911541829 -0.05005755799486215 0.004718907699952986 0.02058798413473314 -0.0009094030415134932 -0.006455046451185287 0.0010606449175385659 0.010205311308805264
 0.001038739072860484 0.010208125273657697 -0.0009094030415134932 -0.006455046451185287 0.004722321172327459 0.020586866552500825 0.9943890865799357 -0.05005839756718094
 -0.0009092765392429091 -0.00645505008896171 0.0010606449175385659 0.010205311308805264 0.9943890865799357 -0.05005839756718094 0.004718874855574013 0.0205871695279262
0.06877865777407 0.005136040778439444 0.022762919718049453 0.9938389616116204 -0.05514803020746882 0.0012077887638551675 0.011229511088412178 -0.0010546038792733075 -0.007103744540179611
 0.9938389616116204 -0.05514803020746882 0.0051318898894775495 0.022763257674890437 -0.0010547564617732692 -0.007103738558646173 0.001234300305555342 0.011226034454548933
 0.0012077887638551675 0.011229511088412178 -0.0010547564617732692 -0.007103738558646173 0.005136019979357757 0.022762012152512934 0.9938389268393965 -0.05514895486926161
 -0.0010546038792733075 -0.007103744540179611 0.001234300305555342 0.011226034454548933 0.9938389268393965 -0.05514895486926161 0.005131850584546327 0.022762365618156578
0.07503126302626001 0.005575271732098253 0.024956489005174262 0.9932547266782579 -0.060253882340670806 0.0013904913651612146 0.012250215028968092 -0.0012116481516326403 -0.007752085366165244
 0.9932547266782579 -0.060253882340670806 0.005570332676127922 0.02495687859827635 -0.0012118291771040218 -0.0077520765284226495 0.0014220496075332614 0.012245978891960618
 0.0013904913651612146 0.012250215028968092 -0.0012118291771040218 -0.0077520765284226495 0.005575247867308598 0.02495550177419652 0.9932546853599151 -0.06025489245853787
 -0.0012116481516326403 -0.007752085366165244 0.0014220496075332614 0.012245978891960618 0.9932546853599151 -0.06025489245853787 0.0055702863865935304 0.024955910154312085
0.08128386827845 0.006040459636830746 0.02716790790647777 0.9926359966636035 -0.06537483138691438 0.0015869502985966651 0.01327000848935698 -0.0013805169453612117 -0.00839983932056066
 0.9926359966636035 -0.06537483138691438 0.006034663714202487 0.027168353354008 -0.0013807287567477197 -0.008399827075950281 0.0016239965332715098 0.013264908904263155
 0.0015869502985966651 0.01327000848935698 -0.0013807287567477197 -0.008399827075950281 0.006040432632364938 0.027166841751648758 0.9926359481666002 -0.0653759273661211
 -0.0013805169453612117 -0.00839983932056066 0.0016239965332715098 0.013264908904263155 0.9926359481666002 -0.0653759273661211 0.006034609937425297 0.02716730967022624
0.08753647353064001 0.006532027150485209 0.029396689495406497 0.9919823611308397 -0.0705105680470057 0.0017972644030806828 0.014288657078050637 -0.0015613130280865799 -0.00904676947096003
 0.9919823611308397 -0.0705105680470057 0.006525305529622833 0.02939719519869935 -0.001561557948209721 -0.009046753230632927 0.0018402401149937022 0.014282582919718107
 0.0017972644030806828 0.014288657078050637 -0.001561557948209721 -0.009046753230632927 0.006531996965857672 0.02939554522158919 0.9919823048015387 -0.07051175033004832
 -0.0015613130280865799 -0.00904676947096003 0.0018402401149937022 0.014282582919718107 0.9919823048015387 -0.07051175033004832 0.0065252437873946825 0.029396077508275296
0.09378907878283 0.007050391668859897 0.031642350068425966 0.991293413547569 -0.07566076034205493 0.0020215277408796124 0.015305920933116052 -0.0017541341840219453 -0.009692635042547314
 0.991293413547569 -0.07566076034205493 0.007042675363835234 0.03164292061887422 -0.0017544145151778903 -0.00969261417948273 0.002070874507103466 0.015298753828536439
 0.0020215277408796124 0.015305920933116052 -0.0017544145151778903 -0.00969261417948273 0.0070503582982550175 0.03164112854251622 0.9912933487089078 -0.07566202940918178
 -0.0017541341840219453 -0.009692635042547314 0.002070874507103466 0.015298753828536439 0.9912933487089078 -0.07566202940918178 0.0070426052047654775 0.03164173023966716
0.100041684035 0.007595965139946243 0.033904406530552655 0.9905687516461557 -0.08082505627707595 0.002259829407486608 0.01632155498106983 -0.001959073048292461 -0.010337191331525476
 0.9905687516461557 -0.08082505627707595 0.007587184989080412 0.033905046717355614 -0.001959391071886592 -0.010337165180566222 0.0023159887907079663 0.016313169243571825
 0.002259829407486608 0.01632155498106983 -0.001959391071886592 -0.010337165180566222 0.007595928613835129 0.033903108684634455 0.9905686775958475 -0.08082641264244486
 -0.001959073048292461 -0.010337191331525476 0.0023159887907079663 0.016313169243571825 0.9905686775958475 -0.08082641264244486 0.0075871059910129065 0.03390378505520252
0.1059090909091 0.008133036222049009 0.03604158698425368 0.9898558972395685 -0.08568369800348495 0.002496292795500246 0.017272914831843972 -0.0021624852127262338 -0.010940626806915108
 0.9898558972395685 -0.08568369800348495 0.008123194686901005 0.03604229705707241 -0.0021628406625323238 -0.010940595054983283 0.0025592465828484217 0.01726326465485956
 0.002496292795500246 0.017272914831843972 -0.0021628406625323238 -0.010940595054983283 0.008132996796003768 0.03604021842182763 0.9898558138823216 -0.08568513679011329
 -0.0021624852127262338 -0.010940626806915108 0.0025592465828484217 0.01726326465485956 0.9898558138823216 -0.08568513679011329 0.00812310703903697 0.03604096985631533
0.1062942892872 0.008169153858452405 0.036182374459486064 0.9898079777674003 -0.0860030858419373 0.0025122533444405936 0.017335309158388098 -0.00217621693940688 -0.010980189669309248
 0.9898079777674003 -0.0860030858419373 0.00815924050205628 0.036183089278520555 -0.0021765749154317726 -0.010980157527250008 0.002575666781416675 0.017325571723757715
 0.0025122533444405936 0.017335309158388098 -0.0021765749154317726 -0.010980157527250008 0.008169114245036361 0.03618100128587729 0.9898078937762346 -0.08600453005769132
 -0.00217621693940688 -0.010980189669309248 0.002575666781416675 0.017325571723757715 0.9898078937762346 -0.08600453005769132 0.008159152275059601 0.03618175782226493
0.11254689453939999 0.008770358244546689 0.03847576663580778 0.9890106991918164 -0.09119446256287457 0.0027788781550512737 0.018346928610905856 -0.0024056476899159216 -0.011621377422800115
 0.9890106991918164 -0.09119446256287457 0.008759242103146722 0.0384765612994378 -0.002406047856545968 -0.011621338548398924 0.002849986840762482 0.018335698975670528
 0.0027788781550512737 0.018346928610905856 -0.002406047856545968 -0.011621338548398924 0.008770315651417617 0.03847431919108964 0.9890106045019769 -0.09119599521411088
 -0.0024056476899159216 -0.011621377422800115 0.002849986840762482 0.018335698975670528 0.9890106045019769 -0.09119599521411088 0.008759144291946682 0.03847516162505262
0.11879949979160001 0.009399972611166022 0.04078409192407346 0.9881765284617581 -0.09639878471969465 0.003059776922747076 0.019356153876332074 -0.002647441476913459 -0.012260498025201592
 0.9881765284617581 -0.09639878471969465 0.009387583863274481 0.040784971872033164 -0.002647886049912249 -0.012260451639305527 0.003139021690089383 0.019343284038219954
 0.003059776922747076 0.019356153876332074 -0.002647886049912249 -0.012260451639305527 0.009399927187264236 0.04078257132341656 0.9881764222852157 -0.0964004064291119
 -0.002647441476913459 -0.012260498025201592 0.003139021690089383 0.019343284038219954 0.9881764222852157 -0.0964004064291119 0.009387476150308076 0.04078350563704112
0.1250521050438 0.01005838492181456 0.04310685440510752 0.9873050836958067 -0.10161563632914639 0.0033550170317571113 0.020362721056607233 -0.0029016686522095768 -0.012897291031268807
 0.9873050836958067 -0.10161563632914639 0.010044653482043801 0.043107825316497574 -0.0029021598244756814 -0.012897236316905519 0.0034428382279056945 0.02034805545736006
 0.0033550170317571113 0.020362721056607233 -0.0029021598244756814 -0.012897236316905519 0.010058336858328534 0.04310526182585271 0.9873049652120455 -0.10161734775220159
 -0.0029016686522095768 -0.012897291031268807 0.0034428382279056945 0.02034805545736006 0.9873049652120455 -0.10161734775220159 0.010044535590011415 0.043106294263340665
0.131304710296 0.010745976540905235 0.04544355270303534 0.9863959888976837 -0.10684458795093002 0.0036646599902780586 0.021366361987617863 -0.0031683935736154 -0.013531492189145665
 0.9863959888976837 -0.10684458795093002 0.010730832038071021 0.04544462050932617 -0.003168933514580308 -0.013531428291649519 0.003761497349362545 0.02134973745827553
 0.0036646599902780586 0.021366361987617863 -0.003168933514580308 -0.013531428291649519 0.010745926073376185 0.04544188938192772 0.9863958572521684 -0.10684638977721447
 -0.0031683935736154 -0.013531492189145665 0.003761497349362545 0.02134973745827553 0.9863958572521684 -0.10684638977721447 0.010730703732841141 0.04544302646272462
0.1375573155481 0.011318183717727534 0.04749010286351207 0.9855938990793773 -0.11178139384952449 0.00395283245181345 0.022338029546825237 -0.003411641852574088 -0.014134174791695585
 0.9855938990793773 -0.11178139384952449 0.011301549706338948 0.04749125241145683 -0.0034122335568457815 -0.014134101511993786 0.004058904734894733 0.02231945091659965
 0.00395283245181345 0.022338029546825237 -0.0034122335568457815 -0.014134101511993786 0.01131812974333451 0.047488370476904705 0.9855937536308169 -0.11178328651372277
 -0.003411641852574088 -0.014134174791695585 0.004058904734894733 0.02231945091659965 0.9855937536308169 -0.11178328651372277 0.01130141172163849 0.047489596389710884
0.1438099208003 0.011910864243985972 0.049523440015481264 0.984762893311059 -0.11670321327859169 0.004252526330704237 0.02330431475978416 -0.003664494262172562 -0.014731840117903952
 0.984762893311059 -0.11670321327859169 0.011892669059871422 0.04952467628933086 -0.0036651400144579738 -0.014731756612338671 0.004368232635589469 0.023283630939142583
 0.004252526330704237 0.02330431475978416 -0.0036651400144579738 -0.014731756612338671 0.011910806819550169 0.04952163993669332 0.9847627331998833 -0.11670519745774921
 -0.003664494262172562 -0.014731840117903952 0.004368232635589469 0.023283630939142583 0.9847627331998833 -0.11670519745774921 0.011892521399111067 0.04952296012638264
0.1500625260525 0.012523769674358337 0.051543322205159205 0.983903225673612 -0.12160985032571017 0.004563611156544795 0.024265073291654136 -0.003926822150702267 -0.015324350912227102
 0.983903225673612 -0.12160985032571017 0.012503941356729928 0.05154465054669122 -0.003927524223378394 -0.01532425630412575 0.004689347475440145 0.02424212767059285
 0.004563611156544795 0.024265073291654136 -0.003927524223378394 -0.01532425630412575 0.012523708884181391 0.05154145586201347 0.9839030500111513 -0.1216119267202541
 -0.003926822150702267 -0.015324350912227102 0.004689347475440145 0.02424212767059285 0.9839030500111513 -0.1216119267202541 0.012503784076621397 0.05154287614258773
0.15631513130469998 0.013156649321645078 0.05354951474479294 0.9830151520738869 -0.12650111152877103 0.004885954647291934 0.025220163926074908 -0.004198495031442441 -0.01591157338031682
 0.9830151520738869 -0.12650111152877103 0.01313511560500405 0.05355094086743935 -0.004199255684115439 -0.015911466760332865 0.0050221138102034095 0.025194794443352764
