! Created with skrf 1.8.0 (http://scikit-rf.org).
# GHz S RI R 50.0 
!freq ReS11 ImS11 ReS12 ImS12 ReS13 ImS13
! ReS14 ImS14
! ReS21 ImS21 ReS22 ImS22 ReS23 ImS23
! ReS24 ImS24
! ReS31 ImS31 ReS32 ImS32 ReS33 ImS33
! ReS34 ImS34
! ReS41 ImS41 ReS42 ImS42 ReS43 ImS43
! ReS44 ImS44
!
0.0 0.001416674142067 0.0 0.9985833258324 0.0 5.422891632957e-05 0.0 -5.422891650678e-05 6.641126902125719e-21
 0.9985833258324 0.0 0.001416674142094 0.0 -5.422891650757e-05 6.6411269022224664e-21 5.422891632945e-05 0.0
 5.422891632957e-05 0.0 -5.422891650757e-05 6.6411269022224664e-21 0.001416674140675 0.0 0.9985833258309 0.0
 -5.422891650678e-05 6.641126902125719e-21 5.422891632945e-05 0.0 0.9985833258309 0.0 0.001416674140662 0.0
0.005 0.001523844147882998 0.0011630341191784061 0.9984478216808265 -0.0029677127300551383 7.516769336330313e-05 0.0005747817620351058 -7.320554916475442e-05 -0.00036480263846057234
 0.9984478216808265 -0.0029677127300551383 0.001523841241436967 0.0011630357677285966 -7.320591418310972e-05 -0.00036480285544556064 7.517325790069893e-05 0.0005747794326727881
 7.516769336330313e-05 0.0005747817620351058 -7.320591418310972e-05 -0.00036480285544556064 0.0015238439503266065 0.0011629669247027632 0.9984478213393019 -0.002967779789222762
 -7.320554916475442e-05 -0.00036480263846057234 7.517325790069893e-05 0.0005747794326727881 0.9984478213393019 -0.002967779789222762 0.0015238407528983988 0.0011629688387748925
0.006252605252188 0.0015518508098875915 0.0014583641454245441 0.9984122077194936 -0.00371038098283719 8.108115378923286e-05 0.0007187732647376116 -7.851182283190285e-05 -0.0004564754708290509
 0.9984122077194936 -0.00371038098283719 0.001551846267576305 0.0014583662945734615 -7.851239133872324e-05 -0.0004564757370817492 8.108984542125797e-05 0.0007187702762067459
 8.108115378923286e-05 0.0007187732647376116 -7.851239133872324e-05 -0.0004564757370817492 0.0015518505737427367 0.0014582801511967872 0.9984122072579016 -0.0037104647997963976
 -7.851182283190285e-05 -0.0004564754708290509 8.108984542125797e-05 0.0007187702762067459 0.9984122072579016 -0.0037104647997963976 0.001551845575682172 0.0014582826441539819
0.01250521050438 0.001698696975107905 0.0029472868982105675 0.9982243424654954 -0.007421645145992039 0.00011463173576951719 0.001438016424526815 -0.00010834224606264468 -0.0009152052647110093
 0.9982243424654954 -0.007421645145992039 0.0016986788496078827 0.0029472920994319577 -0.00010834449275758891 -0.0009152057421853029 0.0001146663192020825 0.0014380095974885312
 0.00011463173576951719 0.001438016424526815 -0.00010834449275758891 -0.0009152057421853029 0.0016986965864054535 0.0029471190685401646 0.9982243411709592 -0.007421812522803669
 -0.00010834224606264468 -0.0009152052647110093 0.0001146663192020825 0.0014380095974885312 0.9982243411709592 -0.007421812522803669 0.0016986766263151671 0.002947125081916584
0.01875781575657 0.0018575122861501242 0.004457468546156281 0.9980195114175056 -0.011142842634737483 0.00015495622459167082 0.002158198728083394 -0.00014380706329511443 -0.0013755732786098463
 0.9980195114175056 -0.011142842634737483 0.001857471578005884 0.004457477774035996 -0.00014381208232685784 -0.0013755739003265088 0.00015503373295095118 0.0021581870115590053
 0.00015495622459167082 0.002158198728083394 -0.00014381208232685784 -0.0013755739003265088 0.0018575118426107755 0.004457216872783326 0.9980195089275853 -0.011143093438078414
 -0.00014380706329511443 -0.0013755732786098463 0.00015503373295095118 0.0021581870115590053 0.9980195089275853 -0.011143093438078414 0.0018574669825172797 0.004457227520831056
0.02501042100875 0.0020285886467530105 0.005986826403491641 0.9977974878234572 -0.014875798318403174 0.00020213098483776222 0.0028793579150228144 -0.00018499081738576116 -0.0018373905425877809
 0.9977974878234572 -0.014875798318403174 0.0020285163888376857 0.005986840704871503 -0.00018499969282159738 -0.0018373912286547339 0.00020226835293112472 0.002879340076564699
 0.00020213098483776222 0.0028793579150228144 -0.00018499969282159738 -0.0018373912286547339 0.0020285882535967417 0.00598649079666494 0.9977974837791139 -0.014876132453058473
 -0.00018499081738576116 -0.0018373905425877809 0.00020226835293112472 0.002879340076564699 0.9977974837791139 -0.014876132453058473 0.0020285085725198554 0.005986507281458908
0.03126302626094 0.002212205835866064 0.007534299849251171 0.9975580326302268 -0.018621306718309884 0.0002562328505594747 0.003601468647441539 -0.00023197596509220772 -0.002300526802126912
 0.9975580326302268 -0.018621306718309884 0.002212093090353724 0.007534320344003258 -0.0002319897726469676 -0.0023005274595867043 0.00025644693666719136 0.003601443275283899
 0.0002562328505594747 0.003601468647441539 -0.0002319897726469676 -0.0023005274595867043 0.0022122056033964414 0.007533880180282495 0.997558026674228 -0.018621724084604135
 -0.00023197596509220772 -0.002300526802126912 0.00025644693666719136 0.003601443275283899 0.997558026674228 -0.018621724084604135 0.002212081194900004 0.007533903792600064
0.037515631513130004 0.0024086377418619256 0.00909920580083384 0.9973009008790914 -0.02237977647621221 0.00031733845221102895 0.004324480777704643 -0.000284843447825263 -0.0027648722463385076
 0.9973009008790914 -0.02237977647621221 0.0024084755990887124 0.009099233682445891 -0.0002848632557950807 -0.002764872769060819 0.00031764604827413376 0.004324446281122323
 0.00031733845221102895 0.004324480777704643 -0.0002848632557950807 -0.002764872769060819 0.0024086377867107594 0.009098701903219457 0.997300892658201 -0.02238027696862594
 -0.000284843447825263 -0.0027648722463385076 0.00031764604827413376 0.004324446281122323 0.997300892658201 -0.02238027696862594 0.0024084587574790413 0.009098734023644804
0.043768236765320004 0.002618154782440524 0.010681042561965285 0.9970258442888493 -0.02615142644045203 0.00038552390484353753 0.005048330977214408 -0.0003436728966463146 -0.0032303258729444568
 0.9970258442888493 -0.02615142644045203 0.0026179343600508677 0.010681079098162384 -0.0003436997663196467 -0.0032303261415630538 0.0003859417414601875 0.00504828558630302
 0.00038552390484353753 0.005048330977214408 -0.0003436997663196467 -0.0032303261415630538 0.0026181552249702447 0.010680454227971101 0.9970258334520605 -0.026152009951042225
 -0.0003436728966463146 -0.0032303258729444568 0.0003859417414601875 0.00504828558630302 0.9970258334520605 -0.026152009951042225 0.00261791169485608 0.010680496327679258
0.050020842017509996 0.0028410250300711115 0.012279408759117767 0.9967326125449945 -0.029936366661787086 0.00046086461902030416 0.005772947548628401 -0.00040854271134245946 -0.00369679067036831
 0.9967326125449945 -0.029936366661787086 0.0028407374728309557 0.012279455292352 -0.0004085776973017127 -0.003696790552214334 0.00046140936832009976 0.005772889313831037
 0.00046086461902030416 0.005772947548628401 -0.0004085776973017127 -0.003696790552214334 0.002841025994534032 0.012278735747910833 0.9967325987446799 -0.029937033071827542
 -0.00040854271134245946 -0.00369679067036831 0.00046140936832009976 0.005772889313831037 0.9967325987446799 -0.029937033071827542 0.002840708096357078 0.012278789389585725
0.055454545454549996 0.0030457573371333742 0.013681595544439653 0.9964628294498027 -0.03323642083582493 0.0005322068711456819 0.00640322345663839 -0.00046988204051474046 -0.004102909824045431
 0.9964628294498027 -0.03323642083582493 0.0030454042671338682 0.01368165191410926 -0.00046992493115087357 -0.004102909251661419 0.0005328754063020678 0.006403152336902291
 0.0005322068711456819 0.00640322345663839 -0.00046992493115087357 -0.004102909251661419 0.0030457588592139916 0.013680848722018834 0.9964628127953324 -0.033237159186003444
 -0.00046988204051474046 -0.004102909824045431 0.0005328754063020678 0.006403152336902291 0.9964628127953324 -0.033237159186003444 0.0030453683297493404 0.01368091373480792
0.056273447269699996 0.003077514798794041 0.013893963548185333 0.996420954054229 -0.03373463811891514 0.0005434351694529273 0.0064982527711825305 -0.0004795300802873098 -0.004164171268300941
 0.996420954054229 -0.03373463811891514 0.003077151278525663 0.013894021496194018 -0.00047957423059004985 -0.004164170617349479 0.000544123445766192 0.006498179562747412
 0.0005434351694529273 0.0064982527711825305 -0.00047957423059004985 -0.004164170617349479 0.0030775164130808735 0.013893205581468563 0.9964209369469357 -0.033735387303181624
 -0.0004795300802873098 -0.004164171268300941 0.000544123445766192 0.006498179562747412 0.9964209369469357 -0.033735387303181624 0.0030771142927916613 0.013893272420146636
0.06252605252188 0.0033278889641133558 0.015524404742958629 0.9960906164344964 -0.037546234523893274 0.0006333091885749689 0.007224164203333726 -0.0005567109729266926 -0.004632372633109355
 0.9960906164344964 -0.037546234523893274 0.0033274406799428348 0.015524475599244322 -0.0005567653291357847 -0.004632371289926708 0.0006341575487695904 0.007224073710710691
 0.0006333091885749689 0.007224164203333726 -0.0005567653291357847 -0.004632371289926708 0.0033278913588453444 0.015523561508705402 0.9960905956807758 -0.037547066346847784
 -0.0005567109729266926 -0.004632372633109355 0.0006341575487695904 0.007224073710710691 0.9960905956807758 -0.037547066346847784 0.003327395176353847 0.015523643292498042
0.06877865777407 0.0035924111398144866 0.017170455765974077 0.9957413468645204 -0.04137111530705085 0.0007305592777858095 0.007950595446870923 -0.0006401601134899928 -0.005101299304275455
 0.9957413468645204 -0.04137111530705085 0.003591869318230827 0.017170541100265297 -0.000640225710710893 -0.0051012970959673975 0.0007315842203685607 0.007950485178083031
 0.0007305592777858095 0.007950595446870923 -0.000640225710710893 -0.0051012970959673975 0.003592414446858264 0.017169526920698577 0.9957413221287809 -0.041372029620469486
 -0.0006401601134899928 -0.005101299304275455 0.0007315842203685607 0.007950485178083031 0.9957413221287809 -0.041372029620469486 0.0035918143763423896 0.017169625491661445
0.07503126302626001 0.003871343767735831 0.018831857383744075 0.9953728923503236 -0.045209213820222395 0.0008352569262297082 0.008677456638714191 -0.0007299509453843879 -0.0055708549057913665
 0.9953728923503236 -0.045209213820222395 0.0038706996629674 0.018831958842552794 -0.0007300288122686065 -0.005570851645954755 0.0008364748899644924 0.008677323919791261
 0.0008352569262297082 0.008677456638714191 -0.0007300288122686065 -0.005570851645954755 0.0038713481205884886 0.01883084254799061 0.9953728633020248 -0.045210210467670646
 -0.0007299509453843879 -0.0055708549057913665 0.0008364748899644924 0.008677323919791261 0.9953728633020248 -0.045210210467670646 0.0038706343510704374 0.018830959842922632
0.08128386827845 0.004164948156277172 0.020508362196816326 0.9949849999425553 -0.04906044278810943 0.000947472435118922 0.009404654779074538 -0.0008261555884424996 -0.006040941824114037
 0.9949849999425553 -0.04906044278810943 0.0041641930506817115 0.02050848150386199 -0.0008262467471042249 -0.0060409373127966745 0.0009488997976746209 0.00940449675346242
 0.000947472435118922 0.009404654779074538 -0.0008262467471042249 -0.0060409373127966745 0.00416495368898695 0.020507260958367714 0.9949849662561009 -0.04906152160171577
 -0.0008261555884424996 -0.006040941824114037 0.0009488997976746209 0.00940449675346242 0.9949849662561009 -0.04906152160171577 0.004164116425273275 0.020507399009531444
0.08753647353064001 0.004473484481411313 0.02219973083443051 0.9945774169195026 -0.0529246980580871 0.0010672748464342933 0.010132093957059031 -0.0009288447908863836 -0.006511460991654542
 0.9945774169195026 -0.0529246980580871 0.00447260968572843 0.022199869791189285 -0.0009289502568542909 -0.00651145501531728 0.001068927922150786 0.010131907585075723
 0.0010672748464342933 0.010132093957059031 -0.0009289502568542909 -0.00651145501531728 0.004473491327876306 0.02219854275063881 0.9945773782745596 -0.05292585885612071
 -0.0009288447908863836 -0.006511460991654542 0.001068927922150786 0.010131907585075723 0.9945773782745596 -0.05292585885612071 0.004472520791018314 0.022198703686608513
0.09378907878283 0.00479721176499013 0.023905729237474353 0.9941498909506297 -0.05680186126517085 0.0011947318724571483 0.010859675518612937 -0.0010380878787602584 -0.006982311731090002
 0.9941498909506297 -0.05680186126517085 0.004796208619129023 0.023905889723517707 -0.001038208660909224 -0.006982304062553016 0.0011966269102545615 0.010859457576927928
 0.0011947318724571483 0.010859675518612937 -0.001038208660909224 -0.006982304062553016 0.0047972200581190266 0.023904453828298936 0.994149847032359 -0.05680310385907251
 -0.0010380878787602584 -0.006982311731090002 0.0011966269102545615 0.010859457576927928 0.994149847032359 -0.05680310385907251 0.004796106486377702 0.023904639874644244
0.100041684035 0.005136387834073913 0.025626126652696157 0.9937021702432544 -0.06069180178924629 0.0013299098279723899 0.011587298188786014 -0.0011539527018117656 -0.007453391648485265
 0.9937021702432544 -0.06069180178924629 0.005135247707244353 0.025626310626319718 -0.0011540898021884759 -0.007453382046914059 0.001332063008910482 0.01158704527000771
 0.0013299098279723899 0.011587298188786014 -0.0011540898021884759 -0.007453382046914059 0.0051363977054995815 0.025624763407832415 0.9937021207432725 -0.060693125976537976
 -0.0011539527018117656 -0.007453391648485265 0.001332063008910482 0.01158704527000771 0.9937021207432725 -0.060693125976537976 0.005135131355398409 0.02562497688791203
0.1059090909091 0.005468947677153214 0.027253428944094694 0.9932634412528284 -0.0643535933748216 0.0014638398890406776 0.012270039849314114 -0.001268761040274743 -0.007895565835071248
 0.9932634412528284 -0.0643535933748216 0.005467671185387436 0.027253636809807844 -0.0012689143587851057 -0.007895554188313586 0.0014662499636300327 0.012269750844893708
 0.0014638398890406776 0.012270039849314114 -0.0012689143587851057 -0.007895554188313586 0.005468959147174281 0.027251982780891557 0.99326338623992 -0.0643549939351105
 -0.001268761040274743 -0.007895565835071248 0.0014662499636300327 0.012269750844893708 0.99326338623992 -0.0643549939351105 0.005467540586100423 0.02725222420544327
0.1062942892872 0.005491269267985621 0.027360694141006045 0.9932340036806251 -0.06459437820207334 0.0014728735628056695 0.012314858169255491 -0.0012765055778345272 -0.007924596554633657
 0.9932340036806251 -0.06459437820207334 0.005489983559444169 0.02736090363958601 -0.001276659991585825 -0.007924584765495745 0.001475300997396082 0.012314566681475386
 0.0014728735628056695 0.012314858169255491 -0.001276659991585825 -0.007924584765495745 0.0054912808468729115 0.027359242516998315 0.993233948296657 -0.0645957837692632
 -0.0012765055778345272 -0.007924596554633657 0.001475300997396082 0.012314566681475386 0.993233948296657 -0.0645957837692632 0.00548985199392012 0.027359485852711106
0.11254689453939999 0.005862111335999161 0.0291092034233385 0.9927451409523533 -0.06850943938047642 0.0016236863950053115 0.013042249216058305 -0.0014058112353063004 -0.008395820409489873
 0.9927451409523533 -0.06850943938047642 0.005860671475711099 0.02910944056382586 -0.0014059839505561065 -0.008395806164525408 0.0016264041205603463 0.01304191538253569
 0.0016236863950053115 0.013042249216058305 -0.0014059839505561065 -0.008395806164525408 0.005862124748694951 0.02910766284364939 0.9927450793890343 -0.0685109261030939
 -0.0014058112353063004 -0.008395820409489873 0.0016264041205603463 0.01304191538253569 0.9927450793890343 -0.0685109261030939 0.005860523688378368 0.02910793855614759
0.11879949979160001 0.006249167925721228 0.03087142598523565 0.9922353326791647 -0.0724368253649534 0.0017824100448984009 0.013769362703326432 -0.00154193275447079 -0.008866955284188955
 0.9922353326791647 -0.0724368253649534 0.006247565374803166 0.030871692964636946 -0.001542124752172079 -0.008866938301390665 0.0017854340224788517 0.013768982562142255
 0.0017824100448984009 0.013769362703326432 -0.001542124752172079 -0.008866938301390665 0.006249183295003775 0.03086979584004122 0.9922352646483245 -0.0724383930078407
 -0.00154193275447079 -0.008866955284188955 0.0017854340224788517 0.013768982562142255 0.9922352646483245 -0.0724383930078407 0.00624740034366846 0.030870106550489475
0.1250521050438 0.006652691466851846 0.032647132368124165 0.9917043305342953 -0.07637636803571161 0.001949104568734053 0.01449608768013785 -0.0016849315078301076 -0.009337891333425545
 0.9917043305342953 -0.07637636803571161 0.006650917718001286 0.032647431463966155 -0.001685143761578806 -0.009337871317019132 0.0019524506801255367 0.014495657084005145
 0.001949104568734053 0.01449608768013785 -0.001685143761578806 -0.009337871317019132 0.006652708911013113 0.03264541201638065 0.9917042557554131 -0.07637801635108799
 -0.0016849315078301076 -0.009337891333425545 0.0019524506801255367 0.014495657084005145 0.9917042557554131 -0.07637801635108799 0.0066507344070132505 0.03264576044670941
0.131304710296 0.007072932848692271 0.03443609160425071 0.9911518873625991 -0.0803278916493908 0.0021238282929310704 0.015222310917976371 -0.0018348670992390792 -0.009808516781033824
 0.9911518873625991 -0.0803278916493908 0.007070979427334101 0.03443642517497979 -0.001835100575185269 -0.009808493421454364 0.0021275123376485105 0.015221825534016513
 0.0021238282929310704 0.015222310917976371 -0.001835100575185269 -0.009808493421454364 0.007072952481045972 0.03443428037064808 0.991151805562983 -0.08032962038009159
 -0.0018348670992390792 -0.009808516781033824 0.0021275123376485105 0.015221825534016513 0.991151805562983 -0.08032962038009159 0.007070776785804174 0.034434669344188575
0.1375573155481 0.007410587646738559 0.036005619288449794 0.9906773451818913 -0.08405866656863879 0.002283574573957871 0.015924613676164167 -0.0019687362227509037 -0.010255428033827469
 0.9906773451818913 -0.08405866656863879 0.007408444782356226 0.03600598051519645 -0.001968992158643578 -0.010255401310857046 0.0022876122815052077 0.015924074228357024
 0.002283574573957871 0.015924613676164167 -0.001968992158643578 -0.010255401310857046 0.007410608745048553 0.036003716924254255 0.9906772560524588 -0.08406047549462654
 -0.0019687362227509037 -0.010255428033827469 0.0022876122815052077 0.015924074228357024 0.9906772560524588 -0.08406047549462654 0.00740822264949078 0.036004139263633515
0.1438099208003 0.007760030557027435 0.03756745928022001 0.9901863056681065 -0.0877805512619824 0.002449767046954587 0.01662436665360183 -0.0021079622652241505 -0.01069998777803898
 0.9901863056681065 -0.0877805512619824 0.007757689603611194 0.037567849799487456 -0.002108241665567418 -0.010699957392694661 0.002454174080446914 0.01662376908375399
 0.002449767046954587 0.01662436665360183 -0.002108241665567418 -0.010699957392694661 0.007760053074396035 0.037565465114132016 0.9901862089411927 -0.08778244011662711
 -0.0021079622652241505 -0.01069998777803898 0.002454174080446914 0.01662376908375399 0.9901862089411927 -0.08778244011662711 0.007757447067497499 0.03756592284383763
0.1500625260525 0.008121146342073688 0.03912149775078832 0.9896788876441472 -0.09149347007344931 0.0026223523915776107 0.01732150850336466 -0.002252493198089448 -0.011142137305779148
 0.9896788876441472 -0.09149347007344931 0.008118598671855557 0.039121919271010504 -0.00225279706364767 -0.011142102947278104 0.0026271443343306214 0.017320848600307352
 0.0026223523915776107 0.01732150850336466 -0.00225279706364767 -0.011142102947278104 0.008121170216621723 0.03911941108563994 0.9896787830597181 -0.09149543857946912
 -0.002252493198089448 -0.011142137305779148 0.0026271443343306214 0.017320848600307352 0.9896787830597181 -0.09149543857946912 0.008118334816569388 0.039119906315055415
0.15631513130469998 0.008493819041300012 0.04066762437908651 0.9891552104326854 -0.09519734728424478 0.0028012767086612136 0.0180159788485288 -0.002402276400082224 -0.011581819086794542
