! Created with skrf 1.8.0 (http://scikit-rf.org).
# GHz S RI R 50.0 
!freq ReS11 ImS11 ReS12 ImS12 ReS13 ImS13
! ReS14 ImS14
! ReS21 ImS21 ReS22 ImS22 ReS23 ImS23
! ReS24 ImS24
! ReS31 ImS31 ReS32 ImS32 ReS33 ImS33
! ReS34 ImS34
! ReS41 ImS41 ReS42 ImS42 ReS43 ImS43
! ReS44 ImS44
!
0.0 0.001660675886027 0.0 0.998339324114 0.0 6.415493562693e-05 0.0 -6.415493584832e-05 7.856713683614887e-21
 0.998339324114 0.0 0.001660675886045 0.0 -6.415493584938e-05 7.856713683744701e-21 6.415493562668e-05 0.0
 6.415493562693e-05 0.0 -6.415493584938e-05 7.856713683744701e-21 0.001660675874671 0.0 0.9983393241026 0.0
 -6.415493584832e-05 7.856713683614887e-21 6.415493562668e-05 0.0 0.9983393241026 0.0 0.00166067587464 0.0
0.005 0.001787093104365495 0.0013600913247295192 0.9981793424581297 -0.003478137900229559 8.979300866563968e-05 0.0006959952550200044 -8.72617391074789e-05 -0.0004386951744276922
 0.9981793424581297 -0.003478137900229559 0.001787098516193301 0.0013600882139140134 -8.726153038541582e-05 -0.00043869508694814797 8.976925399894071e-05 0.0006960044848139485
 8.979300866563968e-05 0.0006959952550200044 -8.726153038541582e-05 -0.00043869508694814797 0.0017870924682927595 0.001360024480965743 0.9981793420855709 -0.0034782049563141363
 -8.72617391074789e-05 -0.0004386951744276922 8.976925399894071e-05 0.0006960044848139485 0.9981793420855709 -0.0034782049563141363 0.001787098412173154 0.0013600209490299984
0.006252605252188 0.0018203558436493685 0.0017054407754083206 0.9981369682313135 -0.004348504929340255 9.716712786755777e-05 0.0008703299484508425 -9.383047021376758e-05 -0.000548927192891692
 0.9981369682313135 -0.004348504929340255 0.0018203643022272247 0.0017054367767617182 -9.383014484582472e-05 -0.0005489270866343776 9.713001564608275e-05 0.0008703419073986998
 9.716712786755777e-05 0.0008703299484508425 -9.383014484582472e-05 -0.0005489270866343776 0.0018203549348152495 0.0017053572223562077 0.9981369677349051 -0.004348588756611322
 -9.383047021376758e-05 -0.000548927192891692 9.713001564608275e-05 0.0008703419073986998 0.9981369677349051 -0.004348588756611322 0.001820364226130017 0.0017053526833633059
0.01250521050438 0.0019960827763837153 0.003446376813836234 0.9979115624897046 -0.008697680177277862 0.000139717517636119 0.0017410082150522848 -0.00013134089662448812 -0.0011004347192968464
 0.9979115624897046 -0.008697680177277862 0.001996116538825675 0.0034463676926550055 -0.0001313396073450481 -0.0011004345418261581 0.00013956959030273188 0.0017410367283928981
 0.000139717517636119 0.0017410082150522848 -0.0001313396073450481 -0.0011004345418261581 0.001996079680770451 0.0034462100696006277 0.9979115610474736 -0.00869784757484525
 -0.00013134089662448812 -0.0011004347192968464 0.00013956959030273188 0.0017410367283928981 0.9979115610474736 -0.00869784757484525 0.0019961167852306817 0.00344619971958667
0.01875781575657 0.0021882630593980765 0.005211854049446827 0.9976628105024488 -0.013058082653151122 0.000191908674847164 0.0026125884109860684 -0.0001768059649326783 -0.001653727547819328
 0.9976628105024488 -0.013058082653151122 0.0021883389017029204 0.005211838585545082 -0.00017680308005658618 -0.0016537273441031733 0.000191576529143645 0.002612639067176208
 0.000191908674847164 0.0026125884109860684 -0.00017680308005658618 -0.0016537273441031733 0.002188256518423386 0.005211604340090201 0.9976628076884296 -0.01305833354395402
 -0.0001768059649326783 -0.001653727547819328 0.000191576529143645 0.002612639067176208 0.9976628076884296 -0.01305833354395402 0.0021883399038318614 0.0052115867847455895
0.02501042100875 0.0023972897415525203 0.0069993777137061786 0.9973904035665582 -0.017431796799805957 0.0002538443284449947 0.0034850861411661943 -0.00023034117227745807 -0.002208541594256235
 0.9973904035665582 -0.017431796799805957 0.0023974243905721137 0.006999354593411047 -0.00023033606453078494 -0.00220854141965312 0.00025325462462630783 0.0034851654803542344
 0.0002538443284449947 0.0034850861411661943 -0.00023033606453078494 -0.00220854141965312 0.002397278478228896 0.006999045269763591 0.9973903989402713 -0.017432131146715032
 -0.00023034117227745807 -0.002208541594256235 0.00025325462462630783 0.0034851654803542344 0.9973903989402713 -0.017432131146715032 0.002397426579446665 0.00699901899514929
0.03126302626094 0.0026235396203934964 0.008807649523542635 0.9970940180748493 -0.021819697381950283 0.0003256283439536055 0.0043584376829701515 -0.0002920584955707329 -0.0027646850553436934
 0.9970940180748493 -0.021819697381950283 0.002623749761412268 0.00880761733970964 -0.00029205054136815606 -0.002764684975707928 0.0003247077316566131 0.004358553200327557
 0.0003256283439536055 0.0043584376829701515 -0.00029205054136815606 -0.002764684975707928 0.0026235223593168103 0.008807234595669355 0.9970940112002732 -0.021820115172489905
 -0.0002920584955707329 -0.0027646850553436934 0.0003247077316566131 0.004358553200327557 0.9970940112002732 -0.021820115172489905 0.00262375358582595 0.008807197967880437
0.037515631513130004 0.0028673810981952592 0.010635812028884653 0.9967733236701423 -0.02622220507630898 0.00040736372392466327 0.005232547626228593 -0.00036206716549019 -0.0033219907845447793
 0.9967733236701423 -0.02622220507630898 0.002867683379895328 0.010635769280642445 -0.0003620557446529818 -0.0033219908763223592 0.0004060388083036707 0.005232707779965206
 0.00040736372392466327 0.005232547626228593 -0.0003620557446529818 -0.0033219908763223592 0.002867356557835707 0.010635314901224305 0.9967733141074754 -0.02622270630978811
 -0.00036206716549019 -0.0033219907845447793 0.0004060388083036707 0.005232707779965206 0.9967733141074754 -0.02622270630978811 0.0028676892984258605 0.010635266165660042
0.043768236765320004 0.003129177196795232 0.012483218665513916 0.9964279865606374 -0.03063951634604459 0.0004991521231040382 0.006107303387804322 -0.0004404739360080135 -0.00388030179346015
 0.9964279865606374 -0.03063951634604459 0.0031295882345662982 0.012483163758017656 -0.00044045843155763334 -0.003880302143766609 0.0004973494478972648 0.006107517608708004
 0.0004991521231040382 0.006107303387804322 -0.00044045843155763334 -0.003880302143766609 0.003129144093084264 0.012482639647887763 0.9964279738687462 -0.030640101041834646
 -0.0004404739360080135 -0.00388030179346015 0.0004973494478972648 0.006107517608708004 0.9964279738687462 -0.030640101041834646 0.00312959671952998 0.012482576928431858
0.050020842017509996 0.003409286955985395 0.014349338704309891 0.9960576712222874 -0.035071698417571816 0.0006010935558644091 0.006982581181114798 -0.0005273831632206002 -0.004439465301390434
 0.9960576712222874 -0.035071698417571816 0.0034098233351449745 0.014349269948377472 -0.0005273629614691963 -0.0044394660080818845 0.0005987395958090612 0.0069828598827504345
 0.0006010935558644091 0.006982581181114798 -0.0005273629614691963 -0.0044394660080818845 0.003409244001883608 0.014348678136110148 0.9960576549568074 -0.03507236661162619
 -0.0005273831632206002 -0.004439465301390434 0.0005987395958090612 0.0069828598827504345 0.9960576549568074 -0.03507236661162619 0.003409834870960877 0.014348599434306825
0.055454545454549996 0.003667860135053015 0.015985891468128077 0.9957153094570819 -0.03893546540795252 0.0006980055342343214 0.007743545697480329 -0.0006098942029452008 -0.004925969991260116
 0.9957153094570819 -0.03893546540795252 0.0036685188869528883 0.015985809232063424 -0.0006098694231799186 -0.004925971095525022 0.0006951127239296919 0.007743889663089924
 0.0006980055342343214 0.007743545697480329 -0.0006098694231799186 -0.004925971095525022 0.0036678075736325767 0.015985160336457718 0.9957152897230939 -0.038936206199098884
 -0.0006098942029452008 -0.004925969991260116 0.0006951127239296919 0.007743889663089924 0.9957152897230939 -0.038936206199098884 0.0036685334779125193 0.01598506602680708
0.056273447269699996 0.003708066137268818 0.01623371061747951 0.9956620414110455 -0.039518735842815476 0.000713286174313688 0.007858248982603762 -0.0006228968136865854 -0.004999329792477958
 0.9956620414110455 -0.039518735842815476 0.003708744414878513 0.016233626229152733 -0.0006228713041390781 -0.004999330964219094 0.0007103073326896539 0.007858603571817632
 0.000713286174313688 0.007858248982603762 -0.0006228713041390781 -0.004999330964219094 0.003708012043298966 0.01623296887542462 0.9956620211247256 -0.039519487580376295
 -0.0006228968136865854 -0.004999329792477958 0.0007103073326896539 0.007858603571817632 0.9956620211247256 -0.039519487580376295 0.003708759499260205 0.016232872069547807
0.06252605252188 0.004025867589215109 0.01813591643386553 0.9952407608425872 -0.04398055607695321 0.0008358260937430158 0.008734168147889604 -0.0007271144238295833 -0.0055597434284944056
 0.9952407608425872 -0.04398055607695321 0.004026704296734992 0.018135814533952997 -0.0007270829993213247 -0.005559745184828056 0.0008321487036691574 0.008734611035452184
 0.0008358260937430158 0.008734168147889604 -0.0007270829993213247 -0.005559745184828056 0.004025801064668719 0.018135093929899097 0.9952407360848718 -0.04398139141503504
 -0.0007271144238295833 -0.0055597434284944056 0.0008321487036691574 0.008734611035452184 0.9952407360848718 -0.04398139141503504 0.004026723441010627 0.018134976773970822
0.06877865777407 0.0043630414299958755 0.02005556645713476 0.9947934936928615 -0.04845704469884928 0.0009688072373957254 0.009610194386661825 -0.0008401330387686629 -0.006120553108713339
 0.9947934936928615 -0.04845704469884928 0.004364053075168544 0.020055445070656652 -0.0008400950955175043 -0.006120555580122909 0.000964357565807181 0.009610738997969569
 0.0009688072373957254 0.009610194386661825 -0.0008400950955175043 -0.006120555580122909 0.004362961182914886 0.020054663635932196 0.9947934640090009 -0.04845796370917872
 -0.0008401330387686629 -0.006120553108713339 0.000964357565807181 0.009610738997969569 0.9947934640090009 -0.04845796370917872 0.004364076804337507 0.02005452375866345
0.07503126302626001 0.0047199351176049 0.02199228957491456 0.9943199049912931 -0.052948055047055145 0.001112321194640465 0.010486178394954512 -0.0009620471363289061 -0.006681603878619395
 0.9943199049912931 -0.052948055047055145 0.004721138186709761 0.021992146630482073 -0.0009620020740945229 -0.0066816072065873046 0.0011070254480144658 0.010486839180706878
 0.001112321194640465 0.010486178394954512 -0.0009620020740945229 -0.0066816072065873046 0.00471983985542716 0.021991306916854105 0.9943198699215862 -0.05294905781339514
 -0.0009620471363289061 -0.006681603878619395 0.0011070254480144658 0.010486839180706878 0.9943198699215862 -0.05294905781339514 0.004721167039224279 0.02199114182052197
0.08128386827845 0.00509689345123839 0.02394572681896923 0.9938196609496052 -0.05745341461173574 0.0012664570882926145 0.011361966280640848 -0.001092948540568222 -0.007242738551883626
 0.9938196609496052 -0.05745341461173574 0.005098304410628555 0.023945560148135352 -0.0010928957627096446 -0.007242742888951552 0.0012602414198236319 0.011362758727506745
 0.0012664570882926145 0.011361966280640848 -0.0010928957627096446 -0.007242742888951552 0.0050967818818865845 0.023944664842047884 0.9938196200299404 -0.05745450122836594
 -0.001092948540568222 -0.007242738551883626 0.0012602414198236319 0.011362758727506745 0.9938196200299404 -0.05745450122836594 0.005098338939796231 0.023944471901327705
0.08753647353064001 0.005494258527146701 0.025915526914097937 0.9932924292497919 -0.061972929445273404 0.0014313014464342514 0.012237399867758791 -0.0012329263293861482 -0.007803797460247624
 0.9932924292497919 -0.061972929445273404 0.005495893825499702 0.025915334250549017 -0.0012328652430924284 -0.00780380297006039 0.0014240919643833236 0.012238340508918732
 0.0014313014464342514 0.012237399867758791 -0.0012328652430924284 -0.00780380297006039 0.005494129359552609 0.025914386173576196 0.9932923820100847 -0.06197410001761591
 -0.0012329263293861482 -0.007803797460247624 0.0014240919643833236 0.012238340508918732 0.9932923820100847 -0.06197410001761591 0.005495934598877103 0.02591416263433455
0.09378907878283 0.0059123696621630065 0.02790134310130872 0.9927378793030073 -0.06650638730658476 0.0016069380782449006 0.013112316924885742 -0.0013820667370813625 -0.008364618286275442
 0.9927378793030073 -0.06650638730658476 0.005914245732062965 0.02790112208009628 -0.001381996753435794 -0.008364625143648182 0.0015986608555017237 0.013113423350535652
 0.0016069380782449006 0.013112316924885742 -0.001381996753435794 -0.008364625143648182 0.00591222160686635 0.027900124188680868 0.9927378252674769 -0.06650764195257984
 -0.0013820667370813625 -0.008364618286275442 0.0015986608555017237 0.013113423350535652 0.9927378252674769 -0.06650764195257984 0.005914293332372963 0.027899867166575238
0.100041684035 0.006351563294318724 0.02990283081577296 0.9921556824904626 -0.07105355995863742 0.001793447952321588 0.013986551346137339 -0.0015404530536529798 -0.008925035950612708
 0.9921556824904626 -0.07105355995863742 0.006353696554186813 0.029902578972383513 -0.0015403735878548297 -0.00892504434155938 0.0017840290364058223 0.013987842213830471
 0.001793447952321588 0.013986551346137339 -0.0015403735878548297 -0.00892504434155938 0.0063513950640948 0.029901534362474298 0.9921556211764203 -0.07105489880523434
 -0.0015404530536529798 -0.008925035950612708 0.0017840290364058223 0.013987842213830471 0.9921556211764203 -0.07105489880523434 0.006353751579081003 0.0299012408416306
0.1059090909091 0.006783171304087193 0.03179496130152116 0.9915839172088315 -0.07533285681412946 0.001978426309515719 0.01480615553611505 -0.0016975623854586044 -0.009450412283367987
 0.9915839172088315 -0.07533285681412946 0.006785560830830728 0.03179467820378613 -0.001697473493598221 -0.009450422292609943 0.0019678687639198104 0.014807637411712541
 0.001978426309515719 0.01480615553611505 -0.001697473493598221 -0.009450422292609943 0.006782982974200132 0.031793592689432 0.9915838486198076 -0.07533427480268785
 -0.0016975623854586044 -0.009450412283367987 0.0019678687639198104 0.014807637411712541 0.9915838486198076 -0.07533427480268785 0.006785623380502793 0.031793262057027545
0.1062942892872 0.006812172866246101 0.03191964594558983 0.9915455123902606 -0.07561420489383679 0.0019909090765249863 0.014859933294753231 -0.0017081655215719163 -0.009484882543981232
 0.9915455123902606 -0.07561420489383679 0.006814579722219145 0.031919360714954076 -0.0017080759931115174 -0.009484892665762624 0.001980274500764625 0.014861428339621556
 0.0019909090765249863 0.014859933294753231 -0.0017080759931115174 -0.009484892665762624 0.006811983177318677 0.03191827261857828 0.9915454433083647 -0.0756156280816106
 -0.0017081655215719163 -0.009484882543981232 0.001980274500764625 0.014861428339621556 0.9915454433083647 -0.0756156280816106 0.006814642784979131 0.03191793945012144
0.11254689453939999 0.007294528695676311 0.03395144350268501 0.9909070449948284 -0.08018806665575323 0.0021993963795852636 0.01573228932983169 -0.0018852812307068687 -0.010043987283370638
 0.9909070449948284 -0.08018806665575323 0.007297225543190034 0.033951122218167575 -0.0018851810634896082 -0.010043999344536382 0.002187472174500493 0.015734009374646238
 0.0021993963795852636 0.01573228932983169 -0.0018851810634896082 -0.010043999344536382 0.007294316268160629 0.033949994007811055 0.9909069676481427 -0.08018957433586084
 -0.0018852812307068687 -0.010043987283370638 0.002187472174500493 0.015734009374646238 0.9909069676481427 -0.08018957433586084 0.007297297273261512 0.033949617908289154
0.11879949979160001 0.007798957836426371 0.03599787659721388 0.9902399589223534 -0.08477487786665094 0.002418981593449987 0.016603442514031317 -0.002071874011880842 -0.010602176494836473
 0.9902399589223534 -0.08477487786665094 0.007801961062169625 0.035997516489407196 -0.002071762634450777 -0.010602190715251156 0.002405693799140311 0.016605409479156483
 0.002418981593449987 0.016603442514031317 -0.002071762634450777 -0.010602190715251156 0.00779872139511624 0.035996351680677593 0.990239872806043 -0.08477647019936958
 -0.002071874011880842 -0.010602176494836473 0.002405693799140311 0.016605409479156483 0.990239872806043 -0.08477647019936958 0.007802042105018878 0.03599592923047798
0.1250521050438 0.008325783930288868 0.038058595632971925 0.9895439356219103 -0.08937436004289757 0.0026497331370656007 0.01747321251462502 -0.002268014329232273 -0.011159273610770064
 0.9895439356219103 -0.08937436004289757 0.008329109913989503 0.03805819382849431 -0.002267891174971261 -0.011159290221663523 0.0026350078158227513 0.01747544942770308
 0.0026497331370656007 0.01747321251462502 -0.002267891174971261 -0.011159290221663523 0.008325522205434184 0.03805699607715263 0.989543840222433 -0.08937603720208283
 -0.002268014329232273 -0.011159273610770064 0.0026350078158227513 0.01747544942770308 0.989543840222433 -0.08937603720208283 0.008329200931748009 0.03805652371875327
0.131304710296 0.008875327053172614 0.04013324766738886 0.9888186595758907 -0.09398622425555378 0.0028917160005579516 0.01834141569613484 -0.0024737691723896345 -0.011715099183193465
 0.9888186595758907 -0.09398622425555378 0.008878992169393286 0.04013280118751822 -0.002473633679696278 -0.011715118427140587 0.0028754792501114604 0.018343946701636693
 0.0028917160005579516 0.01834141569613484 -0.002473633679696278 -0.011715118427140587 0.008875038781567871 0.04013157429562565 0.9888185543708649 -0.09398798642379526
 -0.0024737691723896345 -0.011715099183193465 0.0028754792501114604 0.018343946701636693 0.9888185543708649 -0.09398798642379526 0.008879093841128808 0.04013104833186327
0.1375573155481 0.009325716699072175 0.04195194015233767 0.988186059921524 -0.0983404951625439 0.0031155332968826623 0.019181553510245117 -0.0026597637236456173 -0.012243165843019939
 0.988186059921524 -0.0983404951625439 0.009329739469051305 0.04195145704019739 -0.002659615266133105 -0.01224318776459086 0.0030977413223015906 0.019184376454864868
 0.0031155332968826623 0.019181553510245117 -0.002659615266133105 -0.01224318776459086 0.009325401533993355 0.041950193226098095 0.9881859444605667 -0.09834234242204767
 -0.0026597637236456173 -0.012243165843019939 0.0030977413223015906 0.019184376454864868 0.9881859444605667 -0.09834234242204767 0.009329851428498046 0.04194962193320427
0.1438099208003 0.00979208033874201 0.04376036912216816 0.9875309704902558 -0.10268302130569683 0.0033483688335858887 0.020017841608740154 -0.0028531677129550277 -0.012767691160097681
 0.9875309704902558 -0.10268302130569683 0.009796477477722195 0.04375984717918249 -0.0028530057240611427 -0.01276771599392713 0.00332895322266202 0.02002097883756936
 0.0033483688335858887 0.020017841608740154 -0.0028530057240611427 -0.01276771599392713 0.009791737190060528 0.04375854943885092 0.9875308442530526 -0.1026849538273255
 -0.0028531677129550277 -0.012767691160097681 0.00332895322266202 0.02002097883756936 0.9875308442530526 -0.1026849538273255 0.009796600239168077 0.04375792998333416
0.1500625260525 0.010274243524257425 0.0455583626285423 0.9868535702721187 -0.10701367341926808 0.0035901356630974 0.02085018040413614 -0.0030538964590888047 -0.013288581264145146
 0.9868535702721187 -0.10701367341926808 0.01027903176061183 0.04555779954733917 -0.003053720376132642 -0.013288609254066726 0.00356902838345391 0.020853655098107444
 0.0035901356630974 0.02085018040413614 -0.003053720376132642 -0.013288609254066726 0.010273871318359499 0.04555647101041279 0.9868534327312853 -0.10701569138508714
 -0.0030538964590888047 -0.013288581264145146 0.00356902838345391 0.020853655098107444 0.9868534327312853 -0.10701569138508714 0.010279165842352209 0.045555800426877784
0.15631513130469998 0.010772030447285141 0.047345753847103815 0.9861540393013426 -0.11133232315967719 0.00384074573930098 0.021678472151932096 -0.00326186417278346 -0.013805744384941915
 0.9861540393013426 -0.11133232315967719 0.010777226522776205 0.04734514721060803 -0.0032616734370955872 -0.01380577578384381 0.0038178791441134917 0.021682308320066724
