! Created with skrf 1.8.0 (http://scikit-rf.org).
# GHz S RI R 50.0 
!freq ReS11 ImS11 ReS12 ImS12 ReS13 ImS13
! ReS14 ImS14
! ReS21 ImS21 ReS22 ImS22 ReS23 ImS23
! ReS24 ImS24
! ReS31 ImS31 ReS32 ImS32 ReS33 ImS33
! ReS34 ImS34
! ReS41 ImS41 ReS42 ImS42 ReS43 ImS43
! ReS44 ImS44
!
0.0 0.001761020209019 0.0 0.998238979791 0.0 6.820105164927e-05 0.0 -6.820105089333e-05 8.352219867500233e-21
 0.998238979791 0.0 0.001761020208956 0.0 -6.820105089283e-05 8.352219867438999e-21 6.820105164679e-05 0.0
 6.820105164927e-05 0.0 -6.820105089283e-05 8.352219867438999e-21 0.001761020203317 0.0 0.9982389797853 0.0
 -6.820105089333e-05 8.352219867500233e-21 6.820105164679e-05 0.0 0.9982389797853 0.0 0.001761020203282 0.0
0.005 0.0018954043186799167 0.0014416926669515349 0.9980688545067132 -0.003687971840425091 9.571856361201022e-05 0.0007415611143133732 -9.295359362170571e-05 -0.0004670629841008964
 0.9980688545067132 -0.003687971840425091 0.0018954149594631149 0.00144168647520736 -9.29553145576011e-05 -0.000467064350655104 9.564308930008238e-05 0.0007415898350214441
 9.571856361201022e-05 0.0007415611143133732 -9.29553145576011e-05 -0.000467064350655104 0.0018954028257677355 0.0014416263161934554 0.9980688541328313 -0.003688038896313479
 -9.295359362170571e-05 -0.0004670629841008964 9.564308930008238e-05 0.0007415898350214441 0.9980688541328313 -0.003688038896313479 0.0018954157088541667 0.001441618716723884
0.006252605252188 0.0019308609659367594 0.001807749522175258 0.9980236527319922 -0.00461083174605992 0.00010369437525318658 0.0009273015018860637 -0.00010003505181983969 -0.0005844174950764472
 0.9980236527319922 -0.00461083174605992 0.0019308775993917358 0.0018077416639791805 -0.0001000377293630897 -0.000584419180499177 0.00010357645433454519 0.0009273388270182415
 0.00010369437525318658 0.0009273015018860637 -0.0001000377293630897 -0.000584419180499177 0.001930858703223403 0.0018076665916727883 0.9980236522188438 -0.004610915565674975
 -0.00010003505181983969 -0.0005844174950764472 0.00010357645433454519 0.0009273388270182415 0.9980236522188438 -0.004610915565674975 0.0019308788427275603 0.0018076569612574763
0.01250521050438 0.002118744802662019 0.0036529852002239703 0.9977824028227674 -0.009222206720355772 0.00015003662438240647 0.0018548911896350657 -0.00014071244090630504 -0.001171518081536528
 0.9977824028227674 -0.009222206720355772 0.0021188112174490127 0.003652968297476752 -0.0001407229881621032 -0.0011715212005180128 0.00014956638893346203 0.0018549813353630601
 0.00015003662438240647 0.0018548911896350657 -0.0001407229881621032 -0.0011715212005180128 0.002118736320657365 0.0036528196793758645 0.9977824013325457 -0.009222374118363744
 -0.00014071244090630504 -0.001171518081536528 0.00014956638893346203 0.0018549813353630601 0.9977824013325457 -0.009222374118363744 0.0021188167497089923 0.003652799081883982
0.01875781575657 0.0023251260351923753 0.0055240668599403145 0.9975148989795053 -0.013845293793493718 0.00020734159508532977 0.002783342226257867 -0.00019036692812561486 -0.0017604371833068162
 0.9975148989795053 -0.013845293793493718 0.0023252752671516245 0.005524039657355724 -0.00019039044192207464 -0.0017604414306100222 0.0002062852822002924 0.0027835040236818473
 0.00020734159508532977 0.002783342226257867 -0.00019039044192207464 -0.0017604414306100222 0.0023251073836270727 0.005523819007000365 0.9975148960484919 -0.013845544671621962
 -0.00019036692812561486 -0.0017604371833068162 0.0002062852822002924 0.0027835040236818473 0.9975148960484919 -0.013845544671621962 0.002325288134088115 0.00552378596301726
0.02501042100875 0.0025504428345893564 0.007418323732150264 0.9972207959003082 -0.018482276808111674 0.0002757244125911293 0.0037126525349952654 -0.00024912697068249116 -0.002350877087796523
 0.9972207959003082 -0.018482276808111674 0.0025507078535023913 0.007418284917826507 -0.0002491684842875194 -0.002350882099646346 0.000273848204658974 0.0037129080543281882
 0.0002757244125911293 0.0037126525349952654 -0.0002491684842875194 -0.002350882099646346 0.0025504100697106647 0.007417993807617845 0.9972207910685155 -0.018482611125710403
 -0.00024912697068249116 -0.002350877087796523 0.000273848204658974 0.0037129080543281882 0.9972207910685155 -0.018482611125710403 0.0025507311087883096 0.0074179467101039885
0.03126302626094 0.002795115155418552 0.009334352933565597 0.9968997323986365 -0.02313405608849803 0.0003553000709048665 0.004642734845209237 -0.0003171167401501064 -0.0029426168917263337
 0.9968997323986365 -0.02313405608849803 0.0027955288853734467 0.009334301142056713 -0.0003171812338041754 -0.0029426222452571317 0.0003523698927190172 0.004643109415723879
 0.0003553000709048665 0.004642734845209237 -0.0003171812338041754 -0.0029426222452571317 0.002795064333884962 0.009333941241406653 0.9968997252041024 -0.023134473821799357
 -0.0003171167401501064 -0.0029426168917263337 0.0003523698927190172 0.004643109415723879 0.9968997252041024 -0.023134473821799357 0.0027955655871789013 0.009333878358183088
0.037515631513130004 0.0030595532756722958 0.011271218216812588 0.9965513403167195 -0.027801049634041054 0.00044618225942961667 0.005573467616634305 -0.0003944569788882707 -0.0035354616059866464
 0.9965513403167195 -0.027801049634041054 0.003060148610692627 0.011271152030614425 -0.000394549385261388 -0.003535466819111935 0.0004419636950518104 0.005573989858655836
 0.00044618225942961667 0.005573467616634305 -0.000394549385261388 -0.003535466819111935 0.003059480455375327 0.011270725106458327 0.9965513302959815 -0.02780155077476402
 -0.0003944569788882707 -0.0035354616059866464 0.0004419636950518104 0.005573989858655836 0.9965513302959815 -0.02780155077476402 0.003060201822524762 0.01127064458105503
0.043768236765320004 0.0033441610781398882 0.013228206099423602 0.9961752481828449 -0.032483436922054694 0.0005484827907208852 0.006504710531026456 -0.0004812652863602032 -0.004129226697433229
 0.9961752481828449 -0.032483436922054694 0.0033449708951398894 0.013228124049890206 -0.0004813904937399689 -0.004129231228847727 0.0005427410516456 0.0065054123914934005
 0.0005484827907208852 0.006504710531026456 -0.0004813904937399689 -0.004129231228847727 0.0033440623187600917 0.013227631974504205 0.9961752348703222 -0.03248402146923186
 -0.0004812652863602032 -0.004129226697433229 0.0005427410516456 0.0065054123914934005 0.9961752348703222 -0.03248402146923186 0.0033450436862585923 0.013227531826164056
0.050020842017509996 0.0036493375552617575 0.015204725129836503 0.9957710830966999 -0.03718125957308257 0.0006623112453389105 0.0074363109031204645 -0.0005776561976984 -0.004723731716937338
 0.9957710830966999 -0.03718125957308257 0.0036503947249840484 0.015204625697823694 -0.0005778190519776865 -0.004723734966165835 0.0006548111655971235 0.007437227692570265
 0.0006623112453389105 0.0074363109031204645 -0.0005778190519776865 -0.004723734966165835 0.0036492089200961344 0.015204070432438072 0.9957710660262726 -0.03718192754960234
 -0.0005776561976984 -0.004723731716937338 0.0006548111655971235 0.007437227692570265 0.9957710660262726 -0.03718192754960234 0.0036504901721928188 0.015203948555724186
0.055454545454549996 0.003931556200728987 0.016937837450137806 0.9953967628736486 -0.041276310526947836 0.0007706769374401378 0.008246064620808315 -0.0006692917120529418 -0.00524083611755438
 0.9953967628736486 -0.041276310526947836 0.003932855026513489 0.01693772163927461 -0.0006694911862310976 -0.005240837718952512 0.0007614575387436644 0.008247199506971899
 0.0007706769374401378 0.008246064620808315 -0.0006694911862310976 -0.005240837718952512 0.003931398407715414 0.016937113142054903 0.9953967421564429 -0.041277051023341865
 -0.0006692917120529418 -0.00524083611755438 0.0007614575387436644 0.008247199506971899 0.9953967421564429 -0.041277051023341865 0.003932972665445471 0.016936970575305566
0.056273447269699996 0.003975477559852135 0.017200256395768772 0.9953384718673057 -0.041894470778279715 0.0007877747060845954 0.008368106846625619 -0.0006837411751683417 -0.005318797179285986
 0.9953384718673057 -0.041894470778279715 0.003976814958459311 0.01720013801163696 -0.0006839464812494624 -0.005318798486740619 0.0007782807545336695 0.008369277276537988
 0.0007877747060845954 0.008368106846625619 -0.0006839464812494624 -0.005318798486740619 0.003975315114957377 0.017199521631017484 0.9953384505695185 -0.041895222206956836
 -0.0006837411751683417 -0.005318797179285986 0.0007782807545336695 0.008369277276537988 0.9953384505695185 -0.041895222206956836 0.003976936143893722 0.01719937579486371
0.06252605252188 0.004322972184563568 0.019214326372004164 0.9948770417835269 -0.04662296239371972 0.0009249775424664083 0.00929992901057022 -0.0007996285504535699 -0.005914242880248431
 0.9948770417835269 -0.04662296239371972 0.0043246227039071454 0.019214187415379346 -0.0007998810731173929 -0.005914241527286285 0.0009132538458249212 0.009301395230743368
 0.0009249775424664083 0.00929992901057022 -0.0007998810731173929 -0.005914241527286285 0.0043227719994805595 0.019213512096551127 0.994877015785686 -0.04662379730932718
 -0.0007996285504535699 -0.005914242880248431 0.0009132538458249212 0.009301395230743368 0.994877015785686 -0.04662379730932718 0.004324772715318744 0.019213339943077338
0.06877865777407 0.004692208936612524 0.02124649070683453 0.9943864211866323 -0.05136658110391751 0.0010740212197907998 0.010231601643399361 -0.0009254234415910636 -0.0065098868940133775
 0.9943864211866323 -0.05136658110391751 0.004694205494894527 0.02124632950590272 -0.0009257279061403585 -0.006509882103010503 0.0010598315937287628 0.010233409279027451
 0.0010740212197907998 0.010231601643399361 -0.0009257279061403585 -0.006509882103010503 0.004691967086124008 0.02124559752602001 0.994386390012959 -0.051367499556765145
 -0.0009254234415910636 -0.0065098868940133775 0.0010598315937287628 0.010233409279027451 0.994386390012959 -0.051367499556765145 0.004694387425982116 0.021245396568898872
0.07503126302626001 0.005083571794235717 0.023296323956795317 0.9938662399291334 -0.05612513864603813 0.0012350041245476348 0.011162943271377906 -0.0010612276529461222 -0.007105544964843053
 0.9938662399291334 -0.05612513864603813 0.005085947346073204 0.023296138787312903 -0.0010615887455085028 -0.007105535899277708 0.001218112110909349 0.011165141459672054
 0.0012350041245476348 0.011162943271377906 -0.0010615887455085028 -0.007105535899277708 0.005083284358791173 0.02329535253834926 0.993866203100076 -0.05612614068883876
 -0.0010612276529461222 -0.007105544964843053 0.001218112110909349 0.011165141459672054 0.993866203100076 -0.05612614068883876 0.005086164296583522 0.02329512016072595
0.08128386827845 0.005497441184345422 0.025363412771986265 0.9933161297597636 -0.06089841859303725 0.0014080213990450025 0.012093767171602541 -0.0012071395651600102 -0.00770103011292393
 0.9933161297597636 -0.06089841859303725 0.005500228731444752 0.02536320185577743 -0.0012075619329935763 -0.007701015877446369 0.0013881903076033812 0.012096408597811314
 0.0014080213990450025 0.012093767171602541 -0.0012075619329935763 -0.007701015877446369 0.005497104251063986 0.02536236383482481 0.9933160867916018 -0.06089950429269547
 -0.0012071395651600102 -0.00770103011292393 0.0013881903076033812 0.012096408597811314 0.9933160867916018 -0.06089950429269547 0.005500483806280208 0.025362097287014322
0.08753647353064001 0.0059341939109462975 0.027447351182818887 0.9927357246642259 -0.06568618104556492 0.001593164783152921 0.013023881711361778 -0.0013632540171813249 -0.0082961523829905
 0.9927357246642259 -0.06568618104556492 0.005937426512292092 0.027447112685966994 -0.0013637422687546744 -0.008296132023512575 0.001570157737515839 0.013027022644120805
 0.001593164783152921 0.013023881711361778 -0.0013637422687546744 -0.008296132023512575 0.005933803575227666 0.027446225504676326 0.99273567506894 -0.06568735047605961
 -0.0013632540171813249 -0.0082961523829905 0.001570157737515839 0.013027022644120805 0.99273567506894 -0.06568735047605961 0.005937722822118075 0.027445921901315493
0.09378907878283 0.00639420304782568 0.02954773724795549 0.9921246611743924 -0.07048816597312287 0.0017905224598811695 0.013953090609364893 -0.0015296621840728743 -0.008890718680411684
 0.9921246611743924 -0.07048816597312287 0.006397913830184858 0.029547469278495886 -0.001530220889071503 -0.008890691184195183 0.0017641024465130817 0.013956790935271418
 0.0017905224598811695 0.013953090609364893 -0.001530220889071503 -0.008890691184195183 0.0063937554136464835 0.029546535664233528 0.992124604458783 -0.07048941921715739
 -0.0015296621840728743 -0.008890718680411684 0.0017641024465130817 0.013956790935271418 0.992124604458783 -0.07048941921715739 0.006398254490414322 0.029546191981133924
0.100041684035 0.006877837806163469 0.031664170601402204 0.9914825786567134 -0.0753040956671193 0.002000178904800835 0.014881193143397127 -0.0017064514505957804 -0.009484532670341947
 0.9914825786567134 -0.0753040956671193 0.006882059974250876 0.031663871206671454 -0.0017070851398253847 -0.009484496966088949 0.001970108824955259 0.014885516400720456
 0.002000178904800835 0.014881193143397127 -0.0017070851398253847 -0.009484496966088949 0.006877328987387632 0.031662894004931816 0.9914825143219492 -0.07530543281686185
 -0.0017064514505957804 -0.009484532670341947 0.001970108824955259 0.014885516400720456 0.9914825143219492 -0.07530543281686185 0.006882448105148898 0.03166250707552364
0.1059090909091 0.007353490343559494 0.03366445679822848 0.9908515223286429 -0.07983575621980561 0.002208176702461576 0.015750930162601127 -0.0018818653257993874 -0.010040902113751684
 0.9908515223286429 -0.07983575621980561 0.00735822267101779 0.03366412608145388 -0.001882573465769702 -0.010040857680722694 0.002174465755738616 0.015755899044025058
 0.002208176702461576 0.015750930162601127 -0.001882573465769702 -0.010040857680722694 0.007352920585118856 0.03366311067546725 0.9908514503853452 -0.07983717219671241
 -0.0018818653257993874 -0.010040902113751684 0.002174465755738616 0.015755899044025058 0.9908514503853452 -0.07983717219671241 0.007358658190194464 0.03366268015361312
0.1062942892872 0.0073854633832114444 0.03379625062070411 0.9908091195853606 -0.08013367658417225 0.0022222147375111473 0.01580798432601201 -0.0018937052826207093 -0.010077394718633767
 0.9908091195853606 -0.08013367658417225 0.007390230230369404 0.03379591778417568 -0.0018944184479164716 -0.010077349676581018 0.0021882574618635998 0.015812997737458513
 0.0022222147375111473 0.01580798432601201 -0.0018944184479164716 -0.010077349676581018 0.007384889504832138 0.033794899964280804 0.9908090471268389 -0.08013509773912257
 -0.0018937052826207093 -0.010077394718633767 0.0021882574618635998 0.015812997737458513 0.9908090471268389 -0.08013509773912257 0.007390668956843901 0.03379446647553038
0.11254689453939999 0.007917440796811689 0.03594357503858538 0.9901039298047491 -0.08497660075756461 0.0024567065755079984 0.01673325505377244 -0.0020915030967127183 -0.010669101868958563
 0.9901039298047491 -0.08497660075756461 0.007922785715476896 0.03594320667629081 -0.0020923001906990044 -0.010669046301004431 0.0024186250008653505 0.016739029558386142
 0.0024567065755079984 0.01673325505377244 -0.0020923001906990044 -0.010669046301004431 0.007916797996411661 0.035942151332145414 0.9901038487118519 -0.08497810602777028
 -0.0020915030967127183 -0.010669101868958563 0.0024186250008653505 0.016739029558386142 0.9901038487118519 -0.08497810602777028 0.00792327816692252 0.03594166782022802
0.11879949979160001 0.008474126709540276 0.03810573886557664 0.9893666587850872 -0.08983254690970792 0.002703726889360142 0.01765679224653475 -0.0022999201286728003 -0.011259447840089537
 0.9893666587850872 -0.08983254690970792 0.008480083201822612 0.03810533282204844 -0.0023008055645713146 -0.011259380499867487 0.0026612839976520473 0.017663402530378423
 0.002703726889360142 0.01765679224653475 -0.0023008055645713146 -0.011259380499867487 0.008473411138152032 0.03810424318044059 0.9893665685402915 -0.0898341364119026
 -0.0022999201286728003 -0.011259447840089537 0.0026612839976520473 0.017663402530378423 0.9893665685402915 -0.0898341364119026 0.008480632511588941 0.038103706025789434
0.1250521050438 0.009055873243822876 0.04028233355849901 0.9885969598711902 -0.09470118133088554 0.0029633438598130153 0.018578378974301066 -0.0025190273014296565 -0.01184822304552599
 0.9885969598711902 -0.09470118133088554 0.009062474931937608 0.04028188760228544 -0.0025200054528016582 -0.011848142628545503 0.0029163027788562243 0.01858590350025443
 0.0029633438598130153 0.018578378974301066 -0.0025200054528016582 -0.011848142628545503 0.009055081067019874 0.04028076702393449 0.9885968599496492 -0.09470285519224088
 -0.0025190273014296565 -0.01184822304552599 0.0029163027788562243 0.01858590350025443 0.9885968599496492 -0.09470285519224088 0.009063084237002524 0.040280172445976294
0.131304710296 0.009663027789773635 0.04247294635943337 0.9877944905266319 -0.0995821586000862 0.0032356212363932155 0.019497794578618718 -0.0027488910925111947 -0.012435214629115997
 0.9877944905266319 -0.0995821586000862 0.009670308426830625 0.042472458178032274 -0.00274996629289177 -0.01243511977289298 0.0031837453026697586 0.01950631561486099
 0.0032356212363932155 0.019497794578618718 -0.00274996629289177 -0.01243511977289298 0.00966215518947372 0.042471310167635286 0.9877943803962134 -0.09958391695346959
 -0.0027488910925111947 -0.012435214629115997 0.0031837453026697586 0.01950631561486099 0.9877943803962134 -0.09958391695346959 0.009670980867782236 0.042470654219025336
0.1375573155481 0.01016400814691808 0.044392783944314076 0.9870909020267956 -0.10419057771315597 0.0034885048905271936 0.02038751613160096 -0.0029575230031265495 -0.012992881924097647
 0.9870909020267956 -0.10419057771315597 0.010172004837292548 0.044392262051443525 -0.0029587018459741182 -0.012992772380935234 0.0034316775338399477 0.020397027823637642
 0.0034885048905271936 0.02038751613160096 -0.0029587018459741182 -0.012992772380935234 0.010163052113641326 0.04439107890435186 0.9870907812202574 -0.10419242060114013
 -0.0029575230031265495 -0.012992881924097647 0.0034316775338399477 0.020397027823637642 0.9870907812202574 -0.10419242060114013 0.010172742627150821 0.04439036906325515
0.1438099208003 0.010682832247973392 0.04630115182889359 0.9863621301577872 -0.10878591924802658 0.003751552836715703 0.021272711632223 -0.003174432626250852 -0.013546426076432388
 0.9863621301577872 -0.10878591924802658 0.010691579433745066 0.046300594441164244 -0.0031757197941887083 -0.013546300487114311 0.003689559334398829 0.02128328981810473
 0.003751552836715703 0.021272711632223 -0.0031757197941887083 -0.013546300487114311 0.010681789131080362 0.04629937912928006 0.9863619981460736 -0.10878784679266901
 -0.003174432626250852 -0.013546426076432388 0.003689559334398829 0.02128328981810473 0.9863619981460736 -0.10878784679266901 0.010692385549476904 0.04629861199799606
0.1500625260525 0.011219295905412641 0.04819784989580746 0.9856083840474243 -0.11336802715043912 0.004024659752890889 0.022153261070068365 -0.0033995181699630873 -0.014095736090531394
 0.9856083840474243 -0.11336802715043912 0.01122882817041422 0.04819725508751011 -0.0034009183342013443 -0.014095593040483457 0.0039572869600442715 0.02216498434639539
 0.004024659752890889 0.022153261070068365 -0.0034009183342013443 -0.014095593040483457 0.011218162078688919 0.04819601076849719 0.9856082402953629 -0.11337003947973288
 -0.0033995181699630873 -0.014095736090531394 0.0039572869600442715 0.02216498434639539 0.9856082402953629 -0.11337003947973288 0.011229705581191582 0.04819518274511878
0.15631513130469998 0.011773193225164479 0.05008268400284883 0.9848298741707665 -0.11793674686545223 0.004307718909764842 0.023029046798658855 -0.0036326764492668395 -0.014640703589870194
 0.9848298741707665 -0.11793674686545223 0.011783545298687708 0.05008204969950204 -0.003634194269559261 -0.014640541609326848 0.004234755287363115 0.02304199648660276
