! Created with skrf 1.8.0 (http://scikit-rf.org).
# GHz S RI R 50.0 
!freq ReS11 ImS11 ReS12 ImS12 ReS13 ImS13
! ReS14 ImS14
! ReS21 ImS21 ReS22 ImS22 ReS23 ImS23
! ReS24 ImS24
! ReS31 ImS31 ReS32 ImS32 ReS33 ImS33
! ReS34 ImS34
! ReS41 ImS41 ReS42 ImS42 ReS43 ImS43
! ReS44 ImS44
!
0.0 0.001412092374175 0.0 0.998587907615 0.0 5.400614526154e-05 0.0 -5.400614524518e-05 6.613845290879674e-21
 0.998587907615 0.0 0.001412092374199 0.0 -5.400614524549e-05 6.6138452909176374e-21 5.400614526241e-05 0.0
 5.400614526154e-05 0.0 -5.400614524549e-05 6.6138452909176374e-21 0.001412092379599 0.0 0.9985879076204 0.0
 -5.400614524518e-05 6.613845290879674e-21 5.400614526241e-05 0.0 0.9985879076204 0.0 0.001412092379608 0.0
0.005 0.0015188931371488317 0.0011599435545906654 0.9984528724073986 -0.0029581553431792273 7.473589900763221e-05 0.0005680233127089322 -7.281783281374802e-05 -0.0003613127209488458
 0.9984528724073986 -0.0029581553431792273 0.001518893316034357 0.001159943403027722 -7.281839774505647e-05 -0.00036131308890356446 7.474882660937915e-05 0.0005680186114500721
 7.473589900763221e-05 0.0005680233127089322 -7.281839774505647e-05 -0.00036131308890356446 0.0015188935415615366 0.0011600105355964298 0.9984528727565957 -0.0029580882772826966
 -7.281783281374802e-05 -0.0003613127209488458 7.474882660937915e-05 0.0005680186114500721 0.9984528727565957 -0.0029580882772826966 0.0015188936046529138 0.00116001054892037
0.006252605252188 0.0015467989874074905 0.0014544862936820971 0.9984173875506364 -0.0036984321007836425 8.058622737515347e-05 0.000710324272008975 -7.807537619868839e-05 -0.0004521077519157844
 0.9984173875506364 -0.0036984321007836425 0.0015467992669445174 0.001454486037109507 -7.80762558132557e-05 -0.00045210820428655366 8.060642831382051e-05 0.0007103181337621709
 8.058622737515347e-05 0.000710324272008975 -7.80762558132557e-05 -0.00045210820428655366 0.0015467995418320768 0.0014545699950047478 0.9984173880184128 -0.003698348284858993
 -7.807537619868839e-05 -0.0004521077519157844 8.060642831382051e-05 0.0007103181337621709 0.9984173880184128 -0.003698348284858993 0.0015467996394530681 0.0014545699567200855
0.01250521050438 0.001693091360182045 0.0029394313885337006 0.9982302369965586 -0.007397746433065046 0.00011375682418560593 0.0014211339134582615 -0.00010761771061945015 -0.0009064465622807405
 0.9982302369965586 -0.007397746433065046 0.0016930924797886532 0.002939430184525215 -0.00010762118365565029 -0.0009064473837201987 0.00011383746445005502 0.001421118855288856
 0.00011375682418560593 0.0014211339134582615 -0.00010762118365565029 -0.0009064473837201987 0.0016930930188765445 0.002939598457728581 0.9982302383041333 -0.007397579031889522
 -0.00010761771061945015 -0.0009064465622807405 0.00011383746445005502 0.001421118855288856 0.9982302383041333 -0.007397579031889522 0.0016930933972485159 0.0029395978158619097
0.01875781575657 0.0018512671553616003 0.0044455675632181346 0.998026238722289 -0.011106963995538855 0.00015359261301699486 0.002132888702860206 -0.00014271893667823263 -0.0013624131655115932
 0.998026238722289 -0.011106963995538855 0.0018512696818690129 0.004445564661836814 -0.0001427266909596122 -0.0013624142556445298 0.00015377395920648532 0.0021328614795572323
 0.00015359261301699486 0.002132888702860206 -0.0001427266909596122 -0.0013624142556445298 0.0018512704710783663 0.004445817779129583 0.9980262412397417 -0.011106713081814223
 -0.00014271893667823263 -0.0013624131655115932 0.00015377395920648532 0.0021328614795572323 0.9980262412397417 -0.011106713081814223 0.0018512713020418091 0.004445815920333359
0.02501042100875 0.002021616420231569 0.0059708200531448504 0.9978051674806103 -0.01482790467027787 0.0002001690361087995 0.002845625964978305 -0.0001834625811850996 -0.0018198224613151389
 0.9978051674806103 -0.01482790467027787 0.002021620924055776 0.005970814641141414 -0.00018347628754089825 -0.001819823701132643 0.00020049148768479648 0.0028455828733155064
 0.0002001690361087995 0.002845625964978305 -0.00018347628754089825 -0.001819823701132643 0.0020216219543599864 0.005971153185723477 0.997805171583181 -0.014827570279415028
 -0.0001834625811850996 -0.0018198224613151389 0.00020049148768479648 0.0028455828733155064 0.997805171583181 -0.014827570279415028 0.0020216233968789097 0.005971149445030474
0.03126302626094 0.0022044171561719146 0.0075141327948880735 0.9975667857714532 -0.018561361443415417 0.0002535619988267877 0.003559321262994969 -0.00022993014266231267 -0.002278546833663194
 0.9975667857714532 -0.018561361443415417 0.002204424208976554 0.007514123994006307 -0.0002299514578788485 -0.0022785480852820436 0.0002540661211312898 0.003559258135889157
 0.0002535619988267877 0.003559321262994969 -0.0002299514578788485 -0.0022785480852820436 0.002204425469338479 0.0075145486044249105 0.9975667918314136 -0.01856094357394891
 -0.00022993014266231267 -0.002278546833663194 0.0002540661211312898 0.003559258135889157 0.9975667918314136 -0.01856094357394891 0.002204427667753527 0.007514542263828093
0.037515631513130004 0.0023999415166436745 0.009074826048425248 0.9973108501993269 -0.022307742724749037 0.00031384721810393006 0.004273925869675276 -0.000282201646610792 -0.002738478675211293
 0.9973108501993269 -0.022307742724749037 0.0023999516893703156 0.009074812914030431 -0.00028223221490650724 -0.0027384797817468346 0.00031457375772681295 0.00427383806920074
 0.00031384721810393006 0.004273925869675276 -0.00028223221490650724 -0.0027384797817468346 0.002399953175010281 0.009075324266893878 0.997310858593245 -0.022307241356595644
 -0.000282201646610792 -0.002738478675211293 0.00031457375772681295 0.00427383806920074 0.997310858593245 -0.022307241356595644 0.0023999562575442346 0.009075314554286657
0.043768236765320004 0.002608458222576325 0.010652400875535921 0.9970371140475881 -0.02606726780335304 0.00038109991801971323 0.004989378155292959 -0.00034035584715231583 -0.0031995189926651763
 0.9970371140475881 -0.02606726780335304 0.002608472082986451 0.01065238239557202 -0.00034039730098333075 -0.0031995197781618293 0.00038208981050933847 0.004989260565394423
 0.00038109991801971323 0.004989378155292959 -0.00034039730098333075 -0.0031995197781618293 0.002608473793613965 0.010652981207594983 0.9970371251536195 -0.026066682896489456
 -0.00034035584715231583 -0.0031995189926651763 0.00038208981050933847 0.004989260565394423 0.9970371251536195 -0.026066682896489456 0.002608477870564029 0.010652967295941883
0.050020842017509996 0.0028302336805665334 0.012246458364437987 0.9967453285588993 -0.029840047555049504 0.00045539464631850086 0.005705608292763959 -0.00040447030423626556 -0.0036615726954379083
 0.9967453285588993 -0.029840047555049504 0.0028302517914433447 0.012246433458378978 -0.0004045242648615528 -0.0036615729647885625 0.00045668901992222677 0.005705455311795563
 0.00045539464631850086 0.005705608292763959 -0.0004045242648615528 -0.0036615729647885625 0.0028302537349681202 0.01224712048600264 0.9967453427594147 -0.02983937905055705
 -0.00040447030423626556 -0.0036615726954379083 0.00045668901992222677 0.005705455311795563 0.9967453427594147 -0.02983937905055705 0.0028302588968075085 0.012247101492672918
0.055454545454549996 0.003033936602559451 0.013644864549659338 0.996476905682868 -0.03312950584855582 0.0005257352993570227 0.006328607005393102 -0.00046508752145480033 -0.004063861732651333
 0.996476905682868 -0.03312950584855582 0.0030339588586222655 0.013644833127787664 -0.0004651536590124676 -0.004063861380098021 0.0005273278282536648 0.0063284183364697355
 0.0005257352993570227 0.006328607005393102 -0.0004651536590124676 -0.004063861380098021 0.003033961016681911 0.013645597456475655 0.9964769228851009 -0.03312876463923069
 -0.00046508752145480033 -0.004063861732651333 0.0005273278282536648 0.0063284183364697355 0.9964769228851009 -0.03312876463923069 0.0030339671783006167 0.013645573286476845
0.056273447269699996 0.0030655325693401364 0.013856659962302927 0.9964352436859205 -0.03362612404216666 0.0005368051465045032 0.006422540555658611 -0.0004746214029519547 -0.004124546292916106
 0.9964352436859205 -0.03362612404216666 0.0030655554860754036 0.013856627480293437 -0.0004746894806724426 -0.004124545831816661 0.0005384453236581221 0.0064223460888228135
 0.0005368051465045032 0.006422540555658611 -0.0004746894806724426 -0.004124545831816661 0.00306555767794609 0.01385740351379017 0.9964352613658176 -0.03362537186868819
 -0.0004746214029519547 -0.004124546292916106 0.0005384453236581221 0.0064223460888228135 0.9964352613658176 -0.03362537186868819 0.0030655639938648154 0.013857378499828838
0.06252605252188 0.0033146181575685624 0.015482705671729085 0.9961066085766603 -0.03742549225059786 0.0006254042544941761 0.007140094592633309 -0.0005508843464101713 -0.004588346617359906
 0.9961066085766603 -0.03742549225059786 0.0033146464259985815 0.015482664393642043 -0.0005509681407866556 -0.0045883451922457165 0.0006274317515012732 0.007139852044375503
 0.0006254042544941761 0.007140094592633309 -0.0005509681407866556 -0.0045883451922457165 0.003314648892667189 0.01548353026064586 0.9961066301259999 -0.03742465632145018
 -0.0005508843464101713 -0.004588346617359906 0.0006274317515012732 0.007139852044375503 0.9961066301259999 -0.03742465632145018 0.003314656408445057 0.015483498230167847
0.06877865777407 0.0035777524808383223 0.017124321051380155 0.9957591719219744 -0.041238113024861064 0.0007212638114546306 0.007858186176392867 -0.0006333331306378124 -0.005052880074618732
 0.9957591719219744 -0.041238113024861064 0.00357778663496861 0.017124269686142293 -0.0006334342305598754 -0.005052877432620004 0.0007237203371678493 0.007857888442794458
 0.0007212638114546306 0.007858186176392867 -0.0006334342305598754 -0.005052877432620004 0.0035777894138517494 0.017125226256051316 0.9957591977344162 -0.04123719323394393
 -0.0006333331306378124 -0.005052880074618732 0.0007237203371678493 0.007857888442794458 0.9957591977344162 -0.04123719323394393 0.0035777981501701234 0.017125186155752384
0.07503126302626001 0.0038551964323247693 0.018781248973157437 0.9953926822195501 -0.04506392124899234 0.0008244545850776367 0.00857672768469052 -0.000722040509529657 -0.005518052165445949
 0.9953926822195501 -0.04506392124899234 0.00385523699184233 0.0187811861579555 -0.0007221604932331034 -0.00551804803434386 0.0008273820386630684 0.0085763671458074
 0.0008244545850776367 0.00857672768469052 -0.0007221604932331034 -0.00551804803434386 0.0038552401341654377 0.018782234337738728 0.9953927126944625 -0.04506291747565913
 -0.000722040509529657 -0.005518052165445949 0.0008273820386630684 0.0085763671458074 0.9953927126944625 -0.04506291747565913 0.003855250084556163 0.018782185056374936
0.08128386827845 0.004147209800891252 0.0204532441391451 0.9950068879886802 -0.048902831270702225 0.000935046196038131 0.00929562841944481 -0.0008170779530428532 -0.005983767171427425
 0.9950068879886802 -0.048902831270702225 0.004147257269242945 0.020453168438737835 -0.0008172183881243133 -0.0059837612596100875 0.0009384866642068792 0.009295196931670583
 0.000935046196038131 0.00929562841944481 -0.0008172183881243133 -0.0059837612596100875 0.0041472608408248506 0.020454309170683242 0.9950069235307691 -0.04890174338228396
 -0.0008170779530428532 -0.005983767171427425 0.0009384866642068792 0.009295196931670583 0.9950069235307691 -0.04890174338228396 0.004147271969831701 0.02045424953861385
0.08753647353064001 0.004454051274086933 0.02214006928109582 0.9946015379519741 -0.05275474064579205 0.0010531070478167405 0.010014794829498401 -0.0009185156009148652 -0.006449927940181469
 0.9946015379519741 -0.05275474064579205 0.004454106135439638 0.022139979187271147 -0.0009186780442073901 -0.006449919936613716 0.0010571028013222291 0.010014283717932533
 0.0010531070478167405 0.010014794829498401 -0.0009186780442073901 -0.006449919936613716 0.004454110218898286 0.02214121345327607 0.9946015789720998 -0.05275356849382196
 -0.0009185156009148652 -0.006449927940181469 0.0010571028013222291 0.010014283717932533 0.9946015789720998 -0.05275356849382196 0.004454122459972587 0.0221411422420667
0.09378907878283 0.004775978416806827 0.02384149244712339 0.994176381197001 -0.05661953279901397 0.0011787042587298228 0.010734130671942703 -0.001026422212579281 -0.006916435735030225
 0.994176381197001 -0.05661953279901397 0.004776041134039494 0.023841386378048595 -0.001026608210126272 -0.006916425309209229 0.0011832977485972647 0.010733530722741962
 0.0011787042587298228 0.010734130671942703 -0.001026608210126272 -0.006916425309209229 0.004776045830243292 0.02384271520027261 0.9941764281128719 -0.05661827621888954
 -0.001026422212579281 -0.006916435735030225 0.0011832977485972647 0.010733530722741962 0.9941764281128719 -0.05661827621888954 0.00477605908364838 0.02384263112238784
0.100041684035 0.00511324763191488 0.0255572850188613 0.99373116732139 -0.060497078957627466 0.0013119035953378351 0.01145353713336658 -0.0011408651147759856 -0.007383190127834723
 0.99373116732139 -0.060497078957627466 0.005113318643965141 0.025557161318632882 -0.0011410762016896567 -0.007383176929764197 0.0013171374486388142 0.011452838586182155
 0.0013119035953378351 0.01145353713336658 -0.0011410762016896567 -0.007383176929764197 0.0051133240735692625 0.02555858575771448 0.9937312205574165 -0.06049573777072296
 -0.0011408651147759856 -0.007383190127834723 0.0013171374486388142 0.011452838586182155 0.9937312205574165 -0.06049573777072296 0.005113338204309394 0.0255584874662197
0.1059090909091 0.005443919801428502 0.02718024114148068 0.9932949171011236 -0.06414722025056767 0.0014438684350047304 0.012128597827377892 -0.0012542609937774177 -0.007821322885879549
 0.9932949171011236 -0.06414722025056767 0.005443998972849048 0.02718009932389871 -0.001254497010687316 -0.007821306750651928 0.0014497421231083622 0.012127797385993996
 0.0014438684350047304 0.012128597827377892 -0.001254497010687316 -0.007821306750651928 0.005444005219806208 0.027181614489359653 0.9932949766607213 -0.06414579949335399
 -0.0012542609937774177 -0.007821322885879549 0.0014497421231083622 0.012127797385993996 0.9932949766607213 -0.06414579949335399 0.0054440200179391544 0.027181501581697808
0.1062942892872 0.005466114108521227 0.02728722020822847 0.9932656465691724 -0.06438723960919007 0.0014527694067377 0.012172912924630687 -0.0012619101471023396 -0.007850088921573687
 0.9932656465691724 -0.06438723960919007 0.005466193827690052 0.027287077146449394 -0.0012621478473964602 -0.007850072581749593 0.0014586864219862388 0.01217210546498843
 0.0014527694067377 0.012172912924630687 -0.0012621478473964602 -0.007850072581749593 0.005466200133195724 0.027288598302200824 0.993265706557439 -0.0643858136225309
 -0.0012619101471023396 -0.007850088921573687 0.0014586864219862388 0.01217210546498843 0.993265706557439 -0.0643858136225309 0.005466214969064707 0.027288484390467282
0.11254689453939999 0.005834831760201118 0.029031071913146328 0.9927795699592039 -0.0682898656042053 0.0016013645595263362 0.012892154354760599 -0.0013896216058239634 -0.00831702809711749
 0.9927795699592039 -0.0682898656042053 0.0058349205697306224 0.029030907684450408 -0.0013898874323349738 -0.008317008226492159 0.0016080077017950848 0.01289122710650573
 0.0016013645595263362 0.012892154354760599 -0.0013898874323349738 -0.008317008226492159 0.005834927917568707 0.029032526697322945 0.9927796371404148 -0.06828835460923607
 -0.0013896216058239634 -0.00831702809711749 0.0016080077017950848 0.01289122710650573 0.9927796371404148 -0.06828835460923607 0.005834943246464867 0.02903239569893924
0.11879949979160001 0.006219653155912731 0.030788613825226983 0.9922726894091976 -0.07220479901055742 0.0017577503730390653 0.013611155395685809 -0.001524062186583208 -0.008783901772468567
 0.9922726894091976 -0.07220479901055742 0.006219751407255608 0.030788426549093015 -0.001524357640731844 -0.008783877962449066 0.0017651627688439202 0.013610096913512636
 0.0017577503730390653 0.013611155395685809 -0.001524357640731844 -0.008783877962449066 0.006219759988822221 0.030790144596007187 0.9922727642324303 -0.07220320278762085
 -0.001524062186583208 -0.008783901772468567 0.0017651627688439202 0.013610096913512636 0.9922727642324303 -0.07220320278762085 0.0062197755571275605 0.03078999498456969
0.1250521050438 0.006620829443896131 0.032559618721517726 0.9917447578552754 -0.07613187378833525 0.001921986555002132 0.014329807733419906 -0.0016652929258163557 -0.009250602179199463
 0.9917447578552754 -0.07613187378833525 0.006620937453947933 0.03255940644189285 -0.0016656194974755169 -0.009250574001627458 0.0019302114868596273 0.01432860599531537
 0.001921986555002132 0.014329807733419906 -0.0016656194974755169 -0.009250574001627458 0.006620947488111486 0.0325612247443491 0.9917448407791057 -0.07613019209869859
 -0.0016652929258163557 -0.009250602179199463 0.0019302114868596273 0.01432860599531537 0.9917448407791057 -0.07613019209869859 0.006620962997867554 0.032561054933444813
0.131304710296 0.007038610270993622 0.034343857902148014 0.9911955293692805 -0.08007091632253556 0.0020941311370427877 0.015048000817747747 -0.0018133731416439477 -0.009717019643741233
 0.9911955293692805 -0.08007091632253556 0.007038728319224878 0.034343618587344006 -0.0018137323089129653 -0.009716986650894634 0.0021032120377947354 0.01504664321764916
 0.0020941311370427877 0.015048000817747747 -0.0018137323089129653 -0.009716986650894634 0.00703874005407708 0.03434553840293142 0.9911956208619187 -0.08006914891715892
 -0.0018133731416439477 -0.009717019643741233 0.0021032120377947354 0.01504664321764916 0.9911956208619187 -0.08006914891715892 0.007038755161086939 0.03434534674610117
0.1375573155481 0.007374096095590246 0.03590942459237507 0.9907239409114726 -0.08378998346813699 0.0022514431370597035 0.01574243010675311 -0.0019455507597808126 -0.010159870438807297
 0.9907239409114726 -0.08378998346813699 0.007374223172738023 0.03590916309713626 -0.0019459445081907664 -0.010159832607528348 0.002261393672944595 0.015740919391392848
 0.0022514431370597035 0.01574243010675311 -0.0019459445081907664 -0.010159832607528348 0.007374237334980563 0.035911179317865714 0.990724041365339 -0.08378813020480635
 -0.0019455507597808126 -0.010159870438807297 0.002261393672944595 0.015740919391392848 0.990724041365339 -0.08378813020480635 0.007374252159814012 0.03591097018509193
0.1438099208003 0.007721290437079623 0.03746735345961448 0.9902359654321871 -0.08750021648497561 0.002415102829276853 0.016434361629492803 -0.0020830176059549606 -0.010600406899518196
 0.9902359654321871 -0.08750021648497561 0.007721426539441958 0.03746706836569846 -0.0020834474883161536 -0.010600363796025187 0.0024259612680524612 0.016432686444068378
 0.002415102829276853 0.016434361629492803 -0.0020834474883161536 -0.010600363796025187 0.007721443502210474 0.037469181655616614 0.9902360753142778 -0.08749827711849172
 -0.0020830176059549606 -0.010600406899518196 0.0024259612680524612 0.016432686444068378 0.9902360753142778 -0.08749827711849172 0.007721457721800335 0.037468953928880916
0.1500625260525 0.008080079204410505 0.039017531770673713 0.9897317205896371 -0.09120154076369098 0.0025850580557632893 0.01712373565276043 -0.0022257226470093444 -0.01103857144482944
 0.9897317205896371 -0.09120154076369098 0.008080224278911774 0.039017221609910176 -0.002226190211049028 -0.011038522618232518 0.002596862463100321 0.017121884232790666
 0.0025850580557632893 0.01712373565276043 -0.002226190211049028 -0.011038522618232518 0.008080244447110418 0.0390194326536644 0.9897318403749608 -0.09119951504014695
 -0.0022257226470093444 -0.01103857144482944 0.002596862463100321 0.017121884232790666 0.9897318403749608 -0.09119951504014695 0.00808025770129608 0.03901918517402516
0.15631513130469998 0.008450347596644252 0.04055985026482185 0.9892113245293791 -0.09489388161678497 0.002761256099038433 0.017810493386458178 -0.002373614273515348 -0.011474307643864536
