! Created with skrf 1.8.0 (http://scikit-rf.org).
# GHz S RI R 50.0 
!freq ReS11 ImS11 ReS12 ImS12 ReS13 ImS13
! ReS14 ImS14
! ReS21 ImS21 ReS22 ImS22 ReS23 ImS23
! ReS24 ImS24
! ReS31 ImS31 ReS32 ImS32 ReS33 ImS33
! ReS34 ImS34
! ReS41 ImS41 ReS42 ImS42 ReS43 ImS43
! ReS44 ImS44
!
0.0 0.001334036931597 0.0 0.9986659630485 0.0 5.096801944464e-05 0.0 -5.096801971067e-05 6.241782219755123e-21
 0.9986659630485 0.0 0.001334036931613 0.0 -5.096801971103e-05 6.241782219799209e-21 5.096801944409e-05 0.0
 5.096801944464e-05 0.0 -5.096801971103e-05 6.241782219799209e-21 0.001334036931608 0.0 0.9986659630485 0.0
 -5.096801971067e-05 6.241782219755123e-21 5.096801944409e-05 0.0 0.9986659630485 0.0 0.001334036931606 0.0
0.005 0.0014347560488425428 0.0010943296257631837 0.998538643336298 -0.002794922485113432 7.067267226599647e-05 0.0005462879650362244 -6.881966441846028e-05 -0.00034565091097344406
 0.998538643336298 -0.002794922485113432 0.0014347527653688773 0.0010943315737397938 -6.882008233047221e-05 -0.0003456512800652812 7.070341213551501e-05 0.0005462764940011288
 7.067267226599647e-05 0.0005462879650362244 -6.882008233047221e-05 -0.0003456512800652812 0.0014347552448181978 0.0010942628746366321 0.9985386429959727 -0.002794989552575909
 -6.881966441846028e-05 -0.00034565091097344406 7.070341213551501e-05 0.0005462764940011288 0.9985386429959727 -0.002794989552575909 0.0014347528946796434 0.0010942641956319984
0.006252605252188 0.0014610156221648428 0.0013722268667979221 0.9985052675528204 -0.0034943600516278463 7.62023409353509e-05 0.0006831423323614334 -7.378502832744914e-05 -0.000432515944326293
 0.9985052675528204 -0.0034943600516278463 0.0014610104887128957 0.0013722292814389236 -7.378567826483523e-05 -0.00043251640053802525 7.625037232195175e-05 0.0006831274104836065
 7.62023409353509e-05 0.0006831423323614334 -7.378567826483523e-05 -0.00043251640053802525 0.0014610144467647331 0.001372143435228374 0.9985052671025286 -0.0034944438864062174
 -7.378502832744914e-05 -0.000432515944326293 7.625037232195175e-05 0.0006831274104836065 0.9985052671025286 -0.0034944438864062174 0.0014610107730134462 0.001372145056065744
0.01250521050438 0.0015983433671620793 0.002773336272117387 0.9983297098042853 -0.0069896579200389875 0.00010738717512922599 0.0013667512846672876 -0.00010155619027692334 -0.0008672116630356519
 0.9983297098042853 -0.0069896579200389875 0.0015983228602875 0.002773340889101118 -0.00010155874712385235 -0.0008672125200033593 0.00010757880614807148 0.001366715230966447
 0.00010738717512922599 0.0013667512846672876 -0.00010155874712385235 -0.0008672125200033593 0.0015983391990417408 0.002773169773163161 0.9983297085354003 -0.006989825326066479
 -0.00010155619027692334 -0.0008672116630356519 0.00010757880614807148 0.001366715230966447 0.9983297085354003 -0.006989825326066479 0.0015983245336862217 0.0027731726927342788
0.01875781575657 0.0017462873067052112 0.00419458049608801 0.9981390948719199 -0.010494430979935191 0.00014459060137484312 0.0020512883943252964 -0.00013435974574339723 -0.001303502378249953
 0.9981390948719199 -0.010494430979935191 0.001746241212517573 0.004194587092174488 -0.00013436544143208582 -0.0013035035726216544 0.0001450212985240349 0.002051223954430879
 0.00014459060137484312 0.0020512883943252964 -0.00013436544143208582 -0.0013035035726216544 0.0017462783555714611 0.004194331147297245 0.9981390924422273 -0.010494681899983
 -0.00013435974574339723 -0.001303502378249953 0.0001450212985240349 0.002051223954430879 0.9981390924422273 -0.010494681899983 0.0017462454132156824 0.004194335005029671
0.02501042100875 0.001905108424460963 0.00563401032630357 0.997933221065983 -0.01401041117360046 0.00018788137083718305 0.0027367999573751013 -0.00017227200312969096 -0.0017412148465242392
 0.997933221065983 -0.01401041117360046 0.0019050265396751602 0.005634018659870737 -0.00017228205293815093 -0.0017412163056658994 0.00018864677138205802 0.002736698862975964
 0.00018788137083718305 0.0027367999573751013 -0.00017228205293815093 -0.0017412163056658994 0.0019050928879546906 0.005633678365523047 0.9979332171205924 -0.014010745589550693
 -0.00017227200312969096 -0.0017412148465242392 0.00018864677138205802 0.002736698862975964 0.9979332171205924 -0.014010745589550693 0.0019050344034231281 0.0056336827557834515
0.03126302626094 0.0020750567500936895 0.007090639718175233 0.9977118752834433 -0.017538360315241273 0.00023732876352132283 0.003423271777352789 -0.00021536749016062682 -0.00218023263043731
 0.9977118752834433 -0.017538360315241273 0.002074928875254691 0.007090649527203491 -0.00021538309561313398 -0.0021802342722911706 0.00023852476162810037 0.0034231247376339865
 0.00023732876352132283 0.003423271777352789 -0.00021538309561313398 -0.0021802342722911706 0.002075032825751405 0.007090225419994787 0.997711869466208 -0.017538778231987167
 -0.00021536749016062682 -0.00218023263043731 0.00023852476162810037 0.0034231247376339865 0.997711869466208 -0.017538778231987167 0.002074941547765887 0.007090229889876276
0.037515631513130004 0.0022563770995096093 0.008563838694554486 0.9974748388779784 -0.02107867713769826 0.000293001996085526 0.004110666027457443 -0.0002637194831516972 -0.0026204592304740907
 0.9974748388779784 -0.02107867713769826 0.0022561930339155883 0.008563849695249223 -0.00026374183345860867 -0.0026204609635279486 0.0002947247832795148 0.004110462716613469
 0.000293001996085526 0.004110666027457443 -0.00026374183345860867 -0.0026204609635279486 0.0022563429856404427 0.008563342371384194 0.9974748308320718 -0.021079178582443153
 -0.0002637194831516972 -0.0026204592304740907 0.0002947247832795148 0.004110462716613469 0.9974748308320718 -0.021079178582443153 0.0022562116727895443 0.008563346418967745
0.043768236765320004 0.0024493112995988284 0.010053148567078944 0.9972218900137946 -0.024631582010683956 0.0003549699493762665 0.0047989324449758865 -0.0003174002021678019 -0.0030618068815638907
 0.9972218900137946 -0.024631582010683956 0.0024490608374230245 0.010053160452977378 -0.0003174304752050224 -0.0030618086048799617 0.0003573160351918192 0.004798661488537657
 0.0003549699493762665 0.0047989324449758865 -0.0003174304752050224 -0.0030618086048799617 0.002449265193487764 0.01005257056502598 0.9972218793785039 -0.02463216703756932
 -0.0003174002021678019 -0.0030618068815638907 0.0003573160351918192 0.004798661488537657 0.9972218793785039 -0.02463216703756932 0.002449086609814807 0.010052573638063793
0.050020842017509996 0.002654099228745902 0.011558205572512009 0.9969528048375288 -0.028197193242229884 0.0004233010071537248 0.005488012958264976 -0.0003764808888915962 -0.0035041919170521697
 0.9969528048375288 -0.028197193242229884 0.002653772155492127 0.011558218013681227 -0.0003765202518195663 -0.0035041935202911293 0.00042636722958579187 0.005487661918873441
 0.0004233010071537248 0.005488012958264976 -0.0003765202518195663 -0.0035041935202911293 0.002654039328098132 0.011557546282675033 0.9969527912485234 -0.028197861921516812
 -0.0003764808888915962 -0.0035041919170521697 0.00042636722958579187 0.005487661918873441 0.9969527912485234 -0.028197861921516812 0.002653806239740661 0.011557547777303313
0.055454545454549996 0.0028418780614343714 0.012878695395736103 0.9967056821336151 -0.03130617943560983 0.0004879030389786034 0.006087456656417185 -0.000432263844286833 -0.0038894168184063402
 0.9967056821336151 -0.03130617943560983 0.0028414761058817932 0.01287870803276462 -0.00043231204646386104 -0.003889418220407399 0.0004916739844634707 0.0060870250854863795
 0.0004879030389786034 0.006087456656417185 -0.00043231204646386104 -0.003889418220407399 0.002841804710052986 0.012877965812382567 0.9967056656791163 -0.03130692088575814
 -0.000432263844286833 -0.0038894168184063402 0.0004916739844634707 0.0060870250854863795 0.9967056656791163 -0.03130692088575814 0.0028415183796074036 0.012877965404016716
0.056273447269699996 0.002870979358979093 0.013078703406049698 0.9966673581528487 -0.031775564483057024 0.0004980629430845446 0.006177843951258782 -0.00044103183292339485 -0.003947532496083642
 0.9966673581528487 -0.031775564483057024 0.002870565447682164 0.013078716048422548 -0.000441081442586784 -0.00394753385953778 0.0005019464726916245 0.006177399314202284
 0.0004980629430845446 0.006177843951258782 -0.000441081442586784 -0.00394753385953778 0.0028709038623139244 0.013077963260345899 0.9966673412419602 -0.03177631690567532
 -0.00044103183292339485 -0.003947532496083642 0.0005019464726916245 0.006177399314202284 0.9966673412419602 -0.03177631690567532 0.002870609033863889 0.013077962520015746
0.06252605252188 0.0031001890596129085 0.014614372603914674 0.9963653238602076 -0.03536670528231813 0.0005793228330286978 0.0068683575098062435 -0.0005111223701681256 -0.004391747350668907
 0.9963653238602076 -0.03536670528231813 0.0030996780679876258 0.014614385068708808 -0.0005111833734699719 -0.004391748345295552 0.0005841211730999343 0.006867804668410612
 0.0005793228330286978 0.0068683575098062435 -0.0005111833734699719 -0.004391748345295552 0.0031000961670536653 0.014613552080503654 0.9963653032550728 -0.03536754155489975
 -0.0005111223701681256 -0.004391747350668907 0.0005841211730999343 0.006867804668410612 0.9963653032550728 -0.03536754155489975 0.003099732358310685 0.014613548394964034
0.06877865777407 0.003341964765844999 0.01616496826019886 0.9960464752634509 -0.03897059331078763 0.0006671469809164885 0.007559482156579685 -0.0005868208660060064 -0.00483675504592358
 0.9960464752634509 -0.03897059331078763 0.0033413464324675117 0.01616498014353225 -0.0005868944001056592 -0.0048367555333935905 0.0006729579645501808 0.007558805397559992
 0.0006671469809164885 0.007559482156579685 -0.0005868944001056592 -0.0048367555333935905 0.0033418526793590037 0.016164067882683247 0.9960464505863017 -0.03897151355693127
 -0.0005868208660060064 -0.00483675504592358 0.0006729579645501808 0.007558805397559992 0.9960464505863017 -0.03897151355693127 0.003341412641697146 0.01616406048703862
0.07503126302626001 0.0035965420714459025 0.017730262237754105 0.9957105853030624 -0.04258718209167182 0.0007616008519429907 0.008251143324737274 -0.0006681946891742467 -0.005282473503546538
 0.9957105853030624 -0.04258718209167182 0.00359580611298199 0.017730273110185584 -0.0006682818817512162 -0.005282473336271052 0.0007685226372293336 0.008250325813502607
 0.0007616008519429907 0.008251143324737274 -0.0006682818817512162 -0.005282473336271052 0.003596408995960364 0.017729282575561833 0.9957105561708524 -0.042588186451868244
 -0.0006681946891742467 -0.005282473503546538 0.0007685226372293336 0.008250325813502607 0.9957105561708524 -0.042588186451868244 0.003595885468886143 0.017729270649461813
0.08128386827845 0.0038641557721036807 0.019310037983761134 0.9953574267424979 -0.04621640612877136 0.0008627490113048712 0.00894326366629158 -0.000755310179006253 -0.00572881969267371
 0.9953574267424979 -0.04621640612877136 0.0038632918798130263 0.01931004739007243 -0.0007554121483644877 -0.0057288187138549536 0.0008708800745899569 0.008942287432291762
 0.0008627490113048712 0.00894326366629158 -0.0007554121483644877 -0.0057288187138549536 0.003863999915762396 0.019308979649308097 0.9953573927658728 -0.04621749476369103
 -0.000755310179006253 -0.00572881969267371 0.0008708800745899569 0.008942287432291762 0.9953573927658728 -0.04621749476369103 0.0038633856235652355 0.019308962316178836
0.08753647353064001 0.004145039877067959 0.02090408693559892 0.9949867723253015 -0.04985818444680246 0.0009706550652582829 0.009635763269098853 -0.0008482326086920359 -0.006175709414362358
 0.9949867723253015 -0.04985818444680246 0.0041440377136467725 0.020904094394515016 -0.0008483504639079421 -0.006175707458023968 0.0009800941933042016 0.00963460919119827
 0.0009706550652582829 0.009635763269098853 -0.0008483504639079421 -0.006175707458023968 0.004144859452442564 0.02090295058988878 0.9949867331084393 -0.049859357532008305
 -0.0008482326086920359 -0.006175709414362358 0.0009800941933042016 0.00963460919119827 0.9949867331084393 -0.049859357532008305 0.004144147100669365 0.020902926916276134
0.09378907878283 0.004439427598902712 0.022512205961681075 0.994598394913053 -0.05351242309904932 0.001085381604683631 0.010328559811698952 -0.0009470261450343191 -0.006623057150527422
 0.994598394913053 -0.05351242309904932 0.004438276795121975 0.022512210965835656 -0.0009471609860591805 -0.00662305404156015 0.0010962278855188566 0.01032720760361294
 0.001085381604683631 0.010328559811698952 -0.0009471609860591805 -0.00662305404156015 0.0044392208233319476 0.022510992314829514 0.9945983500529234 -0.053513680824813
 -0.0009470261450343191 -0.006623057150527422 0.0010962278855188566 0.01032720760361294 0.9945983500529234 -0.053513680824813 0.004438403095093808 0.022510961309816002
0.100041684035 0.004747551326574373 0.02413419548190701 0.9941920676085685 -0.05717901699805662 0.001206990149598278 0.011021568680174915 -0.0010517538059219178 -0.007070775953271687
 0.9941920676085685 -0.05717901699805662 0.004746241477958365 0.02413419749775715 -0.0010519067236441622 -0.007070771507473198 0.0012193429626207411 0.011019996875968397
 0.001206990149598278 0.011021568680174915 -0.0010519067236441622 -0.007070771507473198 0.004747316423024747 0.024132905288367233 0.9941920166944924 -0.05718035957445408
 -0.0010517538059219178 -0.007070775953271687 0.0012193429626207411 0.011019996875968397 0.9941920166944924 -0.05718035957445408 0.004746385975656039 0.024132865903065032
0.1059090909091 0.005049391765203596 0.025668699762578226 0.9937942454956448 -0.060630861259492824 0.0013274197927232829 0.011671999799376716 -0.00115548171749751 -0.007491171269454406
 0.9937942454956448 -0.060630861259492824 0.005047923172722798 0.025668698465743937 -0.0011556525824513316 -0.00749116539358462 0.001341276960784318 0.011670201341019756
 0.0013274197927232829 0.011671999799376716 -0.0011556525824513316 -0.00749116539358462 0.0050491288561192275 0.025667338467926404 0.9937941885193983 -0.06063228366392915
 -0.00115548171749751 -0.007491171269454406 0.001341276960784318 0.011670201341019756 0.9937941885193983 -0.06063228366392915 0.005048085929176395 0.025667290212722748
0.1062942892872 0.005069642587606584 0.025769858043560866 0.9937675638710753 -0.060857851293671064 0.0013355410946775967 0.011714703054343443 -0.001162477415889934 -0.007518777367409138
 0.9937675638710753 -0.060857851293671064 0.005068163251061155 0.025769856511487253 -0.0011626494922412818 -0.007518771391523569 0.0013495000997050574 0.011712888994052248
 0.0013355410946775967 0.011714703054343443 -0.0011626494922412818 -0.007518771391523569 0.005069377785537423 0.02576849210650661 0.9937675064836514 -0.06085927894642274
 -0.001162477415889934 -0.007518777367409138 0.0013495000997050574 0.011712888994052248 0.9937675064836514 -0.06085927894642274 0.005068327246527132 0.025768443233703597
0.11254689453939999 0.005405932000648529 0.027418997242065885 0.9933246576233402 -0.06454880240906136 0.0014710936549749227 0.012407873979428299 -0.0012792575603157521 -0.007966971370018248
 0.9933246576233402 -0.06454880240906136 0.005404272691040591 0.027418991576501583 -0.0012794498682752124 -0.007966963661779325 0.0014867587807899643 0.01240579379473184
 0.0014710936549749227 0.012407873979428299 -0.0012794498682752124 -0.007966963661779325 0.00540563553693627 0.027417556411983367 0.993324593334967 -0.06455031538125432
 -0.0012792575603157521 -0.007966971370018248 0.0014867587807899643 0.01240579379473184 0.993324593334967 -0.06455031538125432 0.005404457500724151 0.027417496885779276
0.11879949979160001 0.0057566492221138525 0.029081416872729252 0.9928631233561809 -0.0682517388486644 0.0016137058122834178 0.01310099042153511 -0.001402153538154797 -0.008415266328899352
 0.9928631233561809 -0.0682517388486644 0.005754799408963121 0.02908140646242626 -0.0014023671418515495 -0.008415256677068451 0.0016311772443567867 0.013098619021570878
 0.0016137058122834178 0.01310099042153511 -0.0014023671418515495 -0.008415256677068451 0.005756319341565548 0.029079902049768264 0.9928630517294071 -0.06825333739861009
 -0.001402153538154797 -0.008415266328899352 0.0016311772443567867 0.013098619021570878 0.9928630517294071 -0.06825333739861009 0.00575500636537918 0.029079830645396345
0.1250521050438 0.006122022885759078 0.030756920259716967 0.9923827362274338 -0.07196652183218219 0.0017634342615352359 0.013793959316282307 -0.0015312233137505355 -0.008863568970485704
 0.9923827362274338 -0.07196652183218219 0.0061199719896668685 0.03075690446805027 -0.0015314592684770455 -0.008863557154893766 0.001782812429202637 0.013791270373610592
 0.0017634342615352359 0.013793959316282307 -0.0015314592684770455 -0.008863557154893766 0.006121657842373105 0.030755332393069844 0.9923826568150389 -0.0719682062341377
 -0.0015312233137505355 -0.008863568970485704 0.001782812429202637 0.013791270373610592 0.9923826568150389 -0.0719682062341377 0.006120202442562924 0.030755247826801117
0.131304710296 0.006502280539184855 0.03244530972069506 0.9918832721597948 -0.07569300579588062 0.0019203343571671787 0.014486685608632272 -0.001666523467890655 -0.009311784359422726
 0.9918832721597948 -0.07569300579588062 0.006500017928189988 0.032445287886171244 -0.0016667828201292908 -0.009311770151016937 0.0019417199202198194 0.014483651545294449
 0.0019203343571671787 0.014486685608632272 -0.0016667828201292908 -0.009311770151016937 0.0065018785965728935 0.032443649806261125 0.9918831845038101 -0.07569477634264145
 -0.001666523467890655 -0.009311784359422726 0.0019417199202198194 0.014483651545294449 0.9918831845038101 -0.07569477634264145 0.006500273244689234 0.03244355073536754
0.1375573155481 0.0068054290228669115 0.03392652205795186 0.9914567555353387 -0.07921110028821471 0.0020630876261551064 0.015156724638478341 -0.001786709208574993 -0.009737495958009934
 0.9914567555353387 -0.07921110028821471 0.0068029437140748605 0.03392649635532751 -0.0017869936422638076 -0.00973747937342254 0.002086522654149968 0.015153352307967802
 0.0020630876261551064 0.015156724638478341 -0.0017869936422638076 -0.00973747937342254 0.006804989124861785 0.03392479071690635 0.9914566592591474 -0.07921295715494078
 -0.001786709208574993 -0.009737495958009934 0.002086522654149968 0.015153352307967802 0.9914566592591474 -0.07921295715494078 0.006803224439320375 0.03392467920632527
0.1438099208003 0.007119078272643719 0.03540079292787959 0.9910155573695847 -0.08272113702477395 0.0022116005056876244 0.01582455044864986 -0.0019117108284097308 -0.010161156155171672
 0.9910155573695847 -0.08272113702477395 0.007116359516506019 0.035400763031237 -0.0019120214921338938 -0.010161136969291813 0.002237175385441467 0.015820814970607618
 0.0022116005056876244 0.01582455044864986 -0.0019120214921338938 -0.010161136969291813 0.007118598820042353 0.03539899116664505 0.9910154520163448 -0.08272308049827262
 -0.0019117108284097308 -0.010161156155171672 0.002237175385441467 0.015820814970607618 0.9910154520163448 -0.08272308049827262 0.007116666894202802 0.03539886625076123
0.1500625260525 0.007443129071808237 0.036868024440650876 0.9905597801672723 -0.08622305450613839 0.0023658279432351857 0.01649011169232909 -0.002041484153948197 -0.010582715014869112
 0.9905597801672723 -0.08622305450613839 0.007440166069266215 0.03686799002371537 -0.002041822195434731 -0.010582692993504136 0.002393632599048054 0.016485987289182054
 0.0023658279432351857 0.01649011169232909 -0.002041822195434731 -0.010582692993504136 0.007442608482889966 0.03686615330508589 0.9905596652713796 -0.08622508488482593
 -0.002041484153948197 -0.010582715014869112 0.002393632599048054 0.016485987289182054 0.9905596652713796 -0.08622508488482593 0.0074405013504937525 0.03686601399362339
0.15631513130469998 0.007777481632572125 0.038328121789268296 0.9900895268073672 -0.08971679095943652 0.002525724431167234 0.017153357788555982 -0.002175984538676016 -0.011002123572117831
