! Created with skrf 1.8.0 (http://scikit-rf.org).
# GHz S RI R 50.0 
!freq ReS11 ImS11 ReS12 ImS12 ReS13 ImS13
! ReS14 ImS14
! ReS21 ImS21 ReS22 ImS22 ReS23 ImS23
! ReS24 ImS24
! ReS31 ImS31 ReS32 ImS32 ReS33 ImS33
! ReS34 ImS34
! ReS41 ImS41 ReS42 ImS42 ReS43 ImS43
! ReS44 ImS44
!
0.0 0.001298846722981 0.0 0.9987011532702 0.0 4.954702014612e-05 0.0 -4.95470203954e-05 6.0677599934515236e-21
 0.9987011532702 0.0 0.001298846722987 0.0 -4.954702039596e-05 6.067759993520103e-21 4.954702014567e-05 0.0
 4.954702014612e-05 0.0 -4.954702039596e-05 6.067759993520103e-21 0.001298846724734 0.0 0.9987011532719 0.0
 -4.95470203954e-05 6.0677599934515236e-21 4.954702014567e-05 0.0 0.9987011532719 0.0 0.001298846724703 0.0
0.005 0.0013968258698573333 0.001065660239803051 0.9985773193084644 -0.002721302663207342 6.858881562732478e-05 0.0005301921711269752 -6.684557794619503e-05 -0.0003356300666374775
 0.9985773193084644 -0.002721302663207342 0.001396808762209779 0.0010656701930667452 -6.684495692080213e-05 -0.0003356295462305264 6.870372420412687e-05 0.000530148596237242
 6.858881562732478e-05 0.0005301921711269752 -6.684495692080213e-05 -0.0003356295462305264 0.001396826082699681 0.0010655928225703835 0.9985773189722084 -0.0027213697241717165
 -6.684557794619503e-05 -0.0003356300666374775 6.870372420412687e-05 0.000530148596237242 0.9985773189722084 -0.0027213697241717165 0.0013968078811522654 0.0010656034920294873
0.006252605252188 0.0014223475288985116 0.0013362799500781521 0.9985448940397911 -0.00340232052059741 7.390642160450292e-05 0.0006630169944374545 -7.164553980128426e-05 -0.00041997800194289506
 0.9985448940397911 -0.00340232052059741 0.0014223207867042913 0.001336292566733026 -7.164457376404472e-05 -0.00041997735918455757 7.408595947827142e-05 0.000662960432593732
 7.390642160450292e-05 0.0006630169944374545 -7.164457376404472e-05 -0.00041997735918455757 0.0014223479366156115 0.0013361956832528639 0.9985448935886934 -0.003402404339175761
 -7.164553980128426e-05 -0.00041997800194289506 7.408595947827142e-05 0.000662960432593732 0.9985448935886934 -0.003402404339175761 0.0014223194837397707 0.0013362092046287069
0.01250521050438 0.0015556780096469525 0.0027007175086197375 0.9983745479371003 -0.006805594691439433 0.00010375599877821909 0.0013265147896757044 -9.842859850694739e-05 -0.0008420871737625296
 0.9983745479371003 -0.006805594691439433 0.0015555712335255075 0.002700744496407665 -9.842479539816402e-05 -0.0008420859718265546 0.00010447205160113508 0.0013263793306735896
 0.00010375599877821909 0.0013265147896757044 -9.842479539816402e-05 -0.0008420859718265546 0.0015556802004541544 0.0027005491911358767 0.9983745466906779 -0.006805762090641505
 -9.842859850694739e-05 -0.0008420871737625296 0.00010447205160113508 0.0013263793306735896 0.9983745466906779 -0.006805762090641505 0.0015555665810818482 0.0027005780927745636
0.01875781575657 0.0016990918268185726 0.0040848003216796365 0.9981899298566087 -0.010218140097121485 0.00013916072589839601 0.001990944511627604 -0.00012997034417354178 -0.0012657638020408236
 0.9981899298566087 -0.010218140097121485 0.0016988519108879015 0.0040848435478877685 -0.00012996186837030058 -0.0012657621370463204 0.0001407694938728145 0.00199070400927587
 0.00013916072589839601 0.001990944511627604 -0.00012996186837030058 -0.0012657621370463204 0.0016990971853867885 0.004084548024576663 0.9981899274752791 -0.010218390999814305
 -0.00012997034417354178 -0.0012657638020408236 0.0001407694938728145 0.00199070400927587 0.9981899274752791 -0.010218390999814305 0.001698841868286284 0.004084594307998669
0.02501042100875 0.001852837108085701 0.005486635621679065 0.9979908484484804 -0.013641648342712382 0.00018018579986994724 0.0026563551311253137 -0.0001663431867350877 -0.001690842838280857
 0.9979908484484804 -0.013641648342712382 0.0018524110640145924 0.005486697045794423 -0.00016632822608336068 -0.0016908408208737217 0.00018304378039794703 0.0026559797817040805
 0.00018018579986994724 0.0026563551311253137 -0.00016632822608336068 -0.0016908408208737217 0.0018528470240195326 0.005486299398053312 0.9979908445900411 -0.013641982706049471
 -0.0001663431867350877 -0.001690842838280857 0.00018304378039794703 0.0026559797817040805 0.9979908445900411 -0.013641982706049471 0.0018523935879445608 0.005486365185819495
0.03126302626094 0.0020171515283165594 0.006905268622872063 0.997777101345071 -0.017076866618463585 0.00022689682837354676 0.0033227371203545324 -0.00020761789369685694 -0.0021172143298237114
 0.997777101345071 -0.017076866618463585 0.0020164864574125137 0.006905350291948665 -0.00020759465542672563 -0.0021172120854132605 0.00023136115726845138 0.0033221934419228505
 0.00022689682837354676 0.0033227371203545324 -0.00020759465542672563 -0.0021172120854132605 0.002017167398848813 0.006904848507557983 0.9977770956669174 -0.017077284434351424
 -0.00020761789369685694 -0.0021172143298237114 0.00023136115726845138 0.0033221934419228505 0.9977770956669174 -0.017077284434351424 0.002016459503660267 0.006904936038738469
0.037515631513130004 0.002192267822620653 0.008340091392660978 0.9975484807952183 -0.02052418877641957 0.0002793593408810904 0.00399005814965457 -0.0002538640905285591 -0.002544787722992961
 0.9975484807952183 -0.02052418877641957 0.0021913108975630067 0.008340195438575304 -0.0002538307990868744 -0.0025447853918002506 0.0002857879528014908 0.003989308943817817
 0.0002793593408810904 0.00399005814965457 -0.0002538307990868744 -0.0025447853918002506 0.0021922910531404906 0.008339587423317684 0.9975484729535887 -0.020524690050446576
 -0.0002538640905285591 -0.002544787722992961 0.0002857879528014908 0.003989308943817817 0.9975484729535887 -0.020524690050446576 0.0021912724215319215 0.008339699051120007
0.043768236765320004 0.0023784159311749284 0.009790662952393591 0.9973047759269072 -0.023983835171775814 0.00033763856084260236 0.004658273942908154 -0.0003051504476117942 -0.002973481000008244
 0.9973047759269072 -0.023983835171775814 0.0023771143820209657 0.009790791589854422 -0.0003051053434098981 -0.0029734787370781046 0.0003463902726975375 0.004657278251075599
 0.00033763856084260236 0.004658273942908154 -0.0003051053434098981 -0.0029734787370781046 0.0023784479354444876 0.009790075166581756 0.9973047655764538 -0.023984419926174935
 -0.0003051504476117942 -0.002973481000008244 0.0003463902726975375 0.004657278251075599 0.9973047655764538 -0.023984419926174935 0.002377062338435949 0.009790213356729093
0.050020842017509996 0.002575824000615622 0.011256634931356488 0.9970457738679339 -0.027455926949364884 0.0004017992694271885 0.005327332754376749 -0.0003615447566084466 -0.00340321619306568
 0.9970457738679339 -0.027455926949364884 0.002574125102836667 0.01125679045629269 -0.00036148609510179 -0.0034032141682498545 0.00041323382306442526 0.005326045811703116
 0.0004017992694271885 0.005327332754376749 -0.00036148609510179 -0.0034032141682498545 0.002575866199955487 0.011255963369853765 0.9970457606603348 -0.027456595219610642
 -0.0003615447566084466 -0.00340321619306568 0.00041323382306442526 0.005326045811703116 0.9970457606603348 -0.027456595219610642 0.0025740574453743826 0.011256130699431446
0.055454545454549996 0.0027566982915389645 0.012542888039675414 0.9968081036875825 -0.030483433588401134 0.0004623832672226321 0.005909405589559576 -0.00041475341061942786 -0.003777456121488985
 0.9968081036875825 -0.030483433588401134 0.0027546112940165495 0.012543068857357436 -0.00041468156185280985 -0.0037774544530280413 0.0004764421783240571 0.005907826194957877
 0.0004623832672226321 0.005909405589559576 -0.00041468156185280985 -0.0037774544530280413 0.0027567505116224034 0.012542143708636896 0.9968080877125776 -0.03048417447713955
 -0.00041475341061942786 -0.003777456121488985 0.0004764421783240571 0.005907826194957877 0.9968080877125776 -0.03048417447713955 0.0027545284058662282 0.012542338540008418
0.056273447269699996 0.002784718909008631 0.012737715072344896 0.9967712603910608 -0.030940522477969225 0.00047190571081611533 0.0059971775600766 -0.0004231139559306749 -0.0038339171842289646
 0.9967712603910608 -0.030940522477969225 0.0027825699725529405 0.012737899860645281 -0.00042304000703182365 -0.003833915582168265 0.000486383791265022 0.00599555074830778
 0.00047190571081611533 0.0059971775600766 -0.00042304000703182365 -0.003833915582168265 0.00278477273326164 0.012736959777526929 0.9967712439757447 -0.030941274314470503
 -0.0004231139559306749 -0.0038339171842289646 0.000486383791265022 0.00599555074830778 0.9967712439757447 -0.030941274314470503 0.002782484654923032 0.012737158934117745
0.06252605252188 0.0030053265594203707 0.014233647170749895 0.9964810203309873 -0.03443763735231944 0.0005480215163572863 0.006667747266707827 -0.0004899241320051348 -0.004265508488851863
 0.9964810203309873 -0.03443763735231944 0.0030026749189456794 0.014233863677271984 -0.0004898331796429259 -0.0042655075089410525 0.0005659047540716443 0.006665728066460903
 0.0005480215163572863 0.006667747266707827 -0.0004898331796429259 -0.0042655075089410525 0.003005393447950229 0.01423280819018582 0.9964810003549255 -0.03443847281661374
 -0.0004899241320051348 -0.004265508488851863 0.0005659047540716443 0.006665728066460903 0.9964810003549255 -0.03443847281661374 0.0030025698958797264 0.014233041971387977
0.06877865777407 0.0032378720465378943 0.015744199110191065 0.9961748378748709 -0.03794725629923499 0.0006302096407669877 0.007338977424622418 -0.0005620405049750487 -0.004697914536362869
 0.9961748378748709 -0.03794725629923499 0.0032346650514083193 0.01574444986799947 -0.0005619308467309237 -0.0046979143927342705 0.0006518606025770999 0.007336509367430457
 0.0006302096407669877 0.007338977424622418 -0.0005619308467309237 -0.0046979143927342705 0.003237953446911364 0.015743276494519138 0.9961748139812059 -0.03794817546626594
 -0.0005620405049750487 -0.004697914536362869 0.0006518606025770999 0.007336509367430457 0.9961748139812059 -0.03794817546626594 0.003234538277943845 0.01574354780758106
0.07503126302626001 0.00348257974778725 0.01726915527910878 0.995852496780893 -0.04146934070478935 0.0007185323043795707 0.008010800680793679 -0.000639527405712456 -0.005131059212715723
 0.995852496780893 -0.04146934070478935 0.0034787647526795256 0.01726944289899009 -0.000639397352581349 -0.005131060134200726 0.0007443144760462249 0.008007823301106255
 0.0007185323043795707 0.008010800680793679 -0.000639397352581349 -0.005131060134200726 0.0034826771174618887 0.017268149082707504 0.9958524686098646 -0.041470343661982774
 -0.000639527405712456 -0.005131059212715723 0.0007443144760462249 0.008007823301106255 0.9958524686098646 -0.041470343661982774 0.0034786141859609867 0.017268460944498108
0.08128386827845 0.0037396733704548324 0.01880831152022563 0.9955137805549767 -0.045003833610022935 0.0008130509389940679 0.00868314708063288 -0.0007224482470930996 -0.005564865555778871
 0.9955137805549767 -0.045003833610022935 0.0037351977261132698 0.01880863869037814 -0.0007222961232727502 -0.005564867785886024 0.0008433287014761334 0.008679595867891148
 0.0008130509389940679 0.00868314708063288 -0.0007222961232727502 -0.005564867785886024 0.0037397881755536857 0.018807221804160962 0.9955137477419529 -0.045004920454351956
 -0.0007224482470930996 -0.005564865555778871 0.0008433287014761334 0.008679595867891148 0.9955137477419529 -0.045004920454351956 0.0037350213246434773 0.01880757734131724
0.08753647353064001 0.004009375964523022 0.020361471636938886 0.9951584725943128 -0.04855066315195025 0.0009138261364481646 0.009355944275353427 -0.0008108654909281134 -0.005999255547097709
 0.9951584725943128 -0.04855066315195025 0.004004187008322677 0.020361841122985547 -0.0008106896336597551 -0.005999259343976457 0.0009489647368895456 0.009351750626253628
 0.0009138261364481646 0.009355944275353427 -0.0008106896336597551 -0.005999259343976457 0.004009509681265176 0.02036029846357373 0.9951584347710779 -0.048551833995186346
 -0.0008108654909281134 -0.005999255547097709 0.0009489647368895456 0.009351750626253628 0.9951584347710779 -0.048551833995186346 0.004003982733758601 0.020360700912981717
0.09378907878283 0.004291909918469451 0.021928444897795017 0.9947863563176328 -0.05210974500842407 0.001020917598584076 0.010029117670581858 -0.0009048406118753729 -0.006434149964417262
 0.9947863563176328 -0.05210974500842407 0.0042859549653594745 0.021928859542991928 -0.0009046393713225552 -0.006434155600831342 0.0010612831171765333 0.0100242088415974
 0.001020917598584076 0.010029117670581858 -0.0009046393713225552 -0.006434155600831342 0.004292064032632376 0.02192718833635368 0.9947863131111483 -0.052110999971502286
 -0.0009048406118753729 -0.006434149964417262 0.0010612831171765333 0.0100242088415974 0.9947863131111483 -0.052110999971502286 0.004285720782424044 0.021927641045713438
0.100041684035 0.004587496936916161 0.02350904420292339 0.9943972152784795 -0.055680984183438996 0.001134384088082214 0.010702590538112929 -0.001004434059287799 -0.006869468273167328
 0.9943972152784795 -0.055680984183438996 0.004580723270007938 0.02350950692866654 -0.0010042057984499919 -0.006869476036454639 0.001180343401162998 0.010696889598331042
 0.001134384088082214 0.010702590538112929 -0.0010042057984499919 -0.006869476036454639 0.004587672944213713 0.02350770432509291 0.994397166310394 -0.05568232340068061
 -0.001004434059287799 -0.006869468273167328 0.001180343401162998 0.010696889598331042 0.994397166310394 -0.05568232340068061 0.00458045714717013 0.023508210753937022
0.1059090909091 0.0048769424855409456 0.02500449705590049 0.9940163712555896 -0.0590431774996195 0.001246709849374901 0.011334775612119088 -0.0011030546653414716 -0.007278280900583507
 0.9940163712555896 -0.0590431774996195 0.004869352560717739 0.025005007627342507 -0.00110279957135637 -0.00727829093401487 0.0012982526893944367 0.011328257621408324
 0.001246709849374901 0.011334775612119088 -0.00110279957135637 -0.00727829093401487 0.004877140406506273 0.025003079065207507 0.9940163165318787 -0.059044595911114724
 -0.0011030546653414716 -0.007278280900583507 0.0012982526893944367 0.011328257621408324 0.9940163165318787 -0.059044595911114724 0.004869054621987145 0.025003639151084552
0.1062942892872 0.004896358007999674 0.025103084701140387 0.9939908332706736 -0.05926427634408159 0.0012542833799696737 0.011376284098822489 -0.001109705217051337 -0.007305128548943009
 0.9939908332706736 -0.05926427634408159 0.004888712869297863 0.025103598507668946 -0.0011094483116727036 -0.007305138740997946 0.0013062041201415706 0.011369709883195887
 0.0012542833799696737 0.011376284098822489 -0.0011094483116727036 -0.007305138740997946 0.004896557414250554 0.025101661584372884 0.9939907781573109 -0.05926569995979407
 -0.001109705217051337 -0.007305128548943009 0.0013062041201415706 0.011369709883195887 0.9939907781573109 -0.05926569995979407 0.004888412779598635 0.025102225305171064
0.11254689453939999 0.005218713362862567 0.026710382738745944 0.9935669944282219 -0.06285950882818579 0.0013806722134251652 0.012050117588656425 -0.0012207123621285046 -0.0077410474191544195
 0.9935669944282219 -0.06285950882818579 0.005210143943859711 0.026710950706212964 -0.0012204252006675818 -0.007741060356383002 0.0014389227267749404 0.012042584651637168
 0.0013806722134251652 0.012050117588656425 -0.0012204252006675818 -0.007741060356383002 0.005218937684229569 0.026708876463742502 0.9935669327799646 -0.06286101699900506
 -0.0012207123621285046 -0.0077410474191544195 0.0014389227267749404 0.012042584651637168 0.9935669327799646 -0.06286101699900506 0.005209807865398104 0.02670950116339123
0.11879949979160001 0.005554782427653414 0.02833075502936019 0.9931254833196437 -0.06646656143382144 0.0015136062437515988 0.012724008312403222 -0.001337512621892892 -0.008177140019239663
 0.9931254833196437 -0.06646656143382144 0.005545235859888745 0.028331380319072345 -0.001337193605461381 -0.008177156032530598 0.001578555544624841 0.012715426882084713
 0.0015136062437515988 0.012724008312403222 -0.001337193605461381 -0.008177156032530598 0.005555033190877802 0.028329165681379775 0.9931254147408328 -0.06646815432719567
 -0.001337512621892892 -0.008177140019239663 0.001578555544624841 0.012715426882084713 0.9931254147408328 -0.06646815432719567 0.005544861776683791 0.02832985516289533
0.1250521050438 0.0059047837707744185 0.02996401800287029 0.9926660850395995 -0.07008530703200042 0.0016531399944582754 0.01339787168686763 -0.0014601619304068275 -0.00861331996178518
 0.9926660850395995 -0.07008530703200042 0.005894207116248701 0.029964703858922276 -0.0014598094727574656 -0.008613339396475257 0.0017251577179852246 0.013388147619614488
 0.0016531399944582754 0.01339787168686763 -0.0014598094727574656 -0.008613339396475257 0.005905062513238667 0.02996234566977402 0.9926660091279217 -0.07008698482803137
 -0.0014601619304068275 -0.00861331996178518 0.0017251577179852246 0.013388147619614488 0.9926660091279217 -0.07008698482803137 0.005893793018764859 0.029963103854306092
0.131304710296 0.006268935045372138 0.031609987278772615 0.9921885852982217 -0.0737156120581357 0.0017993268092108899 0.014071621279033919 -0.0015887149840230902 -0.009049499313108238
 0.9921885852982217 -0.0737156120581357 0.006257275287071991 0.03161073702989932 -0.0015883275115326832 -0.009049522528945725 0.001878783161720803 0.014060656014719453
 0.0017993268092108899 0.014071621279033919 -0.0015883275115326832 -0.009049522528945725 0.006269243315404604 0.03160823205234525 0.9921885016441179 -0.07371737494794646
 -0.0015887149840230902 -0.009049499313108238 0.001878783161720803 0.014060656014719453 0.9921885016441179 -0.07371737494794646 0.006256819172970538 0.03160906298147755
0.1375573155481 0.006558301879881508 0.03305409104807905 0.9917819495886895 -0.077142872562052 0.0019317288328122575 0.014723261730769889 -0.001702641767206552 -0.009463754657943016
 0.9917819495886895 -0.077142872562052 0.006545500966497127 0.033054891763700765 -0.001702216836872637 -0.009463781629609124 0.0020188035084965843 0.014711081332140021
 0.0019317288328122575 0.014723261730769889 -0.001702216836872637 -0.009463781629609124 0.006558640461485074 0.03305225319816824 0.9917818578407207 -0.07714472064740145
 -0.001702641767206552 -0.009463754657943016 0.0020188035084965843 0.014711081332140021 0.9917818578407207 -0.07714472064740145 0.006545001496625876 0.03305314416097724
0.1438099208003 0.00685766095230761 0.034491558989021155 0.9913613819712689 -0.08056241781614222 0.002069459220892634 0.015372854360827522 -0.0018211333487015255 -0.009876084735815506
 0.9913613819712689 -0.08056241781614222 0.006843664953619703 0.03449241302616239 -0.0018206692484367447 -0.00987611581458765 0.002164488740643088 0.015359369767121909
 0.002069459220892634 0.015372854360827522 -0.0018206692484367447 -0.00987611581458765 0.0068580312707312635 0.03448963864162708 0.9913612817216826 -0.08056435128283339
 -0.0018211333487015255 -0.009876084735815506 0.002164488740643088 0.015359369767121909 0.9913612817216826 -0.08056435128283339 0.0068431202560391095 0.034490592675173085
0.1500625260525 0.0071669194684859435 0.03592229957542923 0.9909269784318887 -0.08397419194551124 0.002212476773984246 0.01602035275941278 -0.001944148758543611 -0.010286443272805534
 0.9909269784318887 -0.08397419194551124 0.007151674340663718 0.03592320943984413 -0.0019436437778278717 -0.010286478824158915 0.0023157959821226374 0.016005471691109427
 0.002212476773984246 0.01602035275941278 -0.0019436437778278717 -0.010286478824158915 0.0071673229501586855 0.03592029686171202 0.9909268692672291 -0.0839762109874244
 -0.001944148758543611 -0.010286443272805534 0.0023157959821226374 0.016005471691109427 0.9909268692672291 -0.0839762109874244 0.007151082558281602 0.03592131717726723
0.15631513130469998 0.007485984122717373 0.03734622419621026 0.9904788352830312 -0.08737813872340852 0.0023607398894605653 0.016665711197031703 -0.0020716465994529104 -0.010694784884691529
