! Created with skrf 1.8.0 (http://scikit-rf.org).
# GHz S RI R 50.0 
!freq ReS11 ImS11 ReS12 ImS12 ReS13 ImS13
! ReS14 ImS14
! ReS21 ImS21 ReS22 ImS22 ReS23 ImS23
! ReS24 ImS24
! ReS31 ImS31 ReS32 ImS32 ReS33 ImS33
! ReS34 ImS34
! ReS41 ImS41 ReS42 ImS42 ReS43 ImS43
! ReS44 ImS44
!
0.0 0.001557654104035 0.0 0.9984423458504 0.0 6.016929570481e-05 0.0 -6.016929782539e-05 7.368613798880766e-21
 0.9984423458504 0.0 0.001557654104017 0.0 -6.016929782471e-05 7.368613798797491e-21 6.016929570423e-05 0.0
 6.016929570481e-05 0.0 -6.016929782471e-05 7.368613798797491e-21 0.001557654126754 0.0 0.9984423458731 0.0
 -6.016929782539e-05 7.368613798880766e-21 6.016929570423e-05 0.0 0.9984423458731 0.0 0.001557654126771 0.0
0.005 0.0016759677682673222 0.0012730995973027706 0.9982926633746044 -0.003262861325430454 8.446093912899644e-05 0.0006700885550496592 -8.202247750017075e-05 -0.00041934344802989733
 0.9982926633746044 -0.003262861325430454 0.0016759635916927047 0.0012731020730149527 -8.202187368274019e-05 -0.0004193430604755308 8.449439884545312e-05 0.0006700759400801713
 8.446093912899644e-05 0.0006700885550496592 -8.202187368274019e-05 -0.0004193430604755308 0.0016759673414217214 0.0012730326214909044 0.9982926630159593 -0.003262928403906906
 -8.202247750017075e-05 -0.00041934344802989733 8.449439884545312e-05 0.0006700759400801713 0.9982926630159593 -0.003262928403906906 0.0016759633124743519 0.0012730349032775863
0.006252605252188 0.0017070114974069943 0.0015963860703512708 0.9982531413367499 -0.004079373144664129 9.139536746829012e-05 0.0008379319463979193 -8.819793658925736e-05 -0.0005247222493992462
 0.9982531413367499 -0.004079373144664129 0.0017070049681360397 0.0015963891860186475 -8.819699641405044e-05 -0.0005247217731896598 9.144764664046586e-05 0.0008379155451407142
 9.139536746829012e-05 0.0008379319463979193 -8.819699641405044e-05 -0.0005247217731896598 0.001707010898389683 0.0015963023894287047 0.9982531408445081 -0.004079456966054855
 -8.819793658925736e-05 -0.0005247222493992462 9.144764664046586e-05 0.0008379155451407142 0.9982531408445081 -0.004079456966054855 0.001707004600641081 0.001596305249228704
0.01250521050438 0.0018705115919710428 0.003226235603212671 0.9980436163537141 -0.008159541027360688 0.00013113393598302098 0.0016762025270302939 -0.0001232660394587673 -0.001051985876159597
 0.9980436163537141 -0.008159541027360688 0.0018704855111458735 0.0032262420388058034 -0.00012326232686704443 -0.0010519850150547793 0.00013134246042684094 0.001676162910334334
 0.00013113393598302098 0.0016762025270302939 -0.00012326232686704443 -0.0010519850150547793 0.0018705097637204816 0.003226068623334752 0.9980436149554428 -0.008159708448345302
 -0.0001232660394587673 -0.001051985876159597 0.00013134246042684094 0.001676162910334334 0.9980436149554428 -0.008159708448345302 0.0018704846239144008 0.003226074406816374
0.01875781575657 0.002048514598133377 0.004879288754719978 0.9978135081476756 -0.01225043140550047 0.00017947813406632144 0.002515378629794622 -0.00016548233239673362 -0.0015810194563460392
 0.9978135081476756 -0.01225043140550047 0.002048455976608071 0.004879298720134841 -0.0001654740428578882 -0.0015810183222077735 0.0001799466752308014 0.002515307664084059
 0.00017947813406632144 0.002515378629794622 -0.0001654740428578882 -0.0015810183222077735 0.0020485109081444072 0.004879038771413859 0.9978135054277892 -0.012250682388062456
 -0.00016548233239673362 -0.0015810194563460392 0.0001799466752308014 0.002515307664084059 0.9978135054277892 -0.012250682388062456 0.0020484544336871117 0.004879047533517408
0.02501042100875 0.002241369890637408 0.006553225056132419 0.9975625434784929 -0.01635402169121683 0.0002365220697915444 0.003355494470899932 -0.0002149519143474966 -0.0021115781856610137
 0.9975625434784929 -0.01635402169121683 0.00224126575428677 0.006553238760925865 -0.00021493726157201628 -0.0021115769125350644 0.000237354510761459 0.0033553827406436376
 0.0002365220697915444 0.003355494470899932 -0.00021493726157201628 -0.0021115769125350644 0.002241363700313831 0.006552892417579801 0.9975625390133439 -0.016354356242648062
 -0.0002149519143474966 -0.0021115781856610137 0.000237354510761459 0.0033553827406436376 0.9975625390133439 -0.016354356242648062 0.0022412634312001982 0.0065529041975215824
0.03126302626094 0.002449412398765002 0.008246847602549774 0.9972904352887314 -0.020471154730194178 0.0003023601639659255 0.004196506125715365 -0.00027177685397202596 -0.002643489392792718
 0.9972904352887314 -0.020471154730194178 0.0024492497801619924 0.008246865254120378 -0.0002717540668066038 -0.002643488137153308 0.0003036605970577075 0.00419634292319437
 0.0003023601639659255 0.004196506125715365 -0.0002717540668066038 -0.002643488137153308 0.002449403071601602 0.008246432693198408 0.9972904286522687 -0.02047157291989632
 -0.00027177685397202596 -0.002643489392792718 0.0003036605970577075 0.00419634292319437 0.9972904286522687 -0.02047157291989632 0.002449246571698172 0.008246447512440093
0.037515631513130004 0.002672969763797855 0.009959373890562532 0.9969968900985916 -0.024602247901938948 0.00037708626507308675 0.005038338763772271 -0.0003360569346904274 -0.0031766053132214617
 0.9969968900985916 -0.024602247901938948 0.002672735696188803 0.009959395693176826 -0.0003360242556720588 -0.0031766042541109905 0.0003789590377517997 0.005038112073895549
 0.00037708626507308675 0.005038338763772271 -0.0003360242556720588 -0.0031766042541109905 0.0026729566654728164 0.009958877163999768 0.9969968808599918 -0.024602749829063436
 -0.0003360569346904274 -0.0031766053132214617 0.0003789590377517997 0.005038112073895549 0.9969968808599918 -0.024602749829063436 0.0026727315154109203 0.009958895024907323
0.043768236765320004 0.0029123651087413927 0.011690220008210702 0.996681611014124 -0.028747508858908116 0.00046079323471316864 0.005880901002325902 -0.000407889913370403 -0.0037107887414810233
 0.996681611014124 -0.028747508858908116 0.0029120466208348477 0.011690246162244622 -0.0004078455978642542 -0.0037107880805942028 0.0004633429735908167 0.005880597485815175
 0.00046079323471316864 0.005880901002325902 -0.0004078455978642542 -0.0037107880805942028 0.0029123476067832946 0.011689641982307606 0.996681598734947 -0.02874809465769109
 -0.000407889913370403 -0.0037107887414810233 0.0004633429735908167 0.005880597485815175 0.996681598734947 -0.02874809465769109 0.0029120413985993937 0.011689662867063908
0.050020842017509996 0.003167918315024624 0.01343891146896073 0.9963442992446753 -0.032907024620046424 0.0005535726896428131 0.006724090839611988 -0.0004873716153533578 -0.004245907105120762
 0.9963442992446753 -0.032907024620046424 0.0031675024263689224 0.013438942170391622 -0.00048731393110244635 -0.004245907066873334 0.0005569043129901056 0.006723695815468781
 0.0005535726896428131 0.006724090839611988 -0.00048731393110244635 -0.004245907066873334 0.003167895781221525 0.013438252725830505 0.9963442834782894 -0.03290769446027073
 -0.0004873716153533578 -0.004245907105120762 0.0005569043129901056 0.006723695815468781 0.9963442834782894 -0.03290769446027073 0.003167496112882687 0.013438276595611918
0.055454545454549996 0.00340337044251344 0.014972751234955343 0.9960330390465677 -0.03653335579631587 0.000641638898790163 0.007457273007357652 -0.0005627283047151649 -0.004711598823569407
 0.9960330390465677 -0.03653335579631587 0.003402859357144203 0.014972786043665986 -0.000562657605202562 -0.004711599526367857 0.000645735440353599 0.007456785482018469
 0.000641638898790163 0.007457273007357652 -0.000562657605202562 -0.004711599526367857 0.0034033430299983793 0.014972022870808517 0.9960330198803199 -0.03653409883484133
 -0.0005627283047151649 -0.004711598823569407 0.000645735440353599 0.007456785482018469 0.9960330198803199 -0.03653409883484133 0.0034028520707727206 0.014972049286305694
0.056273447269699996 0.003439946680269816 0.015205039414527744 0.9959846550047113 -0.037080805296903455 0.0006555148192671156 0.007567798575273041 -0.0005745959501424359 -0.004781829554552922
 0.9959846550047113 -0.037080805296903455 0.0034394203963401433 0.015205074854556147 -0.0005745231769705263 -0.004781830386153378 0.0006597335421556663 0.007567296002856717
 0.0006555148192671156 0.007567798575273041 -0.0005745231769705263 -0.004781830386153378 0.0034399184917579886 0.015204300605155366 0.9959846352955917 -0.03708155937967233
 -0.0005745959501424359 -0.004781829554552922 0.0006597335421556663 0.007567296002856717 0.9959846352955917 -0.03708155937967233 0.003439412962069114 0.015204327399429446
0.06252605252188 0.003728765266675984 0.016988236561793726 0.9956023781116297 -0.04126880807881492 0.0007667082375940716 0.008411908409425725 -0.0006696548891315967 -0.005318425378115465
 0.9956023781116297 -0.04126880807881492 0.0037281155748330767 0.01698827692647851 -0.0006695653188529961 -0.0053184273496143936 0.0007719195727526629 0.008411280870302938
 0.0007667082375940716 0.008411908409425725 -0.0006695653188529961 -0.0053184273496143936 0.003728730808575412 0.016987418404401194 0.9956023539945918 -0.04126964663847503
 -0.0006696548891315967 -0.005318425378115465 0.0007719195727526629 0.008411280870302938 0.9956023539945918 -0.04126964663847503 0.003728107012325883 0.016987448040341187
0.06877865777407 0.004034687081405217 0.01878816285034736 0.9951971684175984 -0.04547095152130307 0.0008872398548559399 0.009256299402629412 -0.0007726384214783077 -0.005855563060534313
 0.9951971684175984 -0.04547095152130307 0.004033900946193609 0.01878820832049259 -0.0007725303578353567 -0.005855566464873946 0.0008935496101650555 0.009255528082291112
 0.0008872398548559399 0.009256299402629412 -0.0007725303578353567 -0.005855566464873946 0.0040346457469100675 0.01878726613139075 0.995197139415709 -0.045471874824805
 -0.0007726384214783077 -0.005855563060534313 0.0008935496101650555 0.009255528082291112 0.995197139415709 -0.045471874824805 0.004033891269873111 0.01878729850341686
0.07503126302626001 0.004358023158395545 0.020604496345408715 0.994768726148112 -0.0496871245838819 0.0010171947607321961 0.010100846092000454 -0.0008836344961654759 -0.006393109689864293
 0.994768726148112 -0.0496871245838819 0.004357087517404553 0.020604547096502994 -0.0008835062548941632 -0.006393114842929546 0.001024709034222724 0.010099910761532197
 0.0010171947607321961 0.010100846092000454 -0.0008835062548941632 -0.006393114842929546 0.004357974351218277 0.02060352192131496 0.9947686917721562 -0.04968813292918535
 -0.0008836344961654759 -0.006393109689864293 0.001024709034222724 0.010099910761532197 0.9947686917721562 -0.04968813292918535 0.0043570767652525285 0.02060355690083286
0.08128386827845 0.004699082576600912 0.022436927194673762 0.9943167521799987 -0.05391719261886393 0.0011566561154772196 0.010945418901614042 -0.0010027289542553488 -0.006930930575061952
 0.9943167521799987 -0.05391719261886393 0.004697984335972944 0.022436983396993824 -0.0010025788631425191 -0.006930937815714626 0.0011654812886252154 0.010944297899330251
 0.0011566561154772196 0.010945418901614042 -0.0010025788631425191 -0.006930937815714626 0.004699025712322122 0.02243587599155284 0.9943167119270634 -0.053918286335462445
 -0.0010027289542553488 -0.006930930575061952 0.0011654812886252154 0.010944297899330251 0.9943167119270634 -0.053918286335462445 0.004697972570600685 0.02243591342671353
0.08753647353064001 0.0050581724384979225 0.0242851534373254 0.9938409482837514 -0.05816100151364187 0.0013057050444499937 0.011789884439148664 -0.0011300054562988905 -0.007468888982356364
 0.9938409482837514 -0.05816100151364187 0.005056898468202545 0.02428521525615365 -0.0011298318553190148 -0.007468898672473291 0.0013159477736383754 0.011788554652230542
 0.0013057050444499937 0.011789884439148664 -0.0011298318553190148 -0.007468898672473291 0.00505810694610899 0.024284026451600008 0.9938409016361579 -0.058162180961949334
 -0.0011300054562988905 -0.007468888982356364 0.0013159477736383754 0.011788554652230542 0.9938409016361579 -0.058162180961949334 0.0050568857777800475 0.02428406616731103
0.09378907878283 0.005435597817256864 0.02614887802443075 0.9933410173384571 -0.062418380627147864 0.0014644205367821477 0.012634105705614565 -0.0012655454037956405 -0.00800684596387762
 0.9933410173384571 -0.062418380627147864 0.005434134947121637 0.02614894562031723 -0.001265346645284589 -0.008006858488376801 0.0014761877439636328 0.012632542551773488
 0.0014644205367821477 0.012634105705614565 -0.001265346645284589 -0.008006858488376801 0.005435523141111796 0.02614767632139404 0.9933409637624696 -0.06241964619997379
 -0.0012655454037956405 -0.00800684596387762 0.0014761877439636328 0.012632542551773488 0.9933409637624696 -0.06241964619997379 0.005434121446637209 0.026147718119374073
0.100041684035 0.005831661685899116 0.028027806625290738 0.9928166635307564 -0.06668914494652987 0.0016328793450738543 0.013477942266126045 -0.0014094278588557166 -0.008544660230547122
 0.9928166635307564 -0.06668914494652987 0.005829996700668808 0.028027880154582775 -0.0014092023076890078 -0.008544675997409573 0.001646278206920831 0.013476119675331636
 0.0016328793450738543 0.013477942266126045 -0.0014092023076890078 -0.008544675997409573 0.005831577287633985 0.028026531342889228 0.9928166024761073 -0.06669049706527591
 -0.0014094278588557166 -0.008544660230547122 0.001646278206920831 0.013476119675331636 0.9928166024761073 -0.06669049706527591 0.005829982533429353 0.028026575001907687
0.1059090909091 0.006220545087386876 0.029804548480900098 0.9923021385769509 -0.07070880197171957 0.001799887829930051 0.014269315492263684 -0.001552102002579503 -0.009049084096348966
 0.9923021385769509 -0.07070880197171957 0.00621867837537525 0.029804627717001486 -0.0015518498335560192 -0.00904910329743678 0.0018149155193407 0.014267224395740517
 0.001799887829930051 0.014269315492263684 -0.0015518498335560192 -0.00904910329743678 0.006220451092379677 0.02980320524785727 0.9923020699868618 -0.0707102357171213
 -0.001552102002579503 -0.009049084096348966 0.0018149155193407 0.014267224395740517 0.9923020699868618 -0.0707102357171213 0.006218663738317353 0.029803250431937447
0.1062942892872 0.006246664829767091 0.029921645988814888 0.992267592542591 -0.07097309669493874 0.0018111558875517492 0.01432125037934888 -0.0015617294599962967 -0.00908218807192929
 0.992267592542591 -0.07097309669493874 0.006244784464572809 0.029921725604218064 -0.0015614754937694562 -0.0090822075122156 0.0018262938238722964 0.014319140775609392
 0.0018111558875517492 0.01432125037934888 -0.0015614754937694562 -0.0090822075122156 0.006246570189025699 0.029920298333099345 0.9922675234397902 -0.07097453581400058
 -0.0015617294599962967 -0.00908218807192929 0.0018262938238722964 0.014319140775609392 0.9922675234397902 -0.07097453581400058 0.006244769802546038 0.029920343609337242
0.11254689453939999 0.006680905747023498 0.03183010268811728 0.9916935117281709 -0.07527002656267741 0.0019993221502716827 0.015163883107115712 -0.0017225243370986322 -0.009619283301529238
 0.9916935117281709 -0.07527002656267741 0.006678796682851111 0.03183018853946129 -0.001722240346417334 -0.009619306869384598 0.0020163068115321104 0.015161457390410051
 0.0019993221502716827 0.015163883107115712 -0.001722240346417334 -0.009619306869384598 0.006680800364481988 0.03182868393531065 0.9916934339888209 -0.07527155316721326
 -0.0017225243370986322 -0.009619283301529238 0.0020163068115321104 0.015161457390410051 0.9916934339888209 -0.07527155316721326 0.006678781728620781 0.031828730562901204
0.11879949979160001 0.007134680541221895 0.03375288214491989 0.9910941302875619 -0.07957971466517094 0.002197447590784822 0.016005690409944373 -0.0018918840242190223 -0.01015579722209555
 0.9910941302875619 -0.07957971466517094 0.007132329400122787 0.03375297438002743 -0.0018915684128711812 -0.01015582539475352 0.002216386844951852 0.016002917938135897
 0.002197447590784822 0.016005690409944373 -0.0018915684128711812 -0.01015582539475352 0.0071345639392699604 0.033751393643632735 0.9910940433019334 -0.079581329268519
 -0.0018918840242190223 -0.01015579722209555 0.002216386844951852 0.016002917938135897 0.9910940433019334 -0.079581329268519 0.00713231438774929 0.033751441335325746
0.1250521050438 0.007608282805454861 0.03568968787000225 0.9904691594330587 -0.08390193129169071 0.002405599042171448 0.01684651922885191 -0.002069877371614833 -0.010691578610339734
 0.9904691594330587 -0.08390193129169071 0.0076056761457052825 0.03568978663568934 -0.0020695285568737023 -0.010691611888129265 0.0024266009606769318 0.016843367799828292
 0.002405599042171448 0.01684651922885191 -0.0020695285568737023 -0.010691611888129265 0.007608154530623769 0.03568813103559626 0.9904690625696464 -0.0839036344407718
 -0.002069877371614833 -0.010691578610339734 0.0024266009606769318 0.016843367799828292 0.9904690625696464 -0.0839036344407718 0.007605661341754076 0.03568817948360534
0.131304710296 0.008102003501143606 0.03764022084094162 0.9898183125549739 -0.08823643752402978 0.0026238406174936522 0.017686213563102637 -0.0022565704568141393 -0.011226473711944926
 0.9898183125549739 -0.08823643752402978 0.008099127812548129 0.0376403262842517 -0.0022561868696786484 -0.011226512618263703 0.0026470134607088744 0.017682649397004917
 0.0026238406174936522 0.017686213563102637 -0.0022561868696786484 -0.011226512618263703 0.008101863125852897 0.037638597162014883 0.9898182051589289 -0.08823822979224669
 -0.0022565704568141393 -0.011226473711944926 0.0026470134607088744 0.017682649397004917 0.9898182051589289 -0.08823822979224669 0.008099113517902243 0.03763864603902148
0.1375573155481 0.008503701281482303 0.03934973916496558 0.9892537803337833 -0.09232842396095074 0.0028247660591572865 0.018499172450119433 -0.0024245332760828553 -0.011734920334398673
 0.9892537803337833 -0.09232842396095074 0.008500542544040302 0.03934984998645459 -0.0024241128090925967 -0.011734964930651745 0.0028501598843804657 0.018495200304666212
 0.0028247660591572865 0.018499172450119433 -0.0024241128090925967 -0.011734964930651745 0.008503549201229156 0.039348049490939875 0.9892536619078658 -0.09233030571646533
 -0.0024245332760828553 -0.011734920334398673 0.0028501598843804657 0.018495200304666212 0.9892536619078658 -0.09233030571646533 0.008500527963489513 0.03934809799261176
0.1438099208003 0.00891955955227125 0.04105010887983879 0.9886693475532414 -0.09640989365560595 0.0030337968917199146 0.01930877754423484 -0.0025992106228596512 -0.012240274397162958
 0.9886693475532414 -0.09640989365560595 0.00891610410224593 0.04105022522791548 -0.0025987516295162645 -0.012240325193396653 0.0030615097144825304 0.019304366516913588
 0.0030337968917199146 0.01930877754423484 -0.0025987516295162645 -0.012240325193396653 0.008919395525798481 0.041048354712811215 0.9886692174407138 -0.09641186546661056
 -0.0025992106228596512 -0.012240274397162958 0.0030615097144825304 0.019304366516913588 0.9886692174407138 -0.09641186546661056 0.008916089387343116 0.04104840260723915
0.1500625260525 0.009349430061489215 0.0427411835903266 0.9880651667359507 -0.10048074085095626 0.0032508594826471354 0.020114944145005826 -0.0027805305477354427 -0.012742455182450959
 0.9880651667359507 -0.10048074085095626 0.009345664171130941 0.042741305639763603 -0.0027800313881102923 -0.012742512708802226 0.0032809888275848256 0.02011006218538542
 0.0032508594826471354 0.020114944145005826 -0.0027800313881102923 -0.012742512708802226 0.009349253882453543 0.04273936648929427 0.9880650242601581 -0.10048280330757314
 -0.0027805305477354427 -0.012742455182450959 0.0032809888275848256 0.02011006218538542 0.9880650242601581 -0.10048280330757314 0.009345649493647457 0.042739413559327644
0.15631513130469998 0.009793163480921087 0.044422821304148506 0.9874413912086869 -0.10454086026005081 0.0034758793108976027 0.02091758902474117 -0.002968420199039322 -0.013241383701780986
 0.9874413912086869 -0.10454086026005081 0.009789073356879886 0.04442294925809672 -0.002967879239948051 -0.013241448508307913 0.0035085222065455598 0.020912202943859235
