! Created with skrf 1.8.0 (http://scikit-rf.org).
# GHz S RI R 50.0 
!freq ReS11 ImS11 ReS12 ImS12 ReS13 ImS13
! ReS14 ImS14
! ReS21 ImS21 ReS22 ImS22 ReS23 ImS23
! ReS24 ImS24
! ReS31 ImS31 ReS32 ImS32 ReS33 ImS33
! ReS34 ImS34
! ReS41 ImS41 ReS42 ImS42 ReS43 ImS43
! ReS44 ImS44
!
0.0 0.001658200719377 0.0 0.9983417992579 0.0 6.429734101144e-05 0.0 -6.429734087737e-05 7.874153269915744e-21
 0.9983417992579 0.0 0.001658200719317 0.0 -6.429734087644e-05 7.874153269801852e-21 6.429734100886e-05 0.0
 6.429734101144e-05 0.0 -6.429734087644e-05 7.874153269801852e-21 0.001658200727883 0.0 0.9983417992665 0.0
 -6.429734087737e-05 7.874153269915744e-21 6.429734100886e-05 0.0 0.9983417992665 0.0 0.001658200727868 0.0
0.005 0.00178447801188045 0.0013534845197580088 0.9981819780385479 -0.0034732863165772457 9.06892998556536e-05 0.0007247593225902672 -8.796513607217225e-05 -0.00045199759676292715
 0.9981819780385479 -0.0034732863165772457 0.0017844788272394407 0.0013534839605586976 -8.796646163987692e-05 -0.0004519985212882178 9.068705645445021e-05 0.0007247602380812268
 9.06892998556536e-05 0.0007247593225902672 -8.796646163987692e-05 -0.0004519985212882178 0.0017844781532182273 0.001353551649645328 0.9981819784004203 -0.0034732192476062715
 -8.796513607217225e-05 -0.00045199759676292715 9.068705645445021e-05 0.0007247602380812268 0.9981819784004203 -0.0034732192476062715 0.0017844794007171006 0.0013535509599026999
0.006252605252188 0.0018177041521464834 0.0016971776330589824 0.9981396438851534 -0.004342441357548194 9.828390329793112e-05 0.0009062859511734928 -9.469891546551299e-05 -0.0005655784788008299
 0.9981396438851534 -0.004342441357548194 0.0018177054272759785 0.0016971768979869815 -9.470097888921391e-05 -0.0005655796165378968 9.828039888622726e-05 0.0009062871309656718
 9.828390329793112e-05 0.0009062859511734928 -9.470097888921391e-05 -0.0005655796165378968 0.0018177043090085068 0.0016972615262110947 0.9981396443863514 -0.0043423575287419285
 -9.469891546551299e-05 -0.0005655784788008299 9.828039888622726e-05 0.0009062871309656718 0.9981396443863514 -0.0043423575287419285 0.0018177062585718157 0.0016972606431789436
0.01250521050438 0.001993238961582267 0.003429847096854006 0.9979144374987443 -0.008685578037700621 0.00014212540648480903 0.001812834902259898 -0.00013318163422234384 -0.0011338415708147596
 0.9979144374987443 -0.008685578037700621 0.0019932440632416254 0.0034298452563463716 -0.000133189774957668 -0.0011338436472725514 0.00014211145309731923 0.0018128376523926125
 0.00014212540648480903 0.001812834902259898 -0.000133189774957668 -0.0011338436472725514 0.001993239038531596 0.003430014493420783 0.9979144389455656 -0.008685410622600623
 -0.00013318163422234384 -0.0011338415708147596 0.00014211145309731923 0.0018128376523926125 0.9979144389455656 -0.008685410622600623 0.001993246814833999 0.003430012511868649
0.01875781575657 0.0021852112266328196 0.005187062465930576 0.9976658840397866 -0.013039956769616681 0.00019592692910826433 0.0027202539135140476 -0.00017986912011562104 -0.0017039316928132444
 0.9976658840397866 -0.013039956769616681 0.0021852227108613716 0.005187059118646508 -0.00017988728651521685 -0.0017039344644179553 0.00019589563591536482 0.0027202587161243457
 0.00019592692910826433 0.0027202539135140476 -0.00017988728651521685 -0.0017039344644179553 0.0021852109901739167 0.00518731309367971 0.9976658868732171 -0.013039705822142138
 -0.00017986912011562104 -0.0017039316928132444 0.00019589563591536482 0.0027202587161243457 0.9976658868732171 -0.013039705822142138 0.0021852284476584333 0.005187309769464061
0.02501042100875 0.002394013644232042 0.0069663300906503845 0.9973936751618258 -0.01740765881455678 0.00025979477387118966 0.00362856598060011 -0.00023488038840755032 -0.002275568014445894
 0.9973936751618258 -0.01740765881455678 0.0023940340729624015 0.006966324803682037 -0.0002349124853574265 -0.002275571189344611 0.0002597392808631481 0.003628573402927613
 0.00025979477387118966 0.00362856598060011 -0.0002349124853574265 -0.002275571189344611 0.002394012864661435 0.0069666636631629 0.9973936798237868 -0.01740732433070109
 -0.00023488038840755032 -0.002275568014445894 0.0002597392808631481 0.003628573402927613 0.9973936798237868 -0.01740732433070109 0.0023940438403650365 0.0069666587245487905
0.03126302626094 0.0026200226396810287 0.008766351803841808 0.997097487663113 -0.021789556735609724 0.00033383539684538635 0.004537708126894921 -0.0002983307008357127 -0.0028485483963249262
 0.997097487663113 -0.021789556735609724 0.0026200545807981476 0.008766344112205973 -0.0002983805970113668 -0.0028485516338534133 0.0003337488692476651 0.00453771882045735
 0.00033383539684538635 0.004537708126894921 -0.0002983805970113668 -0.0028485516338534133 0.0026200210947310274 0.008766767984001278 0.9970974946028582 -0.021789138689428847
 -0.0002983307008357127 -0.0028485483963249262 0.0003337488692476651 0.00453771882045735 0.9970974946028582 -0.021789138689428847 0.0026200694099043375 0.008766761131678468
0.037515631513130004 0.0028636062118929497 0.010586269870539195 0.996776991634715 -0.02618606938751288 0.00041815434899663786 0.005447583155697184 -0.0003703324107391647 -0.0034226976567053925
 0.996776991634715 -0.02618606938751288 0.002863652239678695 0.010586259276731446 -0.0003704039422146984 -0.003422700567183752 0.0004180299761562218 0.0054475978560845
 0.00041815434899663786 0.005447583155697184 -0.0003704039422146984 -0.003422700567183752 0.0028636036791658145 0.01058676829346793 0.9967770013032745 -0.026185567707823303
 -0.0003703324107391647 -0.0034226976567053925 0.0004180299761562218 0.0054475978560845 0.9967770013032745 -0.026185567707823303 0.0028636731404741637 0.010586759200302552
0.043768236765320004 0.0031251269426956327 0.012425437255135424 0.9964318537722323 -0.030597391578944012 0.0005128557706599974 0.006358075394954429 -0.00045099525386097276 -0.003997851845237609
 0.9964318537722323 -0.030597391578944012 0.003125189636732996 0.012425423228780087 -0.00045109222611960936 -0.003997853989839258 0.0005126867666752713 0.006358094921691123
 0.0005128557706599974 0.006358075394954429 -0.00045109222611960936 -0.003997853989839258 0.003125123202894832 0.012426017505711451 0.9964318666281324 -0.03059680617143085
 -0.00045099525386097276 -0.003997851845237609 0.0005126867666752713 0.006358094921691123 0.9964318666281324 -0.03059680617143085 0.00312521760229642 0.01242600581664966
0.050020842017509996 0.0034049433972935996 0.01428332264093251 0.9960617390841584 -0.03502358898144571 0.0006180420774432173 0.0072690572084846625 -0.0005404264454875962 -0.0045738517533122575
 0.9960617390841584 -0.03502358898144571 0.003405025342723899 0.014283304618369307 -0.0005405526346130372 -0.004573852643973298 0.0006178216828646993 0.007269082464975827
 0.0006180420774432173 0.0072690572084846625 -0.0005405526346130372 -0.004573852643973298 0.00340493822951524 0.014283984257288277 0.9960617555908389 -0.03502291972486406
 -0.0005404264454875962 -0.0045738517533122575 0.0006178216828646993 0.007269082464975827 0.9960617555908389 -0.03502291972486406 0.0034050613453598558 0.01428396958911921
0.055454545454549996 0.003663246720113081 0.01591272246988929 0.9957195532746624 -0.03888215752638506 0.000718045252087413 0.008061019848805535 -0.000625347212886081 -0.005074977521007614
 0.9957195532746624 -0.03888215752638506 0.0036633474987387343 0.015912700490608 -0.0006255018367210593 -0.005074976887299956 0.0007177747303069845 0.008061050883348039
 0.000718045252087413 0.008061019848805535 -0.0006255018367210593 -0.005074976887299956 0.0036632401311215163 0.015913454384997864 0.9957195733364176 -0.03888141528203963
 -0.000625347212886081 -0.005074977521007614 0.0007177747303069845 0.008061050883348039 0.9957195733364176 -0.03888141528203963 0.003663391260025465 0.015913436794588218
0.056273447269699996 0.003703410822336003 0.016159463844996846 0.9956663119007473 -0.03946464464580114 0.0007338137339238359 0.008180392191822731 -0.0006387306876496098 -0.00515053974456867
 0.9956663119007473 -0.03946464464580114 0.0037035146090934673 0.01615944122890211 -0.0006388898410627107 -0.005150538843922824 0.0007335352180627712 0.008180424165215867
 0.0007338137339238359 0.008180392191822731 -0.0006388898410627107 -0.005150538843922824 0.0037034040047738384 0.01616020631808581 0.995666332529697 -0.03946389139217717
 -0.0006387306876496098 -0.00515053974456867 0.0007335352180627712 0.008180424165215867 0.995666332529697 -0.03946389139217717 0.0037035596014531064 0.01616018825915513
0.06252605252188 0.00402088151377862 0.018053442191806223 0.9952452365584756 -0.04392048456407536 0.0008602690685765803 0.009091936941692233 -0.000746010133017454 -0.005727758017341492
 0.9952452365584756 -0.04392048456407536 0.004021009736140513 0.018053414350846887 -0.0007462059698844058 -0.0057277547386467495 0.0008599257322224236 0.009091976702715901
 0.0008602690685765803 0.009091936941692233 -0.0007462059698844058 -0.0057277547386467495 0.004020872821135562 0.01805426496359866 0.9952452617886982 -0.043919647140256354
 -0.000746010133017454 -0.005727758017341492 0.0008599257322224236 0.009091976702715901 0.9952452617886982 -0.043919647140256354 0.004021064649237806 0.018054243073676268
0.06877865777407 0.0043577049953942735 0.01996486724323799 0.9947981778991576 -0.0483909928813604 0.0009975041129736554 0.010003542116083178 -0.0008623643225542588 -0.006305347582607224
 0.9947981778991576 -0.0483909928813604 0.004357860251591948 0.019964833511644384 -0.0008626005339703697 -0.0063053412897026324 0.0009970892914642872 0.010003590818809263
 0.0009975041129736554 0.010003542116083178 -0.0008626005339703697 -0.0063053412897026324 0.004357694199155275 0.019965769703602664 0.9947982082198336 -0.04839007109199265
 -0.0008623643225542588 -0.006305347582607224 0.0009970892914642872 0.010003590818809263 0.9947982082198336 -0.04839007109199265 0.004357925995602488 0.019965743513615002
0.07503126302626001 0.004714228089429519 0.02189336712041417 0.9943248016658507 -0.05287602152213624 0.001145612454766006 0.010915053114474771 -0.0009878901076569213 -0.006883147628260117
 0.9943248016658507 -0.05287602152213624 0.004714412981068151 0.021893326797632593 -0.0009881703566905118 -0.0068831376355215565 0.0011451195212048917 0.010915111996022993
 0.001145612454766006 0.010915053114474771 -0.0009881703566905118 -0.0068831376355215565 0.004714214954598989 0.021894348614432887 0.9943248375752817 -0.05287501514226878
 -0.0009878901076569213 -0.006883147628260117 0.0011451195212048917 0.010915111996022993 0.9943248375752817 -0.05287501514226878 0.004714490442508927 0.02189431762617003
0.08128386827845 0.005090794916205949 0.02383858207578117 0.9938247748323976 -0.057375396573454286 0.001304685099330245 0.01182631054281616 -0.0011226815619605377 -0.0074609951054805486
 0.9938247748323976 -0.057375396573454286 0.005091012047699415 0.02383853442610917 -0.0011230094835590226 -0.007460980677793174 0.001304107468105231 0.011826380922958634
 0.001304685099330245 0.01182631054281616 -0.0011230094835590226 -0.007460980677793174 0.00509077920190082 0.023839641894691264 0.9938248168410804 -0.05737430535753987
 -0.0011226815619605377 -0.0074609951054805486 0.001304107468105231 0.011826380922958634 0.9938248168410804 -0.05737430535753987 0.005091102090599416 0.023839605580570793
0.08753647353064001 0.005487746849637865 0.025800160037438548 0.993297765892476 -0.061888922703736235 0.0014748103373770601 0.012737150544960513 -0.0012668298858805392 -0.008038724455583672
 0.993297765892476 -0.061888922703736235 0.005487998827646454 0.02580010428963891 -0.0012672090866814429 -0.008038704808322184 0.0014741414677936363 0.012737233825653452
 0.0014748103373770601 0.012737150544960513 -0.0012672090866814429 -0.008038704808322184 0.005487728305957603 0.025801297423890084 0.9932978145220561 -0.0618877463803807
 -0.0012668298858805392 -0.008038724455583672 0.0014741414677936363 0.012737233825653452 0.9932978145220561 -0.0618877463803807 0.0054881022910154694 0.025801255226632184
0.09378907878283 0.005905422439219265 0.027777753442450714 0.9927434451194077 -0.06641638630021277 0.001656073615838456 0.01364740504934795 -0.001420423306708757 -0.008616167428909222
 0.9927434451194077 -0.06641638630021277 0.0059057118718046295 0.027777688789432736 -0.0014208573648089632 -0.008616141727918957 0.001655307015777245 0.013647502714155565
 0.001656073615838456 0.01364740504934795 -0.0014208573648089632 -0.008616141727918957 0.005905400807000385 0.027778967589229625 0.9927435009052229 -0.06641512457354258
 -0.001420423306708757 -0.008616167428909222 0.001655307015777245 0.013647502714155565 0.9927435009052229 -0.06641512457354258 0.0059058295697170405 0.027778918921678192
0.100041684035 0.006344157309580126 0.029771016922062507 0.9921614848079453 -0.07095755776323638 0.0018485574120393634 0.014556901964074965 -0.0015835469743386095 -0.009193152962738586
 0.9921614848079453 -0.07095755776323638 0.00634448680605554 0.02977094252035579 -0.0015840394390169651 -0.009193120324334737 0.0018476866419544582 0.014557015577517454
 0.0018485574120393634 0.014556901964074965 -0.0015840394390169651 -0.009193120324334737 0.006344132318696698 0.029772306969481282 0.9921615482993424 -0.07095621031560767
 -0.0015835469743386095 -0.009193152962738586 0.0018476866419544582 0.014557015577517454 0.9921615482993424 -0.07095621031560767 0.0063446195261368556 0.02977225121424099
0.1059090909091 0.006775312940069983 0.031655427790813644 0.991589948981733 -0.0752312156464812 0.002039458731712035 0.015409522646248168 -0.0017453619473750796 -0.009734021736130664
 0.991589948981733 -0.0752312156464812 0.006775682405525141 0.03165534344129597 -0.0017459124224290447 -0.009733981739896437 0.002038484402662903 0.015409652720179225
 0.002039458731712035 0.015409522646248168 -0.0017459124224290447 -0.009733981739896437 0.006775284540550254 0.03165678823749764 0.9915900202170453 -0.07522978744764004
 -0.0017453619473750796 -0.009734021736130664 0.002038484402662903 0.015409652720179225 0.9915900202170453 -0.07522978744764004 0.00677582991465074 0.03165672524242754
0.1062942892872 0.0068042840438974905 0.03177960555251939 0.9915515595025209 -0.075512193243041 0.002052341109232195 0.015465465333762016 -0.0017562828551906631 -0.009769507104955551
 0.9915515595025209 -0.075512193243041 0.006804656213696167 0.031779520522083736 -0.0017568372464816647 -0.00976946659594905 0.002051359786071185 0.015465596540568708
 0.002052341109232195 0.015465465333762016 -0.0017568372464816647 -0.00976946659594905 0.00680425541160319 0.031780970591949446 0.9915516312638671 -0.07551075973183698
 -0.0017562828551906631 -0.009769507104955551 0.002051359786071185 0.015465596540568708 0.9915516312638671 -0.07551075973183698 0.006804804716540846 0.03178090710101128
0.11254689453939999 0.007286132052729148 0.03380317354109165 0.9909133462151886 -0.08008003595071891 0.002267500874105634 0.01637291547551761 -0.0019387096234285207 -0.010345052966393934
 0.9909133462151886 -0.08008003595071891 0.007286549505164614 0.033803076964800366 -0.0019393294317918233 -0.010345003604093942 0.0022664026754097145 0.016373065999739315
 0.002267500874105634 0.01637291547551761 -0.0019393294317918233 -0.010345003604093942 0.007286099482442856 0.033804612615304534 0.9909134268271204 -0.08007851600816376
 -0.0019387096234285207 -0.010345052966393934 0.0022664026754097145 0.016373065999739315 0.9909134268271204 -0.08007851600816376 0.00728671452323942 0.03380454070981996
0.11879949979160001 0.007790027434556686 0.03584137319847929 0.9902465246373924 -0.08466081719149522 0.0024941095353486096 0.017279069094197737 -0.002130902551149057 -0.010919610701702458
 0.9902465246373924 -0.08466081719149522 0.0077904927778581524 0.035841264121826547 -0.0021315912369892663 -0.010919551453987009 0.0024928882034214767 0.017279240738246014
 0.0024941095353486096 0.017279069094197737 -0.0021315912369892663 -0.010919551453987009 0.0077899906144572205 0.03584288529702722 0.9902466146976333 -0.0846592104296629
 -0.002130902551149057 -0.010919610701702458 0.0024928882034214767 0.017279240738246014 0.9902466146976333 -0.0846592104296629 0.0077906750144222416 0.03584280426697289
0.1250521050438 0.008316292827211306 0.03789385413328806 0.989550777346724 -0.08925425718557375 0.00273223646321898 0.018183739391894976 -0.0023329333975118586 -0.011492997503999316
 0.989550777346724 -0.08925425718557375 0.008316808667736982 0.037893731563997134 -0.0023336943907526614 -0.011492927289307751 0.002730885809307362 0.018183934035491633
 0.00273223646321898 0.018183739391894976 -0.0023336943907526614 -0.011492927289307751 0.008316251428435822 0.03789543819821206 0.9895508774712153 -0.08925256319113771
 -0.0023329333975118586 -0.011492997503999316 0.002730885809307362 0.018183934035491633 0.9895508774712153 -0.08925256319113771 0.008317008795900912 0.037895347302009864
0.131304710296 0.008865247253214137 0.0399602626226894 0.9888257900090811 -0.0938600657221885 0.0029819474500526978 0.01908673616641014 -0.0025448702972743387 -0.012065027618674555
 0.9888257900090811 -0.0938600657221885 0.008865816194899245 0.03996012553031108 -0.002545706996821653 -0.012064945306133506 0.0029804613587399538 0.019086955765341626
 0.0029819474500526978 0.01908673616641014 -0.002545706996821653 -0.012064945306133506 0.008865200928667022 0.039961917544779846 0.9888259008329447 -0.0938582840606677
 -0.0025448702972743387 -0.012065027618674555 0.0029804613587399538 0.019086955765341626 0.9888259008329447 -0.0938582840606677 0.008866034856664264 0.03996181600892669
0.1375573155481 0.009315274676230178 0.04177058026440443 0.9881932384894858 -0.09820813721975707 0.0032129498474322035 0.01996122949537548 -0.002736426812663525 -0.01260889381674177
 0.9881932384894858 -0.09820813721975707 0.009315898090704303 0.041770430982438315 -0.002737344009302485 -0.012608799237288817 0.003211323417994524 0.01996147380748132
 0.0032129498474322035 0.01996122949537548 -0.002737344009302485 -0.012608799237288817 0.009315222120668565 0.041772305663488496 0.9881933605156619 -0.09820626762673927
 -0.002736426812663525 -0.01260889381674177 0.003211323417994524 0.01996147380748132 0.9881933605156619 -0.09820626762673927 0.009316137117524168 0.041772194880938786
0.1438099208003 0.009781250922512546 0.043570617962024105 0.9875382075156128 -0.10254443817162023 0.0034532619151197144 0.020831738890520625 -0.002935620737031631 -0.013149108205231432
 0.9875382075156128 -0.10254443817162023 0.009781931182495745 0.043570455734874246 -0.0029366220362281787 -0.013149000247212689 0.0034514893560167416 0.02083200972636088
 0.0034532619151197144 0.020831738890520625 -0.0029366220362281787 -0.013149000247212689 0.009781191589351416 0.043572412747332284 0.987538341380052 -0.10254248022086217
 -0.002935620737031631 -0.013149108205231432 0.0034514893560167416 0.02083200972636088 0.987538341380052 -0.10254248022086217 0.009782191386979508 0.043572292093694454
0.1500625260525 0.010263000877189328 0.045360203362995434 0.9868608768988306 -0.10686883844066311 0.003702793498967335 0.021698160895319955 -0.003142364350210213 -0.013685573490163458
 0.9868608768988306 -0.10686883844066311 0.01026374033759317 0.045360027404795285 -0.003143453344597337 -0.013685450997684886 0.0037008691033384162 0.021698460121993172
 0.003702793498967335 0.021698160895319955 -0.003143453344597337 -0.013685450997684886 0.010262934190826491 0.045362066404979515 0.9868610232536841 -0.10686679168908367
 -0.003142364350210213 -0.013685573490163458 0.0037008691033384162 0.021698460121993172 0.9868610232536841 -0.10686679168908367 0.010264022516216026 0.04536193522639314
0.15631513130469998 0.010760348047087738 0.04713916927226751 0.9861614275181378 -0.11118120883815655 0.003961453293407728 0.022560393967188726 -0.0033565687748565646 -0.014218194566249717
 0.9861614275181378 -0.11118120883815655 0.010761149044605015 0.04713897876713183 -0.003357749043981281 -0.014218056339484007 0.0039593714415967875 0.022560723506346952
