! Created with skrf 1.8.0 (http://scikit-rf.org).
# GHz S RI R 50.0 
!freq ReS11 ImS11 ReS12 ImS12 ReS13 ImS13
! ReS14 ImS14
! ReS21 ImS21 ReS22 ImS22 ReS23 ImS23
! ReS24 ImS24
! ReS31 ImS31 ReS32 ImS32 ReS33 ImS33
! ReS34 ImS34
! ReS41 ImS41 ReS42 ImS42 ReS43 ImS43
! ReS44 ImS44
!
0.0 0.001481246999708 0.0 0.998518752969 0.0 5.699603169412e-05 0.0 -5.699603124914e-05 6.980000723336182e-21
 0.998518752969 0.0 0.001481246999695 0.0 -5.699603124912e-05 6.980000723333732e-21 5.699603169239e-05 0.0
 5.699603169412e-05 0.0 -5.699603124912e-05 6.980000723333732e-21 0.001481247001144 0.0 0.9985187529705 0.0
 -5.699603124914e-05 6.980000723336182e-21 5.699603169239e-05 0.0 0.9985187529705 0.0 0.001481247001132 0.0
0.005 0.0015935227397391736 0.0012125317445633192 0.998376751502912 -0.0031030207251458745 7.960027355323292e-05 0.0006241236799365803 -7.739675410191998e-05 -0.0003924512632674696
 0.998376751502912 -0.0031030207251458745 0.0015935177285164358 0.001212534606951537 -7.739626096567315e-05 -0.0003924508303303986 7.964563390314277e-05 0.0006241065954110212
 7.960027355323292e-05 0.0006241236799365803 -7.739626096567315e-05 -0.0003924508303303986 0.0015935236251250874 0.0012125984557731502 0.9983767518570562 -0.0031029536591470975
 -7.739675410191998e-05 -0.0003924512632674696 7.964563390314277e-05 0.0006241065954110212 0.9983767518570562 -0.0031029536591470975 0.0015935175515955978 0.0012126020297498815
0.006252605252188 0.001622918514512033 0.0015204388058467789 0.9983393498631526 -0.0038795426580537787 8.601347373659741e-05 0.0007804630805568589 -8.313045378175139e-05 -0.0004910735723293739
 0.9983393498631526 -0.0038795426580537787 0.0016229106811425824 0.001520442395369647 -8.312968684308026e-05 -0.0004910730373333665 8.608434750839696e-05 0.000780440871360659
 8.601347373659741e-05 0.0007804630805568589 -8.312968684308026e-05 -0.0004910730373333665 0.001622919818401733 0.0015205221783642746 0.9983393503361779 -0.0038794588371229757
 -8.313045378175139e-05 -0.0004910735723293739 8.608434750839696e-05 0.000780440871360659 0.9983393503361779 -0.0038794588371229757 0.0016229103236272198 0.001520526668697803
0.01250521050438 0.0017773686152959007 0.0030727808077750446 0.9981415944421673 -0.00775993762490837 0.00012255643633937244 0.001561326821031897 -0.0001155221430157324 -0.0009845571391422796
 0.9981415944421673 -0.00775993762490837 0.0017773373418091085 0.003072788085740802 -0.00011551912573926259 -0.000984556136047369 0.00012283913687421158 0.0015612732388414904
 0.00012255643633937244 0.001561326821031897 -0.00011551912573926259 -0.000984556136047369 0.0017773732764059754 0.0030729472442008222 0.9981415957782581 -0.00775977024139461
 -0.0001155221430157324 -0.0009845571391422796 0.00012283913687421158 0.0015612732388414904 0.9981415957782581 -0.00775977024139461 0.0017773353548127717 0.0030729564484795555
0.01875781575657 0.0019449242131632906 0.004647285810441335 0.9979252481591836 -0.011650639284832032 0.0001667090044005453 0.0023431179562097525 -0.0001542685326554978 -0.0014797525734487503
 0.9979252481591836 -0.011650639284832032 0.0019448539529362033 0.004647296860016109 -0.00015426181114818564 -0.0014797511798176084 0.00016734423130443496 0.00234302213413365
 0.0001667090044005453 0.0023431179562097525 -0.00015426181114818564 -0.0014797511798176084 0.001944934282693071 0.004647535144474385 0.9979252507424966 -0.011650388449483937
 -0.0001542685326554978 -0.0014797525734487503 0.00016734423130443496 0.00234302213413365 0.9979252507424966 -0.011650388449483937 0.0019448490559513287 0.00464754930460998
0.02501042100875 0.002125903124532827 0.006241762638876143 0.9976900633026339 -0.015553543557279953 0.00021855608289157678 0.003125876485317925 -0.00019946413231305865 -0.0019764433447042075
 0.9976900633026339 -0.015553543557279953 0.002125778368103138 0.006241777518918347 -0.00019945227236421977 -0.001976441650357803 0.0002196846933947597 0.003125725905017018
 0.00021855608289157678 0.003125876485317925 -0.00019945227236421977 -0.001976441650357803 0.0021259206545138636 0.006242094735293169 0.9976900675122806 -0.015553209344753086
 -0.00019946413231305865 -0.0019764433447042075 0.0002196846933947597 0.003125725905017018 0.9976900675122806 -0.015553209344753086 0.0021257692713896052 0.006242114102128603
0.03126302626094 0.0023206100082971055 0.007855088883210301 0.9974357791473628 -0.019469468116455075 0.0002781829880667529 0.003909571178166311 -0.00025120093979714644 -0.0024744790580890144
 0.9974357791473628 -0.019469468116455075 0.0023204152721406144 0.007855107625650021 -0.0002511825234436235 -0.0024744771652780145 0.00027994612553948993 0.003909351657526804
 0.0002781829880667529 0.003909571178166311 -0.0002511825234436235 -0.0024744771652780145 0.0023206370591048672 0.007855503604284086 0.997435785364454 -0.01946905059868432
 -0.00025120093979714644 -0.0024744790580890144 0.00027994612553948993 0.003909351657526804 0.997435785364454 -0.01946905059868432 0.0023204006839822647 0.007855528435121936
0.037515631513130004 0.0025293430294743994 0.009486536620594677 0.9971621288136262 -0.02339882660852047 0.00034567469183869134 0.0046941427460024335 -0.0003095690980551766 -0.0029737322866585174
 0.9971621288136262 -0.02339882660852047 0.0025290628487001474 0.009486559228468524 -0.0003095427218897101 -0.0029737303100664165 0.00034821384495978063 0.004693838420321549
 0.00034567469183869134 0.0046941427460024335 -0.0003095427218897101 -0.0029737303100664165 0.0025293816653118007 0.009487033833085723 0.9971621374163038 -0.02339832584738933
 -0.0003095690980551766 -0.0029737322866585174 0.00034821384495978063 0.004693838420321549 0.9971621374163038 -0.02339832584738933 0.002529041469962517 0.009487064390307632
0.043768236765320004 0.002752396427407167 0.011135567267320389 0.9968688420300192 -0.027341833730285293 0.00042111546302926056 0.005479516964961075 -0.0003746571351190497 -0.003474085446574001
 0.9968688420300192 -0.027341833730285293 0.002752015348555179 0.011135593713438264 -0.0003746214092063137 -0.0034740835132969832 0.00042457249447397935 0.005479110266142588
 0.00042111546302926056 0.005479516964961075 -0.0003746214092063137 -0.0034740835132969832 0.002752448719622193 0.011136146828757151 0.9968688533964234 -0.027341249790882784
 -0.0003746571351190497 -0.003474085446574001 0.00042457249447397935 0.005479110266142588 0.9968688533964234 -0.027341249790882784 0.002751985876164419 0.01113618337897631
0.050020842017509996 0.002990061716340064 0.012801746755828838 0.996555646531477 -0.03129858998119831 0.0005045886542529465 0.006265610092965541 -0.0004465520491116654 -0.0039754253793230065
 0.996555646531477 -0.03129858998119831 0.0029895642915906064 0.012801776981532504 -0.00044650559623763054 -0.003975423628832901 0.0005091058144423442 0.006265081727796209
 0.0005045886542529465 0.006265610092965541 -0.00044650559623763054 -0.003975423628832901 0.002990129741563031 0.01280240852135278 0.9965556610376651 -0.0312979229247101
 -0.0004465520491116654 -0.0039754253793230065 0.0005091058144423442 0.006265081727796209 0.9965556610376651 -0.0312979229247101 0.0029895254168762256 0.012802451334669864
0.055454545454549996 0.0032086915128057432 0.014263344796631978 0.9962670894949618 -0.03474832001555107 0.0005837166267562007 0.006949262467149431 -0.0005146253591446116 -0.004411819818255967
 0.9962670894949618 -0.03474832001555107 0.0032080804341215784 0.014263378234048808 -0.0005145684752507261 -0.004411818349458788 0.0005892708995188194 0.006948611345331948
 0.0005837166267562007 0.006949262467149431 -0.0005145684752507261 -0.004411818349458788 0.0032087749014376933 0.014264077873601603 0.9962671070338828 -0.03474758078101319
 -0.0005146253591446116 -0.004411819818255967 0.0005892708995188194 0.006948611345331948 0.9962671070338828 -0.03474758078101319 0.003208032321930648 0.014264126351442365
0.056273447269699996 0.003242628304624362 0.014484703926368697 0.9962222688791246 -0.035269123201361746 0.0005961765467447411 0.007052331537837211 -0.000525339331262258 -0.004477640684631461
 0.9962222688791246 -0.035269123201361746 0.0032419990856096845 0.01448473784049362 -0.000525280786444205 -0.00447763926873126 0.0006018964773318053 0.007051660465860778
 0.0005961765467447411 0.007052331537837211 -0.000525280786444205 -0.00447763926873126 0.003242714145468498 0.014485447739511877 0.9962222868996535 -0.03526837309385873
 -0.000525339331262258 -0.004477640684631461 0.0006018964773318053 0.007051660465860778 0.9962222868996535 -0.03526837309385873 0.0032419494951600614 0.014485497089029718
0.06252605252188 0.003510383826869499 0.016184107635111467 0.9958684349956616 -0.03925341139511924 0.0006959602288041335 0.007839585310341984 -0.0006111029513943911 -0.004980620271137884
 0.9958684349956616 -0.03925341139511924 0.0035096073590630806 0.016184145113138367 -0.0006110309614732356 -0.00498061935391177 0.0007030259604774232 0.007838748721554056
 0.0006959602288041335 0.007839585310341984 -0.0006110309614732356 -0.00498061935391177 0.0035104895720303817 0.01618493333529173 0.9958684569038406 -0.039252578299698936
 -0.0006111029513943911 -0.004980620271137884 0.0007030259604774232 0.007838748721554056 0.9958684569038406 -0.039252578299698936 0.0035095457352923177 0.016184989496824776
0.06877865777407 0.0037936143246302626 0.01789965311754086 0.9954938705538268 -0.043251396302458035 0.0008040194895205809 0.008627270901788758 -0.000703925325988455 -0.005484252485674747
 0.9954938705538268 -0.043251396302458035 0.003792675141917731 0.017899694000831964 -0.0007038385494264004 -0.005484252243442137 0.0008125744349334461 0.008626244194257103
 0.0008040194895205809 0.008627270901788758 -0.0007038385494264004 -0.005484252243442137 0.0037937420689901882 0.017900560529548602 0.9954938967212427 -0.04325048028929089
 -0.000703925325988455 -0.005484252485674747 0.0008125744349334461 0.008626244194257103 0.9954938967212427 -0.04325048028929089 0.0037926001627401713 0.01790062378144876
0.07503126302626001 0.004092604332914379 0.019631053335110178 0.9950983012731378 -0.04726299199024053 0.0009204327236354852 0.00941528383849928 -0.0008038872728538752 -0.005988424569088674
 0.9950983012731378 -0.04726299199024053 0.004091486951563043 0.019631097430387445 -0.0008037843794119472 -0.0059884251903535735 0.000930620667122229 0.009414040596002501
 0.0009204327236354852 0.00941528383849928 -0.0008037843794119472 -0.0059884251903535735 0.004092756177522072 0.01963204227608457 0.9950983320699973 -0.04726199312927086
 -0.0008038872728538752 -0.005988424569088674 0.000930620667122229 0.009414040596002501 0.9950983320699973 -0.04726199312927086 0.004091397291616028 0.019632112899231398
0.08128386827845 0.004407636910173506 0.021378033218825133 0.9946814531639958 -0.05128809055054405 0.0010452768416976406 0.010203516053186121 -0.00091106795838765 -0.006493022298813141
 0.9946814531639958 -0.05128809055054405 0.004406325823286591 0.021378080297786067 -0.0009109476289937533 -0.006493023984218773 0.001057241926695554 0.010202028022939158
 0.0010452768416976406 0.010203516053186121 -0.0009109476289937533 -0.006493023984218773 0.004407814962207832 0.021379103493848476 0.9946814889586308 -0.05128700891538312
 -0.00091106795838765 -0.006493022298813141 0.001057241926695554 0.010202028022939158 0.9946814889586308 -0.05128700891538312 0.004406220153859145 0.021379181771820393
0.08753647353064001 0.0047389936307840495 0.02314032568551441 0.9942430527373749 -0.05532656603033398 0.0011786271844696106 0.010991856147454713 -0.0010255448394046957 -0.006997929744161276
 0.9942430527373749 -0.05532656603033398 0.004737473302588914 0.02314037548458651 -0.0010254057660203247 -0.0069979327064384695 0.0011925138983602305 0.01099009321789138
 0.0011786271844696106 0.010991856147454713 -0.0010254057660203247 -0.0069979327064384695 0.004739200003086104 0.023141477089233375 0.994243093895992 -0.05532540169632476
 -0.0010255448394046957 -0.006997929744161276 0.0011925138983602305 0.01099009321789138 0.994243093895992 -0.05532540169632476 0.004737350291631382 0.023141563308582802
0.09378907878283 0.005086954549003276 0.024917668803421455 0.9937828271892019 -0.05937827721617106 0.0013205574397644776 0.011780189580844615 -0.0011473936005363921 -0.007503029099017607
 0.9937828271892019 -0.05937827721617106 0.005085209409244392 0.024917721023614586 -0.0011472344860489767 -0.0075030335629355654 0.0013365105974755035 0.011778119759637197
 0.0013205574397644776 0.011780189580844615 -0.0011472344860489767 -0.0075030335629355654 0.00508719136106006 0.024918901116879503 0.9937828740768917 -0.05937703026308351
 -0.0011473936005363921 -0.007503029099017607 0.0013365105974755035 0.011778119759637197 0.9937828740768917 -0.05937703026308351 0.005085067722626894 0.024918995567617758
0.100041684035 0.005451798146944261 0.026709803695706285 0.9933005045721736 -0.06344306968564181 0.001471139560887642 0.01256839881574293 -0.0012766880891600314 -0.008008200562789834
 0.9933005045721736 -0.06344306968564181 0.005449812584840578 0.02670985800275674 -0.0012765076472739938 -0.008008206765109363 0.0014893042866066478 0.012565988207895729
 0.001471139560887642 0.01256839881574293 -0.0012765076472739938 -0.008008206765109363 0.005452067523954995 0.026711116688143743 0.9933005575516751 -0.06344174019542373
 -0.0012766880891600314 -0.008008200562789834 0.0014893042866066478 0.012565988207895729 0.9933005575516751 -0.06344174019542373 0.00544965088611017 0.0267112196643544
0.1059090909091 0.005809766408759166 0.028404755879817754 0.9928275575542018 -0.06726919575578498 0.0016203761897776719 0.01330782939329126 -0.0014048531715021243 -0.00848220744351435
 0.9928275575542018 -0.06726919575578498 0.005807540996777737 0.02840481180997919 -0.0014046515558487269 -0.008482215503106984 0.0016407484848237972 0.01330506645237036
 0.0016203761897776719 0.01330782939329126 -0.0014046515558487269 -0.008482215503106984 0.005810068282700714 0.028406144358776406 0.9928276165784231 -0.06726778889111126
 -0.0014048531715021243 -0.00848220744351435 0.0016407484848237972 0.01330506645237036 0.9928276165784231 -0.06726778889111126 0.005807359301581188 0.028406255607054315
0.1062942892872 0.005833801265556932 0.0285164729788686 0.9927958139532475 -0.06752077732857721 0.0016304436863989063 0.013356363430944804 -0.001413500247467231 -0.00851332225690336
 0.9927958139532475 -0.06752077732857721 0.0058315596239933995 0.0285165290035166 -0.0014132972026665459 -0.008513330446323443 0.001650965394194739 0.013353576217222472
 0.0016304436863989063 0.013356363430944804 -0.0014132972026665459 -0.008513330446323443 0.005834105338778689 0.028517866406307157 0.9927958733854364 -0.0675193653863648
 -0.001413500247467231 -0.00851332225690336 0.001650965394194739 0.013353576217222472 0.9927958733854364 -0.0675193653863648 0.00583137657485765 0.028517978206976134
0.11254689453939999 0.006233239027085399 0.03033741956301171 0.9922684855659113 -0.07161122351146049 0.001798538060319274 0.014143960213008785 -0.0015579000432444394 -0.009018270167933664
 0.9922684855659113 -0.07161122351146049 0.006230725596557405 0.03033747690138335 -0.0015576731306860372 -0.009018280605048716 0.00182156243355093 0.014140758628440503
 0.001798538060319274 0.014143960213008785 -0.0015576731306860372 -0.009018280605048716 0.006233579933494848 0.030338893169297085 0.9922685518095421 -0.07160972920412538
 -0.0015579000432444394 -0.009018270167933664 0.00182156243355093 0.014140758628440503 0.9922685518095421 -0.07160972920412538 0.006230519857567555 0.030339014099238625
0.11879949979160001 0.006650384747845413 0.03217238572247004 0.9917182509552337 -0.07571422197657371 0.0019754889530245365 0.014931063235157254 -0.0017099553989993821 -0.009522918107470362
 0.9917182509552337 -0.07571422197657371 0.006647583760411172 0.03217244393674377 -0.0017097033644972958 -0.009522931064715209 0.0020011619226169433 0.014927407547922097
 0.0019754889530245365 0.014931063235157254 -0.0017097033644972958 -0.009522931064715209 0.0066507646301395525 0.03217393923388837 0.9917183243669233 -0.07571264539765432
 -0.0017099553989993821 -0.009522918107470362 0.0020011619226169433 0.014927407547922097 0.9917183243669233 -0.07571264539765432 0.006647353991142054 0.03217406960488951
0.1250521050438 0.007085509844548297 0.034021112352249604 0.9911448431196631 -0.07982957756065097 0.0021613605825849206 0.015717543924264634 -0.0018697321198132852 -0.010027137688581187
 0.9911448431196631 -0.07982957756065097 0.007082405467886945 0.034021170971423036 -0.001869453719807748 -0.010027153450181812 0.0021898283043847 0.01571339241478846
 0.0021613605825849206 0.015717543924264634 -0.001869453719807748 -0.010027153450181812 0.007085930851115076 0.03402274548442468 0.9911449240536602 -0.07982791880294103
 -0.0018697321198132852 -0.010027137688581187 0.0021898283043847 0.01571339241478846 0.9911449240536602 -0.07982791880294103 0.00708215032732415 0.03402288561665198
0.131304710296 0.007538883735528599 0.03588333838621816 0.990547996649837 -0.0839570867572702 0.002356215036128134 0.016503271121694363 -0.0020372938205868276 -0.010530798312970758
 0.990547996649837 -0.0839570867572702 0.007535460066548472 0.03588339690713107 -0.002036987822092921 -0.010530817174901431 0.0023876238675159425 0.01649858006199865
 0.002356215036128134 0.016503271121694363 -0.002036987822092921 -0.010530817174901431 0.00753934802031822 0.035885050838394654 0.9905480854581706 -0.08395534591812506
 -0.0020372938205868276 -0.010530798312970758 0.0023876238675159425 0.01649858006199865 0.9905480854581706 -0.08395534591812506 0.007535178213850609 0.03588520106180078
0.1375573155481 0.007905391803075094 0.03751613029444472 0.9900328700414647 -0.08785376361354816 0.0025349009302596485 0.017263702659720683 -0.002187455030279655 -0.011009401128390241
 0.9900328700414647 -0.08785376361354816 0.007901630330726281 0.03751618753534946 -0.002187119451949906 -0.011009423097057226 0.002569317574215642 0.01725847978018492
 0.0025349009302596485 0.017263702659720683 -0.002187119451949906 -0.011009423097057226 0.007905900697798195 0.037517922115745145 0.9900329670754929 -0.08785194080366682
 -0.002187455030279655 -0.011009401128390241 0.002569317574215642 0.01725847978018492 0.9900329670754929 -0.08785194080366682 0.00790132125427466 0.03751808142442142
0.1438099208003 0.008284756877758634 0.03914057991030626 0.9894997122982948 -0.0917408224586044 0.002720800247880296 0.018021243506473068 -0.002343628622033635 -0.011485318211344518
 0.9894997122982948 -0.0917408224586044 0.008280641170877633 0.039140635475259186 -0.0023432621115529397 -0.011485343580415143 0.0027583569522940383 0.018015448984773166
 0.002720800247880296 0.018021243506473068 -0.0023432621115529397 -0.011485343580415143 0.008285312397092803 0.039142450842882544 0.9894998179056639 -0.09173891778224888
 -0.002343628622033635 -0.011485318211344518 0.0027583569522940383 0.018015448984773166 0.9894998179056639 -0.09173891778224888 0.008280303680826318 0.03914261962652794
0.1500625260525 0.008676849266001884 0.0407565589249678 0.9889486570078 -0.09561817441673262 0.0029138510965875876 0.01877582277200973 -0.002505753808193799 -0.011958480938706747
 0.9889486570078 -0.09561817441673262 0.00867236280491261 0.0407566124303223 -0.002505355014496809 -0.011958510013794676 0.002954679378540708 0.018769415332912043
 0.0029138510965875876 0.01877582277200973 -0.002505355014496809 -0.011958510013794676 0.008677453420843629 0.04075850869980166 0.988948771533591 -0.09561618798438096
 -0.002505753808193799 -0.011958480938706747 0.002954679378540708 0.018769415332912043 0.988948771533591 -0.09561618798438096 0.008671995721151496 0.0407586873901577
0.15631513130469998 0.00908153840016426 0.04236394292545562 0.9883798383855718 -0.09948573077074035 0.0031139908831364018 0.01952737073654363 -0.0026737690779721456 -0.012428822103916635
 0.9883798383855718 -0.09948573077074035 0.009076664573715778 0.042363994002825756 -0.0026733366511019173 -0.012428855202612714 0.003158221519650203 0.01952030766583352
