! Created with skrf 1.8.0 (http://scikit-rf.org).
# GHz S RI R 50.0 
!freq ReS11 ImS11 ReS12 ImS12 ReS13 ImS13
! ReS14 ImS14
! ReS21 ImS21 ReS22 ImS22 ReS23 ImS23
! ReS24 ImS24
! ReS31 ImS31 ReS32 ImS32 ReS33 ImS33
! ReS34 ImS34
! ReS41 ImS41 ReS42 ImS42 ReS43 ImS43
! ReS44 ImS44
!
0.0 0.001161631571171 0.0 0.9988383684288 0.0 4.392235643545e-05 0.0 -4.392235662488e-05 5.3789373451667836e-21
 0.9988383684288 0.0 0.001161631571149 0.0 -4.392235662469e-05 5.378937345143515e-21 4.392235643667e-05 0.0
 4.392235643545e-05 0.0 -4.392235662469e-05 5.378937345143515e-21 0.001161631563802 0.0 0.9988383684215 0.0
 -4.392235662488e-05 5.3789373451667836e-21 4.392235643667e-05 0.0 0.9988383684215 0.0 0.00116163156379 0.0
0.005 0.0012489134792048374 0.0009553165875972178 0.9987280923056966 -0.0024341938676768755 6.036488450429648e-05 0.00045710897559726456 -5.8887051652369624e-05 -0.0002917427360906328
 0.9987280923056966 -0.0024341938676768755 0.0012489160913758794 0.0009553150381453732 -5.888700895293651e-05 -0.0002917426579308253 6.03631187773946e-05 0.00045710984562532695
 6.036488450429648e-05 0.00045710897559726456 -5.888700895293651e-05 -0.0002917426579308253 0.0012489140655547511 0.0009553834458319532 0.9987280926251164 -0.0024341268172239413
 -5.8887051652369624e-05 -0.0002917427360906328 6.03631187773946e-05 0.00045710984562532695 0.9987280926251164 -0.0024341268172239413 0.0012489161441039255 0.0009553822822959307
0.006252605252188 0.0012715561348673168 0.001197918197396595 0.9986993465094176 -0.00304337404703234 6.492106293187312e-05 0.0005716355990260775 -6.299767758412129e-05 -0.0003650631184683434
 0.9986993465094176 -0.00304337404703234 0.0012715602180042478 0.0011979161735595047 -6.299761150337399e-05 -0.0003650630211274964 6.491830643990183e-05 0.0005716366944177254
 6.492106293187312e-05 0.0005716355990260775 -6.299761150337399e-05 -0.0003650630211274964 0.0012715569864764913 0.0011980017716312018 0.9986993469432383 -0.0030432902285207676
 -6.299767758412129e-05 -0.0003650631184683434 6.491830643990183e-05 0.0005716366944177254 0.9986993469432383 -0.0030432902285207676 0.0012715602347485046 0.0011980002393373044
0.01250521050438 0.0013893035377443368 0.0024211349500367608 0.9985490778103249 -0.006087731155436893 9.03034664961951e-05 0.001143781939869664 -8.570624322972779e-05 -0.0007320190269295648
 0.9985490778103249 -0.006087731155436893 0.0013893198443669307 0.002421130015504529 -8.570598720793211e-05 -0.0007320188357129076 9.02925469942309e-05 0.0011437842364198374
 9.03034664961951e-05 0.001143781939869664 -8.570598720793211e-05 -0.0007320188357129076 0.001389306379493156 0.002421301810018174 0.998549078977703 -0.006087563768186174
 -8.570624322972779e-05 -0.0007320190269295648 9.02925469942309e-05 0.0011437842364198374 0.998549078977703 -0.006087563768186174 0.001389319340587791 0.0024212979547938557
0.01875781575657 0.0015150781021988763 0.0036620546559006676 0.9983874134555494 -0.009140526486221535 0.00012012079746093298 0.001716821720754809 -0.00011210628180464959 -0.00110040551005604
 0.9983874134555494 -0.009140526486221535 0.001515114753598482 0.003662045858366206 -0.00011210571702815804 -0.0011004052276743905 0.00012009643774498178 0.001716825379963235
 0.00012012079746093298 0.001716821720754809 -0.00011210571702815804 -0.0011004052276743905 0.0015150840753949777 0.003662304661707639 0.99838741565395 -0.009140275632751396
 -0.00011210628180464959 -0.00110040551005604 0.00012009643774498178 0.001716825379963235 0.99838741565395 -0.009140275632751396 0.0015151131854851025 0.0036622976432190897
0.02501042100875 0.001649080721264553 0.00491900183594534 0.9982142002488787 -0.012203290488559877 0.00015442483179836883 0.0022908027778599563 -0.00014225498191119818 -0.0014700928346040782
 0.9982142002488787 -0.012203290488559877 0.001649145827355957 0.004918988156483917 -0.0001422539930355131 -0.0014700924632448996 0.00015438185096981633 0.0022908080037102128
 0.00015442483179836883 0.0022908027778599563 -0.0001422539930355131 -0.0014700924632448996 0.001649090976348335 0.0049193348686429605 0.9982142037787675 -0.012202956251722743
 -0.00014225498191119818 -0.0014700928346040782 0.00015438185096981633 0.0022908080037102128 0.9982142037787675 -0.012202956251722743 0.0016491426496916324 0.004919323795519927
0.03126302626094 0.0017915035661710216 0.006191140373365836 0.9980292754678352 -0.015276709633002143 0.00019326792474839603 0.002865724421027117 -0.0001762083976667783 -0.0018409974047157074
 0.9980292754678352 -0.015276709633002143 0.001791605227941371 0.006191120725492161 -0.00017620687227611545 -0.0018409969460629208 0.00019320122724371744 0.0028657314574685165
 0.00019326792474839603 0.002865724421027117 -0.00017620687227611545 -0.0018409969460629208 0.0017915192561848486 0.006191556340053484 0.9980292806262747 -0.015276292070879017
 -0.0001762083976667783 -0.0018409974047157074 0.00019320122724371744 0.0028657314574685165 0.9980292806262747 -0.015276292070879017 0.0017915998869359293 0.006191540268982406
0.037515631513130004 0.001942534815815028 0.007477944924107043 0.9978324716676259 -0.018361154959410198 0.00023670256772834186 0.003441567165220465 -0.0002140218402987334 -0.0022130520197449267
 0.9978324716676259 -0.018361154959410198 0.0019426811262067193 0.007477918152866063 -0.00021401966860439144 -0.002213051474949922 0.0002366071375119488 0.003441576294908269
 0.00023670256772834186 0.003441567165220465 -0.00021401966860439144 -0.002213051474949922 0.0019425570994390728 0.007478443734326481 0.9978324787503459 -0.01836065412865393
 -0.0002140218402987334 -0.0022130520197449267 0.0002366071375119488 0.003441576294908269 0.9978324787503459 -0.01836065412865393 0.0019426730625232943 0.007478421669467281
0.043768236765320004 0.0021023604889763782 0.008779040025467571 0.9976236185868624 -0.021456842921819336 0.00028478118942988477 0.004018301773139915 -0.00025575002639137255 -0.002586196819900102
 0.9976236185868624 -0.021456842921819336 0.0021025595331531444 0.008779004906622973 -0.0002557471009785063 -0.0025861961895527552 0.00028465208668051036 0.0040183133165272505
 0.00028478118942988477 0.004018301773139915 -0.0002557471009785063 -0.0025861961895527552 0.0021023905299628665 0.00877962158950881 0.9976236278885984 -0.021456258879254158
 -0.00025575002639137255 -0.002586196819900102 0.00028465208668051036 0.0040183133165272505 0.9976236278885984 -0.021456258879254158 0.0021025481816237574 0.008779592481894792
0.050020842017509996 0.002271165309115372 0.01009413361295503 0.9974025440889265 -0.024563901823286566 0.0003375560410078735 0.0045958929873940665 -0.0003014471419633351 -0.0029603755422554314
 0.9974025440889265 -0.024563901823286566 0.002271425164471875 0.010094088852214949 -0.00030144335768268304 -0.002960374826347029 0.00033738839977293014 0.004595907302007755
 0.0003375560410078735 0.0045958929873940665 -0.00030144335768268304 -0.002960374826347029 0.002271204278697159 0.010094797846698221 0.9974025559047821 -0.024563234620768093
 -0.0003014471419633351 -0.0029603755422554314 0.00033738839977293014 0.004595907302007755 0.9974025559047821 -0.024563234620768093 0.0022714099563271727 0.010094760593821944
0.055454545454549996 0.0024252968079783196 0.011248169967731557 0.9972003636602267 -0.0272733222596225 0.00038727328980388476 0.005098502364830139 -0.00034442427968354485 -0.0032863455114147525
 0.9972003636602267 -0.0272733222596225 0.002425616063735225 0.011248115721808989 -0.00034441966527226615 -0.0032863447206637466 0.0003870682621332598 0.005098519406356975
 0.00038727328980388476 0.005098502364830139 -0.00034441966527226615 -0.0032863447206637466 0.0024253444911113303 0.011248905972770657 0.9972003778985272 -0.02727258283396743
 -0.00034442427968354485 -0.0032863455114147525 0.0003870682621332598 0.005098519406356975 0.9972003778985272 -0.02727258283396743 0.0024255970369706776 0.011248860704047091
0.056273447269699996 0.0024491331599578187 0.011422984402681031 0.9971690746940346 -0.027682404384664044 0.0003950791193679781 0.005174301351740459 -0.0003511668676375891 -0.0033355336881180854
 0.9971690746940346 -0.027682404384664044 0.0024494618959304652 0.011422928634972313 -0.00035116212146290654 -0.0033355328860198005 0.000394868146304845 0.005174318831501211
 0.0003950791193679781 0.005174301351740459 -0.00035116212146290654 -0.0033355328860198005 0.0024491822335535244 0.011423731219174952 0.997169089316537 -0.02768165407740714
 -0.0003511668676375891 -0.0033355336881180854 0.000394868146304845 0.005174318831501211 0.997169089316537 -0.02768165407740714 0.0024494422557654744 0.011423684664458571
0.06252605252188 0.00263644734342909 0.012765383934938944 0.9969230359161496 -0.03081238565231778 0.0004574021092095295 0.005753484213442178 -0.0004049623847055053 -0.0037116175099369377
 0.9969230359161496 -0.03081238565231778 0.0026368530212919922 0.012765315723644963 -0.0004049565756563936 -0.0037116166203556207 0.0004571430823375528 0.00575350528803657
 0.0004574021092095295 0.005753484213442178 -0.0004049565756563936 -0.0037116166203556207 0.0026365077029629645 0.012766213248100105 0.9969230536373487 -0.030811552294927012
 -0.0004049623847055053 -0.0037116175099369377 0.0004571430823375528 0.00575350528803657 0.9969230536373487 -0.030811552294927012 0.0026368283693407792 0.012766156180476607
0.06877865777407 0.0028332907330559146 0.01412114588688827 0.9966642524966389 -0.033953853637129196 0.0005245763341185907 0.006333396322170669 -0.00046288637089292263 -0.0040885734024483185
 0.9966642524966389 -0.033953853637129196 0.0028337814055109873 0.014121063723188389 -0.0004628793999516875 -0.00408857242339666 0.0005242646024379389 0.006333421456472733
 0.0005245763341185907 0.006333396322170669 -0.0004628793999516875 -0.00408857242339666 0.002833363566309775 0.014122057608294214 0.9966642736075229 -0.03395293728664258
 -0.00046288637089292263 -0.0040885734024483185 0.0005242646024379389 0.006333421456472733 0.9966642736075229 -0.03395293728664258 0.0028337511570810893 0.01412198876183451
0.07503126302626001 0.0030398458611419475 0.015490099292004251 0.9963925485735876 -0.037106796047525405 0.0005966527162638798 0.006913990196491224 -0.0005249909874175702 -0.004466347527197628
 0.9963925485735876 -0.037106796047525405 0.0030404295716805196 0.015490001594161975 -0.0005249827574486292 -0.004466346455963369 0.0005962836987819589 0.006914019889963063
 0.0005966527162638798 0.006913990196491224 -0.0005249827574486292 -0.004466346455963369 0.0030399323620955237 0.015491093332998073 0.9963925733638467 -0.037105796761114564
 -0.0005249909874175702 -0.004466347527197628 0.0005962836987819589 0.006914019889963063 0.9963925733638467 -0.037105796761114564 0.0030403931377877475 0.01549101138646889
0.08128386827845 0.0032562949706575997 0.01687208402159934 0.9961077478166258 -0.04027118476125899 0.0006736817369232136 0.00749521637993122 -0.0005913278635003999 -0.00484488554845969
 0.9961077478166258 -0.04027118476125899 0.003256979753090538 0.016871969134265766 -0.0005913182791444984 -0.004844884381568958 0.0006732509229131472 0.007495251166027603
 0.0006736817369232136 0.00749521637993122 -0.0005913182791444984 -0.004844884381568958 0.003256396339143075 0.01687316029071719 0.9961077765750614 -0.0402701025985841
 -0.0005913278635003999 -0.00484488554845969 0.0006732509229131472 0.007495251166027603 0.9961077765750614 -0.0402701025985841 0.003256936540524102 0.016873063867150304
0.08753647353064001 0.0034828200392482685 0.018266947664127994 0.995809673536769 -0.043446978900427466 0.0007557134018070977 0.008077023605331675 -0.000661948076277989 -0.005224132461911317
 0.995809673536769 -0.043446978900427466 0.003483613917116293 0.018266813857679576 -0.0006619370439455073 -0.005224131195102185 0.0007552163501316139 0.00807706405092938
 0.0007557134018070977 0.008077023605331675 -0.0006619370439455073 -0.005224131195102185 0.0034829374811577198 0.018268106066153155 0.995809706550832 -0.04344581392437558
 -0.000661948076277989 -0.005224132461911317 0.0007552163501316139 0.00807706405092938 0.995809706550832 -0.04344581392437558 0.003483563328367382 0.01826799373252022
0.09378907878283 0.0037196027861597556 0.019674543290244685 0.9954981487797802 -0.04663412702178117 0.0008427972062200638 0.008659358919512233 -0.0007369021292852936 -0.005604032464161655
 0.9954981487797802 -0.04663412702178117 0.0037205137721288343 0.019674388760115676 -0.0007368895570685544 -0.005604031092345484 0.0008422295455437635 0.0086594056243016
 0.0008427972062200638 0.008659358919512233 -0.0007368895570685544 -0.005604031092345484 0.0037197375135243674 0.01967578372872915 0.9954981863353571 -0.046632879295743467
 -0.0007369021292852936 -0.005604032464161655 0.0008422295455437635 0.0086594056243016 0.9954981863353571 -0.046632879295743467 0.00372045520585503 0.019675653995516074
0.100041684035 0.0039668246670425174 0.021094727817043517 0.99517299640893 -0.049832568709166525 0.0009349821021122774 0.00924216777003608 -0.0008162399287932729 -0.005984528861279782
 0.99517299640893 -0.049832568709166525 0.003967860762117996 0.021094550683077962 -0.0008162257264027773 -0.005984527378517539 0.0009343395308268558 0.009242221365958243
 0.0009349821021122774 0.00924216777003608 -0.0008162257264027773 -0.005984527378517539 0.003966977898112575 0.02109605019184468 0.9951730387912275 -0.049831238299242714
 -0.0008162399287932729 -0.005984528861279782 0.0009343395308268558 0.009242221365958243 0.9951730387912275 -0.049831238299242714 0.003967793613528818 0.021095901512737235
0.1059090909091 0.0042084718537613065 0.022438744668587925 0.9948553233462872 -0.05284417772330369 0.0010261703362179069 0.009789452797963751 -0.000894720918030685 -0.0063420754433879305
 0.9948553233462872 -0.05284417772330369 0.004209632616387438 0.0224385445454508 -0.0008947051051696702 -0.006342073850323988 0.001025453619062607 0.009789513463391922
 0.0010261703362179069 0.009789452797963751 -0.0008947051051696702 -0.006342073850323988 0.004208643561876733 0.022440143837329323 0.994855370515555 -0.052842769785964604
 -0.000894720918030685 -0.0063420754433879305 0.001025453619062607 0.009789513463391922 0.994855370515555 -0.052842769785964604 0.0042095568609462775 0.022439975922192264
0.1062942892872 0.004224666859314204 0.022527360769349258 0.994834039181056 -0.05304223577002224 0.0010323164654682713 0.009825394071492095 -0.0009000107589345643 -0.0063655639990952756
 0.994834039181056 -0.05304223577002224 0.004225836052152159 0.022527159075179014 -0.0008999948376309991 -0.006365562398562913 0.001031594751619601 0.009825455222099034
 0.0010323164654682713 0.009825394071492095 -0.0008999948376309991 -0.006365562398562913 0.004224839818364064 0.022528764975727564 0.99483408667342 -0.05304082274578829
 -0.0009000107589345643 -0.0063655639990952756 0.001031594751619601 0.009825455222099034 0.99483408667342 -0.05304082274578829 0.004225759713039426 0.022528595747187637
0.11254689453939999 0.0044933102404155776 0.02397230333643841 0.9944810998155215 -0.05626305313792133 0.0011348480639262262 0.010408980256491007 -0.0009882632557042294 -0.006747079209959063
 0.9944810998155215 -0.05626305313792133 0.004494620506707804 0.023972075048806482 -0.0009882455282899758 -0.006747077483914907 0.001134043045427183 0.010409049656374972
 0.0011348480639262262 0.010408980256491007 -0.0009882455282899758 -0.006747077483914907 0.004493504157780437 0.023973789267063648 0.9944811527000215 -0.05626155757009125
 -0.0009882632557042294 -0.006747079209959063 0.001134043045427183 0.010409049656374972 0.9944811527000215 -0.05626155757009125 0.004494534365367968 0.023973597828067635
0.11879949979160001 0.004772935360745922 0.025429417630640046 0.994114001060589 -0.05949493957457809 0.0012426240249650013 0.01099286731539981 -0.0010810453799450692 -0.007129014772131607
 0.994114001060589 -0.05949493957457809 0.0047743946623273635 0.025429160638820007 -0.0010810257606637703 -0.007129012911894806 0.0012417316096901602 0.01099294568953471
 0.0012426240249650013 0.01099286731539981 -0.0010810257606637703 -0.007129012911894806 0.004773151472850399 0.025430985173889212 0.9941140596178 -0.05949336153663204
 -0.0010810453799450692 -0.007129014772131607 0.0012417316096901602 0.01099294568953471 0.9941140596178 -0.05949336153663204 0.004774298104183452 0.02543076980548756
0.1250521050438 0.005063722412630507 0.026898566103302754 0.9937325657567416 -0.06273780821599502 0.0013556908038287372 0.01157699482830575 -0.0011784043897469843 -0.007511309878213136
 0.9937325657567416 -0.06273780821599502 0.005065338696524007 0.02689827821848514 -0.0011783827942300799 -0.007511307874129125 0.0013547069698247212 0.011577082931454576
 0.0013556908038287372 0.01157699482830575 -0.0011783827942300799 -0.007511307874129125 0.005063961962067796 0.026900215142193422 0.9937326302656603 -0.06273614778483733
 -0.0011784043897469843 -0.007511309878213136 0.0013547069698247212 0.011577082931454576 0.9937326302656603 -0.06273614778483733 0.005065231104416445 0.02689997406727126
0.131304710296 0.005365851195062301 0.028379611069548488 0.9933366168976335 -0.06599156701130114 0.0014740941517459446 0.01216130099152606 -0.0012803868119657367 -0.007893902610461235
 0.9933366168976335 -0.06599156701130114 0.005367632393096932 0.028379290024188413 -0.0012803631572331554 -0.00789390045187386 0.001473014947391366 0.012161399607577504
 0.0014740941517459446 0.01216130099152606 -0.0012803631572331554 -0.00789390045187386 0.005366115430463148 0.028381341484592905 0.9933366876357189 -0.06598982426433787
 -0.0012803868119657367 -0.007893902610461235 0.001473014947391366 0.012161399607577504 0.9933366876357189 -0.06598982426433787 0.005367513146969734 0.02838107286748257
0.1375573155481 0.005601979700270344 0.02967972526425205 0.9930035174654145 -0.06906338446368968 0.001580669325879026 0.012726015668202648 -0.0013698272525598965 -0.008257028618089062
 0.9930035174654145 -0.06906338446368968 0.005603933096902986 0.02967937749609498 -0.001369801277855326 -0.00825702629455254 0.0015794852905168172 0.012726124618974391
 0.001580669325879026 0.012726015668202648 -0.001369801277855326 -0.00825702629455254 0.005602269183929469 0.02968153722213259 0.9930035947121835 -0.06906155948330558
 -0.0013698272525598965 -0.008257028618089062 0.0015794852905168172 0.012726124618974391 0.9930035947121835 -0.06906155948330558 0.005603802263741994 0.02968124737591838
0.1438099208003 0.005846119065823582 0.030974323460354405 0.9926592442523458 -0.07212874474822872 0.0016915329009189453 0.013289159147887919 -0.0014628442636486813 -0.00861870456365952
 0.9926592442523458 -0.07212874474822872 0.005848252440432753 0.03097394741850397 -0.0014628158559296214 -0.008618702066585408 0.0016902391908517902 0.01328927922742898
 0.0016915329009189453 0.013289159147887919 -0.0014628158559296214 -0.008618702066585408 0.005846434931337802 0.030976216876606892 0.9926593282829463 -0.07212683761809147
 -0.0014628442636486813 -0.00861870456365952 0.0016902391908517902 0.01328927922742898 0.9926593282829463 -0.07212683761809147 0.005848109521873095 0.030975904635194233
0.1500625260525 0.006098198913546169 0.03226333672435842 0.9923038702281909 -0.07518761140248989 0.0018066549270034703 0.013850698157856655 -0.0015594086225545827 -0.008978897903117723
 0.9923038702281909 -0.07518761140248989 0.0061005200215166365 0.03226293079416426 -0.0015593776679722737 -0.008978895223637264 0.0018052467008837121 0.0138508301961607
 0.0018066549270034703 0.013850698157856655 -0.0015593776679722737 -0.008978895223637264 0.006098542292523804 0.03226531151268381 0.9923039613159104 -0.07518562220931743
 -0.0015594086225545827 -0.008978897903117723 0.0018052467008837121 0.0138508301961607 0.9923039613159104 -0.07518562220931743 0.006100364525097105 0.0322649756600716
0.15631513130469998 0.006358148544869304 0.033546698454529886 0.9919374685343277 -0.07823994737693238 0.0019260052033820325 0.014410599859929846 -0.0016594908425007439 -0.009337576689645095
