! Created with skrf 1.8.0 (http://scikit-rf.org).
# GHz S RI R 50.0 
!freq ReS11 ImS11 ReS12 ImS12 ReS13 ImS13
! ReS14 ImS14
! ReS21 ImS21 ReS22 ImS22 ReS23 ImS23
! ReS24 ImS24
! ReS31 ImS31 ReS32 ImS32 ReS33 ImS33
! ReS34 ImS34
! ReS41 ImS41 ReS42 ImS42 ReS43 ImS43
! ReS44 ImS44
!
0.0 0.001438660261155 0.0 0.9985613397303 0.0 5.547145583381e-05 0.0 -5.547145645378e-05 6.793294159016347e-21
 0.9985613397303 0.0 0.001438660261194 0.0 -5.547145645567e-05 6.793294159247804e-21 5.547145583215e-05 0.0
 5.547145583381e-05 0.0 -5.547145645567e-05 6.793294159247804e-21 0.0014386602612 0.0 0.9985613397303 0.0
 -5.547145645378e-05 6.793294159016347e-21 5.547145583215e-05 0.0 0.9985613397303 0.0 0.001438660261143 0.0
0.005 0.0015476336753165196 0.0011743031536543243 0.9984235199431079 -0.0030140801723802253 7.794546437957127e-05 0.0006286403986781191 -7.566514000771227e-05 -0.0003915868798462812
 0.9984235199431079 -0.0030140801723802253 0.001547628422927992 0.0011743062550803875 -7.566351520586359e-05 -0.00039158571972239595 7.799403876926576e-05 0.0006286221432932621
 7.794546437957127e-05 0.0006286403986781191 -7.566351520586359e-05 -0.00039158571972239595 0.0015476337267085357 0.0011742359224979388 0.9984235195985625 -0.0030141472320945315
 -7.566514000771227e-05 -0.0003915868798462812 7.799403876926576e-05 0.0006286221432932621 0.9984235195985625 -0.0030141472320945315 0.001547627688254256 0.001174239372384756
0.006252605252188 0.0015761319388828351 0.0014725233521330496 0.9983872648792909 -0.0037683517984646235 8.430728692585592e-05 0.0007861031496337124 -8.13294473749685e-05 -0.0004899988323065123
 0.9983872648792909 -0.0037683517984646235 0.0015761237275683604 0.0014725272416092955 -8.132691833085954e-05 -0.0004899974035305844 8.438318307877445e-05 0.000786079415594759
 8.430728692585592e-05 0.0007861031496337124 -8.132691833085954e-05 -0.0004899974035305844 0.0015761320868290696 0.001472439322513942 0.9983872644085938 -0.003768435623488531
 -8.13294473749685e-05 -0.0004899988323065123 8.438318307877445e-05 0.000786079415594759 0.9983872644085938 -0.003768435623488531 0.001576122647641786 0.0014724436335556963
0.01250521050438 0.0017256746165192948 0.0029761223242629965 0.9981958310850517 -0.007537606768742254 0.00012048050127462883 0.0015725540774021096 -0.00011326871338501121 -0.0009824439529262723
 0.9981958310850517 -0.007537606768742254 0.0017256418170271586 0.0029761302124078444 -0.00011325873764891753 -0.0009824413295834943 0.00012078325173201438 0.001572496809521017
 0.00012048050127462883 0.0015725540774021096 -0.00011325873764891753 -0.0009824413295834943 0.0017256757550954945 0.002975954624441803 0.9981958297595258 -0.007537774173269563
 -0.00011326871338501121 -0.0009824439529262723 0.00012078325173201438 0.001572496809521017 0.9981958297595258 -0.007537774173269563 0.0017256380697595974 0.0029759632180151596
0.01875781575657 0.001887598032485239 0.004501337364586497 0.997986812324839 -0.011316959546373 0.00016407268579298595 0.0023599115207856695 -0.0001513843354356719 -0.0014766136455179385
 0.997986812324839 -0.011316959546373 0.0018875243097346665 0.00450134934325929 -0.0001513620763824262 -0.0014766101072636244 0.0001647530031434151 0.0023598091466140326
 0.00016407268579298595 0.0023599115207856695 -0.0001513620763824262 -0.0014766101072636244 0.001887600998433681 0.0045010862168604554 0.9979868097642781 -0.011317210463532039
 -0.0001513843354356719 -0.0014766136455179385 0.0001647530031434151 0.0023598091466140326 0.9979868097642781 -0.011317210463532039 0.001887516330862731 0.004501099054445899
0.02501042100875 0.0020622037084388092 0.0060460456601162 0.9977599741478314 -0.015108259306372749 0.00021516633330095485 0.0031482257455823642 -0.0001957685381400921 -0.001972289784792827
 0.9977599741478314 -0.015108259306372749 0.0020620727455968805 0.006046061794603383 -0.00019572921243974893 -0.0019722856613963937 0.00021637512209643736 0.0031480649737311494
 0.00021516633330095485 0.0031482257455823642 -0.00019572921243974893 -0.0019722856613963937 0.002062209332359105 0.006045711287187999 0.997759969972853 -0.015108593711640177
 -0.0001957685381400921 -0.001972289784792827 0.00021637512209643736 0.0031480649737311494 0.997759969972853 -0.015108593711640177 0.0020620589889377055 0.006045728308940451
0.03126302626094 0.002249780637975268 0.007609163277275433 0.9975150695585778 -0.01891230758658291 0.00027384445352607377 0.003937472805242544 -0.0002465110954616723 -0.0024693236216143722
 0.9975150695585778 -0.01891230758658291 0.0022495761254368485 0.007609183603662264 -0.00024644996383517734 -0.002469319293628424 0.00027573294721468895 0.003937238612338675
 0.00027384445352607377 0.003937472805242544 -0.00024644996383517734 -0.002469319293628424 0.00224978974009166 0.007608745912954586 0.9975150633841452 -0.018912725487510922
 -0.0002465110954616723 -0.0024693236216143722 0.00027573294721468895 0.003937238612338675 0.9975150633841452 -0.018912725487510922 0.0022495550569339787 0.007608767034640376
0.037515631513130004 0.0024506116718450923 0.009189989917205404 0.9972518455793414 -0.022729513473757863 0.00034018980858005444 0.004727599664881857 -0.0003037000072878243 -0.0029675906597863722
 0.9972518455793414 -0.022729513473757863 0.002450317299588339 0.00919001444058564 -0.0003036123699046566 -0.0029675865588171457 0.00034290963232549103 0.00472727527573435
 0.00034018980858005444 0.004727599664881857 -0.0003036123699046566 -0.0029675865588171457 0.0024506250681257257 0.009189489819080257 0.9972518370190329 -0.022730014897592157
 -0.0003037000072878243 -0.0029675906597863722 0.00034290963232549103 0.00472727527573435 0.9972518370190329 -0.022730014897592157 0.0024502874017756793 0.009189514930163577
0.043768236765320004 0.0026649759985385916 0.01078800950699202 0.9969700459065876 -0.026560092946159953 0.00041428455673589264 0.005518537919356226 -0.00036742174673900103 -0.0034669769345081368
 0.9969700459065876 -0.026560092946159953 0.002664575448999374 0.010788038200090142 -0.00036730294043373025 -0.0034669735433739187 0.00041798775839736594 0.005518104784992635
 0.00041428455673589264 0.005518537919356226 -0.00036730294043373025 -0.0034669735433739187 0.002664994500262527 0.01078742695875237 0.9969700345713686 -0.02656067793785726
 -0.00036742174673900103 -0.0034669769345081368 0.00041798775839736594 0.005518104784992635 0.9969700345713686 -0.02656067793785726 0.002664535220299723 0.010787455920862716
0.050020842017509996 0.0028931502968769472 0.01240280779237468 0.9966694122429411 -0.03040415121281042 0.0004962100405207479 0.006310209450239215 -0.00043776135423349144 -0.003967373352128688
 0.9966694122429411 -0.03040415121281042 0.0028926272390056933 0.012402840594434108 -0.00043760675080629317 -0.003967371204964911 0.0005010491051671975 0.00630964722507903
 0.0004962100405207479 0.006310209450239215 -0.00043760675080629317 -0.003967371204964911 0.0028931747114785303 0.012402143094906136 0.9966693977401547 -0.030404819844154215
 -0.00043776135423349144 -0.003967373352128688 0.0005010491051671975 0.00630964722507903 0.9966693977401547 -0.030404819844154215 0.002892575193819823 0.012402175740660782
0.055454545454549996 0.003102869501438442 0.013819467622085186 0.9963926554457009 -0.033755729120556556 0.0005738277339899719 0.006998725604471313 -0.0005043281136655754 -0.004402970227568623
 0.9963926554457009 -0.033755729120556556 0.003102226702393623 0.01381950391892368 -0.0005041386691465856 -0.004402969635167461 0.0005797780770698277 0.006998033259569123
 0.0005738277339899719 0.006998725604471313 -0.0005041386691465856 -0.004402969635167461 0.003102899707987683 0.013818731804292427 0.9963926378680905 -0.033756470504428884
 -0.0005043281136655754 -0.004402970227568623 0.0005797780770698277 0.006998033259569123 0.9963926378680905 -0.033756470504428884 0.003102163194385303 0.013818767492099857
0.056273447269699996 0.0031354093329692325 0.01403403188438524 0.996349685075224 -0.03426172309928344 0.0005860466366033472 0.007102529215872666 -0.000514802465433674 -0.004468672898552909
 0.996349685075224 -0.03426172309928344 0.003134747416224412 0.014034068700265868 -0.0005146074705848423 -0.004468672580910352 0.000592174490339799 0.007101815734469715
 0.0005860466366033472 0.007102529215872666 -0.0005146074705848423 -0.004468672580910352 0.0031354404647957208 0.014033285371117863 0.9963496670078514 -0.034262475453732524
 -0.000514802465433674 -0.004468672898552909 0.000592174490339799 0.007101815734469715 0.9963496670078514 -0.034262475453732524 0.0031346820849689826 0.01403332150320976
0.06252605252188 0.0033920262851365314 0.015681368018075532 0.9960106041839836 -0.038132795223270906 0.0006838736380728877 0.007895406770001239 -0.0005986273028852455 -0.0049707691214988655
 0.9960106041839836 -0.038132795223270906 0.003391209133882706 0.01568140871741533 -0.0005983873554269004 -0.0049707712704146175 0.0006914436460665888 0.007894518023590414
 0.0006838736380728877 0.007895406770001239 -0.0005983873554269004 -0.0049707712704146175 0.0033920649362460717 0.015680540047378278 0.9960105821506209 -0.03813363140386058
 -0.0005986273028852455 -0.0049707691214988655 0.0006914436460665888 0.007894518023590414 0.9960105821506209 -0.03813363140386058 0.0033911290637695583 0.015680579437668905
0.06877865777407 0.0036632729208801013 0.0173445283021492 0.9956519090081114 -0.04201731918167987 0.0007897691534720833 0.008688747175409305 -0.0006893166491693701 -0.005473555220559418
 0.9956519090081114 -0.04201731918167987 0.0036622841284824426 0.01734457271886752 -0.0006890272206266074 -0.005473560524628734 0.000798935112334455 0.008687657288391788
 0.0007897691534720833 0.008688747175409305 -0.0006890272206266074 -0.005473560524628734 0.0036633198915797 0.017343619257423934 0.9956518826019296 -0.04201823931101041
 -0.0006893166491693701 -0.005473555220559418 0.000798935112334455 0.008687657288391788 0.9956518826019296 -0.04201823931101041 0.0036621878834246914 0.017343661646403743
0.07503126302626001 0.003949419684704792 0.019023242299016398 0.995273338923552 -0.04591521991026167 0.0009038100159174416 0.009482451582978793 -0.0007869498072163817 -0.0059769234749447115
 0.995273338923552 -0.04591521991026167 0.0039482428078835416 0.019023290230754823 -0.0007866064015458158 -0.005976932674377058 0.0009147261431412925 0.009481132789434746
 0.0009038100159174416 0.009482451582978793 -0.0007866064015458158 -0.005976932674377058 0.0039494757745377395 0.019022252596752415 0.9952733077319216 -0.045916224122595904
 -0.0007869498072163817 -0.0059769234749447115 0.0009147261431412925 0.009481132789434746 0.9952733077319216 -0.045916224122595904 0.003948128969193594 0.01902229769306979
0.08128386827845 0.004250735733001281 0.020717251446469062 0.9948746334720582 -0.04982640120499512 0.0010260716984250514 0.010276417618161634 -0.0008916045529035982 -0.006480764867108387
 0.9948746334720582 -0.04982640120499512 0.004249354286033808 0.020717302654427006 -0.0008912027063363014 -0.006480778753782958 0.0010388926189716066 0.010274840238438922
 0.0010260716984250514 0.010276417618161634 -0.0008912027063363014 -0.006480778753782958 0.004250801741531995 0.020716181527909102 0.9948745970761084 -0.04982748965476322
 -0.0008916045529035982 -0.006480764867108387 0.0010388926189716066 0.010274840238438922 0.9948745970761084 -0.04982748965476322 0.0042492214532687325 0.02071622900808745
0.08753647353064001 0.004567488930890521 0.022426305170612552 0.9944555325548615 -0.05375074955578061 0.0011566282335795197 0.011070539649534411 -0.0010033570815926648 -0.006984968827750843
 0.9944555325548615 -0.05375074955578061 0.00456588637998934 0.022426359379349767 -0.0010028923627019514 -0.006984988245260294 0.0011715089641769834 0.011068672066954182
 0.0011566282335795197 0.011070539649534411 -0.0010028923627019514 -0.006984988245260294 0.004567565658173303 0.022425155509045287 0.9944554905284211 -0.053751922410306976
 -0.0010033570815926648 -0.006984968827750843 0.0011715089641769834 0.011068672066954182 0.9944554905284211 -0.053751922410306976 0.004565733170496181 0.02242520501737617
0.09378907878283 0.004899945824144404 0.024150158138293614 0.994015776604886 -0.05768813684452042 0.00129555213512119 0.011864708988802482 -0.001122281951334562 -0.007489423052967175
 0.994015776604886 -0.05768813684452042 0.004898105581808647 0.02415021503577326 -0.0011217499610727678 -0.00748944889664761 0.0013126480667865388 0.011862517626525002
 0.00129555213512119 0.011864708988802482 -0.0011217499610727678 -0.00748944889664761 0.004900034072052305 0.024148929232071424 0.994015728514639 -0.05768939429107571
 -0.001122281951334562 -0.007489423052967175 0.0013126480667865388 0.011862517626525002 0.994015728514639 -0.05768939429107571 0.004897930632123718 0.0241489803806433
0.100041684035 0.00524837159395215 0.025888568219758597 0.9935551067437712 -0.061638422336883984 0.0014429143215624715 0.012658814034961332 -0.0012484520226726135 -0.007994013380955348
 0.9935551067437712 -0.061638422336883984 0.005246277012789951 0.025888627457620116 -0.0012478483944997705 -0.00799404659792929 0.0014623812005389973 0.012656263333003459
 0.0014429143215624715 0.012658814034961332 -0.0012478483944997705 -0.00799404659792929 0.005248472166410288 0.02588726059671746 0.9935550521480707 -0.06163976457837826
 -0.0012484520226726135 -0.007994013380955348 0.0014623812005389973 0.012656263333003459 0.9935550521480707 -0.06163976457837826 0.005246078978855526 0.02588731296561806
0.1059090909091 0.005590090713478688 0.027532907024272458 0.9931035660942159 -0.06535694192753543 0.0015889343386287756 0.013403837055924352 -0.0013735020428468938 -0.008467538263147957
 0.9931035660942159 -0.06535694192753543 0.00558774226327583 0.027532968109440364 -0.0013728272479436336 -0.008467579306708327 0.0016107680481113652 0.013400915023892223
 0.0015889343386287756 0.013403837055924352 -0.0013728272479436336 -0.008467579306708327 0.005590203585403681 0.027531526041444307 0.9931035049846003 -0.06535836393716804
 -0.0013735020428468938 -0.008467538263147957 0.0016107680481113652 0.013400915023892223 0.9931035049846003 -0.06535836393716804 0.005587521362794269 0.027531579145528198
0.1062942892872 0.005613029997511198 0.027641294962079347 0.9930732649284417 -0.06560145416767206 0.0015987840411008393 0.013452740392060195 -0.0013819383959766786 -0.008498623698909361
 0.9930732649284417 -0.06560145416767206 0.00561066436436342 0.02764135615598197 -0.0013812587960918487 -0.008498665288090783 0.00162077794835976 0.013449792784626657
 0.0015987840411008393 0.013452740392060195 -0.0013812587960918487 -0.008498665288090783 0.005613143701746407 0.027639909180292608 0.9930732033771835 -0.06560288142177238
 -0.0013819383959766786 -0.008498623698909361 0.00162077794835976 0.013449792784626657 0.9930732033771835 -0.06560288142177238 0.005610441922299713 0.027639962318110667
0.11254689453939999 0.005994183297922056 0.029408098432814028 0.9925699940897028 -0.06957707046025308 0.0017632287967686135 0.01424637096106115 -0.0015228103474536872 -0.00900313587983366
 0.9925699940897028 -0.06957707046025308 0.005991529828097696 0.029408161163016606 -0.0015220504750914426 -0.009003186891940736 0.0017879061262781686 0.014242986853997107
 0.0017632287967686135 0.01424637096106115 -0.0015220504750914426 -0.009003186891940736 0.005994310944982868 0.029406635079108446 0.9925699251230453 -0.06957858296087323
 -0.0015228103474536872 -0.00900313587983366 0.0017879061262781686 0.014242986853997107 0.9925699251230453 -0.06957858296087323 0.005991281674096184 0.029406688503468528
0.11879949979160001 0.0063920921877245775 0.03118873830447352 0.9920450382661412 -0.07356510020968891 0.0019363142725757874 0.015039586015961377 -0.001671135263225526 -0.009507429739008694
 0.9920450382661412 -0.07356510020968891 0.006389134018534671 0.03118880211659903 -0.0016702908508722625 -0.009507491276569533 0.001963831708548008 0.015035723764543197
 0.0019363142725757874 0.015039586015961377 -0.0016702908508722625 -0.009507491276569533 0.00639223459325638 0.031187197993586505 0.9920449614146486 -0.07356669820775924
 -0.001671135263225526 -0.009507429739008694 0.001963831708548008 0.015035723764543197 0.9920449614146486 -0.07356669820775924 0.0063888588701884715 0.031187251191914546
0.1250521050438 0.0068070157042425805 0.032982973138771604 0.9914981427337627 -0.07756536397077243 0.0021181042597156006 0.015832263272534654 -0.0018269785725461406 -0.010011383002040974
 0.9914981427337627 -0.07756536397077243 0.006803735889160654 0.03298303754477125 -0.0018260453863241737 -0.010011456219380679 0.002148618752654465 0.015827879159520886
 0.0021181042597156006 0.015832263272534654 -0.0018260453863241737 -0.010011456219380679 0.006807173689585731 0.03298135651551325 0.9914980575174626 -0.07756704773198636
 -0.0018269785725461406 -0.010011383002040974 0.002148618752654465 0.015827879159520886 0.9914980575174626 -0.07756704773198636 0.006803432485722775 0.0329814089460703
0.131304710296 0.007239211140796133 0.03479055981550842 0.9909290541330038 -0.08157767440637802 0.0023086605831769674 0.01662427794465909 -0.0019904036797962804 -0.010514871289423801
 0.9909290541330038 -0.08157767440637802 0.007235592643051223 0.03479062429478306 -0.0019893775198526658 -0.010514957392634456 0.002342329325139964 0.016619326158646024
 0.0023086605831769674 0.01662427794465909 -0.0019893775198526658 -0.010514957392634456 0.007239385533716326 0.03478886755159557 0.9909289600607598 -0.08157944421415185
 -0.0019904036797962804 -0.010514871289423801 0.002342329325139964 0.016619326158646024 0.9909289600607598 -0.08157944421415185 0.00723525974622171 0.03478891864462838
0.1375573155481 0.0075874403552638695 0.03637468048362539 0.9904390498711568 -0.08536516805679624 0.002483126184513912 0.017391313305951176 -0.002136515647347647 -0.010993622118419462
 0.9904390498711568 -0.08536516805679624 0.007583465442622966 0.03637474421316264 -0.002135390569992113 -0.010993721164008116 0.0025200193598854787 0.0173858028838119
 0.002483126184513912 0.017391313305951176 -0.002135390569992113 -0.010993721164008116 0.007587632891854354 0.03637291259263981 0.9904389465361099 -0.08536702407314595
 -0.002136515647347647 -0.010993622118419462 0.0025200193598854787 0.0173858028838119 0.9904389465361099 -0.08536702407314595 0.007583100756880133 0.03637296261872357
0.1438099208003 0.007947838072836442 0.037950848460288886 0.9899319706136357 -0.08914347313709096 0.002664641231767557 0.018155564234276327 -0.0022884887049661414 -0.011469796257405131
 0.9899319706136357 -0.08914347313709096 0.007943489498398541 0.03795091104577437 -0.002287260244622516 -0.011469909420254248 0.0027049006462650884 0.01814945357054732
 0.002664641231767557 0.018155564234276327 -0.002287260244622516 -0.011469909420254248 0.007948049754324693 0.037949005581522685 0.9899318575258249 -0.08914541563912545
 -0.0022884887049661414 -0.011469796257405131 0.0027049006462650884 0.01814945357054732 0.9899318575258249 -0.08914541563912545 0.007943091626079712 0.03794905422028671
0.1500625260525 0.008320283157899249 0.03951894398007028 0.9894079412866069 -0.09291250823314431 0.0028531468399551068 0.018916963090984472 -0.0024462650756462284 -0.011943328202417558
 0.9894079412866069 -0.09291250823314431 0.008315543590425339 0.039519005036678836 -0.002444928778215615 -0.011943456704212383 0.0028969135201092518 0.018910209069823047
 0.0028531468399551068 0.018916963090984472 -0.002444928778215615 -0.011943456704212383 0.008320515002406145 0.03951702677725503 0.9894078179465314 -0.09291453750781352
 -0.0024462650756462284 -0.011943328202417558 0.0028969135201092518 0.018910209069823047 0.9894078179465314 -0.09291453750781352 0.00831511114265899 0.039517073724395266
0.15631513130469998 0.00870465368126717 0.04107885094833792 0.988867087379753 -0.09667219196895568 0.0030485834712697195 0.019675443319199258 -0.00260978630741366 -0.012414153783114912
