! Created with skrf 1.8.0 (http://scikit-rf.org).
# GHz S RI R 50.0 
!freq ReS11 ImS11 ReS12 ImS12 ReS13 ImS13
! ReS14 ImS14
! ReS21 ImS21 ReS22 ImS22 ReS23 ImS23
! ReS24 ImS24
! ReS31 ImS31 ReS32 ImS32 ReS33 ImS33
! ReS34 ImS34
! ReS41 ImS41 ReS42 ImS42 ReS43 ImS43
! ReS44 ImS44
!
0.0 0.001648627311243 0.0 0.9983513726802 0.0 6.358917886755e-05 0.0 -6.358917895617e-05 7.787428446908181e-21
 0.9983513726802 0.0 0.001648627311233 0.0 -6.358917895621e-05 7.78742844691308e-21 6.358917886724e-05 0.0
 6.358917886755e-05 0.0 -6.358917895621e-05 7.78742844691308e-21 0.001648627306979 0.0 0.998351372676 0.0
 -6.358917895617e-05 7.787428446908181e-21 6.358917886724e-05 0.0 0.998351372676 0.0 0.001648627306965 0.0
0.005 0.0017740851220140678 0.001351774993055669 0.9981926344527338 -0.003452856215163767 8.866481389126984e-05 0.000680695704079842 -8.629981781448683e-05 -0.00043066934741398707
 0.9981926344527338 -0.003452856215163767 0.0017740648659529913 0.0013517867602424144 -8.630204298836169e-05 -0.00043067095160382565 8.878998577657596e-05 0.0006806480946511395
 8.866481389126984e-05 0.000680695704079842 -8.630204298836169e-05 -0.00043067095160382565 0.0017740841467723232 0.0013517082124088657 0.998192634083117 -0.0034529232884699997
 -8.629981781448683e-05 -0.00043066934741398707 8.878998577657596e-05 0.0006806480946511395 0.998192634083117 -0.0034529232884699997 0.0017740651070975418 0.00135171939877455
0.006252605252188 0.0018070876655988492 0.00169500720663809 0.9981506071947641 -0.004316897978813736 9.584811023801383e-05 0.0008512046623607951 -9.274831136695656e-05 -0.0005388832652479965
 0.9981506071947641 -0.004316897978813736 0.0018070560020239724 0.0016950221210028735 -9.275177474076404e-05 -0.0005388852406115102 9.604367968761319e-05 0.0008511428117714725
 9.584811023801383e-05 0.0008512046623607951 -9.275177474076404e-05 -0.0005388852406115102 0.001807086207912896 0.0016949237557603997 0.9981506066829862 -0.004316981789614922
 -9.274831136695656e-05 -0.0005388832652479965 9.604367968761319e-05 0.0008511428117714725 0.9981506066829862 -0.004316981789614922 0.0018070564447207184 0.0016949379604154487
0.01250521050438 0.001981394349159503 0.003425252562107516 0.9979271474810402 -0.00863447255091797 0.0001371465741296435 0.0017028070583756368 -0.0001295315536638411 -0.0010802986174397284
 0.9979271474810402 -0.00863447255091797 0.001981267923624208 0.0034252844716963007 -0.0001295452124762743 -0.0010803022373529988 0.00013792647171723252 0.001702658022884982
 0.0001371465741296435 0.0017028070583756368 -0.0001295452124762743 -0.0010803022373529988 0.0019813891528038 0.0034250858351280514 0.9979271460499635 -0.008634639956717365
 -0.0001295315536638411 -0.0010802986174397284 0.00013792647171723252 0.001702658022884982 0.9979271460499635 -0.008634639956717365 0.0019812702962400757 0.003425116482649424
0.01875781575657 0.0021719477675720593 0.005179866735168337 0.9976807014220113 -0.012963205222229792 0.00018758548918108733 0.002555342897422873 -0.00017405567615482576 -0.0016234801698596223
 0.9976807014220113 -0.012963205222229792 0.0021716636987160216 0.005179917910740457 -0.00017408614935970627 -0.0016234850314580868 0.0001893374674255605 0.002555076144376225
 0.00018758548918108733 0.002555342897422873 -0.00017408614935970627 -0.0016234850314580868 0.0021719365309564773 0.005179616837331895 0.9976806986208638 -0.012963456124186867
 -0.00017405567615482576 -0.0016234801698596223 0.0001893374674255605 0.002555076144376225 0.9976806986208638 -0.012963456124186867 0.0021716694311293802 0.005179666336718082
0.02501042100875 0.0023791353276399587 0.006956376730611064 0.9974109647664033 -0.017305168310431072 0.00024726618248315614 0.0034088297316650557 -0.00022643338450831725 -0.002168173265648142
 0.9974109647664033 -0.017305168310431072 0.002378630865550395 0.006956449608705495 -0.0002264872159398673 -0.002168178887637875 0.0002503781376884073 0.0034084096924997045
 0.00024726618248315614 0.0034088297316650557 -0.0002264872159398673 -0.002168178887637875 0.0023791157881820927 0.006956043741358131 0.9974109601640583 -0.017305502681610196
 -0.00022643338450831725 -0.002168173265648142 0.0002503781376884073 0.0034084096924997045 0.9974109601640583 -0.017305502681610196 0.002378641397983037 0.006956114651291531
0.03126302626094 0.0026033284740631366 0.008753497183166533 0.9971176184996868 -0.021661233615006468 0.0003162899095753064 0.004263208726705135 -0.0002867740133190407 -0.0027141928327806242
 0.9971176184996868 -0.021661233615006468 0.0026025409635789237 0.008753594361430323 -0.0002868576842500242 -0.0027141986546063653 0.0003211502304748117 0.004262594766129131
 0.0003162899095753064 0.004263208726705135 -0.0002868576842500242 -0.0027141986546063653 0.002603298383657275 0.008753081208029298 0.9971176116605748 -0.02166165144850895
 -0.0002867740133190407 -0.0027141928327806242 0.0003211502304748117 0.004262594766129131 0.9971176116605748 -0.02166165144850895 0.0026025577249802856 0.00875317623258913
0.037515631513130004 0.002844890424312301 0.010570380396882793 0.9968003368757821 -0.026031822313586635 0.0003947570156683711 0.00511839055838935 -0.00035518427004914844 -0.0032613775128255136
 0.9968003368757821 -0.026031822313586635 0.002843757280218955 0.010570504631721522 -0.0003553042054363813 -0.0032613828943484986 0.00040175473396592964 0.005117536923639232
 0.0003947570156683711 0.00511839055838935 -0.0003553042054363813 -0.0032613828943484986 0.0028448475515356346 0.010569881564270455 0.9968003273620127 -0.026032323625895207
 -0.00035518427004914844 -0.0032613775128255136 0.00040175473396592964 0.005117536923639232 0.9968003273620127 -0.026032323625895207 0.002843781692333211 0.010570003550749413
0.043768236765320004 0.003104179158518445 0.012406388069752701 0.9964587906999217 -0.030417133163249795 0.0004827665238572594 0.0059742693679133594 -0.00043176849198395555 -0.0038095757233166305
 0.9964587906999217 -0.030417133163249795 0.0031026378451054306 0.012406542275312911 -0.00043193106396364415 -0.003809579944682915 0.0004922913799672197 0.0059731251317966215
 0.0004827665238572594 0.0059742693679133594 -0.00043193106396364415 -0.003809579944682915 0.0031041212884458445 0.012405806539122634 0.9964587780711224 -0.03041771798635873
 -0.00043176849198395555 -0.0038095757233166305 0.0004922913799672197 0.0059731251317966215 0.9964587780711224 -0.03041771798635873 0.003102671324307869 0.01240595847677689
0.050020842017509996 0.0033815487985355604 0.014260996987163951 0.9960926490041034 -0.03481723673202176 0.0005804158770107665 0.006830728537649111 -0.0005166287268192511 -0.004358639900072576
 0.9960926490041034 -0.03481723673202176 0.0033795368119997086 0.014261184234818827 -0.0005168402569177982 -0.0043586421616041236 0.0005928583407435196 0.006829237539215734
 0.0005804158770107665 0.006830728537649111 -0.0005168402569177982 -0.0043586421616041236 0.0033814737327229547 0.01426033294912747 0.9960926328165762 -0.034817905113515214
 -0.0005166287268192511 -0.004358639900072576 0.0005928583407435196 0.006829237539215734 0.9960926328165762 -0.034817905113515214 0.0033795807700792873 0.014260517968707108
0.055454545454549996 0.0036375479746854154 0.015887460672404333 0.9957542285641786 -0.038653066254368464 0.0006731792057379329 0.0075753922731199965 -0.0005971735155589008 -0.004836382908372989
 0.9957542285641786 -0.038653066254368464 0.003635076210650606 0.01588767925116859 -0.0005974326872629492 -0.004836382755272167 0.0006884748297654103 0.007573550207983706
 0.0006731792057379329 0.0075753922731199965 -0.0005974326872629492 -0.004836382755272167 0.003637456191796365 0.015886725112532894 0.9957542089203122 -0.038653807300945316
 -0.0005971735155589008 -0.004836382908372989 0.0006884748297654103 0.007573550207983706 0.9957542089203122 -0.038653807300945316 0.0036351304183778826 0.01588694153369538
0.056273447269699996 0.003677350305620428 0.016133752719959305 0.9957015800447652 -0.03923212162799885 0.0006878007447077664 0.007687643525621692 -0.0006098647371333371 -0.004908423684281532
 0.9957015800447652 -0.03923212162799885 0.0036748051576782907 0.01613397623843217 -0.0006101314975547914 -0.004908423106417938 0.0007035520084489516 0.007685744309844547
 0.0006878007447077664 0.007687643525621692 -0.0006101314975547914 -0.004908423106417938 0.0036772558612712843 0.016133006397163863 0.9957015598506862 -0.03923287363037834
 -0.0006098647371333371 -0.004908423684281532 0.0007035520084489516 0.007685744309844547 0.9957015598506862 -0.03923287363037834 0.0036748610023544653 0.01613322777086628
0.06252605252188 0.003991931844985082 0.01802424416559557 0.9952852519720503 -0.04366171988956617 0.0008050148640887554 0.008544883428243475 -0.0007115739638869318 -0.005458780385952373
 0.9952852519720503 -0.04366171988956617 0.003988791047506729 0.018024507341735333 -0.0007119021783083786 -0.0054587760092114765 0.0008244668180437921 0.008542509185460135
 0.0008050148640887554 0.008544883428243475 -0.0007119021783083786 -0.0054587760092114765 0.0039918158565938255 0.018023415810188275 0.9952852273197362 -0.04366255559310797
 -0.0007115739638869318 -0.005458780385952373 0.0008244668180437921 0.008542509185460135 0.9952852273197362 -0.04366255559310797 0.003988860184865723 0.018023676952137052
0.06877865777407 0.004325638967614683 0.01993208838991449 0.994843333319465 -0.048105922080570525 0.000932149899341281 0.009402311922936052 -0.0008218514669561931 -0.006009562072774302
 0.994843333319465 -0.048105922080570525 0.004321840017276298 0.019932394769786987 -0.0008222473109668992 -0.006009552857721019 0.0009556950935463462 0.009399390428462747
 0.000932149899341281 0.009402311922936052 -0.0008222473109668992 -0.006009552857721019 0.004325499285531443 0.01993117828910953 0.994843303751977 -0.04810684157793043
 -0.0008218514669561931 -0.006009562072774302 0.0009556950935463462 0.009399390428462747 0.994843303751977 -0.04810684157793043 0.004321923851104391 0.01993148275635927
0.07503126302626001 0.004678814682348702 0.021856920993817842 0.9943754933903131 -0.05256458686651461 0.0010692953111250951 0.010259787867750966 -0.0009407898520404891 -0.006560619007734062
 0.9943754933903131 -0.05256458686651461 0.004674295045923831 0.021857274284509343 -0.0009412594532517374 -0.006560603834973241 0.0010973269080229767 0.010256241421928198
 0.0010692953111250951 0.010259787867750966 -0.0009412594532517374 -0.006560603834973241 0.004678649174101119 0.021855929469816463 0.9943754584454849 -0.05256559026300092
 -0.0009407898520404891 -0.006560619007734062 0.0010973269080229767 0.010256241421928198 0.9943754584454849 -0.05256559026300092 0.004674394980186411 0.021856280963843195
0.08128386827845 0.005051799461041447 0.023798389736238726 0.9938814025791537 -0.05703754734126989 0.0012165382330691183 0.011117165714129497 -0.0010684791880266416 -0.007111799279664285
 0.9938814025791537 -0.05703754734126989 0.005046496560467014 0.023798793808084938 -0.0010690286260184156 -0.0071117769498448636 0.0012494499522337746 0.011112911082990562
 0.0012165382330691183 0.011117165714129497 -0.0010690286260184156 -0.0071117769498448636 0.0050516060102329535 0.0237973171416925 0.9938813617883551 -0.05703863475962326
 -0.0010684791880266416 -0.007111799279664285 0.0012494499522337746 0.011112911082990562 0.9938813617883551 -0.05703863475962326 0.00504661399899884 0.02379771951032985
0.08753647353064001 0.005444931196177875 0.025756150098668187 0.993360732652407 -0.06152461541924269 0.0013739633526323653 0.01197429579626178 -0.0012050069176616728 -0.007662948563461572
 0.993360732652407 -0.06152461541924269 0.005438782394035782 0.025756608988038485 -0.0012056422238059504 -0.007662917797298976 0.0014121494094105653 0.011969244153023875
 0.0013739633526323653 0.01197429579626178 -0.0012056422238059504 -0.007662917797298976 0.005444707704070207 0.025754996824079196 0.9933606855407427 -0.061525786992400286
 -0.0012050069176616728 -0.007662948563461572 0.0014121494094105653 0.011969244153023875 0.9933606855407427 -0.061525786992400286 0.005438918742686134 0.025755454064041842
0.09378907878283 0.00585854512978213 0.027729862142132775 0.9928131570020616 -0.06602558494272477 0.0015416527945823699 0.012831024551473419 -0.0013504577640918668 -0.00821390995594269
 0.9928131570020616 -0.06602558494272477 0.0058514877145437755 0.02773038005472057 -0.0013511849212118417 -0.008213869394251453 0.0015855078333223548 0.012825081418864534
 0.0015416527945823699 0.012831024551473419 -0.0013511849212118417 -0.008213869394251453 0.005858289514818725 0.027728628611109522 0.9928131030875301 -0.06602684081866934
 -0.0013504577640918668 -0.00821390995594269 0.0015855078333223548 0.012825081418864534 0.9928131030875301 -0.06602684081866934 0.0058516443815592924 0.027729144871005036
0.100041684035 0.0062929737570790985 0.029719188193266036 0.9922383508798783 -0.0705402339677808 0.0017196860062292047 0.013687194690741077 -0.0015049136340156578 -0.008764523868127929
 0.9922383508798783 -0.0705402339677808 0.0062849449285702855 0.02971976950801879 -0.0015057385759502048 -0.0087644720718787 0.0017696050291936545 0.013680259884432226
 0.0017196860062292047 0.013687194690741077 -0.0015057385759502048 -0.0087644720718787 0.006292683955101009 0.029717874863741042 0.9922382896722324 -0.07054157430852058
 -0.0015049136340156578 -0.008764523868127929 0.0017696050291936545 0.013680259884432226 0.9922382896722324 -0.07054157430852058 0.006285123325659631 0.029718454447612175
0.1059090909091 0.006719863358862363 0.031599860146481695 0.9916739030288765 -0.07478898452986232 0.0018962271597440848 0.014489968242392216 -0.0016581144590776344 -0.009280756017922982
 0.9916739030288765 -0.07478898452986232 0.006710865753821724 0.03160050509831589 -0.001659036514399491 -0.009280692299386816 0.0019521960914991232 0.014482006606386716
 0.0018962271597440848 0.014489968242392216 -0.001659036514399491 -0.009280692299386816 0.006719539614828776 0.03159847238333411 0.9916738345247577 -0.07479040428997527
 -0.0016581144590776344 -0.009280756017922982 0.0019521960914991232 0.014482006606386716 0.9916738345247577 -0.07479040428997527 0.006711065830404025 0.03159911544664608
0.1062942892872 0.006748546714880702 0.03172379111483449 0.9916359916183067 -0.0750683264739631 0.0019081396445692522 0.014542645337139577 -0.0016684535181288056 -0.009314627956629394
 0.9916359916183067 -0.0750683264739631 0.006739483569334542 0.03172444038842292 -0.0016693821292441849 -0.009314563407019529 0.001964517936523415 0.014534612910230362
 0.0019081396445692522 0.014542645337139577 -0.0016693821292441849 -0.009314563407019529 0.006748220679836923 0.03172239848093098 0.9916359226197028 -0.07506975145368253
 -0.0016684535181288056 -0.009314627956629394 0.001964517936523415 0.014534612910230362 0.9916359226197028 -0.07506975145368253 0.00673968511291709 0.03172304585242718
0.11254689453939999 0.007225590656643324 0.033743332986701374 0.9910057588433401 -0.07960961367178342 0.0021070874637747483 0.01539721214396429 -0.0018411533900941253 -0.009864057082301678
 0.9910057588433401 -0.07960961367178342 0.007215430172053964 0.03374405495857283 -0.0018421915047119742 -0.009863978180842876 0.0021703205133857986 0.015387970332654599
 0.0021070874637747483 0.01539721214396429 -0.0018421915047119742 -0.009863978180842876 0.007225226360575001 0.03374186157797856 0.991005681546396 -0.07961112347779525
 -0.0018411533900941253 -0.009864057082301678 0.0021703205133857986 0.015387970332654599 0.991005681546396 -0.07961112347779525 0.00721565628396673 0.033742581364967036
0.11879949979160001 0.007724429117310147 0.03577747408380556 0.9903473346788535 -0.08416383502195243 0.00231660020436992 0.01625072739824487 -0.002023086103610633 -0.010412643290717278
 0.9903473346788535 -0.08416383502195243 0.007713108138644786 0.03577827368183653 -0.0020242395053651067 -0.010412548359369398 0.002387083622018247 0.016240158568838255
 0.00231660020436992 0.01625072739824487 -0.0020242395053651067 -0.010412548359369398 0.007724024550725766 0.03577592446583514 0.9903472485671199 -0.08416542985408847
 -0.002023086103610633 -0.010412643290717278 0.002387083622018247 0.016240158568838255 0.9903472485671199 -0.08416542985408847 0.007713360247525684 0.03577672146572113
0.1250521050438 0.00824538237070995 0.03782587207724318 0.9896604039475669 -0.08873071904015024 0.002536745482349248 0.01710302011460615 -0.0022143212892293575 -0.010960215809616434
 0.9896604039475669 -0.08873071904015024 0.008232837594922479 0.037826754424076424 -0.002215595710369511 -0.010960103090878163 0.0026148749150073924 0.01709100071181206
 0.002536745482349248 0.01710302011460615 -0.002215595710369511 -0.010960103090878163 0.008244935543024651 0.0378242448494521 0.9896603084943505 -0.08873239911299304
 -0.0022143212892293575 -0.010960215809616434 0.0026148749150073924 0.01709100071181206 0.9896603084943505 -0.08873239911299304 0.008233117136848574 0.03782512403507972
0.131304710296 0.008788767280205074 0.039888181390777266 0.9889446543675601 -0.0933099839556785 0.002767587679523635 0.017953916123360822 -0.0024149252497820527 -0.011506601059485347
 0.9889446543675601 -0.0933099839556785 0.0087749352413299 0.0398891518107302 -0.0024163263704828977 -0.011506468716580977 0.00285375872281223 0.017940316620060535
 0.002767587679523635 0.017953916123360822 -0.0024163263704828977 -0.011506468716580977 0.00878827622012107 0.039886477190605445 0.9889445490354002 -0.09331174949433478
 -0.0024149252497820527 -0.011506601059485347 0.00285375872281223 0.017940316620060535 0.9889445490354002 -0.09331174949433478 0.008775243661131266 0.039887443716725195
0.1375573155481 0.00923386112343718 0.04169649188252467 0.9883208697888481 -0.0976336251715156 0.002980477458565692 0.018777084262505458 -0.0025961537195122236 -0.012025561632827577
 0.9883208697888481 -0.0976336251715156 0.00921867275741338 0.04169753712710497 -0.002597689690023441 -0.012025409400576401 0.0030748853623598846 0.018761918662261744
 0.002980477458565692 0.018777084262505458 -0.002597689690023441 -0.012025409400576401 0.009233322642634163 0.04169471195668731 0.9883207541222269 -0.09763547629179724
 -0.0025961537195122236 -0.012025561632827577 0.0030748853623598846 0.018761918662261744 0.9883207541222269 -0.09763547629179724 0.009219012569749867 0.041695751007348486
0.1438099208003 0.009694745431318878 0.043494689239345866 0.9876749278035699 -0.10194569205142968 0.003201927155730974 0.019596585909392682 -0.00278460067523559 -0.012541083787487452
 0.9876749278035699 -0.10194569205142968 0.009678136184104668 0.04349581370186472 -0.0027862775458531238 -0.012540909857136595 0.003304931286495822 0.01957973522197874
 0.003201927155730974 0.019596585909392682 -0.0027862775458531238 -0.012540909857136595 0.0096941573642206 0.04349283432761186 0.9876748012668845 -0.10194762897039103
 -0.00278460067523559 -0.012541083787487452 0.003304931286495822 0.01957973522197874 0.9876748012668845 -0.10194762897039103 0.009678509040357379 0.0434939499605086
0.1500625260525 0.010171249591419192 0.04528260491001358 0.9870070035991059 -0.10624605879715596 0.0034318540846834896 0.020412327310547217 -0.002980184267749385 -0.01305307675856606
 0.9870070035991059 -0.10624605879715596 0.010153154720149824 0.04528381326103134 -0.0029820080686282485 -0.013052879249367879 0.0035438114505228217 0.020393668202406845
 0.0034318540846834896 0.020412327310547217 -0.0029820080686282485 -0.013052879249367879 0.010170609776086635 0.045280675783926666 0.9870068656479705 -0.10624808174021876
 -0.002980184267749385 -0.01305307675856606 0.0035438114505228217 0.020393668202406845 0.9870068656479705 -0.10624808174021876 0.010153562293030136 0.04528187231324831
0.15631513130469998 0.010663201679261002 0.04706007535972104 0.9863172733655924 -0.11053460045567647 0.003670174526627302 0.021224216455513766 -0.0031828215844861584 -0.013561451798651704
 0.9863172733655924 -0.11053460045567647 0.010643556247273507 0.047061372555328926 -0.003184798325210183 -0.013561228758336675 0.0037914397384773402 0.021203621298326987
