! Created with skrf 1.8.0 (http://scikit-rf.org).
# GHz S RI R 50.0 
!freq ReS11 ImS11 ReS12 ImS12 ReS13 ImS13
! ReS14 ImS14
! ReS21 ImS21 ReS22 ImS22 ReS23 ImS23
! ReS24 ImS24
! ReS31 ImS31 ReS32 ImS32 ReS33 ImS33
! ReS34 ImS34
! ReS41 ImS41 ReS42 ImS42 ReS43 ImS43
! ReS44 ImS44
!
0.0 0.001554140099572 0.0 0.9984458598768 0.0 6.009900678117e-05 0.0 -6.009900645614e-05 7.360005588844796e-21
 0.9984458598768 0.0 0.001554140099578 0.0 -6.009900645535e-05 7.36000558874805e-21 6.00990067853e-05 0.0
 6.009900678117e-05 0.0 -6.009900645535e-05 7.36000558874805e-21 0.001554140107282 0.0 0.9984458598845 0.0
 -6.009900645614e-05 7.360005588844796e-21 6.00990067853e-05 0.0 0.9984458598845 0.0 0.001554140107332 0.0
0.005 0.0016721903418797405 0.0012688388639122943 0.9982965036142968 -0.003255654800003357 8.458474798492217e-05 0.0006772985730639059 -8.207051223511807e-05 -0.00042247967436962684
 0.9982965036142968 -0.003255654800003357 0.0016721897145887748 0.0012688392945426682 -8.207174063738036e-05 -0.00042248066483516054 8.457575126152133e-05 0.0006773018789811574
 8.458474798492217e-05 0.0006772985730639059 -8.207174063738036e-05 -0.00042248066483516054 0.001672189832376763 0.001268906480746263 0.9982965039729228 -0.0032555877305962856
 -8.207051223511807e-05 -0.00042247967436962684 8.457575126152133e-05 0.0006773018789811574 0.9982965039729228 -0.0032555877305962856 0.001672190935570288 0.0012689058118923915
0.006252605252188 0.0017031618618963086 0.0015910502224156851 0.9982570704470566 -0.004070364189022491 9.158095556218983e-05 0.0008469438930012928 -8.827959367362339e-05 -0.0005286485890696244
 0.9982570704470566 -0.004070364189022491 0.0017031608810331763 0.0015910507956289571 -8.828150480103075e-05 -0.0005286498112835163 9.156689755657477e-05 0.0008469482048942946
 9.158095556218983e-05 0.0008469438930012928 -8.828150480103075e-05 -0.0005286498112835163 0.0017031609943073472 0.001591134730165075 0.998257070937029 -0.0040702803687317065
 -8.827959367362339e-05 -0.0005286485890696244 9.156689755657477e-05 0.0008469482048942946 0.998257070937029 -0.0040702803687317065 0.0017031627193914915 0.001591133918011166
0.01250521050438 0.0018662638126273716 0.0032155070676779538 0.9980480323194335 -0.008141532963603253 0.00013170669905910733 0.0016941981962302702 -0.0001235397256072958 -0.0010598668354530783
 0.9980480323194335 -0.008141532963603253 0.001866259890235983 0.0032155085834619174 -0.00012354725277562007 -0.001059869106354966 0.00013165059461330413 0.0016942087439259035
 0.00013170669905910733 0.0016941981962302702 -0.00012354725277562007 -0.001059869106354966 0.001866259770208265 0.003215675868071008 0.9980480337066849 -0.008141365562793181
 -0.0001235397256072958 -0.0010598668354530783 0.00013165059461330413 0.0016942087439259035 0.9980480337066849 -0.008141365562793181 0.001866266666030079 0.0032156744860277835
0.01875781575657 0.0020438048665327923 0.004863131884030634 0.9978184836830966 -0.012223414107527131 0.0001805696577511557 0.0025423441465915273 -0.00016598888972655485 -0.0015928669064084319
 0.9978184836830966 -0.012223414107527131 0.002043796040604248 0.0048631347699238355 -0.00016600566945171324 -0.0015928700203076346 0.0001804435188973839 0.0025423632096183324
 0.0001805696577511557 0.0025423441465915273 -0.00016600566945171324 -0.0015928700203076346 0.002043795342749853 0.004863384911605941 0.9978184863790533 -0.01222316320287288
 -0.00016598888972655485 -0.0015928669064084319 0.0001804435188973839 0.0025423632096183324 0.9978184863790533 -0.01222316320287288 0.002043810852474504 0.004863383208768333
0.02501042100875 0.002236133166553165 0.006531609251748417 0.9975681523325169 -0.016317981248972976 0.00023826446736730745 0.0033914178050988768 -0.00021573286534459215 -0.002127400087785218
 0.9975681523325169 -0.016317981248972976 0.0022361174738571624 0.00653161399482852 -0.00021576248882365173 -0.0021274038031000365 0.00023804022836896815 0.0033914480135287164
 0.00023826446736730745 0.0033914178050988768 -0.00021576248882365173 -0.0021274038031000365 0.0022361158463297262 0.006531946479746183 0.9975681567472103 -0.016317646863926318
 -0.00021573286534459215 -0.002127400087785218 0.00023804022836896815 0.0033914480135287164 0.9975681567472103 -0.016317646863926318 0.0022361434159664214 0.006531944715142863
0.03126302626094 0.0024435824419248753 0.008219745051209829 0.997296752278777 -0.02042607576244208 0.00030488616264314237 0.004241375294257179 -0.00027287435425975824 -0.0026632915595868616
 0.997296752278777 -0.02042607576244208 0.00244355791910767 0.008219752199156018 -0.00027292037506530196 -0.002663295598374997 0.00030453565331959464 0.0042414196332863155
 0.00030488616264314237 0.004241375294257179 -0.00027292037506530196 -0.002663295598374997 0.0024435550060973163 0.008220166449536536 0.9972967588271077 -0.020425657909073615
 -0.00027287435425975824 -0.0026632915595868616 0.00030453565331959464 0.0042414196332863155 0.9972967588271077 -0.020425657909073615 0.0024435980878038067 0.008220164893122089
0.037515631513130004 0.002666479159836156 0.009926758716130248 0.9970039911372771 -0.024548114454365007 0.000380529245679129 0.005092141130856912 -0.00033751374216478227 -0.0032003920687078266
 0.9970039911372771 -0.024548114454365007 0.002666443844757158 0.009926768878204421 -0.000337579680222445 -0.003200396116574609 0.0003800241775555047 0.005092202946365754
 0.000380529245679129 0.005092141130856912 -0.000337579680222445 -0.003200396116574609 0.002666439277944778 0.009927264269873217 0.9970040002331872 -0.024547613114923726
 -0.00033751374216478227 -0.0032003920687078266 0.0003800241775555047 0.005092202946365754 0.9970040002331872 -0.024547613114923726 0.002666501332056359 0.00992726320285336
0.043768236765320004 0.0029051452740560604 0.011652067894942329 0.9966895731126855 -0.028684304831459777 0.0004652872467867397 0.005943622936578453 -0.0004097493686637118 -0.003738563223085301
 0.9966895731126855 -0.028684304831459777 0.002905097208027113 0.01165208174292974 -0.0004098387127545387 -0.0037385669291685915 0.00046459920455548697 0.005943705941049686
 0.0004652872467867397 0.005943622936578453 -0.0004098387127545387 -0.0037385669291685915 0.0029050906074483285 0.01165265759397161 0.9966895851731369 -0.028683719968882776
 -0.0004097493686637118 -0.003738563223085301 0.00046459920455548697 0.005943705941049686 0.9966895851731369 -0.028683719968882776 0.002905175103934739 0.011652657309132784
0.050020842017509996 0.0031598995052973832 0.013395199439988272 0.9963532005191944 -0.032834734039764606 0.0005592524570301352 0.006795717511573927 -0.0004896776245271854 -0.00427767142487845
 0.9963532005191944 -0.032834734039764606 0.003159836734807975 0.013395217709054727 -0.0004897938337784689 -0.004277674401864595 0.0005583528931200959 0.0067958257902608595
 0.0005592524570301352 0.006795717511573927 -0.0004897938337784689 -0.004277674401864595 0.003159827707802573 0.013395873276436277 0.9963532159656638 -0.03283406560031386
 -0.0004896776245271854 -0.00427767142487845 0.0005583528931200959 0.0067958257902608595 0.9963532159656638 -0.03283406560031386 0.0031599381283975996 0.013395874078247388
0.055454545454549996 0.0033945997626071076 0.01492418976649675 0.9960428207951093 -0.03645315597613178 0.0006484590588969669 0.007536625079606697 -0.0005654584672031161 -0.0047468314340600335
 0.9960428207951093 -0.03645315597613178 0.0033945226323964543 0.01492421252451818 -0.0005656008101404791 -0.004746833434608851 0.0006473523861747995 0.007536758934313202
 0.0006484590588969669 0.007536625079606697 -0.0005656008101404791 -0.004746833434608851 0.0033945111644326734 0.014924936717121707 0.9960428395281928 -0.036452414848554895
 -0.0005654584672031161 -0.0047468314340600335 0.0006473523861747995 0.007536758934313202 0.9960428395281928 -0.036452414848554895 0.00339464695143032 0.014924938719716592
0.056273447269699996 0.003431057997724959 0.015155745723826287 0.9959945746806118 -0.03699941247791691 0.0006625157394547151 0.0076483138095438385 -0.0005773929689598769 -0.004817584905496239
 0.9959945746806118 -0.03699941247791691 0.0034309785762089767 0.015155769213364957 -0.0005775394739505483 -0.004817586729658518 0.000661375969742202 0.007648451826757168
 0.0006625157394547151 0.0076483138095438385 -0.0005775394739505483 -0.004817586729658518 0.0034309667130078105 0.015156503690694269 0.9959945939371573 -0.0369986603927922
 -0.0005773929689598769 -0.004817584905496239 0.000661375969742202 0.007648451826757168 0.9959945939371573 -0.0369986603927922 0.0034311065523580492 0.015156505895435674
0.06252605252188 0.0037189346640279846 0.01693334061453654 0.9956133965222856 -0.04117829775456928 0.000775166374839995 0.008501294588145077 -0.0006729879100259579 -0.005358172089238706
 0.9956133965222856 -0.04117829775456928 0.00371883665440765 0.016933370188941387 -0.0006731681135667719 -0.005358172300458843 0.0007737575762296487 0.008501467193655333
 0.000775166374839995 0.008501294588145077 -0.0006731681135667719 -0.005358172300458843 0.0037188215266703573 0.016934182707177024 0.995613420017898 -0.04117746193853932
 -0.0006729879100259579 -0.005358172089238706 0.0007737575762296487 0.008501467193655333 0.995613420017898 -0.04117746193853932 0.003718994294181173 0.016934186643087316
0.06877865777407 0.004023841367282784 0.018727645168444156 0.9952093670047217 -0.045371308932256736 0.0008972919319016836 0.009354537386032131 -0.0007765529596547523 -0.005899300634680806
 0.9952093670047217 -0.045371308932256736 0.0040237228438949595 0.018727681757879946 -0.0007767702373079161 -0.0058992987365100455 0.0008955851399858571 0.009354749821602013
 0.0008972919319016836 0.009354537386032131 -0.0007767702373079161 -0.0058992987365100455 0.004023704002218927 0.018728571381671322 0.9952093951729923 -0.04537038928682858
 -0.0007765529596547523 -0.005899300634680806 0.0008955851399858571 0.009354749821602013 0.9952093951729923 -0.04537038928682858 0.004023913223552349 0.01872857738883318
0.07503126302626001 0.004346088001783688 0.02053833854597295 0.994782187459114 -0.04957833555287158 0.0010289781475283472 0.010207915152149867 -0.0008881765764575887 -0.00644083682853442
 0.994782187459114 -0.04957833555287158 0.004345947052348333 0.020538383147091343 -0.0008884342769171904 -0.006440832288221836 0.001026944255091331 0.010208173058151162
 0.0010289781475283472 0.010207915152149867 -0.0008884342769171904 -0.006440832288221836 0.004345924024025968 0.020539348875603113 0.9947822207391609 -0.04957733196491819
 -0.0008881765764575887 -0.00644083682853442 0.001026944255091331 0.010208173058151162 0.9947822207391609 -0.04957733196491819 0.004346173242517657 0.020539357306084194
0.08128386827845 0.004685982512191938 0.02236511197570171 0.9943315598658422 -0.05379924361995769 0.0011703088152926068 0.011061296670756823 -0.0010079450986942276 -0.006982645188708757
 0.9943315598658422 -0.05379924361995769 0.004685817240886089 0.022365165652259794 -0.0010082465441232451 -0.006982637437249019 0.0011679185715050523 0.011061606092828101
 0.0011703088152926068 0.011061296670756823 -0.0010082465441232451 -0.006982637437249019 0.004685789526952865 0.022366206419262395 0.994331598702714 -0.05379815596129294
 -0.0010079450986942276 -0.006982645188708757 0.0011679185715050523 0.011061606092828101 0.994331598702714 -0.05379815596129294 0.0046860823054074505 0.022366217636941965
0.08753647353064001 0.005043830871493365 0.024207664584517518 0.9938571870941602 -0.05803387972022226 0.0013213656793913413 0.011914546856533592 -0.001135942670853758 -0.007524588202383706
 0.9938571870941602 -0.05803387972022226 0.005043639400476899 0.024207728468062063 -0.0011362911569907572 -0.007524576634570106 0.0013185896889192049 0.011914914252396781
 0.0013213656793913413 0.011914546856533592 -0.0011362911569907572 -0.007524576634570106 0.005043606473240987 0.024208843140319184 0.993857231939253 -0.05803270784883733
 -0.001135942670853758 -0.007524588202383706 0.0013185896889192049 0.011914914252396781 0.993857231939253 -0.05803270784883733 0.005043946395374813 0.024208857520894793
0.09378907878283 0.005419937029180629 0.026065700409538275 0.9933587731175811 -0.062282073969333086 0.0014822283312075043 0.012767526977970917 -0.0012722511658686173 -0.008066526141124835
 0.9933587731175811 -0.062282073969333086 0.005419717501518109 0.026065775699931255 -0.0012726499622189593 -0.008066510115588848 0.0014790370537369187 0.012767959224225713
 0.0014822283312075043 0.012767526977970917 -0.0012726499622189593 -0.008066510115588848 0.0054196788024045315 0.02606696307840747 0.9933588244296019 -0.06228081772788954
 -0.0012722511658686173 -0.008066526141124835 0.0014790370537369187 0.012767959224225713 0.9933588244296019 -0.06228081772788954 0.005420069474351397 0.026066981009220766
0.100041684035 0.005814602840533656 0.02793892622307368 0.9928360232121411 -0.06654364215021837 0.00165297410837163 0.01362009482550577 -0.0014169501037662032 -0.008608316936697589
 0.9928360232121411 -0.06654364215021837 0.005814353422779889 0.027939014189037964 -0.0014174024536343448 -0.008608295775961021 0.00164933785865048 0.01362059922459126
 0.00165297410837163 0.01362009482550577 -0.0014174024536343448 -0.008608295775961021 0.0058143083587691565 0.027940273005607013 0.992836081456992 -0.06654230136920537
 -0.0014169501037662032 -0.008608316936697589 0.00164933785865048 0.01362059922459126 0.992836081456992 -0.06654230136920537 0.0058147534110431906 0.027940294885527888
0.1059090909091 0.006202101622631102 0.029710304853784755 0.9923230833795247 -0.07055466007047993 0.0018222563307146561 0.014419634751832203 -0.0015604344232095857 -0.009116467628984291
 0.9923230833795247 -0.07055466007047993 0.006201822511549916 0.029710405930052253 -0.0015609399537825763 -0.009116441001134203 0.0018181753941022376 0.01442021388559722
 0.0018222563307146561 0.014419634751832203 -0.0015609399537825763 -0.009116441001134203 0.006201770902826685 0.029711730572945592 0.992323148561191 -0.07055323978872872
 -0.0015604344232095857 -0.009116467628984291 0.0018181753941022376 0.01442021388559722 0.992323148561191 -0.07055323978872872 0.0062022703102104695 0.02971175653149486
0.1062942892872 0.00622812797938257 0.029827049887420073 0.9922886441417044 -0.07081838732827477 0.0018336779953697195 0.014472104845302572 -0.0015701165680576034 -0.00914981609679173
 0.9922886441417044 -0.07081838732827477 0.006227846863666054 0.029827151866990132 -0.001570625688532234 -0.00914978908732611 0.0018295669430338846 0.014472689132431894
 0.0018336779953697195 0.014472104845302572 -0.001570625688532234 -0.00914978908732611 0.006227794805209688 0.029828480788862285 0.9922887097936589 -0.07081696182138723
 -0.0015701165680576034 -0.00914981609679173 0.0018295669430338846 0.014472689132431894 0.9922887097936589 -0.07081696182138723 0.006228297894209951 0.029828507028044966
0.11254689453939999 0.006660809839199896 0.03172977910845717 0.9917163443360454 -0.07510610107373689 0.0020244125249977126 0.015323408252953682 -0.0017318251200353968 -0.009690876646543233
 0.9917163443360454 -0.07510610107373689 0.006660495246518808 0.0317298965094245 -0.0017323942020797541 -0.009690843038817471 0.0020197966949065476 0.01532408060320621
 0.0020244125249977126 0.015323408252953682 -0.0017323942020797541 -0.009690843038817471 0.006660435524607051 0.0317312941341103 0.9917164178780937 -0.07510459064291011
 -0.0017318251200353968 -0.009690876646543233 0.0020197966949065476 0.01532408060320621 0.9917164178780937 -0.07510459064291011 0.006661000334032955 0.0317313251538006
0.11879949979160001 0.0071129434266496904 0.03364682046122286 0.9911188340623203 -0.07940656441911835 0.00222524768116615 0.016173853127656092 -0.0019021477114397288 -0.010231349095404902
 0.9911188340623203 -0.07940656441911835 0.007112593608887934 0.03364695476152088 -0.0019027799197605777 -0.010231308103939038 0.002220096953751057 0.0161746221630894
 0.00222524768116615 0.016173853127656092 -0.0019027799197605777 -0.010231308103939038 0.007112525511958625 0.03364841961892202 0.9911189159867795 -0.07940496885245397
 -0.0019021477114397288 -0.010231349095404902 0.002220096953751057 0.0161746221630894 0.9911189159867795 -0.07940496885245397 0.007113155754928166 0.03364845585117112
0.1250521050438 0.007584821245621752 0.035577878626130585 0.990495825591713 -0.08371954861264301 0.002436250801841824 0.01702328449701251 -0.0020811535963497227 -0.010771081419345185
 0.990495825591713 -0.08371954861264301 0.007584434488618682 0.035578031374078396 -0.0020818520692671588 -0.010771032222796679 0.002430534913628334 0.017024159293832726
 0.002436250801841824 0.01702328449701251 -0.0020818520692671588 -0.010771032222796679 0.007584357259930868 0.03557956192792898 0.9904959164007203 -0.08371786768308544
 -0.0020811535963497227 -0.010771081419345185 0.002430534913628334 0.017024159293832726 0.9904959164007203 -0.08371786768308544 0.0075850566806386814 0.03557960381525088
0.131304710296 0.008076733176960504 0.03752265578001621 0.9898470333635441 -0.08804481572384688 0.002657486482943621 0.017871544415970185 -0.002268909241701629 -0.011309919054900253
 0.9898470333635441 -0.08804481572384688 0.008076307803631026 0.037522828594625766 -0.0022696770912697534 -0.011309860796079 0.0026511750272487215 0.017872534511797017
 0.002657486482943621 0.017871544415970185 -0.0022696770912697534 -0.011309860796079 0.00807622063807163 0.0375244232398418 0.989847133569914 -0.08804304919204536
 -0.002268909241701629 -0.011309919054900253 0.0026511750272487215 0.017872534511797017 0.989847133569914 -0.08804304919204536 0.00807699301333999 0.03752447123490551
0.1375573155481 0.008476869860859663 0.03922679430721482 0.9892843148986005 -0.09212794003780375 0.0028613163796163857 0.018692988860290777 -0.0024377900632355535 -0.011822231474773966
 0.9892843148986005 -0.09212794003780375 0.00847640537202704 0.039226985419904756 -0.0024386320341811536 -0.011822164082873135 0.00285439810667128 0.018694092938038677
 0.0028613163796163857 0.018692988860290777 -0.0024386320341811536 -0.011822164082873135 0.008476307160266938 0.03922864576152743 0.9892844249348705 -0.09212608777783882
 -0.0024377900632355535 -0.011822231474773966 0.00285439810667128 0.018694092938038677 0.9892844249348705 -0.09212608777783882 0.008477155837918792 0.03922869746686668
0.1438099208003 0.008891104091716574 0.04092180965302337 0.9887017665337994 -0.096200574182667 0.003073376659708891 0.019511038396996104 -0.002613424655495735 -0.012331437101497325
 0.9887017665337994 -0.096200574182667 0.008890599069179796 0.04092202038551864 -0.002614344115820456 -0.01233135972912463 0.0030658244187061574 0.019512265156433645
 0.003073376659708891 0.019511038396996104 -0.002614344115820456 -0.01233135972912463 0.008890488889019655 0.04092374508163669 0.988701886911096 -0.09619863596256144
 -0.002613424655495735 -0.012331437101497325 0.0030658244187061574 0.019512265156433645 0.988701886911096 -0.09619863596256144 0.008891417608646871 0.040923800679873376
0.1500625260525 0.00931928810237818 0.04260755599836736 0.9880995402730057 -0.10026261280243798 0.0032935929777652387 0.020325606996216456 -0.0027957407017277155 -0.012837454759613107
 0.9880995402730057 -0.10026261280243798 0.009318741175487373 0.0426077877192303 -0.002796741013723714 -0.012837366524907953 0.003285379701371039 0.020326965469774264
 0.0032935929777652387 0.020325606996216456 -0.002796741013723714 -0.012837366524907953 0.009318618056550366 0.04260957537904817 0.9880996715112028 -0.10026058838225511
 -0.0027957407017277155 -0.012837454759613107 0.003285379701371039 0.020326965469774264 0.9880996715112028 -0.10026058838225511 0.009319630582474177 0.042609635056438264
0.15631513130469998 0.00976127305136994 0.04428389191677133 0.9874777889230705 -0.10431395100552096 0.0035218900917701186 0.021136610107807378 -0.002984664977435726 -0.013340205017239603
 0.9874777889230705 -0.10431395100552096 0.009760682898112728 0.04428414604042332 -0.002985749497659853 -0.013340105004016313 0.0035129887954299965 0.021138109659291967
