! Created with skrf 1.8.0 (http://scikit-rf.org).
# GHz S RI R 50.0 
!freq ReS11 ImS11 ReS12 ImS12 ReS13 ImS13
! ReS14 ImS14
! ReS21 ImS21 ReS22 ImS22 ReS23 ImS23
! ReS24 ImS24
! ReS31 ImS31 ReS32 ImS32 ReS33 ImS33
! ReS34 ImS34
! ReS41 ImS41 ReS42 ImS42 ReS43 ImS43
! ReS44 ImS44
!
0.0 0.00128400664044 0.0 0.9987159933596 0.0 4.920263591083e-05 0.0 -4.920263598248e-05 6.025585066555652e-21
 0.9987159933596 0.0 0.001284006640426 0.0 -4.920263598259e-05 6.025585066569123e-21 4.920263590991e-05 0.0
 4.920263591083e-05 0.0 -4.920263598259e-05 6.025585066569123e-21 0.001284006638843 0.0 0.998715993358 0.0
 -4.920263598248e-05 6.025585066555652e-21 4.920263590991e-05 0.0 0.998715993358 0.0 0.001284006638822 0.0
0.005 0.001380879254860914 0.001048813597413582 0.9985935397475916 -0.002690525890317088 6.883587310001386e-05 0.0005548311960435465 -6.688212297163015e-05 -0.0003461480476817127
 0.9985935397475916 -0.002690525890317088 0.0013808708149109276 0.0010488184993464442 -6.68810250806072e-05 -0.00034614716649789825 6.889369233164388e-05 0.0005548092425162012
 6.883587310001386e-05 0.0005548311960435465 -6.68810250806072e-05 -0.00034614716649789825 0.0013808796747934538 0.0010487460661594864 0.9985935394136092 -0.0026905929498419147
 -6.688212297163015e-05 -0.0003461480476817127 6.889369233164388e-05 0.0005548092425162012 0.9985935394136092 -0.0026905929498419147 0.0013808697326840457 0.0010487519169913488
0.006252605252188 0.0014061021236606002 0.0013151784860853674 0.9985614867382842 -0.003363845314305492 7.432789542418592e-05 0.0006938145935684259 -7.178860248950765e-05 -0.00043314645635292315
 0.9985614867382842 -0.003363845314305492 0.001406088930706671 0.0013151847103925218 -7.178689435579322e-05 -0.000433145368707433 7.44182342893489e-05 0.0006937861027920508
 7.432789542418592e-05 0.0006938145935684259 -7.178689435579322e-05 -0.000433145368707433 0.0014061028503598331 0.0013150940782620968 0.9985614862860277 -0.0033639291307930386
 -7.178860248950765e-05 -0.00043314645635292315 7.44182342893489e-05 0.0006937861027920508 0.9985614862860277 -0.0033639291307930386 0.0014060873085218898 0.0013151014972888468
0.01250521050438 0.001537809916080253 0.0026582590229177654 0.998393158742902 -0.006728675944701528 0.00010520560765695739 0.0013880235188177303 -9.917051881317023e-05 -0.0008685240502775409
 0.998393158742902 -0.006728675944701528 0.0015377572409881557 0.00265827243705037 -9.916379038717594e-05 -0.0008685220243680466 0.00010556589886827935 0.0013879553501571235
 0.00010520560765695739 0.0013880235188177303 -9.916379038717594e-05 -0.0008685220243680466 0.0015378133877786498 0.0026580904243637318 0.9983931574987195 -0.006728843355490466
 -9.917051881317023e-05 -0.0008685240502775409 0.00010556589886827935 0.0013879553501571235 0.9983931574987195 -0.006728843355490466 0.0015377513217937262 0.002658106325481685
0.01875781575657 0.0016793788904531175 0.004020820104987952 0.9982108278087419 -0.01010272270959303 0.00014190155995357355 0.0020831313706042415 -0.00013142445530467365 -0.001305512526378744
 0.9982108278087419 -0.01010272270959303 0.001679260536903981 0.0040208417190961505 -0.0001314094546446333 -0.0013055097346899836 0.00014271101327330022 0.002083010441050877
 0.00014190155995357355 0.0020831313706042415 -0.0001314094546446333 -0.0013055097346899836 0.0016793871295468455 0.004020567420522955 0.9982108254339969 -0.010102973629903148
 -0.00013142445530467365 -0.001305512526378744 0.00014271101327330022 0.002083010441050877 0.9982108254339969 -0.010102973629903148 0.0016792476516824665 0.0040205929487686235
0.02501042100875 0.0018310526065870665 0.005400990081147598 0.9980143063615041 -0.013487660332551327 0.00018448217556108357 0.0027791968305018924 -0.00016862458332634155 -0.0017439340380891338
 0.9980143063615041 -0.013487660332551327 0.0018308424379650929 0.0054010209404968205 -0.00016859809826732792 -0.0017439306796733466 0.0001859201407376344 0.002779008239843884
 0.00018448217556108357 0.0027791968305018924 -0.00016859809826732792 -0.0017439306796733466 0.0018310676406209387 0.005400653377832726 0.9980143025154391 -0.013487994741653153
 -0.00016862458332634155 -0.0017439340380891338 0.0001859201407376344 0.002779008239843884 0.9980143025154391 -0.013487994741653153 0.0018308199182251281 0.005400689748729616
0.03126302626094 0.0019930643103829564 0.006797825441383318 0.9978033959542708 -0.016884229120654945 0.00023301447052098833 0.003476213840654148 -0.00021084331738002875 -0.0021836720186909626
 0.9978033959542708 -0.016884229120654945 0.0019927362356222706 0.0067978666240191546 -0.0002108021685048989 -0.002183668319579459 0.00023526061038681398 0.003475940861505526
 0.00023301447052098833 0.003476213840654148 -0.0002108021685048989 -0.002183668319579459 0.001993088172263934 0.006797404784887717 0.997803390292948 -0.016884647025654145
 -0.00021084331738002875 -0.0021836720186909626 0.00023526061038681398 0.003475940861505526 0.997803390292948 -0.016884647025654145 0.001992701412556492 0.006797453282252816
0.037515631513130004 0.0021656423853696123 0.008210725902773086 0.9975778928346671 -0.020292819828237215 0.000287565465386574 0.004174151190537625 -0.0002581518685996767 -0.0026246315898973056
 0.9975778928346671 -0.020292819828237215 0.002165170349880904 0.008210778518118085 -0.00025809290568939915 -0.002624627803232623 0.0002907998378466217 0.004173775249501872
 0.000287565465386574 0.004174151190537625 -0.00025809290568939915 -0.002624627803232623 0.0021656771174467624 0.008210221367504765 0.9975778850132856 -0.0202933212539652
 -0.0002581518685996767 -0.0026246315898973056 0.0002907998378466217 0.004173775249501872 0.9975778850132856 -0.0202933212539652 0.0021651205571969457 0.00821028334248627
0.043768236765320004 0.0023490124646508444 0.009639256432882137 0.997337590170877 -0.02371365157748211 0.000348201915667899 0.004872964561782497 -0.0003106204535896644 -0.0030667275077574507
 0.997337590170877 -0.02371365157748211 0.0023483704434324342 0.009639321620660288 -0.0003105405534135622 -0.003066723913836651 0.00035260501672337705 0.004872465217754328
 0.000348201915667899 0.004872964561782497 -0.0003105405534135622 -0.003066723913836651 0.0023490601175613153 0.00963866809451475 0.9973375798418818 -0.023714236573967772
 -0.0003106204535896644 -0.0030667275077574507 0.00035260501672337705 0.004872465217754328 0.9973375798418818 -0.023714236573967772 0.0023483030159918198 0.009638744964937988
0.050020842017509996 0.0025433984206561715 0.011083073664889096 0.9970822791564844 -0.027146845385281417 0.0004149901544693578 0.0055726014943138615 -0.0003683183810090394 -0.00350987918663426
 0.9970822791564844 -0.027146845385281417 0.0025425604118427796 0.011083152594271258 -0.00036821444587402044 -0.0035098760929151594 0.00042074294062207946 0.005571956415595418
 0.0004149901544693578 0.0055726014943138615 -0.00036821444587402044 -0.0035098760929151594 0.0025434610536054004 0.011082401609998021 0.9970822659688301 -0.027147514018153723
 -0.0003683183810090394 -0.00350987918663426 0.00042074294062207946 0.005571956415595418 0.9970822659688301 -0.027147514018153723 0.0025424726859080357 0.01108249486002752
0.055454545454549996 0.002721444875626077 0.012349984756535008 0.9968480543477432 -0.03014048126959845 0.0004780782833173817 0.00618123096270981 -0.00042275966311433236 -0.003895787934575701
 0.9968480543477432 -0.03014048126959845 0.002720415444925278 0.0123500765995364 -0.00042263234422961995 -0.0038957855463201646 0.00048515131103183534 0.006180439614089918
 0.0004780782833173817 0.00618123096270981 -0.00042263234422961995 -0.0038957855463201646 0.0027215222067534664 0.01234924002527109 0.9968480383883025 -0.030141222653228425
 -0.00042275966311433236 -0.003895787934575701 0.00048515131103183534 0.006180439614089918 0.9968480383883025 -0.030141222653228425 0.002720307917982276 0.012349348766372496
0.056273447269699996 0.002749022881022749 0.012541889812082837 0.9968117496441821 -0.030592460190812253 0.00048799598543337023 0.006273003821586994 -0.00043131408251498055 -0.003954008254761382
 0.9968117496441821 -0.030592460190812253 0.0027479629005548777 0.012541983680848447 -0.00043118303924802597 -0.003954005995843612 0.000495279884039582 0.006272188762427302
 0.00048799598543337023 0.006273003821586994 -0.00043118303924802597 -0.003954005995843612 0.002749102563259952 0.012541134134399137 0.9968117332437686 -0.03059321254485485
 -0.00043131408251498055 -0.003954008254761382 0.000495279884039582 0.006272188762427302 0.9968117332437686 -0.03059321254485485 0.002747852215372055 0.012541245314334684
0.06252605252188 0.0029661075210238174 0.014015452803669752 0.9965257905573064 -0.03405051266216234 0.0005672845992360753 0.006974109007532871 -0.0004996751171672285 -0.004399037209261272
 0.9965257905573064 -0.03405051266216234 0.0029647995973958122 0.014015562837682842 -0.0004995139164214556 -0.004399036146880819 0.0005762815104352058 0.00697309778441012
 0.0005672845992360753 0.006974109007532871 -0.0004995139164214556 -0.004399036146880819 0.002966206330797187 0.014014613607501187 0.9965257705850957 -0.034051348837892445
 -0.0004996751171672285 -0.004399037209261272 0.0005762815104352058 0.00697309778441012 0.9965257705850957 -0.034051348837892445 0.0029646632939374857 0.01401474433374219
0.06877865777407 0.003194873226233787 0.015503534452485363 0.9962241901735919 -0.03752098897234421 0.0006529205038618492 0.007675850941558924 -0.0005734681595238146 -0.004844888614690509
 0.9962241901735919 -0.03752098897234421 0.003193291395403268 0.015503661905165325 -0.0005732737752123408 -0.004844889137698314 0.0006638127969334942 0.007674615409283575
 0.0006529205038618492 0.007675850941558924 -0.0005732737752123408 -0.004844889137698314 0.003194993252422647 0.015502611848922017 0.996224166266417 -0.03752190908976664
 -0.0005734681595238146 -0.004844888614690509 0.0006638127969334942 0.007674615409283575 0.996224166266417 -0.03752190908976664 0.003193126818467544 0.015502763803968594
0.07503126302626001 0.003435540184687012 0.01700592294999818 0.9959067363417328 -0.04100385224968364 0.0007449674627941051 0.008378160437841082 -0.0006527589777210904 -0.005291484598947746
 0.9959067363417328 -0.04100385224968364 0.003433658485379892 0.017006069101946856 -0.0006525284066555274 -0.005291487123284203 0.0007579379687159972 0.00837667046562771
 0.0007449674627941051 0.008378160437841082 -0.0006525284066555274 -0.005291487123284203 0.003435683527113304 0.017004917064117674 0.9959067081314041 -0.041004856440828505
 -0.0006527589777210904 -0.005291484598947746 0.0007579379687159972 0.00837667046562771 0.9959067081314041 -0.041004856440828505 0.003433462983867862 0.017005091996846192
0.08128386827845 0.0036883279331369964 0.018522417873971367 0.9955732166527087 -0.04449904751691085 0.000843488437919185 0.009080965574014468 -0.0007376124058547116 -0.0057387465116206255
 0.9955732166527087 -0.04449904751691085 0.0036861204015561527 0.018522584032740274 -0.0007373426673999606 -0.005738751480288947 0.0008587204379873465 0.009079189021604867
 0.000843488437919185 0.009080965574014468 -0.0007373426673999606 -0.005738751480288947 0.0036884967020657166 0.018521328836323892 0.9955731837649345 -0.04450013593440269
 -0.0007376124058547116 -0.0057387465116206255 0.0008587204379873465 0.009079189021604867 0.9955731837649345 -0.04450013593440269 0.0036858913285959145 0.018521528562259092
0.08753647353064001 0.00395345537123507 0.02005282672731244 0.9952234185825353 -0.04800650510142744 0.0009485455353395703 0.009784191918552393 -0.0008280923112534243 -0.006186594695616006
 0.9952234185825353 -0.04800650510142744 0.003950896036663911 0.020053014227229746 -0.0008277804471428185 -0.006186602578656616 0.000966222747880165 0.009782094612386778
 0.0009485455353395703 0.009784191918552393 -0.0008277804471428185 -0.006186602578656616 0.003953651688589511 0.020051654681128062 0.9952233806371669 -0.048007677910959494
 -0.0008280923112534243 -0.006186594695616006 0.000966222747880165 0.009782094612386778 0.9952233806371669 -0.048007677910959494 0.003950630750920557 0.020051881082868178
0.09378907878283 0.004231140757323022 0.02159696247148053 0.994857129617912 -0.05152614305268793 0.0010601999535515597 0.010487762698049127 -0.000924261558744363 -0.00663494832089843
 0.994857129617912 -0.05152614305268793 0.004228203637021732 0.0215971726737184 -0.0009239046329163883 -0.006634959615357855 0.0010805065180592957 0.010485308407569312
 0.0010601999535515597 0.010487762698049127 -0.0009239046329163883 -0.006634959615357855 0.0042313667568915 0.02159570756740548 0.9948570862281643 -0.05152740043817621
 -0.000924261558744363 -0.00663494832089843 0.0010805065180592957 0.010485308407569312 0.9948570862281643 -0.05152740043817621 0.004227899503195905 0.021595962595250328
0.100041684035 0.0045216016872089045 0.023154641714451564 0.9944741373676653 -0.055057868907519555 0.0011785119322212437 0.011191598918511276 -0.0010261819727520915 -0.007083725266331683
 0.9944741373676653 -0.055057868907519555 0.004518260781587689 0.02315487600709715 -0.001025777071239868 -0.007083740496226322 0.0012016323919223837 0.011188749332618344
 0.0011785119322212437 0.011191598918511276 -0.001025777071239868 -0.007083740496226322 0.004521859515076223 0.02315330411316259 0.9944740881397849 -0.0550592110682948
 -0.0010261819727520915 -0.007083725266331683 0.0012016323919223837 0.011188749332618344 0.9944740881397849 -0.0550592110682948 0.004517915171261546 0.02315358978572876
0.1059090909091 0.004805980903993648 0.02462851477308989 0.9940993593104074 -0.05838292241911712 0.0012956429290375056 0.011852243742613155 -0.0011271082184126826 -0.007505165473247033
 0.9940993593104074 -0.05838292241911712 0.004802237423060445 0.02462877295871817 -0.0011266556661829773 -0.007505184896719083 0.001321572113798825 0.01184898649646622
 0.0012956429290375056 0.011852243742613155 -0.0011266556661829773 -0.007505184896719083 0.004806270562261399 0.02462709972374197 0.994099304239063 -0.05838434432793786
 -0.0011271082184126826 -0.007505165473247033 0.001321572113798825 0.01184898649646622 0.994099304239063 -0.05838434432793786 0.004801850507733468 0.02462741605063085
0.1062942892872 0.004825055063706386 0.02472568334045095 0.9940742296664918 -0.05860158101579739 0.001303540702254838 0.011895619458940403 -0.001133914297206814 -0.00753284203149609
 0.9940742296664918 -0.05860158101579739 0.00482128435150905 0.024725943138807778 -0.0011334585280402864 -0.007532861747784992 0.0013296599850345823 0.011892334162569681
 0.001303540702254838 0.011895619458940403 -0.0011334585280402864 -0.007532861747784992 0.00482534687846339 0.024724263212186695 0.9940741741989888 -0.05860300816690021
 -0.001133914297206814 -0.00753284203149609 0.0013296599850345823 0.011892334162569681 0.9940741741989888 -0.05860300816690021 0.004820894643967913 0.024724581617228396
0.11254689453939999 0.005141717056661409 0.026309907471053235 0.993657194671702 -0.062157169537305976 0.001435344436355959 0.012599741144077598 -0.0012475181538770387 -0.007982213671450022
 0.993657194671702 -0.062157169537305976 0.0051374904898793695 0.026310194217989278 -0.001247008647078114 -0.007982238451992462 0.0014646478342495537 0.012595977595058294
 0.001435344436355959 0.012599741144077598 -0.001247008647078114 -0.007982238451992462 0.00514204502983716 0.026308404994351747 0.9936571325548368 -0.06215868191041148
 -0.0012475181538770387 -0.007982213671450022 0.0014646478342495537 0.012595977595058294 0.9936571325548368 -0.06215868191041148 0.005137054072609052 0.026308758289826956
0.11879949979160001 0.005471803056635451 0.02790713464520548 0.9932228209553542 -0.06572451722216865 0.0015739801994850097 0.013303878801698405 -0.0013670519997586884 -0.008431753749424982
 0.9932228209553542 -0.06572451722216865 0.005467094555828073 0.02790744981173441 -0.0013664859073055052 -0.008431784198940605 0.0016066533471980956 0.013299592307749889
 0.0015739801994850097 0.013303878801698405 -0.0013664859073055052 -0.008431784198940605 0.005472169373149002 0.027905550006536658 0.9932227517707565 -0.06572611506571095
 -0.0013670519997586884 -0.008431753749424982 0.0016066533471980956 0.013299592307749889 0.9932227517707565 -0.06572611506571095 0.005466608825659368 0.027905940421568118
0.1250521050438 0.00581552762400129 0.029517185174315622 0.9927708975940122 -0.06930350001873027 0.001719503899925977 0.014007945313091949 -0.0014925730833159848 -0.008881374298617377
 0.9927708975940122 -0.06930350001873027 0.005810311072961345 0.029517530260287715 -0.0014919475791705312 -0.008881411048647257 0.0017557327517558926 0.01400308900913768
 0.001719503899925977 0.014007945313091949 -0.0014919475791705312 -0.008881411048647257 0.005815934482745888 0.029515518570980986 0.9927708209141216 -0.06930518359478699
 -0.0014925730833159848 -0.008881374298617377 0.0017557327517558926 0.01400308900913768 0.9927708209141216 -0.06930518359478699 0.005809773436899739 0.02951594840718409
0.131304710296 0.006173104433124899 0.03113987862050328 0.9923012142553542 -0.07289398756121572 0.001871970240188961 0.014711851652328634 -0.001624137399652868 -0.009330985797676593
 0.9923012142553542 -0.07289398756121572 0.00616735367387347 0.031140255155405402 -0.0016234496797679385 -0.009331029506535232 0.0019119410463406897 0.014706376477997883
 0.001871970240188961 0.014711851652328634 -0.0016234496797679385 -0.009331029506535232 0.006173554047039581 0.031138130257371208 0.9923011296428765 -0.07289575714835606
 -0.001624137399652868 -0.009330985797676593 0.0019119410463406897 0.014706376477997883 0.9923011296428765 -0.07289575714835606 0.0061667615498328466 0.03113860189021543
0.1375573155481 0.006456913170501634 0.03256241486465167 0.991901420257471 -0.07628315227694343 0.002010289522439662 0.015393396921976672 -0.00174061130395196 -0.009758428902286526
 0.991901420257471 -0.07628315227694343 0.006450599348900175 0.0325628151543516 -0.0017398571372188542 -0.00975847952059897 0.0020540936662649793 0.015387316281755322
 0.002010289522439662 0.015393396921976672 -0.0017398571372188542 -0.00975847952059897 0.006457407018422321 0.03256058504087397 0.9919013273513669 -0.07628500804327604
 -0.00174061130395196 -0.009758428902286526 0.0020540936662649793 0.015387316281755322 0.9919013273513669 -0.07628500804327604 0.006449950755759859 0.032561091260959504
0.1438099208003 0.006750495352326517 0.03397840870405493 0.9914879565407505 -0.07966470328647814 0.0021541910933714336 0.01607282918055146 -0.001861762522686132 -0.010183917177578938
 0.9914879565407505 -0.07966470328647814 0.006743591820569633 0.033978833685923644 -0.0018609388795334436 -0.010183975344683889 0.002201998064704016 0.016066098775801566
 0.0021541910933714336 0.01607282918055146 -0.0018609388795334436 -0.010183975344683889 0.006751035534642261 0.033976497661036234 0.9914878549050632 -0.07966664550621506
 -0.001861762522686132 -0.010183917177578938 0.002201998064704016 0.016066098775801566 0.9914878549050632 -0.07966664550621506 0.0067428843007473465 0.03397704023672058
0.1500625260525 0.0070537600147129575 0.035387770482109594 0.9910609172314814 -0.08303858601956025 0.002303632578630601 0.016750100251864315 -0.001987549416329552 -0.010607403390090168
 0.9910609172314814 -0.08303858601956025 0.007046240064275463 0.03538822115828368 -0.0019866532709987205 -0.01060746977091741 0.002355611043067159 0.01674267418233617
 0.002303632578630601 0.016750100251864315 -0.0019866532709987205 -0.01060746977091741 0.0070543486368438955 0.03538577846965369 0.9910608064219472 -0.08304061497979161
 -0.001987549416329552 -0.010607403390090168 0.002355611043067159 0.01674267418233617 0.9910608064219472 -0.08304061497979161 0.007045471178071896 0.03538635926617339
0.15631513130469998 0.007366615690893286 0.036790413409012665 0.990620396778294 -0.08640474554551554 0.002458571189418037 0.017425162646836995 -0.00211792991126403 -0.01102884121658619
