! Created with skrf 1.8.0 (http://scikit-rf.org).
# GHz S RI R 50.0 
!freq ReS11 ImS11 ReS12 ImS12 ReS13 ImS13
! ReS14 ImS14
! ReS21 ImS21 ReS22 ImS22 ReS23 ImS23
! ReS24 ImS24
! ReS31 ImS31 ReS32 ImS32 ReS33 ImS33
! ReS34 ImS34
! ReS41 ImS41 ReS42 ImS42 ReS43 ImS43
! ReS44 ImS44
!
0.0 0.001680526477864 0.0 0.9983194735221 0.0 6.525715987997e-05 0.0 -6.52571593914e-05 7.991697137012664e-21
 0.9983194735221 0.0 0.001680526477857 0.0 -6.525715939133e-05 7.991697137004092e-21 6.525715987976e-05 0.0
 6.525715987997e-05 0.0 -6.525715939133e-05 7.991697137004092e-21 0.001680526470758 0.0 0.998319473515 0.0
 -6.52571593914e-05 7.991697137012664e-21 6.525715987976e-05 0.0 0.998319473515 0.0 0.001680526470754 0.0
0.005 0.001808601508419327 0.0013705236800221768 0.9981573778457916 -0.0035200379467684637 9.218145810373155e-05 0.0007422741033872386 -8.943715137293184e-05 -0.00046174936355504616
 0.9981573778457916 -0.0035200379467684637 0.001808573873094264 0.0013705398524482893 -8.944215064946128e-05 -0.0004617531932901894 9.2337305665332e-05 0.0007422147355412058
 9.218145810373155e-05 0.0007422741033872386 -8.944215064946128e-05 -0.0004617531932901894 0.0018085993534337499 0.0013705922448368746 0.9981573782152952 -0.0035199708824147427
 -8.943715137293184e-05 -0.00046174936355504616 9.2337305665332e-05 0.0007422147355412058 0.9981573782152952 -0.0035199708824147427 0.0018085767611553864 0.0013706054119330619
0.006252605252188 0.0018423263476955896 0.0017185456202350223 0.9981144098395888 -0.004400889155617308 9.992137512849907e-05 0.0009281845096569812 -9.632766355085286e-05 -0.0005777809441523256
 0.9981144098395888 -0.004400889155617308 0.0018422831480865898 0.0017185661314042778 -9.633544288325166e-05 -0.0005777856650673908 0.0001001648711108631 0.0009281073897928556
 9.992137512849907e-05 0.0009281845096569812 -9.633544288325166e-05 -0.0005777856650673908 0.0018423229100712002 0.0017186313150085696 0.9981144103487563 -0.004400805337799829
 -9.632766355085286e-05 -0.0005777809441523256 0.0001001648711108631 0.0009281073897928556 0.9981144103487563 -0.004400805337799829 0.0018422875944845078 0.0017186480621898983
0.01250521050438 0.0020206442702416553 0.0034730371691952815 0.9978856525866049 -0.008802452745319732 0.00014456177246869632 0.00185661507921576 -0.00013576482389610563 -0.0011582963592021093
 0.9978856525866049 -0.008802452745319732 0.0020204717658088094 0.0034730811930356958 -0.0001357954819613888 -0.0011583050695770608 0.00014553275471560813 0.001856429267694983
 0.00014456177246869632 0.00185661507921576 -0.0001357954819613888 -0.0011583050695770608 0.0020206299568630444 0.003473208347414654 0.9978856540401666 -0.00880228534261012
 -0.00013576482389610563 -0.0011582963592021093 0.00014553275471560813 0.001856429267694983 0.9978856540401666 -0.00880228534261012 0.0020204889429267293 0.003473244723886744
0.01875781575657 0.0022158968033205097 0.005252374108168864 0.997632897951584 -0.01321537522541021 0.00019928741052948706 0.0027859207873970875 -0.00018369654634600862 -0.001740657857594603
 0.997632897951584 -0.01321537522541021 0.0022155091613982117 0.005252444927106409 -0.00018376491471230294 -0.0017406696728640661 0.00020146855692618443 0.0027855881258062928
 0.00019928741052948706 0.0027859207873970875 -0.00018376491471230294 -0.0017406696728640661 0.0022158642078207226 0.005252630737469959 0.9976329007997566 -0.013215124322320623
 -0.00018369654634600862 -0.001740657857594603 0.00020146855692618443 0.0027855881258062928 0.9976329007997566 -0.013215124322320623 0.002215547344009728 0.005252689768319014
0.02501042100875 0.0024284866262910495 0.007054022995543374 0.9973558294634887 -0.017641760233158568 0.00026420788889805426 0.003716126728272741 -0.00024024580908001478 -0.0023245732757529833
 0.9973558294634887 -0.017641760233158568 0.002427798171966343 0.007054124142090182 -0.0002403665411121162 -0.002324587143467185 0.000268082002468407 0.0037156026771923024
 0.00026420788889805426 0.003716126728272741 -0.0002403665411121162 -0.002324587143467185 0.002428428340108087 0.007054365125746793 0.9973558341495339 -0.01764142585868659
 -0.00024024580908001478 -0.0023245732757529833 0.000268082002468407 0.0037156026771923024 0.9973558341495339 -0.01764142585868659 0.0024278656126407346 0.007054449955516943
0.03126302626094 0.0026587997221589753 0.008876661951191552 0.9970541155636035 -0.022082486088387754 0.0003394327008501475 0.004647169084487027 -0.0003055316119952424 -0.002909831756223152
 0.9970541155636035 -0.022082486088387754 0.0026577248889180886 0.008876797202992738 -0.0003057192126572921 -0.0029098464543221513 0.0003454831454398607 0.004646402684922501
 0.0003394327008501475 0.004647169084487027 -0.0003057192126572921 -0.0029098464543221513 0.0026587083395729623 0.008877089677066633 0.9970541225332539 -0.022082068253343058
 -0.0003055316119952424 -0.002909831756223152 0.0003454831454398607 0.004646402684922501 0.9970541225332539 -0.022082068253343058 0.002657829830254629 0.008877203564087529
0.037515631513130004 0.002907213375287441 0.010719415337965514 0.9967274179311503 -0.026537971051081966 0.00042507025363669297 0.00557894864235446 -0.00037966986179560755 -0.0034962502680451987
 0.9967274179311503 -0.026537971051081966 0.002905666671362211 0.010719588715867177 -0.00037993870272283995 -0.003496264404324938 0.0004337811416687538 0.005577882451842164
 0.00042507025363669297 0.00557894864235446 -0.00037993870272283995 -0.003496264404324938 0.0029070814914868735 0.010719928812950879 0.9967274276335341 -0.02653746973468113
 -0.00037966986179560755 -0.0034962502680451987 0.0004337811416687538 0.005577882451842164 0.9967274276335341 -0.02653746973468113 0.0029058173474651367 0.01072007512634147
0.043768236765320004 0.003174099243968559 0.012581620898160388 0.9963753948791434 -0.03100840611467219 0.00052122738966209 0.006511347076878979 -0.0004627736792093227 -0.004083657348037429
 0.9963753948791434 -0.03100840611467219 0.003171995225835371 0.012581836665918849 -0.0004631380075167055 -0.004083669360023493 0.0005330836639801765 0.0065099170977663086
 0.00052122738966209 0.006511347076878979 -0.0004631380075167055 -0.004083669360023493 0.003173919451333488 0.012582220314668675 0.9963754077648096 -0.031007821284874563
 -0.0004627736792093227 -0.004083657348037429 0.0005330836639801765 0.0065099170977663086 0.9963754077648096 -0.031007821284874563 0.003172199860294229 0.012582402532199126
0.050020842017509996 0.003459824775943795 0.014462733493886864 0.9959977030957798 -0.035493851194693525 0.0006280090877528366 0.007444233692189054 -0.0005549534977728823 -0.004671886387793582
 0.9959977030957798 -0.035493851194693525 0.003457078024410496 0.014462996158891938 -0.0005554274415765682 -0.004671894542723437 0.000643496546821308 0.007442369296831655
 0.0006280090877528366 0.007444233692189054 -0.0005554274415765682 -0.004671894542723437 0.0034595896653952206 0.014463419087661617 0.9959977196195967 -0.0354931828046143
 -0.0005549534977728823 -0.004671886387793582 0.000643496546821308 0.007442369296831655 0.9959977196195967 -0.0354931828046143 0.0034573448324808943 0.014463640794580757
0.055454545454549996 0.0037237117762953294 0.01611246182465899 0.9956483642595126 -0.03940401180184453 0.0007295140306093904 0.008255228532101368 -0.0006425151310849519 -0.005183614610576247
 0.9956483642595126 -0.03940401180184453 0.003720337101902256 0.01611276909561883 -0.0006430957181345615 -0.00518361787416384 0.0007485522852053742 0.008252924051192307
 0.0007295140306093904 0.008255228532101368 -0.0006430957181345615 -0.00518361787416384 0.003723422572704474 0.01611322254182819 0.9956483843168743 -0.03940327073865511
 -0.0006425151310849519 -0.005183614610576247 0.0007485522852053742 0.008252924051192307 0.9956483843168743 -0.03940327073865511 0.0037206646044704045 0.016113481560970342
0.056273447269699996 0.0037647539222806347 0.016362277866000922 0.9955939986881001 -0.03999428230218463 0.0007455182417154685 0.008377468722412473 -0.000656317071117764 -0.005260772364420356
 0.9955939986881001 -0.03999428230218463 0.0037612790210065934 0.016362592180697726 -0.0006569146431345129 -0.0052607747592840395 0.0007651235307277688 0.008375092577141823
 0.0007455182417154685 0.008377468722412473 -0.0006569146431345129 -0.0052607747592840395 0.003764456081081534 0.016363049925627465 0.9955940193083258 -0.039993530281336676
 -0.000656317071117764 -0.005260772364420356 0.0007651235307277688 0.008375092577141823 0.9955940193083258 -0.039993530281336676 0.0037616162077795784 0.01636331481416006
0.06252605252188 0.004089247503983617 0.018279822686322274 0.9951639378826517 -0.04450961742889664 0.0008738554771050445 0.009310905166245765 -0.0007669694339509639 -0.005850150043134154
 0.9951639378826517 -0.04450961742889664 0.00408495901864616 0.018280193650360464 -0.000767704533778126 -0.0058501446047533835 0.0008980660562989425 0.009307933155016629
 0.0008738554771050445 0.009310905166245765 -0.000767704533778126 -0.0058501446047533835 0.004088879515782027 0.01828068153945621 0.9951639630623567 -0.04450878169776742
 -0.0007669694339509639 -0.005850150043134154 0.0008980660562989425 0.009307933155016629 0.9951639630623567 -0.04450878169776742 0.004085374779314554 0.01828099340892796
0.06877865777407 0.004433663390580097 0.020214965058656685 0.9947071775428847 -0.049039731989976625 0.001013118990000514 0.010244389884920031 -0.0008870128355313014 -0.006439852922767011
 0.9947071775428847 -0.049039731989976625 0.00442847584872673 0.020215397921820095 -0.0008878992511340307 -0.006439837407908462 0.0010424230867233564 0.010240731033174681
 0.001013118990000514 0.010244389884920031 -0.0008878992511340307 -0.006439837407908462 0.00443321783517909 0.020215911076829702 0.9947072077503452 -0.049038812456168465
 -0.0008870128355313014 -0.006439852922767011 0.0010424230867233564 0.010240731033174681 0.9947072077503452 -0.049038812456168465 0.004428978368035276 0.020216273834526847
0.07503126302626001 0.00479835656605032 0.022167320728026064 0.9942233755778939 -0.053584468565553545 0.0011634043982212757 0.011177764305746055 -0.00101654665670652 -0.007029712582524886
 0.9942233755778939 -0.053584468565553545 0.004792184437818275 0.022167820993801064 -0.0010175980653128127 -0.007029684578017476 0.0011982909469400737 0.011173320704836117
 0.0011634043982212757 0.011177764305746055 -0.0010175980653128127 -0.007029684578017476 0.004797826018574139 0.02216835433301849 0.9942234112869618 -0.053583465118242725
 -0.00101654665670652 -0.007029712582524886 0.0011982909469400737 0.011173320704836117 0.9942234112869618 -0.053583465118242725 0.004792781888441355 0.02216877199575208
0.08128386827845 0.005183679124734672 0.024136517551893163 0.9937121912862855 -0.058143643388057595 0.0013248046000507267 0.012110864907956622 -0.001155667316707147 -0.007619558253575021
 0.9937121912862855 -0.058143643388057595 0.005176436802790184 0.024137090981824413 -0.0011568972851264214 -0.007619515176471023 0.0013657631726147138 0.012105531640368658
 0.0013248046000507267 0.012110864907956622 -0.0011568972851264214 -0.007619515176471023 0.005183056155667181 0.024137639211126632 0.9937122329770331 -0.05814255590363149
 -0.001155667316707147 -0.007619558253575021 0.0013657631726147138 0.012105531640368658 0.9937122329770331 -0.05814255590363149 0.005177137345261546 0.024138115907428058
0.08753647353064001 0.005589980219226562 0.0261221909993211 0.9931732856556136 -0.06271705080990628 0.0014974096384732251 0.013043523562613474 -0.0013044681718404007 -0.008209216544036058
 0.9931732856556136 -0.06271705080990628 0.005581581999922881 0.026122843618026675 -0.0013058901565524631 -0.008209155641780515 0.0015449303667812973 0.013037188628224903
 0.0014974096384732251 0.013043523562613474 -0.0013058901565524631 -0.008209155641780515 0.005589257394089443 0.02612340122877845 0.9931733338151313 -0.06271587914994818
 -0.0013044681718404007 -0.008209216544036058 0.0015449303667812973 0.013037188628224903 0.9931733338151313 -0.06271587914994818 0.005582393781318643 0.026123941201863055
0.09378907878283 0.006017605976414297 0.02812398093704359 0.9926063216343767 -0.06730446649256996 0.0016813065683183761 0.013975567794442246 -0.0014630394098049569 -0.00879851124975214
 0.9926063216343767 -0.06730446649256996 0.006007966040178547 0.02812471903805604 -0.0014646667567286315 -0.008798429600382287 0.0017358800601705638 0.01396811203787071
 0.0016813065683183761 0.013975567794442246 -0.0014646667567286315 -0.008798429600382287 0.006016775855475951 0.028125280300522363 0.9926063767572559 -0.06730321050573784
 -0.0014630394098049569 -0.00879851124975214 0.0017358800601705638 0.01396811203787071 0.9926063767572559 -0.06730321050573784 0.006008897192830574 0.028125887912030814
0.100041684035 0.006466899389687223 0.0301415292833326 0.9920109643842132 -0.0719056497370717 0.001876579326281373 0.014906820982297092 -0.0016314679396019496 -0.009387263234275389
 0.9920109643842132 -0.0719056497370717 0.006455931781780236 0.030142359435654156 -0.0016333138836139077 -0.009387157746646852 0.0019386965756871223 0.014898118021619295
 0.001876579326281373 0.014906820982297092 -0.0016333138836139077 -0.009387157746646852 0.006465954527854517 0.03014291839245668 0.9920110269728519 -0.07190430926006873
 -0.0016314679396019496 -0.009387263234275389 0.0019386965756871223 0.014898118021619295 0.9920110269728519 -0.07190430926006873 0.006456990422425051 0.030143598126885763
0.1059090909091 0.006908522777024915 0.032048797799523875 0.9914261653010137 -0.07623566640754709 0.0020702402099542936 0.015779823057300836 -0.0017985597918540352 -0.009939088712037752
 0.9914261653010137 -0.07623566640754709 0.006896230977760604 0.032049720558504635 -0.0018006228035751394 -0.009938957892873187 0.002139883290181599 0.015769828286123826
 0.0020702402099542936 0.015779823057300836 -0.0018006228035751394 -0.009938957892873187 0.0069074634671574976 0.032050271728995924 0.9914262353604019 -0.07623424648252415
 -0.0017985597918540352 -0.009939088712037752 0.002139883290181599 0.015769828286123826 0.9914262353604019 -0.07623424648252415 0.0068974166194307905 0.03205102333585776
0.1062942892872 0.006938200193777495 0.03217447824274772 0.9913868815176358 -0.07652034524267728 0.0020833086023407743 0.015837102526578783 -0.0018098372791204046 -0.009975290349985481
 0.9913868815176358 -0.07652034524267728 0.006925818804897421 0.032175407298184654 -0.0018119149434637017 -0.009975157764019351 0.0021534608948023328 0.015827018683432687
 0.0020833086023407743 0.015837102526578783 -0.0018119149434637017 -0.009975157764019351 0.006937133140702136 0.03217595776257743 0.9913869520832534 -0.07651892009567862
 -0.0018098372791204046 -0.009975290349985481 0.0021534608948023328 0.015827018683432687 0.9913869520832534 -0.07651892009567862 0.006927013033328957 0.032176714232625546
0.11254689453939999 0.007431844726733031 0.034222468975747995 0.9907337433269018 -0.0811482844401285 0.002301571712761915 0.01676622798877714 -0.0019982274406278263 -0.010562407395322023
 0.9907337433269018 -0.0811482844401285 0.007417963273619543 0.03422350407719381 -0.002000549836045159 -0.01056224428227953 0.002380250526003045 0.01675462222000275
 0.002301571712761915 0.01676622798877714 -0.002000549836045159 -0.01056224428227953 0.007430648026438889 0.034224039622493596 0.9907338223901992 -0.08114677443032911
 -0.0019982274406278263 -0.010562407395322023 0.002380250526003045 0.01675462222000275 0.9907338223901992 -0.08114677443032911 0.007419301171636212 0.03422487757507163
0.11879949979160001 0.007948165781548243 0.03628514055813352 0.9900512230055508 -0.08578918654503415 0.002531442474200269 0.01769400921619186 -0.0021967148147569106 -0.011148426095219148
 0.9900512230055508 -0.08578918654503415 0.007932697787624047 0.03628628914846288 -0.002199294838685969 -0.011148228858023041 0.0026191393748025912 0.017680733047070827
 0.002531442474200269 0.01769400921619186 -0.002199294838685969 -0.011148228858023041 0.007946831972547447 0.036286803099652175 0.990051311096945 -0.08578759146725026
 -0.0021967148147569106 -0.011148426095219148 0.0026191393748025912 0.017680733047070827 0.990051311096945 -0.08578759146725026 0.007934187417396023 0.036287727422859725
0.1250521050438 0.00848749244957982 0.03836212917166656 0.9893389968646936 -0.09044275938995601 0.002772991078766188 0.018620254455077978 -0.002405372053764516 -0.01173315510154696
 0.9893389968646936 -0.09044275938995601 0.008470351225401877 0.038363399003664686 -0.002408222489201157 -0.011732919975133585 0.002870197615069971 0.018605151914381262
 0.002772991078766188 0.018620254455077978 -0.002408222489201157 -0.011732919975133585 0.008486014064835665 0.03836388442925383 0.9893390945250546 -0.09044107902598904
 -0.002405372053764516 -0.01173315510154696 0.002870197615069971 0.018605151914381262 0.9893390945250546 -0.09044107902598904 0.008472000628301009 0.0383649001601236
0.131304710296 0.009050149957420591 0.04045306746495767 0.988596744544196 -0.09510870009635834 0.0030262839702789915 0.01954476845721776 -0.0026242679538483887 -0.012316400008859568
 0.988596744544196 -0.09510870009635834 0.009031248581215621 0.04045446661206631 -0.0026274014683031807 -0.012316123060501238 0.003133491561606098 0.019527676014011428
 0.0030262839702789915 0.01954476845721776 -0.0026274014683031807 -0.012316123060501238 0.009048519524432702 0.040454916315607686 0.9885968523259331 -0.09510693421407736
 -0.0026242679538483887 -0.012316400008859568 0.003133491561606098 0.019527676014011428 0.9885968523259331 -0.09510693421407736 0.009033065776370851 0.040456028648837086
0.1375573155481 0.009512388929666823 0.04228449782266521 0.9879482799352737 -0.09951344323992947 0.0032603278087345857 0.020440301910240637 -0.002822290402395708 -0.012871025843055066
 0.9879482799352737 -0.09951344323992947 0.009491635188892691 0.042286007580309364 -0.002825725823939665 -0.012870706496007706 0.0033777823210086513 0.02042123541883646
 0.0032603278087345857 0.020440301910240637 -0.002825725823939665 -0.012870706496007706 0.00951059960845331 0.04228644133687879 0.9879483983060153 -0.09951159172574746
 -0.002822290402395708 -0.012871025843055066 0.0033777823210086513 0.02042123541883646 0.9879483983060153 -0.09951159172574746 0.009493627711400485 0.04228762850029891
0.1438099208003 0.00999103593970353 0.04410537102219678 0.9872767334368516 -0.10390611451809108 0.0035037855321509103 0.02133176300468122 -0.0030282043891277683 -0.013421849230192198
 0.9872767334368516 -0.10390611451809108 0.009968341831190537 0.04410699801252383 -0.0030319553281132486 -0.013421483591132594 0.0036319339015933793 0.021310572030617397
 0.0035037855321509103 0.02133176300468122 -0.0030319553281132486 -0.013421483591132594 0.009989080362328023 0.0441074101099099 0.9872768629470272 -0.10390417715175278
 -0.0030282043891277683 -0.013421849230192198 0.0036319339015933793 0.021310572030617397 0.9872768629470272 -0.10390417715175278 0.00997051758488673 0.04410867574119145
0.1500625260525 0.01048590934037603 0.045915508090033634 0.9865822915909689 -0.10828657773035139 0.0037565641179365425 0.02221904627914358 -0.0032419179040747517 -0.013968768400495735
 0.9865822915909689 -0.10828657773035139 0.010461186619792439 0.04591725933452625 -0.003245997934062056 -0.013968352419521941 0.0038958503324387907 0.022195574884001326
 0.0037565641179365425 0.02221904627914358 -0.003245997934062056 -0.013968352419521941 0.010483780140207401 0.04591764370193549 0.9865824328000901 -0.1082845542822787
 -0.0032419179040747517 -0.013968768400495735 0.0038958503324387907 0.022195574884001326 0.9865824328000901 -0.1082845542822787 0.010463553482148358 0.04591899171480337
0.15631513130469998 0.010996826029777187 0.047714735389808666 0.9858651420756679 -0.11265469775625535 0.004018569349859009 0.023102048269047576 -0.003463337711305058 -0.014511683901710457
 0.9858651420756679 -0.11265469775625535 0.010969986204912123 0.047716618320264734 -0.003467760368266337 -0.014511213373177002 0.004169434400346957 0.0230761350718707
