! Created with skrf 1.8.0 (http://scikit-rf.org).
# GHz S RI R 50.0 
!freq ReS11 ImS11 ReS12 ImS12 ReS13 ImS13
! ReS14 ImS14
! ReS21 ImS21 ReS22 ImS22 ReS23 ImS23
! ReS24 ImS24
! ReS31 ImS31 ReS32 ImS32 ReS33 ImS33
! ReS34 ImS34
! ReS41 ImS41 ReS42 ImS42 ReS43 ImS43
! ReS44 ImS44
!
0.0 0.001689636481597 0.0 0.9983103634928 0.0 6.548829273674e-05 0.0 -6.548829220333e-05 8.020002742843464e-21
 0.9983103634928 0.0 0.001689636481546 0.0 -6.548829220229e-05 8.020002742716102e-21 6.548829273467e-05 0.0
 6.548829273674e-05 0.0 -6.548829220229e-05 8.020002742716102e-21 0.001689636494359 0.0 0.9983103635056 0.0
 -6.548829220333e-05 8.020002742843464e-21 6.548829273467e-05 0.0 0.9983103635056 0.0 0.001689636494363 0.0
0.005 0.001818385187540971 0.0013805559530960685 0.9981473987953374 -0.003538876906976955 9.223508815247721e-05 0.0007295629773508266 -8.947981104706995e-05 -0.0004564512140089686
 0.9981473987953374 -0.003538876906976955 0.0018183948674549042 0.001380550325447663 -8.948205804687402e-05 -0.00045645297465079067 9.216935486954554e-05 0.0007295880595249059
 9.223508815247721e-05 0.0007295629773508266 -8.948205804687402e-05 -0.00045645297465079067 0.0018183834825276635 0.0013804897262957511 0.9981473984204006 -0.003538943960273803
 -8.947981104706995e-05 -0.0004564512140089686 9.216935486954554e-05 0.0007295880595249059 0.9981473984204006 -0.003538943960273803 0.001818395830220305 0.00138048245249052
0.006252605252188 0.0018522892812456537 0.0017311124106530052 0.998104191535761 -0.0044244400340674355 9.995460143910254e-05 0.0009122942724971903 -9.63171755629851e-05 -0.0005711475339753451
 0.998104191535761 -0.0044244400340674355 0.001852304412329654 0.001731105242455743 -9.632067179411984e-05 -0.0005711497051432584 9.985190049532588e-05 0.0009123268493192295
 9.995460143910254e-05 0.0009122942724971903 -9.632067179411984e-05 -0.0005711497051432584 0.0018522866976643365 0.0017310296350417026 0.9981041910316059 -0.004424523851686845
 -9.63171755629851e-05 -0.0005711475339753451 9.985190049532588e-05 0.0009123268493192295 0.9981041910316059 -0.004424523851686845 0.0018523059998116467 0.0017310203980963885
0.01250521050438 0.002031566412656667 0.003498328059490957 0.9978741097648041 -0.008849531159647803 0.00014463623958206503 0.0018248572107643227 -0.00013545300028673969 -0.0011449788439616413
 0.9978741097648041 -0.008849531159647803 0.0020316268255688576 0.0034983123835078704 -0.000135466774960569 -0.0011449828594089814 0.00014422671950960672 0.0018249356539523324
 0.00014463623958206503 0.0018248572107643227 -0.000135466774960569 -0.0011449828594089814 0.0020315566454784276 0.003498162859796747 0.997874108304147 -0.00884969856825495
 -0.00013545300028673969 -0.0011449788439616413 0.00014422671950960672 0.0018249356539523324 0.997874108304147 -0.00884969856825495 0.0020316337271828635 0.0034981429085516567
0.01875781575657 0.0022278884614928235 0.00529048936445966 0.9976198115913807 -0.013286010634928022 0.0001996408017468195 0.0027382848498800298 -0.00018302247355753506 -0.0017206353352381355
 0.9976198115913807 -0.013286010634928022 0.0022280242019515352 0.005290463768734485 -0.0001830531861495991 -0.001720640800643117 0.00019872093029843485 0.002738425238999612
 0.0001996408017468195 0.0027382848498800298 -0.0001830531861495991 -0.001720640800643117 0.0022278669292831324 0.005290242030905744 0.9976198087288682 -0.013286261565724386
 -0.00018302247355753506 -0.0017206353352381355 0.00019872093029843485 0.002738425238999612 0.9976198087288682 -0.013286261565724386 0.0022280401509982024 0.005290209735060796
0.02501042100875 0.002441661821721315 0.007105048955065655 0.997340977552362 -0.01773599159572528 0.0002650773429864723 0.0036525924171585803 -0.00023914751312785457 -0.0022978316343439165
 0.997340977552362 -0.01773599159572528 0.002441902869706286 0.007105011964943212 -0.00023920174138180675 -0.002297838081229124 0.000263443570976158 0.003652813531973394
 0.0002650773429864723 0.0036525924171585803 -0.00023920174138180675 -0.002297838081229124 0.002441623946999061 0.007104719827493012 0.9973409728385462 -0.017736326025336875
 -0.00023914751312785457 -0.0022978316343439165 0.000263443570976158 0.003652813531973394 0.9973409728385462 -0.017736326025336875 0.0024419316020011235 0.007104673416819627
0.03126302626094 0.002673276034494201 0.008940677098909264 0.9970372730056212 -0.022200355611410382 0.0003410550626584306 0.0045677094882231005 -0.00030394613619000186 -0.002876360418390013
 0.9970372730056212 -0.022200355611410382 0.002673652321416381 0.008940627179232698 -0.00030403038978150563 -0.0028763673033443665 0.00033850364571319513 0.004568032823265475
 0.0003410550626584306 0.0045677094882231005 -0.00030403038978150563 -0.0028763673033443665 0.0026732172433596452 0.008940266564081825 0.9970372659866096 -0.022200773565024586
 -0.00030394613619000186 -0.002876360418390013 0.00033850364571319513 0.004568032823265475 0.9970372659866096 -0.022200773565024586 0.0026736975782304163 0.008940204130320952
0.037515631513130004 0.0029231118404785357 0.010796492496445357 0.9967083565032705 -0.0266795218305995 0.00042768217815683225 0.005483531428680201 -0.00037753331056742225 -0.0034560409915709075
 0.9967083565032705 -0.0266795218305995 0.002923653261856154 0.010796428052795433 -0.0003776540380728988 -0.003456047696074111 0.00042400910372730256 0.005483981218483809
 0.00042768217815683225 0.005483531428680201 -0.0003776540380728988 -0.003456047696074111 0.0029230275665313187 0.01079600102270991 0.9967083467240164 -0.02668002334800828
 -0.00037753331056742225 -0.0034560409915709075 0.00042400910372730256 0.005483981218483809 0.9967083467240164 -0.02668002334800828 0.00292371879499198 0.01079592051984511
0.043768236765320004 0.0031915442837815986 0.012671828249191164 0.9963538832192499 -0.031173680942595084 0.0005250653859200201 0.006399935051735902 -0.0004600212451556671 -0.004036703648800056
 0.9963538832192499 -0.031173680942595084 0.0031922807094271954 0.012671747628626663 -0.0004601848381823543 -0.004036709479191831 0.0005200663452685759 0.0064005382992652635
 0.0005250653859200201 0.006399935051735902 -0.0004601848381823543 -0.004036709479191831 0.00319142996593958 0.012671256370966739 0.9963538702199839 -0.03117426609445319
 -0.0004600212451556671 -0.004036703648800056 0.0005200663452685759 0.0064005382992652635 0.9963538702199839 -0.03117426609445319 0.0031923702792921362 0.01267115561499141
0.050020842017509996 0.0034789441358320365 0.01456613512240294 0.9959735067009078 -0.035682891843405624 0.0006333095290905457 0.007316785092292045 -0.0005515194814047833 -0.004618183227200578
 0.9959735067009078 -0.035682891843405624 0.003479905418573283 0.014566036613971212 -0.0005517322771541287 -0.004618187414705128 0.0006267799131353147 0.007317571598587611
 0.0006333095290905457 0.007316785092292045 -0.0005517322771541287 -0.004618187414705128 0.0034787952193367395 0.014565483451785401 0.9959734900162951 -0.03568356072037939
 -0.0005515194814047833 -0.004618183227200578 0.0006267799131353147 0.007317571598587611 0.9959734900162951 -0.03568356072037939 0.0034800227955229203 0.014565360120064045
0.055454545454549996 0.0037443924541355612 0.016227378768708695 0.995621641868622 -0.03961373844657999 0.0007362772312518813 0.008113806330252936 -0.0006384347627487642 -0.005124042845779641
 0.995621641868622 -0.03961373844657999 0.0037455733821091033 0.01622726328075206 -0.0006386954227940875 -0.005124044922930607 0.0007282511062020791 0.008114778491691491
 0.0007362772312518813 0.008113806330252936 -0.0006386954227940875 -0.005124044922930607 0.003744209777196199 0.016226658316238464 0.9956216215991928 -0.03961448017024918
 -0.0006384347627487642 -0.005124042845779641 0.0007282511062020791 0.008114778491691491 0.9956216215991928 -0.03961448017024918 0.003745717994599514 0.01622651337083835
0.056273447269699996 0.0037856786142371904 0.016478934059997546 0.9955668799206857 -0.040207129052648866 0.0007525173542580317 0.008233937390126634 -0.0006521348975210559 -0.005200315954055264
 0.9955668799206857 -0.040207129052648866 0.003786894598654534 0.016478815894900148 -0.0006524031805102232 -0.005200317654840525 0.0007442522644975285 0.008234939784216641
 0.0007525173542580317 0.008233937390126634 -0.0006524031805102232 -0.005200317654840525 0.0037854905517227208 0.01647820328846962 0.9955668590797414 -0.04020788176448757
 -0.0006521348975210559 -0.005200315954055264 0.0007442522644975285 0.008234939784216641 0.9955668590797414 -0.04020788176448757 0.0037870435637280637 0.016478054918756344
0.06252605252188 0.004112111753341892 0.018409790104150878 0.9951336559848863 -0.044746308730925416 0.0008827893155637374 0.009151240646924482 -0.0007619716659084453 -0.005782937727043624
 0.9951336559848863 -0.044746308730925416 0.004113612283981798 0.018409650455490575 -0.0007623016691492311 -0.005782936022281097 0.0008725835842971038 0.009152494415762498
 0.0008827893155637374 0.009151240646924482 -0.0007623016691492311 -0.005782936022281097 0.004111880005752444 0.018408981000401715 0.9951336305095443 -0.044747145409371615
 -0.0007619716659084453 -0.005782937727043624 0.0008725835842971038 0.009152494415762498 0.9951336305095443 -0.044747145409371615 0.0041137966291120215 0.018408804989502533
0.06877865777407 0.004458604582028114 0.020358296828724195 0.9946734886539278 -0.04930030418971013 0.0010242234033614986 0.010068537484520657 -0.0008811311851521955 -0.006365883099988213
 0.9946734886539278 -0.04930030418971013 0.00446041951109001 0.020358133811181785 -0.0008815290908168103 -0.006365876995942192 0.0010118716210543376 0.010070081002622957
 0.0010242234033614986 0.010068537484520657 -0.0008815290908168103 -0.006365876995942192 0.004458324619731691 0.02035741023965466 0.9946734580585063 -0.049301224988169474
 -0.0008811311851521955 -0.006365883099988213 0.0010118716210543376 0.010070081002622957 0.9946734580585063 -0.049301224988169474 0.004460643040437815 0.020357203841787363
0.07503126302626001 0.004825515190815539 0.02232406648862196 0.9941860327569262 -0.05386895569255387 0.0011769149872518376 0.010985665127323877 -0.001009711996576166 -0.006948984651490967
 0.9941860327569262 -0.05386895569255387 0.004827674386278021 0.02232387815768132 -0.0010101839365518677 -0.006948973079596332 0.0011622115351633737 0.01098753968595982
 0.0011769149872518376 0.010985665127323877 -0.0010101839365518677 -0.006948973079596332 0.0048251824953545455 0.022323103341864617 0.9941859965478845 -0.053869960784222445
 -0.001009711996576166 -0.006948984651490967 0.0011622115351633737 0.01098753968595982 0.9941859965478845 -0.053869960784222445 0.004827940916568436 0.022322863666843617
0.08128386827845 0.005213198725737592 0.024306723463175747 0.9936709445381197 -0.0584520769700624 0.001340956669544833 0.01190245586502578 -0.0011478096895082173 -0.007532072580610299
 0.9936709445381197 -0.0584520769700624 0.005215732079160132 0.024306507814078025 -0.001148361745647092 -0.007532054397566289 0.001323695756456305 0.011904705700918264
 0.001340956669544833 0.01190245586502578 -0.001148361745647092 -0.007532054397566289 0.00521280879057792 0.024305684767641285 0.9936709022125394 -0.05845316654802972
 -0.0011478096895082173 -0.007532072580610299 0.001323695756456305 0.011904705700918264 0.9936709022125394 -0.05845316654802972 0.005216045439842521 0.024305408778611277
0.08753647353064001 0.0056220073352386095 0.026305899731340794 0.9931278819600349 -0.06304945971150921 0.0015164381440977608 0.012818737386797025 -0.0012955168000295797 -0.00811497443866732
 0.9931278819600349 -0.06304945971150921 0.005624944769493536 0.02630565469774518 -0.0012961550042117206 -0.008114948426541433 0.001496413846561161 0.012821409710125707
 0.0015164381440977608 0.012818737386797025 -0.0012961550042117206 -0.008114948426541433 0.0056215556672877 0.026304786578437482 0.9931278330049496 -0.0630506339880295
 -0.0012955168000295797 -0.00811497443866732 0.001496413846561161 0.012821409710125707 0.9931278330049496 -0.0630506339880295 0.005625308803830053 0.026304471089337245
0.09378907878283 0.006052290084518337 0.02832123164210427 0.9925565049784799 -0.0676608767696072 0.0017034460595196305 0.013734333032442694 -0.001452922704534432 -0.008697514951916254
 0.9925565049784799 -0.0676608767696072 0.006055661561866755 0.028320955094399046 -0.0014536530387275716 -0.008697479818252446 0.0016804523649432616 0.013737478054219895
 0.0017034460595196305 0.013734333032442694 -0.0014536530387275716 -0.008697479818252446 0.006051772205627946 0.028320045206460788 0.9925564488701797 -0.06766213597592959
 -0.001452922704534432 -0.008697514951916254 0.0016804523649432616 0.013737478054219895 0.9925564488701797 -0.06766213597592959 0.0060560801267855015 0.02831968687924811
0.100041684035 0.0065043928459763535 0.030352357558042786 0.9919564757976838 -0.0722860845015689 0.0019020638856290363 0.014649061988816844 -0.0016201135095865267 -0.009279515906931067
 0.9919564757976838 -0.0722860845015689 0.006508228375442141 0.030352047301418987 -0.00162094190560505 -0.009279470284878686 0.001875894737650143 0.014652732947430273
 0.0019020638856290363 0.014649061988816844 -0.00162094190560505 -0.009279470284878686 0.0065038042937381555 0.030351099095281567 0.9919564120007083 -0.0722874288906723
 -0.0016201135095865267 -0.009279515906931067 0.001875894737650143 0.014652732947430273 0.9919564120007083 -0.0722874288906723 0.006508705342494127 0.030350694436722066
0.1059090909091 0.0069487935851019 0.03227239634895368 0.9913670544717517 -0.07663866389339917 0.002099076184256048 0.0155064852836902 -0.0017859773422359566 -0.009825009955649354
 0.9913670544717517 -0.07663866389339917 0.0069530919200561465 0.03227205240371616 -0.0017869031090558755 -0.009824953182050185 0.0020697398071703376 0.015510700917379243
 0.002099076184256048 0.0155064852836902 -0.0017869031090558755 -0.009824953182050185 0.006948134671245489 0.03227107151477357 0.9913669829619761 -0.07664008846293877
 -0.0017859773422359566 -0.009825009955649354 0.0020697398071703376 0.015510700917379243 0.9913669829619761 -0.07664008846293877 0.006953627225956032 0.03227062006085525
0.1062942892872 0.006978658171448803 0.032398916082403154 0.9913274591112171 -0.07692482453582944 0.0021123717813607942 0.015562739454729307 -0.0017971719393751599 -0.00986079607569039
 0.9913274591112171 -0.07692482453582944 0.006982987817131694 0.032398569854404806 -0.001798104278801227 -0.009860738524117956 0.002082821127781722 0.015566992641712468
 0.0021123717813607942 0.015562739454729307 -0.001798104278801227 -0.009860738524117956 0.006977994501790804 0.03239758693335479 0.991327387077898 -0.07692625437849517
 -0.0017971719393751599 -0.00986079607569039 0.002082821127781722 0.015566992641712468 0.991327387077898 -0.07692625437849517 0.006983527073013622 0.03239713229159493
0.11254689453939999 0.00747542515239403 0.034460544715548616 0.9906691223336239 -0.08157682511904446 0.002334446465297226 0.016475176776011017 -0.001984177220844514 -0.010441171178823929
 0.9906691223336239 -0.08157682511904446 0.007480279041222837 0.034460160183464525 -0.001985219334712485 -0.010441100182469493 0.002301308307783305 0.01648007156091407
 0.002334446465297226 0.016475176776011017 -0.001985219334712485 -0.010441100182469493 0.007474681940258013 0.03445914630693074 0.9906690415027086 -0.08157834070358562
 -0.001984177220844514 -0.010441171178823929 0.002301308307783305 0.01648007156091407 0.9906690415027086 -0.08157834070358562 0.007480884487939284 0.03445863786761928
0.11879949979160001 0.00799502926929009 0.03653687882282115 0.9899811358248835 -0.0862418021616015 0.002568361086829638 0.01738618157130306 -0.002181204968024951 -0.011020453866585352
 0.9899811358248835 -0.0862418021616015 0.008000437598808058 0.03653645358062651 -0.0021823626364549293 -0.011020367836210571 0.002531429532416951 0.017391780425651093
 0.002568361086829638 0.01738618157130306 -0.0021823626364549293 -0.011020367836210571 0.007994202110301298 0.03653541266350631 0.9899810456209909 -0.08624340379789909
 -0.002181204968024951 -0.011020453866585352 0.002531429532416951 0.017391780425651093 0.9899810456209909 -0.08624340379789909 0.008001113154239304 0.0365348464456652
0.1250521050438 0.008537802232111015 0.03862755081035104 0.9892631731089714 -0.09091946008549277 0.0028141850989865185 0.018295557843322912 -0.0023883270648784 -0.011598453722999029
 0.9892631731089714 -0.09091946008549277 0.008543795278564064 0.03862708237525565 -0.0023896060168045108 -0.011598350995520748 0.002773254413331499 0.01830192636360774
 0.0028141850989865185 0.018295557843322912 -0.0023896060168045108 -0.011598350995520748 0.008536886744506988 0.03862601849552967 0.9892630729416827 -0.09092114810096218
 -0.0023883270648784 -0.011598453722999029 0.002773254413331499 0.01830192636360774 0.9892630729416827 -0.09092114810096218 0.008544544876833097 0.03862539034704742
0.131304710296 0.009104071815167298 0.040732189487753104 0.988514911088876 -0.09560949249540683 0.0030719841322447237 0.019203106084864023 -0.0026056115480165665 -0.012174977283879859
 0.988514911088876 -0.09560949249540683 0.009110679941434769 0.040731675296447126 -0.0026070174606322577 -0.01217485612258117 0.0030268487945937137 0.019210313014467593
 0.0030719841322447237 0.019203106084864023 -0.0026070174606322577 -0.01217485612258117 0.009103063641163053 0.0407305926977156 0.9885148003517863 -0.09561126723645838
 -0.0026056115480165665 -0.012174977283879859 0.0030268487945937137 0.019210313014467593 0.9885148003517863 -0.09561126723645838 0.009111507533556846 0.04072989829041364
0.1375573155481 0.009569199795793862 0.042576240438773616 0.9878610492254416 -0.10003725540867221 0.0033109062196152983 0.020081801828696177 -0.0028022630394932235 -0.012722987726901861
 0.9878610492254416 -0.10003725540867221 0.009576456589405617 0.042575690617887234 -0.0028038044647972532 -0.01272284787129327 0.003261462453923633 0.020089840533948394
 0.0033109062196152983 0.020081801828696177 -0.0028038044647972532 -0.01272284787129327 0.009568095268800378 0.04257458052821285 0.9878609274246243 -0.10003911707004819
 -0.0028022630394932235 -0.012722987726901861 0.003261462453923633 0.020089840533948394 0.9878609274246243 -0.10003911707004819 0.009577365237533641 0.04257382864832297
0.1438099208003 0.010050836977558698 0.044409656675205196 0.9871838962576905 -0.10445286001281362 0.003559456754423514 0.020956346747030407 -0.003006745295133786 -0.013267212264186352
 0.9871838962576905 -0.10445286001281362 0.010058773417757254 0.044409069412403426 -0.003008428353301318 -0.013267051990462343 0.003505517695173317 0.020965280455373388
 0.003559456754423514 0.020956346747030407 -0.003008428353301318 -0.013267051990462343 0.010049631897495262 0.04440793535945997 0.9871837627870829 -0.1044548089316681
 -0.003006745295133786 -0.013267212264186352 0.003505517695173317 0.020965280455373388 0.9871837627870829 -0.1044548089316681 0.010059766936883967 0.044407122425053534
0.1500625260525 0.010548799698264964 0.04623225759757136 0.9864836405434738 -0.10885616858658317 0.003817541028971881 0.021826632254280883 -0.0032189666858103458 -0.013807549699317521
 0.9864836405434738 -0.10885616858658317 0.010557446865518814 0.046231630950305164 -0.0032207974819508543 -0.013807367213986614 0.0037589211866742287 0.021836526476892607
 0.003817541028971881 0.021826632254280883 -0.0032207974819508543 -0.013807367213986614 0.010547489895966936 0.04623047665987372 0.9864834947838171 -0.10885820511158012
 -0.0032189666858103458 -0.013807549699317521 0.0037589211866742287 0.021836526476892607 0.9864834947838171 -0.10885820511158012 0.01055852907676047 0.04622959888845147
0.15631513130469998 0.011062902821298388 0.04804386799878582 0.985760471587198 -0.1132470445143114 0.004085063110716752 0.022692551808022435 -0.0034388343614424224 -0.014343901141419552
 0.985760471587198 -0.1132470445143114 0.011072291900213417 0.048043199889294376 -0.0034408189852960323 -0.014343694581632793 0.004021578397258545 0.022703474310494406
