! Created with skrf 1.8.0 (http://scikit-rf.org).
# GHz S RI R 50.0 
!freq ReS11 ImS11 ReS12 ImS12 ReS13 ImS13
! ReS14 ImS14
! ReS21 ImS21 ReS22 ImS22 ReS23 ImS23
! ReS24 ImS24
! ReS31 ImS31 ReS32 ImS32 ReS33 ImS33
! ReS34 ImS34
! ReS41 ImS41 ReS42 ImS42 ReS43 ImS43
! ReS44 ImS44
!
0.0 0.001458966069394 0.0 0.9985410339306 0.0 5.619307265912e-05 0.0 -5.619307293617e-05 6.881666690553436e-21
 0.9985410339306 0.0 0.001458966069383 0.0 -5.619307293635e-05 6.881666690575478e-21 5.619307265824e-05 0.0
 5.619307265912e-05 0.0 -5.619307293635e-05 6.881666690575478e-21 0.001458966067275 0.0 0.9985410339285 0.0
 -5.619307293617e-05 6.881666690553436e-21 5.619307265824e-05 0.0 0.9985410339285 0.0 0.001458966067255 0.0
0.005 0.001569501094893139 0.001192602842080504 0.9984012231128783 -0.003056517887107462 7.878607331972826e-05 0.0006258006954778529 -7.647183779577971e-05 -0.00039169020952414395
 0.9984012231128783 -0.003056517887107462 0.0015695175611702757 0.0011925931698254465 -7.647194421253873e-05 -0.0003916902275612276 7.868437794183117e-05 0.0006258393601254159
 7.878607331972826e-05 0.0006258006954778529 -7.647194421253873e-05 -0.0003916902275612276 0.001569501710655192 0.0011926696939894034 0.9984012234655769 -0.003056450826464721
 -7.647183779577971e-05 -0.00039169020952414395 7.868437794183117e-05 0.0006258393601254159 0.9984012234655769 -0.003056450826464721 0.0015695176419113289 0.0011926604302162434
0.006252605252188 0.0015984203447898507 0.0014954598819500024 0.9983644225487666 -0.0038214061728312964 8.520911951419692e-05 0.0007825548465240574 -8.216510025249676e-05 -0.0004901247170401331
 0.9983644225487666 -0.0038214061728312964 0.0015984460851658595 0.0014954476037203487 -8.216526635064873e-05 -0.0004901247379423888 8.505022865010432e-05 0.0007826050464557145
 8.520911951419692e-05 0.0007825548465240574 -8.216526635064873e-05 -0.0004901247379423888 0.0015984212376501776 0.0014955434411766254 0.9983644230301392 -0.0038213223424195856
 -8.216510025249676e-05 -0.0004901247170401331 8.505022865010432e-05 0.0007826050464557145 0.9983644230301392 -0.0038213223424195856 0.0015984461408567372 0.0014955316855261743
0.01250521050438 0.0017502459865790354 0.0030223905249379683 0.9981699834247076 -0.007643690971420071 0.0001218759908548665 0.0015654690603747092 -0.00011429515276079033 -0.000982675822703383
 0.9981699834247076 -0.007643690971420071 0.0017503487769699264 0.003022364075363501 -0.00011429581355389191 -0.0009826758458367866 0.00012124233757799085 0.0015655895492565231
 0.0001218759908548665 0.0015654690603747092 -0.00011429581355389191 -0.0009826758458367866 0.0017502489731202723 0.0030225572650807095 0.9981699847646263 -0.007643523554303172
 -0.00011429515276079033 -0.000982675822703383 0.00012124233757799085 0.0015655895492565231 0.9981699847646263 -0.007643523554303172 0.0017503484059147186 0.0030225319875359265
0.01875781575657 0.0019147609313705076 0.004571198843632848 0.9979574846046383 -0.011476172831724866 0.00016627580813855734 0.002349281481019136 -0.00015267933138828584 -0.00147694399997167
 0.9979574846046383 -0.011476172831724866 0.0019149919220989725 0.004571156192057797 -0.00015268081365008967 -0.001476944001107128 0.00016485229641807905 0.0023494961077790426
 0.00016627580813855734 0.002349281481019136 -0.00015268081365008967 -0.001476944001107128 0.0019147672307834038 0.004571448500239266 0.9979574871989971 -0.011475921875657762
 -0.00015267933138828584 -0.00147694399997167 0.00016485229641807905 0.0023494961077790426 0.9979574871989971 -0.011475921875657762 0.0019149906476020127 0.0045714078186701425
0.02501042100875 0.002092274468763515 0.006139729641156831 0.9977266853890047 -0.015320723228461076 0.00021849223199648903 0.003134033955032138 -0.00019741083026305356 -0.0019727120109071477
 0.9977266853890047 -0.015320723228461076 0.0020926847161327746 0.006139668637578206 -0.00019741345970072208 -0.001972711960089682 0.00021596359534497151 0.0031343701918888924
 0.00021849223199648903 0.003134033955032138 -0.00019741345970072208 -0.001972711960089682 0.002092285293000223 0.006140061912546135 0.9977266896281829 -0.015320388736204227
 -0.00019741083026305356 -0.0019727120109071477 0.00021596359534497151 0.0031343701918888924 0.9977266896281829 -0.015320388736204227 0.0020926820408445203 0.0061400038470003524
0.03126302626094 0.002283083033754126 0.007726880836945042 0.9974773323048907 -0.01917815142167722 0.00027860958520271016 0.0039196956741143355 -0.00024858035850542064 -0.002469830289583026
 0.9974773323048907 -0.01917815142167722 0.002283723527222364 0.00772679921569851 -0.0002485844599041144 -0.0024698301510669668 0.0002746600929841874 0.003920184637208202
 0.00027860958520271016 0.0039196956741143355 -0.0002485844599041144 -0.0024698301510669668 0.0022830995962914834 0.007727295385527087 0.9974773385841116 -0.019177733349269258
 -0.00024858035850542064 -0.002469830289583026 0.0002746600929841874 0.003920184637208202 0.9974773385841116 -0.019177733349269258 0.0022837189422731338 0.007727217862150048
0.037515631513130004 0.002487476742408477 0.009331939160025993 0.9972091658206995 -0.023048868705302136 0.0003467119799772974 0.004706207252700756 -0.0003062768047425209 -0.0029681728545488087
 0.9972091658206995 -0.023048868705302136 0.0024883984225708804 0.00933183454152563 -0.0003062827020856048 -0.0029681725867284413 0.0003410253044113969 0.004706883738769203
 0.0003467119799772974 0.004706207252700756 -0.0003062827020856048 -0.0029681725867284413 0.0024875002555033946 0.00933243559159789 0.9972091745389181 -0.023048366982226755
 -0.0003062768047425209 -0.0029681728545488087 0.0003410253044113969 0.004706883738769203 0.9972091745389181 -0.023048366982226755 0.0024883914044748173 0.009332336444853958
0.043768236765320004 0.002705741910474575 0.010954378011650731 0.9969219230473507 -0.026933090477514618 0.0004228829127874727 0.005493494128182852 -0.0003705874786667559 -0.003467623902636287
 0.9969219230473507 -0.026933090477514618 0.0027069956829986353 0.010954247903492706 -0.000370595495048251 -0.003467623457999859 0.00041514206514787697 0.005494396656225333
 0.0004228829127874727 0.005493494128182852 -0.000370595495048251 -0.003467623457999859 0.0027057735856121103 0.010954955874785028 0.9969219346099457 -0.02693250500693396
 -0.0003705874786667559 -0.003467623902636287 0.00041514206514787697 0.005494396656225333 0.9969219346099457 -0.02693250500693396 0.002706985695102112 0.010954832848792716
0.050020842017509996 0.0029381622352551502 0.01259377389149537 0.9966153391068294 -0.03083091974571406 0.0005072050228792387 0.006281472103247588 -0.00044159820347165155 -0.003968072263225387
 0.9966153391068294 -0.03083091974571406 0.0029397989830024967 0.012593615689054372 -0.00044160866107937523 -0.003968071588295576 0.0004970923260906274 0.006282642958202489
 0.0005072050228792387 0.006281472103247588 -0.00044160866107937523 -0.003968071588295576 0.002938203279028541 0.012594432682247282 0.9966153539228407 -0.0308302503992361
 -0.00044159820347165155 -0.003968072263225387 0.0004970923260906274 0.006282642958202489 0.9966153539228407 -0.0308302503992361 0.002939785471475325 0.01259428343176708
0.055454545454549996 0.0031518570718362914 0.014031947986145172 0.996332994352798 -0.034229328274149574 0.0005871666589007347 0.006966739470230515 -0.0005088154906435845 -0.004403702127426403
 0.996332994352798 -0.034229328274149574 0.003153867950334152 0.014031763166688246 -0.0005088283306361592 -0.004403701204265452 0.0005747342216331298 0.006968180808310558
 0.0005871666589007347 0.006966739470230515 -0.0005088283306361592 -0.004403701204265452 0.0031519072354745975 0.014032676649361548 0.9963330123352003 -0.03422858591396533
 -0.0005088154906435845 -0.004403702127426403 0.0005747342216331298 0.006968180808310558 0.9963330123352003 -0.03422858591396533 0.0031538509161507227 0.014032502635500632
0.056273447269699996 0.0031850193987078466 0.01424976540367564 0.996289147924364 -0.034742388052038845 0.0005997599257424395 0.007070050055033308 -0.0005193933390346902 -0.004469408688392508
 0.996289147924364 -0.034742388052038845 0.0031870899927890534 0.014249576390360903 -0.0005194065590674836 -0.004469407723676093 0.0005869570087441467 0.007071535332376974
 0.0005997599257424395 0.007070050055033308 -0.0005194065590674836 -0.004469407723676093 0.0031850710155923436 0.014250504559549394 0.9962891664116447 -0.034741634675377685
 -0.0005193933390346902 -0.004469408688392508 0.0005869570087441467 0.007071535332376974 0.9962891664116447 -0.034741634675377685 0.0031870723899634448 0.014250326650666374
0.06252605252188 0.003446593400773278 0.015922030707767612 0.9959430827552627 -0.03866747795584819 0.000700628081310767 0.00785913143321228 -0.000604055772159438 -0.004971524357178802
 0.9959430827552627 -0.03866747795584819 0.003449148710737184 0.015921808054964723 -0.0006040720747551588 -0.004971523037118752 0.0006848158881525147 0.007860981083881386
 0.000700628081310767 0.00785913143321228 -0.0006040720747551588 -0.004971523037118752 0.003446656788632597 0.015922849606930304 0.9959431053380206 -0.038666640369219525
 -0.000604055772159438 -0.004971524357178802 0.0006848158881525147 0.007860981083881386 0.9959431053380206 -0.038666640369219525 0.0034491264310215195 0.01592264051727945
0.06877865777407 0.0037231627341345564 0.0176102740825075 0.9955768765565005 -0.04260613640623238 0.0008098886839036669 0.008648615147539628 -0.0006956668857404967 -0.005474309993610384
 0.9955768765565005 -0.04260613640623238 0.0037262536382266743 0.017610014849201213 -0.0006956865898766067 -0.00547430824654225 0.0007907474930394013 0.00865088302291426
 0.0008098886839036669 0.008648615147539628 -0.0006956865898766067 -0.00547430824654225 0.0037232390851463897 0.01761117204198111 0.9955769036679861 -0.042605214405771134
 -0.0006956668857404967 -0.005474309993610384 0.0007907474930394013 0.00865088302291426 0.9955769036679861 -0.042605214405771134 0.0037262260795536705 0.017610929160758817
0.07503126302626001 0.0040150044750782935 0.019314217387727112 0.9951902622769995 -0.046558283219453364 0.0009276195630294407 0.009438396135045816 -0.000794306516778265 -0.005977655308526417
 0.9951902622769995 -0.046558283219453364 0.004018681869699747 0.019313918519858354 -0.0007943299401586879 -0.005977653056632205 0.0009048290142486369 0.009441140031776304
 0.0009276195630294407 0.009438396135045816 -0.0007943299401586879 -0.005977653056632205 0.004015094973545064 0.019315193670279677 0.9951902943596691 -0.046557276570051875
 -0.000794306516778265 -0.005977655308526417 0.0009048290142486369 0.009441140031776304 0.9951902943596691 -0.046557276570051875 0.004018648411949145 0.019314914297880167
0.08128386827845 0.004322394314264287 0.0210335944130375 0.9947829730921613 -0.05052381667306496 0.0010538970915782344 0.010228365739856995 -0.0009000529062998569 -0.0064814486323849195
 0.9947829730921613 -0.05052381667306496 0.004326709123879674 0.021033252742490557 -0.0009000803652848046 -0.006481445791645222 0.001027136218974994 0.010231647444408186
 0.0010538970915782344 0.010228365739856995 -0.0009000803652848046 -0.006481445791645222 0.004322500135256763 0.02103464821691168 0.994783010598213 -0.05052272511837804
 -0.0009000529062998569 -0.0064814486323849195 0.001027136218974994 0.010231647444408186 0.994783010598213 -0.05052272511837804 0.004326669127778368 0.021034329564347923
0.08753647353064001 0.004645606551874289 0.022768146942781974 0.9943547426051171 -0.05450261738785598 0.001188796099590862 0.011018411979619985 -0.0010129826430168225 -0.006985576665169833
 0.9943547426051171 -0.05450261738785598 0.004650609738379352 0.02276775918614294 -0.0010130144524563914 -0.00698557314534301 0.0011577433693059644 0.011022297312444472
 0.001188796099590862 0.011018411979619985 -0.0010130144524563914 -0.00698557314534301 0.004645728860557296 0.022769277405072102 0.9943547859983763 -0.05450144064670561
 -0.0010129826430168225 -0.006985576665169833 0.0011577433693059644 0.011022297312444472 0.9943547859983763 -0.05450144064670561 0.004650562545781642 0.022768916592954436
0.09378907878283 0.0049849140663549086 0.024517621958445365 0.993905305025218 -0.05849455107620829 0.0013323897902549604 0.011808419739296116 -0.0011331706037744885 -0.0074899243028640275
 0.993905305025218 -0.05849455107620829 0.0049906566387361104 0.024517184715377897 -0.0011332070769275902 -0.007489920007433215 0.0012967231421802652 0.011812978598472678
 0.0013323897902549604 0.011808419739296116 -0.0011332070769275902 -0.007489920007433215 0.004985054016148904 0.024518828156499195 0.9939053547812792 -0.05849328884101108
 -0.0011331706037744885 -0.0074899243028640275 0.0012967231421802652 0.011812978598472678 0.9939053547812792 -0.05849328884101108 0.004990601571062347 0.024518422213812452
0.100041684035 0.005340588265539901 0.026281769581175438 0.9934343953315863 -0.06249947055478344 0.0014847496582811575 0.012598270915129137 -0.0012606898907385321 -0.007994374517672648
 0.9934343953315863 -0.06249947055478344 0.00534712128942589 0.026281279332507287 -0.001260731339103176 -0.007994369343830311 0.001444146551279394 0.012603577319495086
 0.0014847496582811575 0.012598270915129137 -0.001260731339103176 -0.007994369343830311 0.005340746996784311 0.026283050530110545 0.9934344519387435 -0.062498122493910416
 -0.0012606898907385321 -0.007994374517672648 0.001444146551279394 0.012603577319495086 0.9934344519387435 -0.062498122493910416 0.00534705764725523 0.026282596392513378
0.1059090909091 0.005689476518999378 0.027950358406832958 0.9929727326100133 -0.06626933202925367 0.0016357580935692918 0.013339212334956116 -0.0013870844812304969 -0.008467734817819338
 0.9929727326100133 -0.06626933202925367 0.005696797800335495 0.027949815109509415 -0.0013871308799930063 -0.00846772872053458 0.0015902289097945118 0.013345291258635773
 0.0016357580935692918 0.013339212334956116 -0.0013871308799930063 -0.00846772872053458 0.0056896538992819694 0.027951708552144346 0.9929727961028343 -0.0662679031052247
 -0.0013870844812304969 -0.008467734817819338 0.0015902289097945118 0.013345291258635773 0.9929727961028343 -0.0662679031052247 0.005696725456441572 0.02795120631696605
0.1062942892872 0.00571289902250485 0.028060341530032406 0.9929417494247266 -0.06651721724591272 0.001645945409857402 0.013387844534410344 -0.0013956117660132352 -0.008498808266515123
 0.9929417494247266 -0.06651721724591272 0.005720273629875262 0.02805979463545933 -0.001395658499279582 -0.008498802105116478 0.0016000828700791386 0.013393976666116
 0.001645945409857402 0.013387844534410344 -0.001395658499279582 -0.008498802105116478 0.0057130776615637955 0.028061696184770557 0.9929418133852602 -0.06651578300159915
 -0.0013956117660132352 -0.008498808266515123 0.0016000828700791386 0.013393976666116 0.9929418133852602 -0.06651578300159915 0.005720200692028862 0.028061190692721838
0.11254689453939999 0.006102114602559375 0.02985308994157055 0.9924271042715644 -0.0705476223223271 0.0018160448833164432 0.01417701684317064 -0.001538005584998221 -0.00900310443588916
 0.9924271042715644 -0.0705476223223271 0.006110382001260973 0.02985248263707391 -0.001538057910852344 -0.009003097171437408 0.001764599555034011 0.014184057089492967
 0.0018160448833164432 0.01417701684317064 -0.001538057910852344 -0.009003097171437408 0.00610231425981206 0.029854517194646556 0.9924271761023714 -0.07054610151285975
 -0.001538005584998221 -0.00900310443588916 0.001764599555034011 0.014184057089492967 0.9924271761023714 -0.07054610151285975 0.006110299023926708 0.02985395709102479
0.11879949979160001 0.006508501581203843 0.03165976644627636 0.9918901980448961 -0.07459050759987707 0.0019951139708393214 0.014965661388581348 -0.001687938727690757 -0.009507139796175927
 0.9918901980448961 -0.07459050759987707 0.0065177130646764826 0.03165909484116737 -0.0016879969517028972 -0.009507131306795582 0.0019377621698636043 0.014973696383072143
 0.0019951139708393214 0.014965661388581348 -0.0016879969517028972 -0.009507131306795582 0.006508723349994048 0.03166126512957455 0.9918902782785738 -0.07458889981789305
 -0.001687938727690757 -0.009507139796175927 0.0019377621698636043 0.014973696383072143 0.9918902782785738 -0.07458889981789305 0.0065176192808850284 0.03166064705705077
0.1250521050438 0.00693232475561637 0.03348012144868372 0.991330770258215 -0.07864568623151284 0.00218321654043488 0.01575364908336833 -0.0018454765292595153 -0.010010788978393654
 0.991330770258215 -0.07864568623151284 0.006942531712784743 0.03347938152224088 -0.00184554095475927 -0.01001077913581274 0.0021196343096100204 0.01576276974622973
 0.00218321654043488 0.01575364908336833 -0.00184554095475927 -0.01001077913581274 0.006932569710800268 0.03348169033036718 0.9913308594437977 -0.0786439910472009
 -0.0018454765292595153 -0.010010788978393654 0.0021196343096100204 0.01576276974622973 0.9913308594437977 -0.0786439910472009 0.006942426331138103 0.03348101082829241
0.131304710296 0.007373847050951123 0.03531390353925937 0.990748561898475 -0.08271296327470974 0.002380414358155318 0.01654084826937029 -0.002010682209682299 -0.010513924456248703
 0.990748561898475 -0.08271296327470974 0.0073851009758239 0.03531309113704714 -0.0020107531375875127 -0.010513913125790624 0.00231027752523088 0.01655114984697006
 0.002380414358155318 0.01654084826937029 -0.0020107531375875127 -0.010513913125790624 0.007374116247122543 0.0353155413287221 0.9907486606026771 -0.08271118023102467
 -0.002010682209682299 -0.010513924456248703 0.00231027752523088 0.01655114984697006 0.9907486606026771 -0.08271118023102467 0.007384983180213778 0.03531479682967305
0.1375573155481 0.007729984740689572 0.03692137744440207 0.990246695668355 -0.08655256354031896 0.002561610554882452 0.017302931519939117 -0.0021585451296697376 -0.010992177740075017
 0.990246695668355 -0.08655256354031896 0.007742340085394971 0.03692050563459117 -0.0021586228194761295 -0.01099216490443135 0.002484758929906355 0.01731439624286926
 0.002561610554882452 0.017302931519939117 -0.0021586228194761295 -0.01099216490443135 0.007730278475639502 0.03692308336567481 0.9902468043336548 -0.08655069235182851
 -0.0021585451296697376 -0.010992177740075017 0.002484758929906355 0.01731439624286926 0.9902468043336548 -0.08655069235182851 0.007742210031785097 0.03692228673983223
0.1438099208003 0.008098581458187737 0.038520717987152515 0.9897273036785014 -0.09038277171541327 0.0027501396067479322 0.018062104179484343 -0.0023123320093428865 -0.011467799629540757
 0.9897273036785014 -0.09038277171541327 0.008112090286822934 0.03851978365691943 -0.002312416751264007 -0.011467785160801618 0.002666278361802584 0.01807481883786549
 0.0027501396067479322 0.018062104179484343 -0.002312416751264007 -0.011467785160801618 0.008098900620456772 0.03852249073542472 0.989727422871804 -0.09038081193100991
 -0.0023123320093428865 -0.011467799629540757 0.002666278361802584 0.01807481883786549 0.989727422871804 -0.09038081193100991 0.008111947299032243 0.03852163938683634
0.1500625260525 0.008479511923920486 0.04011180157562473 0.9891905149850093 -0.09420350286366844 0.0029459397347379526 0.018818294253563725 -0.002471983507065866 -0.011940723043550091
 0.9891905149850093 -0.09420350286366844 0.00849422641272268 0.040110801426308955 -0.0024720755885612906 -0.01194070680899052 0.0028547757394870826 0.01883234878832555
 0.0029459397347379526 0.018818294253563725 -0.0024720755885612906 -0.01194070680899052 0.00847985737330424 0.040113639794678004 0.9891906452881215 -0.09420145401590403
 -0.002471983507065866 -0.011940723043550091 0.0028547757394870826 0.01883234878832555 0.9891906452881215 -0.09420145401590403 0.008494069802007228 0.04011273095919916
0.15631513130469998 0.008872650023645814 0.04169450839736867 0.9886364592392819 -0.09801467214739246 0.003148948458565676 0.01957143090285335 -0.0026374395789022826 -0.01241088227926207
 0.9886364592392819 -0.09801467214739246 0.008888622464638066 0.04169343893953141 -0.0026375392846979084 -0.012410864141390589 0.0030501903055613773 0.01958691837303623
