! Created with skrf 1.8.0 (http://scikit-rf.org).
# GHz S RI R 50.0 
!freq ReS11 ImS11 ReS12 ImS12 ReS13 ImS13
! ReS14 ImS14
! ReS21 ImS21 ReS22 ImS22 ReS23 ImS23
! ReS24 ImS24
! ReS31 ImS31 ReS32 ImS32 ReS33 ImS33
! ReS34 ImS34
! ReS41 ImS41 ReS42 ImS42 ReS43 ImS43
! ReS44 ImS44
!
0.0 0.001795321446509 0.0 0.9982046785475 0.0 6.948710468283e-05 0.0 -6.948710404547e-05 8.509715955130393e-21
 0.9982046785475 0.0 0.001795321446488 0.0 -6.94871040441e-05 8.509715954962616e-21 6.948710468351e-05 0.0
 6.948710468283e-05 0.0 -6.94871040441e-05 8.509715954962616e-21 0.001795321446546 0.0 0.9982046785476 0.0
 -6.948710404547e-05 8.509715955130393e-21 6.948710468351e-05 0.0 0.9982046785476 0.0 0.001795321446601 0.0
0.005 0.0019324103523132062 0.001471321502912349 0.9980311094520448 -0.0037596593077427578 9.734471362356071e-05 0.0007451755118262221 -9.456314522709078e-05 -0.00047115852757909885
 0.9980311094520448 -0.0037596593077427578 0.0019324316652680944 0.0014713089795003462 -9.456506767503256e-05 -0.00047115989694375816 9.721119160559729e-05 0.0007452264320178558
 9.734471362356071e-05 0.0007451755118262221 -9.456506767503256e-05 -0.00047115989694375816 0.0019324102753793273 0.0014713887662470555 0.9980311098248201 -0.0037595922326901857
 -9.456314522709078e-05 -0.00047115852757909885 9.721119160559729e-05 0.0007452264320178558 0.9980311098248201 -0.0037595922326901857 0.0019324324792395577 0.0014713758584930915
0.006252605252188 0.0019686124861126608 0.0018448890412030962 0.9979849460552923 -0.004700451680698942 0.00010544206672221633 0.0009318235446399023 -0.00010174969236333274 -0.0005895377011433346
 0.9979849460552923 -0.004700451680698942 0.00196864580267255 0.001844873116498967 -0.0001017526846631971 -0.0005895393865762658 0.00010523345382285679 0.0009318897079137762
 0.00010544206672221633 0.0009318235446399023 -0.0001017526846631971 -0.0005895393865762658 0.001968612299704758 0.0018449730852199814 0.9979849465714824 -0.004700367859668928
 -0.00010174969236333274 -0.0005895377011433346 0.00010523345382285679 0.0009318897079137762 0.9979849465714824 -0.004700367859668928 0.0019686470078252036 0.001844956697207023
0.01250521050438 0.0021606310091713083 0.003727923213772088 0.9977382988016567 -0.009401389492446201 0.00015260971417341583 0.0018639463003473256 -0.0001430970474868744 -0.0011817503891026228
 0.9977382988016567 -0.009401389492446201 0.002160764053009337 0.0037278886212820184 -0.00014310884961924367 -0.001181753466769877 0.0001517778728895134 0.0018641060218868434
 0.00015260971417341583 0.0018639463003473256 -0.00014310884961924367 -0.001181753466769877 0.002160629724993687 0.003728090921639105 0.9977383003165895 -0.009401222082931721
 -0.0001430970474868744 -0.0011817503891026228 0.0001517778728895134 0.0018641060218868434 0.9977383003165895 -0.009401222082931721 0.002160768305141023 0.0037280555709459603
0.01875781575657 0.002371847951804877 0.005637230309938037 0.9974643936526764 -0.014114189012089958 0.0002111065616248891 0.0027969265113481612 -0.0001936660768303527 -0.00177577550677477
 0.9974643936526764 -0.014114189012089958 0.002372146929452251 0.005637174074142662 -0.00019369240875143632 -0.0017757796141939747 0.0002092380708913606 0.0027972131971790173
 0.0002111065616248891 0.0027969265113481612 -0.00019369240875143632 -0.0017757796141939747 0.002371844658596495 0.005637481414695636 0.9974643966390668 -0.014113938074878865
 -0.0001936660768303527 -0.00177577550677477 0.0002092380708913606 0.0027972131971790173 0.9974643966390668 -0.014113938074878865 0.002372156037010589 0.005637424284072707
0.02501042100875 0.0026027171112496693 0.00757007978022736 0.997162872598487 -0.018841067666600084 0.0002810506481718017 0.0037307532620039292 -0.0002535882463577297 -0.0023713109665941816
 0.997162872598487 -0.018841067666600084 0.0026032481121042615 0.007569998714968435 -0.00025363476297959425 -0.0023713156666105525 0.00027773206294990054 0.0037312061527753617
 0.0002810506481718017 0.0037307532620039292 -0.00025363476297959425 -0.0023713156666105525 0.0026027109093126025 0.007570414002479721 0.9971628775353404 -0.01884073321488462
 -0.0002535882463577297 -0.0023713109665941816 0.00027773206294990054 0.0037312061527753617 0.9971628775353404 -0.01884073321488462 0.002603263867332801 0.007570332056444406
0.03126302626094 0.0028536733815736465 0.009525033094484594 0.9968333613924424 -0.02358293437079867 0.00036255983493210765 0.00466533116273473 -0.00032299058547920694 -0.002968130417456807
 0.9968333613924424 -0.02358293437079867 0.0028545024158530825 0.009524923806888111 -0.0003230628871700147 -0.002968135197533068 0.00035737732811344253 0.004665995367899536
 0.00036255983493210765 0.00466533116273473 -0.0003230628871700147 -0.002968135197533068 0.002853663374077406 0.009525450137267298 0.9968333687596334 -0.02358251637491464
 -0.00032299058547920694 -0.002968130417456807 0.00035737732811344253 0.004665995367899536 0.9968333687596334 -0.02358251637491464 0.0028545265895663164 0.009525340126367028
0.037515631513130004 0.003125141542665667 0.011501127054052873 0.9964754787375983 -0.028340206160458663 0.0004557505794796782 0.00560053068790167 -0.00040199653430613585 -0.003566032937254217
 0.9964754787375983 -0.028340206160458663 0.0031263345678782988 0.01150098594609772 -0.0004021001720664041 -0.0035660372092241473 0.00044828979639098467 0.005601457241656399
 0.0004557505794796782 0.00560053068790167 -0.0004021001720664041 -0.0035660372092241473 0.0031251268353504106 0.011501626579941011 0.9964754890189059 -0.028339704570418508
 -0.00040199653430613585 -0.003566032937254217 0.00044828979639098467 0.005601457241656399 0.9964754890189059 -0.028339704570418508 0.003126368911130408 0.011501485042469452
0.043768236765320004 0.0034175396276179344 0.013497625226223322 0.9960888400555685 -0.033113056690805526 0.0005607373271508943 0.006536203529816194 -0.0004907262314046556 -0.004164827716698011
 0.9960888400555685 -0.033113056690805526 0.0034191625699134813 0.013497448495186012 -0.0004908667097089586 -0.004164830816648375 0.0005505833314932882 0.006537449453648417
 0.0005607373271508943 0.006536203529816194 -0.0004908667097089586 -0.004164830816648375 0.003417519330637759 0.013498206870140434 0.9960888537425034 -0.03311247142330072
 -0.0004907262314046556 -0.004164827716698011 0.0005505833314932882 0.006537449453648417 0.9960888537425034 -0.03311247142330072 0.003419208817644701 0.013498030132569732
0.050020842017509996 0.003731280468412656 0.015513915271811096 0.9956730594392581 -0.03790151884168413 0.0006776321390304545 0.007472188927088193 -0.0005892965832464412 -0.004764327775622777
 0.9956730594392581 -0.03790151884168413 0.0037333992422600016 0.015513698909793856 -0.0005894793618175382 -0.00476432896382894 0.0006643694076487027 0.007473817294676352
 0.0006776321390304545 0.007472188927088193 -0.0005894793618175382 -0.00476432896382894 0.003731253691120611 0.015514578628969393 0.9956730770286308 -0.037900849791971385
 -0.0005892965832464412 -0.004764327775622777 0.0006643694076487027 0.007473817294676352 0.9956730770286308 -0.037900849791971385 0.003733459108605551 0.015514362805508684
0.055454545454549996 0.004021580979386969 0.01728178618793254 0.9952877668269685 -0.04207547311946465 0.0007889731104665028 0.00828571053353824 -0.0006830373775082313 -0.005285739645892216
 0.9952877668269685 -0.04207547311946465 0.004024184180379744 0.017281531970423484 -0.0006832613161211571 -0.00528573851307524 0.0007726709001560692 0.008287727229731501
 0.0007889731104665028 0.00828571053353824 -0.0006832613161211571 -0.00528573851307524 0.004021547844895151 0.017282520199927327 0.9952877882157755 -0.04207473115557081
 -0.0006830373775082313 -0.005285739645892216 0.0007726709001560692 0.008287727229731501 0.9952877882157755 -0.04207473115557081 0.004024257257731402 0.017282267088206203
0.056273447269699996 0.004066772460551462 0.017549458518003918 0.9952277508305039 -0.0427055350820714 0.000806544411318278 0.008408316794450196 -0.0006978212495195152 -0.005364346885358913
 0.9952277508305039 -0.0427055350820714 0.0040694529859097665 0.01754919831096226 -0.0006980517441524286 -0.00536434534624234 0.0007897568585729908 0.00841039679732915
 0.000806544411318278 0.008408316794450196 -0.0006980517441524286 -0.00536434534624234 0.0040667383092791295 0.017550203147627046 0.9952277728250676 -0.04270478212015702
 -0.0006978212495195152 -0.005364346885358913 0.0007897568585729908 0.00841039679732915 0.9952277728250676 -0.04270478212015702 0.004069528164295167 0.017549944139078493
0.06252605252188 0.004424419946012422 0.01960376226614739 0.994752528822888 -0.04752498510679781 0.0009475806456180117 0.009344409455983587 -0.0008164105798671126 -0.005964697895968577
 0.994752528822888 -0.04752498510679781 0.004427728166064613 0.019603453792069372 -0.0008166941630007719 -0.005964692738079573 0.0009268516677039905 0.009347016469128668
 0.0009475806456180117 0.009344409455983587 -0.0008166941630007719 -0.005964692738079573 0.004424377525261668 0.01960458768847783 0.9947525557347475 -0.047524148080396775
 -0.0008164105798671126 -0.005964697895968577 0.0009268516677039905 0.009347016469128668 0.9947525557347475 -0.047524148080396775 0.0044278203308765265 0.019604281180340813
0.06877865777407 0.004804623388634177 0.02167636327617952 0.9942470092615492 -0.052359702305486776 0.0011008442482205079 0.010280282693933612 -0.0009451715227021482 -0.006565191756696914
 0.9942470092615492 -0.052359702305486776 0.004808625286194729 0.02167600190267238 -0.0009455135235752208 -0.006565182012713915 0.0010757567816430242 0.010283498340753105
 0.0011008442482205079 0.010280282693933612 -0.0009455135235752208 -0.006565182012713915 0.004804571797411419 0.021677268971025322 0.9942470416109753 -0.05235878104144373
 -0.0009451715227021482 -0.006565191756696914 0.0010757567816430242 0.010283498340753105 0.9942470416109753 -0.05235878104144373 0.004808736090391299 0.021676910430961264
0.07503126302626001 0.005207779422181878 0.02376681731211937 0.9937108097214301 -0.05720948417972202 0.0012664353446101772 0.01121574642860968 -0.001084207518815351 -0.0071656369144949906
 0.9937108097214301 -0.05720948417972202 0.005212541035690016 0.023766398193452307 -0.0010846132233560694 -0.007165621541248051 0.0012365719353597524 0.011219658645038972
 0.0012664353446101772 0.01121574642860968 -0.0010846132233560694 -0.007165621541248051 0.005207717753218196 0.02376780272228075 0.9937108480391067 -0.05720847848083006
 -0.001084207518815351 -0.0071656369144949906 0.0012365719353597524 0.011219658645038972 0.9937108480391067 -0.05720847848083006 0.005212672111487506 0.02376738739680474
0.08128386827845 0.005634280821022892 0.025874692190103944 0.9931435499142197 -0.06207409926870685 0.0014444506050882448 0.01215060518665808 -0.0012336183833817165 -0.007765838933710424
 0.9931435499142197 -0.06207409926870685 0.005639868261747175 0.025874210263321696 -0.0012340930340717312 -0.00776581681220221 0.0014093934865710856 0.012155308284124951
 0.0014444506050882448 0.01215060518665808 -0.0012340930340717312 -0.00776581681220221 0.005634208158983113 0.025875756720659383 0.9931435947415216 -0.062073008914492085
 -0.0012336183833817165 -0.007765838933710424 0.0014093934865710856 0.012155308284124951 0.9931435947415216 -0.062073008914492085 0.00564002121905776 0.0258752796312093
0.08753647353064001 0.0060845164188323125 0.027999562984176173 0.9925448520469119 -0.06695329192768919 0.0016349830770268246 0.01308465844581539 -0.0013935001814771592 -0.00836560024903424
 0.9925448520469119 -0.06695329192768919 0.006090995886364319 0.027999012964695792 -0.0013940489769034088 -0.00836557018450123 0.0015943142547054378 0.01309025317289691
 0.0016349830770268246 0.01308465844581539 -0.0013940489769034088 -0.00836557018450123 0.006084431838446281 0.02800070599892716 0.9925449039369663 -0.06695211667821031
 -0.0013935001814771592 -0.00836560024903424 0.0015943142547054378 0.01309025317289691 0.9925449039369663 -0.06695211667821031 0.00609117231269378 0.028000161937163107
0.09378907878283 0.006558870989704446 0.030141008609338917 0.9919143411484864 -0.07184678574092385 0.0018381220219784796 0.014017700899101827 -0.0015639450981375254 -0.008964720009140639
 0.9919143411484864 -0.07184678574092385 0.006566308788532783 0.030140384985804798 -0.0015645731925537565 -0.00896468073112315 0.0017914233642014985 0.014024294501633592
 0.0018381220219784796 0.014017700899101827 -0.0015645731925537565 -0.00896468073112315 0.006558773554724888 0.030142229434917185 0.9919144006674891 -0.07184552533304417
 -0.0015639450981375254 -0.008964720009140639 0.0017914233642014985 0.014024294501633592 0.9919144006674891 -0.07184552533304417 0.006566510248637149 0.030141612957230047
0.100041684035 0.007057725104482483 0.03229860933037554 0.9912516453751969 -0.07675428602066961 0.0020539527563967677 0.014949522664907983 -0.0017450413051668448 -0.009562993984514406
 0.9912516453751969 -0.07675428602066961 0.007066187659919783 0.032297906358761654 -0.0017457538079314336 -0.009562944146951151 0.0020008060901557925 0.014957228944561326
 0.0020539527563967677 0.014949522664907983 -0.0017457538079314336 -0.009562944146951151 0.007057613865241252 0.03229990725335144 0.9912517131029838 -0.07675294017134908
 -0.0017450413051668448 -0.009562993984514406 0.0020008060901557925 0.014957228944561326 0.9912517131029838 -0.07675294017134908 0.0070664156943604445 0.03229921267470192
0.1059090909091 0.007548464025538535 0.03433760729957586 0.9906001756532262 -0.08137191636656847 0.0022681024518001213 0.015822637540321628 -0.001924743021938133 -0.010123456487258656
 0.9906001756532262 -0.08137191636656847 0.007557948741731911 0.03433682443091465 -0.0019255393393766613 -0.010123395449194566 0.0022085247413315212 0.015831497340552055
 0.0022681024518001213 0.015822637540321628 -0.0019255393393766613 -0.010123395449194566 0.0075483389560981285 0.034338976889450146 0.9906002516247535 -0.08137049006100053
 -0.001924743021938133 -0.010123456487258656 0.0022085247413315212 0.015831497340552055 0.9906002516247535 -0.08137049006100053 0.007558203092993663 0.03433820362964821
0.1062942892872 0.00758145496642738 0.03447194489204668 0.9905563962999984 -0.08167548169736774 0.0022825564949877364 0.01587990946721228 -0.0019368728253007803 -0.010160214515759635
 0.9905563962999984 -0.08167548169736774 0.00759100884129522 0.034471156588924814 -0.001937674800306367 -0.010160152697084177 0.0022225437065212673 0.015888848838231467
 0.0022825564949877364 0.01587990946721228 -0.001937674800306367 -0.010160152697084177 0.007581328959002128 0.03447331916290218 0.9905564728313063 -0.08167405010007993
 -0.0019368728253007803 -0.010160214515759635 0.0022225437065212673 0.015888848838231467 0.9905564728313063 -0.08167405010007993 0.007591264966403272 0.0344725405498381
0.11254689453939999 0.00813043223410918 0.0366605931123518 0.9898282291914424 -0.0866100467591213 0.0025240101965308035 0.016808642792873824 -0.0021395193948656687 -0.010756170495266346
 0.9898282291914424 -0.0866100467591213 0.008141144144414624 0.036659713247599306 -0.00214041585971956 -0.010756095198566379 0.002456713335841454 0.016818942337057927
 0.0025240101965308035 0.016808642792873824 -0.00214041585971956 -0.010756095198566379 0.008130290477924799 0.036662042942119465 0.9898283151369986 -0.08660852908794257
 -0.0021395193948656687 -0.010756170495266346 0.002456713335841454 0.016818942337057927 0.9898283151369986 -0.08660852908794257 0.008141429851484562 0.03666117410491473
0.11879949979160001 0.00870502383123647 0.03886412879440305 0.9890667832842267 -0.09155764138574109 0.002778386411474234 0.01773550003450282 -0.00235305632529094 -0.011350647374148596
 0.9890667832842267 -0.09155764138574109 0.008716960662744895 0.03886315088288948 -0.0023540522507192645 -0.01135055702730797 0.0027033878005713464 0.017747293554148277
 0.002778386411474234 0.01773550003450282 -0.0023540522507192645 -0.01135055702730797 0.00870486532780406 0.038865653355991014 0.9890668792714936 -0.09155603729454276
 -0.00235305632529094 -0.011350647374148596 0.0027033878005713464 0.017747293554148277 0.9890668792714936 -0.09155603729454276 0.00871727741703399 0.0388646878401285
0.1250521050438 0.009305591748588297 0.041082122877189146 0.9882717020435278 -0.09651791285724026 0.0030457531311561497 0.018660254625132447 -0.002577554364420791 -0.011943427188210747
 0.9882717020435278 -0.09651791285724026 0.009318820573144529 0.04108104016974093 -0.0025786546733910726 -0.011943320144089607 0.0029626354760465064 0.018673682693937776
 0.0030457531311561497 0.018660254625132447 -0.0025786546733910726 -0.011943320144089607 0.009305415479737685 0.04108372130758947 0.9882718087179341 -0.09651622197828309
 -0.002577554364420791 -0.011943427188210747 0.0029626354760465064 0.018673682693937776 0.9882718087179341 -0.09651622197828309 0.00931916981340821 0.041082652384212874
0.131304710296 0.009932492839340949 0.043314141771650314 0.9874426334248727 -0.10149049629030475 0.003326173639391125 0.019582676166268805 -0.0028130795572038772 -0.012534288601550052
 0.9874426334248727 -0.10149049629030475 0.00994708093070962 0.043312947245249554 -0.0028142891241797214 -0.012534163138186094 0.0032345201449645545 0.019597886178096668
 0.003326173639391125 0.019582676166268805 -0.0028142891241797214 -0.012534163138186094 0.009932297765413517 0.04331581316992846 0.9874427514506617 -0.10148871823700245
 -0.0028130795572038772 -0.012534288601550052 0.0032345201449645545 0.019597886178096668 0.9874427514506617 -0.10148871823700245 0.00994746406829224 0.043314633825628945
0.1375573155481 0.01045076412374081 0.04527053347564068 0.9867146137696052 -0.10618563008677344 0.0035870348896813093 0.02047505470220128 -0.003027129678895853 -0.013095472719820003
 0.9867146137696052 -0.10618563008677344 0.010466782679290052 0.04526924474511693 -0.0030284554947859837 -0.013095328492033336 0.0034866360536727954 0.020492038046608995
 0.0035870348896813093 0.02047505470220128 -0.0030284554947859837 -0.013095328492033336 0.01045054812584089 0.04527227777370779 0.9867147436814974 -0.1061837646360243
 -0.003027129678895853 -0.013095472719820003 0.0034866360536727954 0.020492038046608995 0.9867147436814974 -0.1061837646360243 0.010467202432771773 0.04527100422228374
0.1438099208003 0.010987520751055472 0.04721504282521256 0.9859604782477381 -0.11086723619090014 0.003858378479799685 0.02136273474629711 -0.003249660906790658 -0.013652386324891465
 0.9859604782477381 -0.11086723619090014 0.011005037851093165 0.047213654213648724 -0.003251108157511186 -0.013652221628809046 0.0037488555638296416 0.02138162753912029
 0.003858378479799685 0.02136273474629711 -0.003251108157511186 -0.013652221628809046 0.010987282562793493 0.047216859167361305 0.9859606207102809 -0.11086528296701062
 -0.003249660906790658 -0.013652386324891465 0.0037488555638296416 0.02138162753912029 0.9859606207102809 -0.11086528296701062 0.011005495830672467 0.04721548557649911
0.1500625260525 0.011542548333409374 0.049147459930591206 0.9851804461837598 -0.11553514946129546 0.00414009414371143 0.02224559110014488 -0.0034805670509618926 -0.014204914176579066
 0.9851804461837598 -0.11553514946129546 0.011561632255958356 0.04914596540904125 -0.003482140901420729 -0.014204727240725603 0.0040210712621511395 0.022266534410942083
 0.00414009414371143 0.02224559110014488 -0.003482140901420729 -0.014204727240725603 0.011542286654611926 0.04914934743435811 0.9851806018774827 -0.11553310807415691
 -0.0034805670509618926 -0.014204914176579066 0.0040210712621511395 0.022266534410942083 0.9851806018774827 -0.11553310807415691 0.011562130061297828 0.04914786760502408
0.15631513130469998 0.01211563066071482 0.051067581170448316 0.9843747383464969 -0.12018920644735925 0.004432070130063642 0.02312350107694047 -0.003719740457879552 -0.014752943788940206
 0.9843747383464969 -0.12018920644735925 0.012136349885927203 0.05106597434768078 -0.003721446051354291 -0.014752732774808337 0.004303174301841621 0.023146640866833247
