! Created with skrf 1.8.0 (http://scikit-rf.org).
# GHz S RI R 50.0 
!freq ReS11 ImS11 ReS12 ImS12 ReS13 ImS13
! ReS14 ImS14
! ReS21 ImS21 ReS22 ImS22 ReS23 ImS23
! ReS24 ImS24
! ReS31 ImS31 ReS32 ImS32 ReS33 ImS33
! ReS34 ImS34
! ReS41 ImS41 ReS42 ImS42 ReS43 ImS43
! ReS44 ImS44
!
0.0 0.001621196082303 0.0 0.9983788039177 0.0 6.310676373327e-05 0.0 -6.310676373289e-05 7.728349621003202e-21
 0.9983788039177 0.0 0.0016211960823 0.0 -6.310676373301e-05 7.728349621017896e-21 6.310676373263e-05 0.0
 6.310676373327e-05 0.0 -6.310676373301e-05 7.728349621017896e-21 0.001621196073786 0.0 0.9983788039092 0.0
 -6.310676373289e-05 7.728349621003202e-21 6.310676373263e-05 0.0 0.9983788039092 0.0 0.001621196073779 0.0
0.005 0.00174460861401952 0.0013178122935494166 0.9982225992469983 -0.003396152008616862 8.984921594585458e-05 0.0007451680077931263 -8.691690825796223e-05 -0.0004589777703542973
 0.9982225992469983 -0.003396152008616862 0.001744616544730853 0.0013178076767026304 -8.691999397072411e-05 -0.00045898016249929814 8.979715954852513e-05 0.0007451879620253806
 8.984921594585458e-05 0.0007451680077931263 -8.691999397072411e-05 -0.00045898016249929814 0.001744606568290636 0.0013177462532768835 0.9982225988813315 -0.00339621907219692
 -8.691690825796223e-05 -0.0004589777703542973 8.979715954852513e-05 0.0007451879620253806 0.9982225988813315 -0.00339621907219692 0.0017446178654567147 0.0013177395952732557
0.006252605252188 0.0017770491011286408 0.0016524774168128497 0.998181263623037 -0.004246012526212166 9.754137794118447e-05 0.0009317923120963808 -9.368290249310625e-05 -0.0005743223474929482
 0.998181263623037 -0.004246012526212166 0.0017770614977050184 0.001652471504367376 -9.36877039278365e-05 -0.0005743252971613062 9.746004646088732e-05 0.0009318182080843169
 9.754137794118447e-05 0.0009317923120963808 -9.36877039278365e-05 -0.0005743252971613062 0.0017770459748352337 0.0016523948858900544 0.9981812631232945 -0.004246096343503823
 -9.368290249310625e-05 -0.0005743223474929482 9.746004646088732e-05 0.0009318182080843169 0.9981812631232945 -0.004246096343503823 0.0017770636346925515 0.0016523864129443146
0.01250521050438 0.0019482485567815292 0.0033397650509180425 0.9979616005969474 -0.00849279012513208 0.00014192779663283473 0.0018637531600561143 -0.00013230584717502955 -0.0011514245219702184
 0.9979616005969474 -0.00849279012513208 0.001948298049791015 0.003339751810638049 -0.00013232476700503505 -0.0011514299758423388 0.00014160351625556075 0.001863815283167498
 0.00014192779663283473 0.0018637531600561143 -0.00013232476700503505 -0.0011514299758423388 0.0019482366423726823 0.003339600321714342 0.9979615991737741 -0.008492957532467966
 -0.00013230584717502955 -0.0011514245219702184 0.00014160351625556075 0.001863815283167498 0.9979615991737741 -0.008492957532467966 0.0019483071634993504 0.003339581839962743
0.01875781575657 0.002135184543443951 0.0050511583630292005 0.9977195304745773 -0.01275065884376933 0.00019637017786184823 0.002796548645780209 -0.00017909943005476957 -0.0017303948172788244
 0.9977195304745773 -0.01275065884376933 0.0021352957445041005 0.00505113631822543 -0.00017914161874810019 -0.0017304022410315274 0.0001956418380080618 0.002796659450274912
 0.00019637017786184823 0.002796548645780209 -0.00017914161874810019 -0.0017304022410315274 0.002135158181625677 0.005050911714390104 0.9977195276914388 -0.012750909758555806
 -0.00017909943005476957 -0.0017303948172788244 0.0001956418380080618 0.002796659450274912 0.9977195276914388 -0.012750909758555806 0.0021353166560693806 0.005050881535711487
0.02501042100875 0.002338234636106707 0.006784223630169991 0.9974547572906262 -0.017021661450984295 0.0002609743718898009 0.003730216110443082 -0.00023418278789481242 -0.0023109431816831887
 0.9974547572906262 -0.017021661450984295 0.0023384320985154585 0.006784191248784572 -0.00023425728534970914 -0.002310951942908295 0.0002596808792018885 0.0037303900969641477
 0.0002609743718898009 0.003730216110443082 -0.00023425728534970914 -0.002310951942908295 0.00233818818462155 0.006783895368865161 0.9974547527184584 -0.01702199585148723
 -0.00023418278789481242 -0.0023109431816831887 0.0002596808792018885 0.0037303900969641477 0.9974547527184584 -0.01702199585148723 0.0023384696386545625 0.0067838516633639805
0.03126302626094 0.0025577607310581043 0.008537697107767818 0.9971669706187442 -0.02130665825302192 0.00033584664685131627 0.004664700626356688 -0.00029767127785072686 -0.002892864710579601
 0.9971669706187442 -0.02130665825302192 0.002558068963023277 0.00853765280369778 -0.0002977870320370238 -0.0028928740776913426 0.0003338267771226254 0.0046649543516848226
 0.00033584664685131627 0.004664700626356688 -0.0002977870320370238 -0.0028928740776913426 0.0025576885522809304 0.0085372876067538 0.9971669638247607 -0.021307076140550454
 -0.00029767127785072686 -0.002892864710579601 0.0003338267771226254 0.0046649543516848226 0.9971669638247607 -0.021307076140550454 0.0025581279644153053 0.008537228403635647
0.037515631513130004 0.002794116648157373 0.010310746263686549 0.9968558534540745 -0.025606065800467027 0.00042109254164141084 0.005599910739124346 -0.00036967738308510775 -0.0034759839156104735
 0.9968558534540745 -0.025606065800467027 0.002794560122697076 0.010310688397546019 -0.0003698432597020694 -0.0034759930575249546 0.00041818487597461944 0.005600262834894835
 0.00042109254164141084 0.005599910739124346 -0.0003698432597020694 -0.0034759930575249546 0.0027940131107585127 0.010310255959154203 0.9968558440026373 -0.025606567203019744
 -0.00036967738308510775 -0.0034759839156104735 0.00041818487597461944 0.005600262834894835 0.9968558440026373 -0.025606567203019744 0.002794645422385124 0.010310179146682356
0.043768236765320004 0.003047651060507615 0.01210274494361558 0.9965210854248181 -0.029920081654226854 0.000516816323780105 0.006535735439756044 -0.00045031103319811175 -0.0040601377660702325
 0.9965210854248181 -0.029920081654226854 0.003048254222714652 0.012102671823354068 -0.0004505358211540888 -0.004060145752112374 0.0005128592212281582 0.0065362066338699515
 0.000516816323780105 0.006535735439756044 -0.0004505358211540888 -0.004060145752112374 0.0030475105392026016 0.012102174345956708 0.9965210728771917 -0.029920666616297848
 -0.00045031103319811175 -0.0040601377660702325 0.0005128592212281582 0.0065362066338699515 0.9965210728771917 -0.029920666616297848 0.0030483706640097984 0.012102077670803537
0.050020842017509996 0.0033187088486867035 0.013913180468656727 0.9961623444330722 -0.03424877721807765 0.0006231206631838507 0.007472051170011421 -0.0005396797141607759 -0.004645168700648716
 0.9961623444330722 -0.03424877721807765 0.0033194961229092747 0.013913090349899243 -0.0005399721292572444 -0.004645174500547334 0.0006179522523540888 0.0074726643091249
 0.0006231206631838507 0.007472051170011421 -0.0005399721292572444 -0.004645174500547334 0.0033185257247076083 0.013912530154242654 0.9961623283463586 -0.03424944580978846
 -0.0005396797141607759 -0.004645168700648716 0.0006179522523540888 0.0074726643091249 0.9961623283463586 -0.03424944580978846 0.0033196485552526543 0.013912411220592419
0.055454545454549996 0.0035687629158374385 0.0155011301057827 0.9958308679314342 -0.03802246091374893 0.0007241734268972122 0.008286033841262535 -0.0006245193763674621 -0.0051541698185859535
 0.9958308679314342 -0.03802246091374893 0.003569730013233958 0.015501023757716099 -0.0006248775847873644 -0.005154172804619356 0.0007178207165567947 0.008286790551901818
 0.0007241734268972122 0.008286033841262535 -0.0006248775847873644 -0.005154172804619356 0.003568538211399723 0.015500411045227933 0.9958308484057589 -0.038023202248803324
 -0.0006245193763674621 -0.0051541698185859535 0.0007178207165567947 0.008286790551901818 0.9958308484057589 -0.038023202248803324 0.0035699176668125454 0.015500270711071172
0.056273447269699996 0.00360763178767171 0.015741608022911305 0.9957793076324023 -0.03859214328384389 0.0007401063982196423 0.008408725262640502 -0.0006378884871684079 -0.005230921208992013
 0.9957793076324023 -0.03859214328384389 0.0036086275838797116 0.015741499109189417 -0.0006382571744505766 -0.0052309236929051605 0.0007335645806284257 0.008409505335032883
 0.0007401063982196423 0.008408725262640502 -0.0006382571744505766 -0.0052309236929051605 0.0036074004495651223 0.0157408786477679 0.9957792875588393 -0.03859289558809278
 -0.0006378884871684079 -0.005230921208992013 0.0007335645806284257 0.008409505335032883 0.9957792875588393 -0.03859289558809278 0.003608820863829852 0.015740734916182463
0.06252605252188 0.003914758904543956 0.01758762559270569 0.9953716520800943 -0.04295011502893876 0.0008678723475694425 0.00934561784916281 -0.000745039961299371 -0.005817239951027771
 0.9953716520800943 -0.04295011502893876 0.003915987624561423 0.01758749603541297 -0.0007454934966356689 -0.005817237889583873 0.0008597948087352983 0.009346592007690498
 0.0008678723475694425 0.00934561784916281 -0.0007454934966356689 -0.005817237889583873 0.003914473749343216 0.017586817888193305 0.995371627567566 -0.04295095114652072
 -0.000745039961299371 -0.005817239951027771 0.0008597948087352983 0.009346592007690498 0.995371627567566 -0.04295095114652072 0.003916226616865643 0.017586646674288373
0.06877865777407 0.004240426658618962 0.019450859027122385 0.9949390552173755 -0.0473225868980793 0.0010065151498685014 0.010282582992641958 -0.0008612342374788361 -0.006403968657098286
 0.9949390552173755 -0.0473225868980793 0.004241912702112582 0.01945070692528509 -0.0008617811286501362 -0.006403960721454026 0.0009967393757776642 0.010283780577579721
 0.0010065151498685014 0.010282582992641958 -0.0008617811286501362 -0.006403960721454026 0.004240082091957935 0.019449973803171376 0.9949390258071689 -0.04732350694534243
 -0.0008612342374788361 -0.006403968657098286 0.0009967393757776642 0.010283780577579721 0.9949390258071689 -0.04732350694534243 0.004242202279128123 0.01944977227598263
0.07503126302626001 0.0045849690139777655 0.021330952561963868 0.9944811952453652 -0.05170942202753575 0.001156129117079455 0.011219469421259483 -0.0009865688373390405 -0.006990949433381377
 0.9944811952453652 -0.05170942202753575 0.004586736784631844 0.021330775961836544 -0.0009872175247046882 -0.006990934195296857 0.0011444924150513923 0.01122092198294474
 0.001156129117079455 0.011219469421259483 -0.0009872175247046882 -0.006990934195296857 0.004584559451547929 0.02132999070286912 0.9944811604725042 -0.051710426141260264
 -0.0009865688373390405 -0.006990949433381377 0.0011444924150513923 0.01122092198294474 0.9944811604725042 -0.051710426141260264 0.004587081827364162 0.021329755883111996
0.08128386827845 0.004948717445088202 0.023227562521651233 0.9939977514384866 -0.0561104584979714 0.0013168060984621015 0.012156121021096944 -0.0011211386204889005 -0.007578022314607433
 0.9939977514384866 -0.0561104584979714 0.004950791356585441 0.02322735941615222 -0.001121897477435362 -0.007577998246526405 0.0013031456209545273 0.012157862342215869
 0.0013168060984621015 0.012156121021096944 -0.001121897477435362 -0.007577998246526405 0.004948237313806584 0.0232265249952075 0.9939977108309987 -0.05611154682710966
 -0.0011211386204889005 -0.007578022314607433 0.0013031456209545273 0.012157862342215869 0.9939977108309987 -0.05611154682710966 0.0049511967547673135 0.023226253753274112
0.08753647353064001 0.005332000898320698 0.025140352976857586 0.9934884044180898 -0.060525513638653286 0.001488635350323532 0.013092377189322001 -0.0012650356946966859 -0.008165024962849675
 0.9934884044180898 -0.060525513638653286 0.00533440538004087 0.025140121304602376 -0.0012659130277345085 -0.008164990437986085 0.0014727881215173193 0.013094443306886083
 0.001488635350323532 0.013092377189322001 -0.0012659130277345085 -0.008164990437986085 0.005331444636915196 0.02513924082784444 0.9934883574962167 -0.06052668635148955
 -0.0012650356946966859 -0.008165024962849675 0.0014727881215173193 0.013094443306886083 0.9934883574962167 -0.06052668635148955 0.005334876032663982 0.025138929881584327
0.09378907878283 0.005735145722630372 0.027068992630338917 0.9929528363989466 -0.06495438711071756 0.0016717034099925168 0.014028073093729894 -0.0014183493206749076 -0.008751792466912222
 0.9929528363989466 -0.06495438711071756 0.005737905225964913 0.027068730274674168 -0.0014193533695284486 -0.008751745759357249 0.0016535063546225459 0.014030502320564728
 0.0016717034099925168 0.014028073093729894 -0.0014193533695284486 -0.008751745759357249 0.005734507783452256 0.027067806985921938 0.9929527826744684 -0.06495564439013235
 -0.0014183493206749076 -0.008751792466912222 0.0016535063546225459 0.014030502320564728 0.9929527826744684 -0.06495564439013235 0.005738446041530326 0.027067452898199253
0.100041684035 0.006158475577878792 0.029013152552841735 0.9923907314165441 -0.06939686314796398 0.0018660939726009049 0.014963039878144584 -0.0015811658133605183 -0.00933815720274583
 0.9923907314165441 -0.06939686314796398 0.006161614582158953 0.029012857340455136 -0.0015823047508377746 -0.009338096487582239 0.0018453839466328794 0.014965872823955508
 0.0018660939726009049 0.014963039878144584 -0.0015823047508377746 -0.009338096487582239 0.006157750427565893 0.029011894622244315 0.9923906703921047 -0.06939820519249768
 -0.0015811658133605183 -0.00933815720274583 0.0018453839466328794 0.014965872823955508 0.9923906703921047 -0.06939820519249768 0.006162230478526893 0.02901149379830986
0.1059090909091 0.006574369671431721 0.030851363528173536 0.9918388407619756 -0.07357782284631337 0.0020588785442919285 0.015839590107021812 -0.0017426687903743534 -0.00988788022671978
 0.9918388407619756 -0.07357782284631337 0.006577887090922943 0.030851035454876694 -0.0017439416797542084 -0.009887804619066859 0.0020356619514694052 0.01584284089841245
 0.0020588785442919285 0.015839590107021812 -0.0017439416797542084 -0.009887804619066859 0.006573557664404952 0.030850038936737847 0.9918387724263223 -0.07357924462964986
 -0.0017426687903743534 -0.00988788022671978 0.0020356619514694052 0.01584284089841245 0.9918387724263223 -0.07357924462964986 0.006578577924434727 0.030849590843487356
0.1062942892872 0.0066023113271328464 0.030972504475970452 0.9918017755426751 -0.07385271224877364 0.0020718877701401827 0.015897104823263286 -0.0017535684400888716 -0.009923948745672833
 0.9918017755426751 -0.07385271224877364 0.006605854345603795 0.030972174175423195 -0.001754850371807188 -0.009923872099097432 0.0020485015931619244 0.01590038441513933
 0.0020718877701401827 0.015897104823263286 -0.001754850371807188 -0.009923872099097432 0.006601493448232125 0.030971175549016326 0.9918017067111115 -0.0738541392745822
 -0.0017535684400888716 -0.009923948745672833 0.0020485015931619244 0.01590038441513933 0.9918017067111115 -0.0738541392745822 0.0066065502507941095 0.030970724233591103
0.11254689453939999 0.007066970915878053 0.03294671949685355 0.991185657089892 -0.07832169246419367 0.0022891624521755903 0.016830091485466044 -0.0019356373165995663 -0.010508993811848586
 0.991185657089892 -0.07832169246419367 0.007070942501772918 0.032946351816719704 -0.0019370702807185397 -0.010508899211329444 0.0022629369412272473 0.016833862987887978
 0.0022891624521755903 0.016830091485466044 -0.0019370702807185397 -0.010508899211329444 0.007066054808129448 0.03294532094805676 0.9911855799339502 -0.07832320470153806
 -0.0019356373165995663 -0.010508993811848586 0.0022629369412272473 0.016833862987887978 0.9911855799339502 -0.07832320470153806 0.007071723354098965 0.032944815222202925
0.11879949979160001 0.007552769242342674 0.03493546707361709 0.9905420668118764 -0.0828035504037745 0.002517992467546376 0.017761819816381683 -0.0021274493017840617 -0.011093116226492835
 0.9905420668118764 -0.0828035504037745 0.007557193995124613 0.034935059660446514 -0.002129041268522188 -0.011093001550891353 0.0024887644724585736 0.01776613085059124
 0.002517992467546376 0.017761819816381683 -0.002129041268522188 -0.011093001550891353 0.007551749423756334 0.03493400036156521 0.9905419808027071 -0.08280514809818972
 -0.0021274493017840617 -0.011093116226492835 0.0024887644724585736 0.01776613085059124 0.9905419808027071 -0.08280514809818972 0.007558064743009853 0.034933436139316036
0.1250521050438 0.008060018019530248 0.03693841423881011 0.9898706980961917 -0.08729802203196274 0.0027584489474478725 0.018692106268321632 -0.002329077890985695 -0.011676136913703802
 0.9898706980961917 -0.08729802203196274 0.008064920590681961 0.03693796467483742 -0.0023308367621808906 -0.011675999943490655 0.0027260553872476734 0.018697006831102033
 0.0027584489474478725 0.018692106268321632 -0.0023308367621808906 -0.011675999943490655 0.008058889028032444 0.03693688090512594 0.9898706026933983 -0.08729970544568731
 -0.002329077890985695 -0.011676136913703802 0.0027260553872476734 0.018697006831102033 0.9898706026933983 -0.08729970544568731 0.008065886193531758 0.03693625392983582
0.131304710296 0.00858902563097344 0.03895522497175015 0.9891712471552363 -0.09180483331446558 0.003010599589167852 0.019620763894663856 -0.002540593108746972 -0.012257873899079157
 0.9891712471552363 -0.09180483331446558 0.00859443073079222 0.03895473077223992 -0.002542526717383653 -0.012257712316473232 0.0029748774898654753 0.019626306376452435
 0.003010599589167852 0.019620763894663856 -0.002542526717383653 -0.012257712316473232 0.008587782026036233 0.03895362664240142 0.9891711418057958 -0.0918066027255584
 -0.002540593108746972 -0.012257873899079157 0.0029748774898654753 0.019626306376452435 0.9891711418057958 -0.0918066027255584 0.008595496158409446 0.03895293248290254
0.1375573155481 0.009021713820320524 0.04072079750325503 0.988561846480208 -0.09605880758247812 0.00324385371628096 0.02052094537295834 -0.0027314479760409075 -0.012811475129992077
 0.988561846480208 -0.09605880758247812 0.009027649143180973 0.0407202701481054 -0.002733568015367906 -0.012811288667425648 0.003204717143354183 0.020527123484519905
 0.00324385371628096 0.02052094537295834 -0.002733568015367906 -0.012811288667425648 0.009020350769118833 0.04071913561696474 0.9885617307235702 -0.09606066314097253
 -0.0027314479760409075 -0.012811475129992077 0.003204717143354183 0.020527123484519905 0.9885617307235702 -0.09606066314097253 0.009028818593893302 0.040718383986221345
0.1438099208003 0.009469690567351686 0.04247645368690365 0.9879308530103397 -0.10030141002394305 0.003486533098329454 0.021417182156967567 -0.002929933043281795 -0.01336148935286543
 0.9879308530103397 -0.10030141002394305 0.009476181372046194 0.04247589163552047 -0.0029322479422425373 -0.013361275720796473 0.003443833138644427 0.02142404402677664
 0.003486533098329454 0.021417182156967567 -0.0029322479422425373 -0.013361275720796473 0.009468202767990767 0.04247472991393341 0.9879307262948188 -0.10030335199688944
 -0.002929933043281795 -0.01336148935286543 0.003443833138644427 0.02142404402677664 0.9879307262948188 -0.10030335199688944 0.009477459692630755 0.04247391729256063
0.1500625260525 0.009932789237477552 0.04422202944149875 0.9872784379475031 -0.10453251784994198 0.0037385493460751844 0.022309372165218916 -0.0031359627589221534 -0.013907821016879512
 0.9872784379475031 -0.10453251784994198 0.00993986085877848 0.04422143104801272 -0.0031384809267733784 -0.013907577833484857 0.0036921380775241917 0.02231696767176709
 0.0037385493460751844 0.022309372165218916 -0.0031384809267733784 -0.013907577833484857 0.009931171415113321 0.04422024551551473 0.9872782997110925 -0.10453454651688238
 -0.0031359627589221534 -0.013907821016879512 0.0036921380775241917 0.02231696767176709 0.9872782997110925 -0.10453454651688238 0.009941252897587252 0.04421936819957923
0.15631513130469998 0.01041084189876044 0.04595736560858269 0.9866047734935169 -0.10875200908509414 0.0039998129585552995 0.0231974151471345 -0.0033494504557490296 -0.01445037669350483
 0.9866047734935169 -0.10875200908509414 0.010418519749591725 0.045956729118325115 -0.003352180281769849 -0.01445010148510036 0.003949543467222932 0.023205795898400043
