! Created with skrf 1.8.0 (http://scikit-rf.org).
# GHz S RI R 50.0 
!freq ReS11 ImS11 ReS12 ImS12 ReS13 ImS13
! ReS14 ImS14
! ReS21 ImS21 ReS22 ImS22 ReS23 ImS23
! ReS24 ImS24
! ReS31 ImS31 ReS32 ImS32 ReS33 ImS33
! ReS34 ImS34
! ReS41 ImS41 ReS42 ImS42 ReS43 ImS43
! ReS44 ImS44
!
0.0 0.001175835453052 0.0 0.998824164542 0.0 4.465362288898e-05 0.0 -4.465362334413e-05 5.468491689872034e-21
 0.998824164542 0.0 0.001175835453049 0.0 -4.465362334427e-05 5.468491689889179e-21 4.465362288905e-05 0.0
 4.465362288898e-05 0.0 -4.465362334427e-05 5.468491689889179e-21 0.001175835451813 0.0 0.9988241645407 0.0
 -4.465362334413e-05 5.468491689872034e-21 4.465362288905e-05 0.0 0.9988241645407 0.0 0.0011758354518 0.0
0.005 0.0012642465507018343 0.0009639594131954575 0.998712439595548 -0.0024640808436406808 6.18901759095474e-05 0.00048303104607904995 -6.02127065098872e-05 -0.0003049044737072667
 0.998712439595548 -0.0024640808436406808 0.001264260088061726 0.0009639514735005775 -6.021355222441716e-05 -0.0003049050623826828 6.179903355360753e-05 0.0004830655362550944
 6.18901759095474e-05 0.00048303104607904995 -6.021355222441716e-05 -0.0003049050623826828 0.0012642467643871579 0.0009640264997880192 0.9987124399249104 -0.0024640137796278585
 -6.02127065098872e-05 -0.0003049044737072667 6.179903355360753e-05 0.0004830655362550944 0.9987124399249104 -0.0024640137796278585 0.0012642605297927155 0.0009640185119687963
0.006252605252188 0.0012871906018876074 0.0012087686047891825 0.9986833002316045 -0.003080740426698474 6.668833132376718e-05 0.0006040414981650131 -6.44942169788644e-05 -0.0003815364632220528
 0.9986833002316045 -0.003080740426698474 0.0012872117638341209 0.0012087585482011675 -6.449553349657532e-05 -0.0003815371881789486 6.65459252255532e-05 0.0006040862596947491
 6.668833132376718e-05 0.0006040414981650131 -6.449553349657532e-05 -0.0003815371881789486 0.001287190857901079 0.0012088524522220869 0.9986833006681884 -0.0030806566007036606
 -6.44942169788644e-05 -0.0003815364632220528 6.65459252255532e-05 0.0006040862596947491 0.9986833006681884 -0.0030806566007036606 0.0012872123755681422 0.0012088423461370159
0.01250521050438 0.0014065553334242208 0.002443163259397066 0.9985308818200285 -0.0061624780373306575 9.353734664503902e-05 0.0012085344508699454 -8.818891222063097e-05 -0.0007650630888630114
 0.9985308818200285 -0.0061624780373306575 0.0014066398407107886 0.0024431418250384644 -8.819410702027153e-05 -0.0007650644210115045 9.296934900750041e-05 0.0012086414662157915
 9.353734664503902e-05 0.0012085344508699454 -8.819410702027153e-05 -0.0007650644210115045 0.0014065557973145686 0.0024433306248918298 0.9985308829993367 -0.006162310636896023
 -8.818891222063097e-05 -0.0007650630888630114 9.296934900750041e-05 0.0012086414662157915 0.9985308829993367 -0.006162310636896023 0.001406641711696115 0.002443309198565377
0.01875781575657 0.0015341393120173635 0.0036954889862034095 0.9983667565464515 -0.009252761245409814 0.0001252543116340064 0.0018139022551529789 -0.00011579948874506358 -0.0011500693997926067
 0.9983667565464515 -0.009252761245409814 0.001534329215510902 0.0036954547692591194 -0.0001158110828989349 -0.0011500712020265937 0.00012397809139110238 0.0018140917698312837
 0.0001252543116340064 0.0018139022551529789 -0.0001158110828989349 -0.0011500712020265937 0.0015341399477230263 0.003695739690908936 0.9983667587797225 -0.009252510346389995
 -0.00011579948874506358 -0.0011500693997926067 0.00012397809139110238 0.0018140917698312837 0.9983667587797225 -0.009252510346389995 0.001534332986564094 0.0036957056480368716
0.02501042100875 0.0016701485402514113 0.004964046707562597 0.998190767153508 -0.012353137770214071 0.00016189394644344925 0.0024201977422788424 -0.000147386484663907 -0.0015364129818731356
 0.998190767153508 -0.012353137770214071 0.0016704858118351748 0.004963998236197621 -0.00014740697277274464 -0.001536415095296149 0.00015962657302422055 0.0024204926340344554
 0.00016189394644344925 0.0024201977422788424 -0.00014740697277274464 -0.001536415095296149 0.0016701493131343619 0.004964380574806697 0.9981907707479657 -0.012352803420414931
 -0.000147386484663907 -0.0015364129818731356 0.00015962657302422055 0.0024204926340344554 0.9981907707479657 -0.012352803420414931 0.001670492108664394 0.004964332554676701
0.03126302626094 0.0018147800931286831 0.00624798738750011 0.9980027466918473 -0.015464300473656998 0.0002035117372302624 0.003027420049841152 -0.00018300916911402512 -0.0019240025394101279
 0.9980027466918473 -0.015464300473656998 0.001815306647163737 0.006247923126559817 -0.00018304102405851904 -0.001924004782973416 0.000199969705538268 0.0030278458432303344
 0.0002035117372302624 0.003027420049841152 -0.00018304102405851904 -0.001924004782973416 0.001814780974557422 0.006248404250486879 0.9980027519561558 -0.015463882684866693
 -0.00018300916911402512 -0.0019240025394101279 0.000199969705538268 0.0030278458432303344 0.9980027519561558 -0.015463882684866693 0.0018153160860295422 0.006248340831919642
0.037515631513130004 0.0019682269430515236 0.007546776662835944 0.9978025234202964 -0.01858662268738924 0.00025016337921065883 0.00363554753560684 -0.00022272597596265366 -0.0023127649641625342
 0.9978025234202964 -0.01858662268738924 0.0019689846495493596 0.00754669501601635 -0.000222771651353359 -0.002312767134502204 0.0002450624769617576 0.0036361324301548994
 0.00025016337921065883 0.00363554753560684 -0.000222771651353359 -0.002312767134502204 0.0019682279105246235 0.007547276327966468 0.9978025306654295 -0.018586121471798524
 -0.00022272597596265366 -0.0023127649641625342 0.0002450624769617576 0.0036361324301548994 0.9978025306654295 -0.018586121471798524 0.001968997838001482 0.00754719603163945
0.043768236765320004 0.0021306798286224553 0.008860031892356889 0.9975899227517797 -0.02172032111637793 0.00030190452536291997 0.004244547781316758 -0.0002665946713482411 -0.002702635317676368
 0.9975899227517797 -0.02172032111637793 0.002131710523502072 0.008859931203746826 -0.00026665660292121766 -0.0027026371890168043 0.0002949597612687813 0.004245322683881537
 0.00030190452536291997 0.004244547781316758 -0.00026665660292121766 -0.0027026371890168043 0.002130680861898253 0.008860614169059443 0.9975899322882306 -0.02171973645654243
 -0.0002665946713482411 -0.002702635317676368 0.0002949597612687813 0.004245322683881537 0.9975899322882306 -0.02171973645654243 0.002131728057361781 0.008860515459182589
0.050020842017509996 0.002302328130922142 0.010187454840745833 0.997364768209981 -0.024865523105786436 0.00035879064359213607 0.0048543817263970584 -0.00031467242602837295 -0.003093552684814086
 0.997364768209981 -0.024865523105786436 0.0023036736244480805 0.010187333396071722 -0.0003147530326111453 -0.0030935540088859125 0.000349716207518925 0.004855380285360441
 0.00035879064359213607 0.0048543817263970584 -0.0003147530326111453 -0.0030935540088859125 0.0023023292151108815 0.01018811951755321 0.9973647803511902 -0.024864854978263583
 -0.00031467242602837295 -0.003093552684814086 0.000349716207518925 0.004855380285360441 0.9973647803511902 -0.024864854978263583 0.0023036960910681574 0.010188000803271702
0.055454545454549996 0.0024591099176378443 0.011352338856220376 0.9971587687344369 -0.02760819742280696 0.0004124476211880571 0.005384989134220567 -0.00035991569817506343 -0.00343407623741568
 0.9971587687344369 -0.02760819742280696 0.002460762921571523 0.011352197937130479 -0.0003600144856372401 -0.003434076866757661 0.00040128967105034917 0.005386211539570558
 0.0004124476211880571 0.005384989134220567 -0.0003600144856372401 -0.003434076866757661 0.002459111035955194 0.011353074952936854 0.99715878339462 -0.027607456735839777
 -0.00035991569817506343 -0.00343407623741568 0.00040128967105034917 0.005386211539570558 0.99715878339462 -0.027607456735839777 0.002460790143369051 0.011352937520324465
0.056273447269699996 0.002483360338983541 0.011528798617019718 0.9971268819758382 -0.028022299652730464 0.0004208769230001845 0.005465005684314707 -0.0003670158441702295 -0.003485458145552702
 0.9971268819758382 -0.028022299652730464 0.002485062423350467 0.01152865464465306 -0.0003671175283047728 -0.003485458651539 0.00040938616512714164 0.005466264324673281
 0.0004208769230001845 0.005465005684314707 -0.0003671175283047728 -0.003485458651539 0.0024833614619472607 0.011529545463665813 0.9971268970364656 -0.028021548025829335
 -0.0003670158441702295 -0.003485458145552702 0.00040938616512714164 0.005466264324673281 0.9971268970364656 -0.028021548025829335 0.0024850903993765177 0.011529405100151921
0.06252605252188 0.0026739643126207713 0.012883849512887117 0.9968760852338262 -0.031190683518363124 0.0004882182035342212 0.006076372456843886 -0.0004236809709974391 -0.0038782936498300952
 0.9968760852338262 -0.031190683518363124 0.002676064768657636 0.012883681184703576 -0.0004238061193194133 -0.003878293044302736 0.000474023626122529 0.006077930415786931
 0.0004882182035342212 0.006076372456843886 -0.0004238061193194133 -0.003878293044302736 0.0026739654650169606 0.012884678286855016 0.9968761035304928 -0.031189848345360593
 -0.0004236809709974391 -0.0038782936498300952 0.000474023626122529 0.006077930415786931 0.9968761035304928 -0.031189848345360593 0.002676098820835547 0.012884514576296103
0.06877865777407 0.00287432743514684 0.014252416163771355 0.9966121984097435 -0.03437068001774733 0.0005608689191005605 0.00668843198835481 -0.00048472328785919796 -0.00427200135338256
 0.9966121984097435 -0.03437068001774733 0.0028768680391033853 0.01425222159588126 -0.0004848742714214631 -0.004271999320255679 0.000543682177101101 0.006690331351104387
 0.0005608689191005605 0.00668843198835481 -0.0004848742714214631 -0.004271999320255679 0.0028743286102519993 0.014253326602076816 0.9966122202616704 -0.03436976124491628
 -0.00048472328785919796 -0.00427200135338256 0.000543682177101101 0.006690331351104387 0.9966122202616704 -0.03436976124491628 0.0028769087241137838 0.014253137794440764
0.07503126302626001 0.0030846367035498408 0.01563432268503243 0.9963350413477156 -0.03756227383537082 0.0006388830491589961 0.007301131782510636 -0.0005501976992962236 -0.00466652319226878
 0.9963350413477156 -0.03756227383537082 0.0030876592333236867 0.015634099938288515 -0.0005503768737115622 -0.004666519392750398 0.0006184149570534814 0.007303417518294351
 0.0006388830491589961 0.007301131782510636 -0.0005503768737115622 -0.004666519392750398 0.0030846378965432627 0.01563531451018527 0.9963350670766622 -0.03756127139586652
 -0.0005501976992962236 -0.00466652319226878 0.0006184149570534814 0.007303417518294351 0.9963350670766622 -0.03756127139586652 0.0030877070978421414 0.015635098803847978
0.08128386827845 0.003305078778063342 0.017029404097284737 0.9960444334486869 -0.040765433552548906 0.0007223140742425578 0.007914417179290539 -0.0006201585157828918 -0.005061800598236683
 0.9960444334486869 -0.040765433552548906 0.003308625019706911 0.017029151177676713 -0.000620368221412366 -0.005061794670781183 0.0006982746179211426 0.007917137177348871
 0.0007223140742425578 0.007914417179290539 -0.000620368221412366 -0.005061794670781183 0.0033050799859563247 0.01703047701248237 0.9960444633791511 -0.04076434737098017
 -0.0006201585157828918 -0.005061800598236683 0.0006982746179211426 0.007917137177348871 0.9960444633791511 -0.04076434737098017 0.003308680600037087 0.01703023255476359
0.08753647353064001 0.003535840005838206 0.018437503166082236 0.9957401937834722 -0.04398011476148796 0.0008112149353218493 0.00852823154056994 -0.0006946594325091033 -0.005457774306735904
 0.9957401937834722 -0.04398011476148796 0.003539951759345073 0.018437218025066957 -0.0006949019944356555 -0.005457765867011026 0.000783313287776941 0.008531436646126971
 0.0008112149353218493 0.00852823154056994 -0.0006949019944356555 -0.005457765867011026 0.0035358412267254436 0.018438656853531406 0.9957402282435469 -0.04397894475552405
 -0.0006946594325091033 -0.005457774306735904 0.000783313287776941 0.008531436646126971 0.9957402282435469 -0.04397894475552405 0.0035400155818214717 0.018438381740932215
0.09378907878283 0.003777106426663585 0.01985846813400475 0.9954221411912325 -0.04720626228826764 0.0009056379945942234 0.009142516388514509 -0.0007737535059614808 -0.005854384213401867
 0.9954221411912325 -0.04720626228826764 0.0037818255123528866 0.019858148668549666 -0.0007740312340483199 -0.005854372854248261 0.0008735825350094089 0.009146260438667071
 0.0009056379945942234 0.009142516388514509 -0.0007740312340483199 -0.005854372854248261 0.0037771076588913027 0.0198597022610973 0.9954221805118129 -0.04720500836225754
 -0.0007737535059614808 -0.005854384213401867 0.0008735825350094089 0.009146260438667071 0.9954221805118129 -0.04720500836225754 0.0037818980923877052 0.019859394539599222
0.100041684035 0.004029063765272533 0.02129215106954501 0.9950900943650174 -0.0504438118002801 0.001005634998392021 0.009757211501518788 -0.0008574931280982182 -0.006251569274305081
 0.9950900943650174 -0.0504438118002801 0.004034432030149575 0.02129179512212028 -0.0008578083169869515 -0.0062515545657002005 0.0009691333336955297 0.009761551360998958
 0.001005634998392021 0.009757211501518788 -0.0008578083169869515 -0.0062515545657002005 0.004029065007634725 0.021293465282451924 0.9950901388809723 -0.050442473851547535
 -0.0008574931280982182 -0.006251569274305081 0.0009691333336955297 0.009761551360998958 0.9950901388809723 -0.050442473851547535 0.004034513872718519 0.02129312294743246
0.1059090909091 0.004275387427597528 0.022648947778272983 0.9947656144697841 -0.05349221432974271 0.0011045865434361965 0.010334355691819307 -0.0009403450208795536 -0.006624753153724843
 0.9947656144697841 -0.05349221432974271 0.004281402966443206 0.02264855558543093 -0.0009406974360549884 -0.00662473489052644 0.0010636459918180756 0.010339309101267671
 0.0011045865434361965 0.010334355691819307 -0.0009406974360549884 -0.00662473489052644 0.004275388678146132 0.022650336806732726 0.9947656641691437 -0.05349079743063773
 -0.0009403450208795536 -0.006624753153724843 0.0010636459918180756 0.010339309101267671 0.9947656641691437 -0.05349079743063773 0.004281493950906823 0.022649960122291212
0.1062942892872 0.004291897414944186 0.022738406610109434 0.994743871930565 -0.053692691020962545 0.0011112570401125962 0.010372254989889614 -0.0009459299997097352 -0.006649267427819057
 0.994743871930565 -0.053692691020962545 0.0042979567384102526 0.022738011968514608 -0.0009462849287128802 -0.0066492489168537335 0.0010700160290499337 0.010377250586662922
 0.0011112570401125962 0.010372254989889614 -0.0009462849287128802 -0.0066492489168537335 0.004291898665985152 0.022739800538498875 0.994743921980804 -0.0536912689350029
 -0.0009459299997097352 -0.006649267427819057 0.0010700160290499337 0.010377250586662922 0.994743921980804 -0.0536912689350029 0.004298048338101709 0.022739421534687863
0.11254689453939999 0.004565792414231064 0.024197091007700417 0.994383292519929 -0.05695282064334213 0.001222554524431405 0.010987583351219144 -0.0010391151019615874 -0.00704741553821785
 0.994383292519929 -0.05695282064334213 0.0045725847146249506 0.02419665540466967 -0.0010395120350506959 -0.007047392749063319 0.0011762803034939462 0.010993297711888853
 0.001222554524431405 0.010987583351219144 -0.0010395120350506959 -0.007047392749063319 0.004565793671658958 0.024198564259739874 0.9943833484476982 -0.05695131429862731
 -0.0010391151019615874 -0.00704741553821785 0.0011762803034939462 0.010993297711888853 0.9943833484476982 -0.05695131429862731 0.004572686554975008 0.02419814648087324
0.11879949979160001 0.004850933416753248 0.025668061379328932 0.9940081748399359 -0.06022411504023738 0.001339577131426533 0.011603131516802085 -0.001137098667297325 -0.007445949349669464
 0.9940081748399359 -0.06022411504023738 0.00485850065739025 0.025667582492120884 -0.001137539852961628 -0.007445921783562265 0.0012879751428102751 0.011609630801778674
 0.001339577131426533 0.011603131516802085 -0.001137539852961628 -0.007445921783562265 0.004850934676884844 0.025669613544251565 0.994008236992881 -0.06022252430568064
 -0.001137098667297325 -0.007445949349669464 0.0012879751428102751 0.011609630801778674 0.994008236992881 -0.06022252430568064 0.0048586132110487144 0.02566915483266731
0.1250521050438 0.00514750465802065 0.027151175111531672 0.9936183377389831 -0.0635064828223422 0.001462373781154524 0.012218832886527429 -0.0012399301493478307 -0.007844803453241966
 0.9936183377389831 -0.0635064828223422 0.005155888853783245 0.027150650561128274 -0.001240417820514529 -0.007844770588459655 0.001405148802246269 0.012226186424969417
 0.001462373781154524 0.012218832886527429 -0.001240417820514529 -0.007844770588459655 0.005147505915521191 0.02715280576115821 0.9936184064695993 -0.06350480755562388
 -0.0012399301493478307 -0.007844803453241966 0.001405148802246269 0.012226186424969417 0.9936184064695993 -0.06350480755562388 0.005156012582273804 0.02715230390707003
0.131304710296 0.005455689917937299 0.028646289386358458 0.9932136002709849 -0.06679982727604024 0.0015909925982234186 0.012834619359674903 -0.0013476581922148409 -0.00824391125956835
 0.9932136002709849 -0.06679982727604024 0.005464933141425751 0.028645716736689503 -0.0013481945661002644 -0.008243872551419505 0.00152784877261274 0.01284289968412377
 0.0015909925982234186 0.012834619359674903 -0.0013481945661002644 -0.008243872551419505 0.005455691165125633 0.02864799807118446 0.9932136759370229 -0.06679806732750974
 -0.0013476581922148409 -0.00824391125956835 0.00152784877261274 0.01284289968412377 0.9932136759370229 -0.06679806732750974 0.00546506849504106 0.028647450811941436
0.1375573155481 0.00569699346080866 0.029957987512571917 0.9928724784238688 -0.06990872731716406 0.0017073130641814262 0.01343026420119734 -0.0014422412570991177 -0.008623004227194935
 0.9928724784238688 -0.06990872731716406 0.005707140151128765 0.029957376198590468 -0.001442829395333749 -0.00862295973282747 0.0016381089742285775 0.0134394469319382
 0.0017073130641814262 0.01343026420119734 -0.001442829395333749 -0.00862295973282747 0.00569699395885811 0.029959774239119653 0.9928725613374815 -0.069906882606724
 -0.0014422412570991177 -0.008623004227194935 0.0016381089742285775 0.0134394469319382 0.9928725613374815 -0.069906882606724 0.005707288391892911 0.029959190380747583
0.1438099208003 0.005946490836579274 0.031264043491526776 0.9925198853083819 -0.07301102668470688 0.0018283334484534976 0.0140242049848264 -0.0015406140686736553 -0.009000560427595323
 0.9925198853083819 -0.07301102668470688 0.0059575834987610704 0.031263391810462185 -0.0015412563181985148 -0.009000509625876231 0.001752800329214745 0.01403435514460873
 0.0018283334484534976 0.0140242049848264 -0.0015412563181985148 -0.009000509625876231 0.00594649044175711 0.03126590783916844 0.9925199758253694 -0.07300909706415545
 -0.0015406140686736553 -0.009000560427595323 0.001752800329214745 0.01403435514460873 0.9925199758253694 -0.07300909706415545 0.005957745208355202 0.031265285769794565
0.1500625260525 0.006204109148129157 0.03256438591308369 0.9921558964465728 -0.07610668666235612 0.0019540210353001563 0.014616404635232986 -0.001642745327194104 -0.009376544790132281
 0.9921558964465728 -0.07610668666235612 0.0062161903555268865 0.0325636920618521 -0.0016434440301875605 -0.009376487139399455 0.0018718913239889777 0.014627589579882815
 0.0019540210353001563 0.014616404635232986 -0.0016434440301875605 -0.009376487139399455 0.006204107705662983 0.03256632744373062 0.992155994927009 -0.0761046719794055
 -0.001642745327194104 -0.009376544790132281 0.0018718913239889777 0.014627589579882815 0.992155994927009 -0.0761046719794055 0.0062163661145409 0.03256566545204553
0.15631513130469998 0.00646977515356483 0.03385894576209364 0.9917805875518899 -0.07919566797665269 0.002084342826541997 0.01520682655829125 -0.0017486034424723455 -0.009750922893271556
