! Created with skrf 1.8.0 (http://scikit-rf.org).
# GHz S RI R 50.0 
!freq ReS11 ImS11 ReS12 ImS12 ReS13 ImS13
! ReS14 ImS14
! ReS21 ImS21 ReS22 ImS22 ReS23 ImS23
! ReS24 ImS24
! ReS31 ImS31 ReS32 ImS32 ReS33 ImS33
! ReS34 ImS34
! ReS41 ImS41 ReS42 ImS42 ReS43 ImS43
! ReS44 ImS44
!
0.0 0.001845232727166 0.0 0.9981547672498 0.0 7.195432443174e-05 0.0 -7.195432469809e-05 8.811863342632526e-21
 0.9981547672498 0.0 0.00184523272715 0.0 -7.195432469798e-05 8.811863342619055e-21 7.19543244314e-05 0.0
 7.195432443174e-05 0.0 -7.195432469798e-05 8.811863342619055e-21 0.001845232738699 0.0 0.9981547672613 0.0
 -7.195432469809e-05 8.811863342632526e-21 7.19543244314e-05 0.0 0.9981547672613 0.0 0.001845232738692 0.0
0.005 0.0019864218273179086 0.0015033702431231488 0.9979759528624957 -0.0038645028795525915 0.00010221017509911282 0.0008240255836319454 -9.900917963233134e-05 -0.0005115659287929114
 0.9979759528624957 -0.0038645028795525915 0.0019864162566103566 0.0015033735831168553 -9.900917682886409e-05 -0.0005115660078221357 0.00010224229492417514 0.0008240133435691946
 0.00010221017509911282 0.0008240255836319454 -9.900917682886409e-05 -0.0005115660078221357 0.0019864218099752435 0.0015034375905860799 0.9979759532461732 -0.0038644358196661295
 -9.900917963233134e-05 -0.0005115659287929114 0.00010224229492417514 0.0008240133435691946 0.9979759532461732 -0.0038644358196661295 0.0019864170316659133 0.0015034403465277223
0.006252605252188 0.0020237659400300233 0.0018851070610658722 0.9979283093102981 -0.004831525399938262 0.00011102647035686323 0.0010303960058500427 -0.00010680160273577666 -0.0006401062347473025
 0.9979283093102981 -0.004831525399938262 0.002023757231114167 0.0018851113012674442 -0.00010680159773062866 -0.0006401063339555661 0.00011107665404731951 0.0010303800965135337
 0.00011102647035686323 0.0010303960058500427 -0.00010680159773062866 -0.0006401063339555661 0.00202376583974646 0.0018851912500841797 0.997928309837645 -0.0048314415737748095
 -0.00010680160273577666 -0.0006401062347473025 0.00011107665404731951 0.0010303800965135337 0.997928309837645 -0.0048314415737748095 0.002023758370567113 0.0018851947447898045
0.01250521050438 0.0022221833171567305 0.003809422282637706 0.9976732705794804 -0.009663502604027197 0.00016249587849231125 0.0020609031623848597 -0.00015183981028981479 -0.0012831278476359276
 0.9976732705794804 -0.009663502604027197 0.0022221485290750053 0.0038094314271377118 -0.00015183978277207757 -0.0012831280518970146 0.0001626959906712081 0.0020608646923717883
 0.00016249587849231125 0.0020609031623848597 -0.00015183978277207757 -0.0012831280518970146 0.00222218234775079 0.00380959042947129 0.9976732721289006 -0.00966333519425372
 -0.00015183981028981479 -0.0012831278476359276 0.0001626959906712081 0.0020608646923717883 0.9976732721289006 -0.00966333519425372 0.0022221525277121112 0.0038095979159035514
0.01875781575657 0.002440982463691958 0.0057607127751754155 0.9973892887868457 -0.014507617641114343 0.0002264912771722522 0.0030921925266165855 -0.00020722164450315316 -0.0019280442438650504
 0.9973892887868457 -0.014507617641114343 0.0024409042658488627 0.005760727553628349 -0.00020722157233662224 -0.0019280445635806648 0.00022694078441174353 0.003092123361551932
 0.0002264912771722522 0.0030921925266165855 -0.00020722157233662224 -0.0019280445635806648 0.0024409798346590856 0.005760964794366918 0.9973892918466698 -0.014507366691004726
 -0.00020722164450315316 -0.0019280442438650504 0.00022694078441174353 0.003092123361551932 0.9973892918466698 -0.014507366691004726 0.0024409128359015567 0.005760976797423439
0.02501042100875 0.0026806421561398645 0.007736151252041273 0.9970759858151215 -0.019366132907143643 0.000303142460879088 0.004124259015535526 -0.00027309304792194584 -0.0025745008448019033
 0.9970759858151215 -0.019366132907143643 0.002680503234675754 0.007736172453495405 -0.0002730929058552103 -0.00257450129478518 0.0003039408438373021 0.004124149578828593
 0.000303142460879088 0.004124259015535526 -0.0002730929058552103 -0.00257450129478518 0.0026806370667178062 0.007736487035789704 0.9970759908806495 -0.019365798428496957
 -0.00027309304792194584 -0.0025745008448019033 0.0003039408438373021 0.004124149578828593 0.9970759908806495 -0.019365798428496957 0.0026805180934443298 0.007736504102265238
0.03126302626094 0.0029416210394806372 0.00973423924231788 0.9967329669035134 -0.02423996395314406 0.0003925787002362558 0.005156997347076044 -0.00034959457154818 -0.0032222332513565663
 0.9967329669035134 -0.02423996395314406 0.002941404086902174 0.009734267714407035 -0.00034959433180311764 -0.003222233850881494 0.00039382553983994796 0.005156836610682362
 0.0003925787002362558 0.005156997347076044 -0.00034959433180311764 -0.003222233850881494 0.0029416126724842928 0.009734658679316433 0.9967329744732852 -0.024239545907451778
 -0.00034959457154818 -0.0032222332513565663 0.00039382553983994796 0.005156836610682362 0.9967329744732852 -0.024239545907451778 0.002941426950994752 0.00973468137654344
0.037515631513130004 0.0032243667868336883 0.011753966800662543 0.9963598302672506 -0.029129519730095248 0.0004949274056242482 0.006190261915091721 -0.0004368624102272543 -0.003871007431340347
 0.9963598302672506 -0.029129519730095248 0.0032240544945894775 0.01175400344959497 -0.0004368620428455728 -0.0038710082042239316 0.0004967224183465778 0.006190037385136393
 0.0004949274056242482 0.006190261915091721 -0.0004368620428455728 -0.0038710082042239316 0.0032243543080153775 0.011754469755123358 0.99635984084468 -0.029129018049606256
 -0.0004368624102272543 -0.003871007431340347 0.0004967224183465778 0.006190037385136393 0.99635984084468 -0.029129018049606256 0.0032240870793436324 0.011754498670353893
0.043768236765320004 0.0035293196100212587 0.013794556792107582 0.9959561710680233 -0.03403495824795095 0.000610313473665339 0.007223885001088996 -0.0005350287386503027 -0.004520601569210396
 0.9959561710680233 -0.03403495824795095 0.003528894663086088 0.013794602582893585 -0.0005350282119141806 -0.0045206025438898345 0.0006127565249866336 0.007223582701876327
 0.000610313473665339 0.007223885001088996 -0.0005350282119141806 -0.0045206025438898345 0.0035293021671658894 0.013795143106570882 0.9959561851619776 -0.03403437283291547
 -0.0005350287386503027 -0.004520601569210396 0.0006127565249866336 0.007223582701876327 0.9959561851619776 -0.03403437283291547 0.003528938680430615 0.013795178846642116
0.050020842017509996 0.0038569138543765908 0.01585535922297334 0.995521583472943 -0.038956292189546986 0.0007388588696504951 0.008257684330322547 -0.0006442218041343962 -0.00517079857729683
 0.995521583472943 -0.038956292189546986 0.0038563589255840454 0.015855415179952672 -0.0006442210847082412 -0.0051707997869123975 0.0007420499758654726 0.008257288787745615
 0.0007388588696504951 0.008257684330322547 -0.0006442210847082412 -0.0051707997869123975 0.0038568905775584056 0.0158560287101874 0.9955216016003353 -0.038955622916546785
 -0.0006442218041343962 -0.00517079857729683 0.0007420499758654726 0.008257288787745615 0.9955216016003353 -0.038955622916546785 0.0038564160848045316 0.015856071901276976
0.055454545454549996 0.004160324292556562 0.017662226292686954 0.9951184810340987 -0.043245928520509576 0.0008613479907598278 0.009156080647546593 -0.0007481655838413233 -0.005736161342564077
 0.9951184810340987 -0.043245928520509576 0.0041596423208446805 0.017662291962886507 -0.0007481646688423451 -0.005736162786969094 0.0008652705179461181 0.009155590330436943
 0.0008613479907598278 0.009156080647546593 -0.0007481646688423451 -0.005736162786969094 0.004160295223934073 0.01766296788568499 0.9951185030924355 -0.04324518625259064
 -0.0007481655838413233 -0.005736161342564077 0.0008652705179461181 0.009155590330436943 0.9951185030924355 -0.04324518625259064 0.004159712284545677 0.0176630180755833
0.056273447269699996 0.004207578784877446 0.017935799387486497 0.9950556619100406 -0.04389344071513024 0.0008806823180121231 0.009291466783633868 -0.0007645659066276073 -0.00582138245972842
 0.9950556619100406 -0.04389344071513024 0.004206876530305803 0.017935866595024167 -0.0007645649598568661 -0.005821383942195918 0.0008847216407887273 0.009290961008410264
 0.0008806823180121231 0.009291466783633868 -0.0007645649598568661 -0.005821383942195918 0.004207548784539292 0.01793655183229424 0.995055684595645 -0.04389268743538946
 -0.0007645659066276073 -0.00582138245972842 0.0008847216407887273 0.009290961008410264 0.995055684595645 -0.04389268743538946 0.004206948535114651 0.017936603120067472
0.06252605252188 0.0045817389724900895 0.02003534936874537 0.9945580019304523 -0.04884625792161158 0.001035899041955814 0.010325030476300406 -0.0008961813262570335 -0.006472136319141097
 0.9945580019304523 -0.04884625792161158 0.004580872026565191 0.020035428972146954 -0.0008961801163199095 -0.006472138117235371 0.0010408868783716133 0.010324395947158492
 0.001035899041955814 0.010325030476300406 -0.0008961801163199095 -0.006472138117235371 0.004581701338090282 0.020036184532668044 0.9945580297079851 -0.04884542045669927
 -0.0008961813262570335 -0.006472136319141097 0.0010408868783716133 0.010324395947158492 0.9945580297079851 -0.04884542045669927 0.0045809605737284565 0.020036244582463388
0.06877865777407 0.004979814457745195 0.022153511065192092 0.9940282008529081 -0.0538145497869957 0.0012046205361629372 0.011358166000360279 -0.0010391842154835928 -0.007122841210436927
 0.9940282008529081 -0.0538145497869957 0.004978765428828159 0.022153604271779884 -0.0010391827057059087 -0.0071228433718489425 0.001210657305010107 0.011357382647397269
 0.0012046205361629372 0.011358166000360279 -0.0010391827057059087 -0.0071228433718489425 0.0049797682585773755 0.02215442867992297 0.9940282342672169 -0.05381362793560837
 -0.0010391842154835928 -0.007122841210436927 0.001210657305010107 0.011357382647397269 0.9940282342672169 -0.05381362793560837 0.004978872207603887 0.022154498177290437
0.07503126302626001 0.005402220786822505 0.0242898054385136 0.9934658582861529 -0.05879808490506369 0.0013869543549070156 0.012390657241263715 -0.001193686473899828 -0.00777327543142263
 0.9934658582861529 -0.05879808490506369 0.005400972252750053 0.024289913518886708 -0.0011936846268601894 -0.007773278008835304 0.001394140580761661 0.012389703429445315
 0.0013869543549070156 0.012390657241263715 -0.0011936846268601894 -0.007773278008835304 0.005402165069533201 0.024290805208255023 0.993465897893351 -0.05879707844110637
 -0.001193686473899828 -0.00777327543142263 0.001394140580761661 0.012389703429445315 0.993465897893351 -0.05879707844110637 0.005401098942605458 0.024290884859482314
0.08128386827845 0.0058493689632252 0.026443765374727948 0.992870576572296 -0.06379660161939874 0.0015830039114395709 0.013422281948528111 -0.0013597956104938057 -0.00842321407091392
 0.992870576572296 -0.06379660161939874 0.005847903466840515 0.026443889664244054 -0.0013597933883373785 -0.008423217122056067 0.0015914402064857135 0.013421134461481639
 0.0015830039114395709 0.013422281948528111 -0.0013597933883373785 -0.008423217122056067 0.005849302751267277 0.026444846978691906 0.9928706229409562 -0.06379551028997733
 -0.0013597956104938057 -0.00842321407091392 0.0015914402064857135 0.013421134461481639 0.9928706229409562 -0.06379551028997733 0.00584805173541882 0.02644493751172433
0.08753647353064001 0.006321665345558505 0.02861493076595125 0.9922419611808022 -0.06880981295010036 0.0017928682863805716 0.014452812143781071 -0.0015376145962640402 -0.009072428731405577
 0.9922419611808022 -0.06880981295010036 0.006319965390148062 0.028615072666314516 -0.0015376119608102705 -0.009072432319112178 0.0018026553305043763 0.014451446167863577
 0.0017928682863805716 0.014452812143781071 -0.0015376119608102705 -0.009072432319112178 0.006321587638507778 0.02861609385358367 0.9922420148933081 -0.06880863648068597
 -0.0015376145962640402 -0.009072428731405577 0.0018026553305043763 0.014451446167863577 0.9922420148933081 -0.06880863648068597 0.0063201368926228746 0.028616196019008302
0.09378907878283 0.006819511506785292 0.0308028450003466 0.9915796210683343 -0.0738374101256773 0.0020166420393234797 0.015482014444987379 -0.0017272417129466015 -0.009720687347685908
 0.9915796210683343 -0.0738374101256773 0.006817559551914102 0.030803005981542182 -0.0017272386259308847 -0.009720691539952642 0.002027880559063755 0.015480403553688687
 0.0020166420393234797 0.015482014444987379 -0.0017272386259308847 -0.009720691539952642 0.006819421279134538 0.030804089197384928 0.9915796827221841 -0.07383614821484037
 -0.0017272417129466015 -0.009720687347685908 0.002027880559063755 0.015480403553688687 0.9915796827221841 -0.07383614821484037 0.006817755928857688 0.030804203769667762
0.100041684035 0.007343304066905278 0.03300705241767156 0.9908831690159523 -0.07887906516396709 0.0022544150263414066 0.016509650322948585 -0.0019287703964163006 -0.010367754085691582
 0.9908831690159523 -0.07887906516396709 0.007341082523782355 0.03300723401997465 -0.0019287668197219077 -0.010367758955716589 0.002267205772218959 0.01650776646167647
 0.0022544150263414066 0.016509650322948585 -0.0019287668197219077 -0.010367758955716589 0.007343200267304771 0.033008377322012936 0.9908832392244202 -0.07887771748793967
 -0.0019287703964163006 -0.010367754085691582 0.002267205772218959 0.01650776646167647 0.9908832392244202 -0.07887771748793967 0.007341305399412458 0.03300850510103226
0.1059090909091 0.007858774591252353 0.03508987903380929 0.9901982569044994 -0.08362260184158778 0.0024903476626629804 0.017472336151824377 -0.0021287868768891153 -0.010973660154900275
 0.9901982569044994 -0.08362260184158778 0.007856284024311494 0.035090081452327365 -0.0021287828062660284 -0.01097366573217083 0.002504686640398482 0.01747016915853387
 0.0024903476626629804 0.017472336151824377 -0.0021287828062660284 -0.01097366573217083 0.007858657075357966 0.03509127928557959 0.9901983357137436 -0.08362117336781177
 -0.0021287868768891153 -0.010973660154900275 0.002504686640398482 0.01747016915853387 0.9901983357137436 -0.08362117336781177 0.007856533227412258 0.03509142020923612
0.1062942892872 0.007893434505513214 0.035227096403310204 0.9901522219495282 -0.08393443282873102 0.002506272219506776 0.01753547632314653 -0.0021422890784287864 -0.011013389288482027
 0.9901522219495282 -0.08393443282873102 0.007890925732545793 0.03522730023956955 -0.0021422849742368803 -0.011013394914708237 0.0025207159425650726 0.01753328979440762
 0.002506272219506776 0.01753547632314653 -0.0021422849742368803 -0.011013394914708237 0.00789331605540565 0.035228501588199665 0.9901523013431955 -0.08393299903916586
 -0.0021422890784287864 -0.011013389288482027 0.0025207159425650726 0.01753328979440762 0.9901523013431955 -0.08393299903916586 0.007891176713111375 0.03522864340084249
0.11254689453939999 0.00847028895864045 0.03746251795089418 0.9893864012478782 -0.0890031521329499 0.002772293529598314 0.01855924425781528 -0.0023678810263422665 -0.011657349465018875
 0.9893864012478782 -0.0890031521329499 0.008467475257168304 0.03746274570898084 -0.002367876357376209 -0.01165735593115749 0.0027884909568581208 0.018556723706764696
 0.002772293529598314 0.01855924425781528 -0.002367876357376209 -0.01165735593115749 0.008470154751553933 0.03746400296330444 0.9893864904755167 -0.08900163185925276
 -0.0023678810263422665 -0.011657349465018875 0.0027884909568581208 0.018556723706764696 0.9893864904755167 -0.08900163185925276 0.00846775592922678 0.03746415966539426
0.11879949979160001 0.009074248005169212 0.039712854561731833 0.9885853330424355 -0.09408484752029689 0.00305255363122271 0.019580701385111435 -0.0026056241821963626 -0.01229938730455009
 0.9885853330424355 -0.09408484752029689 0.0090711116150165 0.03971310800723964 -0.002605618911981731 -0.012299394699633787 0.0030706054401684626 0.019577813785676655
 0.00305255363122271 0.019580701385111435 -0.002605618911981731 -0.012299394699633787 0.0090740969058521 0.039714418925439615 0.988585432772477 -0.09408324036738769
 -0.0026056241821963626 -0.01229938730455009 0.0030706054401684626 0.019577813785676655 0.988585432772477 -0.09408324036738769 0.00907142354346181 0.03971459140394652
0.1250521050438 0.009705686443648755 0.04197763938919263 0.9877486485100808 -0.09917912981740931 0.003347121790324037 0.02059959057412174 -0.0028555910014945673 -0.012939251718478604
 0.9877486485100808 -0.09917912981740931 0.009702209538806073 0.041977920368379426 -0.002855585094411671 -0.012939260136882652 0.003367128582607831 0.020596301215454704
 0.003347121790324037 0.02059959057412174 -0.002855585094411671 -0.012939260136882652 0.009705517286802771 0.04197928260291383 0.9877487594314344 -0.09917743536864122
 -0.0028555910014945673 -0.012939251718478604 0.003367128582607831 0.020596301215454704 0.9877487594314344 -0.09917743536864122 0.009702554265427913 0.04197947177819342
0.131304710296 0.010364973062683063 0.04425640057493816 0.9868759841598264 -0.10428559700993942 0.003656061693933079 0.02161565046682918 -0.003117848292272705 -0.013576687898356334
 0.9868759841598264 -0.10428559700993942 0.01036113774675366 0.0442567110178472 -0.003117841713954821 -0.013576697439783746 0.0036781239683120245 0.021611922940378104
 0.003656061693933079 0.02161565046682918 -0.003117841713954821 -0.013576697439783746 0.010364784652146587 0.04425812211479261 0.9868761069834882 -0.1042838148256995
 -0.003117848292272705 -0.013576687898356334 0.0036781239683120245 0.021611922940378104 0.9868761069834882 -0.1042838148256995 0.010361516788001054 0.04425832894336
0.1375573155481 0.010912200707805216 0.046251271801367226 0.9861073288823559 -0.10910624124427525 0.003943642685900258 0.022600000686426945 -0.003356649330892031 -0.014182870212418437
 0.9861073288823559 -0.10910624124427525 0.010907989472026296 0.04625160803840191 -0.003356642252712621 -0.014182880905337586 0.00396781033838274 0.022595836585102117
 0.003943642685900258 0.022600000686426945 -0.003356642252712621 -0.014182880905337586 0.010911993037206469 0.04625307076079369 0.9861074641727613 -0.10910437106857036
 -0.003356649330892031 -0.014182870212418437 0.00396781033838274 0.022595836585102117 0.9861074641727613 -0.10910437106857036 0.01090840341183861 0.046253291640273586
0.1438099208003 0.011478961261372914 0.0482335043664199 0.9853110352559062 -0.11391251851026156 0.004242756944017657 0.02357907114716837 -0.0036049058292560855 -0.014784199101248627
 0.9853110352559062 -0.11391251851026156 0.01147435622561102 0.04823386803002619 -0.0036048982548871236 -0.014784211037614405 0.004269121215415996 0.023574436806494237
 0.004242756944017657 0.02357907114716837 -0.0036048982548871236 -0.014784211037614405 0.011478733304621517 0.04823538013518915 0.9853111837248038 -0.11391055991497138
 -0.0036049058292560855 -0.014784199101248627 0.004269121215415996 0.023574436806494237 0.9853111837248038 -0.11391055991497138 0.011474806377228215 0.0482356158123164
0.1500625260525 0.012065020628810824 0.05020287019131871 0.984487342876855 -0.11870424556273283 0.004553278163712011 0.02455272018666898 -0.0038624945192782647 -0.015380541846239009
 0.984487342876855 -0.11870424556273283 0.01206000386036095 0.050203263010536014 -0.003862486455700523 -0.015380555121220664 0.004581929618264259 0.024547580709823977
 0.004553278163712011 0.02455272018666898 -0.003862486455700523 -0.015380555121220664 0.012064771343638677 0.05020482213354581 0.9844875052543338 -0.11870219810730445
 -0.0038624945192782647 -0.015380541846239009 0.004581929618264259 0.024547580709823977 0.9844875052543338 -0.11870219810730445 0.012060491502405724 0.05020507341926785
0.15631513130469998 0.012670142634453567 0.052159148051029516 0.9836364930293776 -0.12348124131488057 0.004875078298781249 0.025520809097900256 -0.004129290389081581 -0.015971769011316323
 0.9836364930293776 -0.12348124131488057 0.012664696146539383 0.052159571854295476 -0.0041292818468666595 -0.01597178372312267 0.004906106812375116 0.02551512837059797
