! Created with skrf 1.8.0 (http://scikit-rf.org).
# GHz S RI R 50.0 
!freq ReS11 ImS11 ReS12 ImS12 ReS13 ImS13
! ReS14 ImS14
! ReS21 ImS21 ReS22 ImS22 ReS23 ImS23
! ReS24 ImS24
! ReS31 ImS31 ReS32 ImS32 ReS33 ImS33
! ReS34 ImS34
! ReS41 ImS41 ReS42 ImS42 ReS43 ImS43
! ReS44 ImS44
!
0.0 0.001764137771976 0.0 0.9982358622101 0.0 6.858825280541e-05 0.0 -6.858825275001e-05 8.399638418940939e-21
 0.9982358622101 0.0 0.001764137771984 0.0 -6.858825274995e-05 8.399638418933592e-21 6.85882528056e-05 0.0
 6.858825280541e-05 0.0 -6.858825274995e-05 8.399638418933592e-21 0.001764137763662 0.0 0.9982358622018 0.0
 -6.858825275001e-05 8.399638418940939e-21 6.85882528056e-05 0.0 0.9982358622018 0.0 0.001764137763669 0.0
0.005 0.0018988297416656912 0.001439340552229862 0.998065323442045 -0.003694769017131489 9.704061889285529e-05 0.000775244295901486 -9.404778486255829e-05 -0.0004830591042152026
 0.998065323442045 -0.003694769017131489 0.0018988394503367547 0.0014393349047450916 -9.405064781449182e-05 -0.0004830613312719748 9.697758670824875e-05 0.0007752684412917233
 9.704061889285529e-05 0.000775244295901486 -9.405064781449182e-05 -0.0004830613312719748 0.0018988277506479488 0.0014392744880132341 0.9980653230622036 -0.003694836073555748
 -9.404778486255829e-05 -0.0004830591042152026 9.697758670824875e-05 0.0007752684412917233 0.9980653230622036 -0.003694836073555748 0.0018988406914306941 0.0014392668654358014
0.006252605252188 0.0019343729608288338 0.0018048220970860692 0.9980200008951065 -0.004619331143959226 0.00010529623202922742 0.0009694071299481396 -0.00010134063202178513 -0.0006044393561915527
 0.9980200008951065 -0.004619331143959226 0.0019343881365736031 0.0018048148784204252 -0.00010134508674699453 -0.0006044421019212346 0.00010519775257076711 0.0009694384827619633
 0.00010529623202922742 0.0009694071299481396 -0.00010134508674699453 -0.0006044421019212346 0.0019343699284225383 0.0018047395258039922 0.9980200003816336 -0.004619414965562404
 -0.00010134063202178513 -0.0006044393561915527 0.00010519775257076711 0.0009694384827619633 0.9980200003816336 -0.004619414965562404 0.0019343901574971846 0.0018047298271479098
0.01250521050438 0.0021227466149508264 0.0036472411383949516 0.9977780444994306 -0.00923922511817569 0.00015330985583093985 0.001939006014737122 -0.0001432807987603622 -0.0012116787360695023
 0.9977780444994306 -0.00923922511817569 0.0021228072041875085 0.0036472250990416317 -0.00014329835102929272 -0.0012116838057366307 0.00015291720803241687 0.0019390814836725216
 0.00015330985583093985 0.001939006014737122 -0.00014329835102929272 -0.0012116838057366307 0.002122735050125424 0.0036470763706267667 0.997778042994987 -0.009239392533426002
 -0.0001432807987603622 -0.0012116787360695023 0.00015291720803241687 0.0019390814836725216 0.997778042994987 -0.009239392533426002 0.002122815830574293 0.0036470552273878444
0.01875781575657 0.002329715548593198 0.0055155859992377446 0.9975096602031234 -0.013870874946638538 0.00021274662029996066 0.0029094302979379696 -0.0001945478530934083 -0.0018207823340094262
 0.9975096602031234 -0.013870874946638538 0.0023298516813732057 0.005515559447390551 -0.00019458698972248928 -0.0018207892149556093 0.00021186473969163276 0.002909565432617819
 0.00021274662029996066 0.0029094302979379696 -0.00019458698972248928 -0.0018207892149556093 0.002329689979196261 0.005515339363112013 0.9975096572416295 -0.013871125898582146
 -0.0001945478530934083 -0.0018207823340094262 0.00021186473969163276 0.002909565432617819 0.9975096572416295 -0.013871125898582146 0.0023298715083105823 0.005515304841003296
0.02501042100875 0.002555720242616252 0.007407176651575087 0.9972145009164022 -0.018516466752430457 0.0002837255324925142 0.0038806865267354677 -0.00025527521517646336 -0.002431432733489588
 0.9972145009164022 -0.018516466752430457 0.002555961979270298 0.007407137813690828 -0.0002553443188921646 -0.0024314408137352814 0.000282159396142096 0.003880899572991727
 0.0002837255324925142 0.0038806865267354677 -0.0002553443188921646 -0.0024314408137352814 0.002555675201209004 0.007406848536258691 0.9972144960243428 -0.018516801245519077
 -0.00025527521517646336 -0.002431432733489588 0.000282159396142096 0.003880899572991727 0.9972144960243428 -0.018516801245519077 0.0025559976018689665 0.007406798524843975
0.03126302626094 0.0028011828129475918 0.009320603953811768 0.996892203645921 -0.023176899959663558 0.00036636553589795357 0.004852688549781634 -0.0003255917373229101 -0.0030433965117016805
 0.996892203645921 -0.023176899959663558 0.0028015601613518397 0.009320550976132108 -0.0003256991038979921 -0.0030434050789805616 0.00036391999180758835 0.0048530004631455285
 0.00036636553589795357 0.004852688549781634 -0.0003256991038979921 -0.0030434050789805616 0.0028011128397051445 0.009320194838831489 0.9968921963455836 -0.023177318030944236
 -0.0003255917373229101 -0.0030433965117016805 0.00036391999180758835 0.0048530004631455285 0.9968921963455836 -0.023177318030944236 0.0028016161826862874 0.009320127052558812
0.037515631513130004 0.0030665155846601884 0.011254926454169775 0.9965423984492765 -0.02785259043537573 0.0004607842517527029 0.005825313058869078 -0.0004056226461720406 -0.0036564687309544163
 0.9965423984492765 -0.02785259043537573 0.003067058512033529 0.011254857403724191 -0.0004057764932126201 -0.0036564769725037183 0.00045726394965584665 0.005825747528791676
 0.0004607842517527029 0.005825313058869078 -0.0004057764932126201 -0.0036564769725037183 0.003066415229066603 0.01125443690739955 0.9965423882593054 -0.027853092157327355
 -0.0004056226461720406 -0.0036564687309544163 0.00045726394965584665 0.005825747528791676 0.9965423882593054 -0.027853092157327355 0.003067139546018237 0.011254348885486794
0.043768236765320004 0.0033521243907859485 0.01320942594757298 0.9961647121183097 -0.03254371486696467 0.0005670973709112782 0.006798416491153834 -0.0004954898589478296 -0.004270456073011791
 0.9961647121183097 -0.03254371486696467 0.0033528628336488035 0.013209338812647494 -0.0004956983308849121 -0.0042704630755508385 0.0005623067371269695 0.006798999968417051
 0.0005670973709112782 0.006798416491153834 -0.0004956983308849121 -0.0042704630755508385 0.0033519882103098335 0.013208856624501627 0.9961646985505795 -0.03254430034912168
 -0.0004954898589478296 -0.004270456073011791 0.0005623067371269695 0.006798999968417051 0.9961646985505795 -0.03254430034912168 0.003352973505216631 0.013208745730001189
0.050020842017509996 0.003658410080191006 0.015183506460721129 0.995758770075024 -0.03725031171102436 0.0006854182758446019 0.007771842021961304 -0.0005953120765452403 -0.004885169888352053
 0.995758770075024 -0.03725031171102436 0.0036593739533223907 0.01518339915103418 -0.0005955832478341062 -0.004885174638128696 0.000679161511651596 0.007772603747222703
 0.0006854182758446019 0.007771842021961304 -0.0005955832478341062 -0.004885174638128696 0.0036582326414055445 0.015182858124372832 0.9957587526339691 -0.03725098108097976
 -0.0005953120765452403 -0.004885169888352053 0.000679161511651596 0.007772603747222703 0.9957587526339691 -0.03725098108097976 0.0036595188998053228 0.015182721543019237
0.055454545454549996 0.00394168191443664 0.01691453673230186 0.9953827559445612 -0.04135301510127818 0.0007980806365193574 0.008617910670633087 -0.0006902350593687796 -0.0054198192867532
 0.9953827559445612 -0.04135301510127818 0.003942865977080417 0.016914410131515685 -0.0006905672229306452 -0.005419821177558705 0.000790390582097721 0.008618853234292581
 0.0007980806365193574 0.008617910670633087 -0.0006905672229306452 -0.005419821177558705 0.003941464216256146 0.016913820423387193 0.995382734728487 -0.04135375750144424
 -0.0006902350593687796 -0.0054198192867532 0.000790390582097721 0.008618853234292581 0.995382734728487 -0.04135375750144424 0.003943044486082056 0.016913659094880854
0.056273447269699996 0.003985769267717111 0.017176644695466148 0.9953241975155203 -0.04197233068844489 0.0008158577625311645 0.008745423006103205 -0.0007052047790392629 -0.005500422803792257
 0.9953241975155203 -0.04197233068844489 0.003986988472389623 0.017176515042109947 -0.0007055466561930239 -0.00550042418667846 0.0008079388561091333 0.008746395038780214
 0.0008158577625311645 0.008745423006103205 -0.0007055466561930239 -0.00550042418667846 0.003985545147793536 0.017175918202415395 0.9953241756974941 -0.0419730841067678
 -0.0007052047790392629 -0.005500422803792257 0.0008079388561091333 0.008746395038780214 0.9953241756974941 -0.0419730841067678 0.003987172345018671 0.01717575294096257
0.06252605252188 0.004334594715492435 0.019188362767724263 0.994860620191209 -0.04670965999078198 0.000958523812789616 0.009718984887704788 -0.0008252801700725943 -0.0061160268694054575
 0.994860620191209 -0.04670965999078198 0.004336099147103948 0.019188208522736467 -0.0008257006929276047 -0.0061160236710033076 0.000948746561344593 0.009720202134776241
 0.000958523812789616 0.009718984887704788 -0.0008257006929276047 -0.0061160236710033076 0.004334318502687023 0.01918755907613397 0.9948605934827318 -0.046710497643784245
 -0.0008252801700725943 -0.0061160268694054575 0.000948746561344593 0.009720202134776241 0.9948605934827318 -0.046710497643784245 0.004336326611874585 0.019187361960414987
0.06877865777407 0.004705275504343534 0.021218211971090566 0.994367664985039 -0.051462142470069 0.0011135213949256691 0.010692346347952048 -0.0009556470925952499 -0.006731792475924432
 0.994367664985039 -0.051462142470069 0.004707095060830157 0.02121803080677391 -0.0009561541352017597 -0.006731783381684482 0.0011016894333645885 0.010693846592426016
 0.0011135213949256691 0.010692346347952048 -0.0009561541352017597 -0.006731783381684482 0.004704941800890272 0.021217332143797157 0.9943676328629641 -0.05146306456754204
 -0.0009556470925952499 -0.006731792475924432 0.0011016894333645885 0.010693846592426016 0.9943676328629641 -0.05146306456754204 0.0047073708004827085 0.02121709981654944
0.07503126302626001 0.005098197088560608 0.023265762501835957 0.9938449603758406 -0.05622958587640571 0.0012809522817940607 0.011665320050215408 -0.0010964109264466001 -0.007347527683518447
 0.9938449603758406 -0.05622958587640571 0.005100361677511324 0.02326555200973098 -0.0010970122974498712 -0.007347511278884308 0.0012668691161625298 0.0116671439791604
 0.0012809522817940607 0.011665320050215408 -0.0010970122974498712 -0.007347511278884308 0.005097800510405579 0.023264807699211285 0.993844922304992 -0.05623059265957578
 -0.0010964109264466001 -0.007347527683518447 0.0012668691161625298 0.0116671439791604 0.993844922304992 -0.05623059265957578 0.005100690391468985 0.023264536617411857
0.08128386827845 0.005513741271314631 0.02533059660970661 0.993292136829107 -0.06101176967973659 0.0014609148776062281 0.01263771315207454 -0.001247673475560571 -0.00796303779292734
 0.993292136829107 -0.06101176967973659 0.005516280817873991 0.02533035429930495 -0.0012483769184527952 -0.007963012563476259 0.001444383923324503 0.012639904384042886
 0.0014609148776062281 0.01263771315207454 -0.0012483769184527952 -0.007963012563476259 0.005513276450699012 0.025329568098824803 0.9932920922619363 -0.061012861412724176
 -0.001247673475560571 -0.00796303779292734 0.001444383923324503 0.012639904384042886 0.9932920922619363 -0.061012861412724176 0.005516667223884213 0.025329254530916556
0.08753647353064001 0.00595228612901508 0.02741230388888266 0.9927088271407507 -0.06580844976172029 0.001653504053963078 0.013609327673791647 -0.001409532845948582 -0.008578125069557336
 0.9927088271407507 -0.06580844976172029 0.005955230583586229 0.02741202718594963 -0.001410346039032232 -0.008578089401170884 0.0016343286768055988 0.013611932785544201
 0.001653504053963078 0.013609327673791647 -0.001410346039032232 -0.008578089401170884 0.0059517477155294814 0.027411203042175328 0.9927087755157895 -0.06580962673361654
 -0.001409532845948582 -0.008578125069557336 0.0016343286768055988 0.013611932785544201 0.9927087755157895 -0.06580962673361654 0.005955679418434742 0.027410843064712115
0.09378907878283 0.006414205901785553 0.029510477913992597 0.9920946667516154 -0.07061936177363369 0.0018588109890238737 0.014579960782789409 -0.0015820833195448957 -0.009192588561242639
 0.9920946667516154 -0.07061936177363369 0.006417585247545326 0.029510164158607743 -0.0015830138757961184 -0.009192540740277675 0.001836794549026753 0.014583029335328901
 0.0018588109890238737 0.014579960782789409 -0.0015830138757961184 -0.009192540740277675 0.006413588564455818 0.02950930620700942 0.9920946074928327 -0.07062062430118088
 -0.0015820833195448957 -0.009192588561242639 0.001836794549026753 0.014583029335328901 0.9920946074928327 -0.07062062430118088 0.006418101268206408 0.02950889570123118
0.100041684035 0.0068998708575872085 0.031624713786263615 0.9914492940394513 -0.07544422359519944 0.002076923010759815 0.015549405017049494 -0.0017654152236218938 -0.009806223987046173
 0.9914492940394513 -0.07544422359519944 0.006903715118125159 0.03162436023051349 -0.0017664706903446528 -0.00980616220054074 0.0020518689089163563 0.015552989580784809
 0.002076923010759815 0.015549405017049494 -0.0017664706903446528 -0.00980616220054074 0.006899169286126403 0.03162347280260121 0.9914492265545666 -0.07544557201847052
 -0.0017654152236218938 -0.009806223987046173 0.0020518689089163563 0.015552989580784809 0.9914492265545666 -0.07544557201847052 0.006904303102602525 0.03162300745041942
0.1059090909091 0.007377538102632463 0.03362294703805467 0.9908149736260766 -0.07998426658424843 0.002293318372576808 0.016457855636461727 -0.0019473352395517167 -0.010381117682045547
 0.9908149736260766 -0.07998426658424843 0.00738184598522394 0.0336225535539208 -0.0019485147269172525 -0.010381041053187932 0.0022652350216183508 0.016461974936281976
 0.002293318372576808 0.016457855636461727 -0.0019485147269172525 -0.010381041053187932 0.007376752677023898 0.033621642579452715 0.9908148978679777 -0.07998569594457557
 -0.0019473352395517167 -0.010381117682045547 0.0022652350216183508 0.016461974936281976 0.9908148978679777 -0.07998569594457557 0.00738250586517296 0.033621121651278923
0.1062942892872 0.007409647137985486 0.0337546062993763 0.9907723505966188 -0.08028273718560863 0.0023079234432118643 0.016517448473498914 -0.001959614797501199 -0.010418823671170828
 0.9907723505966188 -0.08028273718560863 0.0074139863849055345 0.033754210104657324 -0.0019608026560036583 -0.010418746007040939 0.0022796351698648036 0.016521604652536714
 0.0023079234432118643 0.016517448473498914 -0.0019608026560036583 -0.010418746007040939 0.0074088560447273825 0.03375329772740975 0.9907722742761711 -0.08028417187164506
 -0.001959614797501199 -0.010418823671170828 0.0022796351698648036 0.016521604652536714 0.9907722742761711 -0.08028417187164506 0.007414651133046648 0.033752773007243414
0.11254689453939999 0.007943896588793579 0.035899748546819654 0.9900634814956936 -0.08513459000481613 0.0025518914542685886 0.01748387497077439 -0.0021647640578293806 -0.011030176512769259
 0.9900634814956936 -0.08513459000481613 0.007948760949602998 0.03589930678077599 -0.0021660917228815348 -0.011030080960032173 0.0025201726398041526 0.017488661426296227
 0.0025518914542685886 0.01748387497077439 -0.0021660917228815348 -0.011030080960032173 0.007943010710889016 0.035898374185196785 0.9900633957122645 -0.08513611134252136
 -0.0021647640578293806 -0.011030176512769259 0.0025201726398041526 0.017488661426296227 0.9900633957122645 -0.08513611134252136 0.007949507284356791 0.03589778536728429
0.11879949979160001 0.008502976581823791 0.03805973085451888 0.989322335549495 -0.0899994561219728 0.0028089019059330863 0.018448464195611646 -0.002380940662108977 -0.011640067982497856
 0.989322335549495 -0.0899994561219728 0.00850839624727645 0.038059240487714086 -0.0023824154814401084 -0.01163995243155034 0.0027735563730238704 0.01845394266829306
 0.0028089019059330863 0.018448464195611646 -0.0023824154814401084 -0.01163995243155034 0.008501990682504536 0.038058292607656155 0.9893222396559597 -0.09000106452678637
 -0.002380940662108977 -0.011640067982497856 0.0027735563730238704 0.01845394266829306 0.9893222396559597 -0.09000106452678637 0.008509229015138238 0.038057634749153274
0.1250521050438 0.009087239825528198 0.040234139938110765 0.9885485655623846 -0.09487699711163902 0.0030790252058837623 0.019410991838244716 -0.002608217772026469 -0.012248280140729137
 0.9885485655623846 -0.09487699711163902 0.00909324505775558 0.04023359784010197 -0.0026098470256316173 -0.012248142383572495 0.0030398570235833267 0.01941722716958782
 0.0030790252058837623 0.019410991838244716 -0.0026098470256316173 -0.012248142383572495 0.009086148696344179 0.04023263982075271 0.9885484588910936 -0.09487869302127716
 -0.002608217772026469 -0.012248280140729137 0.0030398570235833267 0.01941722716958782 0.9885484588910936 -0.09487869302127716 0.009094169129915659 0.040231907760232034
0.131304710296 0.009697034171254388 0.042422558255797944 0.9877418285795301 -0.09976686276721711 0.0033623271608680043 0.02037122972323054 -0.0028466639162170407 -0.012854591670900898
 0.9877418285795301 -0.09976686276721711 0.009703655310941327 0.042421961191104036 -0.002848454815809976 -0.012854429401435389 0.003319140700119517 0.02037828987585907
 0.0033623271608680043 0.02037122972323054 -0.002848454815809976 -0.012854429401435389 0.00969583263396011 0.04242099838919803 0.9877417104409673 -0.09976864664555875
 -0.0028466639162170407 -0.012854591670900898 0.003319140700119517 0.02037828987585907 0.9877417104409673 -0.09976864664555875 0.009704675584089923 0.0424201867410347
0.1375573155481 0.01020048390406203 0.04433919582022375 0.987034070410576 -0.10438315542929709 0.003625595824667004 0.021301246191749362 -0.0030631211930302795 -0.013431065497336997
 0.987034070410576 -0.10438315542929709 0.010207754751554112 0.04433855598961673 -0.0030650845860788903 -0.013430878303611133 0.0035782889905912863 0.021309126445052107
 0.003625595824667004 0.021301246191749362 -0.0030650845860788903 -0.013430878303611133 0.01019916743287837 0.04433757800501745 0.9870339402614414 -0.1043850275540188
 -0.0030631211930302795 -0.013431065497336997 0.0035782889905912863 0.021309126445052107 0.9870339402614414 -0.1043850275540188 0.01020887521397289 0.04433669718757278
0.1438099208003 0.010721854769417572 0.04624426821082393 0.9863009782973862 -0.10898626530145454 0.0038994593722960526 0.022226586305236624 -0.0032881788959988165 -0.014003268530892683
 0.9863009782973862 -0.10898626530145454 0.010729806307134307 0.04624358334942887 -0.003290322549730929 -0.014003054119129813 0.0038478538231898683 0.02223534939012627
 0.0038994593722960526 0.022226586305236624 -0.003290322549730929 -0.014003054119129813 0.010720418344313582 0.04624259462900259 0.9863008354469697 -0.10898822612458033
 -0.0032881788959988165 -0.014003268530892683 0.0038478538231898683 0.02223534939012627 0.9863008354469697 -0.10898822612458033 0.010731031730360815 0.04624164020267745
0.1500625260525 0.011260940077714967 0.048137572895615474 0.9855427639226669 -0.1135760338066165 0.004183808705376235 0.023147126049574553 -0.0035217313103190003 -0.014571085216620629
 0.9855427639226669 -0.1135760338066165 0.011269603383518692 0.04813684058694379 -0.003524062969872635 -0.0145708412006796 0.004127727461527618 0.0231568369693494
 0.004183808705376235 0.023147126049574553 -0.003524062969872635 -0.0145708412006796 0.011259378714789466 0.048135845815638026 0.9855426076619103 -0.11357808379607108
 -0.0035217313103190003 -0.014571085216620629 0.004127727461527618 0.0231568369693494 0.9855426076619103 -0.11357808379607108 0.011270938554152973 0.04813481310021109
0.15631513130469998 0.01181753139143799 0.05001891339524964 0.9847596403566298 -0.1181523039328335 0.004478533270539374 0.024062743855648536 -0.003763671270753257 -0.015134402731917207
 0.9847596403566298 -0.1181523039328335 0.011826937640674893 0.05001813106616729 -0.0037661986587413008 -0.015134126633779848 0.00441780074002451 0.024073469856213853
