! Created with skrf 1.8.0 (http://scikit-rf.org).
# GHz S RI R 50.0 
!freq ReS11 ImS11 ReS12 ImS12 ReS13 ImS13
! ReS14 ImS14
! ReS21 ImS21 ReS22 ImS22 ReS23 ImS23
! ReS24 ImS24
! ReS31 ImS31 ReS32 ImS32 ReS33 ImS33
! ReS34 ImS34
! ReS41 ImS41 ReS42 ImS42 ReS43 ImS43
! ReS44 ImS44
!
0.0 0.001249839086184 0.0 0.9987501608968 0.0 4.805200285085e-05 0.0 -4.805200232924e-05 5.884673084512492e-21
 0.9987501608968 0.0 0.001249839086166 0.0 -4.805200232852e-05 5.884673084424318e-21 4.805200285054e-05 0.0
 4.805200285085e-05 0.0 -4.805200232852e-05 5.884673084424318e-21 0.001249839094692 0.0 0.9987501609053 0.0
 -4.805200232924e-05 5.884673084512492e-21 4.805200285054e-05 0.0 0.9987501609053 0.0 0.001249839094709 0.0
0.005 0.0013441020270417514 0.0010166261010832547 0.9986310037277605 -0.00261935170061809 6.781204980033644e-05 0.0005674647226155147 -6.574431790738035e-05 -0.0003496749545816806
 0.9986310037277605 -0.00261935170061809 0.001344089501919563 0.0010166334519374543 -6.574473021143725e-05 -0.0003496753204640086 6.789020898822217e-05 0.000567435090594323
 6.781204980033644e-05 0.0005674647226155147 -6.574473021143725e-05 -0.0003496753204640086 0.0013441019167105277 0.0010166934520057704 0.9986310040661295 -0.002619284649698305
 -6.574431790738035e-05 -0.0003496749545816806 6.789020898822217e-05 0.000567435090594323 0.9986310040661295 -0.002619284649698305 0.0013440902877101283 0.0010167002025961384
0.006252605252188 0.0013686234794543447 0.0012748398978557978 0.9985998437222889 -0.003274864780758809 7.332825066312582e-05 0.0007096024071176185 -7.064735868058841e-05 -0.00043756697443914376
 0.9985998437222889 -0.003274864780758809 0.0013686038998335863 0.001274849213314092 -7.064799987985906e-05 -0.0004375674267391966 7.345037012103705e-05 0.0007095639493357688
 7.332825066312582e-05 0.0007096024071176185 -7.064799987985906e-05 -0.0004375674267391966 0.0013686232222702788 0.0012749240930804448 0.9985998441669568 -0.0032747809649192696
 -7.064735868058841e-05 -0.00043756697443914376 7.345037012103705e-05 0.0007095639493357688 0.9985998441669568 -0.0032747809649192696 0.0013686050441768596 0.0012749326489387238
0.01250521050438 0.001496539932881199 0.002576921010737827 0.9984363794493327 -0.006550749986302978 0.00010428084888763251 0.0014195330023652668 -9.797196431521118e-05 -0.0008774268693582246
 0.9984363794493327 -0.006550749986302978 0.0014964617427378312 0.0025769409105073984 -9.797448663319714e-05 -0.0008774277199266826 0.00010476790608921572 0.001419440992835999
 0.00010428084888763251 0.0014195330023652668 -9.797448663319714e-05 -0.0008774277199266826 0.0014965383441975701 0.002577089210255755 0.9984363806695994 -0.006550582591600104
 -9.797196431521118e-05 -0.0008774268693582246 0.00010476790608921572 0.001419440992835999 0.9984363806695994 -0.006550582591600104 0.0014964657625358817 0.0025771074900950955
0.01875781575657 0.0016338253787987571 0.0038980422692484274 0.9982595952791378 -0.009835678231620626 0.00014097457434042617 0.002130339333513943 -0.00013010127215980108 -0.0013189213597072538
 0.9982595952791378 -0.009835678231620626 0.0016336496666532507 0.003898074096025984 -0.00013010689081310335 -0.0013189225475126831 0.00014206887043150186 0.002130176181444295
 0.00014097457434042617 0.002130339333513943 -0.00013010689081310335 -0.0013189225475126831 0.0016338213748775176 0.0038982944192986046 0.9982595976000403 -0.009835427365388264
 -0.00013010127215980108 -0.0013189213597072538 0.00014206887043150186 0.002130176181444295 0.9982595976000403 -0.009835427365388264 0.0016336582892095333 0.003898323640957472
0.02501042100875 0.001780711963156043 0.005236383973734656 0.9980693128766895 -0.013131284950938946 0.00018347485313019936 0.0028420914554549022 -0.00016710879639619645 -0.0017618662294577217
 0.9980693128766895 -0.013131284950938946 0.001780399886785059 0.0052364291292069575 -0.0001671187102280521 -0.0017618676850935755 0.00018541890437164096 0.002841837178182213
 0.00018347485313019936 0.0028420914554549022 -0.0001671187102280521 -0.0017618676850935755 0.0017807044557678954 0.005236720077041792 0.9980693166238931 -0.013130950671036265
 -0.00016710879639619645 -0.0017618662294577217 0.00018541890437164096 0.002841837178182213 0.9980693166238931 -0.013130950671036265 0.0017804148434276156 0.005236761494006028
0.03126302626094 0.0019374219385502286 0.0065910308115742005 0.9978653433999118 -0.016438295344458804 0.00023184777544276098 0.003554790243242144 -0.00020906627489280093 -0.002206143115888137
 0.9978653433999118 -0.016438295344458804 0.0019369347049164485 0.0065910907532914795 -0.00020908166926117183 -0.002206144761420346 0.00023488454693473297 0.003554422452972152
 0.00023184777544276098 0.003554790243242144 -0.00020908166926117183 -0.002206144761420346 0.0019374098349889866 0.006591450887209584 0.9978653488999969 -0.01643787769939673
 -0.00020906627489280093 -0.002206143115888137 0.00023488454693473297 0.003554422452972152 0.9978653488999969 -0.01643787769939673 0.0019369577315454377 0.006591505785296657
0.037515631513130004 0.002104172923048418 0.007961401995850785 0.9976474928656182 -0.019757094191686746 0.0002861594974644276 0.004268409815738539 -0.00025604425568975916 -0.0026516570821844424
 0.9976474928656182 -0.019757094191686746 0.00210347177539666 0.00796147823543763 -0.000256066303998581 -0.0026516588311167877 0.00029053251402036027 0.004267903694394274
 0.0002861594974644276 0.004268409815738539 -0.000256066303998581 -0.0026516588311167877 0.0021041551232941482 0.00796190608654322 0.9976475004431499 -0.019756593213303433
 -0.00025604425568975916 -0.0026516570821844424 0.00029053251402036027 0.004267903694394274 0.9976475004431499 -0.019756593213303433 0.002103504609639359 0.007961975781911964
0.043768236765320004 0.0022811799302869308 0.009347077875908659 0.9974155642844558 -0.023087899187518034 0.00034647596707190477 0.004982910436012784 -0.00030811232325581516 -0.0030983237075297584
 0.9974155642844558 -0.023087899187518034 0.0022802261380327907 0.009347171977954847 -0.00030814218784574934 -0.0030983254648122103 0.00035242937172133174 0.004982238706380997
 0.00034647596707190477 0.004982910436012784 -0.00030814218784574934 -0.0030983254648122103 0.002281155329799522 0.00934766603025067 0.9974155742656573 -0.02308731490881718
 -0.00030811232325581516 -0.0030983237075297584 0.00035242937172133174 0.004982238706380997 0.9974155742656573 -0.02308731490881718 0.0022802705224632394 0.009347751867889777
0.050020842017509996 0.0024686563313633756 0.010747728241407418 0.9971693587291914 -0.026430832583094012 0.000412862768043963 0.005698243836402924 -0.0003653391925569321 -0.003546063751574758
 0.9971693587291914 -0.026430832583094012 0.002467411181786224 0.010747841822604466 -0.0003653780254004715 -0.0035460654136252774 0.0004206413528327819 0.005697376731719059
 0.000412862768043963 0.005698243836402924 -0.0003653780254004715 -0.0035460654136252774 0.0024686238183178285 0.01074840052847487 0.9971693714383517 -0.026430165023801553
 -0.0003653391925569321 -0.003546063751574758 0.0004206413528327819 0.005697376731719059 0.9971693714383517 -0.026430165023801553 0.002467468860472392 0.010748503880957124
0.055454545454549996 0.0026402462802913953 0.011976881695391278 0.9969436484847944 -0.029345841945915337 0.0004755353446844041 0.006320524589745085 -0.00041931339584236685 -0.003935975576524446
 0.9969436484847944 -0.029345841945915337 0.0026387165011685803 0.011977013557452988 -0.0004193609501888596 -0.003935977065080415 0.0004850993824005328 0.006319461566994407
 0.0004755353446844041 0.006320524589745085 -0.0004193609501888596 -0.003935977065080415 0.002640205984938865 0.011977627155490717 0.9969436638295051 -0.02934510203174994
 -0.00041931339584236685 -0.003935975576524446 0.0004850993824005328 0.006319461566994407 0.9969436638295051 -0.02934510203174994 0.002638787153128319 0.011977746864302705
0.056273447269699996 0.0026668143499250395 0.012163077168025633 0.9969086759374106 -0.029785956285020704 0.00048538501404228753 0.006414355827585758 -0.0004277927465784927 -0.003994800535321676
 0.9969086759374106 -0.029785956285020704 0.002665239140815053 0.012163211896476227 -0.0004278416897349587 -0.003994801990044455 0.0004952342344095591 0.006413261060338948
 0.00048538501404228753 0.006414355827585758 -0.0004278416897349587 -0.003994801990044455 0.0026667728084224674 0.012163833663094922 0.9969086917006701 -0.02978520546577651
 -0.0004277927465784927 -0.003994800535321676 0.0004952342344095591 0.006413261060338948 0.9969086917006701 -0.02978520546577651 0.002665311862455132 0.01216395592962046
0.06252605252188 0.002875865348521259 0.013592883671726633 0.9966333147071841 -0.03315329114614736 0.0005641072674594271 0.00713118772919034 -0.0004955400450691375 -0.004444458501449611
 0.9966333147071841 -0.03315329114614736 0.002873921380839698 0.01359304126657726 -0.00049560023099827 -0.004444459628263243 0.000576273245559252 0.007129830459563686
 0.0005641072674594271 0.00713118772919034 -0.00049560023099827 -0.004444459628263243 0.0028758136564070638 0.013593724461577873 0.9966333338499132 -0.033152457083431876
 -0.0004955400450691375 -0.004444458501449611 0.000576273245559252 0.007129830459563686 0.9966333338499132 -0.033152457083431876 0.002874010896484996 0.013593867067091427
0.06877865777407 0.0030960199858042956 0.015036930168902521 0.9963430731657091 -0.03653282845198052 0.0006490934721339447 0.007848677220942882 -0.0005686473163869518 -0.004894962355451682
 0.9963430731657091 -0.03653282845198052 0.003093668557315998 0.015037112399958062 -0.0005687198682827347 -0.00489496302531466 0.0006638229927004954 0.00784702002505876
 0.0006490934721339447 0.007848677220942882 -0.0005687198682827347 -0.00489496302531466 0.0030959570160340806 0.015037855354525098 0.9963430960140816 -0.036531911155380944
 -0.0005686473163869518 -0.004894962355451682 0.0006638229927004954 0.00784702002505876 0.9963430960140816 -0.036531911155380944 0.003093776621043016 0.015038019749109852
0.07503126302626001 0.0033274883095985434 0.01649501518334789 0.9960377489757981 -0.03992453716120789 0.0007404068939162419 0.008566758882452886 -0.0006471799395728978 -0.00534623651963279
 0.9960377489757981 -0.03992453716120789 0.003324690708161648 0.016495223871052525 -0.0006472659715428088 -0.005346236595078479 0.0007579473944257065 0.008564761720554911
 0.0007404068939162419 0.008566758882452886 -0.0006472659715428088 -0.005346236595078479 0.0033274129297291935 0.01649602487324102 0.9960377758561239 -0.03992353664026768
 -0.0006471799395728978 -0.00534623651963279 0.0007579473944257065 0.008564761720554911 0.9960377758561239 -0.03992353664026768 0.0033248190764330484 0.016496212531581286
0.08128386827845 0.00357047980205433 0.017966948461200928 0.9957171394962507 -0.04332836873992801 0.0008381100661726551 0.009285364546801579 -0.0007312024195773019 -0.005798204774949931
 0.9957171394962507 -0.04332836873992801 0.0035671972994502695 0.01796718547657931 -0.0007313030368551759 -0.005798204110102456 0.0008587096227104785 0.009282984731492363
 0.0008381100661726551 0.009285364546801579 -0.0007313030368551759 -0.005798204110102456 0.0035703908749446316 0.017968042776031066 0.9957171707355882 -0.043327284999529765
 -0.0007312024195773019 -0.005798204774949931 0.0008587096227104785 0.009282984731492363 0.9957171707355882 -0.043327284999529765 0.0035673477312417423 0.017968255197130984
0.08753647353064001 0.0038252033975225796 0.019452547619102006 0.9953810419175213 -0.04674426046449638 0.0009422647385002942 0.010004423551585479 -0.000820778357845835 -0.006250790007172897
 0.9953810419175213 -0.04674426046449638 0.0038213972428854477 0.01945281488399418 -0.0008208946569174179 -0.006250788447777383 0.0009661720481773972 0.010001615716131727
 0.0009422647385002942 0.010004423551585479 -0.0008208946569174179 -0.006250788447777383 0.0038250997811099282 0.019453726687020494 0.9953810778434279 -0.04674309350959971
 -0.000820778357845835 -0.006250790007172897 0.0009661720481773972 0.010001615716131727 0.9953810778434279 -0.04674309350959971 0.0038215714991966443 0.01945396539401901
0.09378907878283 0.004091867480442491 0.020951635728723095 0.9950292533784562 -0.0501721377895336 0.0010529318272169855 0.010723862911801243 -0.0009159704197434904 -0.006703914033032674
 0.9950292533784562 -0.0501721377895336 0.004087498894053445 0.02095193521618618 -0.000916103488497221 -0.006703911416478382 0.0010803961877131197 0.010720578978609634
 0.0010529318272169855 0.010723862911801243 -0.000916103488497221 -0.006703911416478382 0.004091748028278726 0.020952899690271004 0.9950292943194352 -0.0501708876203845
 -0.0009159704197434904 -0.006703914033032674 0.0010803961877131197 0.010720578978609634 0.9950292943194352 -0.0501708876203845 0.004087698737818392 0.020953166230479804
0.100041684035 0.004370679868863682 0.022464039553532673 0.9946615710716054 -0.05361191606592368 0.0011701713673562342 0.011443607451052868 -0.0010168402992924985 -0.007157497469967533
 0.9946615710716054 -0.05361191606592368 0.004365710035691009 0.02246437328834566 -0.0010169912171079135 -0.007157493625321713 0.00120144265406102 0.011439796600310564
 0.0011701713673562342 0.011443607451052868 -0.0010169912171079135 -0.007157493625321713 0.004370543429380798 0.0224653885599495 0.9946616173563783 -0.0536105826798767
 -0.0010168402992924985 -0.007157497469967533 0.00120144265406102 0.011439796600310564 0.9946616173563783 -0.0536105826798767 0.004365937230844835 0.022465684505010484
0.1059090909091 0.0046435490746694645 0.02389522838992192 0.9943019044894358 -0.05685052378096655 0.0012862184764208064 0.012119220116710457 -0.0011167139669826542 -0.007583483397716692
 0.9943019044894358 -0.05685052378096655 0.0046379796967192825 0.023895596150442858 -0.0011168826084630224 -0.0075834782377712335 0.0013212899112510302 0.012114866119580998
 0.0012862184764208064 0.012119220116710457 -0.0011168826084630224 -0.0075834782377712335 0.004643395643969558 0.023896657349116637 0.9943019560891933 -0.05684911229953472
 -0.0011167139669826542 -0.007583483397716692 0.0013212899112510302 0.012114866119580998 0.9943019560891933 -0.05684911229953472 0.004638234164163454 0.02389698233891732
0.1062942892872 0.004661847785979887 0.023989588219644177 0.9942777923383725 -0.05706350182675511 0.00129404246512412 0.012163579899928938 -0.001123448682237894 -0.007611459640733119
 0.9942777923383725 -0.05706350182675511 0.004656237849725388 0.02398995827900857 -0.001123618520097449 -0.007611454388752813 0.0013293711062571196 0.012159188538470658
 0.00129404246512412 0.012163579899928938 -0.001123618520097449 -0.007611454388752813 0.004661693204180053 0.023991022432647065 0.9942778442972149 -0.05706208521844232
 -0.001123448682237894 -0.007611459640733119 0.0013293711062571196 0.012159188538470658 0.9942778442972149 -0.05706208521844232 0.0046564941621631195 0.023991349378920127
0.11254689453939999 0.004965577826811596 0.025528112198843725 0.9938777147600729 -0.06052679376307291 0.0014246032513563814 0.01288370097213249 -0.0012358552072095008 -0.008065718502236717
 0.9938777147600729 -0.06052679376307291 0.0049592888830800545 0.02552852071331546 -0.0012360450277823592 -0.008065711655399996 0.00146424020113306 0.012878672702578326
 0.0014246032513563814 0.01288370097213249 -0.0012360450277823592 -0.008065711655399996 0.00496540394299107 0.025529631789353184 0.9938777727237664 -0.060525293925860986
 -0.0012358552072095008 -0.008065718502236717 0.00146424020113306 0.012878672702578326 0.9938777727237664 -0.060525293925860986 0.004959576078961609 0.02552999135848671
0.11879949979160001 0.005282075915507464 0.02707944250914537 0.9934611362432263 -0.06400168348459954 0.0015619108348896094 0.013603889425391934 -0.0013541184258946118 -0.008520190591825077
 0.9934611362432263 -0.06400168348459954 0.005275069005545727 0.027079891663687353 -0.0013543292835827003 -0.008520181954356953 0.0016061075451127473 0.013598165015547153
 0.0015619108348896094 0.013603889425391934 -0.0013543292835827003 -0.008520181954356953 0.005281881566388828 0.027081047657334066 0.9934612005439816 -0.06400010041058829
 -0.0013541184258946118 -0.008520190591825077 0.0016061075451127473 0.013598165015547153 0.9934612005439816 -0.06400010041058829 0.005275388852086206 0.027081441496996882
0.1250521050438 0.005611547259772672 0.028643410086817193 0.9930278551028175 -0.0674880561111172 0.001706021256235769 0.014324062111538067 -0.0014782957620246497 -0.00897479098646999
 0.9930278551028175 -0.0674880561111172 0.005603783364126508 0.028643902122092054 -0.0014785287030561446 -0.008974780354355286 0.001755029646401437 0.01431757946410406
 0.001706021256235769 0.014324062111538067 -0.0014785287030561446 -0.008974780354355286 0.005611331278073402 0.028645100985315884 0.9930279260736027 -0.06748638978803369
 -0.0014782957620246497 -0.00897479098646999 0.001755029646401437 0.01431757946410406 0.9930279260736027 -0.06748638978803369 0.005604137628499434 0.028645530770124716
0.131304710296 0.005954196299888528 0.030219845280669722 0.9925776701419482 -0.07098579074420695 0.0018569894414141596 0.01504413401793544 -0.0016084434694572896 -0.009429433272908206
 0.9925776701419482 -0.07098579074420695 0.0059456363316770285 0.030220382494484225 -0.0016086995319268046 -0.009429420433928238 0.0019110618673188024 0.015036828140570904
 0.0018569894414141596 0.01504413401793544 -0.0016086995319268046 -0.009429420433928238 0.00595395751504821 0.030221622132455092 0.9925777481171992 -0.07098404115757473
 -0.0016084434694572896 -0.009429433272908206 0.0019110618673188024 0.015036828140570904 0.9925777481171992 -0.07098404115757473 0.005946026781235292 0.030222089565171865
0.1375573155481 0.006225360854676805 0.03160081168137782 0.9921952702999136 -0.07428692585398476 0.001993681600678771 0.01574196604434112 -0.0017233657551250572 -0.009862030941525407
 0.9921952702999136 -0.07428692585398476 0.006215963810217618 0.03160138486288883 -0.0017236466059659475 -0.009862015927011473 0.0020529403631619593 0.015733856028566497
 0.001993681600678771 0.01574196604434112 -0.0017236466059659475 -0.009862015927011473 0.006225098822080935 0.03160267446560164 0.9921953555951686 -0.07428509302437605
 -0.0017233657551250572 -0.009862030941525407 0.0020529403631619593 0.015733856028566497 0.9921953555951686 -0.07428509302437605 0.006216391521865308 0.031603170253805574
0.1438099208003 0.0065058228814689175 0.03297549102850978 0.9917998576885414 -0.07758073410524528 0.002135894824430212 0.016437748044523484 -0.0018429129068616844 -0.010292728425961451
 0.9917998576885414 -0.07758073410524528 0.00649554930605039 0.03297610174561435 -0.0018432196858449033 -0.010292711028830778 0.002200569341367764 0.016428775359262356
 0.002135894824430212 0.016437748044523484 -0.0018432196858449033 -0.010292711028830778 0.006505536557752277 0.032977439929503874 0.9917999506356413 -0.07757881802523946
 -0.0018429129068616844 -0.010292728425961451 0.002200569341367764 0.016428775359262356 0.9917999506356413 -0.07757881802523946 0.00649601592201862 0.032977965085904365
0.1500625260525 0.00679549666322214 0.03434379877479453 0.9913915210788841 -0.08086716520862147 0.002283588382741889 0.017131434092882154 -0.0019670447422669595 -0.01072148004065797
 0.9913915210788841 -0.08086716520862147 0.006784307029589157 0.03434444869119009 -0.0019673785890052496 -0.010721460045402044 0.0023539069699746794 0.01712153809941523
 0.002283588382741889 0.017131434092882154 -0.0019673785890052496 -0.010721460045402044 0.006795185010712089 0.03434583398493202 0.9913916220106687 -0.08086516586899116
 -0.0019670447422669595 -0.01072148004065797 0.0023539069699746794 0.01712153809941523 0.9913916220106687 -0.08086516586899116 0.0067848141840615534 0.034346389597977235
0.15631513130469998 0.007094296021337693 0.035705653105245844 0.9909703495333331 -0.08414616846058535 0.0024367211615321646 0.01782297889772197 -0.002095720670314498 -0.011148240974594803
