! Created with skrf 1.8.0 (http://scikit-rf.org).
# GHz S RI R 50.0 
!freq ReS11 ImS11 ReS12 ImS12 ReS13 ImS13
! ReS14 ImS14
! ReS21 ImS21 ReS22 ImS22 ReS23 ImS23
! ReS24 ImS24
! ReS31 ImS31 ReS32 ImS32 ReS33 ImS33
! ReS34 ImS34
! ReS41 ImS41 ReS42 ImS42 ReS43 ImS43
! ReS44 ImS44
!
0.0 0.00125900559597 0.0 0.9987409944012 0.0 4.833099656836e-05 0.0 -4.833099670206e-05 5.918840041077907e-21
 0.9987409944012 0.0 0.001259005596004 0.0 -4.833099670228e-05 5.9188400411048486e-21 4.833099656953e-05 0.0
 4.833099656836e-05 0.0 -4.833099670228e-05 5.9188400411048486e-21 0.001259005586041 0.0 0.9987409943912 0.0
 -4.833099670206e-05 5.918840041077907e-21 4.833099656953e-05 0.0 0.9987409943912 0.0 0.00125900558606 0.0
0.005 0.0013539559405078613 0.0010258691235184598 0.9986209640289658 -0.0026383661118743527 6.800126797304455e-05 0.0005603955950040754 -6.594883147102624e-05 -0.0003470103137954368
 0.9986209640289658 -0.0026383661118743527 0.001353956567814883 0.0010258687825914683 -6.594857555197412e-05 -0.00034701017617267733 6.799433797160133e-05 0.0005603981842271168
 6.800126797304455e-05 0.0005603955950040754 -6.594857555197412e-05 -0.00034701017617267733 0.0013539554524424776 0.0010258021947000598 0.9986209636982681 -0.0026384331800771
 -6.594883147102624e-05 -0.0003470103137954368 6.799433797160133e-05 0.0005603981842271168 0.9986209636982681 -0.0026384331800771 0.0013539564008702499 0.001025801581677092
0.006252605252188 0.0013786601102207259 0.00128642133239266 0.9985895681373205 -0.003298636005834089 7.35059655812516e-05 0.0007007661215455793 -7.083255750097774e-05 -0.0004342299436041766
 0.9985895681373205 -0.003298636005834089 0.0013786610907214468 0.0012864209144081815 -7.083215879037209e-05 -0.00043422977504883165 7.349513730552501e-05 0.000700769488845221
 7.35059655812516e-05 0.0007007661215455793 -7.083215879037209e-05 -0.00043422977504883165 0.0013786594172929254 0.0012863376950461773 0.9985895676906338 -0.0032987198258108323
 -7.083255750097774e-05 -0.0004342299436041766 7.349513730552501e-05 0.000700769488845221 0.9985895676906338 -0.0032987198258108323 0.0013786609005386817 0.0012863369264720795
0.01250521050438 0.0015075528962959618 0.0026002559097641656 0.9984248228653584 -0.006598280429944033 0.00010446666846574894 0.0014018800487446347 -9.805672550344749e-05 -0.0008707220461478941
 0.9984248228653584 -0.006598280429944033 0.0015075568083308922 0.002600255159691184 -9.805514834064167e-05 -0.0008707217471695221 0.00010442346553583915 0.0014018881709743458
 0.00010446666846574894 0.0014018800487446347 -9.805514834064167e-05 -0.0008707217471695221 0.0015075506769771374 0.0026000889677654203 0.9984248216328521 -0.006598447844278981
 -9.805672550344749e-05 -0.0008707220461478941 0.00010442346553583915 0.0014018881709743458 0.9984248216328521 -0.006598447844278981 0.0015075566094149787 0.002600087407703197
0.01875781575657 0.0016459240304235664 0.0039332446579189466 0.9982465835002855 -0.009907010951642746 0.00014127762139006726 0.00210386957675702 -0.00013007870226428643 -0.0013088358024288917
 0.9982465835002855 -0.009907010951642746 0.0016459328140538082 0.0039332436699118555 -0.00013007517677564553 -0.0013088354190479551 0.00014118051920787401 0.0021038840629926045
 0.00014127762139006726 0.00210386957675702 -0.00013007517677564553 -0.0013088354190479551 0.00164591945625937 0.003932994652585208 0.9982465811498883 -0.009907261885646869
 -0.00013007870226428643 -0.0013088358024288917 0.00014118051920787401 0.0021038840629926045 0.9982465811498883 -0.009907261885646869 0.0016459328061855856 0.003932992272778826
0.02501042100875 0.0017940086493643558 0.005283554314803157 0.9980546693112211 -0.013226473512676609 0.0001840043375621676 0.002806799290606324 -0.0001669717909889096 -0.0017483905719290894
 0.9980546693112211 -0.013226473512676609 0.0017940242380949853 0.00528355319341962 -0.00016696555368540147 -0.0017483901586949936 0.00018383177328121472 0.0028068219642807374
 0.0001840043375621676 0.002806799290606324 -0.00016696555368540147 -0.0017483901586949936 0.0017940008863754594 0.005283221482729393 0.9980546655057907 -0.013226807956126036
 -0.0001669717909889096 -0.0017483905719290894 0.00018383177328121472 0.0028068219642807374 0.9980546655057907 -0.013226807956126036 0.001794024628316933 0.0052832182516851815
0.03126302626094 0.0019520318805573021 0.00665026226243559 0.9978488889642302 -0.01655739745559816 0.00023271308435491954 0.003510666599176363 -0.00020880754179274845 -0.002189269539587781
 0.9978488889642302 -0.01655739745559816 0.001952056202645256 0.006650261123156266 -0.00020879783432581095 -0.0021892691596997996 0.00023244343865008258 0.0035106994996145493
 0.00023271308435491954 0.003510666599176363 -0.00020879783432581095 -0.0021892691596997996 0.0019520200935485468 0.006649846878777922 0.9978488833655074 -0.016557815419866603
 -0.00020880754179274845 -0.002189269539587781 0.00023244343865008258 0.0035106994996145493 0.9978488833655074 -0.016557815419866603 0.0019520572101104046 0.006649842761963408
0.037515631513130004 0.002120214150769042 0.008032782725627166 0.9976290459375231 -0.019900169277097278 0.0002874702295969329 0.004215442886050302 -0.00025565632523394654 -0.0026313785549940925
 0.9976290459375231 -0.019900169277097278 0.0021202491312080313 0.00803278169521362 -0.0002556423939596462 -0.0026313782803725396 0.0002870818188700862 0.004215488270895085
 0.0002874702295969329 0.004215442886050302 -0.0002556423939596462 -0.0026313782803725396 0.0021201975032580644 0.008032285087155153 0.9976290382038914 -0.01990067081239975
 -0.00025565632523394654 -0.0026313785549940925 0.0002870818188700862 0.004215488270895085 0.9976290382038914 -0.01990067081239975 0.0021202509859278846 0.00803228004724294
0.043768236765320004 0.002298773245001036 0.009430692126317768 0.9973949406847458 -0.02325500721976717 0.0003483419472140855 0.004921086023243813 -0.00030758754908779466 -0.00307463360736263
 0.9973949406847458 -0.02325500721976717 0.0022988208056161194 0.00943069134324761 -0.00030756864462062525 -0.0030746335187161874 0.0003478130201169725 0.004921146371092277
 0.0003483419472140855 0.004921086023243813 -0.00030756864462062525 -0.0030746335187161874 0.0022987508995640574 0.009430112583662565 0.9973949304712793 -0.0232555923834051
 -0.00030758754908779466 -0.00307463360736263 0.0003478130201169725 0.004921146371092277 0.9973949304712793 -0.0232555923834051 0.002298823749558265 0.00943010658052133
0.050020842017509996 0.0024879252689124515 0.010843656945192867 0.9971463717062968 -0.026622033354890835 0.00041539404876033667 0.005627545529085623 -0.0003646697488323848 -0.003518955656549892
 0.9971463717062968 -0.026622033354890835 0.00248798733009358 0.01084365655981169 -0.00036464512600419517 -0.0035189558434146166 0.00041470278518150605 0.005627623542221668
 0.00041539404876033667 0.005627545529085623 -0.00036464512600419517 -0.0035189558434146166 0.0024878963887884713 0.010842995875457518 0.9971463586644748 -0.026622702238926436
 -0.0003646697488323848 -0.003518955656549892 0.00041470278518150605 0.005627623542221668 0.9971463586644748 -0.026622702238926436 0.002487991617528441 0.010842988866243748
0.055454545454549996 0.0026610738180754163 0.012083575435967551 0.9969184539124195 -0.02955802812873612 0.0004787343398033908 0.006242099632338982 -0.00041851173185279103 -0.003905891974927953
 0.9969184539124195 -0.02955802812873612 0.002661150039545817 0.012083575527710274 -0.0004184815375961043 -0.0039058924808297287 0.00047788422710839105 0.006242195367533445
 0.0004787343398033908 0.006242099632338982 -0.0004184815375961043 -0.0039058924808297287 0.0026610385801166415 0.012082843860248929 0.9969184381262741 -0.029558769853682856
 -0.00041851173185279103 -0.003905891974927953 0.00047788422710839105 0.006242195367533445 0.9969184381262741 -0.029558769853682856 0.002661155710600619 0.012082835939774482
0.056273447269699996 0.002687885158560092 0.012271398274218756 0.9968831361674256 -0.030001308973919814 0.0004886918689747842 0.006334765106212096 -0.00042697062376778654 -0.003964268084832262
 0.9968831361674256 -0.030001308973919814 0.0026879636396727326 0.012271398449017697 -0.00042693954147707925 -0.003964268645624042 0.00048781638033644227 0.0063348637133671
 0.0004886918689747842 0.006334765106212096 -0.00042693954147707925 -0.003964268645624042 0.00268784890765878 0.012270656100736164 0.9968831199443029 -0.030002061685819377
 -0.00042697062376778654 -0.003964268084832262 0.00048781638033644227 0.0063348637133671 0.9968831199443029 -0.030002061685819377 0.0026879695372474277 0.012270648039831255
0.06252605252188 0.00289886696119447 0.013713672358590431 0.9966050302913725 -0.03339285399103785 0.0005683001800029934 0.0070426840250909515 -0.0004945570432967666 -0.004410495304397048
 0.9966050302913725 -0.03339285399103785 0.0028989637815636108 0.013713673268444557 -0.0004945187644719584 -0.004410496346463209 0.000567218510623878 0.007042806384199326
 0.0005683001800029934 0.0070426840250909515 -0.0004945187644719584 -0.004410496346463209 0.00289882250509452 0.013712849546714234 0.9966050105288808 -0.03339369065823354
 -0.0004945570432967666 -0.004410495304397048 0.000567218510623878 0.007042806384199326 0.9966050105288808 -0.03339369065823354 0.002898971568954029 0.013712840385712754
0.06877865777407 0.0031210839991229053 0.015170258976186443 0.9963118496362555 -0.03679665850945478 0.000654283119542408 0.007751237950053974 -0.0005674950384673225 -0.004857561923791132
 0.9963118496362555 -0.03679665850945478 0.003121201078433141 0.015170260808538201 -0.0005674488300293509 -0.004857563563444213 0.0006529732484941638 0.0077513874510102545
 0.000654283119542408 0.007751237950053974 -0.0005674488300293509 -0.004857563563444213 0.0031210305057922973 0.015169356033337071 0.9963118259710882 -0.036797579279632245
 -0.0005674950384673225 -0.004857561923791132 0.0006529732484941638 0.0077513874510102545 0.9963118259710882 -0.036797579279632245 0.003121211048978679 0.015169345720994232
0.07503126302626001 0.0033547489593342894 0.01664095408260348 0.9960033893012392 -0.040212690123397676 0.0007467041288343422 0.00846035946200646 -0.000645849782332014 -0.0053053922193144355
 0.9960033893012392 -0.040212690123397676 0.003354888219112439 0.016640957037578927 -0.0006457949153073416 -0.005305394581877376 0.0007451439725363322 0.00846053972936425
 0.0007467041288343422 0.00846035946200646 -0.0006457949153073416 -0.005305394581877376 0.003354685600008198 0.016639971559726276 0.9960033613635919 -0.0402136951632742
 -0.000645849782332014 -0.0053053922193144355 0.0007451439725363322 0.00846053972936425 0.9960033613635919 -0.0402136951632742 0.0033549006796082474 0.016639960041877712
0.08128386827845 0.0036000739412473757 0.01812556490758623 0.9956794440909972 -0.04364089877006611 0.0008456258955190506 0.009169978405488366 -0.0007296855647805355 -0.005753909783768068
 0.9956794440909972 -0.04364089877006611 0.003600237304950912 0.01812556919818187 -0.0007296213142428298 -0.005753913003611426 0.0008437933104678599 0.009170193301164585
 0.0008456258955190506 0.009169978405488366 -0.0007296213142428298 -0.005753913003611426 0.0035999998911294046 0.018124503398715342 0.9956794115047368 -0.04364198826624836
 -0.0007296855647805355 -0.005753909783768068 0.0008437933104678599 0.009170193301164585 0.9956794115047368 -0.04364198826624836 0.0036002525767178657 0.018124490618183612
0.08753647353064001 0.003857270472850525 0.01962390656441252 0.9953398086528799 -0.047081220070814486 0.0009511103001205479 0.009880022126006117 -0.0008190657623094446 -0.0062030372867971
 0.9953398086528799 -0.047081220070814486 0.003857459867037447 0.019623912416622976 -0.0008189914075003073 -0.006203041507376328 0.0009489830861595855 0.00988027575190821
 0.0009511103001205479 0.009880022126006117 -0.0008189914075003073 -0.006203041507376328 0.0038571849122468575 0.01962276670697799 0.9953397710345487 -0.047082394229612565
 -0.0008190657623094446 -0.0062030372867971 0.0009489830861595855 0.00988027575190821 0.9953397710345487 -0.047082394229612565 0.003857478286263841 0.019622752603464376
0.09378907878283 0.004126549508394645 0.021135799627694886 0.99498427759568 -0.05053357770537652 0.0010632183648665518 0.010590415644586147 -0.0009140528047234285 -0.006652696299886062
 0.99498427759568 -0.05053357770537652 0.00412676686339889 0.021135807280553965 -0.0009139676291009307 -0.006652701673772464 0.0010607742685928504 0.010590712345226237
 0.0010632183648665518 0.010590415644586147 -0.0009139676291009307 -0.006652701673772464 0.004126451623170377 0.021134582102498724 0.9949842345540735 -0.050534836753136025
 -0.0009140528047234285 -0.006652696299886062 0.0010607742685928504 0.010590712345226237 0.9949842345540735 -0.050534836753136025 0.004126788781317148 0.021134566612486905
0.100041684035 0.004408121410152622 0.022661068354392952 0.9946126455961768 -0.05399788514524228 0.0011820102038874597 0.01130108178059057 -0.001014708139364571 -0.007102807175093539
 0.9946126455961768 -0.05399788514524228 0.004408368660813943 0.022661078060123147 -0.001014611430679487 -0.007102813864007985 0.0011792269222948692 0.011301426145634655
 0.0011820102038874597 0.01130108178059057 -0.001014611430679487 -0.007102813864007985 0.004408010393032352 0.022659773888744263 0.9946125967316946 -0.05399922932533229
 -0.001014708139364571 -0.007102807175093539 0.0011792269222948692 0.011301426145634655 0.9946125967316946 -0.05399922932533229 0.004408394444626178 0.022659756945329578
0.1059090909091 0.0046837138478791965 0.024104381809368455 0.9942490819976235 -0.05725955355290335 0.0012996152735935866 0.011968143918968683 -0.0011143715858736797 -0.007525527352615741
 0.9942490819976235 -0.05725955355290335 0.004683990916874238 0.024104393682631634 -0.001114263410760633 -0.007525535430801427 0.0012964933774891388 0.011968537406824832
 0.0012996152735935866 0.011968143918968683 -0.001114263410760633 -0.007525535430801427 0.004683589780121669 0.024103015843369453 0.994249027297379 -0.057260977860193726
 -0.0011143715858736797 -0.007525527352615741 0.0012964933774891388 0.011968537406824832 0.994249027297379 -0.057260977860193726 0.004684020676582302 0.0241029974721036
0.1062942892872 0.004702195920985506 0.024199539345330746 0.9942247074971308 -0.05747404694839897 0.0013075449744520964 0.012011941250277412 -0.0011210921933060424 -0.007553288950100008
 0.9942247074971308 -0.05747404694839897 0.004702475007490656 0.024199551369327586 -0.0011209832436957583 -0.0075532971249398775 0.0013044001588860845 0.012012338117045756
 0.0013075449744520964 0.012011941250277412 -0.0011209832436957583 -0.0075532971249398775 0.004702070972053754 0.02419816870884484 0.994224652401048 -0.057475476525636914
 -0.0011210921933060424 -0.007553288950100008 0.0013044001588860845 0.012012338117045756 0.994224652401048 -0.057475476525636914 0.004702505040446564 0.024198150241593185
0.11254689453939999 0.0050089821277202904 0.025751040518133615 0.9938202583990979 -0.06096195974497274 0.0014398808286173149 0.01272291273918865 -0.0012332643343550725 -0.008004059281510042
 0.9938202583990979 -0.06096195974497274 0.005009294996473676 0.025751055139025952 -0.0012331424404544325 -0.008004069122375935 0.0014363520887765927 0.012723367195095486
 0.0014398808286173149 0.01272291273918865 -0.0012331424404544325 -0.008004069122375935 0.005008842455569547 0.02574959452768844 0.99382019665322 -0.060963475000867774
 -0.0012332643343550725 -0.008004059281510042 0.0014363520887765927 0.012723367195095486 0.99382019665322 -0.060963475000867774 0.00500932967849974 0.025749574462439778
0.11879949979160001 0.005328688418712403 0.02731540030894541 0.9933990937475822 -0.0644615129965317 0.0015790748655784175 0.013433912963837363 -0.00135128283041024 -0.008455034391079363
 0.9933990937475822 -0.0644615129965317 0.005329037022888294 0.02731541781861617 -0.0013511472934105279 -0.008455046087302909 0.0015751397737759796 0.013434430348776229
 0.0015790748655784175 0.013433912963837363 -0.0013511472934105279 -0.008455046087302909 0.005328533241330074 0.027313879824906857 0.993399024923429 -0.0644631142330064
 -0.00135128283041024 -0.008455034391079363 0.0015751397737759796 0.013434430348776229 0.993399024923429 -0.0644631142330064 0.005329076771393307 0.027313858083589833
0.1250521050438 0.00566152243626289 0.028892447036103098 0.992961009417415 -0.06797258959560891 0.001725183084047885 0.014144856719357135 -0.0014752048079467576 -0.008906129028144971
 0.992961009417415 -0.06797258959560891 0.00566190873674765 0.028892467739645183 -0.0014750549337298408 -0.008906142778307506 0.0017208191796435342 0.014145442628026248
 0.001725183084047885 0.014144856719357135 -0.0014750549337298408 -0.008906142778307506 0.005661350981810571 0.028890852964590277 0.9929609330756268 -0.06797427713301146
 -0.0014752048079467576 -0.008906129028144971 0.0017208191796435342 0.014145442628026248 0.9929609330756268 -0.06797427713301146 0.005661953986752757 0.028890829464983947
0.131304710296 0.00600769102503716 0.030482008392403285 0.9925058017951973 -0.07149506633938209 0.0018782603348282126 0.014855656921047932 -0.0016050862096721082 -0.009357256440526759
 0.9925058017951973 -0.07149506633938209 0.00600811699138088 0.030482032608084186 -0.0016049213089508654 -0.009357272452472044 0.0018734451286496188 0.014856317205202247
 0.0018782603348282126 0.014855656921047932 -0.0016049213089508654 -0.009357272452472044 0.006007502533282636 0.030480341683449076 0.9925057174851082 -0.07149684051817469
 -0.0016050862096721082 -0.009357256440526759 0.0018734451286496188 0.014856317205202247 0.9925057174851082 -0.07149684051817469 0.006008168196321625 0.030480316338984684
0.1375573155481 0.006281735582898722 0.03187489939313587 0.9921189554764056 -0.07481973759962804 0.002017226810849263 0.015544253837449678 -0.0017198571218745853 -0.00978636358780402
 0.9921189554764056 -0.07481973759962804 0.006282203682657815 0.03187492650775593 -0.0017196763570104462 -0.00978638186003536 0.002011951164765929 0.015544986746229707
 0.002017226810849263 0.015544253837449678 -0.0017196763570104462 -0.00978638186003536 0.006281529985496221 0.03187316055693892 0.9921188628356906 -0.07482159863219953
 -0.0017198571218745853 -0.00978636358780402 0.002011951164765929 0.015544986746229707 0.9921188628356906 -0.07482159863219953 0.006282260449793062 0.0318731330425296
0.1438099208003 0.006565183078124023 0.03326143989238892 0.9917189282269179 -0.07813701033103426 0.0021618141012020257 0.016230764833147858 -0.0018392431203623648 -0.0102135649651913
 0.9917189282269179 -0.07813701033103426 0.0065656953793456815 0.03326147012462316 -0.0018390457821419572 -0.010213585696055601 0.0021560579019192796 0.016231575608796945
 0.0021618141012020257 0.016230764833147858 -0.0018390457821419572 -0.010213585696055601 0.006564959756655587 0.03325962988522619 0.9917188268058033 -0.078138958553259
 -0.0018392431203623648 -0.0102135649651913 0.0021560579019192796 0.016231575608796945 0.9917188268058033 -0.078138958553259 0.006565758035046456 0.033259600078565696
0.1500625260525 0.0068579464482343205 0.03464154412305577 0.9913058101458224 -0.08144683322745937 0.0023119806919065077 0.016915142578593306 -0.0019632038558397608 -0.010638814742308085
 0.9913058101458224 -0.08144683322745937 0.00685850503213741 0.034641577696993976 -0.001962989237801238 -0.010638838137842175 0.0023057239554029173 0.01691603664536724
 0.0023119806919065077 0.016915142578593306 -0.001962989237801238 -0.010638838137842175 0.0068577048037266755 0.03463966393699472 0.9913056994850753 -0.08144886899033323
 -0.0019632038558397608 -0.010638814742308085 0.0023057239554029173 0.01691603664536724 0.9913056994850753 -0.08144886899033323 0.006858573910511404 0.03463963171002013
0.15631513130469998 0.007159938158162723 0.036015129084297035 0.9908796916301972 -0.08474915458127322 0.002467684672224943 0.017597340398479683 -0.0020916985663401244 -0.011062067967570418
