! Created with skrf 1.8.0 (http://scikit-rf.org).
# GHz S RI R 50.0 
!freq ReS11 ImS11 ReS12 ImS12 ReS13 ImS13
! ReS14 ImS14
! ReS21 ImS21 ReS22 ImS22 ReS23 ImS23
! ReS24 ImS24
! ReS31 ImS31 ReS32 ImS32 ReS33 ImS33
! ReS34 ImS34
! ReS41 ImS41 ReS42 ImS42 ReS43 ImS43
! ReS44 ImS44
!
0.0 0.001761517420333 0.0 0.9982384825598 0.0 6.842212745779e-05 0.0 -6.842212745662e-05 8.37929393806019e-21
 0.9982384825598 0.0 0.001761517420347 0.0 -6.842212745806e-05 8.379293938236541e-21 6.842212745689e-05 0.0
 6.842212745779e-05 0.0 -6.842212745806e-05 8.379293938236541e-21 0.00176151743032 0.0 0.9982384825697 0.0
 -6.842212745662e-05 8.37929393806019e-21 6.842212745689e-05 0.0 0.9982384825697 0.0 0.001761517430253 0.0
0.005 0.0018959866463934662 0.001438340614875326 0.9980682320771264 -0.0036892254653697544 9.662898972034252e-05 0.0007665896283200751 -9.368594657187281e-05 -0.0004788223573605979
 0.9980682320771264 -0.0036892254653697544 0.001895997085991533 0.0014383345335899096 -9.369011730650921e-05 -0.0004788255660806532 9.65507927313201e-05 0.0007666194305588378
 9.662898972034252e-05 0.0007665896283200751 -9.369011730650921e-05 -0.0004788255660806532 0.001895984097222755 0.0014382748698603981 0.9980682317045508 -0.003689292523759372
 -9.368594657187281e-05 -0.0004788223573605979 9.65507927313201e-05 0.0007666194305588378 0.9980682317045508 -0.003689292523759372 0.001895998897070331 0.0014382661677381102
0.006252605252188 0.0019314678865809864 0.001803563435325815 0.998022991356232 -0.0046124004042536965 0.00010481203437674881 0.0009585880384439377 -0.00010091960629550053 -0.0005991366974848081
 0.998022991356232 -0.0046124004042536965 0.0019314842054158287 0.001803555691988738 -0.000100926096219972 -0.0005991406527350689 0.0001046898600908982 0.0009586267613527665
 0.00010481203437674881 0.0009585880384439377 -0.000100926096219972 -0.0005991406527350689 0.0019314639758146073 0.0018034812640774786 0.9980229908480468 -0.004612484224907835
 -0.00010091960629550053 -0.0005991366974848081 0.0001046898600908982 0.0009586267613527665 0.9980229908480468 -0.004612484224907835 0.0019314871112467201 0.0018034702352495594
0.01250521050438 0.0021194945526083245 0.00364466068947656 0.9977815013950883 -0.009225361794022939 0.00015239665288016235 0.0019173902365140613 -0.0001425028832106193 -0.0012010447697533109
 0.9977815013950883 -0.009225361794022939 0.0021195597116434642 0.003644643792220852 -0.00014252845785146264 -0.0012010520635588587 0.0001519094726833386 0.0019174836833630497
 0.00015239665288016235 0.0019173902365140613 -0.00014252845785146264 -0.0012010520635588587 0.002119479464035672 0.0036444967044965606 0.9977814998960973 -0.009225529196145499
 -0.0001425028832106193 -0.0012010447697533109 0.0001519094726833386 0.0019174836833630497 0.9977814998960973 -0.009225529196145499 0.0021195718537622894 0.0036444730984588384
0.01875781575657 0.00232605272145322 0.005511640835206626 0.9975136809145753 -0.013850060107775243 0.0002112924009747579 0.0028770258612913395 -0.00019330960103887914 -0.0018048063526592782
 0.9975136809145753 -0.013850060107775243 0.0023261991338835173 0.0055116133206292856 -0.00019336663014349472 -0.001804816234153137 0.00021019806203270025 0.0028771934886577116
 0.0002112924009747579 0.0028770258612913395 -0.00019336663014349472 -0.001804816234153137 0.0023260192367956616 0.005511395333688057 0.9975136779692971 -0.01385031102628032
 -0.00019330960103887914 -0.0018048063526592782 0.00021019806203270025 0.0028771934886577116 0.9975136779692971 -0.01385031102628032 0.0023262268591482597 0.005511357421105105
0.02501042100875 0.0025515814764284694 0.007401829342203655 0.9972191839475063 -0.018488679172965882 0.00028161723125424124 0.0038374997861228004 -0.0002534718278834451 -0.0024101093839920297
 0.9972191839475063 -0.018488679172965882 0.0025518414908702555 0.007401789704954652 -0.00025357253095168326 -0.002410120955847158 0.00027967354438721866 0.0038377644037381874
 0.00028161723125424124 0.0038374997861228004 -0.00025357253095168326 -0.002410120955847158 0.0025515223750059795 0.007401502698061099 0.9972191790848486 -0.018489013577094017
 -0.0002534718278834451 -0.0024101093839920297 0.00027967354438721866 0.0038377644037381874 0.9972191790848486 -0.018489013577094017 0.0025518911305461396 0.0074014485853992696
0.03126302626094 0.002796501597733256 0.009313820555298393 0.9968976486311619 -0.023142118219407766 0.0003634890462329538 0.004798726033659541 -0.00032311714559264226 -0.0030167240502705145
 0.9968976486311619 -0.023142118219407766 0.002796907518485355 0.009313767250919496 -0.0003232736167822462 -0.003016736267303975 0.00036045357349262313 0.004799113824575094
 0.0003634890462329538 0.004798726033659541 -0.0003232736167822462 -0.003016736267303975 0.0027964096736257764 0.009313413209013934 0.9968976413828557 -0.02314253612334423
 -0.00032311714559264226 -0.0030167240502705145 0.00036045357349262313 0.004799113824575094 0.9968976413828557 -0.02314253612334423 0.0027969854109542126 0.009313340840919691
0.037515631513130004 0.003061224132974602 0.011246675757349072 0.996548706155478 -0.02781079376115012 0.00045702445411677196 0.005760582188519549 -0.0004023695719367838 -0.0036244484047973004
 0.996548706155478 -0.02781079376115012 0.0030618082349825183 0.01124660720405319 -0.00040259379246075243 -0.003624460073610123 0.0004526544206281044 0.005761122741967848
 0.00045702445411677196 0.005760582188519549 -0.00040259379246075243 -0.003624460073610123 0.0030610921865175506 0.011246188246691007 0.9965486960480142 -0.027811295194303386
 -0.0004023695719367838 -0.0036244484047973004 0.0004526544206281044 0.005761122741967848 0.9965486960480142 -0.027811295194303386 0.00306192072079622 0.011246095406316853
0.043768236765320004 0.003346153679438028 0.013199679148947187 0.996171984425234 -0.03249488355018236 0.000562338166605443 0.006722925947487863 -0.0004913498706025454 -0.004233091852401044
 0.996171984425234 -0.03249488355018236 0.0033469482216048714 0.013199593728736532 -0.0004916537161185894 -0.004233101631323691 0.0005563904260160457 0.006723652295587591
 0.000562338166605443 0.006722925947487863 -0.0004916537161185894 -0.004233101631323691 0.0033459745208974496 0.013199112099349914 0.9961719709825305 -0.03249546856780621
 -0.0004913498706025454 -0.004233091852401044 0.0005563904260160457 0.006723652295587591 0.9961719709825305 -0.03249546856780621 0.003347101647629801 0.013198996407875639
0.050020842017509996 0.0036516898914570354 0.015172237005063226 0.9957671099528403 -0.03719442735291874 0.0006795426249151076 0.007685601975007004 -0.0005901756423540302 -0.004842468334498756
 0.9957671099528403 -0.03719442735291874 0.0036527271276256936 0.015172133064569833 -0.0005905708873699661 -0.0048424747336119345 0.0006717736530025818 0.007686550630932135
 0.0006795426249151076 0.007685601975007004 -0.0005905708873699661 -0.0048424747336119345 0.0036514563395257256 0.015171591135292543 0.9957670926935507 -0.037195096031564276
 -0.0005901756423540302 -0.004842468334498756 0.0006717736530025818 0.007686550630932135 0.9957670926935507 -0.037195096031564276 0.0036529278471078112 0.015171450050987937
0.055454545454549996 0.003934252485635428 0.01690192414050191 0.9953921080259962 -0.041290987658133105 0.0007911390085694232 0.008522338516409893 -0.0006841429153819312 -0.005372486720400868
 0.9953921080259962 -0.041290987658133105 0.003935526828987081 0.016901802735436913 -0.0006846270753188108 -0.005372488857302715 0.0007815892746472235 0.008523512750395056
 0.0007911390085694232 0.008522338516409893 -0.0006846270753188108 -0.005372488857302715 0.00393396583891866 0.016901210437321883 0.9953920870547067 -0.041291729112828544
 -0.0006841429153819312 -0.005372486720400868 0.0007815892746472235 0.008523512750395056 0.9953920870547067 -0.041291729112828544 0.00393577381272144 0.016901045093987842
0.056273447269699996 0.00397822823155065 0.017163828169829462 0.9953337089994593 -0.04190937639285122 0.000808747724604448 0.008648445275283304 -0.0006989613196953235 -0.0054523930043757825
 0.9953337089994593 -0.04190937639285122 0.0039795404219172235 0.017163704020737906 -0.0006994596404785283 -0.00545239438562038 0.0007989136303212529 0.008649656271931988
 0.000808747724604448 0.008648445275283304 -0.0006994596404785283 -0.00545239438562038 0.00397793311360253 0.01716310430163986 0.995333687436566 -0.0419101288218721
 -0.0006989613196953235 -0.0054523930043757825 0.0007989136303212529 0.008649656271931988 0.995333687436566 -0.0419101288218721 0.00397979479471439 0.017162935118294934
0.06252605252188 0.004326160346421254 0.019173976870142214 0.9948714083478182 -0.04663962048116986 0.000950060590797253 0.009611283060202721 -0.0008178181116702781 -0.006062680414411785
 0.9948714083478182 -0.04663962048116986 0.004327779768416352 0.019173830789087857 -0.0008184310880574955 -0.0060626749916964946 0.0009379171389142497 0.00961279998886173
 0.000950060590797253 0.009611283060202721 -0.0008184310880574955 -0.0060626749916964946 0.004325796500641476 0.01917317591775256 0.9948713819885009 -0.04664045677421329
 -0.0008178181116702781 -0.006062680414411785 0.0009379171389142497 0.00961279998886173 0.9948713819885009 -0.04664045677421329 0.00432809416330661 0.019172975762793556
0.06877865777407 0.004695874245023339 0.02120223649165609 0.9943798358811473 -0.05138500419281091 0.0011035853807514295 0.010573935873578848 -0.0009468539208455214 -0.006673143455195316
 0.9943798358811473 -0.05138500419281091 0.004697833203994274 0.021202066719928202 -0.0009475930373948683 -0.006673129294539991 0.0010888880227021575 0.010575805922347333
 0.0011035853807514295 0.010573935873578848 -0.0009475930373948683 -0.006673129294539991 0.004695434520288016 0.021201359470707178 0.9943798042254726 -0.051385924480033915
 -0.0009468539208455214 -0.006673143455195316 0.0010888880227021575 0.010575805922347333 0.9943798042254726 -0.051385924480033915 0.004698213997922782 0.021201125302911124
0.07503126302626001 0.0050877543496126365 0.02324817931696681 0.9938586210408893 -0.05614533708965203 0.0012694231041238064 0.011536218321326347 -0.0010861732418708016 -0.007283592697392073
 0.9938586210408893 -0.05614533708965203 0.005090085189334907 0.023247984059804345 -0.0010870498883788508 -0.007283567717105726 0.0012519270150603595 0.011538492313114955
 0.0012694231041238064 0.011536218321326347 -0.0010870498883788508 -0.007283567717105726 0.00508723160705202 0.023247227343274682 0.9938585835816199 -0.0561463415200141
 -0.0010861732418708016 -0.007283592697392073 0.0012519270150603595 0.011538492313114955 0.9938585835816199 -0.0561463415200141 0.005090538769254279 0.023246955949996716
0.08128386827845 0.005502181474195008 0.02531138969064012 0.9933073952170344 -0.060920400526494965 0.0014476714522399694 0.012497939573288574 -0.0012358770500850373 -0.007893835971038578
 0.9933073952170344 -0.060920400526494965 0.0055049165874876994 0.025311167115989443 -0.0012369025218469094 -0.007893797941892796 0.001427131572974587 0.012500672003218073
 0.0014476714522399694 0.012497939573288574 -0.0012369025218469094 -0.007893797941892796 0.005501568587823917 0.025310363986233618 0.9933073514380334 -0.060921489262653776
 -0.0012358770500850373 -0.007893835971038578 0.001427131572974587 0.012500672003218073 0.9933073514380334 -0.060921489262653776 0.005505449349947543 0.025310051980280277
0.08753647353064001 0.005939532750094905 0.027391459322149182 0.9927257920894859 -0.06570995232924956 0.0016384246353786781 0.013458903725119053 -0.001396062681357411 -0.008503678094085828
 0.9927257920894859 -0.06570995232924956 0.0059427045896532586 0.027391207559163574 -0.0013972481790735444 -0.008503624639523496 0.0016145957185207543 0.013462152797234849
 0.0016384246353786781 0.013458903725119053 -0.0013972481790735444 -0.008503624639523496 0.005938822608449918 0.027390361206851115 0.9927257414657799 -0.06571112555706039
 -0.001396062681357411 -0.008503678094085828 0.0016145957185207543 0.013462152797234849 0.9927257414657799 -0.06571112555706039 0.0059433229418370285 0.027390005022918617
0.09378907878283 0.006400181517545108 0.029487983915495015 0.9921134479407019 -0.07051373015758665 0.001841773224233573 0.014418910073980596 -0.0015668237072948004 -0.009112920696607142
 0.9921134479407019 -0.07051373015758665 0.00640382260683686 0.029487701052474717 -0.0015681803367713746 -0.00911284929297771 0.0018144098836478807 0.014422737737187958
 0.001841773224233573 0.014418910073980596 -0.0015681803367713746 -0.00911284929297771 0.006399367024793277 0.02948681481761873 0.9921133899372849 -0.07051498807620052
 -0.0015668237072948004 -0.009112920696607142 0.0018144098836478807 0.014422737737187958 0.9921133899372849 -0.07051498807620052 0.006404532966772704 0.029486410708288134
0.100041684035 0.006884497191253979 0.03160056072728661 0.9914700019451861 -0.07533145394981348 0.0020578039952223806 0.015377753339892984 -0.00174824980631264 -0.009721362109195065
 0.9914700019451861 -0.07533145394981348 0.006888640134824284 0.0316002448093259 -0.0017497885779094707 -0.009721270086006506 0.0020266607584233562 0.015382225323110987
 0.0020578039952223806 0.015377753339892984 -0.0017497885779094707 -0.009721270086006506 0.006883571268379404 0.03159932218018748 0.9914699360162739 -0.07533279677612106
 -0.00174824980631264 -0.009721362109195065 0.0020266607584233562 0.015382225323110987 0.9914699360162739 -0.07533279677612106 0.006889448931942016 0.03159886621152726
0.1059090909091 0.00736082636792589 0.03359723031302882 0.9908375906970475 -0.07986479703326524 0.0022721341025215775 0.016276281517130845 -0.001928275078165133 -0.01029140857154617
 0.9908375906970475 -0.07986479703326524 0.007365469984310594 0.03359688155747243 -0.0019299946991204828 -0.010291294639732732 0.0022372205510197414 0.016281421303287122
 0.0022721341025215775 0.016276281517130845 -0.0019299946991204828 -0.010291294639732732 0.0073597894578392225 0.033595928083879165 0.990837516824178 -0.07986621974955328
 -0.001928275078165133 -0.01029140857154617 0.0022372205510197414 0.016281421303287122 0.990837516824178 -0.07986621974955328 0.007366377012096571 0.033595419702416154
0.1062942892872 0.007392845106977093 0.03372878673267048 0.9907950964455571 -0.08016282777187762 0.0022865997780746397 0.016335223848933277 -0.0019404266322433886 -0.010328797299434566
 0.9907950964455571 -0.08016282777187762 0.007397522601851939 0.03372843575873032 -0.0019421584603275424 -0.01032868183962303 0.002251431141354211 0.016340409695254056
 0.0022865997780746397 0.016335223848933277 -0.0019421584603275424 -0.01032868183962303 0.007391800693463552 0.03372748037539746 0.990795022033883 -0.0801642557405554
 -0.0019404266322433886 -0.010328797299434566 0.002251431141354211 0.016340409695254056 0.990795022033883 -0.0801642557405554 0.007398436277319076 0.03372696842204861
0.11254689453939999 0.007925586355182975 0.03587225723241261 0.9900883772172746 -0.08500754123666006 0.002528239305830554 0.01729110769279367 -0.002143435681178871 -0.010935017842126036
 0.9900883772172746 -0.08500754123666006 0.007930831201544503 0.03587186915198261 -0.002145371383183471 -0.01093487598238678 0.002488799791584616 0.017297080792691762
 0.002528239305830554 0.01729110769279367 -0.002145371383183471 -0.01093487598238678 0.007924416410100513 0.035870884811506736 0.9900882937531622 -0.0850090545992593
 -0.002143435681178871 -0.010935017842126036 0.002488799791584616 0.017297080792691762 0.9900882937531622 -0.0850090545992593 0.0079318562086026 0.03587031255132224
0.11879949979160001 0.008483077602386417 0.038030564783567436 0.9893494937248873 -0.08986527061199408 0.0027827970665390803 0.01824518687347813 -0.0023573541567852674 -0.011539811914671835
 0.9893494937248873 -0.08986527061199408 0.008488922714592227 0.038030137492885495 -0.002359504452465497 -0.011539640545757375 0.0027388412829242284 0.01825202449700592
 0.0027827970665390803 0.01824518687347813 -0.002359504452465497 -0.011539640545757375 0.00848177510636464 0.03802912815577217 0.9893494006257414 -0.0898668696349147
 -0.0023573541567852674 -0.011539811914671835 0.0027388412829242284 0.01825202449700592 0.9893494006257414 -0.0898668696349147 0.00849006551903296 0.038028491064054544
0.1250521050438 0.00906567090520797 0.040203298365269466 0.988578099374263 -0.09473567970602617 0.003050343156786226 0.01919723943325638 -0.0025822548352441546 -0.012142964317540274
 0.988578099374263 -0.09473567970602617 0.009072149322618999 0.040202829703035035 -0.0025846303456137664 -0.012142760184666505 0.0030016258592953115 0.019205022761141548
 0.003050343156786226 0.01919723943325638 -0.0025846303456137664 -0.012142760184666505 0.009064228861158504 0.04020179949495224 0.9885779960432023 -0.0947373646737243
 -0.0025822548352441546 -0.012142964317540274 0.0030016258592953115 0.019205022761141548 0.9885779960432023 -0.0947373646737243 0.009073416402986966 0.040201092838084374
0.131304710296 0.009673713515839233 0.04239004272084804 0.98777385175747 -0.09961842058871138 0.003330943136619411 0.020147039585856605 -0.002818205929796547 -0.012744256504106561
 0.98777385175747 -0.09961842058871138 0.009680858414498164 0.04238953046332761 -0.0028208171761626346 -0.012744016207300873 0.0032772192914826332 0.020155853739407533
 0.003330943136619411 0.020147039585856605 -0.0028208171761626346 -0.012744016207300873 0.009672124951762054 0.04238848368377061 0.9877737375833138 -0.09962019180060415
 -0.002818205929796547 -0.012744256504106561 0.0032772192914826332 0.020155853739407533 0.9877737375833138 -0.09962019180060415 0.00968225626236294 0.04238770251249326
0.1375573155481 0.010175583819161374 0.04430551861956028 0.9870684421875539 -0.1042281062967801 0.0035916908346901454 0.021066774506581586 -0.00303236875832782 -0.013315859825463256
 0.9870684421875539 -0.1042281062967801 0.010183431749212915 0.04430497383931809 -0.0030352314653901407 -0.013315582753269235 0.003532837949892053 0.021076613507067746
 0.0035916908346901454 0.021066774506581586 -0.0030352314653901407 -0.013315582753269235 0.010173842337929262 0.044303901337871966 0.9870683166645395 -0.10422996391290805
 -0.00303236875832782 -0.013315859825463256 0.003532837949892053 0.021076613507067746 0.9870683166645395 -0.10422996391290805 0.010184966093993785 0.04430305408160147
0.1438099208003 0.010695320028198008 0.04620947510723879 0.9863377856739504 -0.10882466069626857 0.0038629323102738885 0.021981879486882513 -0.003255039350132615 -0.01388324081004271
 0.9863377856739504 -0.10882466069626857 0.010703904857091516 0.04620889632920802 -0.0032581648318321874 -0.01388292358354411 0.0037987277375871836 0.021992821838270726
 0.0038629323102738885 0.021981879486882513 -0.0032581648318321874 -0.01388292358354411 0.010693418792300638 0.046207801720973586 0.9863376481915663 -0.1088266050047946
 -0.003255039350132615 -0.01388324081004271 0.0037987277375871836 0.021992821838270726 0.9863376481915663 -0.1088266050047946 0.010705582073864026 0.04620688410434383
0.1500625260525 0.011232716641164878 0.048101710758142444 0.9855820926584858 -0.11340792635397597 0.0041445597293672904 0.022892231773341366 -0.003486113339493969 -0.01444628538303314
 0.9855820926584858 -0.11340792635397597 0.011242072381861552 0.04810109637658667 -0.0034895128763749654 -0.014445924487357058 0.0040747824276529294 0.022904358842092864
 0.0041445597293672904 0.022892231773341366 -0.0034895128763749654 -0.014445924487357058 0.01123064884232752 0.04809998349216649 0.9855819425943237 -0.11340995765448005
 -0.003486113339493969 -0.01444628538303314 0.0040747824276529294 0.022904358842092864 0.9855819425943237 -0.11340995765448005 0.011243898850234536 0.04809899099321966
0.15631513130469998 0.011787566424805983 0.049982030162505874 0.9848015749541138 -0.11797774737330118 0.004436463822429397 0.023797711026479835 -0.0037254849317307675 -0.015004882160837407
 0.9848015749541138 -0.11797774737330118 0.011797727239388203 0.04998137843444881 -0.0037291697701654566 -0.01500447394596927 0.004360894386093239 0.023811107006971567
