! Created with skrf 1.8.0 (http://scikit-rf.org).
# GHz S RI R 50.0 
!freq ReS11 ImS11 ReS12 ImS12 ReS13 ImS13
! ReS14 ImS14
! ReS21 ImS21 ReS22 ImS22 ReS23 ImS23
! ReS24 ImS24
! ReS31 ImS31 ReS32 ImS32 ReS33 ImS33
! ReS34 ImS34
! ReS41 ImS41 ReS42 ImS42 ReS43 ImS43
! ReS44 ImS44
!
0.0 0.001638937373265 0.0 0.9983610626127 0.0 6.370631936106e-05 0.0 -6.370631982765e-05 7.801774066238913e-21
 0.9983610626127 0.0 0.001638937373282 0.0 -6.370631982801e-05 7.801774066283e-21 6.370631936206e-05 0.0
 6.370631936106e-05 0.0 -6.370631982801e-05 7.801774066283e-21 0.001638937372917 0.0 0.9983610626123 0.0
 -6.370631982765e-05 7.801774066238913e-21 6.370631936206e-05 0.0 0.9983610626123 0.0 0.001638937372917 0.0
0.005 0.0017637335992048478 0.0013343410904951274 0.998203114128173 -0.003433198715222692 9.033830017993987e-05 0.0007389440538141552 -8.752210753097897e-05 -0.00045729440487206666
 0.998203114128173 -0.003433198715222692 0.0017637289804182687 0.0013343437103413248 -8.751980428020302e-05 -0.00045729260130034023 9.038780772082294e-05 0.0007389254069698904
 9.033830017993987e-05 0.0007389440538141552 -8.751980428020302e-05 -0.00045729260130034023 0.0017637353200205233 0.001334407323007661 0.998203114502026 -0.0034331316523526887
 -8.752210753097897e-05 -0.00045729440487206666 9.038780772082294e-05 0.0007389254069698904 0.998203114502026 -0.0034331316523526887 0.001763728004282893 0.0013344116020628555
0.006252605252188 0.0017965548348248517 0.0016731914547082928 0.9981612967122153 -0.004292326397888983 9.799058477030826e-05 0.0009240153881192085 -9.429513848664991e-05 -0.00057221201773445
 0.9981612967122153 -0.004292326397888983 0.0017965476148081047 0.001673194737775168 -9.429155471734699e-05 -0.0005722097934838671 9.806793786651399e-05 0.0009239911354796172
 9.799058477030826e-05 0.0009240153881192085 -9.429155471734699e-05 -0.0005722097934838671 0.0017965574399268357 0.0016732742253210869 0.9981612972114355 -0.004292242583237229
 -9.429513848664991e-05 -0.00057221201773445 9.806793786651399e-05 0.0009239911354796172 0.9981612972114355 -0.004292242583237229 0.0017965460032514755 0.00167327959277517
0.01250521050438 0.001969862213892319 0.0033815253082271506 0.9979389571900174 -0.008585387300274293 0.0001421055119799031 0.0018482420842294816 -0.00013298700517844648 -0.0011471705765741553
 0.9979389571900174 -0.008585387300274293 0.0019698333866992506 0.0033815319264177187 -0.00013297288529991237 -0.001147166460444509 0.00014241404868525716 0.001848183378667367
 0.0001421055119799031 0.0018482420842294816 -0.00013297288529991237 -0.001147166460444509 0.0019698720590933926 0.0033816905337909283 0.9979389586209084 -0.00858521990685411
 -0.00013298700517844648 -0.0011471705765741553 0.00014241404868525716 0.001848183378667367 0.9979389586209084 -0.00858521990685411 0.001969826381787129 0.0033817014498842344
0.01875781575657 0.002159257284077776 0.005114180262040975 0.9976937540302544 -0.012889615270881035 0.00019615633406777898 0.002773326004943953 -0.00017990604703540394 -0.001723982290969953
 0.9976937540302544 -0.012889615270881035 0.0021591925124046316 0.0051141902130262375 -0.00017987456416571177 -0.001723976681730071 0.00019684959167457508 0.002773220601607321
 0.00019615633406777898 0.002773326004943953 -0.00017987456416571177 -0.001723976681730071 0.002159278989945226 0.005114427708780467 0.9976937568193074 -0.012889364398582326
 -0.00017990604703540394 -0.001723982290969953 0.00019684959167457508 0.002773220601607321 0.9976937568193074 -0.012889364398582326 0.002159176330382471 0.005114444377464934
0.02501042100875 0.0023651249034317996 0.006868693525202397 0.997425385294707 -0.017207071553341644 0.0002602494237723826 0.003699300114636336 -0.00023517173692784546 -0.0023023594381772336
 0.997425385294707 -0.017207071553341644 0.0023650098762537626 0.006868706743900418 -0.00023511614752995568 -0.0023023528079049583 0.00026148108841663863 0.0036991337782356117
 0.0002602494237723826 0.003699300114636336 -0.00023511614752995568 -0.0023023528079049583 0.002365163092680644 0.006869022950612282 0.9974253898740616 -0.017206737258270703
 -0.00023517173692784546 -0.0023023594381772336 0.00026148108841663863 0.0036991337782356117 0.9974253898740616 -0.017206737258270703 0.002364980737885926 0.006869045586672604
0.03126302626094 0.0025878339731538772 0.008643784624298182 0.9971335343990585 -0.021538622234552628 0.00033449134684120075 0.004626107333474253 -0.00029889976834097443 -0.0028820971215291584
 0.9971335343990585 -0.021538622234552628 0.00258765439375813 0.008643800979848298 -0.0002988133981884444 -0.0028820900164311086 0.000336415388022516 0.0046258638230796244
 0.00033449134684120075 0.004626107333474253 -0.0002988133981884444 -0.0028820900164311086 0.0025878932628584247 0.008644195755225166 0.997133541197252 -0.021538204550560193
 -0.00029889976834097443 -0.0028820971215291584 0.000336415388022516 0.0046258638230796244 0.997133541197252 -0.021538204550560193 0.002587608512906822 0.008644224581621179
0.037515631513130004 0.002827745146477673 0.010438608751740007 0.9968178781145023 -0.0258846848362491 0.0004189878102655885 0.005553654872719633 -0.000371202932649821 -0.0034630189568811615
 0.9968178781145023 -0.0258846848362491 0.0028274867227869207 0.010438628045363118 -0.00037107916959517684 -0.0034630119974976333 0.000421758539420907 0.00555331591943574
 0.0004189878102655885 0.005553654872719633 -0.00037107916959517684 -0.0034630119974976333 0.0028278301536796805 0.010439101278112983 0.9968178875624452 -0.025884183780628643
 -0.000371202932649821 -0.0034630189568811615 0.000421758539420907 0.00555331591943574 0.9968178875624452 -0.025884183780628643 0.0028274203112105497 0.010439136524683533
0.043768236765320004 0.0030852138061355336 0.012252529569127335 0.9964780898400503 -0.030245455442097495 0.0005138431589193806 0.006481830763644453 -0.0004521914264804997 -0.004044960561723738
 0.9964780898400503 -0.030245455442097495 0.0030848622426148677 0.012252551532351596 -0.000452023716274908 -0.004044954442982453 0.0005176152554086538 0.0064813760460727616
 0.0005138431589193806 0.006481830763644453 -0.000452023716274908 -0.004044954442982453 0.0030853291454954897 0.01225310312659167 0.9964781023681961 -0.030244871032212843
 -0.0004521914264804997 -0.004044960561723738 0.0005176152554086538 0.0064813760460727616 0.9964781023681961 -0.030244871032212843 0.0030847715064797774 0.01225314502928559
0.050020842017509996 0.0033605914325297837 0.014085025286717338 0.9961138412664287 -0.03462100254753742 0.0006191600672705583 0.0074105106929088236 -0.0005419729550946318 -0.004627762740031665
 0.9961138412664287 -0.03462100254753742 0.003360132421469425 0.014085049579947218 -0.0005417547985502345 -0.004627758231232671 0.0006240885869674967 0.007409917811731904
 0.0006191600672705583 0.0074105106929088236 -0.0005417547985502345 -0.004627758231232671 0.0033607417174041643 0.014085679474962958 0.9961138573070909 -0.03462033478183076
 -0.0005419729550946318 -0.004627762740031665 0.0006240885869674967 0.007409917811731904 0.9961138573070909 -0.03462033478183076 0.003360013563409259 0.014085728275458493
0.055454545454549996 0.003614717768346476 0.015692251416697306 0.9957771779382668 -0.038435477253682654 0.0007192580393741548 0.008217867692194545 -0.0006272186309008894 -0.005134812173795897
 0.9957771779382668 -0.038435477253682654 0.003614153747849326 0.015692277402835107 -0.0006269513983240407 -0.0051348097465856385 0.000725317741496035 0.008217134918461794
 0.0007192580393741548 0.008217867692194545 -0.0006269513983240407 -0.0051348097465856385 0.0036149021670139943 0.01569297530947262 0.9957771973832968 -0.03843473704573337
 -0.0006272186309008894 -0.005134812173795897 0.000725317741496035 0.008217134918461794 0.9957771973832968 -0.03843473704573337 0.003614007363077362 0.015693030305041482
0.056273447269699996 0.003654226301301934 0.015935642601758525 0.9957248033758302 -0.039011313053428615 0.0007350393157085089 0.008339561359331017 -0.0006406527454955069 -0.005211268149946076
 0.9957248033758302 -0.039011313053428615 0.0036536455156872803 0.01593566881308102 -0.000640377696781658 -0.005211266094725704 0.0007412796893188774 0.008338805811528493
 0.0007350393157085089 0.008339561359331017 -0.000640377696781658 -0.005211266094725704 0.0036544161430374033 0.015936376966899014 0.9957248233624985 -0.03901056192828706
 -0.0006406527454955069 -0.005211268149946076 0.0007412796893188774 0.008338805811528493 0.9957248233624985 -0.03901056192828706 0.0036534947334022423 0.015936432912537414
0.06252605252188 0.003966463842936691 0.017803971349777546 0.9953106471066947 -0.04341631755117687 0.000861579608509586 0.009268842327644668 -0.0007483335146278817 -0.005795319479723457
 0.9953106471066947 -0.04341631755117687 0.003965746928351167 0.017803998994027348 -0.0007479951799964652 -0.005795320796008872 0.0008692876326597924 0.009267897480595186
 0.000861579608509586 0.009268842327644668 -0.0007479951799964652 -0.005795320796008872 0.00396669785038521 0.017804785392015264 0.9953106714743688 -0.04341548305256702
 -0.0007483335146278817 -0.005795319479723457 0.0008692876326597924 0.009267897480595186 0.9953106714743688 -0.04341548305256702 0.003965560415024206 0.017804848735952353
0.06877865777407 0.004297646822884984 0.019689629408822792 0.9948710438439822 -0.04783590536055544 0.0009988774163979543 0.010198207139701768 -0.0008651154097771445 -0.006379758372076521
 0.9948710438439822 -0.04783590536055544 0.004296779389824896 0.019689657926811804 -0.0008647074467425778 -0.006379764052020276 0.001008209239928017 0.010197044205326876
 0.0009988774163979543 0.010198207139701768 -0.0008647074467425778 -0.006379764052020276 0.004297929602367962 0.019690522574988756 0.9948710730297622 -0.0478349874707503
 -0.0008651154097771445 -0.006379758372076521 0.001008209239928017 0.010197044205326876 0.9948710730297622 -0.0478349874707503 0.004296553334480821 0.01969059357664664
0.07503126302626001 0.004648115412862358 0.02159225312662256 0.9944056658045002 -0.05226993405075649 0.001147026832200854 0.011127504025805228 -0.0009910959337190368 -0.006964424754625575
 0.9944056658045002 -0.05226993405075649 0.004647083028656211 0.021592281884727015 -0.0009906120504903479 -0.006964435864542646 0.0011581389385802935 0.011126092034833182
 0.001147026832200854 0.011127504025805228 -0.0009906120504903479 -0.006964435864542646 0.004648451567023285 0.021593224813205157 0.994405700247669 -0.05226893274463926
 -0.0009910959337190368 -0.006964424754625575 0.0011581389385802935 0.011126092034833182 0.994405700247669 -0.05226893274463926 0.004646813615977085 0.021593303738833152
0.08128386827845 0.005018207193620599 0.023511490956928113 0.993914186358786 -0.05671823575924935 0.0013061194350307967 0.01205657639210373 -0.001126369859155015 -0.007549156400834731
 0.993914186358786 -0.05671823575924935 0.005016995375041429 0.023511519246772854 -0.0011258038143565712 -0.007549174081126464 0.0013191686219887842 0.01205488216856438
 0.0013061194350307967 0.01205657639210373 -0.0011258038143565712 -0.007549174081126464 0.005018601321078158 0.02351254051282014 0.9939142265011613 -0.056717151000807646
 -0.001126369859155015 -0.007549156400834731 0.0013191686219887842 0.01205488216856438 0.9939142265011613 -0.056717151000807646 0.005016678785378817 0.023512627636480796
0.08753647353064001 0.005408257113322848 0.025446999068868596 0.9933962803121271 -0.06118062154485031 0.0014762441605785282 0.01298526316280039 -0.0012710291356158462 -0.008133788642930552
 0.9933962803121271 -0.06118062154485031 0.0054068513183551424 0.025447026107408833 -0.0012703747380878314 -0.00813381410800278 0.0014913875171716742 0.012983251298802966
 0.0014762441605785282 0.01298526316280039 -0.0012703747380878314 -0.00813381410800278 0.005408713808094027 0.02544812578453803 0.9933963265982465 -0.061179453297398434
 -0.0012710291356158462 -0.008133788642930552 0.0014913875171716742 0.012983251298802966 0.9933963265982465 -0.061179453297398434 0.005406483728197554 0.025448221389215354
0.09378907878283 0.005818597414352926 0.027398438201402902 0.9928516241574697 -0.06565688450342176 0.0016574871745936451 0.01391339903745637 -0.001425162791575846 -0.008718154176746243
 0.9928516241574697 -0.06565688450342176 0.005816983034219107 0.027398463131173417 -0.001424413900335466 -0.008718188714922855 0.0016748820563980997 0.013911031868201373
 0.0016574871745936451 0.01391339903745637 -0.001424413900335466 -0.008718188714922855 0.005819121264988514 0.027399641316867937 0.9928516770349923 -0.06565563272092259
 -0.001425162791575846 -0.008718154176746243 0.0016748820563980997 0.013911031868201373 0.9928516770349923 -0.06565563272092259 0.0058165606162775794 0.027399745695812567
0.100041684035 0.0062495575369273726 0.029365471373445053 0.9922798963100876 -0.07014680203584234 0.0018499317492720606 0.014840814691179562 -0.00158885683267488 -0.009302082930872693
 0.9922798963100876 -0.07014680203584234 0.0062477198879283494 0.029365493263088745 -0.0015880073570028659 -0.009302127904300054 0.001869735751710878 0.014838052270410641
 0.0018499317492720606 0.014840814691179562 -0.0015880073570028659 -0.009302127904300054 0.006250153126026708 0.029366750072903212 0.9922799562301449 -0.0701454666676522
 -0.00158885683267488 -0.009302082930872693 0.001869735751710878 0.014838052270410641 0.9922799562301449 -0.0701454666676522 0.0062472388114400736 0.02936686353132607
0.1059090909091 0.006673012310633053 0.03122520630180455 0.9917184843744957 -0.07437232153590943 0.002040779799563513 0.01571028666175791 -0.0017512352627609008 -0.009849486885281122
 0.9917184843744957 -0.07437232153590943 0.006670951718930626 0.03122522442646418 -0.0017502859046822903 -0.009849542955608777 0.002062988026376098 0.015707114955086247
 0.002040779799563513 0.01571028666175791 -0.0017502859046822903 -0.009849542955608777 0.006673679380154297 0.031226555136936424 0.9917185513167006 -0.07437090768092944
 -0.0017512352627609008 -0.009849486885281122 0.002062988026376098 0.015707114955086247 0.9917185513167006 -0.07437090768092944 0.006670412110700323 0.031226677405354293
0.1062942892872 0.006701464007249665 0.03134776216477096 0.9916807773289319 -0.07465013755333413 0.0020536581414644915 0.015767336937054763 -0.0017621941372571138 -0.009885401980913448
 0.9916807773289319 -0.07465013755333413 0.006699388322658318 0.0313477800098799 -0.0017612380368004065 -0.009885458825451818 0.002076029071610346 0.015764137012818587
 0.0020536581414644915 0.015767336937054763 -0.0017612380368004065 -0.009885458825451818 0.006702135910247979 0.03134911557642576 0.9916808447460569 -0.07464871854378903
 -0.0017621941372571138 -0.009885401980913448 0.002076029071610346 0.015764137012818587 0.9916808447460569 -0.07464871854378903 0.006698844753463875 0.03134923843336249
0.11254689453939999 0.0071746403119979756 0.03334497340224241 0.9910539501282564 -0.07916664178625143 0.002268743472283328 0.01669278886171241 -0.0019452543497872482 -0.010467935498099176
 0.9910539501282564 -0.07916664178625143 0.0071723117334455445 0.033344986126382224 -0.001944185634848476 -0.010468005723214047 0.0022938393192597087 0.01668910685258247
 0.002268743472283328 0.01669278886171241 -0.001944185634848476 -0.010468005723214047 0.007175393096486273 0.03334640060123687 0.9910540255010799 -0.07916513907103974
 -0.0019452543497872482 -0.010467935498099176 0.0022938393192597087 0.01668910685258247 0.9910540255010799 -0.07916513907103974 0.0071717018341586215 0.03334653319175038
0.11879949979160001 0.007669406763069384 0.03535676614936956 0.9903991001832215 -0.08369605379795247 0.0024952616079587098 0.01761698994439228 -0.002138113772883096 -0.011049504722104614
 0.9903991001832215 -0.08369605379795247 0.0076668103325223 0.03535677260556361 -0.0021369265046028833 -0.011049589910730958 0.0025232405121679595 0.017612778916152004
 0.0024952616079587098 0.01761698994439228 -0.0021369265046028833 -0.011049589910730958 0.007670244988220246 0.03535826615285643 0.9903991839744686 -0.08369446730858944
 -0.002138113772883096 -0.011049504722104614 0.0025232405121679595 0.017612778916152004 0.9903991839744686 -0.08369446730858944 0.007666130262977932 0.035358408830505526
0.1250521050438 0.008186080355403132 0.03738279890981734 0.9897159157296358 -0.08823810179408778 0.00273328304164698 0.018539756165303903 -0.0023408452581683706 -0.011629927952284423
 0.9897159157296358 -0.08823810179408778 0.008183201006259598 0.03738279788213233 -0.002339533548937189 -0.011630029760713707 0.002764303262599726 0.018534966808042418
 0.00273328304164698 0.018539756165303903 -0.002339533548937189 -0.011630029760713707 0.0081870085706824 0.03738437067817975 0.9897160084064853 -0.08823643145601652
 -0.0023408452581683706 -0.011629927952284423 0.002764303262599726 0.018534966808042418 0.9897160084064853 -0.08823643145601652 0.008182446923779741 0.03738452381769154
0.131304710296 0.0087249746171573 0.039422726995894615 0.9890040879604202 -0.09279250377562288 0.002982874776041881 0.019460900104105942 -0.00255351809652339 -0.01220902055670117
 0.9890040879604202 -0.09279250377562288 0.008721797165968664 0.039422717201481466 -0.0025520761103251226 -0.012209140714407209 0.0030170946593486574 0.01945548070990027
 0.002982874776041881 0.019460900104105942 -0.0025520761103251226 -0.012209140714407209 0.008725997361709698 0.03942436943239872 0.9890041899950418 -0.09279074950814942
 -0.00255351809652339 -0.01220902055670117 0.0030170946593486574 0.01945548070990027 0.9890041899950418 -0.09279074950814942 0.008720965225511822 0.03942453343275223
0.1375573155481 0.009166322476875833 0.04120903373593837 0.988383442482733 -0.09709165762095529 0.0032135355312378623 0.020353496044573444 -0.002745596049413277 -0.012759911747758344
 0.988383442482733 -0.09709165762095529 0.009162829480693625 0.04120901365852913 -0.0027440150176575736 -0.012760050468601408 0.0032510268630770787 0.020347452579821238
 0.0032135355312378623 0.020353496044573444 -0.0027440150176575736 -0.012760050468601408 0.009167443571181237 0.0412107459918665 0.9883835543001539 -0.09708981941412707
 -0.002745596049413277 -0.012759911747758344 0.0032510268630770787 0.020347452579821238 0.9883835543001539 -0.09708981941412707 0.009161916643006524 0.041210920649574524
0.1438099208003 0.00962329031341784 0.04298524557654191 0.9877407744884044 -0.10137924334059405 0.00345349802909027 0.021242149720070852 -0.0029453450363077544 -0.013307169611381883
 0.9877407744884044 -0.10137924334059405 0.009619466071129575 0.04298521409228143 -0.0029436186692509904 -0.013307328607097452 0.003494403659740645 0.021235434815596085
 0.00345349802909027 0.021242149720070852 -0.0029436186692509904 -0.013307328607097452 0.00962451415366993 0.0429870265487021 0.9877408965570579 -0.10137732112471799
 -0.0029453450363077544 -0.013307169611381883 0.003494403659740645 0.021235434815596085 0.9877408965570579 -0.10137732112471799 0.009618468633581373 0.04298721242695895
0.1500625260525 0.010095707393692819 0.0447511943392937 0.9870762594262525 -0.10565513449507936 0.0037026734121586185 0.02212675929660672 -0.0031526781014514335 -0.013850697268819956
 0.9870762594262525 -0.10565513449507936 0.010091536078337567 0.04475115031821467 -0.003150800123571778 -0.013850878320295417 0.003747135276561506 0.022119323855327278
 0.0037026734121586185 0.02212675929660672 -0.003150800123571778 -0.013850878320295417 0.010097038358146255 0.04475304288405481 0.9870763922183594 -0.10565312819536156
 -0.0031526781014514335 -0.013850697268819956 0.003747135276561506 0.022119323855327278 0.9870763922183594 -0.10565312819536156 0.010090450346021561 0.0447532406064813
0.15631513130469998 0.01058340164809851 0.04650671688392326 0.9863900737800869 -0.1099192055241072 0.0039609716996174705 0.023007224801263944 -0.0033675071481119832 -0.014390400007001515
 0.9863900737800869 -0.1099192055241072 0.010578867304148675 0.046506659194307784 -0.0033654712983894183 -0.014390604964052195 0.004009130803431928 0.02299901801685284
