! Created with skrf 1.8.0 (http://scikit-rf.org).
# GHz S RI R 50.0 
!freq ReS11 ImS11 ReS12 ImS12 ReS13 ImS13
! ReS14 ImS14
! ReS21 ImS21 ReS22 ImS22 ReS23 ImS23
! ReS24 ImS24
! ReS31 ImS31 ReS32 ImS32 ReS33 ImS33
! ReS34 ImS34
! ReS41 ImS41 ReS42 ImS42 ReS43 ImS43
! ReS44 ImS44
!
0.0 0.001500829788365 0.0 0.9984991701917 0.0 5.783996168924e-05 0.0 -5.783996168879e-05 7.083352394498222e-21
 0.9984991701917 0.0 0.001500829788349 0.0 -5.783996168884e-05 7.083352394504344e-21 5.783996168842e-05 0.0
 5.783996168924e-05 0.0 -5.783996168884e-05 7.083352394504344e-21 0.001500829798318 0.0 0.9984991702017 0.0
 -5.783996168879e-05 7.083352394498222e-21 5.783996168842e-05 0.0 0.9984991702017 0.0 0.001500829798293 0.0
0.005 0.0016146654086200394 0.001227464596485953 0.9983551920746545 -0.0031440380353270473 8.09432465804603e-05 0.0006396915594718602 -7.868506620146034e-05 -0.0004011122492350825
 0.9983551920746545 -0.0031440380353270473 0.0016146451744700524 0.0012274764436655105 -7.868770982124996e-05 -0.0004011143006864216 8.105076681244398e-05 0.000639650498441504
 8.09432465804603e-05 0.0006396915594718602 -7.868770982124996e-05 -0.0004011143006864216 0.0016146642919975013 0.0012275325459325307 0.9983551924271459 -0.003143970973350998
 -7.868506620146034e-05 -0.0004011122492350825 8.105076681244398e-05 0.000639650498441504 0.9983551924271459 -0.003143970973350998 0.0016146469883992975 0.0012275426111350175
0.006252605252188 0.0016444886836790348 0.0015391660920160317 0.9983172451369383 -0.0039308222584243605 8.750034314638426e-05 0.000799927024283978 -8.455225321389436e-05 -0.0005019115229413825
 0.9983172451369383 -0.0039308222584243605 0.001644457054161706 0.0015391811644226523 -8.455636676918091e-05 -0.0005019140529318182 8.766833244813573e-05 0.0007998737356653392
 8.750034314638426e-05 0.000799927024283978 -8.455636676918091e-05 -0.0005019140529318182 0.001644486867116951 0.0015392510197829057 0.9983172456172633 -0.003930738440848172
 -8.455225321389436e-05 -0.0005019115229413825 8.766833244813573e-05 0.0007998737356653392 0.9983172456172633 -0.003930738440848172 0.0016444598192632252 0.0015392638562036027
0.01250521050438 0.0018012959906904167 0.0031106410254126806 0.9981164649698582 -0.007862486150497974 0.00012487603579921667 0.0016002350525033343 -0.00011774444788871546 -0.0010062814333511164
 0.9981164649698582 -0.007862486150497974 0.0018011696923673623 0.0031106738471560346 -0.0001177606574340604 -0.0010062861178532642 0.00012554590225582067 0.0016001073248606912
 0.00012487603579921667 0.0016002350525033343 -0.0001177606574340604 -0.0010062861178532642 0.0018012881703011355 0.0031108106566755805 0.9981164663296053 -0.007862318738308718
 -0.00011774444788871546 -0.0010062814333511164 0.00012554590225582067 0.0016001073248606912 0.9981164663296053 -0.007862318738308718 0.0018011801780107224 0.0031108388955650365
0.01875781575657 0.001971587036473176 0.00470455048393978 0.9978965849641122 -0.011804568297923122 0.00017005407389231379 0.0024014694352702186 -0.00015751740190074964 -0.0015123850227407528
 0.9978965849641122 -0.011804568297923122 0.001971303235383456 0.004704603967442497 -0.00015755354775205682 -0.0015123914159820469 0.00017155877391451715 0.002401242033232903
 0.00017005407389231379 0.0024014694352702186 -0.00015755354775205682 -0.0015123914159820469 0.0019715690263165785 0.0047048047275349185 0.997896587601182 -0.011804317362798415
 -0.00015751740190074964 -0.0015123850227407528 0.00017155877391451715 0.002401242033232903 0.997896587601182 -0.011804317362798415 0.001971326381651064 0.0047048510929813625
0.02501042100875 0.002155687650118914 0.006318669922177832 0.9976573508980416 -0.015758985727157435 0.00022312206048435713 0.0032036710477938253 -0.0002039688065260198 -0.0020199966179405776
 0.9976573508980416 -0.015758985727157435 0.002155183638549876 0.006318747195770794 -0.00020403263485901688 -0.002020004195881825 0.0002257946339381067 0.003203314804069683
 0.00022312206048435713 0.0032036710477938253 -0.00020403263485901688 -0.002020004195881825 0.002155655261296189 0.006319008725706161 0.9976573552116633 -0.015758651281597515
 -0.0002039688065260198 -0.0020199966179405776 0.0002257946339381067 0.003203314804069683 0.9976573552116633 -0.015758651281597515 0.0021552243779450198 0.006319076084289498
0.03126302626094 0.0023539101872848294 0.007951857699912187 0.9973984953298161 -0.019726562694455455 0.0002841678997958186 0.004006806917729023 -0.00025719367782639664 -0.002528959050837364
 0.9973984953298161 -0.019726562694455455 0.002353123351716315 0.007951962104975249 -0.00025729285677719244 -0.0025289672102006104 0.00028834178634737915 0.004006288712505282
 0.0002841678997958186 0.004006806917729023 -0.00025729285677719244 -0.0025289672102006104 0.0023538592275824037 0.00795228102239365 0.997398501723887 -0.01972614471901263
 -0.00025719367782639664 -0.002528959050837364 0.00028834178634737915 0.004006288712505282 0.997398501723887 -0.01972614471901263 0.0023531866126995193 0.0079523723800702
0.037515631513130004 0.0025665603121767483 0.009603371827402937 0.9971197445902888 -0.023707713878833026 0.00035327905204706253 0.0048108149703091 -0.000317285050932266 -0.00303913892305469
 0.9971197445902888 -0.023707713878833026 0.0025654281128816452 0.009603506917410676 -0.00031742717878432703 -0.0030391469810336896 0.00035928823480290496 0.004810097692718576
 0.00035327905204706253 0.0048108149703091 -0.00031742717878432703 -0.0030391469810336896 0.0025664865810421968 0.009603879633626196 0.9971197534704769 -0.023707212327840153
 -0.000317285050932266 -0.00303913892305469 0.00035928823480290496 0.004810097692718576 0.9971197534704769 -0.023707212327840153 0.002565518816984233 0.009603998133981323
0.043768236765320004 0.0027939396220238452 0.011272662030567983 0.9968208216148767 -0.02770265224705826 0.000430542182147223 0.005615617630983222 -0.00038433422731738926 -0.003550413005435817
 0.9968208216148767 -0.02770265224705826 0.002792399577106526 0.01127283157087692 -0.00038452683741530745 -0.0035504201995986934 0.0004387212575880052 0.005614660134982958
 0.000430542182147223 0.005615617630983222 -0.00038452683741530745 -0.0035504201995986934 0.0027938389101536476 0.01127325429484014 0.996820833390023 -0.02770206704510383
 -0.00038433422731738926 -0.003550413005435817 0.0004387212575880052 0.005614660134982958 0.996820833390023 -0.02770206704510383 0.00279252263928434 0.011273403217996499
0.050020842017509996 0.00303634685980559 0.012959283832916125 0.9965014473652779 -0.031711474900022796 0.0005160429430413179 0.0064211274480153865 -0.0004584308676692349 -0.0040626626171764175
 0.9965014473652779 -0.031711474900022796 0.003034336531898501 0.012959491801133373 -0.0004586814315241893 -0.004062668105447716 0.0005267271517858257 0.006419884505956827
 0.0005160429430413179 0.0064211274480153865 -0.0004586814315241893 -0.004062668105447716 0.003036214950447234 0.01295996052812567 0.9965014624506806 -0.03171080595324417
 -0.0004584308676692349 -0.0040626626171764175 0.0005267271517858257 0.006419884505956827 0.9965014624506806 -0.03171080595324417 0.003034496862591245 0.012960143289959904
0.055454545454549996 0.003259440953167882 0.014438787729585057 0.9962070749554125 -0.035206558519298686 0.0005971013069788749 0.007121640880163088 -0.0005286149128948849 -0.004508524509733608
 0.9962070749554125 -0.035206558519298686 0.003256971253893282 0.014439032488434554 -0.0005289218616679233 -0.004508527769815569 0.0006102353149383458 0.007120109940743647
 0.0005971013069788749 0.007121640880163088 -0.0005289218616679233 -0.004508527769815569 0.0032592784997221512 0.014439537776685014 0.9962070932585224 -0.03520581670334332
 -0.0005286149128948849 -0.004508524509733608 0.0006102353149383458 0.007120109940743647 0.9962070932585224 -0.03520581670334332 0.003257167954339134 0.014439752824631698
0.056273447269699996 0.003294078546428374 0.014662856363179396 0.9961613416742872 -0.03573420519466549 0.0006098658219577496 0.007227249845654479 -0.0005396630117479947 -0.004575770876268194
 0.9961613416742872 -0.03573420519466549 0.0032915355306386753 0.014663106949806028 -0.0005399789411400839 -0.004575773736939157 0.0006233910561490184 0.00722567210079189
 0.0006098658219577496 0.007227249845654479 -0.0005399789411400839 -0.004575773736939157 0.003293911212529821 0.01466361746162567 0.9961613604899732 -0.0357334523901008
 -0.0005396630117479947 -0.004575770876268194 0.0006233910561490184 0.00722567210079189 0.9961613604899732 -0.0357334523901008 0.003291738033101739 0.014663837613420857
0.06252605252188 0.00356742931620304 0.016383039171404153 0.9958002237962358 -0.039770815859388346 0.0007120940144649318 0.008033884642288481 -0.0006281170646175359 -0.00508962118772199
 0.9958002237962358 -0.039770815859388346 0.0035642912293297477 0.016383336780924785 -0.0006285057130572853 -0.005089620419485589 0.0007287968095046404 0.008031918560864666
 0.0007120940144649318 0.008033884642288481 -0.0006285057130572853 -0.005089620419485589 0.0035672223200855203 0.01638388465520009 0.9958002467685103 -0.039769979055092025
 -0.0006281170646175359 -0.00508962118772199 0.0007287968095046404 0.008031918560864666 0.9958002467685103 -0.039769979055092025 0.0035645407991714024 0.016384145883487262
0.06877865777407 0.0038566920973033955 0.01811951841521895 0.9954178128061023 -0.043821242742683945 0.0008228093162136157 0.008840926956442506 -0.0007238777610895198 -0.0056040963473187695
 0.9954178128061023 -0.043821242742683945 0.0038528965667921173 0.018119867667451932 -0.0007243464247514803 -0.005604090869318265 0.0008430268314916547 0.008838514779669326
 0.0008228093162136157 0.008840926956442506 -0.0007243464247514803 -0.005604090869318265 0.003856441189973272 0.0181204482621094 0.9954178403683249 -0.043820321782227056
 -0.0007238777610895198 -0.0056040963473187695 0.0008430268314916547 0.008838514779669326 0.9954178403683249 -0.043820321782227056 0.0038531980915078694 0.01812075438895081
0.07503126302626001 0.004162158196142678 0.0198719980743545 0.9950138279068785 -0.047885393537249896 0.000942092024047584 0.009648267783490106 -0.0008270281175768373 -0.006119077978324262
 0.9950138279068785 -0.047885393537249896 0.004157642850223007 0.019872403806144533 -0.0008275840359846124 -0.00611906663019845 0.000966162015577829 0.009645347479645822
 0.000942092024047584 0.009648267783490106 -0.0008275840359846124 -0.00611906663019845 0.004161859116982981 0.019873012267014344 0.9950138604999637 -0.04788438824091045
 -0.0008270281175768373 -0.006119077978324262 0.000966162015577829 0.009645347479645822 0.9950138604999637 -0.04788438824091045 0.004158001208434307 0.01987336725046839
0.08128386827845 0.004484117326385135 0.021640194136321317 0.9945879886830558 -0.051963153536810816 0.0010700208429027793 0.010455794382784222 -0.0009376493758645715 -0.00663444616168787
 0.9945879886830558 -0.051963153536810816 0.0044788197834242744 0.021640661403593126 -0.0009382997322651036 -0.006634427703643883 0.0010982816294256802 0.010452299599593838
 0.0010700208429027793 0.010455794382784222 -0.0009382997322651036 -0.006634427703643883 0.004483765801797554 0.021641292660292057 0.9945880267562631 -0.05196206370410323
 -0.0009376493758645715 -0.00663444616168787 0.0010982816294256802 0.010452299599593838 0.9945880267562631 -0.05196206370410323 0.004479239843510839 0.021641700595350408
0.08753647353064001 0.004822857595266467 0.02342383055284061 0.9941400153171397 -0.05605438962700413 0.001206672796312419 0.011263390548991272 -0.001055820940966894 -0.0071500791861693995
 0.9941400153171397 -0.05605438962700413 0.004816715454389779 0.02342436463290931 -0.0010565728626093132 -0.0071500522990514265 0.001239463220419976 0.011259250566394508
 0.001206672796312419 0.011263390548991272 -0.0010565728626093132 -0.0071500522990514265 0.004822449338443641 0.0234250133957155 0.9941400593288813 -0.05605321503804003
 -0.001055820940966894 -0.0071500791861693995 0.001239463220419976 0.011259250566394508 0.9941400593288813 -0.05605321503804003 0.004817202073457071 0.02342547851541728
0.09378907878283 0.00517866546606828 0.025222636361960725 0.9936696287837125 -0.060158953114937824 0.0013521231395497149 0.01207093681108819 -0.001181620314754723 -0.007665853375110368
 0.9936696287837125 -0.060158953114937824 0.005171616296741207 0.02522324275627587 -0.001182480872908969 -0.007665816660492928 0.001389782524512003 0.01206607649444936
 0.0013521231395497149 0.01207093681108819 -0.001182480872908969 -0.007665816660492928 0.005178196176171914 0.02522390351418925 0.9936696792021293 -0.06015769353020388
 -0.001181620314754723 -0.007665853375110368 0.001389782524512003 0.01206607649444936 0.9936696792021293 -0.06015769353020388 0.005172174319903408 0.025224430191143298
0.100041684035 0.005551825698928965 0.02703634357754586 0.9931765510262176 -0.06427668179658563 0.0015064452743089529 0.012878310584799086 -0.0013151230264900368 -0.008181642964138149
 0.9931765510262176 -0.06427668179658563 0.00554380703141871 0.02703702801471584 -0.001316099236456096 -0.008181594944409547 0.001549313377060307 0.012872650338742714
 0.0015064452743089529 0.012878310584799086 -0.001316099236456096 -0.008181594944409547 0.005551291060689133 0.027037695036417293 0.9931766083301732 -0.06427533695350376
 -0.0013151230264900368 -0.008181642964138149 0.001549313377060307 0.012872650338742714 0.9931766083301732 -0.06427533695350376 0.005544441290473441 0.027038287784708903
0.1059090909091 0.005918030886193349 0.028751630597726785 0.9926929657360597 -0.06815255203401077 0.0016593927114411284 0.013635676536573733 -0.0014474727498103343 -0.008665556859131479
 0.9926929657360597 -0.06815255203401077 0.005909045588263746 0.028752393685287862 -0.001448563817090934 -0.008665496816439114 0.0017074579909368195 0.013629189236835423
 0.0016593927114411284 0.013635676536573733 -0.001448563817090934 -0.008665496816439114 0.005917430986945602 0.028753061169058205 0.9926930299466353 -0.06815112693028116
 -0.0014474727498103343 -0.008665556859131479 0.0017074579909368195 0.013629189236835423 0.9926930299466353 -0.06815112693028116 0.005909755767906574 0.028753720151740696
0.1062942892872 0.00594262127882336 0.02886468559863966 0.9926605051233984 -0.06840740150920475 0.0016697106643275778 0.013685386290204958 -0.001456402560994243 -0.008697320018253685
 0.9926605051233984 -0.06840740150920475 0.005933570594051069 0.028865454037858503 -0.0014575013819430503 -0.00869725913672849 0.0017181276254614817 0.01367884201302065
 0.0016697106643275778 0.013685386290204958 -0.0014575013819430503 -0.00869725913672849 0.0059420169613255466 0.028866121362495098 0.9926605698026629 -0.06840597112862969
 -0.001456402560994243 -0.008697320018253685 0.0017181276254614817 0.01367884201302065 0.9926605698026629 -0.06840597112862969 0.0059342859060577575 0.028866784839860108
0.11254689453939999 0.00635133333094275 0.0307073959999518 0.9921212154464414 -0.07255092730817314 0.0018419887517807246 0.014492035449437836 -0.0016055302850252922 -0.009212754373559732
 0.9921212154464414 -0.07255092730817314 0.006341188050930617 0.030708254634781305 -0.001606758619840624 -0.009212678994585756 0.0018962950425147223 0.014484518488197276
 0.0018419887517807246 0.014492035449437836 -0.001606758619840624 -0.009212678994585756 0.006350654988311968 0.030708916076506682 0.9921212880036809 -0.0725494110867333
 -0.0016055302850252922 -0.009212754373559732 0.0018962950425147223 0.014484518488197276 0.9921212880036809 -0.0725494110867333 0.006341989217787851 0.030709655087022853
0.11879949979160001 0.006778241030154393 0.03256420758999338 0.9915584078128395 -0.07670706438162068 0.0020233468742445067 0.015298126770156045 -0.0017625753721282052 -0.009727813597927517
 0.9915584078128395 -0.07670706438162068 0.006766938507620598 0.032565162852544176 -0.001763940067041611 -0.009727722007034369 0.002083883240850282 0.01528954387655911
 0.0020233468742445067 0.015298126770156045 -0.001763940067041611 -0.009727722007034369 0.006777484299521677 0.032565811987630894 0.9915584887633442 -0.07670546200119296
 -0.0017625753721282052 -0.009727813597927517 0.002083883240850282 0.01528954387655911 0.9915584887633442 -0.07670546200119296 0.006767830314159401 0.03256663148460779
0.1250521050438 0.007223621500310383 0.03443485165925078 0.9909718096335062 -0.08087560878073288 0.0022138501819680156 0.016103526215153548 -0.0019276047261813528 -0.010242362970405334
 0.9909718096335062 -0.08087560878073288 0.007211099009145005 0.03443591022473032 -0.0019291125705408654 -0.010242253374414957 0.002280957587898665 0.01609377950219867
 0.0022138501819680156 0.016103526215153548 -0.0019291125705408654 -0.010242253374414957 0.007222782002088176 0.03443654039720266 0.9909718995061666 -0.08087391989898528
 -0.0019276047261813528 -0.010242362970405334 0.002280957587898665 0.01609377950219867 0.9909718995061666 -0.08087391989898528 0.0072120862221596365 0.03443744548661283
0.131304710296 0.007687749710594473 0.03631905739461446 0.9903611500584945 -0.08505634798954674 0.0024135615554846043 0.01690809706958156 -0.0021006829043914116 -0.010756265468013925
 0.9903611500584945 -0.08505634798954674 0.007673944435780222 0.03632022618628497 -0.0021023406301989627 -0.010756135995226629 0.0024875811211586747 0.01689708396904981
 0.0024135615554846043 0.01690809706958156 -0.0021023406301989627 -0.010756135995226629 0.007686823047713183 0.036320830495649374 0.9903612493968749 -0.08505457224810918
 -0.0021006829043914116 -0.010756265468013925 0.0024875811211586747 0.01689708396904981 0.9903612493968749 -0.08505457224810918 0.007675031802630788 0.03632182643991416
0.1375573155481 0.00806372826166215 0.03797080228598005 0.9898333726529066 -0.08900319127480914 0.0025966840030364376 0.01768693641068455 -0.0022559337024374575 -0.011244694950109303
 0.9898333726529066 -0.08900319127480914 0.008048573408291614 0.03797206342822755 -0.0022577513323444984 -0.011244545480813823 0.002677791232536903 0.017674673855508496
 0.0025966840030364376 0.01768693641068455 -0.0022577513323444984 -0.011244545480813823 0.00806271078355317 0.03797265980645544 0.989833481895737 -0.08900132845775086
 -0.0022559337024374575 -0.011244694950109303 0.002677791232536903 0.017674673855508496 0.989833481895737 -0.08900132845775086 0.008049765111770852 0.037973727227746036
0.1438099208003 0.008452918419315225 0.03961399604842094 0.989287086314025 -0.09294018559478406 0.0027871911864305195 0.018462781639239943 -0.0024173989187933477 -0.011730325769282537
 0.989287086314025 -0.09294018559478406 0.008436350457887761 0.03961535487496068 -0.0024193836949926817 -0.011730154464504039 0.002875697483225399 0.018449175850769692
 0.0027871911864305195 0.018462781639239943 -0.0024193836949926817 -0.011730154464504039 0.00845180583788522 0.03961593799334296 0.989287206004349 -0.09293823534859937
 -0.0024173989187933477 -0.011730325769282537 0.002875697483225399 0.018449175850769692 0.989287206004349 -0.09293823534859937 0.008437651116677302 0.03961708053137276
0.1500625260525 0.008855185792805496 0.04124850565696538 0.9887224294477597 -0.09686723775940703 0.002985018509039451 0.0192355589944757 -0.0025850146918829364 -0.012213085942513408
 0.9887224294477597 -0.09686723775940703 0.008837141087322925 0.041249967787273724 -0.0025871738411738492 -0.012212890889516768 0.00308123350838188 0.01922051276457968
 0.002985018509039451 0.0192355589944757 -0.0025871738411738492 -0.012212890889516768 0.008853973811182941 0.04125053203277798 0.9887225601410324 -0.09686519971696551
 -0.0025850146918829364 -0.012213085942513408 0.00308123350838188 0.01922051276457968 0.9887225601410324 -0.09686519971696551 0.008838555295062661 0.04125175354409522
0.15631513130469998 0.009270395066347739 0.04287420211281026 0.988139541133536 -0.10078425481250561 0.003190100631106289 0.020005195955743613 -0.0027587163882419356 -0.012692904988309002
 0.988139541133536 -0.10078425481250561 0.009250809871112015 0.04287577345697816 -0.002761057121790013 -0.012692684200927385 0.0032943321739560554 0.019988608681265594
