! Created with skrf 1.8.0 (http://scikit-rf.org).
# GHz S RI R 50.0 
!freq ReS11 ImS11 ReS12 ImS12 ReS13 ImS13
! ReS14 ImS14
! ReS21 ImS21 ReS22 ImS22 ReS23 ImS23
! ReS24 ImS24
! ReS31 ImS31 ReS32 ImS32 ReS33 ImS33
! ReS34 ImS34
! ReS41 ImS41 ReS42 ImS42 ReS43 ImS43
! ReS44 ImS44
!
0.0 0.001584363834837 0.0 0.998415636136 0.0 6.102504201999e-05 0.0 -6.102504161963e-05 7.47341218873139e-21
 0.998415636136 0.0 0.001584363834822 0.0 -6.102504161941e-05 7.473412188704447e-21 6.102504201835e-05 0.0
 6.102504201999e-05 0.0 -6.102504161941e-05 7.473412188704447e-21 0.001584363849395 0.0 0.9984156361506 0.0
 -6.102504161963e-05 7.47341218873139e-21 6.102504201835e-05 0.0 0.9984156361506 0.0 0.001584363849388 0.0
0.005 0.0017047312601013926 0.001298979336984761 0.9982633526222403 -0.003318488079481335 8.510227051066248e-05 0.0006548762329260264 -8.276224900773895e-05 -0.00041408890413298437
 0.9982633526222403 -0.003318488079481335 0.0017047384093490192 0.001298975207600936 -8.276341157186053e-05 -0.0004140898434912802 8.5064596082926e-05 0.0006548907655238841
 8.510227051066248e-05 0.0006548762329260264 -8.276341157186053e-05 -0.0004140898434912802 0.001704730057507318 0.0012989128118878277 0.9982633522575909 -0.0033185551459407104
 -8.276224900773895e-05 -0.00041408890413298437 8.5064596082926e-05 0.0006548907655238841 0.9982633522575909 -0.0033185551459407104 0.0017047388909213659 0.0012989076076037071
0.006252605252188 0.0017363342156388492 0.0016288154453932948 0.9982231148423627 -0.0041489147857433845 9.199128182292628e-05 0.0008189189234991655 -8.890948454211772e-05 -0.0005181403735761085
 0.9982231148423627 -0.0041489147857433845 0.0017363453901985345 0.0016288101430731463 -8.891129322662396e-05 -0.0005181415327144659 9.193242134345207e-05 0.0008189377651810451
 9.199128182292628e-05 0.0008189189234991655 -8.891129322662396e-05 -0.0005181415327144659 0.0017363324091407377 0.0016287323149899835 0.998223114345991 -0.004148998602339321
 -8.890948454211772e-05 -0.0005181403735761085 9.193242134345207e-05 0.0008189377651810451 0.998223114345991 -0.004148998602339321 0.001736346217211219 0.0016287256576316823
0.01250521050438 0.0019028982911765222 0.0032915896039578635 0.9980096296698474 -0.008298577254259441 0.00013155272541957267 0.0016382373015617847 -0.0001238417148769906 -0.0010387533110087297
 0.9980096296698474 -0.008298577254259441 0.001902942899169142 0.003291577573560664 -0.00012384883830063979 -0.0010387554643073932 0.00013131807292011301 0.0016382823136799768
 0.00013155272541957267 0.0016382373015617847 -0.00012384883830063979 -0.0010387554643073932 0.0019028916519242536 0.0032914236929296155 0.9980096282654773 -0.008298744666670037
 -0.0001238417148769906 -0.0010387533110087297 0.00013131807292011301 0.0016382823136799768 0.9980096282654773 -0.008298744666670037 0.0019029467895802558 0.0032914088204624116
0.01875781575657 0.0020844274427215515 0.004977889235142448 0.9977749096919032 -0.012459074913335515 0.00017980273748772173 0.002458477610136621 -0.0001659303424691952 -0.0015611081587184419
 0.9977749096919032 -0.012459074913335515 0.002084527656877348 0.004977868948021671 -0.0001659462217113277 -0.0015611111099458723 0.00017927578038674213 0.002458557626977215
 0.00017980273748772173 0.002458477610136621 -0.0001659462217113277 -0.0015611111099458723 0.0020844129391619204 0.004977640826909426 0.9977749069563094 -0.012459325856595616
 -0.0001659303424691952 -0.0015611081587184419 0.00017927578038674213 0.002458557626977215 0.9977749069563094 -0.012459325856595616 0.0020845368416895797 0.004977616026092972
0.02501042100875 0.002281281629554058 0.006685351279357255 0.9975186730415374 -0.016632413625806346 0.00023683583989528274 0.0032796627503205622 -0.00021528042440572125 -0.002084967751483119
 0.9975186730415374 -0.016632413625806346 0.0022814595631932156 0.0066853211079068945 -0.00021530845738972022 -0.00208497126957232 0.00023590012166484095 0.0032797880504268112
 0.00023683583989528274 0.0032796627503205622 -0.00021530845738972022 -0.00208497126957232 0.0022812562349471487 0.006685020694670899 0.9975186685512105 -0.016632748086226952
 -0.00021528042440572125 -0.002084967751483119 0.00023590012166484095 0.0032797880504268112 0.9975186685512105 -0.016632748086226952 0.002281476283671387 0.006684984102839336
0.03126302626094 0.0024938059537591988 0.008412754636444902 0.9972406237441258 -0.020819445802672778 0.0003027468596943434 0.004101742138519891 -0.00027199402633222856 -0.002610162309910849
 0.9972406237441258 -0.020819445802672778 0.0024940836707193835 0.008412712854658841 -0.0002720375750527041 -0.0026101661285758923 0.0003012858693456109 0.004101924449892676
 0.0003027468596943434 0.004101742138519891 -0.0002720375750527041 -0.0026101661285758923 0.002493766645009245 0.008412342240175964 0.9972406170737921 -0.020819863811565018
 -0.00027199402633222856 -0.002610162309910849 0.0003012858693456109 0.004101924449892676 0.9972406170737921 -0.020819863811565018 0.00249411017978102 0.008412291845278787
0.037515631513130004 0.002722337989265734 0.010159299272438988 0.9969404592936408 -0.025020591233384435 0.0003776300307278855 0.004924635974527502 -0.0003361709219899343 -0.003136545176905085
 0.9969404592936408 -0.025020591233384435 0.0027227375107701755 0.010159244056014602 -0.0003362333163266475 -0.003136548994556388 0.00037552715447172796 0.004924888486732841
 0.0003776300307278855 0.004924635974527502 -0.0003362333163266475 -0.003136548994556388 0.0027222817462901816 0.010158805493275684 0.9969404500140463 -0.02502109284795023
 -0.0003361709219899343 -0.003136545176905085 0.00037552715447172796 0.004924888486732841 0.9969404500140463 -0.02502109284795023 0.002722776072555875 0.010158739133368871
0.043768236765320004 0.0029672106117675347 0.011924386879667154 0.9966178737319014 -0.029236056353128825 0.0004615785610510839 0.005748248703656024 -0.0004079088422696644 -0.003663979361046116
 0.9966178737319014 -0.029236056353128825 0.0029677539213467745 0.011924316305884364 -0.000407993382203542 -0.003663982840787615 0.0004587170606932029 0.005748586082055595
 0.0004615785610510839 0.005748248703656024 -0.000407993382203542 -0.003663982840787615 0.002967134417970991 0.011923812214919694 0.9966178614094061 -0.029236641652211324
 -0.0004079088422696644 -0.003663979361046116 0.0004587170606932029 0.005748586082055595 0.9966178614094061 -0.029236641652211324 0.002967806812142355 0.011923727577436092
0.050020842017509996 0.003228753307170549 0.013707530217682333 0.9962725592106874 -0.03346592482740756 0.0005546843721884575 0.00657247457604152 -0.0004873035564130183 -0.0041923319853645995
 0.9962725592106874 -0.03346592482740756 0.00322946235481869 0.01370744226530859 -0.0004874135134880104 -0.004192334755029531 0.0005509473775821056 0.006572912976853757
 0.0005546843721884575 0.00657247457604152 -0.0004874135134880104 -0.004192334755029531 0.003228654150536815 0.01370687522192303 0.9962725434060264 -0.03346659392351103
 -0.0004873035564130183 -0.0041923319853645995 0.0005509473775821056 0.006572912976853757 0.9962725434060264 -0.03346659392351103 0.0032295318641210303 0.013706769842707989
0.055454545454549996 0.003469833818869138 0.01527147136419647 0.9959537719088053 -0.03715351160693812 0.0006431032581189615 0.007289162019256899 -0.0005625911361041771 -0.004652130182255388
 0.9959537719088053 -0.03715351160693812 0.003470704700728797 0.01527136659108416 -0.0005627258169874961 -0.00465213200524 0.0006385104180887761 0.007289702501874527
 0.0006431032581189615 0.007289162019256899 -0.0005627258169874961 -0.00465213200524 0.003469712264529908 0.015270747068189656 0.9959537527163317 -0.037154253628178625
 -0.0005625911361041771 -0.004652130182255388 0.0006385104180887761 0.007289702501874527 0.9959537527163317 -0.037154253628178625 0.0034707905218465825 0.015270621544102378
0.056273447269699996 0.0035072928430813404 0.015508308596507675 0.9959042069200068 -0.0377102019960615 0.0006570379080891719 0.007397200388799012 -0.000574448883957663 -0.004721471556820767
 0.9959042069200068 -0.0377102019960615 0.003508189548923143 0.015508201145518496 -0.0005745875022555984 -0.004721473209019265 0.0006523084185071132 0.007397757474476108
 0.0006570379080891719 0.007397200388799012 -0.0005745875022555984 -0.004721473209019265 0.0035071677163089872 0.015507573901160464 0.9959041871870767 -0.03771095501638335
 -0.000574448883957663 -0.004721471556820767 0.0006523084185071132 0.007397757474476108 0.9959041871870767 -0.03771095501638335 0.0035082779794772373 0.015507445163458514
0.06252605252188 0.003803153620479229 0.017326343432636275 0.9955125077013014 -0.041968839247670954 0.0007687279839319047 0.008222306978308789 -0.0006694366666460433 -0.005251266489843049
 0.9955125077013014 -0.041968839247670954 0.0038042598782878443 0.017326214263836816 -0.0006696071634925149 -0.005251266582013472 0.000762888874679137 0.008223001933003541
 0.0007687279839319047 0.008222306978308789 -0.0006696071634925149 -0.005251266582013472 0.003802999523199487 0.017325529731210484 0.995512483587416 -0.04196967634936387
 -0.0006694366666460433 -0.005251266489843049 0.000762888874679137 0.008223001933003541 0.995512483587416 -0.04196967634936387 0.0038043695478071522 0.01732537486450254
0.06877865777407 0.004116657857078839 0.019161283657571818 0.9950971524966608 -0.04624174854572417 0.0008898416531367075 0.009047670128277145 -0.0007723567207649127 -0.0057815842186434915
 0.9950971524966608 -0.04624174854572417 0.004117995537175654 0.019161130452170345 -0.0007725622871735414 -0.005781582273114362 0.0008827756863980093 0.009048523673278928
 0.0008898416531367075 0.009047670128277145 -0.0007725622871735414 -0.005781582273114362 0.004116471795614782 0.019160391717547746 0.9950971235405114 -0.046242669904617395
 -0.0007723567207649127 -0.0057815842186434915 0.0008827756863980093 0.009048523673278928 0.9950971235405114 -0.046242669904617395 0.004118128778099033 0.019160207796277702
0.07503126302626001 0.0044481256665445485 0.021012796469574102 0.994657832697827 -0.05052881161662166 0.0010204640869988597 0.00987316114621742 -0.000883296775652768 -0.0063122906460472425
 0.994657832697827 -0.05052881161662166 0.004449716619056257 0.02101261680854816 -0.0008835405766714381 -0.006312286150096038 0.0010120539257582812 0.009874195555208347
 0.0010204640869988597 0.00987316114621742 -0.0008835405766714381 -0.006312286150096038 0.004447904656190752 0.02101182712648664 0.9946577984295917 -0.05052981743359095
 -0.000883296775652768 -0.0063122906460472425 0.0010120539257582812 0.009874195555208347 0.9946577984295917 -0.05052981743359095 0.004449875780339165 0.02101161106866842
0.08128386827845 0.004797875075108214 0.02288056118676877 0.9941942404365466 -0.054829886041427564 0.001160678461824999 0.010698647251659758 -0.0010023424035668675 -0.006843249785657045
 0.9941942404365466 -0.054829886041427564 0.004799741133044617 0.02288035255024353 -0.0010026275785259581 -0.006843242191576039 0.0011508066859508778 0.010699886365824389
 0.001160678461824999 0.010698647251659758 -0.0010026275785259581 -0.006843242191576039 0.00479761614084134 0.02287951534805292 0.9941942003765933 -0.0548309765390494
 -0.0010023424035668675 -0.006843249785657045 0.0011508066859508778 0.010699886365824389 0.9941942003765933 -0.0548309765390494 0.004799928580091587 0.022879263913818813
0.08753647353064001 0.005166221994047635 0.024764264996464967 0.9937060688350035 -0.05914480945765438 0.0013105658509325237 0.011523991852738755 -0.0011295769433109348 -0.007374323521017288
 0.9937060688350035 -0.05914480945765438 0.005168384976005569 0.02476402476284316 -0.001129906605911531 -0.007374312246181851 0.00129911497533416 0.011525461095562134
 0.0013105658509325237 0.011523991852738755 -0.001129906605911531 -0.007374312246181851 0.005165922171764771 0.02476314364138534 0.9937060224933374 -0.05914598488065565
 -0.0011295769433109348 -0.007374323521017288 0.00129911497533416 0.011525461095562134 0.9937060224933374 -0.05914598488065565 0.005168603092009629 0.02476285343132945
0.09378907878283 0.0055534801640960505 0.026663599919042522 0.9931930122317548 -0.0634734025522805 0.0014702051192827105 0.012349054752064938 -0.0012650814200643422 -0.007905371440916078
 0.9931930122317548 -0.0634734025522805 0.00555596187755981 0.02666332536411776 -0.0012654586585125484 -0.007905355867856897 0.0014570576136728212 0.01235078114389908
 0.0014702051192827105 0.012349054752064938 -0.0012654586585125484 -0.007905355867856897 0.005553136501796303 0.02666240409774109 0.9931929591064965 -0.06347466316885601
 -0.0012650814200643422 -0.007905371440916078 0.0014570576136728212 0.01235078114389908 0.9931929591064965 -0.06347466316885601 0.005556213063499228 0.026662071551186464
0.100041684035 0.005959961077272273 0.028578260582519194 0.9926547663885362 -0.06781547125063625 0.0016396728208767815 0.013173692303300663 -0.0014089344616196825 -0.008436250729691881
 0.9926547663885362 -0.06781547125063625 0.005962783321202683 0.02857794887835971 -0.001409362338621499 -0.008436230206167369 0.0016247111307109807 0.013175704475613724
 0.0016396728208767815 0.013173692303300663 -0.001409362338621499 -0.008436230206167369 0.005959570636719207 0.028576991420739595 0.9926547059660623 -0.06781681734798302
 -0.0014089344616196825 -0.008436250729691881 0.0016247111307109807 0.013175704475613724 0.9926547059660623 -0.06781681734798302 0.00596306999732167 0.02857661281390627
0.1059090909091 0.006359158595798022 0.0303886339438371 0.9921265008250351 -0.07190211369718008 0.0018077052129284988 0.013947009458998755 -0.001551586073547292 -0.008934141871914849
 0.9921265008250351 -0.07190211369718008 0.006362320212398287 0.030388284713693522 -0.0015520642322327059 -0.00893411607879392 0.0017909341864313344 0.013949317293309567
 0.0018077052129284988 0.013947009458998755 -0.0015520642322327059 -0.00893411607879392 0.006358721599744294 0.03038729704615237 0.9921264330756897 -0.07190354029243197
 -0.001551586073547292 -0.008934141871914849 0.0017909341864313344 0.013949317293309567 0.9921264330756897 -0.07190354029243197 0.006362642410918752 0.03038687168288779
0.1062942892872 0.006385973884019964 0.03050794255735766 0.9920910286866169 -0.07217080835162229 0.0018190430972304878 0.013997757539874766 -0.0015612122123821871 -0.008966816091142093
 0.9920910286866169 -0.07217080835162229 0.006389158451839805 0.030507590771177873 -0.0015616937651337106 -0.008966789930219883 0.0018021496660724995 0.014000085749089118
 0.0018190430972304878 0.013997757539874766 -0.0015616937651337106 -0.008966789930219883 0.006385533741707491 0.030506601251974356 0.992090960439518 -0.0721722402407362
 -0.0015612122123821871 -0.008966816091142093 0.0018021496660724995 0.014000085749089118 0.992090960439518 -0.0721722402407362 0.006389483057833306 0.03050617269602465
0.11254689453939999 0.006831825288012559 0.03245234108042928 0.9915014983128788 -0.07653919478082469 0.0020083875773275017 0.014821100280230742 -0.0017219882453380084 -0.009496919701831271
 0.9915014983128788 -0.07653919478082469 0.00683539397041551 0.0324519461732343 -0.0017225264854583027 -0.009496887181970552 0.0019894448701991683 0.014823776421242923
 0.0020083875773275017 0.014821100280230742 -0.0017225264854583027 -0.009496887181970552 0.006831332536751675 0.032450928900824585 0.991501421700171 -0.07654071279533572
 -0.0017219882453380084 -0.009496919701831271 0.0019894448701991683 0.014823776421242923 0.991501421700171 -0.07654071279533572 0.006835758966616606 0.03245044633967523
0.11879949979160001 0.007297819430746948 0.03441115006463517 0.9908858764404251 -0.08092040056497472 0.0022077752780494788 0.01564356721997188 -0.0018913334729396692 -0.010026411183519315
 0.9908858764404251 -0.08092040056497472 0.007301794018899878 0.03441070888976109 -0.0018919313864553815 -0.010026371548645184 0.0021866658056878692 0.01564662483928207
 0.0022077752780494788 0.01564356721997188 -0.0018919313864553815 -0.010026371548645184 0.007297271181112181 0.034409668356067284 0.990885790905948 -0.08092200505785609
 -0.0018913334729396692 -0.010026411183519315 0.0021866658056878692 0.01564662483928207 0.990885790905948 -0.08092200505785609 0.007302201886444295 0.034409127564226566
0.1250521050438 0.007784257770276158 0.036384061325959824 0.9902438664048195 -0.085314185596207 0.002417272505509725 0.01646500201508843 -0.002069316056624535 -0.010555137590665934
 0.9902438664048195 -0.085314185596207 0.007788660058226376 0.03638357062747866 -0.002069976603772239 -0.010555090050281532 0.002393878849732432 0.016468476323460258
 0.002417272505509725 0.01646500201508843 -0.002069976603772239 -0.010555090050281532 0.007783651151805207 0.03638251150538813 0.9902437713763528 -0.08531587694408418
 -0.002069316056624535 -0.010555137590665934 0.002393878849732432 0.016468476323460258 0.9902437713763528 -0.08531587694408418 0.007789113300262266 0.036381908085556205
0.131304710296 0.008291438952277517 0.038370763959145314 0.9895751738762658 -0.08972030025545671 0.002636942756885555 0.01728524535768721 -0.0022560013158049413 -0.011082943411667252
 0.9895751738762658 -0.08972030025545671 0.008296290739999925 0.03837022037012208 -0.0022567274309851985 -0.01108288714092452 0.0026111475965568845 0.01728917324240774
 0.002636942756885555 0.01728524535768721 -0.0022567274309851985 -0.01108288714092452 0.00829077111512246 0.03836914751890751 0.9895750687648667 -0.0897220788548927
 -0.0022560013158049413 -0.011082943411667252 0.0026111475965568845 0.01728917324240774 0.9895750687648667 -0.0897220788548927 0.008296791882191781 0.03836847689944596
0.1375573155481 0.008704708181545465 0.040112933044287306 0.988994504080457 -0.09388035530319883 0.002839529912808062 0.018078757495764094 -0.002424163832438372 -0.01158428747061962
 0.988994504080457 -0.09388035530319883 0.008710033874154139 0.04011234716875349 -0.0024249600050788135 -0.011584222385986822 0.0028112677974337554 0.018083134245143496
 0.002839529912808062 0.018078757495764094 -0.0024249600050788135 -0.011584222385986822 0.0087039769961609 0.040111251068471965 0.9889943884152084 -0.09388222139217638
 -0.002424163832438372 -0.01158428747061962 0.0028112677974337554 0.018083134245143496 0.9889943884152084 -0.09388222139217638 0.00871058451603265 0.04011052322628347
0.1438099208003 0.009132574986559614 0.04184570489354396 0.9883933148348083 -0.09802962198691803 0.003050288892996505 0.018868866233528726 -0.0025990369471524367 -0.012082508990517785
 0.9883933148348083 -0.09802962198691803 0.009138396807946784 0.04184507434580581 -0.002599906354204332 -0.012082434274951951 0.0030194520120205215 0.018873725768269935
 0.003050288892996505 0.018868866233528726 -0.002599906354204332 -0.012082434274951951 0.009131777761980106 0.04184395890094156 0.988393188026792 -0.09803157595469522
 -0.0025990369471524367 -0.012082508990517785 0.0030194520120205215 0.018873725768269935 0.988393188026792 -0.09803157595469522 0.009138999340700888 0.0418431702724514
0.1500625260525 0.009574885446243122 0.04356892754233059 0.9877717642995585 -0.10216798970342097 0.003269144597225556 0.019655485059391714 -0.002780547731479848 -0.01257752651178926
 0.9877717642995585 -0.10216798970342097 0.009581225645920902 0.04356824981147725 -0.002781493543643638 -0.01257744131524311 0.0032356258324132987 0.019660862537282036
 0.003269144597225556 0.019655485059391714 -0.002781493543643638 -0.01257744131524311 0.009574019519711555 0.04356711911152361 0.987771625745224 -0.10217003195346025
 -0.002780547731479848 -0.01257752651178926 0.0032356258324132987 0.019660862537282036 0.987771625745224 -0.10217003195346025 0.009581882471920409 0.043566265961731965
0.15631513130469998 0.010031484510061086 0.04528245358360038 0.9871300114789247 -0.10629534839754112 0.0034960210119824005 0.020438528986632305 -0.002968622337417571 -0.01306926033323968
 0.9871300114789247 -0.10629534839754112 0.010038365364104294 0.04528172603171623 -0.002969647719200031 -0.013069163772737171 0.0034597139496747344 0.020444460788388807
