! Created with skrf 1.8.0 (http://scikit-rf.org).
# GHz S RI R 50.0 
!freq ReS11 ImS11 ReS12 ImS12 ReS13 ImS13
! ReS14 ImS14
! ReS21 ImS21 ReS22 ImS22 ReS23 ImS23
! ReS24 ImS24
! ReS31 ImS31 ReS32 ImS32 ReS33 ImS33
! ReS34 ImS34
! ReS41 ImS41 ReS42 ImS42 ReS43 ImS43
! ReS44 ImS44
!
0.0 0.001570427329649 0.0 0.9984295726192 0.0 6.064038018435e-05 0.0 -6.064038027302e-05 7.426304760043225e-21
 0.9984295726192 0.0 0.001570427329674 0.0 -6.06403802735e-05 7.426304760102008e-21 6.064038018448e-05 0.0
 6.064038018435e-05 0.0 -6.06403802735e-05 7.426304760102008e-21 0.001570427355246 0.0 0.9984295726448 0.0
 -6.064038027302e-05 7.426304760043225e-21 6.064038018448e-05 0.0 0.9984295726448 0.0 0.001570427355241 0.0
0.005 0.0016897466107430282 0.0012843153457940016 0.9982786244562 -0.0032895293121752737 8.49763971146258e-05 0.0006704654314242383 -8.258977452423665e-05 -0.000420405246534243
 0.9982786244562 -0.0032895293121752737 0.0016897276158145747 0.0012843263807497088 -8.25922402400646e-05 -0.0004204070336377265 8.509295777310424e-05 0.0006704211188183177
 8.49763971146258e-05 0.0006704654314242383 -8.25922402400646e-05 -0.0004204070336377265 0.0016897455223019698 0.0012842486538567955 0.9982786240933332 -0.0032895963683825724
 -8.258977452423665e-05 -0.000420405246534243 8.509295777310424e-05 0.0006704211188183177 0.9982786240933332 -0.0032895963683825724 0.0016897279840777395 0.0012842589654701126
0.006252605252188 0.0017210672941916521 0.0016104445468030867 0.9982387531664882 -0.004112712526341932 9.19169073652896e-05 0.000838405613213787 -8.879602754757283e-05 -0.0005260491443558158
 0.9982387531664882 -0.004112712526341932 0.0017210376017662752 0.001610458529190798 -8.879986523471081e-05 -0.0005260513454527221 9.209902336523047e-05 0.0008383480575511293
 9.19169073652896e-05 0.000838405613213787 -8.879986523471081e-05 -0.0005260513454527221 0.00172106567293878 0.0016103611821844212 0.9982387526788705 -0.004112796340812734
 -8.879602754757283e-05 -0.0005260491443558158 9.209902336523047e-05 0.0008383480575511293 0.9982387526788705 -0.004112796340812734 0.0017210382567838217 0.0016103742764678579
0.01250521050438 0.0018861020094363655 0.003254600168265529 0.9980272904936319 -0.008226203399477897 0.00013165637488751409 0.0016771690084355175 -0.00012405840624607337 -0.0010546348082102394
 0.9980272904936319 -0.008226203399477897 0.0018859834540327321 0.0032546300370032964 -0.0001240735407416887 -0.0010546388490731897 0.0001323826392626456 0.0016770305232410925
 0.00013165637488751409 0.0016771690084355175 -0.0001240735407416887 -0.0010546388490731897 0.001886096100142004 0.0032544336257826403 0.998027289098765 -0.00822637080723679
 -0.00012405840624607337 -0.0010546348082102394 0.0001323826392626456 0.0016770305232410925 0.998027289098765 -0.00822637080723679 0.0018859866145371858 0.0032544618721624717
0.01875781575657 0.0020658971082167963 0.0049221218705493485 0.9977949178102247 -0.012350478185753279 0.00017995325435210617 0.0025168525185112972 -0.00016653731257242028 -0.001584989017395624
 0.9977949178102247 -0.012350478185753279 0.0020656307224982554 0.004922169687168295 -0.00016657107756605854 -0.0015849944617354638 0.00018158479190083648 0.0025166051090696625
 0.00017995325435210617 0.0025168525185112972 -0.00016657107756605854 -0.0015849944617354638 0.002065884277005822 0.004921872260094856 0.9977949150977021 -0.012350729096900779
 -0.00016653731257242028 -0.001584989017395624 0.00018158479190083648 0.0025166051090696625 0.9977949150977021 -0.012350729096900779 0.002065638233394715 0.004921917850475851
0.02501042100875 0.002260807137728116 0.006610668016791165 0.9975413576208394 -0.016487527881189207 0.00023690259368689832 0.003357489572200584 -0.00021633885129744823 -0.002116866501503307
 0.9975413576208394 -0.016487527881189207 0.0022603340783682096 0.0066107359776422904 -0.00021639849747175644 -0.00211687283099176 0.00023980069757844938 0.0033571007754574444
 0.00023690259368689832 0.003357489572200584 -0.00021639849747175644 -0.00211687283099176 0.002260784765290523 0.006610335432104009 0.997541353174416 -0.016487862274941256
 -0.00021633885129744823 -0.002116866501503307 0.00023980069757844938 0.0033571007754574444 0.997541353174416 -0.016487862274941256 0.00226034776907004 0.006610400672980621
0.03126302626094 0.0024711719994775067 0.008319029496030545 0.9972663184656265 -0.020638199703529106 0.0003025996101990104 0.004199035972074988 -0.0002735660591509744 -0.0026500935245697757
 0.9972663184656265 -0.020638199703529106 0.002470433512964591 0.008319119927687616 -0.00027365876818900397 -0.0026501001378678346 0.0003071260718453059 0.004198468829615255
 0.0003025996101990104 0.004199035972074988 -0.00027365876818900397 -0.0026501001378678346 0.0024711374843004374 0.008318614066248068 0.9972663118670879 -0.020638617576669068
 -0.0002735660591509744 -0.0026500935245697757 0.0003071260718453059 0.004198468829615255 0.9972663118670879 -0.020638617576669068 0.0024704552043103138 0.008318701374515436
0.037515631513130004 0.0026973241997950764 0.01004641485809182 0.9969695024198506 -0.024802911894007802 0.0003771388723813494 0.005041416785868524 -0.00033831965001275105 -0.0031845210101743814
 0.9969695024198506 -0.024802911894007802 0.0026962615995109527 0.010046530215109479 -0.00033845254165619184 -0.003184527222591535 0.00038365612715476617 0.005040629798467671
 0.0003771388723813494 0.005041416785868524 -0.00033845254165619184 -0.003184527222591535 0.0026972749606144772 0.010045916736440605 0.9969694932515022 -0.02480341327239154
 -0.00033831965001275105 -0.0031845210101743814 0.00038365612715476617 0.005040629798467671 0.9969694932515022 -0.02480341327239154 0.0026962931081740355 0.010046028637191852
0.043768236765320004 0.0029395916367207656 0.011792232776003709 0.99665060812767 -0.028981871182986445 0.0004606139097963796 0.005884540598260309 -0.00041069827599525695 -0.003720010298445152
 0.99665060812767 -0.028981871182986445 0.002938146284577217 0.01179237563969279 -0.00041087841211797716 -0.0037200153417501743 0.00046948510370996743 0.005883487674696466
 0.0004606139097963796 0.005884540598260309 -0.00041087841211797716 -0.0037200153417501743 0.0029395251073564255 0.011791652153554204 0.9966505959665533 -0.02898245610806023
 -0.00041069827599525695 -0.003720010298445152 0.00046948510370996743 0.005883487674696466 0.9966505959665533 -0.02898245610806023 0.002938189419320695 0.011791791278745668
0.050020842017509996 0.0031982988961760193 0.013556002135984358 0.9963093323461816 -0.03317516262654013 0.0005531169694774298 0.0067283054165760145 -0.0004907986206355216 -0.004256427249297784
 0.9963093323461816 -0.03317516262654013 0.0031964121863082406 0.01355617521372595 -0.0004910330076967577 -0.004256430271613654 0.0005647059843279785 0.006726935820142805
 0.0005531169694774298 0.0067283054165760145 -0.0004910330076967577 -0.004256430271613654 0.0031982125271854695 0.013555339241358782 0.9963093167660297 -0.033175831155922306
 -0.0004907986206355216 -0.004256427249297784 0.0005647059843279785 0.006726935820142805 0.9963093167660297 -0.033175831155922306 0.003196468751400605 0.013555508328919672
0.055454545454549996 0.0034367245808530522 0.015103026416181864 0.9959943405878594 -0.036830906652422175 0.0006409073404679285 0.007461998153274419 -0.0005667528477163393 -0.004723240304961836
 0.9959943405878594 -0.036830906652422175 0.003434406736664871 0.01510322804738086 -0.0005670400287927771 -0.004723240814117595 0.0006551543118135469 0.007460308505247599
 0.0006409073404679285 0.007461998153274419 -0.0005670400287927771 -0.004723240814117595 0.0034366189141215578 0.015102292234980214 0.9959943216872635 -0.03683164790039933
 -0.0005667528477163393 -0.004723240304961836 0.0006551543118135469 0.007460308505247599 0.9959943216872635 -0.03683164790039933 0.00343447643627422 0.015102489666374709
0.056273447269699996 0.003473767911840219 0.015337307906682529 0.9959453708587397 -0.03738279366533919 0.0006547388413815399 0.0075726015473138565 -0.0005787154127688097 -0.004793639377472908
 0.9959453708587397 -0.03738279366533919 0.0034713812559970816 0.015337514031801095 -0.0005790110034488257 -0.0047936394431902975 0.0006694102941261494 0.007570859841386004
 0.0006547388413815399 0.0075726015473138565 -0.0005790110034488257 -0.0047936394431902975 0.0034736591717546205 0.015336563000813515 0.9959453514295507 -0.03738354587829368
 -0.0005787154127688097 -0.004793639377472908 0.0006694102941261494 0.007570859841386004 0.9959453514295507 -0.03738354587829368 0.003471453053013784 0.015336764894361947
0.06252605252188 0.0037663183182927197 0.017135776878527718 0.9955584190826654 -0.041604718316655985 0.000765568712920932 0.008417313202506852 -0.0006745414046148579 -0.005331514261411102
 0.9955584190826654 -0.041604718316655985 0.0037633731316986684 0.017136019010635075 -0.0006749050987714883 -0.005331510351132229 0.0007836879386742983 0.008415139195768351
 0.000765568712920932 0.008417313202506852 -0.0006749050987714883 -0.005331510351132229 0.003766184692211284 0.017134950260967764 0.9955583953693412 -0.04160555430808278
 -0.0006745414046148579 -0.005331514261411102 0.0007836879386742983 0.008415139195768351 0.9955583953693412 -0.04160555430808278 0.003763461959259572 0.01713518790984813
0.06877865777407 0.004076267630025189 0.018951063201243585 0.9951481725087163 -0.04584085157227961 0.0008856940445162249 0.009262319446850012 -0.0007783673247259745 -0.005869918615647448
 0.9951481725087163 -0.04584085157227961 0.0040727053176187215 0.018951344427029115 -0.0007788059699711943 -0.005869909626148413 0.0009076270674098026 0.00925964813857053
 0.0008856940445162249 0.009262319446850012 -0.0007788059699711943 -0.005869909626148413 0.004076106620573542 0.018950155214440552 0.995148144071142 -0.045841771448782945
 -0.0007783673247259745 -0.005869918615647448 0.0009076270674098026 0.00925964813857053 0.995148144071142 -0.045841771448782945 0.004072812973253723 0.01895043167417041
0.07503126302626001 0.004403931322635478 0.02078283921977878 0.9947143270456921 -0.050091078503063116 0.0010152004541890817 0.010107494805426519 -0.0008902818185079575 -0.006408717707262905
 0.9947143270456921 -0.050091078503063116 0.004399693265933927 0.020783162754164062 -0.0008908022105110865 -0.006408702451458059 0.0010413139493192947 0.010104256331050618
 0.0010152004541890817 0.010107494805426519 -0.0008908022105110865 -0.006408702451458059 0.0044037404498861454 0.020781850238858205 0.9947142934376793 -0.05009208239327336
 -0.0008902818185079575 -0.006408717707262905 0.0010413139493192947 0.010104256331050618 0.9947142934376793 -0.05009208239327336 0.004399821546567843 0.020782168672093846
0.08128386827845 0.004749622849589238 0.022630789365635184 0.9942565793048712 -0.054355260312993134 0.0011541716081845677 0.010952709681253132 -0.0010103713800793611 -0.006947774967457661
 0.9942565793048712 -0.054355260312993134 0.004744650393040312 0.022631158553468148 -0.0010109802626031188 -0.0069477521743908375 0.0011848328566663683 0.010948829258409388
 0.0011541716081845677 0.010952709681253132 -0.0010109802626031188 -0.0069477521743908375 0.0047493996515836495 0.02262971981106973 0.9942565400738189 -0.05435634835524476
 -0.0010103713800793611 -0.006947774967457661 0.0011848328566663683 0.010948829258409388 0.9942565400738189 -0.05435634835524476 0.004744801096496568 0.022630083488880133
0.08753647353064001 0.005113653617664864 0.024494605950616494 0.9937746268462757 -0.05863323849674228 0.001302689117274417 0.011797830640574008 -0.001138720276353378 -0.007486951740555195
 0.9937746268462757 -0.05863323849674228 0.005107888055511122 0.02449502426881134 -0.001139424341117251 -0.007486920055413558 0.0013382659556207283 0.011793228515731932
 0.001302689117274417 0.011797830640574008 -0.001139424341117251 -0.007486920055413558 0.00511339565023634 0.024493456280958982 0.9937745815323267 -0.05863441084655871
 -0.001138720276353378 -0.007486951740555195 0.0013382659556207283 0.011793228515731932 0.9937745815323267 -0.05863441084655871 0.005108062981255314 0.024493868584564735
0.09378907878283 0.005496332932246458 0.026373986150759195 0.9932681683994211 -0.0629248378129791 0.0014608324342445498 0.01264272062939513 -0.0012754104681157816 -0.00802610710712003
 0.9932681683994211 -0.0629248378129791 0.0054897154955334294 0.026374457210773996 -0.0012762163546178322 -0.008026065091230649 0.0015016931989139653 0.012637312025133289
 0.0014608324342445498 0.01264272062939513 -0.0012762163546178322 -0.008026065091230649 0.0054960377701229295 0.026372756863074387 0.9932681165353537 -0.06292609464270273
 -0.0012754104681157816 -0.00802610710712003 0.0015016931989139653 0.012637312025133289 0.9932681165353537 -0.06292609464270273 0.005489916445880878 0.026373221286097776
0.100041684035 0.005897967923165689 0.02826862980176642 0.9927369040671657 -0.06722986845221655 0.0016286787539888914 0.013487239138616994 -0.0014205215270894943 -0.00856509776398733
 0.9927369040671657 -0.06722986845221655 0.005890439766250353 0.028269157352704702 -0.0014214358222099832 -0.008565043894868856 0.0016751922218128416 0.013480934201761267
 0.0016286787539888914 0.013487239138616994 -0.0014214358222099832 -0.008565043894868856 0.005897633159383031 0.02826732143549689 0.9927368451770042 -0.06723120994745299
 -0.0014205215270894943 -0.00856509776398733 0.0016751922218128416 0.013480934201761267 0.9927368451770042 -0.06723120994745299 0.005890668546940727 0.028267841586563962
0.1059090909091 0.006292371343105406 0.0300601673611878 0.992215542386263 -0.07128171829621338 0.001795076193368876 0.014279264249618406 -0.0015644202618440883 -0.009070603710929446
 0.992215542386263 -0.07128171829621338 0.0062839349723654405 0.03006075145835374 -0.0015654422303783841 -0.009070537259519543 0.0018472298588197694 0.014272031912965463
 0.001795076193368876 0.014279264249618406 -0.0015654422303783841 -0.009070537259519543 0.006291997245568304 0.030058785314045558 0.9922154764624356 -0.07128313942410161
 -0.0015644202618440883 -0.009070603710929446 0.0018472298588197694 0.014272031912965463 0.9922154764624356 -0.07128313942410161 0.006284191515790621 0.03005936114715326
0.1062942892872 0.00631886345350831 0.030178237744843576 0.9921805355164188 -0.0715481276609434 0.001806302914651801 0.014331242335934276 -0.001574130550569106 -0.009103777943170766
 0.9921805355164188 -0.0715481276609434 0.0063103656407500364 0.030178825676968814 -0.001575159788125692 -0.009103710614581068 0.0018588382397182212 0.014323946086545716
 0.001806302914651801 0.014331242335934276 -0.001575159788125692 -0.009103710614581068 0.006318486700461678 0.030176850878743545 0.9921804691156404 -0.07154955402368852
 -0.001574130550569106 -0.009103777943170766 0.0018588382397182212 0.014323946086545716 0.9921804691156404 -0.07154955402368852 0.006310624062556425 0.030177430484610704
0.11254689453939999 0.006759322017383774 0.032102510561304955 0.9915987661613259 -0.07587940098363066 0.001993777299663584 0.015174583174814139 -0.001736312074193086 -0.0096419993595392
 0.9915987661613259 -0.07587940098363066 0.006749795509980261 0.03210316291010144 -0.00173746273444364 -0.009641916881546485 0.002052703946995427 0.015166195456081102
 0.001993777299663584 0.015174583174814139 -0.00173746273444364 -0.009641916881546485 0.006758900907157443 0.032101045817037405 0.9915986917558957 -0.07588091242882135
 -0.001736312074193086 -0.0096419993595392 0.002052703946995427 0.015166195456081102 0.9915986917558957 -0.07588091242882135 0.0067500853894879006 0.03210168872618199
0.11879949979160001 0.007219643628856376 0.034041147593708854 0.990991301339988 -0.08022346322501982 0.0021911717404569835 0.016017111489994167 -0.0019071379832777953 -0.010179611177869271
 0.990991301339988 -0.08022346322501982 0.007209029271219791 0.034041868544363765 -0.0019084164923690423 -0.010179511776920142 0.0022568594167082104 0.016007526919158556
 0.0021911717404569835 0.016017111489994167 -0.0019084164923690423 -0.010179511776920142 0.0072191758133856 0.03403960563249256 0.9909912184255101 -0.08022505998398444
 -0.0019071379832777953 -0.010179611177869271 0.0022568594167082104 0.016007526919158556 0.9909912184255101 -0.08022505998398444 0.007209352431789646 0.03404031581923479
0.1250521050438 0.007700125702388048 0.035993846172633785 0.990357848486036 -0.08458007921406482 0.0023985534198565795 0.01685867407948962 -0.002086677422943192 -0.01071645999937057
 0.990357848486036 -0.08458007921406482 0.007688364208954046 0.03599464006517354 -0.002088090152202735 -0.01071634181844475 0.002471372001255436 0.016847781999885004
 0.0023985534198565795 0.01685867407948962 -0.002088090152202735 -0.01071634181844475 0.007699608854181468 0.035992227698077986 0.9903577565476617 -0.08458176153168442
 -0.002086677422943192 -0.01071645999937057 0.002471372001255436 0.016847781999885004 0.9903577565476617 -0.08458176153168442 0.0076887224817992865 0.03599300926718628
0.131304710296 0.008201062928327634 0.03796030100224516 0.989698117297743 -0.08894900441611377 0.002615986775726025 0.017699114783777378 -0.0022749967074642313 -0.011252389857261232
 0.989698117297743 -0.08894900441611377 0.008188094869648175 0.037961172337125426 -0.0022765499727805875 -0.011252250955956701 0.0026963062336338123 0.017686799217962113
 0.002615986775726025 0.017699114783777378 -0.0022765499727805875 -0.011252250955956701 0.00820049474046656 0.03795860675833956 0.9896980158087945 -0.08895077255289793
 -0.0022749967074642313 -0.011252389857261232 0.0026963062336338123 0.017686799217962113 0.9896980158087945 -0.08895077255289793 0.008188490094858393 0.03795946395015333
0.1375573155481 0.008609122151582759 0.039683937834596346 0.9891254940611578 -0.09307358677151047 0.0028159810955378684 0.01851269923665613 -0.0024445156750226432 -0.011761752071044905
 0.9891254940611578 -0.09307358677151047 0.008594882819146348 0.03968487393297706 -0.0024462185381569344 -0.011761592239960322 0.002903983620974992 0.0184989762835854
 0.0028159810955378684 0.01851269923665613 -0.0024462185381569344 -0.011761592239960322 0.008608499118395355 0.03968216918191146 0.9891253825814196 -0.09307544086991651
 -0.0024445156750226432 -0.011761752071044905 0.002903983620974992 0.0184989762835854 0.9891253825814196 -0.09307544086991651 0.008595317882569158 0.03968308764812765
0.1438099208003 0.009031585806713517 0.041398294666664115 0.9885326614548855 -0.09718751134158295 0.0030240336508125564 0.019322933299753844 -0.0026208085673713206 -0.01226798321834618
 0.9885326614548855 -0.09718751134158295 0.009016014750740516 0.04139929912461401 -0.0026226677592894486 -0.012267800553256363 0.003120055434811382 0.019307696761672967
 0.0030240336508125564 0.019322933299753844 -0.0026226677592894486 -0.012267800553256363 0.009030905432896074 0.04139645245816109 0.9885325394591377 -0.09718945165434209
 -0.0026208085673713206 -0.01226798321834618 0.003120055434811382 0.019307696761672967 0.9885325394591377 -0.09718945165434209 0.009016491695445867 0.041397435367576695
0.1500625260525 0.009468302764203265 0.04310322204134176 0.9879197749387953 -0.10129066977345985 0.0032400705809032043 0.020129732681649314 -0.0028038023573291448 -0.012771001485831289
 0.9879197749387953 -0.10129066977345985 0.00945133936402159 0.04310429868545723 -0.0028058245890226676 -0.01277079400669802 0.0033444457346867573 0.02011287248978662
 0.0032400705809032043 0.020129732681649314 -0.0028058245890226676 -0.01277079400669802 0.00946756256015772 0.04310130716776631 0.9879196418926144 -0.10129269656176813
 -0.0028038023573291448 -0.012771001485831289 0.0033444457346867573 0.02011287248978662 0.9879196418926144 -0.10129269656176813 0.00945186025438546 0.043102357895739664
0.15631513130469998 0.009919120790527059 0.04479857498553751 0.9872869908008519 -0.10538295422467789 0.0034640171365570133 0.020933014577098983 -0.0029934230993356827 -0.013270726819456437
