! Created with skrf 1.8.0 (http://scikit-rf.org).
# GHz S RI R 50.0 
!freq ReS11 ImS11 ReS12 ImS12 ReS13 ImS13
! ReS14 ImS14
! ReS21 ImS21 ReS22 ImS22 ReS23 ImS23
! ReS24 ImS24
! ReS31 ImS31 ReS32 ImS32 ReS33 ImS33
! ReS34 ImS34
! ReS41 ImS41 ReS42 ImS42 ReS43 ImS43
! ReS44 ImS44
!
0.0 0.001609007191765 0.0 0.9983909928026 0.0 6.237013420258e-05 0.0 -6.237013322625e-05 7.638138401792105e-21
 0.9983909928026 0.0 0.00160900719178 0.0 -6.237013322611e-05 7.638138401774958e-21 6.237013420372e-05 0.0
 6.237013420258e-05 0.0 -6.237013322611e-05 7.638138401774958e-21 0.001609007188926 0.0 0.9983909927997 0.0
 -6.237013322625e-05 7.638138401792105e-21 6.237013420372e-05 0.0 0.9983909927997 0.0 0.00160900718894 0.0
0.005 0.00173141164941276 0.001312398528532583 0.9982361047317836 -0.0033704674037945814 8.799675272243739e-05 0.0007094259002773376 -8.537537665731874e-05 -0.0004413636339472721
 0.9982361047317836 -0.0033704674037945814 0.0017313953865608837 0.001312408086145913 -8.537707477373277e-05 -0.00044136498027822857 8.809576224207884e-05 0.0007093882840582421
 8.799675272243739e-05 0.0007094259002773376 -8.537707477373277e-05 -0.00044136498027822857 0.0017314109275815175 0.0013124662650052122 0.9982361050925168 -0.0033704003402945906
 -8.537537665731874e-05 -0.0004413636339472721 8.809576224207884e-05 0.0007093882840582421 0.9982361050925168 -0.0033704003402945906 0.001731396824980278 0.001312474473007866
0.006252605252188 0.00176357767256777 0.0016456695685133419 0.9981951390823902 -0.004213900554968975 9.533393495120729e-05 0.0008871129781480617 -9.190138996192675e-05 -0.0005522765017710497
 0.9981951390823902 -0.004213900554968975 0.0017635522498145298 0.0016456816738557787 -9.190403203131873e-05 -0.0005522781625373979 9.548862888082624e-05 0.0008870641091129436
 9.533393495120729e-05 0.0008871129781480617 -9.190403203131873e-05 -0.0005522781625373979 0.0017635764773496938 0.0016457542362464232 0.9981951395798482 -0.004213816732040519
 -9.190138996192675e-05 -0.0005522765017710497 9.548862888082624e-05 0.0008870641091129436 0.9981951395798482 -0.004213816732040519 0.0017635544323619133 0.0016457646436266655
0.01250521050438 0.001933273190835306 0.003325857807389792 0.9979775652723326 -0.008428556353489375 0.0001374953812141323 0.0017745032703104897 -0.00012909425384939252 -0.0011072103349057786
 0.9979775652723326 -0.008428556353489375 0.0019331716650518164 0.003325883615854896 -0.0001291046619303293 -0.0011072134132880732 0.00013811229460778245 0.0017743855450290092
 0.0001374953812141323 0.0017745032703104897 -0.0001291046619303293 -0.0011072134132880732 0.0019332678375067111 0.003326026933039218 0.9979775666867391 -0.008428388951026301
 -0.00012909425384939252 -0.0011072103349057786 0.00013811229460778245 0.0017743855450290092 0.9979775666867391 -0.008428388951026301 0.0019331798127419277 0.003326049215388618
0.01875781575657 0.0021184773103275732 0.005029951597053881 0.9977379915611821 -0.012654213856360522 0.00018895510192877522 0.0026627818220620126 -0.0001740666321495673 -0.0016639623819565653
 0.9977379915611821 -0.012654213856360522 0.0021182491533954873 0.005029992840009694 -0.00017408983685792784 -0.0016639665874761003 0.0001903409981006207 0.002662571238471194
 0.00018895510192877522 0.0026627818220620126 -0.00017408983685792784 -0.0016639665874761003 0.0021184648422274688 0.005030205129674091 0.9977379943184249 -0.012653962958863665
 -0.0001740666321495673 -0.0016639623819565653 0.0001903409981006207 0.002662571238471194 0.9977379943184249 -0.012653962958863665 0.0021182670484582214 0.005030240824669829
0.02501042100875 0.002319561531763366 0.00675554127581924 0.9974761267815258 -0.016892903970946525 0.000249814534949705 0.003551982710484092 -0.00022693218815263226 -0.002222263581076259
 0.9974761267815258 -0.016892903970946525 0.002319156299996942 0.006755599798654579 -0.00022697315808515578 -0.002222268570788669 0.00025227632400928805 0.0035516513785907957
 0.000249814534949705 0.003551982710484092 -0.00022697315808515578 -0.002222268570788669 0.0023195389881200375 0.0067558792070424745 0.9974761313081757 -0.016892569618872744
 -0.00022693218815263226 -0.002222263581076259 0.00025227632400928805 0.0035516513785907957 0.9974761313081757 -0.016892569618872744 0.0023191877221172747 0.006755929905368264
0.03126302626094 0.00253688198731347 0.008501377780273923 0.9971916654119348 -0.021145484875945884 0.0003201752801847192 0.004442055321332793 -0.0002878011214168167 -0.0027819228504100814
 0.9971916654119348 -0.021145484875945884 0.002536249292261088 0.008501455538609228 -0.0002878647736678468 -0.0027819282282981147 0.0003240202961208275 0.004441571438920633
 0.0003201752801847192 0.004442055321332793 -0.0002878647736678468 -0.0027819282282981147 0.0025368463966164703 0.008501800130806486 0.997191672131063 -0.02114506707911308
 -0.0002878011214168167 -0.0027819228504100814 0.0003240202961208275 0.004441571438920633 0.997191672131063 -0.02114506707911308 0.0025362980143238943 0.008501867472167236
0.037515631513130004 0.0027707869392589886 0.010266639869823058 0.9968842953506989 -0.025412374734692596 0.0004001381696053352 0.005332915477463772 -0.00035678098779590346 -0.003342775980196761
 0.9968842953506989 -0.025412374734692596 0.002769876427917238 0.01026673892784667 -0.00035687219338133346 -0.003342781297025857 0.0004056742912122901 0.005332243290230232
 0.0004001381696053352 0.005332915477463772 -0.00035687219338133346 -0.003342781297025857 0.00277073532687392 0.010267146673694626 0.9968843046903332 -0.025411873488134534
 -0.00035678098779590346 -0.003342775980196761 0.0004056742912122901 0.005332243290230232 0.9968843046903332 -0.025411873488134534 0.002769946224132327 0.010267232344419968
0.043768236765320004 0.0030216196860824007 0.012050711121704949 0.9965537010950302 -0.0296937746289098 0.000489802818835835 0.0062244609980194494 -0.0004339769901428026 -0.003904670087562959
 0.9965537010950302 -0.0296937746289098 0.0030203810250157086 0.012050833651418838 -0.00043410057721203835 -0.0039046748408527966 0.0004973385238677715 0.0062235607549233395
 0.000489802818835835 0.0062244609980194494 -0.00043410057721203835 -0.0039046748408527966 0.0030215490689456535 0.012051302427722035 0.9965537134836308 -0.029693189911666605
 -0.0004339769901428026 -0.003904670087562959 0.0004973385238677715 0.0062235607549233395 0.9965537134836308 -0.029693189911666605 0.003020475665719522 0.012051408159270171
0.050020842017509996 0.0032897198907493744 0.013853087790188005 0.9961995653444329 -0.033989760627233086 0.0005892673533669285 0.007116578123905749 -0.0005194920762027539 -0.0044674572060187665
 0.9961995653444329 -0.033989760627233086 0.003288102752011447 0.013853236071198566 -0.0005196528321139018 -0.004467460840053263 0.0005991117370809051 0.007115406030570059
 0.0005892673533669285 0.007116578123905749 -0.0005196528321139018 -0.004467460840053263 0.0032896272798966725 0.013853763658833033 0.9961995812142178 -0.033989092405648104
 -0.0005194920762027539 -0.0044674572060187665 0.0005991117370809051 0.007115406030570059 0.9961995812142178 -0.033989092405648104 0.003288226006079322 0.013853891226692209
0.055454545454549996 0.0035369919563717645 0.015433933914226674 0.9958724450040775 -0.03773494690491776 0.0006837386933044967 0.00789222444348425 -0.0006006416631018759 -0.004957147944898823
 0.9958724450040775 -0.03773494690491776 0.0035350050312418528 0.015434106508955355 -0.0006008385771550991 -0.004957150113639005 0.0006958408895254694 0.00789077736178069
 0.0006837386933044967 0.00789222444348425 -0.0006008385771550991 -0.004957150113639005 0.003536877798573973 0.015434683329805273 0.9958724642521299 -0.037734206077305626
 -0.0006006416631018759 -0.004957147944898823 0.0006958408895254694 0.00789077736178069 0.9958724642521299 -0.037734206077305626 0.0035351562087801575 0.015434831349648567
0.056273447269699996 0.0035754242664373216 0.015673333564695767 0.995821569965536 -0.038300328956814116 0.0006986282065346393 0.008009144684150057 -0.0006134269553179616 -0.005030991137403321
 0.995821569965536 -0.038300328956814116 0.003573378314676889 0.01567350998444205 -0.0006136296280235438 -0.005030993043266968 0.0007110909787977084 0.008007652855507098
 0.0006986282065346393 0.008009144684150057 -0.0006136296280235438 -0.005030993043266968 0.003575306664631297 0.015674094070616294 0.9958215897511334 -0.038299577182326905
 -0.0006134269553179616 -0.005030991137403321 0.0007110909787977084 0.008007652855507098 0.9958215897511334 -0.038299577182326905 0.003573533946791335 0.01567424529361937
0.06252605252188 0.003879066930426578 0.01751105470760522 0.9954193966295388 -0.042625420799148626 0.0008179799574090676 0.008902031826353879 -0.0007158800694518751 -0.005595125744203854
 0.9954193966295388 -0.042625420799148626 0.0038765418106991353 0.017511261762091196 -0.0007161293685016383 -0.005595125259829223 0.000833371425510387 0.008900168239066466
 0.0008179799574090676 0.008902031826353879 -0.0007161293685016383 -0.005595125259829223 0.003878921333533749 0.017511899938236125 0.9954194207696117 -0.04262458541001382
 -0.0007158800694518751 -0.005595125744203854 0.000833371425510387 0.008900168239066466 0.9954194207696117 -0.04262458541001382 0.0038767335819061667 0.01751207667840405
0.06877865777407 0.004200979585216602 0.019365885232184583 0.9949927272805161 -0.046964937050757445 0.0009474151883364219 0.009795105066907549 -0.0008269475405761801 -0.0061597139272063115
 0.9949927272805161 -0.046964937050757445 0.004197924910834471 0.019366125527061646 -0.0008272481377526799 -0.006159710337416976 0.0009660462296028359 0.009792813511869706
 0.0009474151883364219 0.009795105066907549 -0.0008272481377526799 -0.006159710337416976 0.004200802981645177 0.019366815287130964 0.9949927562177894 -0.0469640179728162
 -0.0008269475405761801 -0.0061597139272063115 0.0009660462296028359 0.009792813511869706 0.9949927562177894 -0.0469640179728162 0.004198156577550196 0.0193670194499167
0.07503126302626001 0.004541491594778588 0.02123747750649729 0.9945412445031154 -0.05131874766338352 0.0010870243544450662 0.010688224956881128 -0.0009467231029189334 -0.00672460699293425
 0.9945412445031154 -0.05131874766338352 0.004537856935598095 0.021237753758517008 -0.0009470796327113289 -0.006724599529499351 0.001109206381250569 0.010685444992032557
 0.0010870243544450662 0.010688224956881128 -0.0009470796327113289 -0.006724599529499351 0.004541280964835269 0.021238492495221754 0.9945412786843812 -0.051317744812851444
 -0.0009467231029189334 -0.00672460699293425 0.001109206381250569 0.010685444992032557 0.9945412786843812 -0.051317744812851444 0.004538132248094253 0.021238726030050132
0.08128386827845 0.004900929993140954 0.023125496004057368 0.9940646318265567 -0.05568669784364522 0.0012368956607736977 0.011581247533611188 -0.0010752980251368457 -0.007289654241206942
 0.9940646318265567 -0.05568669784364522 0.0048966648637471825 0.023125811043043523 -0.0010757150850228116 -0.007289642082896141 0.0012629405796275074 0.011577914437173624
 0.0012368956607736977 0.011581247533611188 -0.0010757150850228116 -0.007289642082896141 0.004900682309473597 0.023126596052195792 0.994064671703709 -0.05568561112109773
 -0.0010752980251368457 -0.007289654241206942 0.0012629405796275074 0.011577914437173624 0.994064671703709 -0.05568561112109773 0.00489698756593636 0.023126860953554283
0.08753647353064001 0.005279619450067073 0.025029612988800836 0.9935625739901962 -0.06006861232498277 0.0013971149442083273 0.012474024643012935 -0.0012127610256131708 -0.007854702687980906
 0.9935625739901962 -0.06006861232498277 0.005274673298655469 0.025029969759901054 -0.0012132431762892028 -0.007854684960625682 0.0014273351099646336 0.012470069367297549
 0.0013971149442083273 0.012474024643012935 -0.0012132431762892028 -0.007854684960625682 0.0052793316777787055 0.025030798230028618 0.9935626200208268 -0.06006744162379832
 -0.0012127610256131708 -0.007854702687980906 0.0014273351099646336 0.012470069367297549 0.9935626200208268 -0.06006744162379832 0.00527504712684716 0.025031096538868702
0.09378907878283 0.005677882207624636 0.02694950542693134 0.9930347571831074 -0.06446429841937644 0.0015677655587828315 0.013366404176827471 -0.0013591981829006237 -0.008419596879456662
 0.9930347571831074 -0.06446429841937644 0.005672204403542818 0.026949906993481758 -0.001359749948307055 -0.008419572656016555 0.0016024737246105372 0.013361753302754999
 0.0015677655587828315 0.013366404176827471 -0.001359749948307055 -0.008419572656016555 0.005677551303782542 0.026950776012097843 0.9930348098302233 -0.06446304361704358
 -0.0013591981829006237 -0.008419596879456662 0.0016024737246105372 0.013361753302754999 0.9930348098302233 -0.06446304361704358 0.005672633085536592 0.02695110981778209
0.100041684035 0.006096037992294767 0.028884852736989187 0.992480869263252 -0.06887354823827828 0.0017489282628234905 0.014258230257105773 -0.001514692842603958 -0.008984178765498984
 0.992480869263252 -0.06887354823827828 0.0060895778152844785 0.028885302283555007 -0.0015153187099605824 -0.008984147066130849 0.0017884375269519104 0.014252805949327306
 0.0017489282628234905 0.014258230257105773 -0.0015153187099605824 -0.008984147066130849 0.006095660906338988 0.028886208828807984 0.9924809289969952 -0.06887220920208816
 -0.001514692842603958 -0.008984178765498984 0.0017884375269519104 0.014252805949327306 0.9924809289969952 -0.06887220920208816 0.0060900650696037026 0.0288865802713953
0.1059090909091 0.006506807849039258 0.030714742053650327 0.9919371164024147 -0.07302330052923943 0.001928560439115743 0.015094469050853761 -0.0016689175490405721 -0.009513551803892913
 0.9919371164024147 -0.07302330052923943 0.00649956727789049 0.030715239631991853 -0.0016696170015573439 -0.00951351215102597 0.001972860041732902 0.015088244194630352
 0.001928560439115743 0.015094469050853761 -0.0016696170015573439 -0.00951351215102597 0.006506384644803679 0.03071617854103067 0.991937183219605 -0.07302188232104508
 -0.0016689175490405721 -0.009513551803892913 0.001972860041732902 0.015088244194630352 0.991937183219605 -0.07302188232104508 0.0065001128686891065 0.030716587295891908
0.1062942892872 0.00653440391366506 0.030835335095337656 0.9919005999666668 -0.07329614036536687 0.0019406811079566773 0.015149343384986854 -0.0016793255216747502 -0.009548287615115126
 0.9919005999666668 -0.07329614036536687 0.006527110541521994 0.030835835931470462 -0.0016800299414469469 -0.009548247407241233 0.001985304856949918 0.015143063347982225
 0.0019406811079566773 0.015149343384986854 -0.0016800299414469469 -0.009548247407241233 0.006533977587238572 0.030836776866695913 0.9919006672635678 -0.07329471695453256
 -0.0016793255216747502 -0.009548287615115126 0.001985304856949918 0.015143063347982225 0.9919006672635678 -0.07329471695453256 0.006527660076013666 0.030837188139808742
0.11254689453939999 0.00699329434884205 0.0328006321430595 0.9912936411053338 -0.07773184113565912 0.002143099329101139 0.016039580564404125 -0.0018531738105636655 -0.010111759963932923
 0.9912936411053338 -0.07773184113565912 0.006985116846109948 0.03280118770735901 -0.0018539611963481633 -0.010111710162327342 0.00219315117862966 0.016032357999272162
 0.002143099329101139 0.016039580564404125 -0.0018539611963481633 -0.010111710162327342 0.0069928157156414926 0.032802159784962495 0.9912937164495732 -0.07773033319384459
 -0.0018531738105636655 -0.010111759963932923 0.00219315117862966 0.016032357999272162 0.9912937164495732 -0.07773033319384459 0.006985732356916566 0.03280261313901892
0.11879949979160001 0.007473020818173485 0.03478042199076999 0.990659686760124 -0.08218040562470985 0.0023562552354217912 0.016928775409736443 -0.002036312274055096 -0.010674429584404467
 0.990659686760124 -0.08218040562470985 0.007463908124145546 0.03478103585542662 -0.0020371870024121974 -0.010674369051273953 0.0024120489683256137 0.016920518972115342
 0.0023562552354217912 0.016928775409736443 -0.0020371870024121974 -0.010674369051273953 0.007472486804110221 0.034782035707303885 0.9906597706434965 -0.08217881298542842
 -0.002036312274055096 -0.010674429584404467 0.0024120489683256137 0.016920518972115342 0.9906597706434965 -0.08217881298542842 0.00746459329453576 0.03478253345333243
0.1250521050438 0.007973891853092519 0.03677438043065895 0.9899984334677772 -0.08664157843836637 0.002580218102047269 0.017816758243173168 -0.002228812350803217 -0.011236127473402994
 0.9899984334677772 -0.08664157843836637 0.007963792770010164 0.03677505630658949 -0.0022297787610805783 -0.011236055018471207 0.0026420676041136446 0.01780737200197974
 0.002580218102047269 0.017816758243173168 -0.0022297787610805783 -0.011236055018471207 0.007973299376044136 0.03677608044033797 0.9899985263905763 -0.086639900924244
 -0.002228812350803217 -0.011236127473402994 0.0026420676041136446 0.01780737200197974 0.9899985263905763 -0.086639900924244 0.007964551269500022 0.03677662495422309
0.131304710296 0.008496212857696583 0.03878218031434935 0.9893095804052697 -0.09111509434546342 0.002815054062499554 0.018703356183238734 -0.0024307422521982597 -0.011796681855603867
 0.9893095804052697 -0.09111509434546342 0.008485076039127756 0.038782922056699365 -0.0024318046463722358 -0.01179659623622262 0.0028832732560649605 0.018692739580582124
 0.002815054062499554 0.018703356183238734 -0.0024318046463722358 -0.01179659623622262 0.008495558828193783 0.03878396684966707 0.9893096828768421 -0.09111333176909299
 -0.0024307422521982597 -0.011796681855603867 0.0028832732560649605 0.018692739580582124 0.9893096828768421 -0.09111333176909299 0.008485911522203442 0.03878456057700696
0.1375573155481 0.008923042446866236 0.04054106967584003 0.9887101245075923 -0.09533811628057087 0.003031587575026006 0.0195621376417659 -0.002612851596323107 -0.012329740575508546
 0.9887101245075923 -0.09533811628057087 0.008910814061931926 0.04054186720409531 -0.0026140164793055118 -0.012329641653344974 0.0031063298636137063 0.019550303241680955
 0.003031587575026006 0.0195621376417659 -0.0026140164793055118 -0.012329641653344974 0.008922324633082658 0.04054294281389864 0.9887102369663479 -0.09533626855431003
 -0.002612851596323107 -0.012329740575508546 0.0031063298636137063 0.019550303241680955 0.9887102369663479 -0.09533626855431003 0.008911729452097289 0.0405435747402334
0.1438099208003 0.009364964083786478 0.04229022512457584 0.9880894459293185 -0.09954997443639196 0.003256849341424906 0.020417251883870453 -0.002802236529412687 -0.01285939107207877
 0.9880894459293185 -0.09954997443639196 0.009351592246343007 0.04229108157317117 -0.002803508545997233 -0.012859277617136775 0.003338399721151446 0.02040410750205467
 0.003256849341424906 0.020417251883870453 -0.002803508545997233 -0.012859277617136775 0.009364179540406987 0.04229218507565476 0.9880895688823751 -0.09954804138149748
 -0.002802236529412687 -0.01285939107207877 0.003338399721151446 0.02040410750205467 0.9880895688823751 -0.09954804138149748 0.009352591045224158 0.04229285693996428
0.1500625260525 0.00982181583068918 0.04402948678923197 0.9874477111497025 -0.10375055047573778 0.003490757476099851 0.02126860532346996 -0.002998816383697116 -0.013385543223639546
 0.9874477111497025 -0.10375055047573778 0.00980724850892366 0.044030405492360446 -0.0030002001691813622 -0.013385413956071342 0.003579399125610983 0.021254055415400066
 0.003490757476099851 0.02126860532346996 -0.0030002001691813622 -0.013385413956071342 0.009820961615252958 0.044031533772864034 0.9874478451112855 -0.10374853190581511
 -0.002998816383697116 -0.013385543223639546 0.003579399125610983 0.021254055415400066 0.9874478451112855 -0.10374853190581511 0.00980833419516859 0.04403224746002896
0.15631513130469998 0.010293434518874583 0.04575869958352993 0.9867850875878255 -0.10793972677388881 0.003733229081204794 0.02211610605990299 -0.003202509451730953 -0.013908108888547533
 0.9867850875878255 -0.10793972677388881 0.010277619530659091 0.04575968408162305 -0.003204009631905509 -0.013907962478839082 0.00382924333236723 0.02210005175785793
