! Created with skrf 1.8.0 (http://scikit-rf.org).
# GHz S RI R 50.0 
!freq ReS11 ImS11 ReS12 ImS12 ReS13 ImS13
! ReS14 ImS14
! ReS21 ImS21 ReS22 ImS22 ReS23 ImS23
! ReS24 ImS24
! ReS31 ImS31 ReS32 ImS32 ReS33 ImS33
! ReS34 ImS34
! ReS41 ImS41 ReS42 ImS42 ReS43 ImS43
! ReS44 ImS44
!
0.0 0.001146896170678 0.0 0.9988531038293 0.0 4.342021794114e-05 0.0 -4.342021777474e-05 5.3174430716116354e-21
 0.9988531038293 0.0 0.001146896170641 0.0 -4.342021777402e-05 5.317443071523461e-21 4.342021794071e-05 0.0
 4.342021794114e-05 0.0 -4.342021777402e-05 5.317443071523461e-21 0.001146896164263 0.0 0.9988531038229 0.0
 -4.342021777474e-05 5.3174430716116354e-21 4.342021794071e-05 0.0 0.9988531038229 0.0 0.001146896164264 0.0
0.005 0.0012330564143204833 0.0009416314568805093 0.9987442441958946 -0.002403392861064999 5.9910294369411626e-05 0.00046184019624478223 -5.838009225377231e-05 -0.000292928868891365
 0.9987442441958946 -0.002403392861064999 0.0012330583141772135 0.0009416303749031559 -5.8378365338518575e-05 -0.000292927614557594 5.9899499313594476e-05 0.00046184425263059965
 5.9910294369411626e-05 0.00046184019624478223 -5.8378365338518575e-05 -0.000292927614557594 0.0012330565941882597 0.0009415641545932545 0.9987442438729274 -0.002403459917045593
 -5.838009225377231e-05 -0.000292928868891365 5.9899499313594476e-05 0.00046184425263059965 0.9987442438729274 -0.002403459917045593 0.001233057490047936 0.0009415635663136643
0.006252605252188 0.0012553990896372776 0.0011807664615780217 0.9987158799498288 -0.0030048669330630306 6.447803081022578e-05 0.0005775475326806733 -6.248726264644546e-05 -0.0003665502093591784
 0.9987158799498288 -0.0030048669330630306 0.0012554020593531635 0.0011807651104989872 -6.248457478607446e-05 -0.00036654866342239565 6.446116356455669e-05 0.0005775528019046639
 6.447803081022578e-05 0.0005775475326806733 -6.248457478607446e-05 -0.00036654866342239565 0.0012553994443844317 0.0011806823369478981 0.9987158795188228 -0.003004950756335505
 -6.248726264644546e-05 -0.0003665502093591784 6.446116356455669e-05 0.0005775528019046639 0.9987158795188228 -0.003004950756335505 0.0012554008453955765 0.001180681591139704
0.01250521050438 0.0013715334389397035 0.002386541879942717 0.99856767709815 -0.006010728741492806 8.991582778332626e-05 0.0011555760872330918 -8.51649506204471e-05 -0.0007350158886672189
 0.99856767709815 -0.006010728741492806 0.0013715452927838404 0.0023865391903124702 -8.515434975945639e-05 -0.0007350130336585511 8.984853836781104e-05 0.0011555887278529773
 8.991582778332626e-05 0.0011555760872330918 -8.515434975945639e-05 -0.0007350130336585511 0.0013715354067419944 0.002386373947457448 0.9985676759348139 -0.006010896138175601
 -8.51649506204471e-05 -0.0007350158886672189 8.984853836781104e-05 0.0011555887278529773 0.9985676759348139 -0.006010896138175601 0.001371541010874176 0.002386372354677478
0.01875781575657 0.001495498798416634 0.003609825633353517 0.9984083498746411 -0.00902495002629613 0.00011978440319969525 0.0017344848095019075 -0.00011151116312915001 -0.0011049195281674403
 0.9984083498746411 -0.00902495002629613 0.0014955254246686762 0.0036098216059633234 -0.00011148751025354112 -0.001104915637615105 0.00011963318107289921 0.001734507241752333
 0.00011978440319969525 0.0017344848095019075 -0.00011148751025354112 -0.001104915637615105 0.001495503630480671 0.003609574053261312 0.9984083476837204 -0.009025200906656431
 -0.00011151116312915001 -0.0011049195281674403 0.00011963318107289921 0.001734507241752333 0.9984083476837204 -0.009025200906656431 0.0014955162422835948 0.003609571513865106
0.02501042100875 0.001627491516543638 0.004848964291816844 0.9982377487610874 -0.012049043760131765 0.00015413516900190154 0.002314325471027065 -0.00014158273622996955 -0.001476128652150203
 0.9982377487610874 -0.012049043760131765 0.0016275387866111592 0.004848958919361288 -0.0001415409485497539 -0.0014761240413404407 0.0001538664486136276 0.002314360420690142
 0.00015413516900190154 0.002314325471027065 -0.0001415409485497539 -0.0014761240413404407 0.0016275004493938679 0.004848629198844413 0.9982377452426079 -0.01204937806468796
 -0.00014158273622996955 -0.001476128652150203 0.0001538664486136276 0.002314360420690142 0.9982377452426079 -0.01204937806468796 0.001627522878857567 0.004848625616301659
0.03126302626094 0.0017676993768697567 0.006103133491773203 0.9980557148637172 -0.015083689387190784 0.0001930201569202103 0.0028950995503776522 -0.00017543536680884072 -0.0018485587284332102
 0.9980557148637172 -0.015083689387190784 0.0017677731486594815 0.00610312675974789 -0.0001753704076271169 -0.001848553755174919 0.0001926002852873415 0.0028951500509839826
 0.0001930201569202103 0.0028950995503776522 -0.0001753704076271169 -0.001848553755174919 0.0017677136397081612 0.006102715001993985 0.998055709718937 -0.0150841070802661
 -0.00017543536680884072 -0.0018485587284332102 0.0001926002852873415 0.0028951500509839826 0.998055709718937 -0.0150841070802661 0.0017677487037294525 0.006102710283165055
0.037515631513130004 0.0019163062519441168 0.007371815845400846 0.9978620846373555 -0.01812925487368895 0.00023649156248537593 0.0034767890930432073 -0.00021312401052745033 -0.002222142297770529
 0.9978620846373555 -0.01812925487368895 0.001916412372157963 0.007371807732418563 -0.00021303088405408532 -0.0022221373626811407 0.00023588678308235985 0.003476858489544319
 0.00023649156248537593 0.0034767890930432073 -0.00021303088405408532 -0.0022221373626811407 0.0019163270674928045 0.007371314070140168 0.9978620775690327 -0.01812975592962681
 -0.00021312401052745033 -0.002222142297770529 0.00023588678308235985 0.003476858489544319 0.9978620775690327 -0.01812975592962681 0.00191637759084977 0.007371308125633363
0.043768236765320004 0.0020734939105694606 0.008654642047480248 0.9976566917642637 -0.02118595555585977 0.0002846015385879118 0.0040593660849066035 -0.00025470303565780484 -0.0025968195885892526
 0.9976566917642637 -0.02118595555585977 0.0020736382165076495 0.008654632525582294 -0.00025457678390283274 -0.0025968151352725255 0.00028377798239997683 0.004059458037796008
 0.0002846015385879118 0.0040593660849066035 -0.00025457678390283274 -0.0025968151352725255 0.0020735224926001126 0.008654057092079849 0.9976566824734464 -0.021186539960376696
 -0.00025470303565780484 -0.0025968195885892526 0.00028377798239997683 0.004059458037796008 0.9976566824734464 -0.021186539960376696 0.0020735913088001596 0.00865404983644589
0.050020842017509996 0.002239442861971724 0.009951325219404061 0.9974393680708447 -0.024253919748941175 0.00033740207871256944 0.004642796325408289 -0.0003002262887939753 -0.0029725346319405925
 0.9974393680708447 -0.024253919748941175 0.002239631182599561 0.00995131425428278 -0.000300061989519791 -0.002972531147109896 0.0003363257587988274 0.004642914815068523
 0.00033740207871256944 0.004642796325408289 -0.000300061989519791 -0.002972531147109896 0.002239480417608459 0.009950657192610905 0.9974393562585141 -0.02425458748998603
 -0.0003002262887939753 -0.0029725346319405925 0.0003363257587988274 0.004642914815068523 0.9974393562585141 -0.02425458748998603 0.0022395703694715052 0.009950648544541607
0.055454545454549996 0.002390912350801628 0.011089251020536334 0.9972406862922224 -0.026929279027632414 0.0003871368620268997 0.005150478020285652 -0.0003430320193208554 -0.0032998431464177466
 0.9972406862922224 -0.026929279027632414 0.00239114364986353 0.011089238768544073 -0.00034283068486257043 -0.0032998409320514964 0.0003858131872635316 0.005150623055551083
 0.0003871368620268997 0.005150478020285652 -0.00034283068486257043 -0.0032998409320514964 0.0023909586798437107 0.011088510886559521 0.9972406720453743 -0.02693001918908965
 -0.0003430320193208554 -0.0032998431464177466 0.0003858131872635316 0.005150623055551083 0.9972406720453743 -0.02693001918908965 0.002391069315790005 0.01108850096580699
0.056273447269699996 0.0024143328067498452 0.011261628680618453 0.9972099440521676 -0.02733322092841965 0.0003949449380132226 0.005227041326389942 -0.00034974712272856236 -0.0033492333511800777
 0.9972099440521676 -0.02733322092841965 0.0024145709640451193 0.011261616231772503 -0.00034953988807676447 -0.003349231364748176 0.0003935817463360771 0.005227190657546373
 0.0003949449380132226 0.005227041326389942 -0.00034953988807676447 -0.003349231364748176 0.002414380536469261 0.011260877686786961 0.9972099294188709 -0.02733397200385198
 -0.00034974712272856236 -0.0033492333511800777 0.0003935817463360771 0.005227190657546373 0.9972099294188709 -0.02733397200385198 0.002414494476904378 0.011260867569368472
0.06252605252188 0.00259834289100905 0.0125853482290084 0.9969682492019762 -0.03042389540204388 0.00045728157529604786 0.0058120593445111605 -0.00040331840316898 -0.003726862518693014
 0.9969682492019762 -0.03042389540204388 0.002598636700833936 0.012585334249884937 -0.00040306337866585995 -0.0037268626038597253 0.00045559728096071473 0.005812244150735587
 0.00045728157529604786 0.0058120593445111605 -0.00040306337866585995 -0.0037268626038597253 0.0025984019883981925 0.01258451437155164 0.996968231447477 -0.030424729816511887
 -0.00040331840316898 -0.003726862518693014 0.00045559728096071473 0.005812244150735587 0.996968231447477 -0.030424729816511887 0.0025985427809930134 0.012584502712393562
0.06877865777407 0.002791651856436772 0.013922301571739144 0.9967141122396546 -0.03352595283219003 0.0005244631048019863 0.006397806002709534 -0.00046099250500291597 -0.004105369124348294
 0.9967141122396546 -0.03352595283219003 0.0027920071298031383 0.013922286009786247 -0.00046068486891611755 -0.004105371897668042 0.0005224233533675807 0.00639803125098383
 0.0005244631048019863 0.006397806002709534 -0.00046068486891611755 -0.004105371897668042 0.0027917235085668343 0.013921384958145936 0.9967140910623028 -0.03352687059199263
 -0.00046099250500291597 -0.004105369124348294 0.0005224233533675807 0.00639803125098383 0.9967140910623028 -0.03352687059199263 0.002791894028173355 0.013921371689551284
0.07503126302626001 0.002994438128221105 0.015272321639327657 0.9964473612764433 -0.036639382875344094 0.000596540254664838 0.00698423467687074 -0.0005228213014633294 -0.004484699979623763
 0.9964473612764433 -0.036639382875344094 0.0029948606719994286 0.01527230443612987 -0.0005224562642628353 -0.004484706101076762 0.0005941105680177338 0.006984505672185252
 0.000596540254664838 0.00698423467687074 -0.0005224562642628353 -0.004484706101076762 0.0029945235168089565 0.015271322373392083 0.9964473363744485 -0.036640383996398504
 -0.0005228213014633294 -0.004484699979623763 0.0005941105680177338 0.006984505672185252 0.9964473363744485 -0.036640383996398504 0.00299472665035772 0.015271307432528304
0.08128386827845 0.0032068798660764555 0.016635252116594175 0.9961678239470737 -0.03976415960568306 0.0006735633291300035 0.007571296754667631 -0.0005888561485555971 -0.004864801450525124
 0.9961678239470737 -0.03976415960568306 0.00320737548418622 0.016635233207914886 -0.000588428952635286 -0.004864811623577318 0.0006707091060727927 0.0075716191446288375
 0.0006735633291300035 0.007571296754667631 -0.000588428952635286 -0.004864811623577318 0.003206980166524199 0.016634170306411077 0.9961677950168898 -0.03976524410553137
 -0.0005888561485555971 -0.004864801450525124 0.0006707091060727927 0.0075716191446288375 0.9961677950168898 -0.03976524410553137 0.0032072188134464707 0.016634153635426252
0.08753647353064001 0.003429154989221634 0.01801094436183347 0.9958753275157427 -0.042900244551346306 0.0007555821732552197 0.00815894181118637 -0.0006591478665430762 -0.005245619274738749
 0.9958753275157427 -0.042900244551346306 0.003429729483244069 0.018010923677668503 -0.0006586537859615196 -0.005245634246394907 0.0007522686904200926 0.008159321590644529
 0.0007555821732552197 0.00815894181118637 -0.0006586537859615196 -0.005245634246394907 0.0034292713715284953 0.018009780114909 0.9958752942526244 -0.04290141245410091
 -0.0006591478665430762 -0.005245619274738749 0.0007522686904200926 0.008159321590644529 0.9958752942526244 -0.04290141245410091 0.00342954844447909 0.01800976166107743
0.09378907878283 0.0036614411835973353 0.019399255203029233 0.9955696989669011 -0.046047588854663084 0.0008426461392141299 0.008747117734640316 -0.0007337467189137822 -0.005627098429763486
 0.9955696989669011 -0.046047588854663084 0.0036621003539282766 0.019399232667587488 -0.0007331810592859571 -0.00562711899061882 0.00083883855243205 0.008747561250320167
 0.0008426461392141299 0.008747117734640316 -0.0007331810592859571 -0.00562711899061882 0.0036615748126963446 0.01939800863102926 0.9955696610651277 -0.04604884018633281
 -0.0007337467189137822 -0.005627098429763486 0.00083883855243205 0.008747561250320167 0.9955696610651277 -0.04604884018633281 0.0036618932382283904 0.01939798834686097
0.100041684035 0.0039039158980892427 0.020800045318918 0.9952507650862192 -0.049206134848647255 0.0009348040537129507 0.00933577081854818 -0.0008127023896412096 -0.006009183035705419
 0.9952507650862192 -0.049206134848647255 0.003904665544674818 0.020800020850702972 -0.0008120604880705998 -0.0060092100199876505 0.0009304673996171695 0.009336284773690142
 0.0009348040537129507 0.00933577081854818 -0.0008120604880705998 -0.0060092100199876505 0.0039040679335509785 0.02079871653291281 0.995250722237922 -0.04920746964197609
 -0.0008127023896412096 -0.006009183035705419 0.0009304673996171695 0.009336284773690142 0.995250722237922 -0.04920746964197609 0.0039044306527696083 0.020798694376234047
0.1059090909091 0.0041408768969736255 0.02212576624046506 0.9949392240051116 -0.052180225003191125 0.001025960376910008 0.009888544094879938 -0.0008908001188933386 -0.006368228972014227
 0.9949392240051116 -0.052180225003191125 0.004141716721584662 0.022125739879252097 -0.0008900824595744917 -0.006368262781626941 0.0010210953459304831 0.009889130568165887
 0.001025960376910008 0.009888544094879938 -0.0008900824595744917 -0.006368262781626941 0.0041410472552628995 0.02212436040784903 0.9949391762338632 -0.052181638150166805
 -0.0008908001188933386 -0.006368228972014227 0.0010210953459304831 0.009889130568165887 0.9949391762338632 -0.052181638150166805 0.00414145422792761 0.02212433646047569
0.1062942892872 0.0041567563307792115 0.022213178018932116 0.9949183525326132 -0.0523758172359462 0.0010321041860310732 0.00992484582980165 -0.0008960639590570237 -0.0063918162833405045
 0.9949183525326132 -0.0523758172359462 0.004157602254314455 0.02221315153064888 -0.0008953411841752934 -0.006391850568951548 0.0010272033839112881 0.009925437288804377
 0.0010321041860310732 0.00992484582980165 -0.0008953411841752934 -0.006391850568951548 0.00415692792753095 0.02221176713105117 0.9949183044286715 -0.052377235528725134
 -0.0008960639590570237 -0.0063918162833405045 0.0010272033839112881 0.009925437288804377 0.9949183044286715 -0.052377235528725134 0.004157337896795145 0.022211743065095574
0.11254689453939999 0.0044201394090133475 0.023638518307220854 0.9945722879065505 -0.05555656398477484 0.0011345942162466907 0.010514286061334055 -0.000983879878862367 -0.006774940378792396
 0.9945722879065505 -0.05555656398477484 0.004421087411334788 0.02363848970579117 -0.0009830716308164864 -0.006774982887342252 0.0011290940701767637 0.010514962454392202
 0.0011345942162466907 0.010514286061334055 -0.0009830716308164864 -0.006774982887342252 0.004420331717276396 0.023637025433129233 0.9945722342357546 -0.0555580658174101
 -0.000983879878862367 -0.006774940378792396 0.0011290940701767637 0.010514962454392202 0.9945722342357546 -0.0555580658174101 0.0044207919088678 0.02363699942661517
0.11879949979160001 0.004694241763619145 0.025075932155144216 0.99421239781311 -0.058748297017887224 0.001242321204145371 0.01110403337267261 -0.0010761979457602423 -0.0071584965015681744
 0.99421239781311 -0.058748297017887224 0.004695297649084196 0.025075901341647937 -0.0010752996564046813 -0.007158548198398013 0.0012361864051835198 0.011104802500402192
 0.001242321204145371 0.01110403337267261 -0.0010752996564046813 -0.007158548198398013 0.004694455929492738 0.02507435741269847 0.99421233826254 -0.05874988243477087
 -0.0010761979457602423 -0.0071584965015681744 0.0012361864051835198 0.011104802500402192 0.99421233826254 -0.05874988243477087 0.00469496933208131 0.02507432943989452
0.1250521050438 0.004979239699334469 0.026525285922556836 0.9938385089231455 -0.06195093275401209 0.0013553315577498946 0.011694028224072015 -0.0011730652747889113 -0.007542424770286354
 0.9938385089231455 -0.06195093275401209 0.004980409275519861 0.02652525279212848 -0.0011720724077273407 -0.007542486664492393 0.0013485266865444242 0.01169489826214468
 0.0013553315577498946 0.011694028224072015 -0.0011720724077273407 -0.007542486664492393 0.00497947686468363 0.026523629428448752 0.9938384431779018 -0.061952601806913234
 -0.0011730652747889113 -0.007542424770286354 0.0013485266865444242 0.01169489826214468 0.9938384431779018 -0.061952601806913234 0.004980046484519258 0.026523599469155654
0.131304710296 0.005275309161652955 0.0279864458884095 0.9934504480327219 -0.06516438254150127 0.0014736710023937987 0.0122842097020394 -0.0012745282715725162 -0.007926664218332165
 0.9934504480327219 -0.06516438254150127 0.00527659824025888 0.02798641033017893 -0.0012734363223680968 -0.007926737362780928 0.001466160531666904 0.01228518920582652
 0.0014736710023937987 0.0122842097020394 -0.0012734363223680968 -0.007926737362780928 0.005275570464358514 0.027984707763770045 0.9934503757750888 -0.06516613528396582
 -0.0012745282715725162 -0.007926664218332165 0.001466160531666904 0.01228518920582652 0.9934503757750888 -0.06516613528396582 0.005276199325601928 0.027984675803393807
0.1375573155481 0.005506340405116775 0.02926872488578095 0.9931243443604281 -0.06819795162992025 0.001580148728508453 0.01285486582200664 -0.001363408938596613 -0.008291503878735833
 0.9931243443604281 -0.06819795162992025 0.005507755652758254 0.02926868644789428 -0.0013622115385439567 -0.008291588131384524 0.001571916891158092 0.012855951771629192
 0.001580148728508453 0.01285486582200664 -0.0013622115385439567 -0.008291588131384524 0.005506627792134569 0.02926690470171644 0.9931242652981203 -0.06819978807460654
 -0.001363408938596613 -0.008291503878735833 0.001571916891158092 0.012855951771629192 0.9931242652981203 -0.06819978807460654 0.005507318110904685 0.029266871412344585
0.1438099208003 0.00574519070187233 0.030545587992240584 0.9927873296902727 -0.0712251768923996 0.0016909137212398082 0.013423963111689745 -0.0014558470778000534 -0.00865491083141871
 0.9927873296902727 -0.0712251768923996 0.005746738083962548 0.030545546491691812 -0.0014545394321365142 -0.008655007199490375 0.0016819284186752163 0.013425163152200756
 0.0016909137212398082 0.013423963111689745 -0.0014545394321365142 -0.008655007199490375 0.005745505452024874 0.030543685814969402 0.9927872435077651 -0.07122709708924616
 -0.0014558470778000534 -0.00865491083141871 0.0016819284186752163 0.013425163152200756 0.9927872435077651 -0.07122709708924616 0.005746260124402594 0.030543651224677403
0.1500625260525 0.005991791592714287 0.03181696817036931 0.9924394750127569 -0.07424602338495512 0.0018059364049718123 0.013991468718383996 -0.0015518139069039935 -0.009016852985574125
 0.9924394750127569 -0.07424602338495512 0.005993477087384722 0.03181692341254738 -0.00155039122881039 -0.009016962516086507 0.0017961656670317642 0.013992790769908147
 0.0018059364049718123 0.013991468718383996 -0.00155039122881039 -0.009016962516086507 0.005992134990770067 0.03181498406600528 0.9924393813931516 -0.07424802738710432
 -0.0015518139069039935 -0.009016852985574125 0.0017961656670317642 0.013992790769908147 0.9924393813931516 -0.07424802738710432 0.005992956919016351 0.03181494820282662
0.15631513130469998 0.006246074310719927 0.033082800662819316 0.9920808514812204 -0.077260455565213 0.0019251869599102266 0.014557350211148649 -0.0016512803861963125 -0.009377298837680974
