! Created with skrf 1.8.0 (http://scikit-rf.org).
# GHz S RI R 50.0 
!freq ReS11 ImS11 ReS12 ImS12 ReS13 ImS13
! ReS14 ImS14
! ReS21 ImS21 ReS22 ImS22 ReS23 ImS23
! ReS24 ImS24
! ReS31 ImS31 ReS32 ImS32 ReS33 ImS33
! ReS34 ImS34
! ReS41 ImS41 ReS42 ImS42 ReS43 ImS43
! ReS44 ImS44
!
0.0 0.001149059047657 0.0 0.9988509409427 0.0 4.383170784118e-05 0.0 -4.383170809663e-05 5.367836102169905e-21
 0.9988509409427 0.0 0.001149059047658 0.0 -4.383170809593e-05 5.36783610208418e-21 4.383170784072e-05 0.0
 4.383170784118e-05 0.0 -4.383170809593e-05 5.36783610208418e-21 0.001149059052448 0.0 0.9988509409475 0.0
 -4.383170809663e-05 5.367836102169905e-21 4.383170784072e-05 0.0 0.9988509409475 0.0 0.00114905905249 0.0
0.005 0.0012354545934826868 0.0009372785713481094 0.9987417594664221 -0.0024083289948846117 6.139290394668776e-05 0.0005028139795676016 -5.959470317560081e-05 -0.0003122973682122121
 0.9987417594664221 -0.0024083289948846117 0.0012354584136084028 0.0009372762927703879 -5.9594819446161e-05 -0.0003122974062918803 6.138317530596861e-05 0.0005028178890086862
 6.139290394668776e-05 0.0005028139795676016 -5.9594819446161e-05 -0.0003122974062918803 0.001235455118750602 0.0009373454719581327 0.998741759797518 -0.0024082619383216978
 -5.959470317560081e-05 -0.0003122973682122121 6.138317530596861e-05 0.0005028178890086862 0.998741759797518 -0.0024082619383216978 0.0012354585448468825 0.0009373434991686225
0.006252605252188 0.0012578609925665107 0.0011753364846832167 0.9987133041368904 -0.0030110407441346428 6.626576929071764e-05 0.0006287681709655505 -6.39294517330189e-05 -0.0003907950228390078
 0.9987133041368904 -0.0030110407441346428 0.0012578669639693152 0.0011753335327341892 -6.392963307159187e-05 -0.0003907950687843639 6.625057146608588e-05 0.0006287732076355817
 6.626576929071764e-05 0.0006287681709655505 -6.392963307159187e-05 -0.0003907950687843639 0.0012578617362095275 0.0011754200929463448 0.9987133045768705 -0.0030109569333711217
 -6.39294517330189e-05 -0.0003907950228390078 6.625057146608588e-05 0.0006287732076355817 0.9987133045768705 -0.0030109569333711217 0.0012578670910569625 0.001175417532575254
0.01250521050438 0.0013743427175705388 0.0023757921099053117 0.9985645835681696 -0.006023109448024502 9.34483114844336e-05 0.001257915834215686 -8.790297428965347e-05 -0.0007836660076220155
 0.9985645835681696 -0.006023109448024502 0.0013743665648256573 0.0023757851535697308 -8.790369403159795e-05 -0.0007836660813545738 9.338777813734233e-05 0.0012579275195269662
 9.34483114844336e-05 0.001257915834215686 -8.790369403159795e-05 -0.0007836660813545738 0.001374345107469625 0.0023759590223137454 0.9985645847419601 -0.006022942034159665
 -8.790297428965347e-05 -0.0007836660076220155 9.338777813734233e-05 0.0012579275195269662 0.9985645847419601 -0.006022942034159665 0.0013743664807086809 0.002375952945919696
0.01875781575657 0.0014987053774923609 0.003593841481095742 0.9984046326718955 -0.009043592467655303 0.00012543307347419373 0.0018879193496909245 -0.00011581461126865207 -0.0011780518814206832
 0.9984046326718955 -0.009043592467655303 0.0014987589718448724 0.0035938293973616538 -0.00011581622353118452 -0.0011780519606411463 0.00012529725880936043 0.0018879395863111222
 0.00012543307347419373 0.0018879193496909245 -0.00011581622353118452 -0.0011780519606411463 0.0014987103317310392 0.0035940914623507386 0.9984046348876222 -0.009043341534808324
 -0.00011581461126865207 -0.0011780518814206832 0.00012529725880936043 0.0018879395863111222 0.9984046348876222 -0.009043341534808324 0.0014987583429619778 0.003594080856900167
0.02501042100875 0.0016311468536270022 0.00482782475751564 0.998233300736608 -0.01207400608806265 0.00016227461320696411 0.0025188442418196248 -0.00014772537501378573 -0.0015737998934202383
 0.998233300736608 -0.01207400608806265 0.001631242044565668 0.004827806352890493 -0.00014772823216619457 -0.0015737999514857353 0.00016203365357074167 0.002518875197927215
 0.00016227461320696411 0.0025188442418196248 -0.00014772823216619457 -0.0015737999514857353 0.0016311552917546977 0.0048281575821610785 0.9982333043031011 -0.012073671655761769
 -0.00014772537501378573 -0.0015737998934202383 0.00016203365357074167 0.002518875197927215 0.9982333043031011 -0.012073671655761769 0.0016312405271239091 0.0048281413770584125
0.03126302626094 0.001771856398984424 0.006076913748582187 0.9980504276406181 -0.015115030400654672 0.00020402823691979789 0.0031506966370482697 -0.00018369493654336506 -0.001970814161747536
 0.9980504276406181 -0.015115030400654672 0.0017720050178923162 0.006076887758226524 -0.0001836993895653088 -0.001970814167591395 0.00020365231493350115 0.0031507407447815316
 0.00020402823691979789 0.0031506966370482697 -0.0001836993895653088 -0.001970814167591395 0.0017718692399506849 0.006077329168425926 0.99805043286619 -0.01511461245601819
 -0.00018369493654336506 -0.001970814161747536 0.00020365231493350115 0.0031507407447815316 0.99805043286619 -0.01511461245601819 0.0017720022559328849 0.00607730623498995
0.037515631513130004 0.0019210193124403008 0.007340588172748581 0.9978558485990774 -0.01816703300368734 0.0002507494575707613 0.003783459787385597 -0.0002237821067690022 -0.002369019138238601
 0.9978558485990774 -0.01816703300368734 0.001921233174417284 0.007340553259880104 -0.00022378850542412784 -0.0023690190563415824 0.00025020878438245496 0.00378351974376979
 0.0002507494575707613 0.003783459787385597 -0.00022378850542412784 -0.0023690190563415824 0.00192103747607719 0.007341085906411866 0.9978558557938305 -0.018166531511593503
 -0.0002237821067690022 -0.002369019138238601 0.00025020878438245496 0.00378351974376979 0.9978558557938305 -0.018166531511593503 0.0019212288012221454 0.007341055057342985
0.043768236765320004 0.0020788187533339973 0.008618476258234293 0.9976493960520667 -0.021230228356347275 0.0003024937528019879 0.004417105169442251 -0.0002680450226176993 -0.0027683484970894502
 0.9976493960520667 -0.021230228356347275 0.0020791096584395707 0.00861843101336574 -0.0002680537155188967 -0.0027683482874136887 0.0003017585582385632 0.004417183938084915
 0.0003024937528019879 0.004417105169442251 -0.0002680537155188967 -0.0027683482874136887 0.0020788431616117443 0.008619055989235548 0.9976494055304993 -0.0212296432609131
 -0.0002680450226176993 -0.0027683484970894502 0.0003017585582385632 0.004417183938084915 0.9976494055304993 -0.0212296432609131 0.002079103298083348 0.008619015978257736
0.050020842017509996 0.002245436595224807 0.009910288879839859 0.9974309005938115 -0.02430474359495964 0.0003593164307220215 0.0050515970673653005 -0.00031654122643372126 -0.003168740539651121
 0.9974309005938115 -0.02430474359495964 0.0022458163292323695 0.009910231820186225 -0.000316552561115995 -0.0031687401576128565 0.00035835695739059567 0.005051697880477608
 0.0003593164307220215 0.0050515970673653005 -0.000316552561115995 -0.0031687401576128565 0.0022454681696996697 0.009910950263656626 0.9974309126724977 -0.024304074812144704
 -0.00031654122643372126 -0.003168740539651121 0.00035835695739059567 0.005051697880477608 0.9974309126724977 -0.024304074812144704 0.002245807593836395 0.009910899785092592
0.055454545454549996 0.0023975347866912883 0.011044035256078227 0.9972311085343863 -0.026985840633164532 0.0004128640882848695 0.005603645743556011 -0.00036216811413352235 -0.0035175102763563668
 0.9972311085343863 -0.026985840633164532 0.002398001276103893 0.011043966667449789 -0.0003621820259547029 -0.0035175097047608303 0.0004116855506134831 0.0056037685491889585
 0.0004128640882848695 0.005603645743556011 -0.0003621820259547029 -0.0035175097047608303 0.0023975733372492225 0.011044767278841674 0.997231123133084 -0.026985099051331153
 -0.00036216811413352235 -0.0035175102763563668 0.0004116855506134831 0.0056037685491889585 0.997231123133084 -0.026985099051331153 0.0023979901534052607 0.011044706596842159
0.056273447269699996 0.0024210538740882265 0.011215787245203236 0.9972001914965615 -0.027390650799278465 0.0004212725397928133 0.0056868948157559815 -0.0003693277011967589 -0.0035701359397443994
 0.9972001914965615 -0.027390650799278465 0.0024215342085494064 0.011215716814089907 -0.00036934202404720996 -0.003570135336172781 0.0004200590396695152 0.005687021176342698
 0.0004212725397928133 0.0056868948157559815 -0.00036934202404720996 -0.003570135336172781 0.0024210935361663167 0.011216529886322744 0.9972002064961171 -0.027389898239465558
 -0.0003693277011967589 -0.0035701359397443994 0.0004200590396695152 0.005687021176342698 0.9972002064961171 -0.027389898239465558 0.002421522699366085 0.01121646757471072
0.06252605252188 0.0026058510461581755 0.012534765092328547 0.9969570970470012 -0.030487984747657296 0.0004884168026506553 0.006322954029243097 -0.0004264608812227602 -0.00397247650302842
 0.9969570970470012 -0.030487984747657296 0.0026064437389842756 0.012534679658546736 -0.00042647853755426574 -0.003972475624125009 0.00048691953528163796 0.0063231097133662345
 0.0004884168026506553 0.006322954029243097 -0.00042647853755426574 -0.003972475624125009 0.002605899716531755 0.012535588568031822 0.9969571152923217 -0.030487148291520348
 -0.0004264608812227602 -0.00397247650302842 0.00048691953528163796 0.0063231097133662345 0.9969571152923217 -0.030487148291520348 0.0026064290453183094 0.012535512997792249
0.06877865777407 0.0028000081366222774 0.01386703811768847 0.9967014447741477 -0.03359675344217857 0.0005608035619365638 0.006959727336645308 -0.0004879966504403258 -0.004375704422652429
 0.9967014447741477 -0.03359675344217857 0.0028007249321299033 0.013866935974880054 -0.0004880179844190535 -0.004375703209951805 0.0005589927936137739 0.006959916395744005
 0.0005608035619365638 0.006959727336645308 -0.0004880179844190535 -0.004375703209951805 0.002800066734607665 0.013867941960726797 0.9967014665948334 -0.03359583295768521
 -0.0004879966504403258 -0.004375704422652429 0.0005589927936137739 0.006959916395744005 0.9967014665948334 -0.03359583295768521 0.0028007066313009616 0.013867851645764985
0.07503126302626001 0.003003704827989307 0.015212437242265089 0.996433061619099 -0.0367169447965117 0.0006384867343588421 0.007597164839296175 -0.0005539903314542979 -0.0047797618117203355
 0.996433061619099 -0.0367169447965117 0.0030045574569221188 0.015212316608315705 -0.0005540156860764308 -0.004779760202056013 0.0006363327382682232 0.0075973916025195085
 0.0006384867343588421 0.007597164839296175 -0.0005540156860764308 -0.004779760202056013 0.003003774271129087 0.015213420949980747 0.9964330873499905 -0.03671594012944285
 -0.0005539903314542979 -0.0047797618117203355 0.0006363327382682232 0.0075973916025195085 0.9964330873499905 -0.03671594012944285 0.0030045351139462773 0.015213314343326295
0.08128386827845 0.0032171205107977513 0.01657080414965108 0.9961517740680563 -0.03984853105259435 0.000721519768760698 0.008235214416823695 -0.0006244966700803444 -0.00518459038935283
 0.9961517740680563 -0.03984853105259435 0.003218120690332915 0.016570663166092993 -0.0006245263871445547 -0.005184588314821781 0.0007189928255282641 0.008235483493377466
 0.000721519768760698 0.008235214416823695 -0.0006245263871445547 -0.005184588314821781 0.003217201713654905 0.01657186717578042 0.9961518040495215 -0.03984744203447769
 -0.0006244966700803444 -0.00518459038935283 0.0007189928255282641 0.008235483493377466 0.9961518040495215 -0.03984744203447769 0.003218093856892663 0.01657174266924404
0.08753647353064001 0.0034404343062864034 0.01794198818677246 0.995857408259785 -0.04299147183573481 0.000809955607122567 0.008873821938537155 -0.0006995698159425208 -0.005590131262272633
 0.995857408259785 -0.04299147183573481 0.0034415937399601103 0.017941824918206256 -0.0006996042359812775 -0.005590128650200174 0.0008070260060705139 0.008874138220019914
 0.000809955607122567 0.008873821938537155 -0.0006996042359812775 -0.005590128650200174 0.0034405281800920146 0.017943129944350118 0.9958574428379617 -0.04299029828065117
 -0.0006995698159425208 -0.005590131262272633 0.0008070260060705139 0.008874138220019914 0.9958574428379617 -0.04299029828065117 0.003441561954418653 0.01794298586812735
0.09378907878283 0.0036738250744807023 0.01932584415063356 0.9955497900788268 -0.04614571632487113 0.0009038466478305314 0.009512931412175475 -0.0007792633002645585 -0.005996324770191815
 0.9955497900788268 -0.04614571632487113 0.0036751554519229585 0.01932565658407852 -0.000779302762484302 -0.005996321543099585 0.0009004846883827188 0.009513300074913722
 0.0009038466478305314 0.009512931412175475 -0.000779302762484302 -0.005996321543099585 0.0036739325264762324 0.01932706401661263 0.9955498296066997 -0.046144458024527095
 -0.0007792633002645585 -0.005996324770191815 0.0009004846883827188 0.009513300074913722 0.9955498296066997 -0.046144458024527095 0.003675118238952204 0.019326898638927992
0.100041684035 0.003917471408202413 0.020722230671032953 0.9952287452375482 -0.049311204827842625 0.001003244709914246 0.010152485092116309 -0.000863630011658346 -0.006403110372996716
 0.9952287452375482 -0.049311204827842625 0.003918984405367232 0.020722016715318863 -0.0008636748539355174 -0.006403106448564219 0.0009994207035031188 0.010152911599463762
 0.001003244709914246 0.010152485092116309 -0.0008636748539355174 -0.006403106448564219 0.003917593341000219 0.02072352797611243 0.9952287900751653 -0.04930986156155737
 -0.000863630011658346 -0.006403110372996716 0.0009994207035031188 0.010152911599463762 0.9952287900751653 -0.04930986156155737 0.003918941275218198 0.020723339502865118
0.1059090909091 0.004155593816462293 0.02204386407788124 0.9949151119657171 -0.052291846432186644 0.0011015734444120293 0.010752989483562434 -0.0009470959970697091 -0.006785319244289564
 0.9949151119657171 -0.052291846432186644 0.004157288789243801 0.022043623386683957 -0.0009471461939562111 -0.006785314586276958 0.0010972888669980702 0.010753475498502828
 0.0011015734444120293 0.010752989483562434 -0.0009471461939562111 -0.006785314586276958 0.004155730154175051 0.02204523340955672 0.9949151621204837 -0.05229042321425514
 -0.0009470959970697091 -0.006785319244289564 0.0010972888669980702 0.010753475498502828 0.9949151621204837 -0.05229042321425514 0.0041572396482313706 0.022045021575962755
0.1062942892872 0.004171551618684609 0.02213100898266141 0.9948940993500598 -0.05248786996884097 0.0011082009980165784 0.010792423562427888 -0.0009527221707008724 -0.0068104265643327225
 0.9948940993500598 -0.05248786996884097 0.00417325889719643 0.022130766467841116 -0.0009527727294538509 -0.006810421855376918 0.001103885270129066 0.01079291366705786
 0.0011082009980165784 0.010792423562427888 -0.0009527727294538509 -0.006810421855376918 0.004171688929619853 0.022132383020247476 0.9948941498654054 -0.05248644149432887
 -0.0009527221707008724 -0.0068104265643327225 0.001103885270129066 0.01079291366705786 0.9948941498654054 -0.05248644149432887 0.004173209345735468 0.02213216959458197
0.11254689453939999 0.004436243714530434 0.023552041989711843 0.994545678002222 -0.05567563758447728 0.0012187660681042222 0.011432685798973578 -0.0010465913027718715 -0.0072182108074666275
 0.994545678002222 -0.05567563758447728 0.004438156921879556 0.023551768666447297 -0.0010466479129532247 -0.007218205221904886 0.0012139289606394005 0.011433245545146686
 0.0012187660681042222 0.011432685798973578 -0.0010466479129532247 -0.007218205221904886 0.004436397294564773 0.023553492009678913 0.9945457345707857 -0.05567412364385946
 -0.0010465913027718715 -0.0072182108074666275 0.0012139289606394005 0.011433245545146686 0.9945457345707857 -0.05567412364385946 0.0044381004294197475 0.023553251711652286
0.11879949979160001 0.0047117253746580025 0.02498519353508942 0.9941833068159783 -0.058874427416724204 0.0013349897934089824 0.012073209218339919 -0.0011452882101355604 -0.007626399485733571
 0.9941833068159783 -0.058874427416724204 0.004713856143777765 0.024984887074009834 -0.001145351205145734 -0.007626392926555163 0.0013296016672042995 0.012073844944119247
 0.0013349897934089824 0.012073209218339919 -0.001145351205145734 -0.007626392926555163 0.00471189610809657 0.02498671874640325 0.99418336982205 -0.05887282773378907
 -0.0011452882101355604 -0.007626399485733571 0.0013296016672042995 0.012073844944119247 0.99418336982205 -0.05887282773378907 0.004713792175127159 0.024986449592598162
0.1250521050438 0.004998173917510621 0.02643032781822118 0.9938068115118917 -0.06208415365880534 0.0014569213305786197 0.012713929717550353 -0.0012488629430193235 -0.008034927863489881
 0.9938068115118917 -0.06208415365880534 0.005000533866528781 0.026429985809299793 -0.0012489326546204994 -0.008034920228732255 0.001450952568115672 0.012714648057029047
 0.0014569213305786197 0.012713929717550353 -0.0012489326546204994 -0.008034920228732255 0.004998362680960275 0.0264319273890477 0.9938068813491526 -0.06208246793868307
 -0.0012488629430193235 -0.008034927863489881 0.001450952568115672 0.012714648057029047 0.9938068813491526 -0.06208246793868307 0.0050004618704473655 0.026431627332120768
0.131304710296 0.0052957662665317935 0.02788730892900912 0.9934160179701284 -0.06530472538637065 0.0015846090856985308 0.013354781706583035 -0.0013573647701391797 -0.008443730055884056
 0.9934160179701284 -0.06530472538637065 0.0052983669986270505 0.027886928880974233 -0.0013574415284308425 -0.00844372123860506 0.0015780300940013146 0.01335558959198362
 0.0015846090856985308 0.013354781706583035 -0.0013574415284308425 -0.00844372123860506 0.005295973928269808 0.027888981984375148 0.9934160950416785 -0.06530295331779185
 -0.0013573647701391797 -0.008443730055884056 0.0015780300940013146 0.01335558959198362 0.9934160950416785 -0.06530295331779185 0.005298286407038777 0.02788864891270075
0.1375573155481 0.005528269734351887 0.02916440399976577 0.9930871789928535 -0.06834440661685463 0.0016996617636147993 0.013975416569715323 -0.0014524083636656884 -0.008832460126620372
 0.9930871789928535 -0.06834440661685463 0.005531122895057858 0.02916399390805387 -0.0014524924973842045 -0.00883245012893011 0.0016924499470183777 0.013976311526344511
 0.0016996617636147993 0.013975416569715323 -0.0014524924973842045 -0.00883245012893011 0.005528496534536776 0.029166150043245624 0.9930872636241739 -0.06834254800440011
 -0.0014524083636656884 -0.008832460126620372 0.0016924499470183777 0.013976311526344511 0.9930872636241739 -0.06834254800440011 0.005531033903743992 0.02916579174216677
0.1438099208003 0.005768636339146815 0.030436030651272462 0.9927473312196499 -0.07137768238225385 0.0018193588531084405 0.014594382395933771 -0.0015512699469653216 -0.009219665241300709
 0.9927473312196499 -0.07137768238225385 0.005771753496844683 0.03043558887065154 -0.0015513617835948648 -0.009219653962379438 0.0018114859290882124 0.014595370714580733
 0.0018193588531084405 0.014594382395933771 -0.0015513617835948648 -0.009219653962379438 0.005768883019727718 0.030437848800404423 0.9927474238123484 -0.07137573691609247
 -0.0015512699469653216 -0.009219665241300709 0.0018114859290882124 0.014595370714580733 0.9927474238123484 -0.07137573691609247 0.005771655652052521 0.030437463951841142
0.1500625260525 0.006016796594400916 0.03170212073445053 0.9923965467385217 -0.07440451648916668 0.0019436685089440934 0.015211643675892152 -0.0016539185599329747 -0.00960531059558502
 0.9923965467385217 -0.07440451648916668 0.006020189300449839 0.0317016455484677 -0.0016540184253382845 -0.009605297930700241 0.0019351062999447266 0.015212731880347895
 0.0019436685089440934 0.015211643675892152 -0.0016540184253382845 -0.009605297930700241 0.006017063881558248 0.031704010072007155 0.9923966477025179 -0.0744024838466284
 -0.0016539185599329747 -0.00960531059558502 0.0019351062999447266 0.015212731880347895 0.9923966477025179 -0.0744024838466284 0.006020082141562088 0.03170359729789121
0.15631513130469998 0.006272680690920075 0.03296260840799353 0.9920348978148616 -0.07742487216499176 0.002072558618833621 0.015827165346609523 -0.001760322959826798 -0.009989362031812757
