! Created with skrf 1.8.0 (http://scikit-rf.org).
# GHz S RI R 50.0 
!freq ReS11 ImS11 ReS12 ImS12 ReS13 ImS13
! ReS14 ImS14
! ReS21 ImS21 ReS22 ImS22 ReS23 ImS23
! ReS24 ImS24
! ReS31 ImS31 ReS32 ImS32 ReS33 ImS33
! ReS34 ImS34
! ReS41 ImS41 ReS42 ImS42 ReS43 ImS43
! ReS44 ImS44
!
0.0 0.001473602708271 0.0 0.9985263972832 0.0 5.643183920238e-05 0.0 -5.643183964767e-05 6.910907179451576e-21
 0.9985263972832 0.0 0.001473602708299 0.0 -5.643183964793e-05 6.910907179483417e-21 5.643183920498e-05 0.0
 5.643183920238e-05 0.0 -5.643183964793e-05 6.910907179483417e-21 0.001473602704004 0.0 0.9985263972789 0.0
 -5.643183964767e-05 6.910907179451576e-21 5.643183920498e-05 0.0 0.9985263972789 0.0 0.001473602704026 0.0
0.005 0.0015852132271592244 0.0012111566845246409 0.9983852497961744 -0.0030866926253707862 7.812231373832047e-05 0.0005890655948005042 -7.608415577884605e-05 -0.00037549472167522726
 0.9983852497961744 -0.0030866926253707862 0.0015852262500250533 0.0012111491178320695 -7.608362749130936e-05 -0.0003754943836152626 7.803765563891765e-05 0.0005890977413623483
 7.812231373832047e-05 0.0005890655948005042 -7.608362749130936e-05 -0.0003754943836152626 0.001585212784497726 0.0012110897260110768 0.9983852494396438 -0.0030867596850804205
 -7.608415577884605e-05 -0.00037549472167522726 7.803765563891765e-05 0.0005890977413623483 0.9983852494396438 -0.0030867596850804205 0.0015852259810398405 0.001211081956998472
0.006252605252188 0.001614424349079728 0.0015186931001870555 0.9983480871672247 -0.003859127576592547 8.42831170098821e-05 0.0007366363191598767 -8.159814394566896e-05 -0.00046984966887905647
 0.9983480871672247 -0.003859127576592547 0.001614444705991086 0.001518683511406726 -8.159732135373614e-05 -0.00046984925345941653 8.415084507564736e-05 0.0007366780653826045
 8.42831170098821e-05 0.0007366363191598767 -8.159732135373614e-05 -0.00046984925345941653 0.001614423741537906 0.0015186094203882344 0.9983480866947405 -0.00385921138939493
 -8.159814394566896e-05 -0.00046984966887905647 8.415084507564736e-05 0.0007366780653826045 0.9983480866947405 -0.00385921138939493 0.0016144443707744396 0.0015185995660932116
0.01250521050438 0.001767843346531365 0.003069085356708472 0.9981516762572146 -0.007719088572702984 0.00011942361387699432 0.0014737500557497022 -0.00011269797438186119 -0.0009419825318579727
 0.9981516762572146 -0.007719088572702984 0.0017679246258093364 0.003069064863640443 -0.00011269472596065215 -0.0009419817800408098 0.00011889610071684957 0.0014738503534688745
 0.00011942361387699432 0.0014737500557497022 -0.00011269472596065215 -0.0009419817800408098 0.0017678414672302966 0.0030689183028833763 0.9981516749244174 -0.007719255961557385
 -0.00011269797438186119 -0.0009419825318579727 0.00011889610071684957 0.0014738503534688745 0.9981516749244174 -0.007719255961557385 0.0017679238493516656 0.00306889714771771
0.01875781575657 0.0019341826431211488 0.004641497028472823 0.9979369289082491 -0.011589284080039031 0.00016193337192778933 0.002211803920231135 -0.00014982368117195537 -0.0014157714848588344
 0.9979369289082491 -0.011589284080039031 0.0019343652671907595 0.004641464208255813 -0.00014981642773676614 -0.0014157704926381716 0.0001607482683666593 0.0022119827376125673
 0.00016193337192778933 0.002211803920231135 -0.00014981642773676614 -0.0014157704926381716 0.0019341788251740623 0.004641246787063371 0.9979369263324674 -0.011589534937871933
 -0.00014982368117195537 -0.0014157714848588344 0.0001607482683666593 0.0022119827376125673 0.9979369263324674 -0.011589534937871933 0.001934363958019515 0.004641212763938125
0.02501042100875 0.002113756283610069 0.006233752655381876 0.9977036004646226 -0.015471601665379357 0.00021189364462519098 0.0029508263324655917 -0.00019306503076424228 -0.0018910189363806065
 0.9977036004646226 -0.015471601665379357 0.00211408058538178 0.00623370599369109 -0.00019305220889591116 -0.0018910178181747572 0.00020978843598871603 0.002951106689820474
 0.00021189364462519098 0.0029508263324655917 -0.00019305220889591116 -0.0018910178181747572 0.002113749856967182 0.006233419378513017 0.9977035962672679 -0.015471935930302319
 -0.00019306503076424228 -0.0018910189363806065 0.00020978843598871603 0.002951106689820474 0.9977035962672679 -0.015471935930302319 0.0021140786651429105 0.00623337081497562
0.03126302626094 0.0023068653168818076 0.007844739276380694 0.9974514333478978 -0.019366857125135254 0.0002693861935849048 0.0036907820218859302 -0.0002425095095530961 -0.0023675861530906657
 0.9974514333478978 -0.019366857125135254 0.0023073715623518455 0.007844677170806667 -0.00024248956889890788 -0.0023675850419449225 0.0002660979547761007 0.0036911900101085564
 0.0002693861935849048 0.0036907820218859302 -0.00024248956889890788 -0.0023675850419449225 0.002306855600638342 0.00784432311225631 0.9974514271463185 -0.019367274750224497
 -0.0002425095095530961 -0.0023675861530906657 0.0002660979547761007 0.0036911900101085564 0.9974514271463185 -0.019367274750224497 0.0023073689574790663 0.007844258233777312
0.037515631513130004 0.0025138043949407534 0.009473736167362965 0.9971801638384015 -0.023275464687222084 0.00033449251256511284 0.0044316105302782 -0.00029824290783422023 -0.0028453547486229605
 0.9971801638384015 -0.023275464687222084 0.0025145327979406913 0.00947365692930439 -0.0002982143097741831 -0.0028453537963382784 0.0003297577966315387 0.0044321753425137465
 0.00033449251256511284 0.0044316105302782 -0.0002982143097741831 -0.0028453537963382784 0.002513790702862366 0.009473237272990417 0.9971801552513164 -0.02327596562817709
 -0.00029824290783422023 -0.0028453547486229605 0.0003297577966315387 0.0044321753425137465 0.9971801552513164 -0.02327596562817709 0.002514529444664071 0.009473154204428829
0.043768236765320004 0.002734864326477474 0.011120210891459455 0.9968895248159385 -0.027197640891837065 0.00040729346448867564 0.005173237910068263 -0.0003603495281076254 -0.003324214979763245
 0.9968895248159385 -0.027197640891837065 0.002735855060757716 0.011120112747305181 -0.0003603107450606221 -0.0033242143569661648 0.0004008482481617628 0.005173991877533078
 0.00040729346448867564 0.005173237910068263 -0.0003603107450606221 -0.0033242143569661648 0.0027348459689755644 0.011119629419396789 0.9968895134641567 -0.02719822512039671
 -0.0003603495281076254 -0.003324214979763245 0.0004008482481617628 0.005173991877533078 0.9968895134641567 -0.02719822512039671 0.002735850906090815 0.011119526185990153
0.050020842017509996 0.0029703332711135647 0.01278373499038029 0.9965792471421889 -0.031133488828749275 0.0004878690636368018 0.005915581561395862 -0.00042891226027056193 -0.003804060906017272
 0.9965792471421889 -0.031133488828749275 0.002971626480251561 0.012783616082463605 -0.0004288617751967102 -0.0038040608022286734 0.0004794487229437131 0.005916560190913459
 0.0004878690636368018 0.005915581561395862 -0.0004288617751967102 -0.0038040608022286734 0.0029703095507595503 0.012783071105490562 0.9965792326448155 -0.031134156316333688
 -0.00042891226027056193 -0.003804060906017272 0.0004794487229437131 0.005916560190913459 0.9965792326448155 -0.031134156316333688 0.0029716214775996645 0.012782945633415893
0.055454545454549996 0.003186887060811513 0.014242948765451319 0.9962934475066924 -0.034564988446796875 0.0005642670563966748 0.006561213488283976 -0.0004938018313786792 -0.004221780885658549
 0.9962934475066924 -0.034564988446796875 0.0031884757149149897 0.014242810239640255 -0.0004937399529196066 -0.004221781401532033 0.0005539148945792548 0.006562418686964509
 0.0005642670563966748 0.006561213488283976 -0.0004937399529196066 -0.004221781401532033 0.003186858109818788 0.014242213400566405 0.9962934299662917 -0.03456572826986837
 -0.0004938018313786792 -0.004221780885658549 0.0005539148945792548 0.006562418686964509 0.9962934299662917 -0.03456572826986837 0.003188469943878689 0.014242066841530468
0.056273447269699996 0.0032204973491496546 0.014463942613996833 0.9962490604645798 -0.03508303943710332 0.0005762983212782937 0.006658552600529609 -0.000504012597448628 -0.004284788020404149
 0.9962490604645798 -0.03508303943710332 0.0032221331559405104 0.014463801001094517 -0.0005039489036590493 -0.004284788644091145 0.0005656376256252462 0.006659794612833149
 0.0005762983212782937 0.006658552600529609 -0.0005039489036590493 -0.004284788644091145 0.0032204675637916434 0.014463196488206665 0.9962490424407972 -0.035083790160222984
 -0.000504012597448628 -0.004284788020404149 0.0005656376256252462 0.006659794612833149 0.9962490424407972 -0.035083790160222984 0.0032221272671295598 0.014463046604918733
0.06252605252188 0.003485640976986249 0.01616050777474055 0.995898693747576 -0.03904627418214277 0.0006726591241639655 0.007402057162509148 -0.0005857306207873482 -0.004766291948891036
 0.995898693747576 -0.03904627418214277 0.00348765949250689 0.016160341432370825 -0.0005856522218236342 -0.004766293527513365 0.0006594922421769494 0.00740360453089599
 0.0006726591241639655 0.007402057162509148 -0.0005856522218236342 -0.004766293527513365 0.003485604419786659 0.016159679587536894 0.9958986718167417 -0.039047108122205236
 -0.0005857306207873482 -0.004766291948891036 0.0006594922421769494 0.00740360453089599 0.9958986718167417 -0.039047108122205236 0.0034876526871642395 0.016159503021798586
0.06877865777407 0.003766047046168259 0.017873130777121684 0.9955278756519033 -0.043023138559522806 0.0007770281296380409 0.008145997179705926 -0.0006741449675980225 -0.005248467677037991
 0.9955278756519033 -0.043023138559522806 0.003768488377839269 0.01787293759761612 -0.0006740503771249697 -0.005248470457097941 0.0007610886436903275 0.008147895168777721
 0.0007770281296380409 0.008145997179705926 -0.0006740503771249697 -0.005248470457097941 0.0037660030054659705 0.017872220720673477 0.9955278494330647 -0.043024055697934264
 -0.0006741449675980225 -0.005248467677037991 0.0007610886436903275 0.008147895168777721 0.9955278494330647 -0.043024055697934264 0.0037684806333164516 0.017872015102349505
0.07503126302626001 0.004061997012806388 0.019601529627243004 0.9951363348276517 -0.04701355062281042 0.0008894806725133822 0.008890270877086723 -0.0007693327873341622 -0.005731209063299282
 0.9951363348276517 -0.04701355062281042 0.004064901273239289 0.019601307419491072 -0.0007692205292310089 -0.005731213310377167 0.0008705015994997241 0.008892568081383691
 0.0008894806725133822 0.008890270877086723 -0.0007692205292310089 -0.005731213310377167 0.004061944772160605 0.01960053790037585 0.9951363039388353 -0.04701455094719938
 -0.0007693327873341622 -0.005731209063299282 0.0008705015994997241 0.008892568081383691 0.9951363039388353 -0.04701455094719938 0.004064892573408679 0.01960030076002111
0.08128386827845 0.004373770928739812 0.021345434301121076 0.9947238001521519 -0.051017406655784046 0.0010100906773921443 0.009634773103681292 -0.0008713696914833302 -0.006214408519588938
 0.9947238001521519 -0.051017406655784046 0.004377178243589322 0.02134518079016434 -0.0008712382998407376 -0.006214414518380262 0.000987804494414569 0.009637521486172708
 0.0010100906773921443 0.009634773103681292 -0.0008712382998407376 -0.006214414518380262 0.004373709768149333 0.021344361115277384 0.9947237642113397 -0.05101849015437301
 -0.0008713696914833302 -0.006214408519588938 0.000987804494414569 0.009637521486172708 0.9947237642113397 -0.05101849015437301 0.004377168579936075 0.0213440898834173
0.08753647353064001 0.004701647435718849 0.023104582792413998 0.9942900009341735 -0.055034585069206624 0.0011389305757306299 0.01037939556524416 -0.0009803296976843806 -0.006697956794335218
 0.9942900009341735 -0.055034585069206624 0.004705597952133589 0.023104295618728694 -0.0009801777169370731 -0.006697964848680788 0.0011130692498071326 0.010382650495504525
 0.0011389305757306299 0.01037939556524416 -0.0009801777169370731 -0.006697964848680788 0.0047015766315821085 0.0231034283698441 0.9942899595587769 -0.05503575173274568
 -0.0009803296976843806 -0.006697956794335218 0.0011130692498071326 0.010382650495504525 0.9942899595587769 -0.05503575173274568 0.004705587322941058 0.023103120376096124
0.09378907878283 0.005045903734442668 0.024878718280887956 0.9938346670967042 -0.059064949181085354 0.001276071225334841 0.011124026993680848 -0.001096285170608269 -0.0071817428225039405
 0.9938346670967042 -0.059064949181085354 0.005050437629239503 0.02487839499937059 -0.00109611115563947 -0.007181753255411528 0.0012463662463485738 0.011127847285772
 0.001276071225334841 0.011124026993680848 -0.00109611115563947 -0.007181753255411528 0.005045822559355795 0.024877482855375718 0.993834619902843 -0.05906619900236178
 -0.001096285170608269 -0.0071817428225039405 0.0012463662463485738 0.011127847285772 0.993834619902843 -0.05906619900236178 0.005050426038812448 0.02487713532725712
0.100041684035 0.005406815532138098 0.026667587063119513 0.9933575293404908 -0.06310834923878104 0.0014215818315710007 0.01186855327768582 -0.001219306760026406 -0.007665653618324192
 0.9933575293404908 -0.06310834923878104 0.005411973020035679 0.02666722514190353 -0.0012191092763200887 -0.007665666771995714 0.0013877642482350233 0.011873001227570214
 0.0014215818315710007 0.01186855327768582 -0.0012191092763200887 -0.007665666771995714 0.0054067232560383064 0.02666627087918824 0.9933574759439903 -0.0631096822136511
 -0.001219306760026406 -0.007665653618324192 0.0013877642482350233 0.011873001227570214 0.9933574759439903 -0.0631096822136511 0.005411960479273144 0.026665880940699008
0.1059090909091 0.005760885200289216 0.02835942582223707 0.9928897166703129 -0.06691436384720222 0.0015658006150672775 0.012567012544065951 -0.0013412374020981617 -0.008119763654137925
 0.9928897166703129 -0.06691436384720222 0.005766664479928464 0.028359025260447385 -0.001341016600360477 -0.008119779689293585 0.0015278788211230676 0.012572109275875896
 0.0015658006150672775 0.012567012544065951 -0.001341016600360477 -0.008119779689293585 0.005760781840573138 0.028358034086984858 0.9928896571027829 -0.06691577485209693
 -0.0013412374020981617 -0.008119763654137925 0.0015278788211230676 0.012572109275875896 0.9928896571027829 -0.06691577485209693 0.005766651062679788 0.02835760164145622
0.1062942892872 0.005784656979356396 0.028470936988102945 0.9928583193009596 -0.06716462394113781 0.0015755298700799664 0.012612857562767312 -0.0013494633366956537 -0.008149574202624823
 0.9928583193009596 -0.06716462394113781 0.005790478321206999 0.02847053380702654 -0.0013492409604852762 -0.008149590438463226 0.0015373303281746302 0.01261799898531739
 0.0015755298700799664 0.012612857562767312 -0.0013492409604852762 -0.008149590438463226 0.005784552869267903 0.028469540301121213 0.9928582593162888 -0.0671660400686047
 -0.0013494633366956537 -0.008149574202624823 0.0015373303281746302 0.01261799898531739 0.9928582593162888 -0.0671660400686047 0.005790464846864153 0.028469104971038817
0.11254689453939999 0.006179700593506664 0.03028851626599891 0.9923367696941495 -0.07123360159187303 0.0017379810101217734 0.013356820334486695 -0.0014868219265601462 -0.008633387550998146
 0.9923367696941495 -0.07123360159187303 0.006186226104801263 0.03028806911483103 -0.0014865732450413433 -0.008633407249627958 0.0016951297931348634 0.013362724599996151
 0.0017379810101217734 0.013356820334486695 -0.0014865732450413433 -0.008633407249627958 0.006179583914615289 0.03028703934632418 0.9923367027349498 -0.07123510087013171
 -0.0014868219265601462 -0.008633387550998146 0.0016951297931348634 0.013362724599996151 0.9923367027349498 -0.07123510087013171 0.006186211719617486 0.03028655553626559
0.11879949979160001 0.006592217176227982 0.032120072541703175 0.9917926144589722 -0.07531510099328835 0.00190899903850545 0.014100319488052645 -0.001631447643859681 -0.009116974559857447
 0.9917926144589722 -0.07531510099328835 0.006599487235162416 0.032119578618049045 -0.0016311712553217284 -0.009116998121121564 0.001861226110101988 0.014107059558175417
 0.00190899903850545 0.014100319488052645 -0.0016311712553217284 -0.009116998121121564 0.006592087191369022 0.03211851567066973 0.9917925401373539 -0.07531668342385268
 -0.001631447643859681 -0.009116974559857447 0.001861226110101988 0.014107059558175417 0.9917925401373539 -0.07531668342385268 0.006599471967236152 0.03211798018284417
0.1250521050438 0.007022475721950353 0.033965352161405005 0.9912255888946568 -0.07940893215182562 0.0020886457839755807 0.014843230390334338 -0.0017834036227982262 -0.009600214024319934
 0.9912255888946568 -0.07940893215182562 0.0070305307783309024 0.03396480856829181 -0.0017830981369308823 -0.009600241867273072 0.002035680832581914 0.01485088285347238
 0.0020886457839755807 0.014843230390334338 -0.0017830981369308823 -0.009600241867273072 0.007022331692896024 0.033963715631393505 0.9912255068218288 -0.07941059773972658
 -0.0017834036227982262 -0.009600214024319934 0.002035680832581914 0.01485088285347238 0.9912255068218288 -0.07941059773972658 0.007030514661245956 0.03396312515606293
0.131304710296 0.00747074332346502 0.03582409958363871 0.9906354297961717 -0.08351489684448096 0.002276981042021965 0.015585425933507398 -0.0019427509487084046 -0.010082982628805786
 0.9906354297961717 -0.08351489684448096 0.00747962390674242 0.03582350332690958 -0.0019424149866819247 -0.010083015191713918 0.002218553526804394 0.015594071039570676
 0.002276981042021965 0.015585425933507398 -0.0019424149866819247 -0.010083015191713918 0.007470584510552521 0.03582238370120168 0.9906353395816345 -0.08351664559522386
 -0.0019427509487084046 -0.010082982628805786 0.002218553526804394 0.015594071039570676 0.9906353395816345 -0.08351664559522386 0.007479606978975492 0.03582173481388821
0.1375573155481 0.00783257116252094 0.037455081765608834 0.9901266255326503 -0.08739171823000003 0.0024499263110987074 0.016302950496910183 -0.0020854844200957137 -0.010541291973438652
 0.9901266255326503 -0.08739171823000003 0.007842321732630098 0.037454441773747425 -0.00208511614191642 -0.010541329291772986 0.002385903990344888 0.01631257396933862
 0.0024499263110987074 0.016302950496910183 -0.00208511614191642 -0.010541329291772986 0.007832397709339373 0.03745328634810731 0.9901265268097902 -0.08739355010843705
 -0.0020854844200957137 -0.010541291973438652 0.002385903990344888 0.01631257396933862 0.9901265268097902 -0.08739355010843705 0.007842303103370026 0.03745258844585697
0.1438099208003 0.008207086186087174 0.03907783989753153 0.9896000243796416 -0.0912590520088481 0.002629856596724224 0.017017670096367486 -0.002233921569790419 -0.010997045503571145
 0.9896000243796416 -0.0912590520088481 0.00821774800515712 0.03907715381786222 -0.0022335195300194717 -0.010997088002708372 0.002559993607927326 0.017028345126850676
 0.002629856596724224 0.017017670096367486 -0.0022335195300194717 -0.010997088002708372 0.008206897510807441 0.03907596520199613 0.9895999167617404 -0.0912609670132805
 -0.002233921569790419 -0.010997045503571145 0.002559993607927326 0.017028345126850676 0.9895999167617404 -0.0912609670132805 0.008217727550812064 0.03907521559006192
0.1500625260525 0.00859416127780404 0.04069224847391667 0.9890557571951191 -0.09511681199001007 0.0028167122658976592 0.017729515554571446 -0.002388004891436931 -0.011450178547459505
 0.9890557571951191 -0.09511681199001007 0.00860577571212524 0.04069151380706847 -0.002387567650077545 -0.011450226669464181 0.002740764131763238 0.017741318003065797
 0.0028167122658976592 0.017729515554571446 -0.002387567650077545 -0.011450226669464181 0.008593956807879841 0.04069029476398062 0.9890556402943498 -0.09511881011986432
 -0.002388004891436931 -0.011450178547459505 0.002740764131763238 0.017741318003065797 0.9890556402943498 -0.09511881011986432 0.008605753302519992 0.04068949059094794
0.15631513130469998 0.0089936684806125 0.0422981858129641 0.9884939554323912 -0.09896491209026975 0.0030104330103495488 0.018438418823952807 -0.0025476762006134504 -0.011900627759792544
