! Created with skrf 1.8.0 (http://scikit-rf.org).
# GHz S RI R 50.0 
!freq ReS11 ImS11 ReS12 ImS12 ReS13 ImS13
! ReS14 ImS14
! ReS21 ImS21 ReS22 ImS22 ReS23 ImS23
! ReS24 ImS24
! ReS31 ImS31 ReS32 ImS32 ReS33 ImS33
! ReS34 ImS34
! ReS41 ImS41 ReS42 ImS42 ReS43 ImS43
! ReS44 ImS44
!
0.0 0.001894733923926 0.0 0.9981052660757 0.0 7.418441921327e-05 0.0 -7.418441876192e-05 9.084971098339219e-21
 0.9981052660757 0.0 0.001894733923909 0.0 -7.418441876268e-05 9.084971098432291e-21 7.418441921062e-05 0.0
 7.418441921327e-05 0.0 -7.418441876268e-05 9.084971098432291e-21 0.001894733919503 0.0 0.9981052660713 0.0
 -7.418441876192e-05 9.084971098339219e-21 7.418441921062e-05 0.0 0.9981052660713 0.0 0.001894733919447 0.0
0.005 0.002039922072434666 0.001539275511189129 0.9979213153853281 -0.003968181951150492 0.00010627464828417655 0.0008754273466619289 -0.00010266456858155008 -0.0005391124137023634
 0.9979213153853281 -0.003968181951150492 0.00203994744300477 0.0015392607218539184 -0.00010266591908392334 -0.000539113513208398 0.00010611766314027095 0.0008754873545411421
 0.00010627464828417655 0.0008754273466619289 -0.00010266591908392334 -0.000539113513208398 0.0020399206885711257 0.0015392090989497884 0.9979213149917115 -0.003968248999257405
 -0.00010266456858155008 -0.0005391124137023634 0.00010611766314027095 0.0008754873545411421 0.9979213149917115 -0.003968248999257405 0.002039948043012788 0.0015391930390726044
0.006252605252188 0.002078373794308755 0.0019301417087119663 0.9978722221414614 -0.004961141218826201 0.00011569004997720484 0.0010946535988027861 -0.0001108994796221154 -0.000674576546341629
 0.9978722221414614 -0.004961141218826201 0.0020784134526148712 0.0019301228900480932 -0.000110901580586195 -0.0006745779027701653 0.00011544478127554804 0.0010947315746473066
 0.00011569004997720484 0.0010946535988027861 -0.000110901580586195 -0.0006745779027701653 0.0020783717151624886 0.001930058691311555 0.9978722216106259 -0.004961225039029572
 -0.0001108994796221154 -0.000674576546341629 0.00011544478127554804 0.0010947315746473066 0.9978722216106259 -0.004961225039029572 0.0020784144757091077 0.0019300382702380767
0.01250521050438 0.002282964470247463 0.0039005031533363176 0.9976089631151375 -0.009922675150306808 0.000170989022263859 0.002189273948545107 -0.0001586633630887467 -0.0013522102729202658
 0.9976089631151375 -0.009922675150306808 0.0022831228218844445 0.0039004621757940216 -0.00015867163622068658 -0.0013522127866563548 0.0001700110832206842 0.002189462370007317
 0.000170989022263859 0.002189273948545107 -0.00015867163622068658 -0.0013522127866563548 0.0022829567141212322 0.003900337463844421 0.9976089615482643 -0.009922842542981591
 -0.0001586633630887467 -0.0013522102729202658 0.0001700110832206842 0.002189462370007317 0.9976089615482643 -0.009922842542981591 0.002283127469333877 0.003900293115039384
0.01875781575657 0.0025090300597499864 0.005898500651556049 0.9973151077887273 -0.014896590220229364 0.00024021838189716046 0.003284588302281168 -0.00021764092791636425 -0.0020317811952253505
 0.9973151077887273 -0.014896590220229364 0.00250938587909936 0.005898433959664483 -0.0002176593676902827 -0.0020317846237462565 0.00023802188418167678 0.0032849270682348596
 0.00024021838189716046 0.003284588302281168 -0.0002176593676902827 -0.0020317846237462565 0.002509013041495166 0.005898252540552803 0.9973151046906156 -0.014896841082470733
 -0.00021764092791636425 -0.0020317811952253505 0.00023802188418167678 0.0032849270682348596 0.9973151046906156 -0.014896841082470733 0.0025093967634373794 0.005898180471554397
0.02501042100875 0.0027570740616792615 0.007921212791733192 0.9969902581574458 -0.01988519299850399 0.0003235172344715059 0.0043805839267791885 -0.00028798928149447237 -0.0027128982316207244
 0.9969902581574458 -0.01988519299850399 0.0027577059695482785 0.00792111663961338 -0.00028802183092961457 -0.0027129022849447823 0.0003196163710201862 0.004381120154290247
 0.0003235172344715059 0.0043805839267791885 -0.00028802183092961457 -0.0027129022849447823 0.0027570441939451192 0.007920882508346714 0.9969902530310115 -0.019885527278281467
 -0.00028798928149447237 -0.0027128982316207244 0.0003196163710201862 0.004381120154290247 0.9969902530310115 -0.019885527278281467 0.0027577257071905188 0.007920778667548782
0.03126302626094 0.0030275785950132604 0.009967082804725315 0.9966339991633397 -0.024889405854820967 0.00042102425556859074 0.0054771383177619455 -0.00036985939330205276 -0.003395268960814653
 0.9966339991633397 -0.024889405854820967 0.0030285651086854257 0.009966953260559474 -0.000369909952588942 -0.003395273301106238 0.0004149328857353714 0.005477926383538535
 0.00042102425556859074 0.0054771383177619455 -0.000369909952588942 -0.003395273301106238 0.003027532289682234 0.009966670634086912 0.996633991510822 -0.02488982351394363
 -0.00036985939330205276 -0.003395268960814653 0.0004149328857353714 0.005477926383538535 0.996633991510822 -0.02488982351394363 0.0030285963219578082 0.009966530714812573
0.037515631513130004 0.0033210139376277556 0.012035055270377314 0.996245908739605 -0.02990963021925758 0.0005328760354640774 0.006574084733510904 -0.0004633972556044335 -0.00407863415299704
 0.996245908739605 -0.02990963021925758 0.0033224335070770076 0.012034888218161378 -0.0004634696863482031 -0.004078638394511039 0.0005241075216893018 0.006575186341668252
 0.0005328760354640774 0.006574084733510904 -0.0004634696863482031 -0.004078638394511039 0.003320947606577413 0.012034561538746514 0.9962458980636638 -0.029910131228934548
 -0.0004633972556044335 -0.00407863415299704 0.0005241075216893018 0.006575186341668252 0.9962458980636638 -0.029910131228934548 0.0033224788259693895 0.012034380980103449
0.043768236765320004 0.0036378421776013734 0.014124313435047664 0.9958255619725719 -0.034946009219922684 0.000659206277956178 0.007671232139728978 -0.0005687442583029539 -0.0047627479002705165
 0.9958255619725719 -0.034946009219922684 0.003639773216276081 0.014124104574735407 -0.0005688423861559313 -0.0047627516094007945 0.0006472734312767253 0.007672716397297247
 0.000659206277956178 0.007671232139728978 -0.0005688423861559313 -0.0047627516094007945 0.003637752231849228 0.01412373850410391 0.9958255477745728 -0.03494659356723245
 -0.0005687442583029539 -0.0047627479002705165 0.0006472734312767253 0.007672716397297247 0.9958255477745728 -0.03494659356723245 0.003639835276895536 0.014123512490111524
0.050020842017509996 0.003978518864516753 0.01623417064571733 0.995372533270129 -0.03999853620597279 0.0008001452991552943 0.008768373486204416 -0.0006860372871033555 -0.005447369425234534
 0.995372533270129 -0.03999853620597279 0.003981039777160832 0.016233915492355023 -0.0006861649033308692 -0.005447372120589385 0.000784560381790786 0.008770316981456996
 0.0008001452991552943 0.008768373486204416 -0.0006861649033308692 -0.005447372120589385 0.003978401715670737 0.016233514924362986 0.9953725150506016 -0.03999920388268583
 -0.0006860372871033555 -0.005447369425234534 0.000784560381790786 0.008770316981456996 0.9953725150506016 -0.03999920388268583 0.003981121223113671 0.016233238382061792
0.055454545454549996 0.004294294574644006 0.018083954494853338 0.9949519658095632 -0.04440237106218138 0.0009345880853084533 0.009721647806297029 -0.0007977730274725033 -0.006042552569112157
 0.9949519658095632 -0.04440237106218138 0.004297391793153634 0.018083655324046183 -0.0007979293231545595 -0.006042553955457225 0.0009154329077428236 0.009724058461810093
 0.0009345880853084533 0.009721647806297029 -0.0007979293231545595 -0.006042553955457225 0.004294150871189525 0.018083228930113632 0.994951943688026 -0.04440311115504401
 -0.0007977730274725033 -0.006042552569112157 0.0009154329077428236 0.009724058461810093 0.994951943688026 -0.04440311115504401 0.004297492236706822 0.018082904155523057
0.056273447269699996 0.0043434938181423684 0.01836401709909523 0.9948863976934966 -0.04506710796328826 0.0009558196570454403 0.009865289773891388 -0.0008154086987087695 -0.00613225911039188
 0.9948863976934966 -0.04506710796328826 0.004346683027466705 0.01836371098087881 -0.0008155695613790055 -0.006132260262866954 0.0009360944212417418 0.009867776655328276
 0.0009558196570454403 0.009865289773891388 -0.0008155695613790055 -0.006132260262866954 0.0043433458778276085 0.018363281041282434 0.9948863749509558 -0.045067858968814704
 -0.0008154086987087695 -0.00613225911039188 0.0009360944212417418 0.009867776655328276 0.9948863749509558 -0.045067858968814704 0.004346786507881039 0.01836294863779229
0.06252605252188 0.004733211512555865 0.02051329056452002 0.9943667318715383 -0.05015155396722388 0.001126351845070964 0.010961752336013831 -0.000956986236880298 -0.006817176325483536
 0.9943667318715383 -0.05015155396722388 0.004737147484697507 0.020512928619870096 -0.000957184071515111 -0.006817175358366518 0.0011019975946983732 0.010964874391085002
 0.001126351845070964 0.010961752336013831 -0.000957184071515111 -0.006817175358366518 0.004733029194177214 0.020512474668680763 0.9943667041032247 -0.05015238830988909
 -0.000956986236880298 -0.006817176325483536 0.0011019975946983732 0.010964874391085002 0.9943667041032247 -0.05015238830988909 0.0047372756557294456 0.02051208080714331
0.06877865777407 0.0051481112363546515 0.022681458960200476 0.9938131146967664 -0.0552516537945456 0.0013118600244880817 0.012057524209913555 -0.0011108929104018223 -0.007501878176867571
 0.9938131146967664 -0.0552516537945456 0.005152872506219154 0.022681036133766697 -0.0011111314105425808 -0.007501874465916961 0.0012823876943859394 0.012061380942784913
 0.0013118600244880817 0.012057524209913555 -0.0011111314105425808 -0.007501874465916961 0.005147890954525865 0.022680563774358505 0.9938130813967808 -0.05525257148708704
 -0.0011108929104018223 -0.007501878176867571 0.0012823876943859394 0.012061380942784913 0.9938130813967808 -0.05525257148708704 0.005153028028981113 0.02268010258905191
0.07503126302626001 0.0055886271107239305 0.024868009316163574 0.9932251278844282 -0.060367148162261304 0.0015124577790333737 0.01315236104071091 -0.001277246850339061 -0.008186118738270331
 0.9932251278844282 -0.060367148162261304 0.005594292306838171 0.02486752035388633 -0.0012775296778156186 -0.008186111611810095 0.0014773780268782601 0.013157059748712322
 0.0015124577790333737 0.01315236104071091 -0.0012775296778156186 -0.008186111611810095 0.005588365283406534 0.024867035438066242 0.9932250885452812 -0.06036814922241089
 -0.001277246850339061 -0.008186118738270331 0.0014773780268782601 0.013157059748712322 0.9932250885452812 -0.06036814922241089 0.0055944778489888675 0.02486650078837707
0.08128386827845 0.006055188025554877 0.027072440454038123 0.9926023564558571 -0.06549774626448988 0.0017282538830593437 0.014246011709306767 -0.0014561611541796513 -0.00886964857081194
 0.9926023564558571 -0.06549774626448988 0.006061835894994529 0.027071879897123202 -0.0014564919393495312 -0.008869637309835863 0.0016870771913555548 0.014251667557751766
 0.0017282538830593437 0.014246011709306767 -0.0014564919393495312 -0.008869637309835863 0.006054881073945177 0.02707138852567997 0.9926023105666375 -0.06549883072109909
 -0.0014561611541796513 -0.00886964857081194 0.0016870771913555548 0.014251667557751766 0.9926023105666375 -0.06549883072109909 0.0060620541290861175 0.027070773989031113
0.08753647353064001 0.006548217515708017 0.029294257935905753 0.9919443891653112 -0.07064313085536816 0.0019593520797226423 0.015338218798646126 -0.001647743720346271 -0.009552214418763897
 0.9919443891653112 -0.07064313085536816 0.006555926949198286 0.029293620113622045 -0.00164812606223822 -0.009552198257015277 0.0019115888667855321 0.015344954893769261
 0.0019593520797226423 0.015338218798646126 -0.00164812606223822 -0.009552198257015277 0.006547861865922328 0.029293128655272838 0.9919443362124373 -0.07064429873713253
 -0.001647743720346271 -0.009552214418763897 0.0019115888667855321 0.015344954893769261 0.9919443362124373 -0.07064429873713253 0.006556180552871535 0.029292427519101417
0.09378907878283 0.007068133598760371 0.031532970488298465 0.9912508188935272 -0.07580296187273756 0.002205850866409337 0.016428718949179043 -0.001852097077018687 -0.010233559030379636
 0.9912508188935272 -0.07580296187273756 0.007076983655113976 0.03153224950983057 -0.0018525345432671547 -0.010233537154456523 0.0021510116040275337 0.016436666408990303
 0.002205850866409337 0.016428718949179043 -0.0018525345432671547 -0.010233537154456523 0.007067725682016914 0.03153176460185104 0.9912507583596012 -0.07580421321644089
 -0.001852097077018687 -0.010233559030379636 0.0021510116040275337 0.016436666408990303 0.9912507583596012 -0.07580421321644089 0.007077275310722362 0.03153096985435149
0.100041684035 0.00761534858445615 0.03378808738834681 0.9905212430161552 -0.08097687911618968 0.002467843285751316 0.017517243156772947 -0.0020693182061909854 -0.010913421050715978
 0.9905212430161552 -0.08097687911618968 0.007625418515636057 0.0337872771333877 -0.0020698143330698205 -0.0109133926001973 0.002405438623229403 0.017526541179659932
 0.002467843285751316 0.017517243156772947 -0.0020698143330698205 -0.0109133926001973 0.007614884838255199 0.03378680569371601 0.9905211743799587 -0.08097821396446873
 -0.0020693182061909854 -0.010913421050715978 0.002405438623229403 0.017526541179659932 0.9905211743799587 -0.08097821396446873 0.007625750909581138 0.033785910013540255
0.1059090909091 0.008154041950674587 0.03591875664541415 0.9898035123309065 -0.08584452618013702 0.0027278645866825792 0.01853666621503318 -0.0022849416640223887 -0.011549814591963966
 0.9898035123309065 -0.08584452618013702 0.008165328877616404 0.035917856833906865 -0.0022854960258693394 -0.011549779147511912 0.0026579158115011287 0.01854736545363902
 0.0027278645866825792 0.01853666621503318 -0.0022854960258693394 -0.011549779147511912 0.008153522581148103 0.03591740458372857 0.9898034356141618 -0.0858459394332074
 -0.0022849416640223887 -0.011549814591963966 0.0026579158115011287 0.01854736545363902 0.9898034356141618 -0.0858459394332074 0.008165701946997374 0.03591640724446647
0.1062942892872 0.008190268862373833 0.036059116526425385 0.9897552637534046 -0.08616450426526133 0.0027454167197369004 0.018603517025251967 -0.0022994983665651533 -0.011591534974608741
 0.9897552637534046 -0.08616450426526133 0.008201638138408724 0.036058210634600185 -0.0023000566589111045 -0.01159149904210393 0.0026749576136085983 0.01861431295616162
 0.0027454167197369004 0.018603517025251967 -0.0023000566589111045 -0.01159149904210393 0.008189745731922764 0.03605775987280053 0.9897551864899464 -0.08616592266676021
 -0.0022994983665651533 -0.011591534974608741 0.0026749576136085983 0.01861431295616162 0.9897551864899464 -0.08616592266676021 0.008202013961129516 0.03605675561759754
0.11254689453939999 0.008793294676260456 0.03834556294458534 0.9889524885093695 -0.0913654424391749 0.003038652688703991 0.01968726099102695 -0.002542722913865451 -0.012267631142384506
 0.9889524885093695 -0.0913654424391749 0.008806043009882684 0.03834455480375979 -0.0025433468448822424 -0.012267586773699423 0.002959650537267553 0.01969971038512737
 0.003038652688703991 0.01968726099102695 -0.0025433468448822424 -0.012267586773699423 0.008792708614794625 0.03834413223443278 0.988952402088856 -0.09136694444727943
 -0.002542722913865451 -0.012267631142384506 0.002959650537267553 0.01969971038512737 0.988952402088856 -0.09136694444727943 0.008806464955249328 0.038343011428221246
0.11879949979160001 0.009424819884415698 0.04064692772058702 0.9881125301991336 -0.09657928342839307 0.0033476266533941828 0.020768190527392597 -0.002799071120850488 -0.01294143577099798
 0.9881125301991336 -0.09657928342839307 0.009439027256016124 0.04064581045389416 -0.0027997641320128023 -0.012941381965204399 0.003259593435773511 0.02078245721100217
 0.0033476266533941828 0.020768190527392597 -0.0027997641320128023 -0.012941381965204399 0.009424167354630947 0.040645423909747645 0.9881124340871161 -0.09658086910160259
 -0.002799071120850488 -0.01294143577099798 0.003259593435773511 0.02078245721100217 0.9881124340871161 -0.09658086910160259 0.00943949802093004 0.04064417822911372
0.1250521050438 0.010085231712343995 0.04296270711032852 0.9872350075693532 -0.10180560268577608 0.003672407819904011 0.02184601633999604 -0.0030686159974961367 -0.013612671009069011
 0.9872350075693532 -0.10180560268577608 0.010100978395065378 0.0429614735618559 -0.0030693814983381884 -0.013612606718636955 0.003574856239743238 0.021862272468681325
 0.003672407819904011 0.02184601633999604 -0.0030693814983381884 -0.013612606718636955 0.010084509187764481 0.042961131206943566 0.9872349012263512 -0.10180727208917587
 -0.0030686159974961367 -0.013612671009069011 0.003574856239743238 0.021862272468681325 0.9872349012263512 -0.10180727208917587 0.010101500679305974 0.042959751965879464
0.131304710296 0.010774910498953924 0.04529239188248468 0.9863195455131963 -0.10704396214339142 0.004013058948132331 0.022920444557242865 -0.0033514241121929446 -0.014281055012397672
 0.9863195455131963 -0.10704396214339142 0.010792277083132426 0.04529103460184867 -0.0033522654801323632 -0.014280979143310663 0.003905502580597248 0.022938870670962265
 0.004013058948132331 0.022920444557242865 -0.0033522654801323632 -0.014280979143310663 0.010774114464681062 0.04529074494887209 0.9863194283943961 -0.10704571534718214
 -0.0033514241121929446 -0.014281055012397672 0.003905502580597248 0.022938870670962265 0.9863194283943961 -0.10704571534718214 0.010792853588335552 0.04528922308258319
0.1375573155481 0.011348967180449521 0.04733043266262013 0.9855111188857543 -0.11198867263640072 0.004331337736441104 0.0239619616923973 -0.003609383414234419 -0.014917024558835578
 0.9855111188857543 -0.11198867263640072 0.011368041611940287 0.04732897540427224 -0.003610305879457678 -0.014916936869111991 0.004213527676189063 0.023982552437752016
 0.004331337736441104 0.0239619616923973 -0.003610305879457678 -0.014916936869111991 0.01134809504513309 0.047328715284148004 0.9855109905017307 -0.11199050962487844
 -0.003609383414234419 -0.014917024558835578 0.004213527676189063 0.023982552437752016 0.9855109905017307 -0.11199050962487844 0.011368674011820944 0.047327073738034804
0.1438099208003 0.011943515445984494 0.04935510491387991 0.9846735555296101 -0.11691821103571227 0.004662393204121569 0.024997589046736775 -0.003877543684793083 -0.015547670958277946
 0.9846735555296101 -0.11691821103571227 0.011964379845576495 0.04935354194509595 -0.003878550911386681 -0.01554757034925078 0.0045338870036289265 0.025020511655781615
 0.004662393204121569 0.024997589046736775 -0.003878550911386681 -0.01554757034925078 0.011942563875135103 0.0493533181264009 0.9846734153401427 -0.11692013186631996
 -0.003877543684793083 -0.015547670958277946 0.0045338870036289265 0.025020511655781615 0.9846734153401427 -0.11692013186631996 0.011965070658543598 0.0493515496008443
0.1500625260525 0.012558301718222498 0.05136616307295678 0.9838071145412709 -0.12183237677153046 0.005006082670288977 0.02602716656327597 -0.004155767635929911 -0.016172847559129157
 0.9838071145412709 -0.12183237677153046 0.012581038540799304 0.05136448824650479 -0.004156863279123225 -0.01617273288710158 0.004866441422404715 0.02605259435517475
 0.005006082670288977 0.02602716656327597 -0.004156863279123225 -0.01617273288710158 0.01255726739876595 0.051364307954004394 0.9838069620025429 -0.1218343815004072
 -0.004155767635929911 -0.016172847559129157 0.004866441422404715 0.02605259435517475 0.9838069620025429 -0.1218343815004072 0.012581790275371688 0.05136240467537331
0.15631513130469998 0.013193070084771167 0.05336336902492428 0.982912056929608 -0.12673097186899582 0.005362261449528349 0.027050537593395072 -0.0044439160085276265 -0.016792411434239655
 0.982912056929608 -0.12673097186899582 0.013217762127409438 0.0533615757626961 -0.004445103714576211 -0.01679228151061866 0.005211049853906525 0.027078649894499162
