! Created with skrf 1.8.0 (http://scikit-rf.org).
# GHz S RI R 50.0 
!freq ReS11 ImS11 ReS12 ImS12 ReS13 ImS13
! ReS14 ImS14
! ReS21 ImS21 ReS22 ImS22 ReS23 ImS23
! ReS24 ImS24
! ReS31 ImS31 ReS32 ImS32 ReS33 ImS33
! ReS34 ImS34
! ReS41 ImS41 ReS42 ImS42 ReS43 ImS43
! ReS44 ImS44
!
0.0 0.001758420272673 0.0 0.9982415797017 0.0 6.814253836374e-05 0.0 -6.814253889766e-05 8.345054214679334e-21
 0.9982415797017 0.0 0.001758420272712 0.0 -6.814253889778e-05 8.345054214694028e-21 6.814253836587e-05 0.0
 6.814253836374e-05 0.0 -6.814253889778e-05 8.345054214694028e-21 0.001758420279784 0.0 0.9982415797088 0.0
 -6.814253889766e-05 8.345054214679334e-21 6.814253836587e-05 0.0 0.9982415797088 0.0 0.001758420279816 0.0
0.005 0.001892613058187876 0.0014387107000044738 0.9980717007489125 -0.0036825846360615997 9.572869776187843e-05 0.0007461095002777335 -9.297141900298742e-05 -0.00046900739593709584
 0.9980717007489125 -0.0036825846360615997 0.001892613346869273 0.0014387105100673264 -9.296705498090735e-05 -0.00046900404364709594 9.573204579103521e-05 0.0007461080866413867
 9.572869776187843e-05 0.0007461095002777335 -9.296705498090735e-05 -0.00046900404364709594 0.0018926149437305936 0.0014386422865409925 0.9980717003705905 -0.003682651692737358
 -9.297141900298742e-05 -0.00046900739593709584 9.573204579103521e-05 0.0007461080866413867 0.9980717003705905 -0.003682651692737358 0.0018926107077024935 0.0014386448112936319
0.006252605252188 0.001928018579104069 0.0018040146067936757 0.9980265669264143 -0.004604097218005207 0.00010371386252595938 0.0009329875842437404 -0.00010007577536566038 -0.0005868517694942541
 0.9980265669264143 -0.004604097218005207 0.0019280190310793721 0.0018040144261941705 -0.00010006898465796136 -0.0005868476373888547 0.00010371909183613744 0.0009329857700580789
 0.00010371386252595938 0.0009329875842437404 -0.00010006898465796136 -0.0005868476373888547 0.001928021599345076 0.0018039290875391223 0.9980265664073339 -0.004604181037360347
 -0.00010007577536566038 -0.0005868517694942541 0.00010371909183613744 0.0009329857700580789 0.9980265664073339 -0.004604181037360347 0.0019280149774200275 0.0018039323096450707
0.01250521050438 0.0021156276681594433 0.0036454718391233398 0.9977856939816171 -0.009208745583297366 0.00015005626592112917 0.0018662566436875323 -0.00014089021706791428 -0.0011764040698070473
 0.9977856939816171 -0.009208745583297366 0.002115629481021208 0.0036454720423205063 -0.00014086345656628372 -0.001176396451266332 0.0001500770685864213 0.0018662524848499628
 0.00015005626592112917 0.0018662566436875323 -0.00014086345656628372 -0.001176396451266332 0.002115640315426555 0.0036453009960940325 0.9977856924897603 -0.009208912970270417
 -0.00014089021706791428 -0.0011764040698070473 0.0001500770685864213 0.0018662524848499628 0.9977856924897603 -0.009208912970270417 0.0021156138710621414 0.0036453081428360077
0.01875781575657 0.0023217007200611794 0.00551274762297707 0.9975186305794782 -0.013825099182678881 0.00020728429206398946 0.002800392857155751 -0.00019071996901903393 -0.0017677821140205264
 0.9975186305794782 -0.013825099182678881 0.0023217048076755484 0.005512748772357244 -0.00019066029482294177 -0.001767771795510306 0.00020733090293441903 0.0028003856781854235
 0.00020728429206398946 0.002800392857155751 -0.00019066029482294177 -0.001767771795510306 0.0023217295810835136 0.005512491434837407 0.9975186276562276 -0.0138253500484957
 -0.00019071996901903393 -0.0017677821140205264 0.00020733090293441903 0.0028003856781854235 0.9975186276562276 -0.0138253500484957 0.0023216701531506897 0.005512503340811876
0.02501042100875 0.002546674843872359 0.007403175086333207 0.9972250322652888 -0.018455339330013774 0.00027551351868479815 0.0037353985987748873 -0.00024969390261661697 -0.0023606859772184034
 0.9972250322652888 -0.018455339330013774 0.0025466821285312475 0.007403177745872196 -0.00024958852772655177 -0.0023606738988318594 0.0002755961030602469 0.003735387591607099
 0.00027551351868479815 0.0037353985987748873 -0.00024958852772655177 -0.0023606738988318594 0.002546726495074486 0.007402833455747854 0.9972250274474224 -0.018455673611461512
 -0.00024969390261661697 -0.0023606859772184034 0.0002755961030602469 0.003735387591607099 0.9972250274474224 -0.018455673611461512 0.0025466209464190567 0.007402851084814456
0.03126302626094 0.0027909689684334845 0.009315353564651798 0.9969045387066361 -0.02310036554817805 0.00035485932555811563 0.004671189925581194 -0.00031793661381925996 -0.002954893673491627
 0.9969045387066361 -0.02310036554817805 0.0027909803827588014 0.009315358300212693 -0.00031777288223392634 -0.00295488093042864 0.0003549879899561619 0.004671174151318014
 0.00035485932555811563 0.004671189925581194 -0.00031777288223392634 -0.00295488093042864 0.00279104999023497 0.009314926316842 0.9969045315365462 -0.023100783208982217
 -0.00031793661381925996 -0.002954893673491627 0.0003549879899561619 0.004671174151318014 0.9969045315365462 -0.023100783208982217 0.0027908852028917836 0.009314950762960496
0.037515631513130004 0.003054992388715852 0.011248348376211297 0.9965567826134517 -0.027760595736511226 0.00044543577666453606 0.005607648210098815 -0.0003955692792433783 -0.0035502095597898333
 0.9965567826134517 -0.027760595736511226 0.0030550088762872156 0.011248355755546792 -0.00039533465282734243 -0.003550197402726908 0.0004456205727084803 0.005607626599675534
 0.00044543577666453606 0.005607648210098815 -0.00039533465282734243 -0.003550197402726908 0.003055109359460629 0.0112478352766332 0.996556772632001 -0.027761096749212393
 -0.0003955692792433783 -0.0035502095597898333 0.0004456205727084803 0.005607626599675534 0.996556772632001 -0.027761096749212393 0.0030548722331421906 0.011247867765218314
0.043768236765320004 0.003339148026816365 0.013201447348976273 0.996181393375657 -0.03243620957546997 0.0005473550707615976 0.0065446358638643395 -0.00048270994388422583 -0.004146448647487578
 0.996181393375657 -0.03243620957546997 0.0033391705431356678 0.013201457941466302 -0.000482391994849675 -0.004146438482665392 0.0005476059958281486 0.00654460721838217
 0.0005473550707615976 0.0065446358638643395 -0.000482391994849675 -0.004146438482665392 0.0033393075253586478 0.01320084810191587 0.9961813801227969 -0.03243679392216136
 -0.00048270994388422583 -0.004146448647487578 0.0005476059958281486 0.00654460721838217 0.9961813801227969 -0.03243679392216136 0.0033389849764043113 0.013200889991181167
0.050020842017509996 0.0036438339390008566 0.01517406016330648 0.9957779989490967 -0.03712724911500842 0.0006607271974194365 0.007482002833802809 -0.0005794736016877195 -0.004743430145066111
 0.9957779989490967 -0.03712724911500842 0.0036438634517547996 0.015174074539644828 -0.0005790600078274341 -0.004743423534250286 0.0006610541937029974 0.00748196582482014
 0.0006607271974194365 0.007482002833802809 -0.0005790600078274341 -0.004743423534250286 0.003644042544975167 0.015173374408437603 0.9957779819643241 -0.037127916790055865
 -0.0005794736016877195 -0.004743430145066111 0.0006610541937029974 0.00748196582482014 0.9957779819643241 -0.037127916790055865 0.0036436215065080604 0.015173427190935385
0.055454545454549996 0.00392559437167157 0.016903764637007705 0.9954044041425532 -0.041216397912100355 0.0007686356853566621 0.008296787651050892 -0.0006714662110502874 -0.0052626884857362366
 0.9954044041425532 -0.041216397912100355 0.003925630760420933 0.016903782765798517 -0.0006709595715413723 -0.0052626863525335014 0.0007690368199570291 0.008296742194616154
 0.0007686356853566621 0.008296787651050892 -0.0006709595715413723 -0.0052626863525335014 0.003925850997695845 0.016903003370027807 0.9954043835394777 -0.04121713799782758
 -0.0006714662110502874 -0.0052626884857362366 0.0007690368199570291 0.008296742194616154 0.9954043835394777 -0.04121713799782758 0.003925333770215692 0.016903066936619894
0.056273447269699996 0.003969444063394886 0.01716566896906337 0.9953462269893851 -0.04183366809261328 0.0007856596804910023 0.008419589806936656 -0.0006859721864860194 -0.005340974298609493
 0.9953462269893851 -0.04183366809261328 0.003969481553167711 0.01716568770084177 -0.0006854507281820333 -0.0053409729590086 0.0007860726332387976 0.008419542976677416
 0.0007856596804910023 0.008419589806936656 -0.0006854507281820333 -0.0053409729590086 0.003969708357075806 0.017164896292313544 0.9953462058104503 -0.041834419091078344
 -0.0006859721864860194 -0.005340974298609493 0.0007860726332387976 0.008419542976677416 0.9953462058104503 -0.041834419091078344 0.003969175779379151 0.01716496159635851
0.06252605252188 0.004316368597899907 0.019175801246411234 0.9948857056200828 -0.0465553590143002 0.0009222573675692878 0.009357229979953278 -0.0008023145151863688 -0.005938900674556102
 0.9948857056200828 -0.0465553590143002 0.004316415058648304 0.019175824905774946 -0.0008016730735333893 -0.005938906478706573 0.0009227661023902831 0.009357171741630562
 0.0009222573675692878 0.009357229979953278 -0.0008016730735333893 -0.005938906478706573 0.004316695161340554 0.01917494117110503 0.9948856797838648 -0.04655619333996434
 -0.0008023145151863688 -0.005938900674556102 0.0009227661023902831 0.009357171741630562 0.9948856797838648 -0.04655619333996434 0.0043160380122931495 0.019175020762361134
0.06877865777407 0.004684994178006549 0.021204013623538114 0.9943960640061082 -0.05129216928629875 0.0010706222431032101 0.010294750128868756 -0.0009286062052109431 -0.0065370271502802465
 0.9943960640061082 -0.05129216928629875 0.004685050617548513 0.02120404278269681 -0.0009278327608493346 -0.006537042125900457 0.0010712365230089674 0.010294678767025514
 0.0010706222431032101 0.010294750128868756 -0.0009278327608493346 -0.006537042125900457 0.004685389593796148 0.02120306560946949 0.9943960330473135 -0.05129308695179951
 -0.0009286062052109431 -0.0065370271502802465 0.0010712365230089674 0.010294678767025514 0.9943960330473135 -0.05129308695179951 0.004684594859767425 0.021203161392402844
0.07503126302626001 0.005075703929811911 0.02324988162404007 0.9938769328085284 -0.05604391142613789 0.0012308532567237844 0.011231971302145935 -0.0010649495752113134 -0.0071351692894994715
 0.9938769328085284 -0.05604391142613789 0.005075771370047919 0.02324991685485809 -0.0010640322076675578 -0.007135195619337784 0.0012315827787425357 0.011231884973074016
 0.0012308532567237844 0.011231971302145935 -0.0010640322076675578 -0.007135195619337784 0.005076174781410437 0.023248845072792415 0.9938768962595453 -0.05604491244677223
 -0.0010649495752113134 -0.0071351692894994715 0.0012315827787425357 0.011231884973074016 0.9938768962595453 -0.05604491244677223 0.005075229468448437 0.023248959092196864
0.08128386827845 0.00548887745059393 0.02531299285872593 0.993327944570595 -0.060810369838629016 0.0014030461611839868 0.012168709294379009 -0.0012114435346323872 -0.007733139945842764
 0.993327944570595 -0.060810369838629016 0.005488956928302293 0.02531303473225209 -0.001210370422179823 -0.007733179967482307 0.001403900552723828 0.01216860602662906
 0.0014030461611839868 0.012168709294379009 -0.001210370422179823 -0.007733179967482307 0.005489430322609528 0.025311867109536763 0.9933279019619214 -0.06081145423565588
 -0.0012114435346323872 -0.007733139945842764 0.001403900552723828 0.01216860602662906 0.9933279019619214 -0.06081145423565588 0.005488321457301835 0.025312001552115628
0.08753647353064001 0.005924890736706644 0.027392942323772415 0.9927487340564417 -0.06559130549562386 0.0015872933557719243 0.013104774990671598 -0.001368183466849725 -0.008330749004627424
 0.9927487340564417 -0.06559130549562386 0.005924983303339189 0.027392991409807013 -0.0013669428865209416 -0.00833080521029465 0.0015882821706973088 0.01310465268568778
 0.0015872933557719243 0.013104774990671598 -0.0013669428865209416 -0.00833080521029465 0.005925532214153091 0.027391726652180922 0.9927486849158206 -0.06559247329672613
 -0.001368183466849725 -0.008330749004627424 0.0015882821706973088 0.01310465268568778 0.9927486849158206 -0.06559247329672613 0.00592424684496437 0.027391883848038454
0.09378907878283 0.006384116076404431 0.029489329045303846 0.99213893855957 -0.07038645927987573 0.0017836837342239244 0.01403997462873771 -0.0015352611067407514 -0.008927803216229564
 0.99213893855957 -0.07038645927987573 0.006384222799008881 0.02948938591193695 -0.0015338414347064577 -0.008927878252557994 0.0017848164488418702 0.014039831061520165
 0.0017836837342239244 0.01403997462873771 -0.0015338414347064577 -0.008927878252557994 0.006384852744590941 0.029488022662823056 0.9921388824116837 -0.0703877105186674
 -0.0015352611067407514 -0.008927803216229564 0.0017848164488418702 0.014039831061520165 0.9921388824116837 -0.0703877105186674 0.006383377943364096 0.029488205086941895
0.100041684035 0.0068669219187294595 0.03160175363524562 0.9914981981900164 -0.07519555442857696 0.0019923025357768825 0.01497411000933586 -0.0017127644147751826 -0.00952410609044766
 0.9914981981900164 -0.07519555442857696 0.006867043879996825 0.03160181884833119 -0.0017111541268660854 -0.009524202758224428 0.001993588544572114 0.014973942829291693
 0.0019923025357768825 0.01497411000933586 -0.0017111541268660854 -0.009524202758224428 0.0068677603632258015 0.03160035569076246 0.9914981345567381 -0.07519688914219709
 -0.0017127644147751826 -0.00952410609044766 0.001993588544572114 0.014973942829291693 0.9914981345567381 -0.07519688914219709 0.006866083226445507 0.03160056596459193
0.1059090909091 0.007341754913485045 0.03359827034311267 0.990868469415903 -0.0797207992641157 0.0021992633651886214 0.015849548759678065 -0.0018888894038860476 -0.010082811831446107
 0.990868469415903 -0.0797207992641157 0.007341892173537785 0.03359834390081925 -0.0018870898514307646 -0.010082931482424328 0.0022007016917926477 0.01584935717258424
 0.0021992633651886214 0.015849548759678065 -0.0018870898514307646 -0.010082931482424328 0.007342694853236591 0.03359678564568654 0.9908683983201436 -0.07972221234804162
 -0.0018888894038860476 -0.010082811831446107 0.0022007016917926477 0.01584935717258424 0.9908683983201436 -0.07972221234804162 0.007340816133825769 0.033597024569450754
0.1062942892872 0.007373672722671405 0.033729816455830064 0.9908261561477617 -0.08001829837936296 0.0022132311981905503 0.015906978669771275 -0.0019007774488260308 -0.010119457837506616
 0.9908261561477617 -0.08001829837936296 0.007373811021312637 0.03372989057864595 -0.0018989651211647933 -0.0101195790914082 0.0022146798094825997 0.01590678540163141
 0.0022132311981905503 0.015906978669771275 -0.0018989651211647933 -0.0101195790914082 0.007374619528517526 0.03372832603317419 0.9908260845472424 -0.08001971661007193
 -0.0019007774488260308 -0.010119457837506616 0.0022146798094825997 0.01590678540163141 0.9908260845472424 -0.08001971661007193 0.007372727178964124 0.033728566926107574
0.11254689453939999 0.007904728792214169 0.03587311623989377 0.9901224589834894 -0.08485438417231231 0.0024465472130355175 0.01683837403535719 -0.0020993802338003936 -0.010713655340869275
 0.9901224589834894 -0.08485438417231231 0.007904884543340316 0.03587319983255705 -0.002097354543753362 -0.01071380428912705 0.002448167644490614 0.016838152080205036
 0.0024465472130355175 0.01683837403535719 -0.002097354543753362 -0.01071380428912705 0.007905790544001328 0.035871532355592754 0.9901223789303375 -0.08485588596874329
 -0.0020993802338003936 -0.010713655340869275 0.002448167644490614 0.016838152080205036 0.9901223789303375 -0.08485588596874329 0.00790367013213853 0.03587180678648651
0.11879949979160001 0.008460446100921153 0.0380312490077295 0.9893867568534707 -0.08970349156710182 0.002692323982292113 0.01776808555660729 -0.002308648630560145 -0.011306492154221899
 0.9893867568534707 -0.08970349156710182 0.008460620436618969 0.03803134262676382 -0.002306398357529812 -0.011306672058304126 0.002694125356376769 0.017767832193044793
 0.002692323982292113 0.01776808555660729 -0.002306398357529812 -0.011306672058304126 0.008461629382142259 0.03802957061265874 0.9893866678584395 -0.08970507698174766
 -0.002308648630560145 -0.011306492154221899 0.002694125356376769 0.017767832193044793 0.9893866678584395 -0.08970507698174766 0.008459268088193458 0.03802988165130078
0.1250521050438 0.009041176108001108 0.040203807240792304 0.9886187037678204 -0.09456528791555341 0.0029506306767082668 0.018695898835853663 -0.0025286542038731883 -0.011897758519077452
 0.9886187037678204 -0.09456528791555341 0.009041370177110404 0.04020391143869932 -0.002526168230395393 -0.011897972793345325 0.0029526220158816265 0.018695611221311907
 0.0029506306767082668 0.018695898835853663 -0.002526168230395393 -0.011897972793345325 0.009042487500531517 0.04020203321668056 0.9886186053371799 -0.09456695700724743
 -0.0025286542038731883 -0.011897758519077452 0.0029526220158816265 0.018695611221311907 0.9886186053371799 -0.09456695700724743 0.009039872535878853 0.04020238408529644
0.131304710296 0.009647265566505485 0.042390379218205404 0.9878179578340156 -0.0994394288838017 0.003221532095391119 0.019621595747980135 -0.0027594640901239293 -0.012487241398628335
 0.9878179578340156 -0.0994394288838017 0.009647480535513024 0.04239049454293381 -0.0027567314029620623 -0.01248749360989696 0.0032237223174925588 0.019621270920112614
 0.003221532095391119 0.019621595747980135 -0.0027567314029620623 -0.01248749360989696 0.009648711650425065 0.042388508378839604 0.9878178494698256 -0.09944118171560855
 -0.0027594640901239293 -0.012487241398628335 0.0032237223174925588 0.019621270920112614 0.9878178494698256 -0.09944118171560855 0.009645830259804103 0.0423889024535635
0.1375573155481 0.010147391157682116 0.044306468650646205 0.9871159136147062 -0.1040413024268759 0.00347290620939009 0.020517563067225277 -0.0029689671453688045 -0.013047359484742642
 0.9871159136147062 -0.1040413024268759 0.010147627381398003 0.044306589533745985 -0.002965971299732415 -0.013047650279152693 0.003475304563966044 0.020517201114495474
 0.00347290620939009 0.020517563067225277 -0.002965971299732415 -0.013047650279152693 0.010148977821095681 0.04430449975787434 0.987115794866347 -0.10404313899011496
 -0.0029689671453688045 -0.013047359484742642 0.003475304563966044 0.020517201114495474 0.987115794866347 -0.10404313899011496 0.01014581773119685 0.04430493426851131
0.1438099208003 0.010665330781230524 0.04621110926900771 0.9863887450787777 -0.1086301250457318 0.003734382779117194 0.021409052305073957 -0.0031867889890006213 -0.013603350566111743
 0.9863887450787777 -0.1086301250457318 0.010665589317071955 0.046211235743775864 -0.0031835181442659444 -0.013603683488831661 0.0037369980919658534 0.021408650418608222
 0.003734382779117194 0.021409052305073957 -0.0031835181442659444 -0.013603683488831661 0.010667064477905091 0.046209041093304086 0.9863886154524237 -0.1086320453919005
 -0.0031867889890006213 -0.013603350566111743 0.0037369980919658534 0.021408650418608222 0.9863886154524237 -0.1086320453919005 0.010663613074623856 0.0462095189865159
0.1500625260525 0.011200880915139419 0.0481041013228489 0.9856366607034112 -0.11320574117123527 0.0040058575959303145 0.022295945329077863 -0.003412827927319132 -0.014155103462731519
 0.9856366607034112 -0.11320574117123527 0.011201162830028848 0.0481042334259209 -0.003409270277824482 -0.01415548220165969 0.004008698596117755 0.022295500602924515
 0.0040058575959303145 0.022295945329077863 -0.003409270277824482 -0.01415548220165969 0.011202768089169748 0.048101932582682 0.98563651970174 -0.11320774535362392
 -0.003412827927319132 -0.014155103462731519 0.004008698596117755 0.022295500602924515 0.98563651970174 -0.11320774535362392 0.011199012796796698 0.04810245692853305
0.15631513130469998 0.011753836337608589 0.049985251015384764 0.984859870307595 -0.11776799672123126 0.00428722507132123 0.023178126338265145 -0.003646980878589159 -0.014702509606774355
 0.984859870307595 -0.11776799672123126 0.011754142708404441 0.049985388786769926 -0.0036431246543532866 -0.014702937991763764 0.004290300388316487 0.023177635771801933
