! Created with skrf 1.8.0 (http://scikit-rf.org).
# GHz S RI R 50.0 
!freq ReS11 ImS11 ReS12 ImS12 ReS13 ImS13
! ReS14 ImS14
! ReS21 ImS21 ReS22 ImS22 ReS23 ImS23
! ReS24 ImS24
! ReS31 ImS31 ReS32 ImS32 ReS33 ImS33
! ReS34 ImS34
! ReS41 ImS41 ReS42 ImS42 ReS43 ImS43
! ReS44 ImS44
!
0.0 0.001516712098082 0.0 0.9984832878628 0.0 5.861721132339e-05 0.0 -5.861721144574e-05 7.178538037196908e-21
 0.9984832878628 0.0 0.001516712098096 0.0 -5.861721144603e-05 7.178538037232423e-21 5.86172113242e-05 0.0
 5.861721132339e-05 0.0 -5.861721144603e-05 7.178538037232423e-21 0.001516712117627 0.0 0.9984832878824 0.0
 -5.861721144574e-05 7.178538037196908e-21 5.86172113242e-05 0.0 0.9984832878824 0.0 0.001516712117628 0.0
0.005 0.0016318149659343886 0.001237852194007806 0.9983376716392562 -0.0031774024412570922 8.253630056523212e-05 0.0006637287060532911 -8.005298973651118e-05 -0.00041350428721842144
 0.9983376716392562 -0.0031774024412570922 0.0016318214725283284 0.001237848307970318 -8.005514065851098e-05 -0.0004135058390763023 8.248720321103854e-05 0.000663747302965906
 8.253630056523212e-05 0.0006637287060532911 -8.005514065851098e-05 -0.0004135058390763023 0.0016318147157535403 0.0012379195515074158 0.9983376719969179 -0.0031773353712736237
 -8.005298973651118e-05 -0.00041350428721842144 8.248720321103854e-05 0.000663747302965906 0.9983376719969179 -0.0031773353712736237 0.0016318224292944416 0.0012379150815902162
0.006252605252188 0.0016619806410350978 0.0015522016315085007 0.9982992706954097 -0.003972534854385016 8.935900086295193e-05 0.0008299753822052994 -8.609636597498001e-05 -0.0005174203247985034
 0.9982992706954097 -0.003972534854385016 0.0016619908130506627 0.0015521967085815624 -8.609971380246348e-05 -0.0005174222361635677 8.92822894407021e-05 0.0008299995445883366
 8.935900086295193e-05 0.0008299753822052994 -8.609971380246348e-05 -0.0005174222361635677 0.001661980175879191 0.0015522858028963042 0.9982992711801681 -0.003972451030478488
 -8.609636597498001e-05 -0.0005174203247985034 8.92822894407021e-05 0.0008299995445883366 0.9982992711801681 -0.003972451030478488 0.0016619922335547248 0.0015522801655125154
0.01250521050438 0.0018206494242128243 0.0031370610666101827 0.9980959607699513 -0.007945910845050048 0.00012842798447713428 0.0016602622862265382 -0.00012033879242225425 -0.0010373797254631405
 0.9980959607699513 -0.007945910845050048 0.0018206900558188845 0.0031370505721540634 -0.00012035199593050334 -0.0010373832353291613 0.00012812203584270233 0.001660320472132614
 0.00012842798447713428 0.0016602622862265382 -0.00012035199593050334 -0.0010373832353291613 0.001820647009166617 0.0031372290308518506 0.9980959621424298 -0.007945743431438041
 -0.00012033879242225425 -0.0010373797254631405 0.00012812203584270233 0.001660320472132614 0.9980959621424298 -0.007945743431438041 0.001820695152247082 0.003137217255812364
0.01875781575657 0.0019930611599132215 0.004744592081861967 0.9978731081208067 -0.011929805566137807 0.0001759136549177103 0.0024914378541633165 -0.00016144954587318913 -0.0015591074288590608
 0.9978731081208067 -0.011929805566137807 0.0019931524886812597 0.004744575340427873 -0.00016147900428662205 -0.0015591121613246798 0.00017522627830985656 0.0024915418068472478
 0.0001759136549177103 0.0024914378541633165 -0.00016147900428662205 -0.0015591121613246798 0.0019930553205982117 0.004744843582720737 0.9978731107836568 -0.011929554612786298
 -0.00016144954587318913 -0.0015591074288590608 0.00017522627830985656 0.0024915418068472478 0.9978731107836568 -0.011929554612786298 0.001993163491479309 0.004744825126241462
0.02501042100875 0.002179548623073336 0.006372542059055501 0.9976304530006845 -0.015926152820986115 0.00023190689835527042 0.003323542521251936 -0.00020953023152252197 -0.002082363732556137
 0.9976304530006845 -0.015926152820986115 0.0021797108626051332 0.006372518376706868 -0.00020958227224530062 -0.002082369242453537 0.0002306857894293035 0.003323705805231142
 0.00023190689835527042 0.003323542521251936 -0.00020958227224530062 -0.002082369242453537 0.0021795378976227145 0.006372876819797271 0.997630457363835 -0.015925818334791977
 -0.00020953023152252197 -0.002082363732556137 0.0002306857894293035 0.003323705805231142 0.997630457363835 -0.015925818334791977 0.002179729987569955 0.006372851105824773
0.03126302626094 0.0023804308058528066 0.008019753007139028 0.997367722289003 -0.019935781572050764 0.00029649913672330275 0.004156538145716209 -0.000264679566227297 -0.002606981851337122
 0.997367722289003 -0.019935781572050764 0.0023806841581506667 0.0080197216734172 -0.0002647604571533182 -0.002606987623396016 0.00029459173955912653 0.0041567761585418915
 0.00029649913672330275 0.004156538145716209 -0.0002647604571533182 -0.002606987623396016 0.002380413734315092 0.008020170735763917 0.9973677287620062 -0.01993536351115296
 -0.000264679566227297 -0.002606981851337122 0.00029459173955912653 0.0041567761585418915 0.9973677287620062 -0.01993536351115296 0.00238071359816394 0.008020137158275414
0.037515631513130004 0.002596019804251161 0.009685470851221529 0.9970846365909509 -0.02395910659173713 0.00036978139506432263 0.004990355597484767 -0.00032699412463219366 -0.0031328203272735153
 0.9970846365909509 -0.02395910659173713 0.0025963844672517353 0.009685431140420536 -0.0003271100802753577 -0.00313282577578957 0.00036703484073456397 0.004990685589008411
 0.00036978139506432263 0.004990355597484767 -0.0003271100802753577 -0.00313282577578957 0.0025959949309410347 0.009685971213935454 0.9970846455879718 -0.02395860489173846
 -0.00032699412463219366 -0.0031328203272735153 0.00036703484073456397 0.004990685589008411 0.9970846455879718 -0.02395860489173846 0.0025964263967294247 0.009685929138370757
0.043768236765320004 0.0028266234880755282 0.011369135214133783 0.9967809131227933 -0.027996338611914987 0.0004518438680268294 0.005824909245246372 -0.00039656860468312744 -0.0036597485428771013
 0.9967809131227933 -0.027996338611914987 0.002827119662268923 0.011369086386182474 -0.00039672578972488337 -0.0036597530115456906 0.0004481049461226824 0.005825350339117596
 0.0004518438680268294 0.005824909245246372 -0.00039672578972488337 -0.0036597530115456906 0.0028265893603393153 0.011369717850241582 0.9967809250639881 -0.027995753170735403
 -0.00039656860468312744 -0.0036597485428771013 0.0004481049461226824 0.005825350339117596 0.9967809250639881 -0.027995753170735403 0.0028271762374533415 0.011369666614211998
0.050020842017509996 0.003072546739010154 0.01307029255249478 0.9964562671685193 -0.03204757111725285 0.0005427756607341068 0.006660102927707211 -0.00047349592406675204 -0.004187640752360309
 0.9964562671685193 -0.03204757111725285 0.0030731946339250917 0.013070233853430206 -0.0004737004556153579 -0.0041876435141507936 0.0005378908082933104 0.006660676143817182
 0.0005427756607341068 0.006660102927707211 -0.0004737004556153579 -0.0041876435141507936 0.003072501904411342 0.013070957055782054 0.9964562824791235 -0.03204690181351814
 -0.00047349592406675204 -0.004187640752360309 0.0005378908082933104 0.006660676143817182 0.9964562824791235 -0.03204690181351814 0.0030732679907956055 0.01307089596955792
0.055454545454549996 0.003298937869618098 0.014562552732670785 0.9961569264351717 -0.03557960103783064 0.00062906936444822 0.007386350912665881 -0.0005463903447417503 -0.004647081785307373
 0.9961569264351717 -0.03557960103783064 0.0032997340378517447 0.01456248483262366 -0.0005466409537850941 -0.004647082418339781 0.000623063677361901 0.007387057507638121
 0.00062906936444822 0.007386350912665881 -0.0005466409537850941 -0.004647082418339781 0.0032988825511978174 0.014563288023246223 0.9961569450253145 -0.035578858733911936
 -0.0005463903447417503 -0.004647081785307373 0.000623063677361901 0.007387057507638121 0.9961569450253145 -0.035578858733911936 0.0032998236984932523 0.014563217795821337
0.056273447269699996 0.003334092084943478 0.014788553513057797 0.996110412935361 -0.03611282291900059 0.0006426646041761037 0.007495832895788728 -0.0005578672435113291 -0.004716373145035528
 0.996110412935361 -0.03611282291900059 0.0033349119241691343 0.014788484175576436 -0.0005581251924930102 -0.004716373402112161 0.0006364799050480088 0.007496561173126217
 0.0006426646041761037 0.007495832895788728 -0.0005581251924930102 -0.004716373402112161 0.003334035091586588 0.01478929944248881 0.9961104320485514 -0.03611206960126656
 -0.0005578672435113291 -0.004716373145035528 0.0006364799050480088 0.007496561173126217 0.9961104320485514 -0.03611206960126656 0.003335004179930289 0.014789227789379938
0.06252605252188 0.0036115600445389834 0.016523569488115234 0.9957430641248258 -0.04019206153274375 0.0007515971099481081 0.008331989421190067 -0.0006497719503787172 -0.005245822246014937
 0.9957430641248258 -0.04019206153274375 0.003612572071467099 0.016523488731757727 -0.0006500893424692572 -0.005245819129668105 0.0007439583012283039 0.008332897640785049
 0.0007515971099481081 0.008331989421190067 -0.0006500893424692572 -0.005245819129668105 0.003611489437714041 0.016524396361713836 0.9957430874804225 -0.04019122402544506
 -0.0006497719503787172 -0.005245822246014937 0.0007439583012283039 0.008332897640785049 0.9957430874804225 -0.04019122402544506 0.0036126853217395088 0.016524313398080116
0.06877865777407 0.0039052493027747813 0.018275018644630873 0.9953539343365961 -0.04428521708547108 0.0008696580459810211 0.009168457764689686 -0.00074929762060686 -0.005775863961069426
 0.9953539343365961 -0.04428521708547108 0.003906473785427275 0.018274925675932596 -0.0007496804366955783 -0.00577585653165785 0.0008604105293122382 0.009169572772593943
 0.0008696580459810211 0.009168457764689686 -0.0007496804366955783 -0.00577585653165785 0.0039051636251205904 0.0182759259390958 0.9953539623837905 -0.04428429518930856
 -0.00074929762060686 -0.005775863961069426 0.0008604105293122382 0.009169572772593943 0.9953539623837905 -0.04428429518930856 0.003906610105729026 0.01827583089430431
0.07503126302626001 0.004215456798231415 0.020042597061301994 0.9949427373899582 -0.04839219111913054 0.0009969306240025372 0.010005118792169433 -0.0008565299676396233 -0.006306372978006945
 0.9949427373899582 -0.04839219111913054 0.004216914034921817 0.02004249107364782 -0.0008569841442267007 -0.0063063602249224335 0.0009859194805480938 0.010006469422307077
 0.0009969306240025372 0.010005118792169433 -0.0008569841442267007 -0.0063063602249224335 0.00421535458793287 0.020043584217428165 0.9949427705871171 -0.04839118460559158
 -0.0008565299676396233 -0.006306372978006945 0.0009859194805480938 0.010006469422307077 0.9949427705871171 -0.04839118460559158 0.004217075478714523 0.020043476293503122
0.08128386827845 0.00454247774628896 0.021826012833009147 0.9945091875826224 -0.052512862430900725 0.0011334962953741044 0.010841849385231724 -0.0009715527819119461 -0.006837222377893156
 0.9945091875826224 -0.052512862430900725 0.004544188070432735 0.021825893006461348 -0.0009720842110908835 -0.006837203219527134 0.0011205663038409773 0.01084346648204866
 0.0011334962953741044 0.010841849385231724 -0.0009720842110908835 -0.006837203219527134 0.004542357535421556 0.02182707924898905 0.9945092263985608 -0.05251177104908765
 -0.0009715527819119461 -0.006837222377893156 0.0011205663038409773 0.01084346648204866 0.9945092263985608 -0.05251177104908765 0.004544376669014482 0.02182695762016668
0.08753647353064001 0.004886605623466307 0.023624982002304108 0.9940529999157871 -0.056647091091520704 0.001279434651730079 0.01167852273638882 -0.0010944478643142865 -0.007368283366236873
 0.9940529999157871 -0.056647091091520704 0.00488858940895074 0.023624847503118992 -0.0010950623937876248 -0.0073682566499631555 0.0012644303085212378 0.01168043917735868
 0.001279434651730079 0.01167852273638882 -0.0010950623937876248 -0.0073682566499631555 0.004886465936729405 0.02362612703684528 0.994053044830263 -0.05664591456510683
 -0.0010944478643142865 -0.007368283366236873 0.0012644303085212378 0.01168043917735868 0.994053044830263 -0.05664591456510683 0.004888807170297487 0.023625990848910663
0.09378907878283 0.005248132125115695 0.025439225636796684 0.9935738902947491 -0.060794721322577634 0.0014348233286791915 0.012515008561171648 -0.0012252949553873188 -0.007899425092016368
 0.9935738902947491 -0.060794721322577634 0.005250409791394636 0.02543907561685506 -0.0012259983882679938 -0.007899389594188348 0.001417588870183092 0.012517259278958333
 0.0014348233286791915 0.012515008561171648 -0.0012259983882679938 -0.007899389594188348 0.005247971478757566 0.025440448610600012 0.9935739418002241 -0.060793459348450554
 -0.0012252949553873188 -0.007899425092016368 0.001417588870183092 0.012517259278958333 0.9935739418002241 -0.060793459348450554 0.005250658699918168 0.025440296980053383
0.100041684035 0.005627347102568436 0.027268467712482806 0.9930715757133329 -0.0649555835732709 0.0015997379119042515 0.013351173261166954 -0.001364171661131868 -0.008430514520721322
 0.9930715757133329 -0.0649555835732709 0.005629939120069175 0.027268301308517595 -0.0013649697556986035 -0.008430468946678541 0.0015801173383694295 0.013353795265489195
 0.0015997379119042515 0.013351173261166954 -0.0013649697556986035 -0.008430468946678541 0.0056271640026862675 0.027269767901009982 0.9930716343149844 -0.06495423582907789
 -0.001364171661131868 -0.008430514520721322 0.0015801173383694295 0.013353795265489195 0.9930716343149844 -0.06495423582907789 0.005630221135380053 0.027269599913948533
0.1059090909091 0.005999544123926636 0.028998413556417316 0.9925788511070618 -0.0688719841249064 0.0017632219146220336 0.014135411281820479 -0.0015018627566383141 -0.008928717559061222
 0.9925788511070618 -0.0688719841249064 0.006002449794367494 0.028998230978295455 -0.0015027548780054331 -0.008928661288839292 0.0017412201571687762 0.01413841722828811
 0.0017632219146220336 0.014135411281820479 -0.0015027548780054331 -0.008928661288839292 0.005999338584955088 0.02899978551215051 0.9925789168396583 -0.06887055557582365
 -0.0015018627566383141 -0.008928717559061222 0.0017412201571687762 0.01413841722828811 0.9925789168396583 -0.06887055557582365 0.006002764636412298 0.028999601316935453
0.1062942892872 0.006024538485337309 0.029112433491098006 0.9925457744260249 -0.06912949610871268 0.0017742518446564257 0.014186880052147258 -0.0015111533763886706 -0.008961416347203151
 0.9925457744260249 -0.06912949610871268 0.00602746538074878 0.02911224982371089 -0.0015120518457453626 -0.00896135933129303 0.0017520889456423458 0.014189912451359058
 0.0017742518446564257 0.014186880052147258 -0.0015120518457453626 -0.00896135933129303 0.006024331426676521 0.029113810133570048 0.9925458406430407 -0.0691280622440452
 -0.0015111533763886706 -0.008961416347203151 0.0017520889456423458 0.014189912451359058 0.9925458406430407 -0.0691280622440452 0.006027782436992701 0.02911362484449453
0.11254689453939999 0.006439992193219403 0.030970848316304988 0.991996206112257 -0.07331626618493944 0.001958436336495088 0.015021989070670006 -0.0016663132061933413 -0.009491992935230004
 0.991996206112257 -0.07331626618493944 0.006443274554720804 0.030970646488840452 -0.0016673177178532542 -0.00949192304084833 0.0019335747176069974 0.0150254730929246
 0.001958436336495088 0.015021989070670006 -0.0016673177178532542 -0.00949192304084833 0.006439759657693703 0.030972300610636026 0.9919962804789673 -0.07331474582685675
 -0.0016663132061933413 -0.009491992935230004 0.0019335747176069974 0.0150254730929246 0.9919962804789673 -0.07331474582685675 0.006443628559828 0.0309720970409425
0.11879949979160001 0.006873992038600872 0.03284343664714719 0.9914225920352143 -0.07751569099286121 0.002152360272679869 0.015856357466496405 -0.0018297218857923334 -0.01002210427644501
 0.9914225920352143 -0.07751569099286121 0.006877650521173951 0.03284321574430737 -0.001830838061203085 -0.010022019996086493 0.0021246433834513313 0.01586033648056177
 0.002152360272679869 0.015856357466496405 -0.001830838061203085 -0.010022019996086493 0.006873732493802227 0.03284496375368424 0.9914226751020077 -0.07751408374247215
 -0.0018297218857923334 -0.01002210427644501 0.0021246433834513313 0.01586033648056177 0.9914226751020077 -0.07751408374247215 0.006878043355985965 0.032844740890023386
0.1250521050438 0.007326819622572415 0.03472992131882935 0.9908246551967054 -0.08172755838075497 0.0023560901242661333 0.01668983947747264 -0.0020014476992943012 -0.010551607972204972
 0.9908246551967054 -0.08172755838075497 0.007330874953614305 0.03472968040512979 -0.0020026811133601443 -0.010551507727532229 0.002325361287268038 0.01669435901305219
 0.0023560901242661333 0.01668983947747264 -0.0020026811133601443 -0.010551507727532229 0.007326531520534093 0.034731522357279845 0.9908247475305514 -0.08172586381676619
 -0.0020014476992943012 -0.010551607972204972 0.002325361287268038 0.01669435901305219 0.9908247475305514 -0.08172586381676619 0.007331308471007533 0.034731279149608774
0.131304710296 0.007798754224623716 0.03663002293815959 0.9902021204871844 -0.0859516474483364 0.0025696898586452183 0.017522286504156274 -0.002181556397507726 -0.011080359221052842
 0.9902021204871844 -0.0859516474483364 0.00780322720948568 0.03662976105610927 -0.002182912578053543 -0.011080241362965466 0.002535792299610527 0.017527394271896462
 0.0025696898586452183 0.017522286504156274 -0.002182912578053543 -0.011080241362965466 0.007798436000459082 0.03663169699061414 0.9902022226733039 -0.08594986512465191
 -0.002181556397507726 -0.011080359221052842 0.002535792299610527 0.017527394271896462 0.9902022226733039 -0.08594986512465191 0.007803703233274822 0.03663143235012041
0.1375573155481 0.00818145124229115 0.038295000844255356 0.9896633777644415 -0.0899391610474338 0.002766315070851561 0.01832847894959398 -0.0023432482873227845 -0.011583127967380303
 0.9896633777644415 -0.0899391610474338 0.008186362946054458 0.03829472258354941 -0.0023447351287334667 -0.01158299236032839 0.002729174292042001 0.018334167141771232
 0.002766315070851561 0.01832847894959398 -0.0023447351287334667 -0.01158299236032839 0.008181100372356758 0.03829674776827546 0.9896634902621461 -0.08993729068766725
 -0.0023432482873227845 -0.011583127967380303 0.002729174292042001 0.018334167141771232 0.9896634902621461 -0.08993729068766725 0.00818688447708257 0.03829646484690712
0.1438099208003 0.00857759417037621 0.03995124513026211 0.9891057147095494 -0.09391661516354921 0.0029708890104380775 0.019131444696977962 -0.0025114134862543854 -0.012082961064688402
 0.9891057147095494 -0.09391661516354921 0.008582965501023346 0.039950949825436205 -0.0025130368752109863 -0.012082806095311927 0.002930362966177657 0.01913775684818515
 0.0029708890104380775 0.019131444696977962 -0.0025130368752109863 -0.012082806095311927 0.008577208890570868 0.03995306403562591 0.9891058381040329 -0.09391465632754649
 -0.0025114134862543854 -0.012082961064688402 0.002930362966177657 0.01913775684818515 0.9891058381040329 -0.09391465632754649 0.008583534535425406 0.03995276188713107
0.1500625260525 0.008987044167275015 0.041598618778875995 0.9885292742404606 -0.09788391248261652 0.0031833418166545306 0.019931102633753268 -0.0026859844241141546 -0.012579782395592529
 0.9885292742404606 -0.09788391248261652 0.0089928960984266 0.041598305709088707 -0.002687750230764996 -0.01257960638633441 0.0031392893219160177 0.019938083858364902
 0.0031833418166545306 0.019931102633753268 -0.002687750230764996 -0.01257960638633441 0.008986622685032974 0.041600508741614285 0.9885294091322936 -0.09788186471528877
 -0.0026859844241141546 -0.012579782395592529 0.0031392893219160177 0.019938083858364902 0.9885294091322936 -0.09788186471528877 0.008993514618473687 0.041600186347224836
0.15631513130469998 0.009409661411707942 0.043236988919524655 0.9879341999969831 -0.10184095601040437 0.0034036028031957824 0.020727373006809758 -0.00286689269965126 -0.013073517448949778
 0.9879341999969831 -0.10184095601040437 0.009416014984418236 0.04323665730577801 -0.002868806777292731 -0.013073318658448851 0.0033558835467164486 0.0207350699820393
