! Created with skrf 1.8.0 (http://scikit-rf.org).
# GHz S RI R 50.0 
!freq ReS11 ImS11 ReS12 ImS12 ReS13 ImS13
! ReS14 ImS14
! ReS21 ImS21 ReS22 ImS22 ReS23 ImS23
! ReS24 ImS24
! ReS31 ImS31 ReS32 ImS32 ReS33 ImS33
! ReS34 ImS34
! ReS41 ImS41 ReS42 ImS42 ReS43 ImS43
! ReS44 ImS44
!
0.0 0.001537898370228 0.0 0.9984621016236 0.0 5.921637229475e-05 0.0 -5.921637235192e-05 7.251914085789664e-21
 0.9984621016236 0.0 0.001537898370261 0.0 -5.921637235286e-05 7.251914085904782e-21 5.921637229346e-05 0.0
 5.921637229475e-05 0.0 -5.921637235286e-05 7.251914085904782e-21 0.001537898366471 0.0 0.9984621016199 0.0
 -5.921637235192e-05 7.251914085789664e-21 5.921637229346e-05 0.0 0.9984621016199 0.0 0.001537898366455 0.0
0.005 0.0016546113610617127 0.0012598716360964198 0.9983144553311029 -0.003221443317746518 8.268254535228565e-05 0.0006418390575942067 -8.036588276617711e-05 -0.00040472959660745647
 0.9983144553311029 -0.003221443317746518 0.0016546230053148961 0.0012598647779341091 -8.036684043147766e-05 -0.00040473025266345977 8.261734640764789e-05 0.0006418639931513331
 8.268254535228565e-05 0.0006418390575942067 -8.036684043147766e-05 -0.00040473025266345977 0.0016546116391039504 0.0012599386858473823 0.9983144556972943 -0.00322137625833619
 -8.036588276617711e-05 -0.00040472959660745647 8.261734640764789e-05 0.0006418639931513331 0.9983144556972943 -0.00322137625833619 0.001654623451576924 0.0012599318391999367
0.006252605252188 0.0016852146645850627 0.0015797882665103582 0.9982754985260651 -0.004027592044114956 8.93807882077738e-05 0.0008026151233184285 -8.633046164823508e-05 -0.0005064330890788101
 0.9982754985260651 -0.004027592044114956 0.0016852328667894894 0.0015797795166245974 -8.633195248893173e-05 -0.0005064338962901273 8.927892212410848e-05 0.0008026474827043911
 8.93807882077738e-05 0.0008026151233184285 -8.633195248893173e-05 -0.0005064338962901273 0.001685215000972228 0.001579872066737477 0.9982754989998506 -0.004027508221163776
 -8.633046164823508e-05 -0.0005064330890788101 8.927892212410848e-05 0.0008026474827043911 0.9982754989998506 -0.004027508221163776 0.00168523346519049 0.0015798633450318706
0.01250521050438 0.0018462764019065245 0.003192613412312962 0.9980691279126989 -0.008055982041695903 0.0001277623662261773 0.0016056219940393751 -0.00012013657637529057 -0.0010153143760099899
 0.9980691279126989 -0.008055982041695903 0.0018463490887344698 0.0031925941142660966 -0.00012014245945509265 -0.0010153158484246074 0.00012735618545088093 0.001605699562219347
 0.0001277623662261773 0.0016056219940393751 -0.00012014245945509265 -0.0010153158484246074 0.001846277237885823 0.003192780641880278 0.9980691292927296 -0.008055814633817993
 -0.00012013657637529057 -0.0010153143760099899 0.00012735618545088093 0.001605699562219347 0.9980691292927296 -0.008055814633817993 0.001846350954344553 0.0031927615407996257
0.01875781575657 0.002021434690557332 0.004828354718517525 0.9978427336645415 -0.012094972894760159 0.00017445003906676318 0.0024095452817671234 -0.00016073834259413089 -0.0015259262452171603
 0.9978427336645415 -0.012094972894760159 0.0020215980326036623 0.004828322931339012 -0.00016075147294498287 -0.0015259282106072686 0.0001735376863296226 0.002409683442711465
 0.00017445003906676318 0.0024095452817671234 -0.00016075147294498287 -0.0015259282106072686 0.002021436157563203 0.004828605128677949 0.9978427363462912 -0.012094721951996852
 -0.00016073834259413089 -0.0015259262452171603 0.0001735376863296226 0.002409683442711465 0.9978427363462912 -0.012094721951996852 0.0020216017801827956 0.004828573854155251
0.02501042100875 0.0022110302561451187 0.0064847270691894224 0.9975960495202764 -0.01614652137227653 0.00022953405752611347 0.003214414602541383 -0.00020823610314552022 -0.0020380405206483895
 0.9975960495202764 -0.01614652137227653 0.0022113203560875237 0.006484680718952485 -0.00020825930523200945 -0.0020380427738630846 0.00022791365167796392 0.003214631180456368
 0.00022953405752611347 0.003214414602541383 -0.00020825930523200945 -0.0020380427738630846 0.0022110325021666706 0.0064850603759876385 0.9975960539137522 -0.016146186913118685
 -0.00020823610314552022 -0.0020380405206483895 0.00022791365167796392 0.003214631180456368 0.9975960539137522 -0.016146186913118685 0.0022113265972720825 0.006485015008710076
0.03126302626094 0.00241538975162273 0.00816055431819638 0.9973287956134108 -0.020211464715788902 0.0002931051207738673 0.0040201869175307 -0.0002627274254280643 -0.00255149602983781
 0.9973287956134108 -0.020211464715788902 0.002415842662214802 0.00816049119950173 -0.00026276349832392217 -0.0025514983324138435 0.00029057456698912594 0.00402050218906371
 0.0002931051207738673 0.0040201869175307 -0.00026276349832392217 -0.0025514983324138435 0.002415392928818956 0.008160970220896058 0.9973288021325935 -0.020211046708337906
 -0.0002627274254280643 -0.00255149602983781 0.00029057456698912594 0.00402050218906371 0.9973288021325935 -0.020211046708337906 0.002415851994416363 0.008160908718110616
0.037515631513130004 0.0026348327750550233 0.009855069464364727 0.9970406857089438 -0.024290220402540516 0.00036525349197211323 0.004826790409056216 -0.00032430778211922623 -0.003066154726081538
 0.9970406857089438 -0.024290220402540516 0.0026354845101071015 0.00985498724087828 -0.0003243595020347976 -0.0030661568060811255 0.00036161039697166745 0.004827227126523917
 0.00036525349197211323 0.004826790409056216 -0.0003243595020347976 -0.0030661568060811255 0.002634837035204896 0.00985556762126966 0.9970406947695645 -0.02428971878831888
 -0.00032430778211922623 -0.003066154726081538 0.00036161039697166745 0.004827227126523917 0.9970406947695645 -0.02428971878831888 0.002635497513278901 0.009855487817465291
0.043768236765320004 0.0028696745815568543 0.011567701665721648 0.9967314301387206 -0.02838299906021528 0.00044606857764433085 0.005634137822102128 -0.0003930707959401342 -0.0035818883473969624
 0.9967314301387206 -0.02838299906021528 0.0028705611252512527 0.011567597870214457 -0.0003931409177494549 -0.003581889899301442 0.00044111020987329386 0.005634721240128257
 0.00044606857764433085 0.005634137822102128 -0.0003931409177494549 -0.003581889899301442 0.002869680078935563 0.011568281685622087 0.996731442162853 -0.028382413762368806
 -0.0003930707959401342 -0.0035818883473969624 0.00044111020987329386 0.005634721240128257 0.996731442162853 -0.028382413762368806 0.0028705783650522605 0.011568181292863756
0.050020842017509996 0.0031202273465145694 0.013297988201494694 0.9964007372905359 -0.032489892432013355 0.0005356386736037304 0.006442131989740859 -0.00046910832643849834 -0.004098572894128968
 0.9964007372905359 -0.032489892432013355 0.003121384660508114 0.013297860235646754 -0.00046919958450214347 -0.004098573578761084 0.0005291619472636735 0.006442889893265197
 0.0005356386736037304 0.006442131989740859 -0.00046919958450214347 -0.004098573578761084 0.003120234234358259 0.013298649660247663 0.9964007527052184 -0.032489223338327024
 -0.00046910832643849834 -0.004098572894128968 0.0005291619472636735 0.006442889893265197 0.9964007527052184 -0.032489223338327024 0.003121406685838279 0.0132985262682141
0.055454545454549996 0.0033509651268098504 0.01481568702296726 0.996095718199492 -0.03607038391255689 0.0006206555478533664 0.007144747728801296 -0.0005411650706449332 -0.004548264598110986
 0.996095718199492 -0.03607038391255689 0.0033523869412777703 0.014815535840139135 -0.0005412769018733923 -0.004548264227410597 0.0006126941149386428 0.007145681816974963
 0.0006206555478533664 0.007144747728801296 -0.0005412769018733923 -0.004548264227410597 0.0033509733462588794 0.014816418867233123 0.9960957369121937 -0.03606964189622846
 -0.0005411650706449332 -0.004548264598110986 0.0006126941149386428 0.007145681816974963 0.9960957369121937 -0.03606964189622846 0.0033524135582011687 0.014816273435410738
0.056273447269699996 0.003386800811101742 0.015045531291639404 0.9960483144841454 -0.0366109164852271 0.000634050785701545 0.007250668526604071 -0.0005525104846019189 -0.004616085941707027
 0.9960483144841454 -0.0366109164852271 0.0033882648413193182 0.015045376425682174 -0.0005526255933186974 -0.004616085386161985 0.0006258522591394713 0.007251631259494329
 0.000634050785701545 0.007250668526604071 -0.0005526255933186974 -0.004616085386161985 0.003386809241068988 0.015046273710579147 0.9960483337225394 -0.03661016346941069
 -0.0005525104846019189 -0.004616085941707027 0.0006258522591394713 0.007251631259494329 0.9960483337225394 -0.03661016346941069 0.003388292184360705 0.01504612478631155
0.06252605252188 0.003669702628136838 0.016809974326440966 0.9956738685506171 -0.040746035112447634 0.0007413904868303024 0.008059637321829743 -0.0006433656117484424 -0.005134305157610356
 0.9956738685506171 -0.040746035112447634 0.003671509310834843 0.016809789698583513 -0.0006435072658346573 -0.005134302955212045 0.0007312663705258443 0.008060837815704137
 0.0007413904868303024 0.008059637321829743 -0.0006435072658346573 -0.005134302955212045 0.003669712748256146 0.016810797185300718 0.995673892052222 -0.04074519802110528
 -0.0006433656117484424 -0.005134305157610356 0.0007312663705258443 0.008060837815704137 0.995673892052222 -0.04074519802110528 0.0036715424858259466 0.016810620072783635
0.06877865777407 0.003969238542440103 0.018590987712236343 0.9952771062514313 -0.044895174220479284 0.0008577417918544516 0.00886892343111382 -0.0007417602401014327 -0.005653107423273628
 0.9952771062514313 -0.044895174220479284 0.003971423810512549 0.01859077032782735 -0.0007419311147763981 -0.005653103133521391 0.0008454879630606739 0.008870397234157812
 0.0008577417918544516 0.00886892343111382 -0.0007419311147763981 -0.005653103133521391 0.003969250497505875 0.018591890447501088 0.9952771344644286 -0.04489425287429722
 -0.0007417602401014327 -0.005653107423273628 0.0008454879630606739 0.008870397234157812 0.9952771344644286 -0.04489425287429722 0.00397146331451696 0.018591682367029648
0.07503126302626001 0.004285712475913392 0.020388259901457637 0.9948577346049974 -0.04905823063868323 0.0009831870474372535 0.009678407641586366 -0.0008477790376554766 -0.006172368287420918
 0.9948577346049974 -0.04905823063868323 0.004288312264196823 0.020388006632056883 -0.0008479817886478693 -0.006172361435950339 0.0009685990698586714 0.009680192947250692
 0.0009831870474372535 0.009678407641586366 -0.0008479817886478693 -0.006172361435950339 0.004285726404868039 0.020389241897937664 0.9948577679855107 -0.04905722484092627
 -0.0008477790376554766 -0.006172368287420918 0.0009685990698586714 0.009680192947250692 0.9948577679855107 -0.04905722484092627 0.0042883585754001675 0.020388999945284234
0.08128386827845 0.004619426549349971 0.02220149140502766 0.994415461154333 -0.053235078050091554 0.0011178068267477788 0.010487966859006827 -0.0009615047470563959 -0.006691961601581855
 0.994415461154333 -0.053235078050091554 0.004622476800481931 0.022201198987242956 -0.0009617420105818848 -0.006691951680133217 0.0011006799741710928 0.01049010453445333
 0.0011178068267477788 0.010487966859006827 -0.0009617420105818848 -0.006691951680133217 0.004619442584685417 0.02220255200543575 0.9944155001679928 -0.05323398757673699
 -0.0009615047470563959 -0.006691961601581855 0.0011006799741710928 0.01049010453445333 0.9944155001679928 -0.05323398757673699 0.0046225303780433775 0.02220227315075683
0.08753647353064001 0.00497068106502032 0.02403039067934027 0.9939499941988407 -0.05742557105260788 0.0012616798304910682 0.011297474377662795 -0.0010830181171160237 -0.007211759277585402
 0.9939499941988407 -0.05742557105260788 0.004974217735107564 0.02403005571340618 -0.0010832925097499497 -0.0072117457439823 0.0012418091136663855 0.011300007991909153
 0.0012616798304910682 0.011297474377662795 -0.0010832925097499497 -0.0072117457439823 0.004970699331436664 0.024031529174030102 0.9939500393216009 -0.057424395662588494
 -0.0010830181171160237 -0.007211759277585402 0.0012418091136663855 0.011300007991909153 0.9939500393216009 -0.057424395662588494 0.004974279018563872 0.024031210260653704
0.09378907878283 0.005339774460609555 0.025874671160802953 0.9934610430009235 -0.061629548078072735 0.0014148827908271491 0.01210680007146473 -0.0012123978304263798 -0.007731631128633871
 0.9934610430009235 -0.061629548078072735 0.005343833524591696 0.025874290109040195 -0.001212711948934025 -0.007731613406760776 0.0013920629869029807 0.01210977592313617
 0.0014148827908271491 0.01210680007146473 -0.001212711948934025 -0.007731613406760776 0.005339795073546545 0.025875886795431086 0.993461094719775 -0.061628287505583475
 -0.0012123978304263798 -0.007731631128633871 0.0013920629869029807 0.01210977592313617 0.993461094719775 -0.061628287505583475 0.005343902933164502 0.025875524538305203
0.100041684035 0.005727003243163811 0.02773404911317081 0.9929483179768398 -0.06584683350410311 0.0015774903762744822 0.012915810557326528 -0.0013497204289337284 -0.008251444743045514
 0.9929483179768398 -0.06584683350410311 0.005731620700572529 0.027733618298162253 -0.0013500768500846639 -0.008251422222839058 0.0015515160605274851 0.012919277702072943
 0.0015774903762744822 0.012915810557326528 -0.0013500768500846639 -0.008251422222839058 0.005727026307462415 0.02773534108669743 0.9929483767904501 -0.06584548746057631
 -0.0013497204289337284 -0.008251444743045514 0.0015515160605274851 0.012919277702072943 0.9929483767904501 -0.06584548746057631 0.005731698632246286 0.02773493207070112
0.1059090909091 0.006107132680640842 0.02949235740880802 0.992445301099255 -0.06981624503000279 0.0017386983738937871 0.013674572837889525 -0.0014858733252718448 -0.008739061756459474
 0.992445301099255 -0.06981624503000279 0.006112306898852031 0.029491876425450314 -0.0014862717685007536 -0.008739034148438324 0.0017095769017494084 0.013678548104175335
 0.0017386983738937871 0.013674572837889525 -0.0014862717685007536 -0.008739034148438324 0.006107158130590161 0.029493720245136204 0.9924453670357899 -0.0698148185014379
 -0.0014858733252718448 -0.008739061756459474 0.0017095769017494084 0.013678548104175335 0.9924453670357899 -0.0698148185014379 0.006112393171499699 0.029493264127302393
0.1062942892872 0.006132661907231563 0.029608242006369266 0.992411530873541 -0.07007723924005074 0.001749575099800036 0.013724369307849057 -0.0014950602354041184 -0.00877106541385272
 0.992411530873541 -0.07007723924005074 0.006137873787533317 0.029607757608939765 -0.0014954615157472854 -0.008771037451301646 0.0017202406794447176 0.01372837958519322
 0.001749575099800036 0.013724369307849057 -0.0014954615157472854 -0.008771037451301646 0.006132687516373824 0.029609609469256004 0.9924115972936604 -0.07007580741612769
 -0.0014950602354041184 -0.00877106541385272 0.0017202406794447176 0.01372837958519322 0.9924115972936604 -0.07007580741612769 0.0061379606188665834 0.029609150147242302
0.11254689453939999 0.006557042843053367 0.03149696727051893 0.9918503949404739 -0.07432056594397471 0.001931207226480738 0.014532336755640068 -0.0016484892746163602 -0.009290356081864208
 0.9918503949404739 -0.07432056594397471 0.006562885211352412 0.031496425327488954 -0.0016489379501972987 -0.009290321999012786 0.0018983069761869572 0.01453694481537854
 0.001931207226480738 0.014532336755640068 -0.0016489379501972987 -0.009290321999012786 0.006557071077026046 0.031498409324404314 0.9918504694921173 -0.07431904800991769
 -0.0016484892746163602 -0.009290356081864208 0.0018983069761869572 0.01453694481537854 0.9918504694921173 -0.07431904800991769 0.006562981296252239 0.031497896015009984
0.11879949979160001 0.007000436234526339 0.03339994133370543 0.9912646250926299 -0.07857660396188015 0.0021224546827248343 0.015339570377825403 -0.0018100771922298366 -0.009809177303882755
 0.9912646250926299 -0.07857660396188015 0.007006945197108709 0.03339933773542542 -0.0018105757782535114 -0.009809136388859902 0.0020857827818677307 0.015344833705883073
 0.0021224546827248343 0.015339570377825403 -0.0018105757782535114 -0.009809136388859902 0.007000467158949308 0.03340145703582544 0.9912647083154275 -0.0785749995633092
 -0.0018100771922298366 -0.009809177303882755 0.0020857827818677307 0.015344833705883073 0.9912647083154275 -0.0785749995633092 0.0070070508664735204 0.03340088592100172
0.1250521050438 0.007463129950464993 0.035316878865936346 0.9906539380708713 -0.08284513406713426 0.002323382966014029 0.01614592477114571 -0.0019798911727590975 -0.010327387235788564
 0.9906539380708713 -0.08284513406713426 0.00747034166029741 0.03531620935351394 -0.0019804421633992093 -0.010327338742803293 0.0022827335371784444 0.016151903714872174
 0.002323382966014029 0.01614592477114571 -0.0019804421633992093 -0.010327338742803293 0.007463163615321094 0.035318467223077035 0.9906540305198325 -0.082843442831362
 -0.0019798911727590975 -0.010327387235788564 0.0022827335371784444 0.016151903714872174 0.9906540305198325 -0.082843442831362 0.0074704572212471315 0.03531783434544054
0.131304710296 0.007945409430288474 0.037247492168132036 0.990018052598634 -0.08712592806141739 0.0025340550548409117 0.016951251723103182 -0.0021579958567753796 -0.010844841624994838
 0.990018052598634 -0.08712592806141739 0.007953360092553234 0.03724675233054349 -0.002158601724708855 -0.010844784774425473 0.0024892222040128783 0.016958009515901613
 0.0025340550548409117 0.016951251723103182 -0.002158601724708855 -0.010844784774425473 0.007945445868146682 0.037249152141243795 0.9900181548451095 -0.0871241495931974
 -0.0021579958567753796 -0.010844841624994838 0.0024892222040128783 0.016958009515901613 0.9900181548451095 -0.0871241495931974 0.007953485827683515 0.03724845340104847
0.1375573155481 0.00833695098836233 0.03894034937636588 0.9894673388210506 -0.0911675001441178 0.0027280924684740695 0.017730480756559478 -0.0023180668219145175 -0.011336451505669979
 0.9894673388210506 -0.0911675001441178 0.008345678566945075 0.0389395515688514 -0.002318731001061509 -0.01133638621827976 0.0026789691640176365 0.017738007957995194
 0.0027280924684740695 0.017730480756559478 -0.002318731001061509 -0.01133638621827976 0.008336989353959802 0.03894208056398735 0.9894674513212746 -0.091165634202808
 -0.0023180668219145175 -0.011336451505669979 0.0026789691640176365 0.017738007957995194 0.9894674513212746 -0.091165634202808 0.008345815836929253 0.03894132758739862
0.1438099208003 0.0087422777813029 0.04062429633718721 0.9888972438035859 -0.09519882070270584 0.0029299671490305925 0.018506504965831786 -0.0024845349937483484 -0.01182513608259458
 0.9888972438035859 -0.09519882070270584 0.008751818790039905 0.04062343726294784 -0.002485260099383245 -0.011825061596855476 0.002876365339615566 0.018514859496137372
 0.0029299671490305925 0.018506504965831786 -0.002485260099383245 -0.011825061596855476 0.008742317923281274 0.04062609771228671 0.9888973671287274 -0.09519686690121565
 -0.0024845349937483484 -0.01182513608259458 0.002876365339615566 0.018514859496137372 0.9888973671287274 -0.09519686690121565 0.00875196803781673 0.040625287405729425
0.1500625260525 0.00916124709117131 0.04229919215315684 0.9883079143315234 -0.09921978922047646 0.003139609404451317 0.019279243672709855 -0.002657332956909574 -0.01231081968358487
 0.9883079143315234 -0.09921978922047646 0.009171638097932458 0.042298268339993145 -0.002658121595370138 -0.012310735207886942 0.003081342166945217 0.01928848556676174
 0.003139609404451317 0.019279243672709855 -0.002658121595370138 -0.012310735207886942 0.009161288830682998 0.04230106265303296 0.9883080490665697 -0.09921774715458996
 -0.002657332956909574 -0.01231081968358487 0.003081342166945217 0.01928848556676174 0.9883080490665697 -0.09921774715458996 0.009171799755420927 0.042300191751158976
0.15631513130469998 0.009593715189592652 0.04396490017827151 0.9876994979330267 -0.10323030554368681 0.0033569487163084386 0.020048617573438666 -0.0028363924655372377 -0.0127934282376956
