! Created with skrf 1.8.0 (http://scikit-rf.org).
# GHz S RI R 50.0 
!freq ReS11 ImS11 ReS12 ImS12 ReS13 ImS13
! ReS14 ImS14
! ReS21 ImS21 ReS22 ImS22 ReS23 ImS23
! ReS24 ImS24
! ReS31 ImS31 ReS32 ImS32 ReS33 ImS33
! ReS34 ImS34
! ReS41 ImS41 ReS42 ImS42 ReS43 ImS43
! ReS44 ImS44
!
0.0 0.001821840805119 0.0 0.9981781591948 0.0 7.084416559805e-05 0.0 -7.084416681805e-05 8.675908213198606e-21
 0.9981781591948 0.0 0.001821840805137 0.0 -7.084416681844e-05 8.675908213246368e-21 7.084416559592e-05 0.0
 7.084416559805e-05 0.0 -7.084416681844e-05 8.675908213246368e-21 0.00182184079882 0.0 0.9981781591884 0.0
 -7.084416681805e-05 8.675908213198606e-21 7.084416559592e-05 0.0 0.9981781591884 0.0 0.001821840798814 0.0
0.005 0.001961137377293962 0.001487545151025848 0.9980017885331907 -0.00381534854759064 0.00010000293936594576 0.0007928111390654607 -9.708694000192592e-05 -0.0004952957850035513
 0.9980017885331907 -0.00381534854759064 0.0019611048250391854 0.0014875641113343912 -9.708642900358306e-05 -0.0004952953228076791 0.00010021202403947325 0.000792731473820248
 0.00010000293936594576 0.0007928111390654607 -9.708642900358306e-05 -0.0004952953228076791 0.0019611376126462835 0.0014874776826531585 0.9980017881520282 -0.003815415604845912
 -9.708694000192592e-05 -0.0004952957850035513 0.00010021202403947325 0.000792731473820248 0.9980017881520282 -0.003815415604845912 0.0019611038357972553 0.001487497472698521
0.006252605252188 0.001997959844379293 0.0018652524658301244 0.9979548343859024 -0.004770073874277908 0.000108456521487967 0.0009913759725399549 -0.0001046296694830944 -0.0006197453543581962
 0.9979548343859024 -0.004770073874277908 0.0019979089595187688 0.0018652765318848052 -0.00010462887489441473 -0.0006197447831506435 0.00010878319303675914 0.0009912724379424018
 0.000108456521487967 0.0009913759725399549 -0.00010462887489441473 -0.0006197447831506435 0.001997960287246917 0.0018651681267052125 0.9979548338643427 -0.004770157695904352
 -0.0001046296694830944 -0.0006197453543581962 0.00010878319303675914 0.0009912724379424018 0.9979548338643427 -0.004770157695904352 0.00199790748701213 0.0018651932445150352
0.01250521050438 0.0021934834324361394 0.0037692216743500013 0.9977037030898636 -0.00954062095970628 0.0001575877183076562 0.001982961134438889 -0.0001481415759409014 -0.0012423139318528055
 0.9977037030898636 -0.00954062095970628 0.002193280250882217 0.003769273491825971 -0.0001481384514357218 -0.0012423128611239289 0.0001588903403895203 0.001982710939809687
 0.0001575877183076562 0.001982961134438889 -0.0001481384514357218 -0.0012423128611239289 0.002193485760146034 0.0037690532149880136 0.9977037015545315 -0.009540788364443994
 -0.0001481415759409014 -0.0012423139318528055 0.0001588903403895203 0.001982710939809687 0.9977037015545315 -0.009540788364443994 0.0021932749133075956 0.0037691072982409843
0.01875781575657 0.002408896543402018 0.005699842250386621 0.9974244119298492 -0.014323182747634484 0.00021836244293304798 0.0029753901584806393 -0.00020152596860877287 -0.0018667471631909622
 0.9974244119298492 -0.014323182747634484 0.0024084399856836294 0.0056999257762467125 -0.00020151901055477046 -0.001866745678010451 0.00022128846469983104 0.0029749406344554037
 0.00021836244293304798 0.0029753901584806393 -0.00020151901055477046 -0.001866745678010451 0.0024089022264582967 0.005699589747495982 0.997424408906396 -0.014323433676542954
 -0.00020152596860877287 -0.0018667471631909622 0.00022128846469983104 0.0029749406344554037 0.997424408906396 -0.014323433676542954 0.0024084284111429645 0.005699676964077383
0.02501042100875 0.0026446662178304186 0.007654331620314905 0.997116592149556 -0.019120000632660138 0.000290905546496759 0.003968662618345192 -0.00026492274683255495 -0.00249271191705519
 0.997116592149556 -0.019120000632660138 0.0026438553973621103 0.007654451047053706 -0.0002649104728451688 -0.0024927101175517244 0.00029610249180380365 0.00396795182103508
 0.000290905546496759 0.003968662618345192 -0.0002649104728451688 -0.0024927101175517244 0.0026446767250670232 0.007653995140361376 0.9971165871477267 -0.019120335075170317
 -0.00026492274683255495 -0.00249271191705519 0.00029610249180380365 0.00396795182103508 0.9971165871477267 -0.019120335075170317 0.0026438352007510956 0.007654119941285581
0.03126302626094 0.002901239965278261 0.009631218935807418 0.9967798585315709 -0.023931986971540975 0.00037534120430704796 0.004962683997150231 -0.0003384668275033312 -0.0031199597268208984
 0.9967798585315709 -0.023931986971540975 0.0028999741254691564 0.00963137868412303 -0.0003384477728998439 -0.0031199577282794316 0.00038345723393908053 0.004961640650679779
 0.00037534120430704796 0.004962683997150231 -0.0003384477728998439 -0.0031199577282794316 0.002901256786243747 0.009630798550439747 0.9967798510656531 -0.02393240495000099
 -0.0003384668275033312 -0.0031199597268208984 0.00038345723393908053 0.004961640650679779 0.9967798510656531 -0.02393240495000099 0.0028999429300348364 0.009630965663144999
0.037515631513130004 0.0031790547526140416 0.011629515717707218 0.9964138188270143 -0.028759554387273636 0.0004717918076580468 0.005957321924579532 -0.00042228911530451833 -0.003748270621732782
 0.9964138188270143 -0.028759554387273636 0.0031772332209025534 0.011629720433346523 -0.00042226183121155103 -0.0037482685545862705 0.00048347594935076356 0.005955865329729047
 0.0004717918076580468 0.005957321924579532 -0.00042226183121155103 -0.0037482685545862705 0.00317907938629556 0.011629011510820271 0.9964138084026456 -0.028760055949757807
 -0.00042228911530451833 -0.003748270621732782 0.00048347594935076356 0.005955865329729047 0.9964138084026456 -0.028760055949757807 0.0031771886471841705 0.01162922593658999
0.043768236765320004 0.003478540435894637 0.01364846350337612 0.9960180776248809 -0.033602868059217195 0.000580377420293142 0.006952423288518098 -0.0005165168122195073 -0.004377436071995454
 0.9960180776248809 -0.033602868059217195 0.003476062585981028 0.013648718055812742 -0.0005164798644557749 -0.004377434081755349 0.0005962796560828945 0.006950463220982578
 0.000580377420293142 0.006952423288518098 -0.0005164798644557749 -0.004377434081755349 0.0034785743976047828 0.013647875565047549 0.9960180637444428 -0.03360345328549949
 -0.0005165168122195073 -0.004377436071995454 0.0005962796560828945 0.006950463220982578 0.9960180637444428 -0.03360345328549949 0.0034760022586916473 0.013648142578455254
0.050020842017509996 0.0038001213330484756 0.01568742953783551 0.9955922383646588 -0.038461949970392234 0.0007012154219823911 0.007947821313740801 -0.0006212735044545695 -0.005007251969012829
 0.9955922383646588 -0.038461949970392234 0.0037968865504685824 0.015687739020365264 -0.0006212254727542265 -0.005007250216200433 0.000721986699552813 0.007945257918554325
 0.0007012154219823911 0.007947821313740801 -0.0006212254727542265 -0.005007250216200433 0.003800166153246318 0.0156867579776514 0.9955922205243024 -0.038462618958354594
 -0.0006212735044545695 -0.005007251969012829 0.000721986699552813 0.007945257918554325 0.9955922205243024 -0.038462618958354594 0.0037968080979522995 0.015687083127420943
0.055454545454549996 0.0040978548536325845 0.017475175228888137 0.9951974198884505 -0.04269739242353678 0.0008162666916182718 0.008812956087152463 -0.000720954331478464 -0.0055549515616064565
 0.9951974198884505 -0.04269739242353678 0.0040938805475033545 0.01747553675843458 -0.0007208955244771722 -0.005554950157082979 0.0008417986873045911 0.008809779727450581
 0.0008162666916182718 0.008812956087152463 -0.0007208955244771722 -0.005554950157082979 0.004097910365441964 0.01747443109599374 0.9951973981919946 -0.04269813430326653
 -0.000720954331478464 -0.0055549515616064565 0.0008417986873045911 0.008809779727450581 0.9951973981919946 -0.04269813430326653 0.004093784421212974 0.017474811488690543
0.056273447269699996 0.004144216998670382 0.017745855605434947 0.9951359045560194 -0.04333673001974305 0.0008344202377374867 0.00894333907024877 -0.0007366791466267118 -0.0056375151824318214
 0.9951359045560194 -0.04333673001974305 0.004140124648658797 0.01774622533642462 -0.0007366186240918875 -0.00563751384249405 0.0008607124353963344 0.008940062754937517
 0.0008344202377374867 0.00894333907024877 -0.0007366186240918875 -0.00563751384249405 0.004144274224046636 0.017745100543429395 0.9951358822450574 -0.04333748289425394
 -0.0007366791466267118 -0.0056375151824318214 0.0008607124353963344 0.008940062754937517 0.9951358822450574 -0.04333748289425394 0.004140025704455242 0.017745489654472545
0.06252605252188 0.0045112426078181824 0.019823229891104677 0.9946486806124989 -0.04822707411308297 0.000980103112111467 0.009938791392077694 -0.0008628499910705612 -0.006268021714982233
 0.9946486806124989 -0.04822707411308297 0.0045061920041628385 0.019823665416531296 -0.0008627755838165127 -0.006268020978225715 0.0010125689727908996 0.00993468271984481
 0.000980103112111467 0.009938791392077694 -0.0008627755838165127 -0.006268020978225715 0.004511313801824792 0.019822391464812187 0.9946486533121741 -0.048227911018597205
 -0.0008628499910705612 -0.006268021714982233 0.0010125689727908996 0.00993468271984481 0.9946486533121741 -0.048227911018597205 0.004506070207852468 0.019822850641478984
0.06877865777407 0.004901609125233886 0.021919070233424195 0.9941301724758282 -0.053132800871979316 0.0011383719036994336 0.010933986063999878 -0.0009998984908824412 -0.006898565598700017
 0.9941301724758282 -0.053132800871979316 0.004895499499031976 0.021919577330482862 -0.0009998088176382883 -0.006898565670206972 0.0011776649466253496 0.010928915647685555
 0.0011383719036994336 0.010933986063999878 -0.0009998088176382883 -0.006898565670206972 0.004901695868433537 0.021918148593399904 0.994130139658747 -0.05313372197673681
 -0.0009998984908824412 -0.006898565598700017 0.0011776649466253496 0.010928915647685555 0.994130139658747 -0.05313372197673681 0.004895352497906619 0.021918684223868175
0.07503126302626001 0.005315723345946077 0.024032913496414003 0.9935799881180543 -0.05805369223464808 0.001309330896998046 0.011928724572517235 -0.0011479331810091635 -0.007528938236770893
 0.9935799881180543 -0.05805369223464808 0.0053084538158179395 0.02403349817836048 -0.0011478268729782528 -0.007528939336322854 0.0013561053128449008 0.011922552969885737
 0.001309330896998046 0.011928724572517235 -0.0011478268729782528 -0.007528939336322854 0.0053158272371397475 0.02403190880777217 0.9935799492469736 -0.0580546977287162
 -0.0011479331810091635 -0.007528938236770893 0.0013561053128449008 0.011922552969885737 0.9935799492469736 -0.0580546977287162 0.005308279266070359 0.024032527569616376
0.08128386827845 0.005753987856202808 0.026164308527210595 0.9929977379675767 -0.06298950048259776 0.0014930806200383674 0.012922802638917607 -0.001307058551074036 -0.0081589279737402
 0.9929977379675767 -0.06298950048259776 0.0057454573978106575 0.02616497704933319 -0.0013069342517095326 -0.008158930335745747 0.0015479911525059086 0.012915380249522969
 0.0014930806200383674 0.012922802638917607 -0.0013069342517095326 -0.008158930335745747 0.005754110513235236 0.02616322096967578 0.9929976924948468 -0.06299059057737254
 -0.001307058551074036 -0.0081589279737402 0.0015479911525059086 0.012915380249522969 0.9929976924948468 -0.06299059057737254 0.005745252966314633 0.026163929836628574
0.08753647353064001 0.006216800940822932 0.028312811286165387 0.9923830352872872 -0.06793995310695447 0.0016897176702942503 0.013916010599696892 -0.0014773749076094408 -0.008788319829008384
 0.9923830352872872 -0.06793995310695447 0.006206908356677431 0.02831357015305368 -0.0014772312724496818 -0.008788323702432876 0.0017534194869196645 0.013907177563846762
 0.0016897176702942503 0.013916010599696892 -0.0014772312724496818 -0.008788323702432876 0.00621694400049375 0.028311641055983033 0.9923829826529286 -0.06794112803276532
 -0.0014773749076094408 -0.008788319829008384 0.0017534194869196645 0.013907177563846762 0.9923829826529286 -0.06794112803276532 0.00620667172187408 0.028312447305895563
0.09378907878283 0.00670455645249808 0.030477981389103456 0.9917354965183941 -0.07290475627534522 0.0018993345430749543 0.01490813370477223 -0.0016589782326497807 -0.009416895323725402
 0.9917354965183941 -0.07290475627534522 0.006693200341402126 0.03047883736316273 -0.0016588139291769692 -0.009416900972012924 0.0019724830967562616 0.014897719804518225
 0.0018993345430749543 0.01490813370477223 -0.0016588139291769692 -0.009416900972012924 0.006704721572281825 0.030476728694314073 0.9917354361506519 -0.07290601628565148
 -0.0016589782326497807 -0.009416895323725402 0.0019724830967562616 0.014897719804518225 0.9917354361506519 -0.07290601628565148 0.0066929291959538575 0.030477639918374756
0.100041684035 0.007217643655250254 0.03265937957661394 0.9910547416034884 -0.077883597384858 0.0021220194642305895 0.01589895235271763 -0.001851960037354744 -0.01004443238177537
 0.9910547416034884 -0.077883597384858 0.007204722382418964 0.03266033968784255 -0.0018517737449329616 -0.01004444008279383 0.0022052703465880283 0.015886776915454277
 0.0021220194642305895 0.01589895235271763 -0.0018517737449329616 -0.01004444008279383 0.007217832512957384 0.03265804463913204 0.9910546729163149 -0.07788494275350437
 -0.001851960037354744 -0.01004443238177537 0.0022052703465880283 0.015886776915454277 0.9910546729163149 -0.07788494275350437 0.007204414433468324 0.03265906875239615
0.1059090909091 0.007722503043623433 0.03472075772755326 0.9903853803886504 -0.08256818578501256 0.0023429455894642516 0.016827344474994003 -0.0020434790600084404 -0.01063216387688922
 0.9903853803886504 -0.08256818578501256 0.00770802036171847 0.034721822202361634 -0.002043270942724791 -0.010632173769661264 0.002436272677811627 0.016813342306848143
 0.0023429455894642516 0.016827344474994003 -0.002043270942724791 -0.010632173769661264 0.007722715722177143 0.034719345829514046 0.990385303348743 -0.08256961151880325
 -0.0020434790600084404 -0.01063216387688922 0.002436272677811627 0.016813342306848143 0.990385303348743 -0.08256961151880325 0.007707675806196187 0.034720483374850196
0.1062942892872 0.007756447047954238 0.0348565658326079 0.9903403942924008 -0.08287614697923057 0.002357856224340047 0.016888242293066243 -0.0020564072139658625 -0.010670705275385179
 0.9903403942924008 -0.08287614697923057 0.007741858714233396 0.0348576373897832 -0.002056197623795749 -0.010670715321320431 0.0024518650120873434 0.01687411409758768
 0.002357856224340047 0.016888242293066243 -0.002056197623795749 -0.010670715321320431 0.007756661343202325 0.03485514888918428 0.9903403166853061 -0.08287757799886546
 -0.0020564072139658625 -0.010670705275385179 0.0024518650120873434 0.01687411409758768 0.9903403166853061 -0.08287757799886546 0.00774151168577059 0.034856294142399304
0.11254689453939999 0.008321346172992749 0.03706909795655329 0.989592082436569 -0.08788206022622161 0.0026069240155681514 0.017875774804048 -0.002272401885684108 -0.011295484606826105
 0.989592082436569 -0.08788206022622161 0.008304988584589305 0.037070288559708155 -0.0022721677006107936 -0.01129549730416968 0.0027123461104080295 0.017859491989465
 0.0026069240155681514 0.017875774804048 -0.0022721677006107936 -0.01129549730416968 0.008321587627621444 0.0370675992553875 0.9895919952937275 -0.08788357721099874
 -0.002272401885684108 -0.011295484606826105 0.0027123461104080295 0.017859491989465 0.9895919952937275 -0.08788357721099874 0.008304600219068172 0.03706887424815401
0.11879949979160001 0.008912715413877777 0.03929653046511367 0.9888094382759617 -0.09290097807997998 0.0028692972700226542 0.018861316850816306 -0.0025000212558136553 -0.011918537321620513
 0.9888094382759617 -0.09290097807997998 0.008894486051752762 0.039297848019365256 -0.002499761190406454 -0.011918552991066008 0.0029867877326632403 0.018842666828411105
 0.0028692972700226542 0.018861316850816306 -0.002499761190406454 -0.011918552991066008 0.008912985772645944 0.03929495026596199 0.988809340964889 -0.0929025813645273
 -0.0025000212558136553 -0.011918537321620513 0.0029867877326632403 0.018842666828411105 0.988809340964889 -0.0929025813645273 0.008894054111528547 0.039296363961284664
0.1250521050438 0.009530923783460946 0.041538413744849685 0.9879920987180422 -0.09793252820633198 0.0031450455003355767 0.01984463123773591 -0.002739337456375529 -0.012539626739577616
 0.9879920987180422 -0.09793252820633198 0.00951071977265958 0.04153986647585866 -0.0027390502368374978 -0.012539645715947744 0.003275258878982219 0.01982339060589962
 0.0031450455003355767 0.01984463123773591 -0.0027390502368374978 -0.012539645715947744 0.009531224814689309 0.04153675231937706 0.987991990588496 -0.09793421814467519
 -0.002739337456375529 -0.012539626739577616 0.003275258878982219 0.01982339060589962 0.987991990588496 -0.09793421814467519 0.00951024204170161 0.04153831405970752
0.131304710296 0.01017633470577883 0.043794293384184176 0.9871397056127498 -0.10297632574411976 0.0034342331419325487 0.020825476751643666 -0.0029904173968412543 -0.01315851260694539
 0.9871397056127498 -0.10297632574411976 0.01015405278473968 0.0437958898548759 -0.0029901017608986473 -0.013158535239171449 0.003577823295805581 0.02080141121411318
 0.0034342331419325487 0.020825476751643666 -0.0029901017608986473 -0.013158535239171449 0.010176668201718982 0.043792551016069096 0.9871395859957471 -0.10297810270862606
 -0.0029904173968412543 -0.01315851260694539 0.003577823295805581 0.02080141121411318 0.9871395859957471 -0.10297810270862606 0.010153527070279809 0.04379427054064803
0.1375573155481 0.01071137395774949 0.04577007202688126 0.9863899164605865 -0.10773812570249362 0.003702602637105492 0.021775301460461575 -0.003218849373011313 -0.01374679990744581
 0.9863899164605865 -0.10773812570249362 0.010686902173755472 0.04577178744646906 -0.003218503238822979 -0.013746826261258975 0.003859895822503286 0.021748422823158184
 0.003702602637105492 0.021775301460461575 -0.003218503238822979 -0.013746826261258975 0.010711740593364619 0.04576824933075741 0.9863897848154414 -0.10773998990380035
 -0.003218849373011313 -0.01374679990744581 0.003859895822503286 0.021748422823158184 0.9863897848154414 -0.10773998990380035 0.010686327175195737 0.045770102110803144
0.1438099208003 0.011265518765333877 0.04773355561431476 0.985613196866428 -0.11248594580951715 0.003981721362644502 0.022720230134181535 -0.0034563323909663143 -0.014330486960011237
 0.985613196866428 -0.11248594580951715 0.011238752040148063 0.04773539688087829 -0.003455954366049282 -0.014330517389482818 0.0041533114557160845 0.02269032188162541
 0.003981721362644502 0.022720230134181535 -0.003455954366049282 -0.014330517389482818 0.011265920166229196 0.047731652943643774 0.9856130525243865 -0.11248789760819793
 -0.0034563323909663143 -0.014330486960011237 0.0041533114557160845 0.02269032188162541 0.9856130525243865 -0.11248789760819793 0.011238125758037766 0.04773364698538473
0.1500625260525 0.011838544381167913 0.049684524115961075 0.9848097770328658 -0.11721961114993622 0.004271472795201137 0.02366013309296747 -0.0037027507298356805 -0.014909448588532116
 0.9848097770328658 -0.11721961114993622 0.011809377231800844 0.049686498617119934 -0.003702339423152846 -0.014909483462485155 0.004457949266143639 0.02362697079834998
 0.004271472795201137 0.02366013309296747 -0.003702339423152846 -0.014909483462485155 0.011838982183364042 0.04968254183582129 0.9848096193093403 -0.11722165092087594
 -0.0037027507298356805 -0.014909448588532116 0.004457949266143639 0.02362697079834998 0.9848096193093403 -0.11722165092087594 0.011808697699241052 0.04968468567656932
0.15631513130469998 0.01243022409991403 0.051622764069627486 0.9839798887381144 -0.1219389487526443 0.004571738834026242 0.024594883348934064 -0.003957987049797867 -0.015483562665455974
 0.9839798887381144 -0.1219389487526443 0.012398550628878981 0.051624879701251236 -0.0039575410718451845 -0.0154836023674365 0.00477368666871133 0.024558234770409724
