! Created with skrf 1.8.0 (http://scikit-rf.org).
# GHz S RI R 50.0 
!freq ReS11 ImS11 ReS12 ImS12 ReS13 ImS13
! ReS14 ImS14
! ReS21 ImS21 ReS22 ImS22 ReS23 ImS23
! ReS24 ImS24
! ReS31 ImS31 ReS32 ImS32 ReS33 ImS33
! ReS34 ImS34
! ReS41 ImS41 ReS42 ImS42 ReS43 ImS43
! ReS44 ImS44
!
0.0 0.001673682966506 0.0 0.9983263170079 0.0 6.472455282992e-05 0.0 -6.472455247455e-05 7.926471601420255e-21
 0.9983263170079 0.0 0.001673682966504 0.0 -6.472455247411e-05 7.926471601366371e-21 6.472455282932e-05 0.0
 6.472455282992e-05 0.0 -6.472455247411e-05 7.926471601366371e-21 0.001673682979279 0.0 0.9983263170207 0.0
 -6.472455247455e-05 7.926471601420255e-21 6.472455282932e-05 0.0 0.9983263170207 0.0 0.0016736829793 0.0
0.005 0.0018011390264706835 0.0013698302905434693 0.9981650069437377 -0.003505386785727228 9.077814495394181e-05 0.0007074575302663557 -8.81538341680648e-05 -0.000444978464336223
 0.9981650069437377 -0.003505386785727228 0.001801149054662935 0.001369824448903192 -8.81579421766643e-05 -0.0004449816216212705 9.070325795897467e-05 0.0007074860629425531
 9.077814495394181e-05 0.0007074575302663557 -8.81579421766643e-05 -0.0004449816216212705 0.001801136525658785 0.0013697645142532193 0.9981650065749382 -0.0035054538437548173
 -8.81538341680648e-05 -0.000444978464336223 9.070325795897467e-05 0.0007074860629425531 0.9981650065749382 -0.0035054538437548173 0.001801150822098398 0.001369756111585496
0.006252605252188 0.0018346868757413374 0.001717654948083521 0.9981222624836258 -0.004382570943761066 9.828694514545943e-05 0.0008846594373532483 -9.482050851895924e-05 -0.0005567897921385569
 0.9981222624836258 -0.004382570943761066 0.0018347025514219813 0.0017176475067779814 -9.482690087763841e-05 -0.0005567936843585897 9.816994191185869e-05 0.0008846965006085259
 9.828694514545943e-05 0.0008846594373532483 -9.482690087763841e-05 -0.0005567936843585897 0.0018346830377415472 0.0017175727351016552 0.998122261978679 -0.004382654764591929
 -9.482050851895924e-05 -0.0005567897921385569 9.816994191185869e-05 0.0008846965006085259 0.998122261978679 -0.004382654764591929 0.0018347053862989785 0.0017175620838865582
0.01250521050438 0.002011988353669031 0.0034710730109633902 0.9978947823922014 -0.008765801031564687 0.00014169346948143794 0.0017696384150996264 -0.00013292372075090553 -0.0011161937176983267
 0.9978947823922014 -0.008765801031564687 0.0020120509435049686 0.003471056739269099 -0.00013294891185778324 -0.0011162009017547452 0.00014122690224169321 0.001769727698150351
 0.00014169346948143794 0.0017696384150996264 -0.00013294891185778324 -0.0011162009017547452 0.0020119735957536454 0.0034709089143341487 0.9978947809472113 -0.008765968430013978
 -0.00013292372075090553 -0.0011161937176983267 0.00014122690224169321 0.001769727698150351 0.9978947809472113 -0.008765968430013978 0.002012062840997407 0.003470886096268459
0.01875781575657 0.0022060000570230404 0.005249209796082447 0.9976435758581844 -0.013160327590059558 0.00019504842484726915 0.0026555018834428703 -0.00017915658011559004 -0.0016773958265643625
 0.9976435758581844 -0.013160327590059558 0.0022061406928255718 0.005249183247150245 -0.0001792127556979458 -0.0016774055767046227 0.00019400037275995214 0.0026556616943400405
 0.00019504842484726915 0.0026555018834428703 -0.0001792127556979458 -0.0016774055767046227 0.0022059673087839087 0.005248964081124971 0.9976435730307247 -0.013160578470714992
 -0.00017915658011559004 -0.0016773958265643625 0.00019400037275995214 0.0026556616943400405 0.9976435730307247 -0.013160578470714992 0.002206167860259881 0.005248927401632237
0.02501042100875 0.0024171209102097765 0.007049547370444857 0.9973683294429119 -0.01756824799611355 0.00025845751816339633 0.0035422632568834636 -0.0002336369870369064 -0.002240124457351645
 0.9973683294429119 -0.01756824799611355 0.00241737065791691 0.007049509049864126 -0.00023373618599558738 -0.002240135910306641 0.0002565960153468034 0.0035425149550431132
 0.00025845751816339633 0.0035422632568834636 -0.00023373618599558738 -0.002240135910306641 0.002417063115086957 0.007049220332622347 0.9973683247940643 -0.017568582314380417
 -0.0002336369870369064 -0.002240124457351645 0.0002565960153468034 0.0035425149550431132 0.9973683247940643 -0.017568582314380417 0.0024174193022276076 0.007049167934393439
0.03126302626094 0.0026457333187060467 0.008870773677307441 0.9970687146778937 -0.021990440240362962 0.00033202661896782905 0.004429854586133578 -0.0002964791640337639 -0.0028041820376818838
 0.9970687146778937 -0.021990440240362962 0.0026461231965723454 0.00887072204576092 -0.00029663330299577016 -0.0028041941912253844 0.00032911945108943187 0.004430222599452874
 0.00033202661896782905 0.004429854586133578 -0.00029663330299577016 -0.0028041941912253844 0.0026456434300439194 0.008870365668026743 0.9970687077702448 -0.02199085797712484
 -0.0002964791640337639 -0.0028041820376818838 0.00032911945108943187 0.004430222599452874 0.9970687077702448 -0.02199085797712484 0.0026461995263608053 0.00887029553329281
0.037515631513130004 0.002892211121610692 0.010712020882429793 0.9967443963239115 -0.026427324519963942 0.0004158606865085469 0.005318175407870236 -0.0003677944611717785 -0.00336939624820189
 0.9967443963239115 -0.026427324519963942 0.0028927721133549917 0.010711954357387431 -0.0003680153469236211 -0.0033694079607417384 0.000411675306618677 0.005318687261862681
 0.0004158606865085469 0.005318175407870236 -0.0003680153469236211 -0.0033694079607417384 0.0028920820958565855 0.010711532331564327 0.9967443867163374 -0.026427825659735758
 -0.0003677944611717785 -0.00336939624820189 0.000411675306618677 0.005318687261862681 0.9967443867163374 -0.026427825659735758 0.0028928823347947885 0.010711442282701912
0.043768236765320004 0.0031569226371713356 0.012572633607161739 0.9963950357274737 -0.030879094933832903 0.0005100632573847365 0.006207107611277514 -0.0004476916298902797 -0.003935605173455644
 0.9963950357274737 -0.030879094933832903 0.0031576857030529244 0.012572550564099106 -0.00044799096668449536 -0.00393561516393547 0.0005043667528247731 0.0062077939618081215
 0.0005100632573847365 0.006207107611277514 -0.00044799096668449536 -0.00393561516393547 0.0031567474380764754 0.012572065005060484 0.9963950229783981 -0.0308796794837729
 -0.0004476916298902797 -0.003935605173455644 0.0005043667528247731 0.0062077939618081215 0.9963950229783981 -0.0308796794837729 0.003157836025015908 0.012571952704319194
0.050020842017509996 0.0034402320757229207 0.014452073122126284 0.996020292546981 -0.03534581521617269 0.000614736127432053 0.007096521582007256 -0.0005362769111697728 -0.00450265117963429
 0.996020292546981 -0.03534581521617269 0.0034412281619859517 0.014451971895488035 -0.0005366663052126605 -0.004502658027529994 0.0006072952139876075 0.007097416249384418
 0.000614736127432053 0.007096521582007256 -0.0005366663052126605 -0.004502658027529994 0.003440003672288022 0.014451425037652276 0.9960202762124106 -0.03534648318905377
 -0.0005362769111697728 -0.00450265117963429 0.0006072952139876075 0.007097416249384418 0.9960202762124106 -0.03534648318905377 0.003441424795289302 0.01445128798639714
0.055454545454549996 0.0037018206550432178 0.016100287125074213 0.9956737507715407 -0.03923965788393407 0.0007142807681755031 0.007869733452057206 -0.0006203966429081692 -0.004995989728277608
 0.9956737507715407 -0.03923965788393407 0.0037030443717274925 0.016100168712129482 -0.0006208736512354894 -0.004995992583247716 0.000705134174644259 0.007870839102910173
 0.0007142807681755031 0.007869733452057206 -0.0006208736512354894 -0.004995992583247716 0.003701540309846926 0.01609957048648109 0.9956737309588116 -0.03924039837382134
 -0.0006203966429081692 -0.004995989728277608 0.000705134174644259 0.007870839102910173 0.9956737309588116 -0.03924039837382134 0.0037032862965686005 0.016099409771307405
0.056273447269699996 0.0037425002497751395 0.01634987034621862 0.9956198257823894 -0.03982746566749873 0.0007299791214713236 0.007986279221920177 -0.0006336540382619142 -0.005070377921776321
 0.9956198257823894 -0.03982746566749873 0.0037437602985255 0.01634974922978571 -0.0006341450007479251 -0.0050703800671415295 0.0007205601541909138 0.007987419225359747
 0.0007299791214713236 0.007986279221920177 -0.0006341450007479251 -0.0050703800671415295 0.0037422116169606658 0.01634914341948753 0.9956198054162385 -0.03982821708990349
 -0.0006336540382619142 -0.005070377921776321 0.0007205601541909138 0.007987419225359747 0.9956198054162385 -0.03982821708990349 0.0037440094562922106 0.016348978957104385
0.06252605252188 0.004064084942214801 0.018265599994047584 0.9951932944670975 -0.04432396894174892 0.0008558899059567034 0.008876235617871736 -0.0007399241971686783 -0.005638628707711099
 0.9951932944670975 -0.04432396894174892 0.004065639899802739 0.01826545724131672 -0.0007405281461859537 -0.005638624451251719 0.0008442589008197964 0.008877661209993472
 0.0008558899059567034 0.008876235617871736 -0.0007405281461859537 -0.005638624451251719 0.004063729061984069 0.018264794942673163 0.9951932696210307 -0.04432480384890108
 -0.0007399241971686783 -0.005638628707711099 0.0008442589008197964 0.008877661209993472 0.9951932696210307 -0.04432480384890108 0.004065947798597445 0.018264600245123722
0.06877865777407 0.004405341086604968 0.020198865177203693 0.9947403581772634 -0.04883520538586459 0.0009925638259030416 0.009766240044909467 -0.0008551859621314936 -0.006207245533907937
 0.9947403581772634 -0.04883520538586459 0.004407221912710784 0.020198699001275706 -0.0008559142238656938 -0.006207233037087019 0.000978486489410521 0.009767994745931582
 0.0009925638259030416 0.009766240044909467 -0.0008559142238656938 -0.006207233037087019 0.004404910947002831 0.020197982796235876 0.9947403283993529 -0.04883612382270169
 -0.0008551859621314936 -0.006207245533907937 0.000978486489410521 0.009767994745931582 0.9947403283993529 -0.04883612382270169 0.0044075947714780584 0.020197754874165644
0.07503126302626001 0.004766620836305276 0.022149287640924147 0.9942606774340312 -0.053361022750562724 0.0011400937558768713 0.01065613661177849 -0.000979535216099221 -0.006776068485641228
 0.9942606774340312 -0.053361022750562724 0.004768858512856828 0.022149096214040848 -0.0009803990255929146 -0.00677604577078448 0.0011233355207218958 0.010658267243275201
 0.0011400937558768713 0.01065613661177849 -0.0009803990255929146 -0.00677604577078448 0.004766109433164362 0.022148328804001947 0.9942606422692648 -0.05336202477152154
 -0.000979535216099221 -0.006776068485641228 0.0011233355207218958 0.010658267243275201 0.9942606422692648 -0.05336202477152154 0.004769302553773235 0.022148064500665088
0.08128386827845 0.005148273562326381 0.024116501267194713 0.9937539140398126 -0.05790124264187274 0.001298569960355841 0.011545764699769163 -0.0011130650609970853 -0.007344935350728591
 0.9937539140398126 -0.05790124264187274 0.005150899101959462 0.024116282720122877 -0.0011140755624797268 -0.007344900301167388 0.001278896025629596 0.011548321417826708
 0.001298569960355841 0.011545764699769163 -0.0011140755624797268 -0.007344900301167388 0.0051476738998572245 0.024115466929139205 0.99375387302938 -0.057902328309398364
 -0.0011130650609970853 -0.007344935350728591 0.001278896025629596 0.011548321417826708 0.99375387302938 -0.057902328309398364 0.005151420550481436 0.024115162917881613
0.08753647353064001 0.0055506458063712735 0.026100147594286926 0.9932197313731107 -0.06245566496448644 0.001468079959352197 0.012434959278528617 -0.0012558657216120398 -0.007913681363379254
 0.9932197313731107 -0.06245566496448644 0.005553690261042312 0.026099900015159584 -0.0012570339685225858 -0.00791363172359554 0.0014452553346974374 0.012437995606319585
 0.001468079959352197 0.012434959278528617 -0.0012570339685225858 -0.00791363172359554 0.005549950897112885 0.026099038791280678 0.9932196840536898 -0.06245683434970171
 -0.0012558657216120398 -0.007913681363379254 0.0014452553346974374 0.012437995606319585 0.9932196840536898 -0.06245683434970171 0.005554295345426115 0.026098691572736536
0.09378907878283 0.0059740811994085765 0.0280998726240466 0.9926577946540286 -0.06702407108507691 0.0016487083982613183 0.013323551142523501 -0.0014080244443669973 -0.008482139034830652
 0.9926577946540286 -0.06702407108507691 0.00597757566966164 0.02809959405698026 -0.001409361399248813 -0.008482072410635236 0.001622497951228976 0.013327124002012143
 0.0016487083982613183 0.013323551142523501 -0.001409361399248813 -0.008482072410635236 0.005973284065773067 0.028098690471689086 0.9926577405578023 -0.06702532427074838
 -0.0014080244443669973 -0.008482139034830652 0.001622497951228976 0.013327124002012143 0.9926577405578023 -0.06702532427074838 0.0059782706209894464 0.02809829637056899
0.100041684035 0.00641892035803864 0.03011532446604909 0.9920677711909078 -0.07160622616767706 0.0018405369206022108 0.014211367096816828 -0.0015696253926113363 -0.009050138042118756
 0.9920677711909078 -0.07160622616767706 0.006422896001180901 0.03011501290941778 -0.0015711419266740076 -0.009050051900842042 0.0018107054268230386 0.014215536839736743
 0.0018405369206022108 0.014211367096816828 -0.0015711419266740076 -0.009050051900842042 0.006418014033137128 0.030114070166122955 0.9920677098453466 -0.07160756324237694
 -0.0015696253926113363 -0.009050138042118756 0.0018107054268230386 0.014215536839736743 0.9920677098453466 -0.07160756324237694 0.006423687054022965 0.03011362532767998
0.1059090909091 0.00685612188573248 0.032020602486763285 0.9914882578448797 -0.07591837534334557 0.002030803978372601 0.015043624876543054 -0.0017299305160177727 -0.009582573444792875
 0.9914882578448797 -0.07591837534334557 0.006860577454591137 0.032020258109803794 -0.0017316253715924867 -0.009582466562196575 0.001997360546675616 0.01504841270212999
 0.002030803978372601 0.015043624876543054 -0.0017316253715924867 -0.009582466562196575 0.006855106770235789 0.0320192816523764 0.9914881892619466 -0.07591979122694735
 -0.0017299305160177727 -0.009582573444792875 0.001997360546675616 0.01504841270212999 0.9914881892619466 -0.07591979122694735 0.006861464360910779 0.032018785533230516
0.1062942892872 0.006885500764134884 0.03214615159944431 0.9914493306139346 -0.07620188089999538 0.002043644042364559 0.015098230110596541 -0.0017407495396101395 -0.009617505156754916
 0.9914493306139346 -0.07620188089999538 0.006889988803534745 0.03214580500369081 -0.0017424564322847185 -0.009617396827458356 0.002009956238192429 0.015103060548511838
 0.002043644042364559 0.015098230110596541 -0.0017424564322847185 -0.009617396827458356 0.0068844782923709645 0.03214482643856864 0.9914492615409898 -0.07620330196037613
 -0.0017407495396101395 -0.009617505156754916 0.002009956238192429 0.015103060548511838 0.9914492615409898 -0.07620330196037613 0.006890882194830103 0.032144326824732956
0.11254689453939999 0.0073741566297545755 0.034192001533095796 0.9908021450980967 -0.08081077283074899 0.002258105028401674 0.015983959445512425 -0.0019214745592190407 -0.010184064206529871
 0.9908021450980967 -0.08081077283074899 0.0073791883635585896 0.03419161779823121 -0.0019233824975141201 -0.010183930880237196 0.002220325665949012 0.015989517878936547
 0.002258105028401674 0.015983959445512425 -0.0019233824975141201 -0.010183930880237196 0.0073730110682025465 0.03419060688081221 0.9908020678140051 -0.08081227798425109
 -0.0019214745592190407 -0.010184064206529871 0.002220325665949012 0.015989517878936547 0.9908020678140051 -0.08081227798425109 0.007380190333244238 0.03419004826589558
0.11879949979160001 0.007885218754039988 0.03625251976842657 0.9901258895805517 -0.0854326274134888 0.0024839917697777967 0.016868370772632747 -0.0021118747156798102 -0.01074963605651776
 0.9901258895805517 -0.0854326274134888 0.007890825564211227 0.03625209674112488 -0.0021139942934593273 -0.010749474786505666 0.0024418856737388065 0.016874728019143515
 0.0024839917697777967 0.016868370772632747 -0.0021139942934593273 -0.010749474786505666 0.007883943173064489 0.0362510570820178 0.990125803595245 -0.08543421677443114
 -0.0021118747156798102 -0.01074963605651776 0.0024418856737388065 0.016874728019143515 0.990125803595245 -0.08543421677443114 0.007891942354340131 0.03625043504804302
0.1250521050438 0.008419014369762081 0.038327348997549186 0.9894202419708591 -0.09006715882485111 0.002721372662491949 0.017751276276062586 -0.0023120207520842336 -0.011314038611637121
 0.9894202419708591 -0.09006715882485111 0.008425227730697421 0.03832688446787858 -0.0023143624691797705 -0.011313846313665988 0.00267470478902662 0.01775850669741867
 0.002721372662491949 0.017751276276062586 -0.0023143624691797705 -0.011313846313665988 0.008417601854348226 0.03832581982183067 0.989420146787816 -0.09006883251545704
 -0.0023120207520842336 -0.011314038611637121 0.00267470478902662 0.01775850669741867 0.989420146787816 -0.09006883251545704 0.008426465585985263 0.03832512975354311
0.131304710296 0.00897586698497632 0.040416128459726086 0.9886848833594548 -0.09471407063436751 0.002970312486856623 0.018632484753066576 -0.002521979778503736 -0.011877086830839111
 0.9886848833594548 -0.09471407063436751 0.00898271847308322 0.04041562015734981 -0.0025245540398997923 -0.011876860283521591 0.0029188479842712353 0.018640666281146797
 0.002970312486856623 0.018632484753066576 -0.0025245540398997923 -0.011876860283521591 0.008974310635738777 0.04041453442520369 0.9886847784751697 -0.09471582878742354
 -0.002521979778503736 -0.011877086830839111 0.0029188479842712353 0.018640666281146797 0.9886847784751697 -0.09471582878742354 0.00898408363997816 0.04041377150455793
0.1375573155481 0.009432663777653548 0.04224692926906702 0.9880429858318892 -0.0991013490279556 0.0032008563993390637 0.01948532465462996 -0.002711859618764656 -0.01241208867729343
 0.9880429858318892 -0.0991013490279556 0.009440188312873778 0.04224638808167433 -0.002714681918810118 -0.012411827406429692 0.0031444781221002323 0.01949444934044526
 0.0032008563993390637 0.01948532465462996 -0.002714681918810118 -0.012411827406429692 0.00943095726387716 0.042245271935468766 0.988042870802681 -0.09910319168631014
 -0.002711859618764656 -0.01241208867729343 0.0031444781221002323 0.01949444934044526 0.988042870802681 -0.09910319168631014 0.009441686360227115 0.04224444449365131
0.1438099208003 0.00990566726611044 0.04406730702028175 0.9873782478262371 -0.10347670372736223 0.0034406902504398647 0.020334171476616415 -0.002909299322646123 -0.012943452022334776
 0.9873782478262371 -0.10347670372736223 0.009913897073905076 0.04406673144783201 -0.002912380845934057 -0.012943152837322166 0.003379184854651797 0.0203443109448631
 0.0034406902504398647 0.020334171476616415 -0.002912380845934057 -0.012943152837322166 0.009903803810446836 0.04406558806806004 0.987378122151904 -0.10347863101080451
 -0.002909299322646123 -0.012943452022334776 0.003379184854651797 0.0203443109448631 0.987378122151904 -0.10347863101080451 0.00991553412989984 0.04406469197728368
0.1500625260525 0.010394699001146467 0.04587708610120927 0.9866908523909274 -0.1078400018532413 0.003689723440877854 0.021178921143389193 -0.003114211358268309 -0.013471080112408253
 0.9866908523909274 -0.1078400018532413 0.010403666421671405 0.04587647452214582 -0.0031175632594172063 -0.013470739694231472 0.00362287912304759 0.021190149608288467
 0.003689723440877854 0.021178921143389193 -0.0031175632594172063 -0.013470739694231472 0.010392671846908858 0.0458753072769514 0.9866907155653702 -0.10784201388742998
 -0.003114211358268309 -0.013471080112408253 0.00362287912304759 0.021190149608288467 0.9866907155653702 -0.10784201388742998 0.010405448608841992 0.04587433817996732
0.15631513130469998 0.010899579124299045 0.04767609614299205 0.9859809836615914 -0.11219111152470734 0.003947864208675908 0.02201947151765801 -0.0033265070375599146 -0.013994878379899225
 0.9859809836615914 -0.11219111152470734 0.010909316615700975 0.04767544680871725 -0.003330140440730404 -0.013994493281800885 0.0038754707336100245 0.022031865750418184
