! Created with skrf 1.8.0 (http://scikit-rf.org).
# GHz S RI R 50.0 
!freq ReS11 ImS11 ReS12 ImS12 ReS13 ImS13
! ReS14 ImS14
! ReS21 ImS21 ReS22 ImS22 ReS23 ImS23
! ReS24 ImS24
! ReS31 ImS31 ReS32 ImS32 ReS33 ImS33
! ReS34 ImS34
! ReS41 ImS41 ReS42 ImS42 ReS43 ImS43
! ReS44 ImS44
!
0.0 0.001515162142958 0.0 0.998484837857 0.0 5.888031646924e-05 0.0 -5.888031629096e-05 7.210759087850792e-21
 0.998484837857 0.0 0.001515162142943 0.0 -5.888031629076e-05 7.2107590878263e-21 5.888031646774e-05 0.0
 5.888031646924e-05 0.0 -5.888031629076e-05 7.2107590878263e-21 0.001515162135842 0.0 0.9984848378499 0.0
 -5.888031629096e-05 7.210759087850792e-21 5.888031646774e-05 0.0 0.9984848378499 0.0 0.001515162135837 0.0
0.005 0.0016302124584615715 0.0012305778120310434 0.9983392586525018 -0.0031744392375463526 8.386986392005796e-05 0.0007031886185721567 -8.10909583393202e-05 -0.0004318951133982439
 0.9983392586525018 -0.0031744392375463526 0.0016302272620057133 0.0012305692033155351 -8.109191348574905e-05 -0.0004318959002295159 8.377355411943102e-05 0.0007032252704272429
 8.386986392005796e-05 0.0007031886185721567 -8.109191348574905e-05 -0.0004318959002295159 0.0016302113645364734 0.0012305112234943301 0.9983392582981501 -0.0031745063028323557
 -8.10909583393202e-05 -0.0004318951133982439 8.377355411943102e-05 0.0007032252704272429 0.9983392582981501 -0.0031745063028323557 0.0016302276484657693 0.0012305016608550733
0.006252605252188 0.001660364505439334 0.00154310794269149 0.9983008619037335 -0.0039688327408058475 9.101294451428173e-05 0.0008793015635702677 -8.736048655618054e-05 -0.0005404410347016852
 0.9983008619037335 -0.0039688327408058475 0.0016603876457904083 0.0015430970083345776 -8.736197241770046e-05 -0.0005404420060187347 9.086246887526538e-05 0.0008793491537951443
 9.101294451428173e-05 0.0008793015635702677 -8.736197241770046e-05 -0.0005404420060187347 0.0016603628586210064 0.001543024731646247 0.9983008614134249 -0.00396891655327465
 -8.736048655618054e-05 -0.0005404410347016852 9.086246887526538e-05 0.0008793491537951443 0.9983008614134249 -0.00396891655327465 0.001660388313996125 0.0015430125939147775
0.01250521050438 0.0018189626833001688 0.003118904888855456 0.9980975423431413 -0.007938539090514896 0.00013199512093411107 0.0017587974459555387 -0.00012292580772529937 -0.0010835673390600445
 0.9980975423431413 -0.007938539090514896 0.0018190550796728516 0.00311888129030369 -0.00012293165836022154 -0.0010835691485787781 0.00013139504337376074 0.0017589117552476825
 0.00013199512093411107 0.0017587974459555387 -0.00012293165836022154 -0.0010835691485787781 0.0018189566960861703 0.003118738762135407 0.9980975409802484 -0.007938706482147551
 -0.00012292580772529937 -0.0010835673390600445 0.00013139504337376074 0.0017589117552476825 0.9980975409802484 -0.007938706482147551 0.0018190583498947331 0.003118712633092033
0.01875781575657 0.0019912998489271297 0.004717403924706213 0.997874628949565 -0.011918793891369574 0.00018191952133823555 0.0026391380535137985 -0.000165686448266643 -0.0016285243006763943
 0.997874628949565 -0.011918793891369574 0.0019915074615361977 0.004717365850760469 -0.00016569948853352085 -0.0016285267919863857 0.00018057147440010343 0.002639341898381681
 0.00018191952133823555 0.0026391380535137985 -0.00016569948853352085 -0.0016285267919863857 0.001991286808011534 0.004717155081349297 0.9978746263122887 -0.011919044747461964
 -0.000165686448266643 -0.0016285243006763943 0.00018057147440010343 0.002639341898381681 0.9978746263122887 -0.011919044747461964 0.001991515249233049 0.004717112982571628
0.02501042100875 0.0021777091843316995 0.006336351055325382 0.9976318617795163 -0.0159115288070313 0.00024088068495596246 0.003520374626217008 -0.00021574874836033045 -0.0021750506008659637
 0.9976318617795163 -0.0159115288070313 0.002178077878730364 0.006336296629766296 -0.00021577176723345642 -0.002175053591273512 0.0002384861618666824 0.0035206943816227464
 0.00024088068495596246 0.003520374626217008 -0.00021577176723345642 -0.002175053591273512 0.0021776863781683307 0.006336019672210553 0.9976318574706435 -0.01591186305662814
 -0.00021574874836033045 -0.0021750506008659637 0.0002384861618666824 0.0035206943816227464 0.9976318574706435 -0.01591186305662814 0.0021780921077490514 0.006335959518447545
0.03126302626094 0.0023785100122795276 0.007974586773902396 0.997368967525525 -0.01991757072950653 0.00030897386703647266 0.0044024708232286176 -0.00027321590340935085 -0.0027229665697780475
 0.997368967525525 -0.01991757072950653 0.0023790855860933934 0.007974514059263641 -0.00027325166019739227 -0.0027229698499962904 0.00030523394254146347 0.004402936443659362
 0.00030897386703647266 0.0044024708232286176 -0.00027325166019739227 -0.0027229698499962904 0.0023784747289918202 0.007974173024831548 0.997368961150666 -0.019917988326711322
 -0.00027321590340935085 -0.0027229665697780475 0.00030523394254146347 0.004402936443659362 0.997368961150666 -0.019917988326711322 0.0023791081874857812 0.007974092627303258
0.037515631513130004 0.002594014710474533 0.009631355416969804 0.997085666644691 -0.023937332365833387 0.000386293973879607 0.005285355884112327 -0.00033818879521615297 -0.003272121021359363
 0.997085666644691 -0.023937332365833387 0.0025948429118382737 0.009631262416479935 -0.00033824002273215477 -0.0032721243554114233 0.00038090917806457705 0.005286000940010068
 0.000386293973879607 0.005285355884112327 -0.00033824002273215477 -0.0032721243554114233 0.002593964235754128 0.009630859499646791 0.9970856578104931 -0.02393783326316114
 -0.00033818879521615297 -0.003272121021359363 0.00038090917806457705 0.005286000940010068 0.9970856578104931 -0.02393783326316114 0.002594875822472102 0.009630756567624174
0.043768236765320004 0.0028245313752865973 0.011306094970194282 0.9967816762399132 -0.02797102236521086 0.00047293507124665594 0.006168940800680863 -0.0004107662914778282 -0.0038223750815660896
 0.9967816762399132 -0.02797102236521086 0.002825657917771696 0.011305979629201239 -0.00041083569799955217 -0.003822378206784512 0.0004656053280989212 0.006169802519745029
 0.00047293507124665594 0.006168940800680863 -0.00041083569799955217 -0.003822378206784512 0.0028244629915875315 0.011305517095979859 0.9967816645531125 -0.027971606524249407
 -0.0004107662914778282 -0.0038223750815660896 0.0004656053280989212 0.006169802519745029 0.9967816645531125 -0.027971606524249407 0.002825703079324326 0.011305389237576709
0.050020842017509996 0.0030703650630610965 0.012998350194685955 0.996456711522773 -0.03201873212385471 0.0005689900924773516 0.00705312499550997 -0.0004910453579999981 -0.004373595513090515
 0.996456711522773 -0.03201873212385471 0.0030718356391634945 0.012998210401643354 -0.0004911356285729733 -0.004373598140147641 0.0005594146939842192 0.007054244305974059
 0.0005689900924773516 0.00705312499550997 -0.0004911356285729733 -0.004373598140147641 0.003070276049761614 0.012997690594670873 0.9964566965904738 -0.03201939950974822
 -0.0004910453579999981 -0.004373595513090515 0.0005594146939842192 0.007054244305974059 0.9964566965904738 -0.03201939950974822 0.0030718949979231277 0.012997535317192443
0.055454545454549996 0.0032966763905336884 0.014482891259533929 0.9961570516625666 -0.0355477146788784 0.0006601812494651905 0.007821910158505987 -0.0005671388175548243 -0.004853305917817762
 0.9961570516625666 -0.0355477146788784 0.0032984830428053535 0.014482728458325253 -0.0005672493827952536 -0.004853307856303805 0.0006484096012220441 0.00782328946968197
 0.0006601812494651905 0.007821910158505987 -0.0005672493827952536 -0.004853307856303805 0.003296567237675907 0.014482160845823553 0.9961570335906533 -0.03554845436066485
 -0.0005671388175548243 -0.004853305917817762 0.0006484096012220441 0.00782328946968197 0.9961570335906533 -0.03554845436066485 0.0032985563237125726 0.014481979637586174
0.056273447269699996 0.00333181842389342 0.014707730012337617 0.9961104866725626 -0.036080478332254626 0.0006745506353240181 0.0079377995997048 -0.0005791210879136442 -0.004925651444371208
 0.9961104866725626 -0.036080478332254626 0.003333678717107142 0.014707563599365977 -0.0005792348851996928 -0.004925653257308427 0.000662428235572906 0.007939221174511206
 0.0006745506353240181 0.0079377995997048 -0.0005792348851996928 -0.004925653257308427 0.003331706057292037 0.014706988942970706 0.9961104681016335 -0.036081228908474185
 -0.0005791210879136442 -0.004925651444371208 0.000662428235572906 0.007939221174511206 0.9961104681016335 -0.036081228908474185 0.0033337542239796785 0.014706803652800115
0.06252605252188 0.0036091920432360534 0.016433884054999272 0.9957427154070314 -0.040156226361249964 0.0007897068025011987 0.008822849257609145 -0.0006750866880198038 -0.005478412575593633
 0.9957427154070314 -0.040156226361249964 0.003611487739976702 0.016433688798138203 -0.0006752266529541209 -0.005478413231859431 0.000774735426020392 0.008824621558966397
 0.0007897068025011987 0.008822849257609145 -0.0006752266529541209 -0.005478413231859431 0.0036090535979440884 0.016433061788054797 0.995742692805486 -0.040157060100083346
 -0.0006750866880198038 -0.005478412575593633 0.000774735426020392 0.008824621558966397 0.995742692805486 -0.040157060100083346 0.0036115813513185654 0.016432843790269935
0.06877865777407 0.0039027846201112396 0.018176488694020422 0.9953531113934267 -0.04424590417130096 0.0009145470663278929 0.00970815320486525 -0.0007790334414626149 -0.006031748115597554
 0.9953531113934267 -0.04424590417130096 0.0039055614215023154 0.018176262313088547 -0.0007792021937792389 -0.006031747246083256 0.000896424126155366 0.009710328528860508
 0.0009145470663278929 0.00970815320486525 -0.0007792021937792389 -0.006031747246083256 0.003902617367080949 0.01817558552561717 0.9953530843678375 -0.044246821045306334
 -0.0007790334414626149 -0.006031748115597554 0.000896424126155366 0.009710328528860508 0.9953530843678375 -0.044246821045306334 0.003905675096204368 0.018175332023243625
0.07503126302626001 0.004212893049396426 0.019935238181918526 0.9949413885672191 -0.04834941111387894 0.0010491581477615921 0.010593585957752973 -0.0008910506556219019 -0.006585526111952962
 0.9949413885672191 -0.04834941111387894 0.004216196682550305 0.01993497834011954 -0.0008912507941389911 -0.006585523321042675 0.0010275804706667063 0.010596220478883554
 0.0010491581477615921 0.010593585957752973 -0.0008912507941389911 -0.006585523321042675 0.004212694258780145 0.01993425443380005 0.9949413567256384 -0.048350411095127215
 -0.0008910506556219019 -0.006585526111952962 0.0010275804706667063 0.010596220478883554 0.9949413567256384 -0.048350411095127215 0.004216332384805239 0.01993396252668347
0.08128386827845 0.004539812445749017 0.021709838762518873 0.9945072613961783 -0.05246662376904507 0.0011936249050007457 0.011479017772223333 -0.0010112255994141669 -0.007139613016111023
 0.9945072613961783 -0.05246662376904507 0.004543688674972845 0.021709543065602747 -0.0010114597023301406 -0.007139607881711734 0.0011682887624746999 0.011482171587597258
 0.0011936249050007457 0.011479017772223333 -0.0010114597023301406 -0.007139607881711734 0.004539579385198685 0.021708774777992382 0.9945072243456994 -0.052467706833570965
 -0.0010112255994141669 -0.007139613016111023 0.0011682887624746999 0.011482171587597258 0.9945072243456994 -0.052467706833570965 0.004543848371834435 0.021708441461406148
0.08753647353064001 0.0048838361259982655 0.02350000459451379 0.9940504451067496 -0.056597399974525515 0.0013480302267973433 0.012364314972071706 -0.001139643434953307 -0.007693873384151018
 0.9940504451067496 -0.056597399974525515 0.0048883307646505 0.023499670589635726 -0.001139914060063989 -0.007693865457741913 0.0013186313707830943 0.012368052145358225
 0.0013480302267973433 0.012364314972071706 -0.001139914060063989 -0.007693865457741913 0.0048835660618225234 0.0234988607430658 0.9940504024542737 -0.05659856609812087
 -0.001139643434953307 -0.007693873384151018 0.0013186313707830943 0.012368052145358225 0.9940504024542737 -0.05659856609812087 0.0048885164261867516 0.02349848290594783
0.09378907878283 0.005245255565178085 0.02530545484440326 0.9935706558861691 -0.06074158169056031 0.0015124549305326927 0.01324934018696637 -0.0012763871437874283 -0.008248169672829955
 0.9935706558861691 -0.06074158169056031 0.005250414486552206 0.025305080018662343 -0.0012766968285855016 -0.008248158479505193 0.001478688632581974 0.013253728791799932
 0.0015124549305326927 0.01324934018696637 -0.0012766968285855016 -0.008248158479505193 0.005244945762822073 0.02530423151970379 0.9935706072387472 -0.060742830851363484
 -0.0012763871437874283 -0.008248169672829955 0.001478688632581974 0.013253728791799932 0.9935706072387472 -0.060742830851363484 0.005250628086013815 0.025303805942441224
0.100041684035 0.0056243603317582234 0.027125911554787583 0.9930676110685344 -0.06489899709509217 0.001686977662514977 0.014133952532069399 -0.0014215374495032433 -0.00880236209904931
 0.9930676110685344 -0.06489899709509217 0.005630229480827224 0.027125493333298313 -0.0014218887113054187 -0.008802347137555913 0.0016485387566246412 0.014139064695039233
 0.001686977662514977 0.014133952532069399 -0.0014218887113054187 -0.008802347137555913 0.005624008055767508 0.0271246091783017 0.9930675560325412 -0.06490032927026052
 -0.0014215374495032433 -0.00880236209904931 0.0016485387566246412 0.014139064695039233 0.9930675560325412 -0.06490032927026052 0.005630472993653037 0.027124132530358124
0.1059090909091 0.005996450760823228 0.028847618828219 0.9925741555159495 -0.06881216261574177 0.0018600008476234269 0.01496356343682636 -0.0015654611805912511 -0.009322191878649378
 0.9925741555159495 -0.06881216261574177 0.006003028243700836 0.02884715748535489 -0.0015658537295614426 -0.009322172901816632 0.0018168992997645956 0.014969423828242047
 0.0018600008476234269 0.01496356343682636 -0.0015658537295614426 -0.009322172901816632 0.005996056139949389 0.02884624267459346 0.992574094126797 -0.06881357267338896
 -0.0015654611805912511 -0.009322191878649378 0.0018168992997645956 0.014969423828242047 0.992574094126797 -0.06881357267338896 0.006003301625699041 0.028845714971692908
0.1062942892872 0.00602143800896269 0.02896109804434696 0.9925410293093695 -0.06906946215277376 0.001871674800005842 0.015018007753611019 -0.0015751727381555752 -0.009356308538756039
 0.9925410293093695 -0.06906946215277376 0.006028063413933994 0.028960633787938114 -0.0015755680741652246 -0.00935628928154152 0.0018282577279853857 0.015023919696615753
 0.001871674800005842 0.015018007753611019 -0.0015755680741652246 -0.00935628928154152 0.006021040523857526 0.028959717062285277 0.9925409674910706 -0.06907087732205903
 -0.0015751727381555752 -0.009356308538756039 0.0018282577279853857 0.015023919696615753 0.9925409674910706 -0.06907087732205903 0.006028338817872424 0.0289591858991812
0.11254689453939999 0.006436774104911946 0.030810737686076485 0.9919906307514403 -0.07325278181164702 0.0020666203546213986 0.015901358345989314 -0.0017373689761469744 -0.009909864459649639
 0.9919906307514403 -0.07325278181164702 0.0064442018887389 0.030810224688679323 -0.0017378108634920552 -0.009909840352906017 0.0020179192145246163 0.015908150428014693
 0.0020666203546213986 0.015901358345989314 -0.0017378108634920552 -0.009909840352906017 0.006436328675196034 0.030809278571711004 0.9919905617563919 -0.07325427995544907
 -0.0017373689761469744 -0.009909864459649639 0.0020179192145246163 0.015908150428014693 0.9919905617563919 -0.07325427995544907 0.006444511163022478 0.030808689331882487
0.11879949979160001 0.006870651953379339 0.03267455295862514 0.991416137185168 -0.07744875093288785 0.0022718858771057795 0.01678385365101508 -0.001908199626630445 -0.010462882877299205
 0.991416137185168 -0.07744875093288785 0.006878928345635639 0.0326739884441361 -0.0019086905223555212 -0.010462853341008353 0.0022175944734219555 0.016791610409184025
 0.0022718858771057795 0.01678385365101508 -0.0019086905223555212 -0.010462853341008353 0.006870155844130768 0.03267301621112816 0.9914160606183797 -0.07745033203388889
 -0.001908199626630445 -0.010462882877299205 0.0022175944734219555 0.016791610409184025 0.9914160606183797 -0.07745033203388889 0.0068792734709731 0.032672365212169284
0.1250521050438 0.00732335260855256 0.03455226469595575 0.9908172722044797 -0.08165715502842612 0.002487540362255127 0.01766533994585238 -0.0020877355647872247 -0.011015214328111448
 0.9908172722044797 -0.08165715502842612 0.0073325239568220605 0.03455164581477729 -0.0020882779058650804 -0.01101517875609355 0.0024273522585485673 0.017674150135839888
 0.002487540362255127 0.01766533994585238 -0.0020882779058650804 -0.01101517875609355 0.007322803086077901 0.034550650843303284 0.9908171876706864 -0.08165881906907761
 -0.0020877355647872247 -0.011015214328111448 0.0024273522585485673 0.017674150135839888 0.9908171876706864 -0.08165881906907761 0.007332906914983185 0.03454993427794592
0.131304710296 0.007795154733137304 0.03644359149543944 0.9901937613596999 -0.08587777084652999 0.0027136501547927634 0.01854566052043662 -0.0022760449920275734 -0.011566706858697462
 0.9901937613596999 -0.08587777084652999 0.007805267515582745 0.036442915320464286 -0.0022766411953471957 -0.011566664618658075 0.0026472587283910857 0.018555617155971593
 0.0027136501547927634 0.01854566052043662 -0.0022766411953471957 -0.011566664618658075 0.007794549065124709 0.036441901094029415 0.990193668462803 -0.08587951780979823
 -0.0022760449920275734 -0.011566706858697462 0.0026472587283910857 0.018555617155971593 0.990193668462803 -0.08587951780979823 0.007805690288664888 0.0364411150256033
0.1375573155481 0.00817788369234255 0.038099346324326114 0.9896538226211559 -0.08986135924665006 0.0029220953872224056 0.019399125445108113 -0.0024450899108194564 -0.012091636649539175
 0.9896538226211559 -0.08986135924665006 0.008188988660293288 0.038098626278928426 -0.0024457437023374037 -0.012091587709599052 0.0028493479035991906 0.019410213460344647
 0.0029220953872224056 0.019399125445108113 -0.0024457437023374037 -0.012091587709599052 0.008177219936153883 0.03809757960252768 0.9896537209846907 -0.0898631890784799
 -0.0024450899108194564 -0.012091636649539175 0.0028493479035991906 0.019410213460344647 0.9896537209846907 -0.0898631890784799 0.00818945240101626 0.03809673701828953
0.1438099208003 0.008574042569576673 0.039746326403111855 0.9890949257915707 -0.09383483849601928 0.0031389844519028797 0.02024919345163295 -0.002620915329650735 -0.012613503605184453
 0.9890949257915707 -0.09383483849601928 0.008586187042047423 0.039745560555679425 -0.0026216293330811914 -0.012613447340999496 0.003059601834326076 0.020261497832340384
 0.0031389844519028797 0.02024919345163295 -0.0026216293330811914 -0.012613447340999496 0.008573318136758188 0.039744483890696576 0.989094815023416 -0.09383675117050129
 -0.002620915329650735 -0.012613503605184453 0.003059601834326076 0.020261497832340384 0.989094815023416 -0.09383675117050129 0.008586693582194334 0.039743581886260454
0.1500625260525 0.008983491360999995 0.04138439364878828 0.988517214984771 -0.09779810984193603 0.0033642437280184878 0.0210957786229483 -0.0028034504224288804 -0.013132227685157373
 0.988517214984771 -0.09779810984193603 0.00899672280828888 0.04138357992339977 -0.0028042272579354185 -0.013132163447002444 0.0032779485025681374 0.021109387459042478
 0.0033642437280184878 0.0210957786229483 -0.0028042272579354185 -0.013132163447002444 0.008982703673654379 0.04138247589320071 0.9885170946923831 -0.0978001053339298
 -0.0028034504224288804 -0.013132227685157373 0.0032779485025681374 0.021109387459042478 0.9885170946923831 -0.0978001053339298 0.00899727396995761 0.04138151138331487
0.15631513130469998 0.009406089056294966 0.04301341416741771 0.9879208350630998 -0.10175107488365946 0.0035977987201588463 0.021938796467419284 -0.002992623485706035 -0.013647730548083435
