! Created with skrf 1.8.0 (http://scikit-rf.org).
# GHz S RI R 50.0 
!freq ReS11 ImS11 ReS12 ImS12 ReS13 ImS13
! ReS14 ImS14
! ReS21 ImS21 ReS22 ImS22 ReS23 ImS23
! ReS24 ImS24
! ReS31 ImS31 ReS32 ImS32 ReS33 ImS33
! ReS34 ImS34
! ReS41 ImS41 ReS42 ImS42 ReS43 ImS43
! ReS44 ImS44
!
0.0 0.001347267492213 0.0 0.998652732495 0.0 5.166864370052e-05 0.0 -5.166864291289e-05 6.3275838159558316e-21
 0.998652732495 0.0 0.001347267492201 0.0 -5.166864291231e-05 6.327583815884802e-21 5.166864370118e-05 0.0
 5.166864370052e-05 0.0 -5.166864291231e-05 6.327583815884802e-21 0.00134726749753 0.0 0.9986527325004 0.0
 -5.166864291289e-05 6.3275838159558316e-21 5.166864370118e-05 0.0 0.9986527325004 0.0 0.001347267497547 0.0
0.005 0.0014490565257400854 0.001101931372923523 0.9985240424862302 -0.0028228444174333996 7.214211963984195e-05 0.0005728747119968351 -7.013197318193145e-05 -0.00035904240807864234
 0.9985240424862302 -0.0028228444174333996 0.0014490524141073631 0.0011019337114855491 -7.013195288328013e-05 -0.0003590423359791531 7.218540033779347e-05 0.0005728585222780819
 7.214211963984195e-05 0.0005728747119968351 -7.013195288328013e-05 -0.0003590423359791531 0.0014490571686365614 0.0011019982203682127 0.9985240428310207 -0.0028227773530562408
 -7.013197318193145e-05 -0.00035904240807864234 7.218540033779347e-05 0.0005728585222780819 0.9985240428310207 -0.0028227773530562408 0.0014490524606843472 0.0011020009944815049
0.006252605252188 0.0014756061119095534 0.0013817725309835799 0.9984902900524956 -0.0035292692702634837 7.789622968515385e-05 0.0007163794831100683 -7.527617724915595e-05 -0.00044927666324583583
 0.9984902900524956 -0.0035292692702634837 0.0014755996846037667 0.001381775429012247 -7.527614611576153e-05 -0.0004492765731643026 7.796385579236801e-05 0.0007163584288767277
 7.789622968515385e-05 0.0007163794831100683 -7.527614611576153e-05 -0.0004492765731643026 0.0014756070388795043 0.0013818560720029185 0.9984902905129528 -0.0035291854533329625
 -7.527617724915595e-05 -0.00044927666324583583 7.796385579236801e-05 0.0007163584288767277 0.9984902905129528 -0.0035291854533329625 0.001475599678527724 0.0013818595251774333
0.01250521050438 0.0016145152802901931 0.0027927320202513093 0.9983126504908112 -0.007059486126383361 0.00011039335832857661 0.0014331689210842317 -0.00010409506826390297 -0.0009008289920750732
 0.9983126504908112 -0.007059486126383361 0.0016144896190584549 0.0027927375432678066 -0.000104094951029215 -0.0009008288116446393 0.00011066315250656819 0.0014331181011265758
 0.00011039335832857661 0.0014331689210842317 -0.000104094951029215 -0.0009008288116446393 0.0016145184179522216 0.002792898800816741 0.9983126517587112 -0.007059318746669038
 -0.00010409506826390297 -0.0009008289920750732 0.00011066315250656819 0.0014331181011265758 0.9983126517587112 -0.007059318746669038 0.0016144890177717502 0.0027929055486956285
0.01875781575657 0.001764267753468736 0.004224036490185097 0.9981196147828004 -0.010599274516237487 0.00014923109173862963 0.0021508729670955315 -0.00013820754299752392 -0.0013540213433228816
 0.9981196147828004 -0.010599274516237487 0.001764210101166011 0.004224044328774513 -0.00013820728920971393 -0.0013540210704199385 0.0001498374309535252 0.0021507821854632523
 0.00014923109173862963 0.0021508729670955315 -0.00013820728920971393 -0.0013540210704199385 0.001764274394455856 0.004224286363462162 0.9981196172081247 -0.01059902367261138
 -0.00013820754299752392 -0.0013540213433228816 0.0001498374309535252 0.0021507821854632523 0.9981196172081247 -0.01059902367261138 0.001764208313696091 0.004224296231789928
0.02501042100875 0.0019251298662109658 0.005673713615887512 0.9979109769344351 -0.014150381567643913 0.00019448123596034576 0.0028695438727395907 -0.00017769366066381208 -0.001808666532375301
 0.9979109769344351 -0.014150381567643913 0.001925027494207765 0.005673723414715123 -0.00017769322295358594 -0.0018086661632054873 0.00019555871973270437 0.0028694014937323147
 0.00019448123596034576 0.0028695438727395907 -0.00017769322295358594 -0.0018086661632054873 0.0019251413074089147 0.005674046452569209 0.9979109808652354 -0.01415004734082825
 -0.00017769366066381208 -0.001808666532375301 0.00019555871973270437 0.0028694014937323147 0.9979109808652354 -0.01415004734082825 0.001925023922209583 0.005674059241506229
0.03126302626094 0.0020973567878547054 0.007140764234938515 0.9976865193923306 -0.017713574042760034 0.0002462161584856056 0.0035891680326717483 -0.00022263153256928445 -0.0022646393195603237
 0.9976865193923306 -0.017713574042760034 0.0020971969865311046 0.007140775589789719 -0.00022263086615383298 -0.0022646388486585937 0.00024789973212351534 0.00358896096893515
 0.0002462161584856056 0.0035891680326717483 -0.00022263086615383298 -0.0022646388486585937 0.0020973743317200364 0.00714117992098875 0.9976865251750575 -0.0177131564973982
 -0.00022263153256928445 -0.0022646393195603237 0.00024789973212351534 0.00358896096893515 0.9976865251750575 -0.0177131564973982 0.002097191025149022 0.007141195402296635
0.037515631513130004 0.002281198346389303 0.008624548897375786 0.9974460190037719 -0.02128925173382366 0.00030450815038891204 0.004309706138841386 -0.00027309789949020376 -0.002721836251513628
 0.9974460190037719 -0.02128925173382366 0.0022809684176752242 0.00862456135303134 -0.0002730969618050132 -0.002721835671697204 0.00030693316329435195 0.004309419833766788
 0.00030450815038891204 0.004309706138841386 -0.0002730969618050132 -0.002721835671697204 0.0022812233013182657 0.00862504731917301 0.9974460269844021 -0.021288750933080525
 -0.00027309789949020376 -0.002721836251513628 0.00030693316329435195 0.004309419833766788 0.9974460269844021 -0.021288750933080525 0.002280959456662566 0.008625065234472604
0.043768236765320004 0.0024769012882909307 0.010124601135588723 0.9971892494132819 -0.024877634132280762 0.00036942912981628327 0.00503110538812987 -0.00032916834814861846 -0.0031801634453417224
 0.9971892494132819 -0.024877634132280762 0.002476588540244342 0.010124614184161471 -0.0003291670987274352 -0.003180162747676269 0.0003727313658137103 0.005030723796492533
 0.00036942912981628327 0.00503110538812987 -0.0003291670987274352 -0.003180162747676269 0.0024769349682166025 0.010125182184846652 0.9971892599357335 -0.024877050132606604
 -0.00032916834814861846 -0.0031801634453417224 0.0003727313658137103 0.005030723796492533 0.9971892599357335 -0.024877050132606604 0.0024765759628164914 0.010125202244290315
0.050020842017509996 0.002684710333111378 0.011640550326439446 0.9969159822536632 -0.028478837503775712 0.00044105046868708433 0.005753304524218348 -0.00039091739650626967 -0.00363953153847028
 0.9969159822536632 -0.028478837503775712 0.002684302073862374 0.011640563405986367 -0.0003909157967074234 -0.0036395307122294453 0.000445366162070623 0.005752810092006598
 0.00044105046868708433 0.005753304524218348 -0.0003909157967074234 -0.0036395307122294453 0.0026847540568161556 0.011641213896796485 0.9969159956602421 -0.02847817035819191
 -0.00039091739650626967 -0.00363953153847028 0.000445366162070623 0.005752810092006598 0.9969159956602421 -0.02847817035819191 0.0026842852572870495 0.01164123577791101
0.055454545454549996 0.002875323271610893 0.012970622516540192 0.9966649284050467 -0.03161884527214537 0.000508788023969857 0.0063815149648681355 -0.00044924800160830455 -0.0040395138272659135
 0.9966649284050467 -0.03161884527214537 0.0028748216991504936 0.012970635123654917 -0.0004492460672710796 -0.004039512879147008 0.0005140954363400154 0.006380907027506148
 0.000508788023969857 0.0063815149648681355 -0.0004492460672710796 -0.004039512879147008 0.002875376799941515 0.012971357707933399 0.9966649445957778 -0.03161810591776711
 -0.00044924800160830455 -0.0040395138272659135 0.0005140954363400154 0.006380907027506148 0.9966649445957778 -0.03161810591776711 0.0028748006897485155 0.012971380884258515
0.056273447269699996 0.0029048687225904537 0.013172083811129569 0.9966259878363002 -0.03209291270554188 0.00051944287076258 0.006476236308249427 -0.00045841852373395674 -0.004099853210713437
 0.9966259878363002 -0.03209291270554188 0.00290435225534537 0.0131720963043036 -0.0004584165366353793 -0.004099852243328129 0.0005249087129114813 0.006475609952095104
 0.00051944287076258 0.006476236308249427 -0.0004584165366353793 -0.004099852243328129 0.0029049238156619323 0.013172829788838518 0.9966260044689921 -0.03209216247256444
 -0.00045841852373395674 -0.004099853210713437 0.0005249087129114813 0.006475609952095104 0.9966260044689921 -0.03209216247256444 0.0029043305728076864 0.013172853135656226
0.06252605252188 0.0031376185275391014 0.01471892607788834 0.9963190355996595 -0.035719865941719456 0.000604676278318885 0.007199828869851514 -0.0005317441681004387 -0.004561041827586398
 0.9963190355996595 -0.035719865941719456 0.003136981145404423 0.01471893731085961 -0.0005317417583381936 -0.00456104070461974 0.000611429419289234 0.00719904995625982
 0.000604676278318885 0.007199828869851514 -0.0005317417583381936 -0.00456104070461974 0.003137686320895758 0.014719754346224086 0.9963190557988344 -0.035719032680750905
 -0.0005317441681004387 -0.004561041827586398 0.000611429419289234 0.00719904995625982 0.9963190557988344 -0.035719032680750905 0.003136953965216879 0.01471977876838535
0.06877865777407 0.0033832008173597995 0.01628082634138826 0.995994894424198 -0.039359671123778944 0.0006968197914828623 0.00792400652067148 -0.0006109657106490218 -0.005023010623061507
 0.995994894424198 -0.039359671123778944 0.0033824297983146515 0.016280835582807497 -0.000610962844360573 -0.005023009328152518 0.0007049978368344422 0.007923052845135448
 0.0006968197914828623 0.00792400652067148 -0.000610962844360573 -0.005023009328152518 0.003383282648080306 0.016281736780272133 0.9959949185295085 -0.03935875489519573
 -0.0006109657106490218 -0.005023010623061507 0.0007049978368344422 0.007923052845135448 0.9959949185295085 -0.03935875489519573 0.0033823964846368096 0.016281761852461992
0.07503126302626001 0.003641855751978786 0.0178575506716735 0.9956533328716294 -0.04301227768321174 0.0007959415971992083 0.008648690262688928 -0.000696153447031256 -0.005485672189663392
 0.9956533328716294 -0.04301227768321174 0.0036409383537436644 0.017857557131776686 -0.000696150091679445 -0.005485670704500568 0.0008056826020501753 0.00864753802874679
 0.0007959415971992083 0.008648690262688928 -0.000696150091679445 -0.005485670704500568 0.003641952962427415 0.017858543158650732 0.9956533612210582 -0.04301127854711697
 -0.000696153447031256 -0.005485672189663392 0.0008056826020501753 0.00864753802874679 0.9956533612210582 -0.04301127854711697 0.0036408982666483536 0.017858568419973738
0.08128386827845 0.003913822624051341 0.01944887675762937 0.9952941193776093 -0.04667761575207507 0.0009021089034445088 0.009373798126589577 -0.0007873765523416931 -0.0059489381408141615
 0.9952941193776093 -0.04667761575207507 0.003912746079036842 0.019448879587561363 -0.0007873726766153093 -0.005948936445102562 0.0009135513645549715 0.009372421924900039
 0.0009021089034445088 0.009373798126589577 -0.0007873726766153093 -0.005948936445102562 0.003913936562213708 0.019449951164122806 0.9952941523077127 -0.04667653377184237
 -0.0007873765523416931 -0.0059489381408141615 0.0009135513645549715 0.009372421924900039 0.9952941523077127 -0.04667653377184237 0.003912698575192775 0.019449976117666468
0.08753647353064001 0.004199339868519522 0.021054590282996367 0.9949170224132438 -0.050355599733434835 0.0010153878761521577 0.01009924541225233 -0.0008847030423298606 -0.00641271887349632
 0.9949170224132438 -0.050355599733434835 0.004198091378729655 0.02105458857408889 -0.0008846986160796726 -0.006412716944914275 0.00102867072143163 0.010097618199671556
 0.0010153878761521577 0.01009924541225233 -0.0008846986160796726 -0.006412716944914275 0.004199471887797975 0.021055746474436834 0.9949170602594304 -0.05035443497521892
 -0.0008847030423298606 -0.00641271887349632 0.00102867072143163 0.010097618199671556 0.9949170602594304 -0.05035443497521892 0.004198035811375803 0.021055770586968284
0.09378907878283 0.004498645049599086 0.022674482332151098 0.994521810627827 -0.054046130844611955 0.0011358435786560403 0.010824944855362319 -0.0009881997302180739 -0.00687692340727838
 0.994521810627827 -0.054046130844611955 0.004497211781280013 0.022674475115476187 -0.0009881947242901658 -0.006876921221451474 0.0011511061556854232 0.010823037934122684
 0.0011358435786560403 0.010824944855362319 -0.0009881947242901658 -0.006876921221451474 0.004498796508648437 0.022675720168069912 0.9945218537240319 -0.054044883377057824
 -0.0009881997302180739 -0.00687692340727838 0.0011511061556854232 0.010823037934122684 0.9945218537240319 -0.054044883377057824 0.004497147501040375 0.022675742869869026
0.100041684035 0.004811974831526998 0.024308347490746687 0.9941082529773131 -0.057749098968539476 0.0012635399124075852 0.011550806755538037 -0.0010979321812819181 -0.007341459264528088
 0.9941082529773131 -0.057749098968539476 0.004810343910080039 0.024308333736755946 -0.0010979265674566504 -0.007341456795000849 0.001280921975460332 0.011548589752455629
 0.0012635399124075852 0.011550806755538037 -0.0010979265674566504 -0.007341456795000849 0.004812147094475433 0.02430966682556717 0.9941083016560214 -0.057747768861687504
 -0.0010979321812819181 -0.007341459264528088 0.001280921975460332 0.011548589752455629 0.9941083016560214 -0.057747768861687504 0.00481027026532819 0.024309687510287847
0.1059090909091 0.0051189668128484665 0.02585408387824227 0.9937032821852865 -0.061235146304285115 0.0013900105038314233 0.012232016957985318 -0.0012066330743782671 -0.007777594464165946
 0.9937032821852865 -0.061235146304285115 0.005117138664600094 0.025854062999039504 -0.0012066268651957687 -0.00777759170247171 0.0014095089344507033 0.0122294798413262
 0.0013900105038314233 0.012232016957985318 -0.0012066268651957687 -0.00777759170247171 0.005119159843089011 0.02585547955381589 0.9937033364034759 -0.06123373871425497
 -0.0012066330743782671 -0.007777594464165946 0.0014095089344507033 0.0122294798413262 0.9937033364034759 -0.06123373871425497 0.005117055637469203 0.025855497761771967
0.1062942892872 0.005139564937955303 0.025955982413419253 0.9936761188431515 -0.06146438404084236 0.0013985395585298641 0.012276739073557062 -0.0012139646655047309 -0.00780623238415783
 0.9936761188431515 -0.06146438404084236 0.005137723442624443 0.025955961031646973 -0.0012139584164008604 -0.007806229602361138 0.0014181812543407521 0.012274179919386305
 0.0013985395585298641 0.012276739073557062 -0.0012139584164008604 -0.007806229602361138 0.005139759373798187 0.025957383096259785 0.9936761734351796 -0.061462971366010984
 -0.0012139646655047309 -0.00780623238415783 0.0014181812543407521 0.012274179919386305 0.9936761734351796 -0.061462971366010984 0.005137639779371284 0.025957401121087305
0.11254689453939999 0.005481650101059811 0.027617184732644687 0.993225178144384 -0.06519185709889766 0.0015409039200782642 0.013002647506953574 -0.001336360108360168 -0.008271147059815714
 0.993225178144384 -0.06519185709889766 0.005479585059449718 0.027617154571652324 -0.001336353197324661 -0.008271143935041912 0.0015629457726983227 0.012999712415840147
 0.0015409039200782642 0.013002647506953574 -0.001336353197324661 -0.008271143935041912 0.005481868084032827 0.027618666604973 0.993225238979113 -0.06519036193083731
 -0.001336360108360168 -0.008271147059815714 0.0015629457726983227 0.012999712415840147 0.993225238979113 -0.06519036193083731 0.005479490722305382 0.027618681290714892
0.11879949979160001 0.005838464005242724 0.029291752201219663 0.9927552014457661 -0.06893138110056653 0.0016906930644777509 0.013728435553810776 -0.0014651800405105827 -0.008736105892771219
 0.9927552014457661 -0.06893138110056653 0.005836162387880525 0.029291712048656524 -0.0014651724414941453 -0.008736102392154459 0.0017152759591998155 0.013725089002872445
 0.0016906930644777509 0.013728435553810776 -0.0014651724414941453 -0.008736102392154459 0.005838706914050861 0.029293315096032148 0.9927552688507446 -0.06892980351798993
 -0.0014651800405105827 -0.008736105892771219 0.0017152759591998155 0.013725089002872445 0.9927552688507446 -0.06892980351798993 0.005836056720055447 0.029293325727497876
0.1250521050438 0.006210239223072236 0.030979482013719063 0.9922659600607221 -0.07268281156719728 0.001847965666315717 0.014454004564690811 -0.001600484546289582 -0.009201009759555678
 0.9922659600607221 -0.07268281156719728 0.006207687937887465 0.03097943059645232 -0.001600476233771249 -0.009201005848051075 0.0018752308326981531 0.014450209273802812
 0.001847965666315717 0.014454004564690811 -0.001600476233771249 -0.009201005848051075 0.006210508441306145 0.03098112575822109 0.9922660343619165 -0.07268115164978038
 -0.001600484546289582 -0.009201009759555678 0.0018752308326981531 0.014450209273802812 0.9922660343619165 -0.07268115164978038 0.00620757028186719 0.030981131584614026
0.131304710296 0.006597207148644417 0.0326801702670756 0.9917572261541179 -0.07644599709085038 0.0020127789500449496 0.015179253787855907 -0.001742332211403445 -0.009665757789389634
 0.9917572261541179 -0.07644599709085038 0.006594393035467382 0.03268010625157401 -0.0017423231603170117 -0.009665753429744779 0.0020428679442457357 0.015174970699471216
 0.0020127789500449496 0.015179253787855907 -0.0017423231603170117 -0.009665753429744779 0.006597504064445244 0.032681894680827044 0.9917573076755617 -0.07644425492084021
 -0.001742332211403445 -0.009665757789389634 0.0020428679442457357 0.015174970699471216 0.9917573076755617 -0.07644425492084021 0.006594262733116473 0.0326818949164304
0.1375573155481 0.006906239393782869 0.034171345167469794 0.9913221612267341 -0.07999843642515514 0.0021628909325964235 0.01588126446560708 -0.0018684443904322236 -0.010107467753886809
 0.9913221612267341 -0.07999843642515514 0.006903147151770935 0.03417127039078638 -0.0018684343977335217 -0.010107462934258809 0.0021958643968872193 0.015876502947726995
 0.0021628909325964235 0.01588126446560708 -0.0018684343977335217 -0.010107462934258809 0.006906564605015678 0.0341731504295919 0.9913222502922493 -0.07999661209608697
 -0.0018684443904322236 -0.010107467753886809 0.0021958643968872193 0.015876502947726995 0.9913222502922493 -0.07999661209608697 0.006903004340656557 0.034173146780003605
0.1438099208003 0.0072259855431303244 0.03565543813425596 0.9908720952780357 -0.08354265915040052 0.0023190646599449216 0.016580945278853332 -0.0019996167018272596 -0.010547019287995963
 0.9908720952780357 -0.08354265915040052 0.007222601559568318 0.03565535166233664 -0.001999605711029778 -0.010547013975139834 0.0023550499752580407 0.016575670042099064
 0.0023190646599449216 0.016580945278853332 -0.001999605711029778 -0.010547013975139834 0.007226340301869234 0.03565732410832621 0.9908721922080471 -0.08354075275238741
 -0.0019996167018272596 -0.010547019287995963 0.0023550499752580407 0.016575670042099064 0.9908721922080471 -0.08354075275238741 0.007222445726226876 0.0356573161282215
0.1500625260525 0.007556343378114424 0.03713234824949373 0.9904071339173842 -0.08707860089833902 0.0024812523845859466 0.01727824173652707 -0.0021358022887703544 -0.010984359255843117
 0.9904071339173842 -0.08707860089833902 0.007552653957016844 0.03713224913139547 -0.0021357902417487615 -0.01098435341543262 0.002520376301811612 0.017272416212174575
 0.0024812523845859466 0.01727824173652707 -0.0021357902417487615 -0.01098435341543262 0.007556728931848648 0.0371343147969931 0.9904072390308535 -0.08707661252350903
 -0.0021358022887703544 -0.010984359255843117 0.002520376301811612 0.017272416212174575 0.9904072390308535 -0.08707661252350903 0.0075524845974151095 0.03713430204118126
0.15631513130469998 0.007897210076660922 0.03860197776276505 0.9899273831582782 -0.09060619706863075 0.002649405868301173 0.0179731001657198 -0.002276953784197575 -0.011419435563430558
