! Created with skrf 1.8.0 (http://scikit-rf.org).
# GHz S RI R 50.0 
!freq ReS11 ImS11 ReS12 ImS12 ReS13 ImS13
! ReS14 ImS14
! ReS21 ImS21 ReS22 ImS22 ReS23 ImS23
! ReS24 ImS24
! ReS31 ImS31 ReS32 ImS32 ReS33 ImS33
! ReS34 ImS34
! ReS41 ImS41 ReS42 ImS42 ReS43 ImS43
! ReS44 ImS44
!
0.0 0.001201819601565 0.0 0.9987981803984 0.0 4.544285340971e-05 0.0 -4.544285339281e-05 5.565144495162721e-21
 0.9987981803984 0.0 0.001201819601565 0.0 -4.544285339301e-05 5.565144495187214e-21 4.54428534094e-05 0.0
 4.544285340971e-05 0.0 -4.544285339301e-05 5.565144495187214e-21 0.001201819583544 0.0 0.9987981803804 0.0
 -4.544285339281e-05 5.565144495162721e-21 4.54428534094e-05 0.0 0.9987981803804 0.0 0.001201819583532 0.0
0.005 0.0012921989882559307 0.0009899965370147909 0.9986839860457944 -0.0025181725532754944 6.224279140772727e-05 0.0004628418232160053 -6.0784086320471874e-05 -0.00029725110191091184
 0.9986839860457944 -0.0025181725532754944 0.0012921997156720775 0.0009899960913149007 -6.078220876845483e-05 -0.0002972496414065063 6.225743253286056e-05 0.0004628364567852251
 6.224279140772727e-05 0.0004628418232160053 -6.078220876845483e-05 -0.0002972496414065063 0.0012922003856565083 0.0009900629340497075 0.9986839863746594 -0.0025181055030349827
 -6.0784086320471874e-05 -0.00029725110191091184 6.225743253286056e-05 0.0004628364567852251 0.9986839863746594 -0.0025181055030349827 0.0012921989746732653 0.0009900637942769229
0.006252605252188 0.001315672297890513 0.001241393398238248 0.998654181455995 -0.00314836444427925 6.690743590338712e-05 0.0005788085845970435 -6.500821066502679e-05 -0.0003719519930382027
 0.998654181455995 -0.00314836444427925 0.0013156734348478774 0.0012413927880014963 -6.500528912841273e-05 -0.00037195019106653896 6.693031407192745e-05 0.0005788015902336613
 6.690743590338712e-05 0.0005788085845970435 -6.500528912841273e-05 -0.00037195019106653896 0.001315674401535583 0.0012414763997865483 0.9986541818889494 -0.003148280622527518
 -6.500821066502679e-05 -0.0003719519930382027 6.693031407192745e-05 0.0005788015902336613 0.9986541818889494 -0.003148280622527518 0.001315672195092713 0.0012414774286887598
0.01250521050438 0.0014378987025144923 0.0025089013487445155 0.9984981606926485 -0.006297693987197531 9.294577811736604e-05 0.0011581596352820583 -8.839927952658244e-05 -0.0007458071687299472
 0.9984981606926485 -0.006297693987197531 0.001437903244699546 0.002508899577107103 -8.838776663926807e-05 -0.0007458038197946172 9.30370935459463e-05 0.0011581426248234432
 9.294577811736604e-05 0.0011581596352820583 -8.838776663926807e-05 -0.0007458038197946172 0.0014379065678828016 0.002509067053403011 0.9984981618827057 -0.006297526595293565
 -8.839927952658244e-05 -0.0007458071687299472 9.30370935459463e-05 0.0011581426248234432 0.9984981618827057 -0.006297526595293565 0.0014378977501778212 0.0025090686424988845
0.01875781575657 0.001568716767860488 0.0037946643990040734 0.9983299592549799 -0.009455693891323728 0.0001236117655526556 0.0017384260386085445 -0.00011567703475865544 -0.0011211063063906377
 0.9983299592549799 -0.009455693891323728 0.0015687269835087973 0.0037946608547059306 -0.00011565136058390882 -0.0011211017042486173 0.00012381709044672948 0.0017383955404498177
 0.0001236117655526556 0.0017384260386085445 -0.00011565136058390882 -0.0011211017042486173 0.0015687340268816317 0.003794912635919076 0.9983299615060446 -0.00945544302305605
 -0.00011567703475865544 -0.0011211063063906377 0.00012381709044672948 0.0017383955404498177 0.9983299615060446 -0.00945544302305605 0.0015687142036025642 0.00379491430526285
0.02501042100875 0.0017083404305585376 0.0050969452754988835 0.9981494134163512 -0.012623942184418476 0.000158959744448337 0.0023196507058271146 -0.00014690133916083793 -0.001497717559079607
 0.9981494134163512 -0.012623942184418476 0.0017083585889579836 0.0050969392847436444 -0.00014685599939483925 -0.001497712042028624 0.00015932478784644162 0.002319602808289948
 0.000158959744448337 0.0023196507058271146 -0.00014685599939483925 -0.001497712042028624 0.001708370720738289 0.005097275882973856 0.9981494170398131 -0.012623607895642824
 -0.00014690133916083793 -0.001497717559079607 0.00015932478784644162 0.002319602808289948 0.9981494170398131 -0.012623607895642824 0.0017083355003148948 0.005097277135833169
0.03126302626094 0.0018569744362705745 0.00641487459694887 0.9979563494963335 -0.015803143916739763 0.0001990445717294447 0.0029018286290688096 -0.0001821308685081578 -0.0018755544037845724
 0.9979563494963335 -0.015803143916739763 0.0018570028072159488 0.006414865421963741 -0.0001820604129035866 -0.0018755483554246364 0.00019961521931607904 0.0029017589753976615
 0.0001990445717294447 0.0029018286290688096 -0.0001820604129035866 -0.0018755483554246364 0.0018570213954657697 0.006415287393512385 0.9979563548041803 -0.015802726254186453
 -0.0001821308685081578 -0.0018755544037845724 0.00019961521931607904 0.0029017589753976615 0.9979563548041803 -0.015802726254186453 0.0018569663855406758 0.006415287714957936
0.037515631513130004 0.00201481928906794 0.00774790418719741 0.997750588894014 -0.018993677803546903 0.00024392118004282217 0.003484936176342398 -0.00022142349912401423 -0.0022545463372373245
 0.997750588894014 -0.018993677803546903 0.00201486014193505 0.007747891024983702 -0.00022132252545991457 -0.0022545401867399752 0.0002447435134973699 0.0034848399583517755
 0.00024392118004282217 0.003484936176342398 -0.00022132252545991457 -0.0022545401867399752 0.0020148865534044165 0.007748398974407946 0.9977505961965029 -0.018993176801784084
 -0.00022142349912401423 -0.0022545463372373245 0.0002447435134973699 0.0034848399583517755 0.9977505961965029 -0.018993176801784084 0.0020148073587377005 0.0077483978303336115
0.043768236765320004 0.0021820731718319598 0.00909564071976573 0.9975319500930971 -0.02219576253065533 0.0002936443804037262 0.004068939989487716 -0.0002648364528483853 -0.0026346299667717515
 0.9975319500930971 -0.02219576253065533 0.002182128774278027 0.009095622700908456 -0.00026469960330170993 -0.002634624188980237 0.0002947646880714168 0.0040688119407138726
 0.0002936443804037262 0.004068939989487716 -0.00026469960330170993 -0.002634624188980237 0.0021821643780957738 0.009096217276548555 0.9975319597008544 -0.02219517821731436
 -0.0002648364528483853 -0.0026346299667717515 0.0002947646880714168 0.0040688119407138726 0.9975319597008544 -0.02219517821731436 0.002182056598585209 0.009096214113088181
0.050020842017509996 0.0023589328511277275 0.010457776948970963 0.9973002496527559 -0.025409525471541655 0.0003482687446207425 0.004653800663241363 -0.0003124263600476067 -0.003015745319785321
 0.9973002496527559 -0.025409525471541655 0.002359005467850227 0.01045775313659013 -0.00031224831884802936 -0.003015740435272747 0.00034973352724124537 0.004653635051950448
 0.0003482687446207425 0.004653800663241363 -0.00031224831884802936 -0.003015740435272747 0.002359051636290157 0.01045843503590424 0.9973002618757265 -0.02540885786263951
 -0.0003124263600476067 -0.003015745319785321 0.00034973352724124537 0.004653635051950448 0.9973002618757265 -0.02540885786263951 0.002358910864862078 0.010458429278960953
0.055454545454549996 0.0025205824578357367 0.011653010021226096 0.9970881437989868 -0.02821192221673809 0.0003997614619660082 0.00516272436752899 -0.0003572191824869659 -0.003347738650284769
 0.9970881437989868 -0.02821192221673809 0.0025206716963586326 0.01165298036003857 -0.0003570010588155012 -0.0033477350003607432 0.00040156353543874474 0.005162521091689317
 0.0003997614619660082 0.00516272436752899 -0.0003570010588155012 -0.0033477350003607432 0.002520728164466559 0.011653738742504003 0.9970881585472282 -0.028211182234357816
 -0.0003572191824869659 -0.003347738650284769 0.00040156353543874474 0.005162521091689317 0.9970881585472282 -0.028211182234357816 0.002520555136651389 0.011653730249457105
0.056273447269699996 0.002545594149928498 0.011834057982687838 0.9970553027674979 -0.02863503636222548 0.00040784852668457675 0.005239474541220807 -0.00036424928184472825 -0.003397834036778543
 0.9970553027674979 -0.02863503636222548 0.002545686041307672 0.011834027371367233 -0.0003640247735814365 -0.003397830611870281 0.00040970450059180867 0.005239265163277983
 0.00040784852668457675 0.005239474541220807 -0.0003640247735814365 -0.003397830611870281 0.0025457441522269766 0.011834797330687838 0.9970553179169102 -0.028634285473143353
 -0.00036424928184472825 -0.003397834036778543 0.00040970450059180867 0.005239265163277983 0.9970553179169102 -0.028634285473143353 0.0025455659735958867 0.011834788385472042
0.06252605252188 0.0027422522192329193 0.01322426271381911 0.9967969236283399 -0.031872325817824086 0.000472437601915319 0.00582591470104382 -0.00042036071338493516 -0.0037808383760173075
 0.9967969236283399 -0.031872325817824086 0.002742365639530748 0.013224224228663272 -0.000420084501813728 -0.0037808370228072305 0.00047473170042141205 0.005825654872702544
 0.000472437601915319 0.00582591470104382 -0.000420084501813728 -0.0037808370228072305 0.0027424370772731774 0.013225083025877373 0.9967969420153078 -0.03187149166105394
 -0.00042036071338493516 -0.0037808383760173075 0.00047473170042141205 0.005825654872702544 0.9967969420153078 -0.03187149166105394 0.0027422170662200042 0.013225070276579617
0.06877865777407 0.002949101693858814 0.014628192764429566 0.9965249256697233 -0.035121396336887815 0.0005420894161903669 0.006413071541223915 -0.00048081557593730707 -0.0041647006173578345
 0.9965249256697233 -0.035121396336887815 0.002949238889854793 0.014628145260025805 -0.0004804824631565832 -0.004164701993712597 0.0005448687896001915 0.006412754091896467
 0.0005420894161903669 0.006413071541223915 -0.0004804824631565832 -0.004164701993712597 0.002949325047005676 0.014629093720788825 0.9965249476056971 -0.03512047891646079
 -0.00048081557593730707 -0.0041647006173578345 0.0005448687896001915 0.006412754091896467 0.9965249476056971 -0.03512047891646079 0.0029490587666093086 0.014629076530262903
0.07503126302626001 0.0031663367833171877 0.01604566546944152 0.9962391217527236 -0.038382229267166376 0.0006168569412677998 0.0070008931497763495 -0.0005456682018343611 -0.0045493626854614866
 0.9962391217527236 -0.038382229267166376 0.003166499992694864 0.016045607728969347 -0.0005452730276227607 -0.004549367495013369 0.0006201689560524346 0.007000510414757351
 0.0006168569412677998 0.0070008931497763495 -0.0005452730276227607 -0.004549367495013369 0.00316660227146701 0.016046646718713694 0.9962391475500901 -0.038381228587113014
 -0.0005456682018343611 -0.0045493626854614866 0.0006201689560524346 0.007000510414757351 0.9962391475500901 -0.038381228587113014 0.0031662852718702117 0.016046624428181035
0.08128386827845 0.003394151321426193 0.01747650920886196 0.9959393243097472 -0.04165478942385207 0.0006967926333556493 0.007589325549654628 -0.0006149723152204053 -0.004934765897328248
 0.9959393243097472 -0.04165478942385207 0.003394342770924527 0.017476439943198065 -0.0006145099565884807 -0.004934774889470841 0.0007006848705173808 0.007588869362836005
 0.0006967926333556493 0.007589325549654628 -0.0006145099565884807 -0.004934774889470841 0.0033944625848779616 0.017477570372664186 0.9959393542812536 -0.041653705483091066
 -0.0006149723152204053 -0.004934765897328248 0.0007006848705173808 0.007588869362836005 0.9959393542812536 -0.041653705483091066 0.003394090401505086 0.017477542301524793
0.08753647353064001 0.0036327387894305565 0.018920560177464133 0.9956253454637196 -0.04493902827153974 0.0007819483946154949 0.00817831286625868 -0.0006887810089287805 -0.005320850789020216
 0.9956253454637196 -0.04493902827153974 0.0036329606931366936 0.018920478024314836 -0.0006882463797835713 -0.005320864758897716 0.0007864686474936302 0.008177774552822181
 0.0007819483946154949 0.00817831286625868 -0.0006882463797835713 -0.005320864758897716 0.003633099468736191 0.01892170084797482 0.9956253799229549 -0.044937861065997016
 -0.0006887810089287805 -0.005320850789020216 0.0007864686474936302 0.008177774552822181 0.9956253799229549 -0.044937861065997016 0.0036326676207701545 0.018921666293587304
0.09378907878283 0.0038822923195221347 0.02037766007685247 0.9952969971298103 -0.04823488618526542 0.0008723755354042002 0.008767797447486205 -0.0007671467196807532 -0.005707556991137325
 0.9952969971298103 -0.04823488618526542 0.003882546877112016 0.02037756359990183 -0.0007665347705763441 -0.005707576779625531 0.0008775718070970362 0.008767167816597277
 0.0008723755354042002 0.008767797447486205 -0.0007665347705763441 -0.005707576779625531 0.0038827060553775386 0.020378879812610984 0.9952970363913771 -0.04823363571151752
 -0.0007671467196807532 -0.005707556991137325 0.0008775718070970362 0.008767167816597277 0.9952970363913771 -0.04823363571151752 0.0038822100444237204 0.020378838050166558
0.100041684035 0.004143004686571774 0.021847654413697078 0.994954091107243 -0.05154229410668343 0.0009681247380903902 0.009357719951246598 -0.0008501212009545978 -0.00609482313818978
 0.994954091107243 -0.05154229410668343 0.004143294081254434 0.021847542101842067 -0.0008494269189787296 -0.006094849631873573 0.0009740452383335018 0.009356989288756903
 0.0009681247380903902 0.009357719951246598 -0.0008494269189787296 -0.006094849631873573 0.004143475119474399 0.021848952748614432 0.9949541354865389 -0.05154096035259408
 -0.0008501212009545978 -0.00609482313818978 0.0009740452383335018 0.009356989288756903 0.9949541354865389 -0.05154096035259408 0.004142910427461095 0.02184890303098663
0.1059090909091 0.004397975822057005 0.02323868014340683 0.9946189024401595 -0.05465638152820786 0.0010628601303219428 0.009911643651345644 -0.000932221054408833 -0.0064586850095529015
 0.9946189024401595 -0.05465638152820786 0.00439829987722536 0.023238551530535174 -0.0009314449850178185 -0.006458718642385166 0.0010695042696640738 0.009910808873913525
 0.0010628601303219428 0.009911643651345644 -0.0009314449850178185 -0.006458718642385166 0.004398502769635414 0.02324005178063118 0.9946189519096255 -0.05465496961403625
 -0.000932221054408833 -0.0064586850095529015 0.0010695042696640738 0.009910808873913525 0.9946189519096255 -0.05465496961403625 0.004397869500203684 0.023239993898458672
0.1062942892872 0.004415068288502347 0.023330391229098947 0.994596439161071 -0.05486117477062272 0.0010692460208865926 0.009948019411475172 -0.0009377554948905831 -0.006482586800902495
 0.994596439161071 -0.05486117477062272 0.004415394685433374 0.023330261495670565 -0.0009369739035482818 -0.006482620932049181 0.001075939162770678 0.009947177472602126
 0.0010692460208865926 0.009948019411475172 -0.0009369739035482818 -0.006482620932049181 0.004415599058529426 0.02333176766280442 0.9945964889745019 -0.05485975772459534
 -0.0009377554948905831 -0.006482586800902495 0.001075939162770678 0.009947177472602126 0.9945964889745019 -0.05485975772459534 0.004414961146656836 0.023331709220484362
0.11254689453939999 0.004698675120666593 0.02482572011953462 0.9942238531003005 -0.05819144364179273 0.0011757887023746403 0.010538633289531888 -0.0010300999028819101 -0.006870784434567779
 0.9942238531003005 -0.05819144364179273 0.004699040664686154 0.024825571301562592 -0.0010292260620858595 -0.006870827181098831 0.0011833030985108357 0.010537669291582242
 0.0011757887023746403 0.010538633289531888 -0.0010292260620858595 -0.006870827181098831 0.0046992698673220794 0.024827174120837212 0.9942239086655108 -0.05818994328879403
 -0.0010300999028819101 -0.006870784434567779 0.0011833030985108357 0.010537669291582242 0.9942239086655108 -0.05818994328879403 0.0046985541740579475 0.024827106161877194
0.11879949979160001 0.0049940167437068075 0.02633349146763883 0.9938361448504204 -0.06153300964315379 0.0012878013662169225 0.011129497513694393 -0.001127203955017737 -0.007259351340843103
 0.9938361448504204 -0.06153300964315379 0.004994423557597299 0.026333321825169162 -0.0011262329611007845 -0.00725940372629159 0.0012961858248868845 0.011128400128769778
 0.0012878013662169225 0.011129497513694393 -0.0011262329611007845 -0.00725940372629159 0.004994679105601723 0.02633502247321085 0.9938362064862831 -0.06153142596568859
 -0.001127203955017737 -0.007259351340843103 0.0012961858248868845 0.011128400128769778 0.9938362064862831 -0.06153142596568859 0.004993881045270102 0.02633494418321737
0.1250521050438 0.005301284247013958 0.027853555839405162 0.9934331265240703 -0.06488577571971935 0.0014053318257653978 0.01172054651286722 -0.0012291163791271797 -0.0076482216368407765
 0.9934331265240703 -0.06488577571971935 0.0053017344291987935 0.02785336355488348 -0.0012280433648839413 -0.007648284730316855 0.0014146353465516934 0.011719303860602904
 0.0014053318257653978 0.01172054651286722 -0.0012280433648839413 -0.007648284730316855 0.00530201786163417 0.027855163255346822 0.9934331945506552 -0.06488410869582618
 -0.0012291163791271797 -0.0076482216368407765 0.0014146353465516934 0.011719303860602904 0.9934331945506552 -0.06488410869582618 0.005301132822610162 0.027855073797527018
0.131304710296 0.005620668208470163 0.0293857634954089 0.9930146104889708 -0.06824963929014925 0.0015284270887722788 0.012311713242449866 -0.001335885068801115 -0.008037328233676493
 0.9930146104889708 -0.06824963929014925 0.00562116383099978 0.02938554667306274 -0.0013347052035899238 -0.00803740314981747 0.001538698858188311 0.012310312882792914
 0.0015284270887722788 0.012311713242449866 -0.0013347052035899238 -0.00803740314981747 0.005621476711832245 0.02938744669386507 0.9930146852280038 -0.06824788889639129
 -0.001335885068801115 -0.008037328233676493 0.001538698858188311 0.012310312882792914 0.9930146852280038 -0.06824788889639129 0.005620500054852114 0.029387345209050716
0.1375573155481 0.0058714621409893765 0.030731156464634053 0.9926613265313974 -0.0714256327189844 0.001639429933944268 0.012882800775472141 -0.0014298397251731418 -0.008406489414369108
 0.9926613265313974 -0.0714256327189844 0.0058720040435805455 0.03073091854570453 -0.0014285458728717916 -0.008406576029288456 0.0016506870327118624 0.012881246746538308
 0.001639429933944268 0.012882800775472141 -0.0014285458728717916 -0.008406576029288456 0.005872348638872185 0.03073291489395963 0.992661408284656 -0.07142379896589217
 -0.0014298397251731418 -0.008406489414369108 0.0016506870327118624 0.012881246746538308 0.992661408284656 -0.07142379896589217 0.005871275590367414 0.030732805771209515
0.1438099208003 0.0061308150961287555 0.032070735271640144 0.9922961119281974 -0.07459483243353203 0.0017548967737974664 0.01345222102729959 -0.0015275490995948875 -0.008774105406496983
 0.9922961119281974 -0.07459483243353203 0.006131405092891486 0.032070474830056116 -0.0015261360665016217 -0.008774204795438804 0.0017671828413304415 0.013450502232000065
 0.0017548967737974664 0.01345222102729959 -0.0015261360665016217 -0.008774204795438804 0.006131783126939208 0.03207256829348232 0.9922962010151849 -0.07459291530202469
 -0.0015275490995948875 -0.008774105406496983 0.0017671828413304415 0.013450502232000065 0.9922962010151849 -0.07459291530202469 0.006130608986864114 0.03207245116714328
0.1500625260525 0.006398650865706921 0.03340442518652637 0.9919190456350088 -0.07775719713623273 0.0018747953612414244 0.014019937906991069 -0.0016289816391218857 -0.009140140975627419
 0.9919190456350088 -0.07775719713623273 0.00639929073216828 0.033404140743425334 -0.0016274442386415226 -0.009140254256616718 0.001888153840130117 0.014018042852288925
 0.0018747953612414244 0.014019937906991069 -0.0016274442386415226 -0.009140254256616718 0.006399703960057863 0.0334063321365946 0.9919191423758554 -0.07775519660706319
 -0.0016289816391218857 -0.009140140975627419 0.001888153840130117 0.014018042852288925 0.9919191423758554 -0.07775519660706319 0.006398424001617271 0.03340620663056016
0.15631513130469998 0.006674892876365143 0.03473215395570271 0.9915302068136221 -0.08091268499903444 0.001999093164902526 0.014585915815091981 -0.0017341054935396995 -0.00950456153887405
