! Created with skrf 1.8.0 (http://scikit-rf.org).
# GHz S RI R 50.0 
!freq ReS11 ImS11 ReS12 ImS12 ReS13 ImS13
! ReS14 ImS14
! ReS21 ImS21 ReS22 ImS22 ReS23 ImS23
! ReS24 ImS24
! ReS31 ImS31 ReS32 ImS32 ReS33 ImS33
! ReS34 ImS34
! ReS41 ImS41 ReS42 ImS42 ReS43 ImS43
! ReS44 ImS44
!
0.0 0.001696987271465 0.0 0.9983030127221 0.0 6.546253267324e-05 0.0 -6.546253240634e-05 8.016848077550415e-21
 0.9983030127221 0.0 0.001696987271497 0.0 -6.546253240699e-05 8.016848077630018e-21 6.546253267305e-05 0.0
 6.546253267324e-05 0.0 -6.546253240699e-05 8.016848077630018e-21 0.001696987274677 0.0 0.9983030127253 0.0
 -6.546253240634e-05 8.016848077550415e-21 6.546253267305e-05 0.0 0.9983030127253 0.0 0.001696987274674 0.0
0.005 0.0018262490661170958 0.0013924850231250055 0.9981394232244714 -0.0035539731182088084 9.125981802378593e-05 0.000693154491151743 -8.87709916146808e-05 -0.0004399056629402633
 0.9981394232244714 -0.0035539731182088084 0.001826254801827355 0.0013924817253131187 -8.877313988839969e-05 -0.00043990734652429007 9.120210868442746e-05 0.0006931762605555202
 9.125981802378593e-05 0.000693154491151743 -8.877313988839969e-05 -0.00043990734652429007 0.0018262481431239983 0.0013925528814489228 0.9981394235949461 -0.0035539060574967664
 -8.87709916146808e-05 -0.0004399056629402633 9.120210868442746e-05 0.0006931762605555202 0.9981394235949461 -0.0035539060574967664 0.0018262564619086327 0.0013925479858272573
0.006252605252188 0.0018602934045934807 0.0017460422417326428 0.9980960478443379 -0.004443310464134862 9.869757990214332e-05 0.0008667834193341973 -9.540761527109596e-05 -0.0005504359677955924
 0.9980960478443379 -0.004443310464134862 0.0018603023705753869 0.001746038103406048 -9.541095786724555e-05 -0.0005504380439129563 9.860741250038997e-05 0.0008668117355039944
 9.869757990214332e-05 0.0008667834193341973 -9.541095786724555e-05 -0.0005504380439129563 0.0018602918883651853 0.0017461270658459236 0.9980960483505967 -0.004443226641368304
 -9.540761527109596e-05 -0.0005504359677955924 9.860741250038997e-05 0.0008668117355039944 0.9980960483505967 -0.004443226641368304 0.0018603048931673883 0.0017461209187928008
0.01250521050438 0.002040341638660739 0.0035282723998651976 0.9978650566566925 -0.008887232952372374 0.00014170884108527542 0.0017339505625970563 -0.000133362002677493 -0.001103422006963143
 0.9978650566566925 -0.008887232952372374 0.002040377437814384 0.003528263987735117 -0.0001333751720104747 -0.0011034258460783629 0.00014134920513867336 0.0017340191585778814
 0.00014170884108527542 0.0017339505625970563 -0.0001333751720104747 -0.0011034258460783629 0.0020403350110718603 0.0035284418489098944 0.9978650581133751 -0.008887065553229531
 -0.000133362002677493 -0.001103422006963143 0.00014134920513867336 0.0017340191585778814 0.9978650581133751 -0.008887065553229531 0.0020403869509221097 0.003528429278076308
0.01875781575657 0.0022375548754845196 0.005335493995425945 0.9976097307494068 -0.013342543351442155 0.00019460116414040833 0.002602027522272333 -0.00017944772894135325 -0.001658179897472406
 0.9976097307494068 -0.013342543351442155 0.002237635311227735 0.005335481208365521 -0.00017947709170392604 -0.001658185121269069 0.00019379311851118816 0.0026021508297236575
 0.00019460116414040833 0.002602027522272333 -0.00017947709170392604 -0.001658185121269069 0.0022375395434675806 0.0053357480367398095 0.9976097336004154 -0.013342292472365588
 -0.00017944772894135325 -0.001658179897472406 0.00019379311851118816 0.0026021508297236575 0.9976097336004154 -0.013342292472365588 0.002237656274307138 0.005335728719141368
0.02501042100875 0.002452341751562355 0.007165151019042044 0.9973297487119809 -0.017811363104475432 0.0002574805787771442 0.0034710192920122908 -0.0002337824483279692 -0.002214445180698829
 0.9973297487119809 -0.017811363104475432 0.002452484590334469 0.007165133800239958 -0.00023383429287433395 -0.002214451339258621 0.0002560450233200986 0.0034712141474694696
 0.0002574805787771442 0.0034710192920122908 -0.00023383429287433395 -0.002214451339258621 0.0024523141186782956 0.007165489690652666 0.99732975340103 -0.017811028786068647
 -0.0002337824483279692 -0.002214445180698829 0.0002560450233200986 0.0034712141474694696 0.99732975340103 -0.017811028786068647 0.002452521459581767 0.0071654632700998725
0.03126302626094 0.0026850940085683256 0.009015909368213731 0.9970247738530068 -0.022294577754343365 0.0003304531524720607 0.004340853810160653 -0.00029648019102404094 -0.0027720231116723964
 0.9970247738530068 -0.022294577754343365 0.0026853169940297445 0.009015887708516596 -0.00029656074047005297 -0.0027720296827609403 0.0003282106690489534 0.004341139473784218
 0.0003304531524720607 0.004340853810160653 -0.00029656074047005297 -0.0027720296827609403 0.002685050473711294 0.009016332741678396 0.9970247808252622 -0.0222941600185431
 -0.00029648019102404094 -0.0027720231116723964 0.0003282106690489534 0.004341139473784218 0.9970247808252622 -0.0222941600185431 0.0026853742239745723 0.009016298831739824
0.037515631513130004 0.00293619458919723 0.010886884974570027 0.9966944626183606 -0.026792608754427957 0.0004136239731629419 0.005211428084297352 -0.00036765212142093857 -0.003330742552455121
 0.9966944626183606 -0.026792608754427957 0.0029365154527604166 0.010886858914790153 -0.0003677675402165608 -0.0033307489413468626 0.00041039475548080196 0.005211826267075691
 0.0004136239731629419 0.005211428084297352 -0.0003677675402165608 -0.0033307489413468626 0.0029361315445378135 0.01088739314640664 0.9966944723189824 -0.026792107613255664
 -0.00036765212142093857 -0.003330742552455121 0.00041039475548080196 0.005211826267075691 0.9966944723189824 -0.026792107613255664 0.0029365974959605907 0.010887351331830547
0.043768236765320004 0.0032060207440314363 0.012777408897839451 0.9963384680211516 -0.03130564830154376 0.0005070966536522885 0.0060826222295010226 -0.0004474067965241054 -0.003890441953596622
 0.9963384680211516 -0.03130564830154376 0.003206457214791857 0.012777378530592179 -0.0004475631943831137 -0.0038904474930595346 0.0005027004751467176 0.006083157123199907
 0.0005070966536522885 0.0060826222295010226 -0.0004475631943831137 -0.0038904474930595346 0.0032059345758179304 0.012778001998017258 0.9963384808975192 -0.031305063749012645
 -0.0004474067965241054 -0.003890441953596622 0.0005027004751467176 0.006083157123199907 0.9963384808975192 -0.031305063749012645 0.0032065685228729658 0.012777951835562096
0.050020842017509996 0.003494945469555139 0.014686930263567159 0.9959564414071899 -0.03583375632381713 0.0006109730253114713 0.006954305268831733 -0.0005358502413313799 -0.00445096357723237
 0.9959564414071899 -0.03583375632381713 0.0034955152828244616 0.014686895734819166 -0.000536053675625583 -0.004450967527573952 0.0006052292271241121 0.006955003577065184
 0.0006109730253114713 0.006954305268831733 -0.000536053675625583 -0.004450967527573952 0.003494832556740454 0.014687608447524862 0.9959564579084921 -0.03583308834427333
 -0.0005358502413313799 -0.00445096357723237 0.0006052292271241121 0.006955003577065184 0.9959564579084921 -0.03583308834427333 0.003495660305916018 0.014687549466349115
0.055454545454549996 0.003761827210046874 0.016361416058367745 0.995603036264536 -0.03978103920350637 0.0007097713896869275 0.007712113341121289 -0.000619847059322043 -0.004938619859973586
 0.995603036264536 -0.03978103920350637 0.0037625273170447753 0.016361378074074083 -0.0006200962496138611 -0.004938621772369527 0.0007027094167216025 0.007712977322711153
 0.0007097713896869275 0.007712113341121289 -0.0006200962496138611 -0.004938621772369527 0.0037616881084820077 0.01636216832799204 0.9956030562817608 -0.039780298704147773
 -0.000619847059322043 -0.004938619859973586 0.0007027094167216025 0.007712977322711153 0.9956030562817608 -0.039780298704147773 0.003762705251659183 0.016362101279306422
0.056273447269699996 0.003803338226134581 0.016614968623196075 0.9955480335069457 -0.04037690804931939 0.0007253529100112637 0.007826337991548958 -0.0006330859470896194 -0.005012150667542038
 0.9955480335069457 -0.04037690804931939 0.0038040591327422164 0.01661493013351536 -0.0006333424244796492 -0.005012152216673505 0.0007180804016863767 0.007827228961346251
 0.0007253529100112637 0.007826337991548958 -0.0006333424244796492 -0.005012152216673505 0.0038031949399999184 0.016615732071145587 0.9955480540839603 -0.04037615661855304
 -0.0006330859470896194 -0.005012150667542038 0.0007180804016863767 0.007827228961346251 0.9955480540839603 -0.04037615661855304 0.0038042423187825613 0.016615663772848257
0.06252605252188 0.004131565311662342 0.018561087754901374 0.9951128951456442 -0.04493502013871353 0.0008503339365536646 0.008698574525496088 -0.0007392148253978461 -0.00557384591291768
 0.9951128951456442 -0.04493502013871353 0.004132455086383909 0.018561045560375546 -0.0007395303028852742 -0.005573844176432925 0.0008413512043592042 0.008699689979073142
 0.0008503339365536646 0.008698574525496088 -0.0007395303028852742 -0.005573844176432925 0.004131388016461619 0.018561936676484585 0.9951129202527235 -0.04493418521976702
 -0.0007392148253978461 -0.00557384591291768 0.0008413512043592042 0.008699689979073142 0.9951129202527235 -0.04493418521976702 0.004132680881642712 0.0185618585348935
0.06877865777407 0.004479990041377502 0.020524880059612186 0.9946506777668124 -0.04950796622912779 0.0009860113772820528 0.009570863290416884 -0.0008543351407883142 -0.006135890533553667
 0.9946506777668124 -0.04950796622912779 0.004481066491692267 0.020524834472610397 -0.000854715526372839 -0.006135884554830656 0.0009751364987800851 0.009572237656971535
 0.0009860113772820528 0.009570863290416884 -0.000854715526372839 -0.006135884554830656 0.004479775093884983 0.020525814691440068 0.9946507078616029 -0.04950704777527582
 -0.0008543351407883142 -0.006135890533553667 0.0009751364987800851 0.009572237656971535 0.9946507078616029 -0.04950704777527582 0.004481339340191263 0.020525726152075784
0.07503126302626001 0.004848972815535979 0.022505956664633668 0.9941610338473447 -0.05409558677752063 0.0011324780001712356 0.010443047603994013 -0.0009785424270808555 -0.006698123723119832
 0.9941610338473447 -0.05409558677752063 0.004850253790335805 0.02250590805416997 -0.000978993580196184 -0.006698112473407991 0.001119528662804452 0.010444717951392629
 0.0011324780001712356 0.010443047603994013 -0.000978993580196184 -0.006698112473407991 0.004848716563840385 0.022506977267054716 0.9941610693902961 -0.05409458473592612
 -0.0009785424270808555 -0.006698123723119832 0.001119528662804452 0.010444717951392629 0.9941610693902961 -0.05409458473592612 0.004850578132118872 0.02250687774640665
0.08128386827845 0.0052388711134116325 0.024503940843747466 0.9936436172438939 -0.058697695595212894 0.0012898239277422683 0.011314966103805798 -0.0011119293955599355 -0.007260382281511769
 0.9936436172438939 -0.058697695595212894 0.005240374511724705 0.024503889635709757 -0.001112457127254034 -0.007260364660060288 0.0012746174510697471 0.011316972170120312
 0.0012898239277422683 0.011314966103805798 -0.001112457127254034 -0.007260364660060288 0.0052385698980205375 0.02450504770922659 0.9936436586999602 -0.058696609899144006
 -0.0011119293955599355 -0.007260382281511769 0.0012746174510697471 0.011316972170120312 0.9936436586999602 -0.058696609899144006 0.005240754783743812 0.024504936593586966
0.08753647353064001 0.005650039440196908 0.026518463480931845 0.9930980834968348 -0.06331408434715294 0.0014581365024540342 0.012186453046144761 -0.0012545858356821753 -0.007822500378084036
 0.9930980834968348 -0.06331408434715294 0.005651783220314697 0.02651841015790448 -0.001255195908725295 -0.007822475212247505 0.001440489863105508 0.012188837270922398
 0.0014581365024540342 0.012186453046144761 -0.001255195908725295 -0.007822475212247505 0.005649689593345023 0.02651965692583903 0.9930981313351038 -0.0633129149246738
 -0.0012545858356821753 -0.007822500378084036 0.001440489863105508 0.012188837270922398 0.9930981313351038 -0.0633129149246738 0.005652223854799913 0.02651953357002594
0.09378907878283 0.006082829241936517 0.0285491598160538 0.9925240901065974 -0.06794452577766753 0.0016375001554401023 0.013057338532143413 -0.0014065985114767557 -0.008384309395096585
 0.9925240901065974 -0.06794452577766753 0.006084831430383487 0.028549104916941053 -0.0014072966403090032 -0.008384275440468644 0.001617230014582351 0.013060146087346557
 0.0016375001554401023 0.013057338532143413 -0.0014072966403090032 -0.008384275440468644 0.006082427087672578 0.028550440184233895 0.9925241448007128 -0.06794327254871349
 -0.0014065985114767557 -0.008384309395096585 0.001617230014582351 0.013060146087346557 0.9925241448007128 -0.06794327254871349 0.006085336854323137 0.02855030390993682
0.100041684035 0.006537588795891219 0.030595667086002705 0.9919212967887127 -0.07258877604992402 0.0018279962781666318 0.013927448686375826 -0.0015680510545728933 -0.008945637826292787
 0.9919212967887127 -0.07258877604992402 0.0065398674961938165 0.030595611205347505 -0.001568842905091826 -0.008945593766850316 0.0018049190106404266 0.013930727507087213
 0.0018279962781666318 0.013927448686375826 -0.001568842905091826 -0.008945593766850316 0.006537130649857822 0.03059703475275309 0.9919213588178065 -0.07258743892281355
 -0.0015680510545728933 -0.008945637826292787 0.0018049190106404266 0.013930727507087213 0.9919213588178065 -0.07258743892281355 0.006540442130896777 0.030596884846581893
0.1059090909091 0.006984621002756157 0.0325301540194847 0.9913291450106927 -0.07695924112492956 0.002016951267479691 0.014743091376684505 -0.0017282142517734578 -0.009471792568810386
 0.9913291450106927 -0.07695924112492956 0.006987175722092613 0.03253009780713489 -0.0017290991598263488 -0.00947173776649742 0.0019910725768265422 0.01474685851441161
 0.002016951267479691 0.014743091376684505 -0.0017290991598263488 -0.00947173776649742 0.006984106955925053 0.032531603972314055 0.9913292143633352 -0.07695782517893746
 -0.0017282142517734578 -0.009471792568810386 0.0019910725768265422 0.01474685851441161 0.9913292143633352 -0.07695782517893746 0.0069878193188839055 0.032531440592058765
0.1062942892872 0.007014663082292511 0.03265762274263101 0.991289365715697 -0.07724657651768864 0.0020297030954156696 0.014796605804923561 -0.0017390238548253322 -0.009506311214029775
 0.991289365715697 -0.07724657651768864 0.007017236484650281 0.032657566529567666 -0.001739915044209434 -0.009506255662282963 0.0020036348211946915 0.014800406619545545
 0.0020297030954156696 0.014796605804923561 -0.001739915044209434 -0.009506255662282963 0.007014145251584325 0.03265907811060683 0.9912894355640565 -0.07724515539394611
 -0.0017390238548253322 -0.009506311214029775 0.0020036348211946915 0.014800406619545545 0.9912894355640565 -0.07724515539394611 0.007017884744597513 0.032658913821866455
0.11254689453939999 0.007514393644460358 0.03473466310386844 0.9906279617492468 -0.08191765507376252 0.002242695540479876 0.015664628482828045 -0.00191959394901775 -0.010066152114937315
 0.9906279617492468 -0.08191765507376252 0.007517280034828532 0.03473460726079565 -0.001920590045389514 -0.010066083612093447 0.0022134521573940746 0.015669004842884866
 0.002242695540479876 0.015664628482828045 -0.001920590045389514 -0.010066083612093447 0.007513812427770465 0.034736206606072365 0.9906280399072738 -0.08191614984564219
 -0.00191959394901775 -0.010066152114937315 0.0022134521573940746 0.015669004842884866 0.9906280399072738 -0.08191614984564219 0.007518006326994505 0.03473602714422057
0.11879949979160001 0.008037118437189378 0.036826422306599264 0.9899367526650842 -0.08660172720613561 0.002467045131188151 0.016531331725483628 -0.0021098349083510767 -0.010624980089809414
 0.9899367526650842 -0.08660172720613561 0.008040336206861955 0.03682636758754611 -0.0021109414304733877 -0.010624897105924696 0.0024344423492110466 0.016536340035008354
 0.002467045131188151 0.016531331725483628 -0.0021109414304733877 -0.010624897105924696 0.008036470124700558 0.03682805440671462 0.9899368396295578 -0.08660013775706504
 -0.0021098349083510767 -0.010624980089809414 0.0024344423492110466 0.016536340035008354 0.9899368396295578 -0.08660013775706504 0.008041144929928998 0.036827858938455055
0.1250521050438 0.008583171667223354 0.03893253148942588 0.9892154093726505 -0.09129849683481889 0.002702819847033872 0.017396527053529058 -0.0023098167251373552 -0.011182611708332778
 0.9892154093726505 -0.09129849683481889 0.008586739322497105 0.03893247869804434 -0.0023110391420816745 -0.011182512642536006 0.002666673224073316 0.01740222659792776
 0.002702819847033872 0.017396527053529058 -0.0023110391420816745 -0.011182512642536006 0.008582452540625191 0.03893425267984607 0.9892155056469873 -0.09129682304197179
 -0.0023098167251373552 -0.011182611708332778 0.002666673224073316 0.01740222659792776 0.9892155056469873 -0.09129682304197179 0.008587634865614474 0.03893404032596216
0.131304710296 0.00915288362747229 0.04105261814446614 0.9884636061313395 -0.09600765698963341 0.0029500840075799006 0.01826002260095643 -0.0025196056989202752 -0.011738860568930165
 0.9884636061313395 -0.09600765698963341 0.009156819798983737 0.04105256813169685 -0.0025209494294426205 -0.011738743749595042 0.00291020898642135 0.018266475575321704
 0.0029500840075799006 0.01826002260095643 -0.0025209494294426205 -0.011738743749595042 0.009152089959765792 0.04105442895050823 0.9884637122258831 -0.09600589872038286
 -0.0025196056989202752 -0.011738860568930165 0.00291020898642135 0.018266475575321704 0.9884637122258831 -0.09600589872038286 0.009157806541186017 0.041054198782303465
0.1375573155481 0.009620887601673208 0.042911703475237956 0.9878067717480299 -0.10045413318689862 0.003179104220303657 0.019095168444613942 -0.0027095240576107114 -0.012267066900783188
 0.9878067717480299 -0.10045413318689862 0.009625213933444315 0.04291165806384797 -0.002710997273301027 -0.012266932065494906 0.0031354159721570176 0.0191023691266683
 0.003179104220303657 0.019095168444613942 -0.002710997273301027 -0.012266932065494906 0.009620016521484738 0.04291360427177243 0.9878068881118909 -0.10045229039513638
 -0.0027095240576107114 -0.012267066900783188 0.0031354159721570176 0.0191023691266683 0.9878068881118909 -0.10045229039513638 0.009626295512349408 0.04291335678216434
0.1438099208003 0.01010552639320794 0.044760128179035276 0.9871265220293332 -0.10488843099795254 0.0034173434145477115 0.019926323113858554 -0.0029069931521236653 -0.01279161126285852
 0.9871265220293332 -0.10488843099795254 0.010110262169347605 0.04476008806535432 -0.0029086016947280718 -0.012791456751215393 0.0033696752038148963 0.01993432866252936
 0.0034173434145477115 0.019926323113858554 -0.0029086016947280718 -0.012791456751215393 0.010104574315196155 0.044762119485117026 0.987126649169793 -0.10488650356271244
 -0.0029069931521236653 -0.01279161126285852 0.0033696752038148963 0.01993432866252936 0.987126649169793 -0.10488650356271244 0.010111442817861771 0.04476185358324844
0.1500625260525 0.010606616061886167 0.04659771107852598 0.9864230454798579 -0.10931041276571703 0.0036647106230315286 0.02075338260214387 -0.0031119246570335338 -0.013312396355046602
 0.9864230454798579 -0.10931041276571703 0.010611780705154783 0.04659767694057446 -0.003113674353007348 -0.013312220439754507 0.003612896749842521 0.020762252283072123
 0.0036647106230315286 0.02075338260214387 -0.003113674353007348 -0.013312220439754507 0.010605579402345099 0.04659979343732303 0.9864231839102721 -0.10930840055986919
 -0.0031119246570335338 -0.013312396355046602 0.003612896749842521 0.020762252283072123 0.9864231839102721 -0.10930840055986919 0.010613064638914534 0.046599507941571215
0.15631513130469998 0.011123971204684084 0.04842427638777537 0.9856965317326424 -0.11371994191736953 0.003921113712171287 0.02157624487184139 -0.0033242290775200565 -0.013829327086042497
 0.9856965317326424 -0.11371994191736953 0.011129584280565501 0.048424248880370266 -0.003326125737808784 -0.013829127973223306 0.0038649895276282533 0.021586040036189028
