! Created with skrf 1.8.0 (http://scikit-rf.org).
# GHz S RI R 50.0 
!freq ReS11 ImS11 ReS12 ImS12 ReS13 ImS13
! ReS14 ImS14
! ReS21 ImS21 ReS22 ImS22 ReS23 ImS23
! ReS24 ImS24
! ReS31 ImS31 ReS32 ImS32 ReS33 ImS33
! ReS34 ImS34
! ReS41 ImS41 ReS42 ImS42 ReS43 ImS43
! ReS44 ImS44
!
0.0 0.002071064401442 0.0 0.9979289355815 0.0 8.086062672854e-05 0.0 -8.086062610815e-05 9.902570694039679e-21
 0.9979289355815 0.0 0.002071064401482 0.0 -8.086062610788e-05 9.902570694006615e-21 8.086062673098e-05 0.0
 8.086062672854e-05 0.0 -8.086062610788e-05 9.902570694006615e-21 0.002071064408541 0.0 0.9979289355886 0.0
 -8.086062610815e-05 9.902570694039679e-21 8.086062673098e-05 0.0 0.9979289355886 0.0 0.002071064408591 0.0
0.005 0.0022303459844290638 0.001690460434101609 0.9977270757190703 -0.004336347982206276 0.00011471711703689686 0.0009024690023871217 -0.00011124412542206299 -0.0005640500101798518
 0.9977270757190703 -0.004336347982206276 0.0022303266576141675 0.001690471708349479 -0.0001112384350331944 -0.0005640456521010966 0.00011484514052864483 0.0009024199422556826
 0.00011471711703689686 0.0009024690023871217 -0.0001112384350331944 -0.0005640456521010966 0.0022303484811432785 0.0016903916374094246 0.9977270753120943 -0.00433641504560277
 -0.00011124412542206299 -0.0005640500101798518 0.00011484514052864483 0.0009024199422556826 0.9977270753120943 -0.00433641504560277 0.002230323354100647 0.001690406382778746
0.006252605252188 0.0022727347303023986 0.002119648520757654 0.9976729268973221 -0.0054213967232507486 0.00012470773924764514 0.001128478969448132 -0.00012010997867070131 -0.0007057562919646324
 0.9976729268973221 -0.0054213967232507486 0.002272704519887035 0.002119662916213297 -0.00012010112409564444 -0.0007057509226553921 0.00012490775645188543 0.001128415200886682
 0.00012470773924764514 0.001128478969448132 -0.00012010112409564444 -0.0007057509226553921 0.0022727387102801 0.0021195625352183035 0.9976729263377603 -0.005421480538728013
 -0.00012010997867070131 -0.0007057562919646324 0.00012490775645188543 0.001128415200886682 0.9976729263377603 -0.005421480538728013 0.002272699431939975 0.002119581281350099
0.01250521050438 0.002499449960397859 0.004282840106948915 0.9973809959901173 -0.010842823112850012 0.0001836812616422084 0.0022569778204006917 -0.00017195467664805577 -0.0014145235012090211
 0.9973809959901173 -0.010842823112850012 0.002499329337144855 0.00428287195174733 -0.000171919784484096 -0.0014145136425256374 0.0001844787059003072 0.0022568233397561276
 0.0001836812616422084 0.0022569778204006917 -0.000171919784484096 -0.0014145136425256374 0.0024994664340284916 0.004282668320049707 0.9973809943288051 -0.010842990508503899
 -0.00017195467664805577 -0.0014145235012090211 0.0001844787059003072 0.0022568233397561276 0.9973809943288051 -0.010842990508503899 0.002499309591066909 0.004282709050202812
0.01875781575657 0.00275182738114407 0.006475779500671347 0.9970526943391027 -0.01627731413043013 0.00025793635568495285 0.00338616016461217 -0.00023657831923845982 -0.0021251615873071473
 0.9970526943391027 -0.01627731413043013 0.0027515563444788496 0.0064758320467069004 -0.00023650051678578788 -0.0021251483395563118 0.0002597272893160432 0.0033858814278204964
 0.00025793635568495285 0.00338616016461217 -0.00023650051678578788 -0.0021251483395563118 0.0027518648356562483 0.006475521882470688 0.9970526910257507 -0.016277565028860935
 -0.00023657831923845982 -0.0021251615873071473 0.0002597272893160432 0.0033858814278204964 0.9970526910257507 -0.016277565028860935 0.002751512390849732 0.006475588227653345
0.02501042100875 0.003030457588692676 0.008695220241822151 0.9966875529947744 -0.021727330904820156 0.0003476282377031621 0.004515966977823312 -0.0003141551568260908 -0.002837239363484208
 0.9966875529947744 -0.021727330904820156 0.0030299762583547506 0.008695296922767952 -0.00031401778044654136 -0.0028372240636164872 0.00035080853446560007 0.004515524013815881
 0.0003476282377031621 0.004515966977823312 -0.00031401778044654136 -0.0028372240636164872 0.0030305245094745534 0.008694876674860472 0.9966875474827618 -0.021727665264090087
 -0.0003141551568260908 -0.002837239363484208 0.00035080853446560007 0.004515524013815881 0.9966875474827618 -0.021727665264090087 0.003029898569223311 0.008694972635208345
0.03126302626094 0.0033359056313558666 0.01093940414304681 0.996285084491257 -0.027193821315874483 0.0004529102252179188 0.00564623100086769 -0.0004048519264895307 -0.003550420372408734
 0.996285084491257 -0.027193821315874483 0.0033351542088057014 0.010939508571166089 -0.0004046384885729779 -0.003550404595667069 0.00045787589601829407 0.005645577375469589
 0.0004529102252179188 0.00564623100086769 -0.0004046384885729779 -0.003550404595667069 0.0033360105013293903 0.010938974415673283 0.9962850762312528 -0.027194239135798538
 -0.0004048519264895307 -0.003550420372408734 0.00045787589601829407 0.005645577375469589 0.9962850762312528 -0.027194239135798538 0.0033350332688832623 0.010939104358446037
0.037515631513130004 0.0036687218360591197 0.013207118641607117 0.9958447943812275 -0.03267716264199489 0.0005739321826791784 0.006776740625650535 -0.000508829008590162 -0.004264399150206405
 0.9958447943812275 -0.03267716264199489 0.0036676405751751625 0.013207254606748512 -0.0005085231812029337 -0.004264384710404533 0.0005810794946279142 0.0067758233836174376
 0.0005739321826791784 0.006776740625650535 -0.0005085231812029337 -0.004264384710404533 0.003668873137759001 0.013206602471363092 0.9958447828206819 -0.03267766394007019
 -0.000508829008590162 -0.004264399150206405 0.0005810794946279142 0.0067758233836174376 0.9958447828206819 -0.03267766394007019 0.003667466881183331 0.013206771132039217
0.043768236765320004 0.004029445925530399 0.015497409947911956 0.9953661860600462 -0.0381774483995584 0.0007108397283044704 0.00790725936947254 -0.0006262407672101037 -0.004978881897586136
 0.9953661860600462 -0.0381774483995584 0.004027975107734841 0.015497581417492095 -0.0006258263730383775 -0.004978870847026126 0.0007205652346442651 0.007906018970094067
 0.0007108397283044704 0.00790725936947254 -0.0006258263730383775 -0.004978870847026126 0.004029652144464326 0.0154968069881559 0.9953661706438826 -0.03817803320312728
 -0.0006262407672101037 -0.004978881897586136 0.0007205652346442651 0.007906018970094067 0.9953661706438826 -0.03817803320312728 0.004027739169495107 0.015497019473031398
0.050020842017509996 0.004418608858288732 0.017809464562809456 0.9948487633163949 -0.04369460681884899 0.0008637737071617828 0.009037533967846215 -0.000757235603719707 -0.0056935785418917775
 0.9948487633163949 -0.04369460681884899 0.004416688769209166 0.01780967568289404 -0.0007566966106412254 -0.005693573171133398 0.0008764742295214603 0.009035904218503204
 0.0008637737071617828 0.009037533967846215 -0.0007566966106412254 -0.005693573171133398 0.00441887848222751 0.017808774382318374 0.9948487434850556 -0.0436952751844491
 -0.000757235603719707 -0.0056935785418917775 0.0008764742295214603 0.009035904218503204 0.9948487434850556 -0.0436952751844491 0.0044163811087695945 0.017809036172364373
0.055454545454549996 0.0047803054874877545 0.01983581511258099 0.994367201300438 -0.04850275043292375 0.0010097988916968617 0.010019372221003232 -0.0008822159282418538 -0.006314619964933612
 0.994367201300438 -0.04850275043292375 0.004777946459631467 0.019836064197392284 -0.0008815557452943882 -0.0063146215751407365 0.0010254072341293744 0.010017345141776124
 0.0010097988916968617 0.010019372221003232 -0.0008815557452943882 -0.0063146215751407365 0.004780637107465258 0.01983504873225427 0.994367177173074 -0.04850349147043012
 -0.0008822159282418538 -0.006314619964933612 0.0010254072341293744 0.010017345141776124 0.994367177173074 -0.04850349147043012 0.0047775687827774005 0.019835358115708628
0.056273447269699996 0.004836733697344332 0.020142551117693006 0.9942920319195143 -0.04922845901058636 0.0010328697822329107 0.010167298381081378 -0.0009019558824099859 -0.006408198899580438
 0.9942920319195143 -0.04922845901058636 0.004834304605014484 0.020142806214825556 -0.0009012764003767722 -0.006408201737147565 0.001048942363422643 0.01016520637048179
 0.0010328697822329107 0.010167298381081378 -0.0009012764003767722 -0.006408201737147565 0.004837075216504982 0.02014177321701467 0.9942920071072232 -0.04922921100613281
 -0.0009019558824099859 -0.006408198899580438 0.001048942363422643 0.01016520637048179 0.9942920071072232 -0.04922921100613281 0.004833915756624326 0.0201420901725981
0.06252605252188 0.005284335999238965 0.022495988448241248 0.9936955007312637 -0.05477875091507608 0.0012182580849014887 0.011296276047271129 -0.001060537791165727 -0.007122450608675092
 0.9936955007312637 -0.05477875091507608 0.005281338132349348 0.022496292032450547 -0.001059702070427418 -0.007122464420723361 0.0012380999222385595 0.011293642079327305
 0.0012182580849014887 0.011296276047271129 -0.001059702070427418 -0.007122464420723361 0.005284757908601794 0.02249512225700637 0.9936954703675298 -0.05477958662138729
 -0.001060537791165727 -0.007122450608675092 0.0012380999222385595 0.011293642079327305 0.9936954703675298 -0.05477958662138729 0.005280858645602505 0.022495500623689803
0.06877865777407 0.005761923941960577 0.02486912659363645 0.9930586825650771 -0.06034517234570526 0.0014200628991077751 0.01242418126584862 -0.0012331111656828492 -0.007836037948403473
 0.9930586825650771 -0.06034517234570526 0.00575829746875095 0.024869483362063242 -0.0012321035960815283 -0.007836065738319384 0.0014440712634164348 0.01242091879463398
 0.0014200628991077751 0.01242418126584862 -0.0012321035960815283 -0.007836065738319384 0.0057624347396734036 0.024868171465438425 0.9930586460720328 -0.06034609186008207
 -0.0012331111656828492 -0.007836037948403473 0.0014440712634164348 0.01242091879463398 0.9930586460720328 -0.06034609186008207 0.005757717907708433 0.024868617880811773
0.07503126302626001 0.006269998292292527 0.027261334771120655 0.9923810948891388 -0.06592736907735809 0.0016384023665703465 0.013550720119324157 -0.0014197992914714223 -0.008548661139147186
 0.9923810948891388 -0.06592736907735809 0.0062656832990951065 0.02726174961295148 -0.001418604402377058 -0.00854870614715646 0.0016669745101673416 0.013546735685607686
 0.0016384023665703465 0.013550720119324157 -0.001418604402377058 -0.00854870614715646 0.006270606481102614 0.027260289982715517 0.9923810516816614 -0.06592837251292741
 -0.0014197992914714223 -0.008548661139147186 0.0016669745101673416 0.013546735685607686 0.9923810516816614 -0.06592837251292741 0.006264994245028706 0.027260811484098195
0.08128386827845 0.006809052276011562 0.029671993418207265 0.9916622604380849 -0.07152495088926923 0.0018733882053295027 0.014675591132934485 -0.001620718692349753 -0.00926001592367924
 0.9916622604380849 -0.07152495088926923 0.006803988746921015 0.029672471420283533 -0.001619321153244409 -0.009260081626361327 0.0019069212615218792 0.014670784302449277
 0.0018733882053295027 0.014675591132934485 -0.001619321153244409 -0.009260081626361327 0.006809766363198901 0.0296708581685878 0.9916622099228322 -0.07152603837437772
 -0.001620718692349753 -0.00926001592367924 0.0019069212615218792 0.014670784302449277 0.9916622099228322 -0.07152603837437772 0.0068031807988351 0.029671462201817562
0.08753647353064001 0.007379571382400936 0.032100488719331736 0.9909017077622337 -0.07713749714616487 0.002125125437928645 0.015798485775407437 -0.001835978910741734 -0.009969793326801141
 0.9909017077622337 -0.07713749714616487 0.007373699177485086 0.0321010351731225 -0.001834363532010804 -0.009969883436612079 0.002164016313237136 0.015792749079261405
 0.002125125437928645 0.015798485775407437 -0.001834363532010804 -0.009969883436612079 0.007380399879030705 0.03209926213288334 0.9909016493366142 -0.07713866881965473
 -0.001835978910741734 -0.009969793326801141 0.002164016313237136 0.015792749079261405 0.9909016493366142 -0.07713866881965473 0.007372762953992022 0.03209995656210684
0.09378907878283 0.00798203312229328 0.03454620873261514 0.99009897173593 -0.0827645608028867 0.002393712127347026 0.016919088863914227 -0.002065682282137519 -0.010677679530923382
 0.99009897173593 -0.0827645608028867 0.007975291957183004 0.034546829141901304 -0.002063834016361247 -0.010677797995618795 0.002438357387627214 0.016912307741064392
 0.002393712127347026 0.016919088863914227 -0.002063834016361247 -0.010677797995618795 0.007982984544338025 0.03454488985121523 0.9900989047878914 -0.08276581682033876
 -0.002065682282137519 -0.010677679530923382 0.002438357387627214 0.016912307741064392 0.9900989047878914 -0.08276581682033876 0.007974218098673862 0.03454568296970962
0.100041684035 0.008616906755810852 0.03700854058043713 0.9892535940362468 -0.08840567136928602 0.0026792391186285184 0.018037078906764228 -0.0023099237072596885 -0.011383355833978039
 0.9892535940362468 -0.08840567136928602 0.008609236180274798 0.03700924067034309 -0.002307827650697498 -0.011383506836042629 0.002730034869608914 0.0180291316489899
 0.0026792391186285184 0.018037078906764228 -0.002307827650697498 -0.011383506836042629 0.00861798962354136 0.037007128364835835 0.9892535179430141 -0.08840701189991047
 -0.0023099237072596885 -0.011383355833978039 0.002730034869608914 0.0180291316489899 0.9892535179430141 -0.08840701189991047 0.008608015350085915 0.03700802890702987
0.1059090909091 0.009242557100994047 0.03933373756273994 0.9884211126953562 -0.09371159310862477 0.0029626573034762147 0.0190835257942523 -0.0025524183928039993 -0.012043260146381608
 0.9884211126953562 -0.09371159310862477 0.009233959227533584 0.039334517837312295 -0.002550076385525724 -0.012043445693740905 0.0030195843728721998 0.019074367137352343
 0.0029626573034762147 0.0190835257942523 -0.002550076385525724 -0.012043445693740905 0.009243771069244972 0.03933223674474359 0.9884210274441153 -0.093713013111203
 -0.0025524183928039993 -0.012043260146381608 0.0030195843728721998 0.019074367137352343 0.9884210274441153 -0.093713013111203 0.00923259201094254 0.03933324644084675
0.1062942892872 0.009284652995397864 0.03948686838453395 0.9883651236001458 -0.09406033715517216 0.0029817897859508832 0.01915212840789476 -0.0025687904225180306 -0.012086498666160728
 0.9883651236001458 -0.09406033715517216 0.009275992372548572 0.039487654111504275 -0.0025664318167729562 -0.012086686622127233 0.003039131549465928 0.01914288610721591
 0.0029817897859508832 0.01915212840789476 -0.0025664318167729562 -0.012086686622127233 0.009285875833058082 0.03948536171259389 0.9883650377278393 -0.09406176238193253
 -0.0025687904225180306 -0.012086498666160728 0.003039131549465928 0.01914288610721591 0.9883650377278393 -0.09406176238193253 0.00927461525923571 0.03948637886697614
0.11254689453939999 0.009985723692908994 0.04198057171088411 0.9874331170666406 -0.09972804703092247 0.003301439785039707 0.020263904147607707 -0.0028423617705577967 -0.012786779650922887
 0.9874331170666406 -0.09972804703092247 0.009976012178049784 0.04198144927387232 -0.0028397260044120596 -0.01278700921071333 0.0033657223704367093 0.020253230646460254
 0.003301439785039707 0.020263904147607707 -0.0028397260044120596 -0.01278700921071333 0.009987095028792903 0.04197896937852834 0.9874330207689895 -0.09972955714760079
 -0.0028423617705577967 -0.012786779650922887 0.0033657223704367093 0.020253230646460254 0.9874330207689895 -0.09972955714760079 0.009974469497252936 0.04198011280186756
0.11879949979160001 0.010720561513905484 0.04448902441555902 0.9864571392056544 -0.1054082718121155 0.003638256809787307 0.02137206744772508 -0.0031307089720428545 -0.013483865702413009
 0.9864571392056544 -0.1054082718121155 0.010709738033933078 0.04449000026833533 -0.003127781583559025 -0.013484141748495517 0.0037098741819319696 0.021359819291848277
 0.003638256809787307 0.02137206744772508 -0.003127781583559025 -0.013484141748495517 0.010722089879721666 0.04448732512879143 0.9864570318232097 -0.10540986702960388
 -0.0031307089720428545 -0.013483865702413009 0.0037098741819319696 0.021359819291848277 0.9864570318232097 -0.10540986702960388 0.010708020530233814 0.04448860496134799
0.1250521050438 0.011489599602222731 0.047011593748286645 0.9854367633363652 -0.1111004654128407 0.0039923003544205925 0.022476274431117202 -0.0034338948994001575 -0.01417741914923421
 0.9854367633363652 -0.1111004654128407 0.01147760283462194 0.047012674612923626 -0.0034306615779607073 -0.01417774679591353 0.004071645497768994 0.022462300825440127
 0.0039923003544205925 0.022476274431117202 -0.0034306615779607073 -0.01417774679591353 0.011491293533101651 0.0470097961280829 0.9854366441963064 -0.11110214595224883
 -0.0034338948994001575 -0.01417741914923421 0.004071645497768994 0.022462300825440127 0.9854366441963064 -0.11110214595224883 0.01147570128396142 0.047011223010074314
0.131304710296 0.012293261238799185 0.049547639692708645 0.9843715717386868 -0.11680406578805808 0.004363621480625095 0.02357617627500254 -0.00375197385312341 -0.014867097885350325
 0.9843715717386868 -0.11680406578805808 0.012280029591207504 0.04954883257427933 -0.003748420441757402 -0.014867482477788822 0.004451086259810911 0.023560319042540096
 0.004363621480625095 0.02357617627500254 -0.003748420441757402 -0.014867482477788822 0.012295129272983063 0.04954574227203517 0.9843714401535802 -0.11680583188175125
 -0.00375197385312341 -0.014867097885350325 0.004451086259810911 0.023560319042540096 0.9843714401535802 -0.11680583188175125 0.01227793480295428 0.04954732736126258
0.1375573155481 0.01296844098343146 0.051767269792182706 0.983424789788177 -0.12218895253059708 0.004711052990793267 0.024641217598572237 -0.0040437035107539964 -0.015522478351444498
 0.983424789788177 -0.12218895253059708 0.01295390666512154 0.051768553083954706 -0.0040398086605552145 -0.015522921412231458 0.004806841423129817 0.024623473489447722
 0.004711052990793267 0.024641217598572237 -0.0040398086605552145 -0.015522921412231458 0.012970490862778855 0.051765271058316575 0.9834246451786678 -0.12219080427307716
 -0.0040437035107539964 -0.015522478351444498 0.004806841423129817 0.024623473489447722 0.9834246451786678 -0.12219080427307716 0.012951610049871805 0.05176699674810078
0.1438099208003 0.013667851043610865 0.05397103033316603 0.982443620100199 -0.12755595308889783 0.005072293447275094 0.02569941560810637 -0.004346851325881871 -0.016171485334004365
 0.982443620100199 -0.12755595308889783 0.013651951189895123 0.05397240947247497 -0.004342599808572747 -0.01617199223176409 0.005176762079143796 0.025679637300025267
 0.005072293447275094 0.02569941560810637 -0.004342599808572747 -0.01617199223176409 0.013670091171466808 0.053968928776269694 0.9824434617815335 -0.12755789069649262
 -0.004346851325881871 -0.016171485334004365 0.005176762079143796 0.025679637300025267 0.9824434617815335 -0.12755789069649262 0.013649443704470392 0.053970804770144924
0.1500625260525 0.014391171604944075 0.056158614864912776 0.9814283886299684 -0.1329048090338623 0.005447168700878603 0.026750583438744025 -0.0046612457782172515 -0.016813942381809863
 0.9814283886299684 -0.1329048090338623 0.014373843073728394 0.05616009567924681 -0.004656622427565795 -0.01681451870117813 0.005560670885484144 0.026728618248042593
 0.005447168700878603 0.026750583438744025 -0.004656622427565795 -0.01681451870117813 0.014393610379724036 0.056156408908768926 0.9814282159056644 -0.13290683272953263
 -0.0046612457782172515 -0.016813942381809863 0.005560670885484144 0.026728618248042593 0.9814282159056644 -0.13290683272953263 0.014371115711724088 0.05615844547809446
0.15631513130469998 0.015138079716683493 0.058329726370218105 0.9803794239512035 -0.1382352660616733 0.0058355020805367416 0.02779453871778299 -0.004986712807141915 -0.017449677921912994
 0.9803794239512035 -0.1382352660616733 0.015119259083013467 0.05833131509220046 -0.004981702520192693 -0.01745032946227113 0.005958387915345057 0.02777022867474967
