! Created with skrf 1.8.0 (http://scikit-rf.org).
# GHz S RI R 50.0 
!freq ReS11 ImS11 ReS12 ImS12 ReS13 ImS13
! ReS14 ImS14
! ReS21 ImS21 ReS22 ImS22 ReS23 ImS23
! ReS24 ImS24
! ReS31 ImS31 ReS32 ImS32 ReS33 ImS33
! ReS34 ImS34
! ReS41 ImS41 ReS42 ImS42 ReS43 ImS43
! ReS44 ImS44
!
0.0 0.001597848619893 0.0 0.9984021513801 0.0 6.201413874138e-05 0.0 -6.201413901862e-05 7.594541685103197e-21
 0.9984021513801 0.0 0.001597848619903 0.0 -6.201413901933e-05 7.594541685190147e-21 6.201413874148e-05 0.0
 6.201413874138e-05 0.0 -6.201413901933e-05 7.594541685190147e-21 0.001597848598776 0.0 0.998402151359 0.0
 -6.201413901862e-05 7.594541685103197e-21 6.201413874148e-05 0.0 0.998402151359 0.0 0.001597848598746 0.0
0.005 0.0017193884646439718 0.0013016315083331225 0.9982483511611695 -0.0033471633614041455 8.777559720891498e-05 0.0007159487370676815 -8.506947255940604e-05 -0.0004436441847225606
 0.9982483511611695 -0.0033471633614041455 0.0017193802795936954 0.001301636289701832 -8.507279304846749e-05 -0.00044364675104698503 8.782174518450897e-05 0.000715931267747067
 8.777559720891498e-05 0.0007159487370676815 -8.507279304846749e-05 -0.00044364675104698503 0.0017193863187850483 0.0013015655213167116 0.9982483507943091 -0.0033472304222074306
 -8.506947255940604e-05 -0.0004436441847225606 8.782174518450897e-05 0.000715931267747067 0.9982483507943091 -0.0033472304222074306 0.0017193816921923942 0.0013015681536769875
0.006252605252188 0.0017513169627432776 0.0016321776443173465 0.998207685281629 -0.004184767156896493 9.515589190873494e-05 0.000895264793006814 -9.160721250900211e-05 -0.0005551331089673887
 0.998207685281629 -0.004184767156896493 0.0017513041676196933 0.0016321836728484024 -9.161237933310719e-05 -0.0005551362733429958 9.522799494882292e-05 0.0008952420897247342
 9.515589190873494e-05 0.000895264793006814 -9.161237933310719e-05 -0.0005551362733429958 0.0017513136811616538 0.0016320951788472654 0.9982076847812625 -0.004184850968476458
 -9.160721250900211e-05 -0.0005551331089673887 9.522799494882292e-05 0.0008952420897247342 0.9982076847812625 -0.004184850968476458 0.00175130644934653 0.001632098512478813
0.01250521050438 0.0019196995143021638 0.0032986685242537717 0.997991772391616 -0.008370310207229288 0.0001375881429542116 0.0017907729565850498 -0.00012885374079817558 -0.0011129534206805564
 0.997991772391616 -0.008370310207229288 0.0019196484174134822 0.0032986811082979487 -0.00012887410131183158 -0.0011129592709819105 0.0001378757095263679 0.0017907181904943024
 0.0001375881429542116 0.0017907729565850498 -0.00012887410131183158 -0.0011129592709819105 0.0019196869995143015 0.0032985038867586894 0.9979917709878523 -0.008370477588158941
 -0.00012885374079817558 -0.0011129534206805564 0.0001378757095263679 0.0017907181904943024 0.9979917709878523 -0.008370477588158941 0.0019196581281871446 0.0032985109642275864
0.01875781575657 0.002103375149490789 0.004988932192203989 0.9977541364039546 -0.01256680883890322 0.00018941106928245985 0.0026871526477749296 -0.0001738717350110647 -0.0016726045032325412
 0.9977541364039546 -0.01256680883890322 0.002103260321265213 0.004988951924794626 -0.0001739171375253718 -0.0016726124663083697 0.00019005714338032542 0.002687054597492798
 0.00018941106928245985 0.0026871526477749296 -0.0001739171375253718 -0.0016726124663083697 0.0021033474417316666 0.0049886855865597405 0.9977541336739219 -0.012567059677446615
 -0.0001738717350110647 -0.0016726045032325412 0.00019005714338032542 0.002687054597492798 0.9977541336739219 -0.012567059677446615 0.002103282576547491 0.004988696788703857
0.02501042100875 0.0023027108940084045 0.006700576936259225 0.997494489811521 -0.016776282115798846 0.0002507259563356997 0.0035844411233771534 -0.0002267749180704288 -0.0022338140877874615
 0.997494489811521 -0.016776282115798846 0.0023025069468380613 0.0067006044654862006 -0.0002268550924372878 -0.002233823485862601 0.0002518736900175964 0.003584286761146736
 0.0002507259563356997 0.0035844411233771534 -0.0002268550924372878 -0.002233823485862601 0.0023026620462434236 0.006700248569148902 0.9974944853404718 -0.0167766163359837
 -0.0002267749180704288 -0.0022338140877874615 0.0002518736900175964 0.003584286761146736 0.9974944853404718 -0.0167766163359837 0.0023025468653020153 0.006700264241459316
0.03126302626094 0.002518058577595362 0.00843236395662382 0.9972125308832214 -0.020999584269746893 0.0003216343716961605 0.004482588944345663 -0.0002876735256913471 -0.0027963899209061706
 0.9972125308832214 -0.020999584269746893 0.0025177401500164464 0.00843239998355586 -0.0002877981033039607 -0.0027963999703634135 0.0003234271579198779 0.004482363423016555
 0.0003216343716961605 0.004482588944345663 -0.0002877981033039607 -0.0027963999703634135 0.002517982646319533 0.008431954057406625 0.9972125242581958 -0.021000001811784068
 -0.0002876735256913471 -0.0027963899209061706 0.0003234271579198779 0.004482363423016555 0.9972125242581958 -0.021000001811784068 0.0025178028495979263 0.00843197450773004
0.037515631513130004 0.002749762264846267 0.010183479459050728 0.9969079513623768 -0.025237132545934744 0.0004022371757280586 0.005381512371892331 -0.00035667514782213554 -0.00336016738362449
 0.9969079513623768 -0.025237132545934744 0.0027493040116856626 0.010183524736984426 -0.00035685367189324056 -0.0033601771946714636 0.0004048187094828021 0.005381199004778328
 0.0004022371757280586 0.005381512371892331 -0.00035685367189324056 -0.0033601771946714636 0.0027496533074547994 0.010182988298832085 0.9969079421705639 -0.025237633347782108
 -0.00035667514782213554 -0.00336016738362449 0.0004048187094828021 0.005381199004778328 0.9969079421705639 -0.025237633347782108 0.0027493946086791926 0.010183013795541321
0.043768236765320004 0.0029981611177613853 0.011953313186585894 0.9965804395957646 -0.029489128601026548 0.0004926340492651916 0.006281109308660471 -0.0004338850283797374 -0.003924993562172795
 0.9965804395957646 -0.029489128601026548 0.0029975377016680117 0.011953368520718183 -0.0004341269599875576 -0.003925002138727096 0.0004961483575960266 0.006280689547123751
 0.0004926340492651916 0.006281109308660471 -0.0004341269599875576 -0.003925002138727096 0.0029980131938960107 0.01195274106976296 0.9965804274264912 -0.02948971260761466
 -0.0004338850283797374 -0.003924993562172795 0.0004961483575960266 0.006280689547123751 0.9965804274264912 -0.02948971260761466 0.0029976613129301614 0.011952771840343821
0.050020842017509996 0.003263590727326788 0.01374136686552399 0.9962296821343392 -0.03375564998583622 0.0005929232075084694 0.007181265880893044 -0.0005194061681528798 -0.004490720679506166
 0.9962296821343392 -0.03375564998583622 0.00326277681165602 0.013741433113000025 -0.0005197208900751113 -0.004490726919180861 0.0005975146634934796 0.007180719290934585
 0.0005929232075084694 0.007181265880893044 -0.0005197208900751113 -0.004490726919180861 0.0032633978972778197 0.013740714131860633 0.9962296665775444 -0.03375631714773325
 -0.0005194061681528798 -0.004490720679506166 0.0005975146634934796 0.007180719290934585 0.9962296665775444 -0.03375631714773325 0.0032629385535548777 0.013740750361562476
0.055454545454549996 0.003508346610863616 0.015309700426300055 0.9959057408340822 -0.03747518287057757 0.0006881862940173553 0.007963888816339288 -0.0006005547131474987 -0.004982973064464117
 0.9959057408340822 -0.03747518287057757 0.0035073465643540185 0.01530977689437792 -0.0006009402531763461 -0.004982976295485774 0.0006938313444312483 0.007963213931481238
 0.0006881862940173553 0.007963888816339288 -0.0006009402531763461 -0.004982976295485774 0.0035081099328882707 0.015308977946838864 0.995905722001479 -0.037475922252549254
 -0.0006005547131474987 -0.004982973064464117 0.0006938313444312483 0.007963213931481238 0.995905722001479 -0.037475922252549254 0.0035075455976197748 0.015309019037515654
0.056273447269699996 0.0035463837863417653 0.015547209272795718 0.995855364679139 -0.03803669500857365 0.0007032011925513453 0.008081859675314183 -0.000613339343454125 -0.005057202875807375
 0.995855364679139 -0.03803669500857365 0.003545354028360598 0.015547287342905523 -0.0006137361627556727 -0.005057205569917086 0.0007090145193215381 0.008081163913665533
 0.0007032011925513453 0.008081859675314183 -0.0006137361627556727 -0.005057205569917086 0.0035461401112721045 0.015546476308249563 0.995855345326124 -0.03803744527200533
 -0.000613339343454125 -0.005057202875807375 0.0007090145193215381 0.008081163913665533 0.995855345326124 -0.03803744527200533 0.0035455590167835643 0.015546518139023155
0.06252605252188 0.003846870445878723 0.017370451541812902 0.9954571727153178 -0.04233220736351863 0.0008235627064136487 0.008982761521342445 -0.0007157830803155641 -0.0056242944481697905
 0.9954571727153178 -0.04233220736351863 0.003845599490310671 0.017370542396422953 -0.0007162712300186484 -0.005624292281773177 0.0008307429747045262 0.008981892311353618
 0.0008235627064136487 0.008982761521342445 -0.0007162712300186484 -0.005624292281773177 0.0038465699870623795 0.017369638776551982 0.9954571491577758 -0.04233304067316302
 -0.0007157830803155641 -0.0056242944481697905 0.0008307429747045262 0.008981892311353618 0.9954571491577758 -0.04233304067316302 0.0038458528399726924 0.017369686306073794
0.06877865777407 0.004165378492813786 0.019210732440953494 0.9950347919707929 -0.04664209079166546 0.0009541004658932608 0.009883836561171358 -0.0008268336038362395 -0.0061918488075565275
 0.9950347919707929 -0.04664209079166546 0.004163840965616978 0.019210837095236057 -0.0008274222440761246 -0.006191840359514424 0.0009627930869312673 0.009882767668578358
 0.0009541004658932608 0.009883836561171358 -0.0008274222440761246 -0.006191840359514424 0.0041650153124708315 0.019209840344636846 0.9950347638016597 -0.04664300709624401
 -0.0008268336038362395 -0.0061918488075565275 0.0009627930869312673 0.009882767668578358 0.9950347638016597 -0.04664300709624401 0.004164147790457055 0.0192098936256291
0.07503126302626001 0.004502233428374457 0.021067709034412057 0.9945879087802316 -0.05096621836470316 0.0010949050708904907 0.0107849449318156 -0.0009465847715988127 -0.006759717829251942
 0.9945879087802316 -0.05096621836470316 0.004500403930653903 0.02106782855760573 -0.0009472829904027776 -0.006759701572288778 0.0011052557858508944 0.010783648140508629
 0.0010949050708904907 0.0107849449318156 -0.0009472829904027776 -0.006759701572288778 0.004501801589808328 0.02106673812437828 0.9945878755935791 -0.05096721760964435
 -0.0009465847715988127 -0.006759717829251942 0.0011052557858508944 0.010783648140508629 0.9945878755935791 -0.05096721760964435 0.004500769343056798 0.021066797164018772
0.08128386827845 0.0048577584778445254 0.022941050480729513 0.9941162103845829 -0.05530443863711419 0.0012460648802667714 0.011685942228651673 -0.0010751279974455306 -0.007327751427589969
 0.9941162103845829 -0.05530443863711419 0.004855611579867805 0.022941185997205186 -0.0010759448111272345 -0.007327725728376034 0.0012582197472486806 0.011684387316478912
 0.0012460648802667714 0.011685942228651673 -0.0010759448111272345 -0.007327725728376034 0.004857252045341445 0.022940001320719085 0.9941161717753522 -0.055305520766675144
 -0.0010751279974455306 -0.007327751427589969 0.0012582197472486806 0.011684387316478912 0.9941161717753522 -0.055305520766675144 0.004856040690214047 0.022940066080232736
0.08753647353064001 0.005232274558516745 0.024830433744078534 0.9936193851918681 -0.059656579891961 0.0014076658933243069 0.012586679832976264 -0.0012125521680806386 -0.007895797272575415
 0.9936193851918681 -0.059656579891961 0.00522978479351285 0.024830586434540232 -0.0012134965214560436 -0.007895760391814938 0.0014217712718368276 0.01258483454770496
 0.0014076658933243069 0.012586679832976264 -0.0012134965214560436 -0.007895760391814938 0.00523168759795954 0.024829306944561085 0.9936193407560564 -0.05965774484973479
 -0.0012125521680806386 -0.007895797272575415 0.0014217712718368276 0.01258483454770496 0.9936193407560564 -0.05965774484973479 0.005230282709903859 0.024829377339090377
0.09378907878283 0.005626100217764252 0.026735540527562197 0.993097123012709 -0.06402245317142267 0.0015797916344666289 0.013487005155755892 -0.0013589435547933478 -0.008463700596587671
 0.993097123012709 -0.06402245317142267 0.005623242075913871 0.026735711630482276 -0.0013600243211605912 -0.008463650689124134 0.0015959941683088422 0.01348483519110013
 0.0015797916344666289 0.013487005155755892 -0.0013600243211605912 -0.008463650689124134 0.005625426796190777 0.0267343367465877 0.993097072347076 -0.06402370090043609
 -0.0013589435547933478 -0.008463700596587671 0.0015959941683088422 0.01348483519110013 0.993097072347076 -0.06402370090043609 0.005623813903124672 0.026734412645157305
0.100041684035 0.00603955154832283 0.02865605503685541 0.9925491152760982 -0.06840185448388562 0.0017625230403279439 0.014386761824936742 -0.001514385721518889 -0.009031304063810986
 0.9925491152760982 -0.06840185448388562 0.006036299470818803 0.02865624585006473 -0.0015156117026214478 -0.009031239178733037 0.0017809696388206171 0.01438423079680867
 0.0017625230403279439 0.014386761824936742 -0.0015156117026214478 -0.009031239178733037 0.006038785735508407 0.02865477498183531 0.9925490579787485 -0.06840318492558516
 -0.001514385721518889 -0.009031304063810986 0.0017809696388206171 0.01438423079680867 0.9925490579787485 -0.06840318492558516 0.006036950310263806 0.028654856207663074
0.1059090909091 0.0064456604347020415 0.030471986782170498 0.9920111795652543 -0.07252356826449968 0.0019437125483569642 0.01523042836044815 -0.0016685552726639075 -0.009563524516331775
 0.9920111795652543 -0.07252356826449968 0.006442015395816521 0.030472197326272543 -0.0016699254634226978 -0.00956344370793534 0.0019643987948511827 0.015227523550050836
 0.0019437125483569642 0.01523042836044815 -0.0016699254634226978 -0.00956344370793534 0.006444802531018972 0.030470635841765716 0.992011115679993 -0.0725249762670496
 -0.0016685552726639075 -0.009563524516331775 0.0019643987948511827 0.015227523550050836 0.992011115679993 -0.0725249762670496 0.006442745015926794 0.030470721865366698
0.1062942892872 0.006472942088680787 0.030591662295312714 0.9919750552339152 -0.07279456646692088 0.0019559383488198055 0.015285789835642372 -0.0016789594300658653 -0.009598447683234024
 0.9919750552339152 -0.07279456646692088 0.006469270461410416 0.030591874177881274 -0.001680339355725934 -0.009598365764015914 0.0019767761667693748 0.015282859258612221
 0.0019559383488198055 0.015285789835642372 -0.001680339355725934 -0.009598365764015914 0.006472077956498902 0.030590306726704992 0.9919749909037358 -0.07279597955838192
 -0.0016789594300658653 -0.009598447683234024 0.0019767761667693748 0.015282859258612221 0.9919749909037358 -0.07279597955838192 0.006470005410369773 0.03059039305754213
0.11254689453939999 0.006926582711201495 0.032542046868231485 0.991374638156261 -0.07720035964853017 0.0021601129890218874 0.016183925677343076 -0.0018527425435898661 -0.01016496875142124
 0.991374638156261 -0.07720035964853017 0.006922465858694948 0.03254228124247189 -0.0018542850714367033 -0.010164867636063443 0.0021834894053587204 0.0161805549413143
 0.0021601129890218874 0.016183925677343076 -0.0018542850714367033 -0.010164867636063443 0.006925614334623166 0.03254061659281152 0.9913745663935126 -0.07720185533011774
 -0.0018527425435898661 -0.01016496875142124 0.0021834894053587204 0.0161805549413143 0.9913745663935126 -0.07720185533011774 0.006923290009775666 0.03254070776168818
0.11879949979160001 0.007400781500059742 0.034506891861521206 0.9907475615198367 -0.08161899344182386 0.0023751194723763223 0.01708100244210266 -0.0020358099283473174 -0.010730701820866209
 0.9907475615198367 -0.08161899344182386 0.007396193679331183 0.03450715021525848 -0.0020375236433229343 -0.0107305792420512 0.002401182067680701 0.017077148789251952
 0.0023751194723763223 0.01708100244210266 -0.0020375236433229343 -0.0107305792420512 0.0073997029573891525 0.03450538774046268 0.9907474819255101 -0.08162057164979622
 -0.0020358099283473174 -0.010730701820866209 0.002401182067680701 0.017077148789251952 0.9907474819255101 -0.08162057164979622 0.007397112119543181 0.03450548343658231
0.1250521050438 0.007895843622427524 0.036485878148132846 0.9900935251920155 -0.08605021691962557 0.002601027284490936 0.01797684992219854 -0.002228233354325996 -0.011295478685912748
 0.9900935251920155 -0.08605021691962557 0.007890759016802681 0.036486162037206886 -0.002230126768263947 -0.011295332271190723 0.0026299238176041057 0.017972468424155102
 0.002601027284490936 0.01797684992219854 -0.002230126768263947 -0.011295332271190723 0.007894648995937809 0.03648430109425202 0.9900934373684862 -0.08605187758997628
 -0.002228233354325996 -0.011295478685912748 0.0026299238176041057 0.017972468424155102 0.9900934373684862 -0.08605187758997628 0.007891776827185148 0.0364844009640524
0.131304710296 0.008412071192994277 0.038478683740463246 0.9894122316113256 -0.09049376945152879 0.00283790277800051 0.01887129469989778 -0.0024300813949775387 -0.011859128383531115
 0.9894122316113256 -0.09049376945152879 0.008406463905643244 0.03847899479145228 -0.0024321629459729596 -0.011858955655505026 0.002869781161551534 0.018866338235284472
 0.00283790277800051 0.01887129469989778 -0.0024321629459729596 -0.011858955655505026 0.008410754569623247 0.03847703472039479 0.9894121351623077 -0.09049551251848816
 -0.0024300813949775387 -0.011859128383531115 0.002869781161551534 0.018866338235284472 0.9894121351623077 -0.09049551251848816 0.008407586160665604 0.03847713836904396
0.1375573155481 0.008833580712794331 0.040224036767233275 0.9888196180836107 -0.0946883009819916 0.003056440082367287 0.01973792169879749 -0.002612013745127299 -0.012395284202130727
 0.9888196180836107 -0.0946883009819916 0.00882742362300247 0.04022437245655147 -0.0026142959997699296 -0.012395084894360657 0.003091371061785997 0.01973239618273507
 0.003056440082367287 0.01973792169879749 -0.0026142959997699296 -0.012395084894360657 0.00883213682124792 0.04022231666378988 0.9888195126233099 -0.09469012635178865
 -0.002612013745127299 -0.012395284202130727 0.003091371061785997 0.01973239618273507 0.9888195126233099 -0.09469012635178865 0.008828654728662495 0.040222419645297006
0.1438099208003 0.009269977242880955 0.04195976289201221 0.98820604456264 -0.09887178389111143 0.003283795469226946 0.020600863538071834 -0.002801219230702166 -0.012928045843783941
 0.98820604456264 -0.09887178389111143 0.009263244172837314 0.041960124713712764 -0.002803711264478282 -0.012927817511674416 0.0033219132422077718 0.020594725775936056
 0.003283795469226946 0.020600863538071834 -0.002803711264478282 -0.012927817511674416 0.009268400289921302 0.04195797267982656 0.9882059296993662 -0.09887369148791922
 -0.002801219230702166 -0.012928045843783941 0.0033219132422077718 0.020594725775936056 0.9882059296993662 -0.09887369148791922 0.00926458907297169 0.041958074421505995
0.1500625260525 0.009721101225834623 0.043685704705226105 0.9875716751160212 -0.10304410191407193 0.003519886884017399 0.02146002598162405 -0.0029976176205981785 -0.013457323553013253
 0.9875716751160212 -0.10304410191407193 0.009713765918117522 0.04368609424725711 -0.003000328487971418 -0.013457063653504556 0.00356132490579553 0.021453231182293427
 0.003519886884017399 0.02146002598162405 -0.003000328487971418 -0.013457063653504556 0.009719385429187126 0.0436838453972307 0.9875715504598321 -0.10304609165958699
 -0.0029976176205981785 -0.013457323553013253 0.00356132490579553 0.021453231182293427 0.9875715504598321 -0.10304609165958699 0.009715229541897477 0.043683945337057
0.15631513130469998 0.010186791894484442 0.04540170952307909 0.9869166747347619 -0.1072051394596666 0.0037646312565118305 0.022315316470765713 -0.0032011276516965468 -0.013983029543270865
 0.9869166747347619 -0.1072051394596666 0.010178828009784932 0.045402128470153146 -0.0032040663856960417 -0.013982735435319667 0.003809522230214375 0.022307818261234246
