! Created with skrf 1.8.0 (http://scikit-rf.org).
# GHz S RI R 50.0 
!freq ReS11 ImS11 ReS12 ImS12 ReS13 ImS13
! ReS14 ImS14
! ReS21 ImS21 ReS22 ImS22 ReS23 ImS23
! ReS24 ImS24
! ReS31 ImS31 ReS32 ImS32 ReS33 ImS33
! ReS34 ImS34
! ReS41 ImS41 ReS42 ImS42 ReS43 ImS43
! ReS44 ImS44
!
0.0 0.001377150720454 0.0 0.998622849254 0.0 5.2989018729e-05 0.0 -5.298901881773e-05 6.489283228509191e-21
 0.998622849254 0.0 0.001377150720463 0.0 -5.298901881816e-05 6.489283228561851e-21 5.29890187293e-05 0.0
 5.2989018729e-05 0.0 -5.298901881816e-05 6.489283228561851e-21 0.001377150733256 0.0 0.9986228492668 0.0
 -5.298901881773e-05 6.489283228509191e-21 5.29890187293e-05 0.0 0.9986228492668 0.0 0.001377150733241 0.0
0.005 0.0014813041025418976 0.0011241412017293935 0.9984911518130306 -0.0028854794241239268 7.436886646744389e-05 0.0006005916497576974 -7.220132492686678e-05 -0.0003741303393847659
 0.9984911518130306 -0.0028854794241239268 0.0014812961148445015 0.0011241459172031164 -7.220292451577281e-05 -0.0003741316021675648 7.440487143268118e-05 0.0006005778353037141
 7.436886646744389e-05 0.0006005916497576974 -7.220292451577281e-05 -0.0003741316021675648 0.0014813034529462276 0.001124208872078938 0.9984911521534169 -0.00288541236573284
 -7.220132492686678e-05 -0.0003741303393847659 7.440487143268118e-05 0.0006005778353037141 0.9984911521534169 -0.00288541236573284 0.0014812974414526523 0.0011242123606772776
0.006252605252188 0.001508494804997713 0.0014096294247742363 0.9984565752354128 -0.0036075761946088446 8.039537791119911e-05 0.0007510316014094103 -7.75675968381146e-05 -0.00046815806330878924
 0.9984565752354128 -0.0036075761946088446 0.0015084823185599488 0.001409635437637009 -7.757008568192506e-05 -0.00046815962136057595 8.045163143522268e-05 0.0007510136906381664
 8.039537791119911e-05 0.0007510316014094103 -7.757008568192506e-05 -0.00046815962136057595 0.0015084937231825558 0.0014097140161921148 0.9984565757015779 -0.003607492370984174
 -7.75675968381146e-05 -0.00046815806330878924 8.045163143522268e-05 0.0007510136906381664 0.9984565757015779 -0.003607492370984174 0.0015084843267010708 0.0014097184867492534
0.01250521050438 0.001650901335798541 0.0028490794391764942 0.9982743944639834 -0.007216094824305512 0.00011452557010090418 0.0015024268127799975 -0.0001077034605807529 -0.0009386844403254939
 0.9982743944639834 -0.007216094824305512 0.0016508514730236218 0.0028490926712227624 -0.00010771326615280741 -0.0009386873346731567 0.00011474986485637663 0.001502384092944605
 0.00011452557010090418 0.0015024268127799975 -0.00010771326615280741 -0.0009386873346731567 0.001650896438807386 0.0028492483920956467 0.9982743957553681 -0.007215927433398451
 -0.0001077034605807529 -0.0009386844403254939 0.00011474986485637663 0.001502384092944605 0.9982743957553681 -0.007215927433398451 0.0016508589257528425 0.0028492584362753643
0.01875781575657 0.0018046551577081465 0.004309303775792707 0.9980760991172302 -0.010834368564766316 0.000155454860144553 0.0022547256458814125 -0.0001434841586737238 -0.0014108956956156479
 0.9980760991172302 -0.010834368564766316 0.0018045431051366028 0.0043093255396338594 -0.0001435060220343074 -0.0014108996670474687 0.0001559586421714087 0.0022546499575775755
 0.000155454860144553 0.0022547256458814125 -0.0001435060220343074 -0.0014108996670474687 0.0018046437153177595 0.00430955704828609 0.9980761015954609 -0.010834117674569163
 -0.0001434841586737238 -0.0014108956956156479 0.0001559586421714087 0.0022546499575775755 0.9980761015954609 -0.010834117674569163 0.0018045594358136103 0.004309573825337382
0.02501042100875 0.001970034108488791 0.005788280329193783 0.9978614739128422 -0.014464178255148145 0.00020325938955809692 0.0030079825030017316 -0.00018499475463087386 -0.0018845897057018846
 0.9978614739128422 -0.014464178255148145 0.001969835099714356 0.005788312036988054 -0.00018503335955058627 -0.001884594452631025 0.00020415411018223962 0.003007864481712298
 0.00020325938955809692 0.0030079825030017316 -0.00018503335955058627 -0.001884594452631025 0.0019700133884856755 0.005788617900129273 0.9978614779413777 -0.014463843911001013
 -0.00018499475463087386 -0.0018845897057018846 0.00020415411018223962 0.003007864481712298 0.9978614779413777 -0.014463843911001013 0.0019698637407704655 0.005788642621433801
0.03126302626094 0.0021473044097541447 0.007284981910380997 0.9976302916831558 -0.018106302107851552 0.000258015886052514 0.003762181056946841 -0.00023231814096389412 -0.002359630811552985
 0.9976302916831558 -0.018106302107851552 0.002146993714183882 0.007285025073255211 -0.00023237812384918602 -0.0023596359894099517 0.0002594131111425327 0.0037620101282786434
 0.000258015886052514 0.003762181056946841 -0.00023237812384918602 -0.0023596359894099517 0.0021472716744630723 0.007285403777764305 0.9976302976252047 -0.01810588433405308
 -0.00023231814096389412 -0.002359630811552985 0.0002594131111425327 0.0037620101282786434 0.9976302976252047 -0.01810588433405308 0.0021470380961973903 0.00728543770597313
0.037515631513130004 0.0023367266835484075 0.00879874892997591 0.9973823195413682 -0.02176114296979468 0.0003198009563437556 0.004517277360574222 -0.00028553567446165185 -0.0028359067059109564
 0.9973823195413682 -0.02176114296979468 0.002336279599511803 0.008798805158064337 -0.0002856216295093372 -0.0028359119269497006 0.0003218124168432636 0.004517041729211588
 0.0003198009563437556 0.004517277360574222 -0.0002856216295093372 -0.0028359119269497006 0.002336679188839443 0.00879925511290278 0.9973823277604528 -0.021760641767656547
 -0.00028553567446165185 -0.0028359067059109564 0.0003218124168432636 0.004517041729211588 0.9973823277604528 -0.021760641767656547 0.002336343151215894 0.008799299561570975
0.043768236765320004 0.0025385582754250866 0.010329098522437142 0.9971173213548558 -0.02542891913568592 0.00038869076098169576 0.0052732129463545635 -0.00034472741018285217 -0.003313315326822933
 0.9971173213548558 -0.02542891913568592 0.0025379501253143585 0.01032916952513598 -0.0003448438924699487 -0.003313320160060201 0.0003914283783157919 0.005272899583119667
 0.00038869076098169576 0.0052732129463545635 -0.0003448438924699487 -0.003313320160060201 0.002538493272218905 0.010329689051037356 0.9971173322167612 -0.025428334493756675
 -0.00034472741018285217 -0.003313315326822933 0.0003914283783157919 0.005272899583119667 0.9971173322167612 -0.025428334493756675 0.002538036275499136 0.010329745384227816
0.050020842017509996 0.0027530543450441946 0.011875645636411145 0.9968350589868932 -0.029109743193284524 0.00046476082160070147 0.006029920242298765 -0.00040997219504230776 -0.0037917594349025302
 0.9968350589868932 -0.029109743193284524 0.0027522604715861554 0.011875733222837343 -0.00041012372259789187 -0.0037917634061046864 0.00046833672002261057 0.006029514870387628
 0.00046476082160070147 0.006029920242298765 -0.00041012372259789187 -0.0037917634061046864 0.002752969078011848 0.011876320549966048 0.9968350728590492 -0.029109075089350466
 -0.00040997219504230776 -0.0037917594349025302 0.00046833672002261057 0.006029514870387628 0.9968350728590492 -0.029109075089350466 0.0027523726476069805 0.011876390182041566
0.055454545454549996 0.0029499399794906383 0.013232542100759841 0.9965755578851558 -0.03231912393531607 0.0005367573304568198 0.006688091174373258 -0.00047164805720471007 -0.004208308942021729
 0.9965755578851558 -0.03231912393531607 0.0029489646951368167 0.013232645645946598 -0.0004718336815824686 -0.004208311745359491 0.0005411529398476511 0.006687593270022923
 0.0005367573304568198 0.006688091174373258 -0.0004718336815824686 -0.004208311745359491 0.0029498348598947094 0.01323329038900619 0.99657557467334 -0.03231838327153198
 -0.00047164805720471007 -0.004208308942021729 0.0005411529398476511 0.006687593270022923 0.99657557467334 -0.03231838327153198 0.0029491022709151153 0.013233372765728208
0.056273447269699996 0.00298046843062929 0.013438064315110982 0.996535293014571 -0.032803660678810506 0.0005480858877105478 0.006787325221349276 -0.0004813476977952081 -0.004271143958435283
 0.996535293014571 -0.032803660678810506 0.0029794641932336828 0.013438170394554349 -0.0004815387529326545 -0.004271146550115613 0.0005526123984295061 0.006786812302195883
 0.0005480858877105478 0.006787325221349276 -0.0004815387529326545 -0.004271146550115613 0.0029803601378219674 0.013438823664448958 0.9965353102664212 -0.032802909077710565
 -0.0004813476977952081 -0.004271143958435283 0.0005526123984295061 0.006786812302195883 0.9965353102664212 -0.032802909077710565 0.0029796058210954848 0.013438908059825814
0.06252605252188 0.00322105276152469 0.015016066405150862 0.9962177831979532 -0.03651067130503231 0.0006387398314007649 0.0075453488604818085 -0.0005589304078127223 -0.004751374530656562
 0.9962177831979532 -0.03651067130503231 0.0032198135335105727 0.015016192987761476 -0.0005591654381790079 -0.004751375182092717 0.0006443294916937715 0.007544711579476148
 0.0006387398314007649 0.0075453488604818085 -0.0005591654381790079 -0.004751375182092717 0.003220918674459985 0.015016910248608259 0.996217804201224 -0.036509836162882676
 -0.0005589304078127223 -0.004751374530656562 0.0006443294916937715 0.007544711579476148 0.996217804201224 -0.036509836162882676 0.0032199880372767637 0.01501701092172124
0.06877865777407 0.0034750584291254193 0.016609388859724853 0.9958822888098757 -0.04023074159714992 0.0007367955594481489 0.008303908006314347 -0.000642795614399328 -0.0052323566228143405
 0.9958822888098757 -0.04023074159714992 0.003473559595114161 0.016609538057130245 -0.0006430790336856702 -0.0052323547300613575 0.0007435611080042078 0.008303128258454098
 0.0007367955594481489 0.008303908006314347 -0.0006430790336856702 -0.0052323547300613575 0.003474895772755351 0.01661031726914228 0.9958823139392675 -0.040229822855542864
 -0.000642795614399328 -0.0052323566228143405 0.0007435611080042078 0.008303128258454098 0.9958823139392675 -0.040229822855542864 0.0034737703966003356 0.016610435784356017
0.07503126302626001 0.0037427354795052975 0.018217785696632995 0.9955285688900847 -0.04396381287577931 0.0008423249341007136 0.009062915925015671 -0.0007330173755479919 -0.0057139949953793545
 0.9955285688900847 -0.04396381287577931 0.0037409524322772965 0.018217959722793633 -0.0007333535639379688 -0.005713989911303797 0.0008503793034966958 0.009061974300592924
 0.0008423249341007136 0.009062915925015671 -0.0007333535639379688 -0.005713989911303797 0.0037425414717461203 0.018218798749695873 0.9955285985233642 -0.04396281046968721
 -0.0007330173755479919 -0.0057139949953793545 0.0008503793034966958 0.009061974300592924 0.9955285985233642 -0.04396281046968721 0.0037412029507056534 0.018218936721398963
0.08128386827845 0.00402433295082047 0.019841022635995825 0.9951563824474962 -0.04770980656322969 0.0009553986994034964 0.009822282672706344 -0.0008296684791471793 -0.006196193331451218
 0.9951563824474962 -0.04770980656322969 0.004022241089371265 0.019841223807988587 -0.0008300617837763151 -0.006196184365755365 0.0009648550067649528 0.009821158443040793
 0.0009553986994034964 0.009822282672706344 -0.0008300617837763151 -0.006196184365755365 0.004024104802923004 0.01984212042095493 0.995156416965934 -0.04770872041647768
 -0.0008296684791471793 -0.006196193331451218 0.0009648550067649528 0.009821158443040793 0.995156416965934 -0.04770872041647768 0.004022534740666087 0.019842279513654998
0.08753647353064001 0.00432009888078716 0.02147887339452061 0.9947654886345981 -0.051468627835745975 0.00107608641194537 0.010581915346481726 -0.0009328203986813852 -0.006678853992300607
 0.9947654886345981 -0.051468627835745975 0.0043176736076670766 0.021479104133515427 -0.0009332751338426294 -0.006678840411546896 0.0010870579476332622 0.010580586449797567
 0.00107608641194537 0.010581915346481726 -0.0009332751338426294 -0.006678840411546896 0.0043198337967215285 0.021480056008192774 0.9947655284231361 -0.05146745786337239
 -0.0009328203986813852 -0.006678853992300607 0.0010870579476332622 0.010580586449797567 0.9947655284231361 -0.05146745786337239 0.0043180138037247785 0.021480237936776024
0.09378907878283 0.004630280287886333 0.023131117041755245 0.9943556468983303 -0.05524016821708243 0.0012044563731592253 0.011341718270708775 -0.0010425432457237438 -0.00716187784056828
 0.9943556468983303 -0.05524016821708243 0.004627497006771471 0.02313137987402302 -0.0010430636930400582 -0.007161858868222686 0.001217056588165088 0.011340161298086545
 0.0012044563731592253 0.011341718270708775 -0.0010430636930400582 -0.007161858868222686 0.004629975464663339 0.023132384592175675 0.9943556923461742 -0.05523891432281598
 -0.0010425432457237438 -0.00716187784056828 0.001217056588165088 0.011340161298086545 0.9943556923461742 -0.05523891432281598 0.004627887155173345 0.023132591122151807
0.100041684035 0.004955123136711583 0.024797536053073777 0.99392661711825 -0.05902430747834418 0.001340575563789744 0.012101593134134923 -0.0011589057190537584 -0.007645164115624352
 0.99392661711825 -0.05902430747834418 0.004951957250212873 0.024797833611092772 -0.0011594961275934897 -0.007645138932093992 0.0013549180559404514 0.012099783315690749
 0.001340575563789744 0.012101593134134923 -0.0011594961275934897 -0.007645138932093992 0.0049547757640349506 0.024798888656813844 0.9939266686188807 -0.05902296955764519
 -0.0011589057190537584 -0.007645164115624352 0.0013549180559404514 0.012099783315690749 0.9939266686188807 -0.05902296955764519 0.004952400753281898 0.024799121604771306
0.1059090909091 0.005273506254347638 0.026373993831487738 0.9935063534542941 -0.06258666318422887 0.001475415275358848 0.012814630732702928 -0.0012741981360523138 -0.008098824439618272
 0.9935063534542941 -0.06258666318422887 0.0052699589590398475 0.026374326465832737 -0.001274858031284116 -0.008098792643815335 0.0014914961435433347 0.012812559892971552
 0.001475415275358848 0.012814630732702928 -0.001274858031284116 -0.008098792643815335 0.0052731163911626106 0.026375426363372714 0.9935064109971514 -0.06258524631040316
 -0.0012741981360523138 -0.008098824439618272 0.0014914961435433347 0.012812559892971552 0.9935064109971514 -0.06258524631040316 0.0052704556191105175 0.026375685799864972
0.1062942892872 0.005294872291316229 0.026477914849994448 0.9934781597342432 -0.0628209150539406 0.001484509578870461 0.012861439096502928 -0.0012819750521477187 -0.008128610342592407
 0.9934781597342432 -0.0628209150539406 0.0052912991984612814 0.026478249873674458 -0.0012826396384504246 -0.008128578085265799 0.0015007080779834716 0.01285935028769002
 0.001484509578870461 0.012861439096502928 -0.0012826396384504246 -0.008128578085265799 0.005294479551611855 0.026479352633639527 0.9934782176859415 -0.06281949299275696
 -0.0012819750521477187 -0.008128610342592407 0.0015007080779834716 0.01285935028769002 0.9934782176859415 -0.06281949299275696 0.005291799452774477 0.02647961386768917
0.11254689453939999 0.005649771458484461 0.028172038681397078 0.9930100358677132 -0.0666298511201765 0.0016363225637481358 0.013621152872197088 -0.0014118169585175266 -0.00861211226744418
 0.9930100358677132 -0.0666298511201765 0.005645766552595845 0.028172414019333715 -0.001412559906600401 -0.008612072030736263 0.0016544909158521008 0.013618757540326386
 0.0016363225637481358 0.013621152872197088 -0.001412559906600401 -0.008612072030736263 0.0056493305270004105 0.028173561783288708 0.9930101006742197 -0.06662834479356125
 -0.0014118169585175266 -0.00861211226744418 0.0016544909158521008 0.013618757540326386 0.9930101006742197 -0.06662834479356125 0.005646326948386137 0.028173853223668166
0.11879949979160001 0.006020063124200423 0.029879692750184397 0.9925220074377703 -0.07045096743199875 0.0017960771503583827 0.01438062879942705 -0.0015484955758708167 -0.009095563809905095
 0.9925220074377703 -0.07045096743199875 0.006015601790579241 0.0298801113610528 -0.0015493210371785844 -0.009095514645317288 0.0018163293010678375 0.014377898010415809
 0.0017960771503583827 0.01438062879942705 -0.0015493210371785844 -0.009095514645317288 0.006019571168733082 0.029881301318590577 0.9925220795081249 -0.07044937670619839
 -0.0015484955758708167 -0.009095563809905095 0.0018163293010678375 0.014377898010415809 0.9925220795081249 -0.07044937670619839 0.00601622571079036 0.02988162493834696
0.1250521050438 0.00640598848349147 0.03160066152619854 0.992013837273128 -0.07428410797719268 0.0019638343936997623 0.015139758899952071 -0.0016920734091296198 -0.009578857029126281
 0.992013837273128 -0.07428410797719268 0.006401046097095494 0.031601126480263184 -0.0016929855024755422 -0.009578797945291033 0.0019862843708838415 0.015136662305262245
 0.0019638343936997623 0.015139758899952071 -0.0016929855024755422 -0.009578797945291033 0.006405442664335305 0.0316023557205741 0.992013917022292 -0.07428243270879566
 -0.0016920734091296198 -0.009578857029126281 0.0019862843708838415 0.015136662305262245 0.992013917022292 -0.07428243270879566 0.006401736916632141 0.03160271354637607
0.131304710296 0.00680778736606544 0.033334728191336135 0.9914852892225641 -0.07812910950241737 0.0021396537086370696 0.015898432928855333 -0.0018426112724664763 -0.010061882102744016
 0.9914852892225641 -0.07812910950241737 0.0068023392892557705 0.0333352426720075 -0.0018436140838633912 -0.0100618120654971 0.00216441560435108 0.015894938752712195
 0.0021396537086370696 0.015898432928855333 -0.0018436140838633912 -0.0100618120654971 0.006807184836011078 0.03333650818181299 0.9914853770714324 -0.07812734953912037
 -0.0018426112724664763 -0.010061882102744016 0.00216441560435108 0.015894938752712195 0.9914853770714324 -0.07812734953912037 0.006803100374507057 0.03333690229479345
0.1375573155481 0.007129712710111353 0.03485455786095269 0.9910321449911293 -0.08175859573090564 0.0023001422503069703 0.01663314366466536 -0.0019766926954003718 -0.010521164238707343
 0.9910321449911293 -0.08175859573090564 0.00712373337110808 0.03485511372918854 -0.0019777923438080445 -0.010521083258980754 0.0023272771586633043 0.01662925902383304
 0.0023001422503069703 0.01663314366466536 -0.0019777923438080445 -0.010521083258980754 0.0071290513460313615 0.034856423729029494 0.9910322413080349 -0.08175675100025741
 -0.0019766926954003718 -0.010521164238707343 0.0023272771586633043 0.01662925902383304 0.9910322413080349 -0.08175675100025741 0.0071245674585772275 0.034856845193856956
0.1438099208003 0.007462828158313172 0.03636701588819414 0.9905633195440355 -0.08537954161157862 0.0024671165888280762 0.017365340234649782 -0.002116156275919252 -0.010978128146265833
 0.9905633195440355 -0.08537954161157862 0.007456292777578774 0.03636761553129475 -0.0021173571666189997 -0.01097803521426127 0.0024967290991588847 0.017361036228109077
 0.0024671165888280762 0.017365340234649782 -0.0021173571666189997 -0.01097803521426127 0.00746210523377644 0.03636896779053812 0.9905634247479248 -0.08537761196650175
 -0.002116156275919252 -0.010978128146265833 0.0024967290991588847 0.017361036228109077 0.9905634247479248 -0.08537761196650175 0.007457203107674109 0.03636941789481831
0.1500625260525 0.0078070252411530025 0.03787199511142263 0.9900789248667538 -0.08899187709319009 0.0026405246503290332 0.018094962839495864 -0.002260951028338932 -0.011432715948994504
 0.9900789248667538 -0.08899187709319009 0.007799909024420916 0.03787264103288169 -0.00226225755972882 -0.011432610014347033 0.0026727187966860927 0.018090209515585765
 0.0026405246503290332 0.018094962839495864 -0.00226225755972882 -0.011432610014347033 0.0078062380311017115 0.037874033210064925 0.9900790393817818 -0.08898986238142026
 -0.002260951028338932 -0.011432715948994504 0.0026727187966860927 0.018090209515585765 0.9900790393817818 -0.08898986238142026 0.007800898821631387 0.03787451331472328
0.15631513130469998 0.008162194820807898 0.03936939169899732 0.9895790734030474 -0.09259553198522052 0.002820313809364676 0.018821952592328443 -0.00241102539539412 -0.0118848709235109
