! Created with skrf 1.8.0 (http://scikit-rf.org).
# GHz S RI R 50.0 
!freq ReS11 ImS11 ReS12 ImS12 ReS13 ImS13
! ReS14 ImS14
! ReS21 ImS21 ReS22 ImS22 ReS23 ImS23
! ReS24 ImS24
! ReS31 ImS31 ReS32 ImS32 ReS33 ImS33
! ReS34 ImS34
! ReS41 ImS41 ReS42 ImS42 ReS43 ImS43
! ReS44 ImS44
!
0.0 0.001172256030424 0.0 0.9988277439259 0.0 4.456600785211e-05 0.0 -4.456600782355e-05 5.457761883188641e-21
 0.9988277439259 0.0 0.001172256030392 0.0 -4.456600782321e-05 5.457761883147003e-21 4.456600785021e-05 0.0
 4.456600785211e-05 0.0 -4.456600782321e-05 5.457761883147003e-21 0.001172256049954 0.0 0.9988277439454 0.0
 -4.456600782355e-05 5.457761883188641e-21 4.456600785021e-05 0.0 0.9988277439454 0.0 0.001172256049943 0.0
0.005 0.001260402082234024 0.0009599776778375951 0.9987163517442492 -0.0024566517642860106 6.190837200386156e-05 0.0004884240121074488 -6.020661786331033e-05 -0.00030718100767473597
 0.9987163517442492 -0.0024566517642860106 0.0012604147016457828 0.0009599702962998855 -6.02051102980547e-05 -0.0003071798238479962 6.184593886030828e-05 0.000488447883976953
 6.190837200386156e-05 0.0004884240121074488 -6.02051102980547e-05 -0.0003071798238479962 0.0012604033093268935 0.0009600441808499809 0.9987163520690073 -0.002456584702239047
 -6.020661786331033e-05 -0.00030718100767473597 6.184593886030828e-05 0.000488447883976953 0.9987163520690073 -0.002456584702239047 0.0012604141206957846 0.0009600379145682081
0.006252605252188 0.0012832753829268607 0.0012037809257335462 0.9986873016396421 -0.003071452947856921 6.673188369825903e-05 0.000610782812781738 -6.451098829413986e-05 -0.0003843867349121911
 0.9986873016396421 -0.003071452947856921 0.0012832951091757093 0.0012037715146444908 -6.450864255997163e-05 -0.00038438527402079927 6.663433751917385e-05 0.0006108137529122318
 6.673188369825903e-05 0.000610782812781738 -6.450864255997163e-05 -0.00038438527402079927 0.0012832772304514288 0.0012038640453583998 0.9986873020763372 -0.003071369124577669
 -6.451098829413986e-05 -0.0003843867349121911 6.663433751917385e-05 0.0006108137529122318 0.9986873020763372 -0.003071369124577669 0.0012832941297067487 0.0012038560352500968
0.01250521050438 0.0014022605595645856 0.0024331249082161005 0.9985353645302525 -0.006143909575752598 9.370071858949593e-05 0.001222002261178974 -8.833449855886905e-05 -0.0007707856785896252
 0.9985353645302525 -0.006143909575752598 0.0014023393271173597 0.00243310422300128 -8.832525574897838e-05 -0.0007707829598731991 9.331174057561644e-05 0.0012220758398521574
 9.370071858949593e-05 0.001222002261178974 -8.832525574897838e-05 -0.0007707829598731991 0.0014022673755828842 0.0024332908381751723 0.9985353657092491 -0.006143742174347419
 -8.833449855886905e-05 -0.0007707856785896252 9.331174057561644e-05 0.0012220758398521574 0.9985353657092491 -0.006143742174347419 0.0014023348451001243 0.002433273036357835
0.01875781575657 0.0015294201674945298 0.0036803589673526866 0.9983717806525528 -0.009224897190149314 0.00012552636409484096 0.0018340943638319343 -0.0001160986311844602 -0.001158673910795469
 0.9983717806525528 -0.009224897190149314 0.0015295971638879116 0.0036803250075176106 -0.00011607802072938918 -0.0011586701668453686 0.00012465259379438825 0.0018342241636493876
 0.00012552636409484096 0.0018340943638319343 -0.00011607802072938918 -0.0011586701668453686 0.0015294350710679798 0.0036806075126591883 0.9983717828830468 -0.009224646297943803
 -0.0001160986311844602 -0.001158673910795469 0.00012465259379438825 0.0018342241636493876 0.9983717828830468 -0.009224646297943803 0.001529586660863653 0.0036805780399581474
0.02501042100875 0.0016649591723321578 0.004943789087915275 0.9981963935830653 -0.012315959373921905 0.00016226364933460616 0.002447114880728814 -0.0001478642334602494 -0.001547906244834052
 0.9981963935830653 -0.012315959373921905 0.0016652735048867816 0.004943739726214697 -0.00014782783788627328 -0.0015479017424388992 0.00016071164626269097 0.002447316272147352
 0.00016226364933460616 0.002447114880728814 -0.00014782783788627328 -0.0015479017424388992 0.0016649852782978235 0.004944120062082145 0.9981963971722086 -0.012315625027274181
 -0.0001478642334602494 -0.001547906244834052 0.00016071164626269097 0.002447316272147352 0.9981963971722086 -0.012315625027274181 0.0016652544570837354 0.004944076950078826
0.03126302626094 0.0018090736575995228 0.006222568928488489 0.9980090372503265 -0.015417787254261591 0.0002039681576112841 0.0030610644970399965 -0.00018369086288229876 -0.0019383899907249279
 0.9980090372503265 -0.015417787254261591 0.0018095643710183094 0.006222501912435867 -0.0001836343083987056 -0.0019383850315051524 0.00020154420534028192 0.0030613546449507934
 0.0002039681576112841 0.0030610644970399965 -0.0001836343083987056 -0.0019383850315051524 0.0018091140806418397 0.00622298211514419 0.9980090425063495 -0.01541736947682947
 -0.00018369086288229876 -0.0019383899907249279 0.00020154420534028192 0.0030613546449507934 0.9980090425063495 -0.01541736947682947 0.0018095342511920544 0.006222923307584795
0.037515631513130004 0.001961955619637434 0.007516165922316565 0.9978095408047483 -0.018530753360126908 0.0002506956714144503 0.0036759226110718727 -0.00022363723612856096 -0.002330051151973306
 0.9978095408047483 -0.018530753360126908 0.0019626617066337373 0.007516078874575397 -0.00022355618774722993 -0.0023300460725728294 0.00024720568276435326 0.0036763204918314474
 0.0002506956714144503 0.0036759226110718727 -0.00022355618774722993 -0.0023300460725728294 0.0019620134738887987 0.007516661085069422 0.9978095480367061 -0.01853025215262446
 -0.00022363723612856096 -0.002330051151973306 0.00024720568276435326 0.0036763204918314474 0.9978095480367061 -0.01853025215262446 0.0019626179825164665 0.007516584438673967
0.043768236765320004 0.0021237948333368752 0.00882419882206005 0.997597730561497 -0.021655074030349518 0.0003025019279120864 0.004291657596893076 -0.00026776139733841075 -0.00272282414958985
 0.997597730561497 -0.021655074030349518 0.002124755242217175 0.008824089240572014 -0.00026765155591844527 -0.0027228193217710282 0.0002977513929754762 0.00429218401860885
 0.0003025019279120864 0.004291657596893076 -0.00026765155591844527 -0.0027228193217710282 0.0021238732335766434 0.008824775689482933 0.9975977400805006 -0.021654489385168403
 -0.00026776139733841075 -0.00272282414958985 0.0002977513929754762 0.00429218401860885 0.9975977400805006 -0.021654489385168403 0.002124695377063249 0.008824678974494723
0.050020842017509996 0.0022947797254100626 0.010146370545015111 0.9973734309528443 -0.02479087651959718 0.0003594424770891129 0.004908231054851948 -0.0003161207933886161 -0.003116647559022628
 0.9973734309528443 -0.02479087651959718 0.0022960333662235466 0.010146235802869009 -0.00031597789369953956 -0.0031166433896947384 0.00035323643399890066 0.004908908679050613
 0.0003594424770891129 0.004908231054851948 -0.00031597789369953956 -0.0031166433896947384 0.0022948817850872547 0.010147028816919302 0.9973734430702738 -0.024790208414086634
 -0.0003161207933886161 -0.003116647559022628 0.00035323643399890066 0.004908908679050613 0.9973734430702738 -0.024790208414086634 0.0022959548162899807 0.010146909717579013
0.055454545454549996 0.0024509438583303466 0.011306668420864849 0.9971682275366369 -0.02752536477916751 0.00041313814854180154 0.005444699626212726 -0.0003616302903554519 -0.0034596989811371054
 0.9971682275366369 -0.02752536477916751 0.002452483900348009 0.011306509582874555 -0.0003614552234400233 -0.00345969574183461 0.0004055085289560546 0.005445528510150843
 0.00041313814854180154 0.005444699626212726 -0.0003614552234400233 -0.00345969574183461 0.0024510690080265024 0.011307397164290927 0.9971682421672851 -0.027524624118976177
 -0.0003616302903554519 -0.0034596989811371054 0.0004055085289560546 0.005445528510150843 0.9971682421672851 -0.027524624118976177 0.0024523870432157607 0.011307256665046624
0.056273447269699996 0.0024750978366585522 0.011482435229417899 0.997136465071683 -0.02793823189245752 0.00042157259134114824 0.005525599871831567 -0.00036877230164535985 -0.0035114620381112844
 0.997136465071683 -0.02793823189245752 0.0024766835862357417 0.01148227257467701 -0.00036859211099958837 -0.003511458969355602 0.00041371561057263487 0.005526453235813157
 0.00042157259134114824 0.005525599871831567 -0.00036859211099958837 -0.003511458969355602 0.0024752266702966702 0.011483174569700957 0.9971364801018238 -0.02793748029561175
 -0.00036877230164535985 -0.0035114620381112844 0.00041371561057263487 0.005526453235813157 0.9971364801018238 -0.02793748029561175 0.002476583803038849 0.01148303068457622
0.06252605252188 0.0026649360856246685 0.012832180104736116 0.9968866550171893 -0.031097173103964808 0.0004889471951451462 0.006143717368790565 -0.00042577223924634457 -0.003907209168647059
 0.9968866550171893 -0.031097173103964808 0.0026668927920137984 0.012831986660111556 -0.0004255505565166924 -0.003907207677710899 0.0004792433725112001 0.006144772908387121
 0.0004889471951451462 0.006143717368790565 -0.0004255505565166924 -0.003907207677710899 0.0026650948058998436 0.012833000145252427 0.996886673275197 -0.031096337972116535
 -0.00042577223924634457 -0.003907209168647059 0.0004792433725112001 0.006144772908387121 0.996886673275197 -0.031096337972116535 0.002666769219336911 0.012832828987507608
0.06877865777407 0.002864480918918894 0.014195414696711145 0.9966238221304402 -0.03426770574567222 0.0005616208096513006 0.006762533973032235 -0.00048717635783130254 -0.0043038307741959875
 0.9966238221304402 -0.03426770574567222 0.0028668474057389724 0.014195187459132423 -0.00048690901274152956 -0.00430383137350036 0.0005498737655474875 0.006763820045536767
 0.0005616208096513006 0.006762533973032235 -0.00048690901274152956 -0.00430383137350036 0.002864672638900052 0.014196315032152127 0.9966238439345616 -0.034266787027217194
 -0.00048717635783130254 -0.0043038307741959875 0.0005498737655474875 0.006763820045536767 0.9966238439345616 -0.034266787027217194 0.002866697481763005 0.014196114029717941
0.07503126302626001 0.003073918402864588 0.01557196397574013 0.9963477871715155 -0.037449814849454546 0.0006396475040836565 0.007381997644747106 -0.0005530398314361972 -0.0047012684847081675
 0.9963477871715155 -0.037449814849454546 0.0030767334731722903 0.015571699815920118 -0.0005527226840249818 -0.00470127172183293 0.0006256603873581599 0.007383544551976315
 0.0006396475040836565 0.007381997644747106 -0.0005527226840249818 -0.00470127172183293 0.0030741462343553913 0.015572944167910368 0.9963478128422902 -0.037448812480040054
 -0.0005530398314361972 -0.0047012684847081675 0.0006256603873581599 0.007383544551976315 0.9963478128422902 -0.037448812480040054 0.0030765546287781723 0.01557271066358893
0.08128386827845 0.003293434271950161 0.016961663800293923 0.9960583704564622 -0.04064346939687351 0.0007230808523012849 0.00800205416212814 -0.0006234172390567625 -0.005099463443721596
 0.9960583704564622 -0.04064346939687351 0.0032967367119902144 0.01696135946209947 -0.0006230461792776531 -0.005099469901394229 0.0007066563473609684 0.008003894173487966
 0.0007230808523012849 0.00800205416212814 -0.0006230461792776531 -0.005099469901394229 0.003293701325499009 0.016962723372767545 0.9960584003168984 -0.04064238330440087
 -0.0006234172390567625 -0.005099463443721596 0.0007066563473609684 0.008003894173487966 0.9960584003168984 -0.04064238330440087 0.0032965263709866946 0.01696245462426964
0.08753647353064001 0.0035232139533240736 0.01836435775843494 0.9957553919704821 -0.043848625431973966 0.0008119738922919948 0.008622647312326388 -0.0006983625436042506 -0.0054983561109014645
 0.9957553919704821 -0.043848625431973966 0.0035270425362212907 0.01836400985825548 -0.0006979334910227129 -0.005498366406985954 0.0007929142291241471 0.008624814687878747
 0.0008119738922919948 0.008622647312326388 -0.0006979334910227129 -0.005498366406985954 0.003523523338070275 0.018365496195758377 0.9957554263469622 -0.04384745553686301
 -0.0006983625436042506 -0.0054983561109014645 0.0007929142291241471 0.008624814687878747 0.9957554263469622 -0.04384745553686301 0.0035267981153372426 0.018365189375624865
0.09378907878283 0.003763442571689961 0.019779894917612378 0.9954386714648853 -0.04706522826659447 0.0009063790877031471 0.009243719031974787 -0.0007779290683650442 -0.005897886116291708
 0.9954386714648853 -0.04706522826659447 0.00376783606100513 0.019779499943574953 -0.000777437971956703 -0.005897900903765272 0.0008844860540514871 0.009246250045442451
 0.0009063790877031471 0.009243719031974787 -0.000777437971956703 -0.005897900903765272 0.0037637973950700896 0.019781111669958416 0.9954387106872138 -0.047063974476798
 -0.0007779290683650442 -0.005897886116291708 0.0008844860540514871 0.009246250045442451 0.9954387106872138 -0.047063974476798 0.003767554969629121 0.019780763865420672
0.100041684035 0.004014304943459862 0.021208128163721352 0.9951080285434704 -0.05029321409800393 0.0010063482908467432 0.009865209504817573 -0.0008621694713294444 -0.0062979921587668726
 0.9951080285434704 -0.05029321409800393 0.004019302096767139 0.021207682474880238 -0.0008616123093328216 -0.006298012125699412 0.0009814232462351232 0.009868142466490896
 0.0010063482908467432 0.009865209504817573 -0.0008616123093328216 -0.006298012125699412 0.004014708310274609 0.02120942264210969 0.9951080729446324 -0.05029187631332396
 -0.0008621694713294444 -0.0062979921587668726 0.0009814232462351232 0.009868142466490896 0.9951080729446324 -0.05029187631332396 0.004018981736259638 0.021209030854854715
0.1059090909091 0.004259548300669281 0.022559791752884497 0.9947849321904253 -0.05333262535409158 0.0011052648088052657 0.010448738499206151 -0.000945517295887969 -0.0066739176440316315
 0.9947849321904253 -0.05333262535409158 0.004265147175974202 0.022559295046329583 -0.0009448945066089912 -0.006673943128359731 0.0010773135145378558 0.01045208532361548
 0.0011052648088052657 0.010448738499206151 -0.0009448945066089912 -0.006673943128359731 0.004260000042142683 0.02256115859880847 0.9947849817579305 -0.05333120864992497
 -0.000945517295887969 -0.0066739176440316315 0.0010773135145378558 0.01045208532361548 0.9947849817579305 -0.05333120864992497 0.004264787595269409 0.022560722735017264
0.1062942892872 0.0042759855589102015 0.022648912961396605 0.994763282739751 -0.05353251120659278 0.0011119327054763452 0.010487057245165635 -0.00095113571903883 -0.006698611920008002
 0.994763282739751 -0.05353251120659278 0.004281625131317517 0.02264841278673505 -0.0009505084988802963 -0.006698637789528903 0.001083776596932335 0.010490432524704591
 0.0011119327054763452 0.010487057245165635 -0.0009505084988802963 -0.006698637789528903 0.004276440571589886 0.022650284537524074 0.9947633326567474 -0.053531089318435594
 -0.00095113571903883 -0.006698611920008002 0.001083776596932335 0.010490432524704591 0.9947633326567474 -0.053531089318435594 0.004281262895309674 0.022649845683360013
0.11254689453939999 0.004548668559983414 0.02410210639429327 0.994404253590162 -0.056783040874947004 0.0012231828519935434 0.011109199147495485 -0.0010448790574236527 -0.007099682013720992
 0.994404253590162 -0.056783040874947004 0.00455498930748734 0.0241015478317821 -0.0010441778156371712 -0.007099714543998023 0.0011915962311324622 0.011113059196623396
 0.0012231828519935434 0.011109199147495485 -0.0010441778156371712 -0.007099714543998023 0.004549178317956539 0.024103554401666505 0.9944043093643204 -0.05678153476484267
 -0.0010448790574236527 -0.007099682013720992 0.0011915962311324622 0.011113059196623396 0.9944043093643204 -0.05678153476484267 0.004554582581765593 0.024103065310117196
0.11879949979160001 0.004832537710516866 0.02556756641891928 0.9940307607027186 -0.06004471809507872 0.0013401485312843071 0.01173157053734559 -0.001143449983245622 -0.0075011379350443394
 0.9940307607027186 -0.06004471809507872 0.004839578393794104 0.025566945434268594 -0.0011426707854892309 -0.007501177919243322 0.0013049315727177546 0.01173595991232873
 0.0013401485312843071 0.01173157053734559 -0.0011426707854892309 -0.007501177919243322 0.004833105309679482 0.025569090152609133 0.9940308226795473 -0.06004312763451867
 -0.001143449983245622 -0.0075011379350443394 0.0013049315727177546 0.01173595991232873 0.9940308226795473 -0.06004312763451867 0.004839124555651882 0.02556854756637421
0.1250521050438 0.005127776363111238 0.027045151274876462 0.9936426238225532 -0.06331745212070163 0.0014628787898456552 0.01235410520711157 -0.0012468982138056097 -0.00790291402649069
 0.9936426238225532 -0.06331745212070163 0.005135575750625455 0.027044463700394473 -0.001246037154834177 -0.007902962292742826 0.0014238313105047584 0.012359070591107385
 0.0014628787898456552 0.01235410520711157 -0.001246037154834177 -0.007902962292742826 0.005128404895430372 0.027046749988363858 0.9936426923524139 -0.06331577717393318
 -0.0012468982138056097 -0.00790291402649069 0.0014238313105047584 0.012359070591107385 0.9936426923524139 -0.06331577717393318 0.005135072169300536 0.027046150562665155
0.131304710296 0.005434567422173623 0.028534719006568142 0.9932396628963236 -0.06660114690974206 0.0015914218842299269 0.012976735446632217 -0.0013552726563579736 -0.008304943450680126
 0.9932396628963236 -0.06660114690974206 0.005443164293924601 0.028533960539749624 -0.0013543258601269323 -0.008305000862030938 0.0015483433640277608 0.0129823256718491
 0.0015914218842299269 0.012976735446632217 -0.0013543258601269323 -0.008305000862030938 0.005435259975331382 0.02853639191434021 0.9932397383343422 -0.06659938733079417
 -0.0013552726563579736 -0.008304943450680126 0.0015483433640277608 0.0129823256718491 0.9932397383343422 -0.06659938733079417 0.005442608329850561 0.028535732216239177
0.1375573155481 0.005674722280434404 0.02984129378024659 0.9929000867398755 -0.06970082541666138 0.001707560164880802 0.01357916728487913 -0.0014504065686381208 -0.008686907253434541
 0.9929000867398755 -0.06970082541666138 0.005684157522292841 0.029840477906228645 -0.0014493682825620466 -0.008686973684567662 0.0016603454328371612 0.01358536587006773
 0.001707560164880802 0.01357916728487913 -0.0014493682825620466 -0.008686973684567662 0.005675481412140451 0.029843040236934643 0.9929001693971858 -0.06969898112964659
 -0.0014504065686381208 -0.008686907253434541 0.0016603454328371612 0.01358536587006773 0.9929001693971858 -0.06969898112964659 0.005683547143305125 0.02984233445165036
0.1438099208003 0.005923027072547104 0.031142247894561357 0.9925490979290548 -0.07279392660314016 0.0018283890915375093 0.014179899669129935 -0.0015493550423729878 -0.009067329299920015
 0.9925490979290548 -0.07279392660314016 0.0059333397949703865 0.03114137159834827 -0.0015482210940363818 -0.00906740558083035 0.0017768544386743785 0.014186750485981826
 0.0018283890915375093 0.014179899669129935 -0.0015482210940363818 -0.00906740558083035 0.005923855768432 0.03114406709740572 0.9925491881590468 -0.07279199746593841
 -0.0015493550423729878 -0.009067329299920015 0.0017768544386743785 0.014186750485981826 0.9925491881590468 -0.07279199746593841 0.005932672459324608 0.031143313087406605
0.1500625260525 0.006179409329571223 0.0324375103460759 0.992186771573458 -0.07588041203076305 0.0019538760554997244 0.014778895815567196 -0.0016520866809166116 -0.009446174353975451
 0.992186771573458 -0.07588041203076305 0.006190638667275044 0.03243657046600503 -0.0016508529031369617 -0.009446261347579733 0.0018978385662553948 0.014786444319041758
 0.0019538760554997244 0.014778895815567196 -0.0016508529031369617 -0.009446261347579733 0.006180310564985949 0.032439401460558695 0.9921868697337896 -0.07587839789513137
 -0.0016520866809166116 -0.009446174353975451 0.0018978385662553948 0.014786444319041758 0.9921868697337896 -0.07587839789513137 0.006189911832383984 0.03243859697649489
0.15631513130469998 0.006443796240407891 0.033727012517257376 0.9918131829732467 -0.07896024270017069 0.0020839881678325367 0.015376119415208606 -0.0017585697966278028 -0.009823407832844381
