! Created with skrf 1.8.0 (http://scikit-rf.org).
# GHz S RI R 50.0 
!freq ReS11 ImS11 ReS12 ImS12 ReS13 ImS13
! ReS14 ImS14
! ReS21 ImS21 ReS22 ImS22 ReS23 ImS23
! ReS24 ImS24
! ReS31 ImS31 ReS32 ImS32 ReS33 ImS33
! ReS34 ImS34
! ReS41 ImS41 ReS42 ImS42 ReS43 ImS43
! ReS44 ImS44
!
0.0 0.001441044388536 0.0 0.9985589555858 0.0 5.517792661393e-05 0.0 -5.517792581526e-05 6.757347023324826e-21
 0.9985589555858 0.0 0.001441044388576 0.0 -5.517792581579e-05 6.757347023389733e-21 5.517792661586e-05 0.0
 5.517792661393e-05 0.0 -5.517792581579e-05 6.757347023389733e-21 0.001441044401347 0.0 0.9985589555986 0.0
 -5.517792581526e-05 6.757347023324826e-21 5.517792661586e-05 0.0 0.9985589555986 0.0 0.001441044401356 0.0
0.005 0.0015501161850692453 0.001183525027098307 0.9984210355417656 -0.0030186534123207744 7.645013270396173e-05 0.0005816324793755896 -7.44578051422901e-05 -0.00036972369912451384
 0.9984210355417656 -0.0030186534123207744 0.0015501181958955655 0.0011835238155794845 -7.445784234036878e-05 -0.0003697236687427489 7.643167453397174e-05 0.0005816393832456092
 7.645013270396173e-05 0.0005816324793755896 -7.445784234036878e-05 -0.0003697236687427489 0.001550116119452353 0.0011834577549869852 0.9984210351815229 -0.0030187204685832975
 -7.44578051422901e-05 -0.00036972369912451384 7.643167453397174e-05 0.0005816393832456092 0.9984210351815229 -0.0030187204685832975 0.0015501175454532099 0.001183456978697556
0.006252605252188 0.0015786385565817354 0.0014840531597663583 0.9983847591000565 -0.003774066245415045 8.247074864409775e-05 0.0007273403830819753 -7.985692255616083e-05 -0.00046263130397621033
 0.9983847591000565 -0.003774066245415045 0.0015786417004094876 0.0014840516519172126 -7.985698089991544e-05 -0.0004626312652542903 8.244190788894454e-05 0.000727349364689872
 8.247074864409775e-05 0.0007273403830819753 -7.985698089991544e-05 -0.0004626312652542903 0.0015786385530289872 0.001483969064607488 0.9983847586355932 -0.003774150066668665
 -7.985692255616083e-05 -0.00046263130397621033 8.244190788894454e-05 0.000727349364689872 0.9983847586355932 -0.003774150066668665 0.0015786407819446428 0.0014839681125593488
0.01250521050438 0.0017282982798565434 0.002999154959251186 0.9981932410890326 -0.007548995712988673 0.00011669850943214443 0.00145515333292504 -0.00011025287610976322 -0.0009275321727908423
 0.9981932410890326 -0.007548995712988673 0.0017283108411937113 0.0029991520140392495 -0.00011025311177951306 -0.000927532086674095 0.00011658345197392343 0.001455175061168292
 0.00011669850943214443 0.00145515333292504 -0.00011025311177951306 -0.000927532086674095 0.0017282988087548553 0.002998986972666118 0.998193239767979 -0.007549163119425507
 -0.00011025287610976322 -0.0009275321727908423 0.00011658345197392343 0.001455175061168292 0.998193239767979 -0.007549163119425507 0.0017283077020105225 0.0029989852634330094
0.01875781575657 0.0018903330691729737 0.004535842940239195 0.9979841756728162 -0.011333988986596315 0.0001579387564529674 0.0021839067886421826 -0.00014645506739136515 -0.0013940802315627302
 0.9979841756728162 -0.011333988986596315 0.001890361308536607 0.0045358386321483 -0.0001464556009511382 -0.0013940800858367331 0.00015768018102882975 0.002183945704166504
 0.0001579387564529674 0.0021839067886421826 -0.0001464556009511382 -0.0013940800858367331 0.0018903346958095498 0.004535591140241759 0.9979841731237609 -0.011334239886704626
 -0.00014645506739136515 -0.0013940802315627302 0.00015768018102882975 0.002183945704166504 0.9979841731237609 -0.011334239886704626 0.0018903546638594291 0.004535588895147443
0.02501042100875 0.0020650442350658824 0.006091994748192763 0.9977573285120039 -0.015130897880256674 0.00020626995160517598 0.002913634827132719 -0.00018855032669629602 -0.001862082405682663
 0.9977573285120039 -0.015130897880256674 0.002065094408375668 0.006091989159801035 -0.0001885512799238305 -0.0018620821846492583 0.00020581046745798883 0.0029136960276659376
 0.00020626995160517598 0.002913634827132719 -0.0001885512799238305 -0.0018620821846492583 0.002065047528734218 0.006091659175665145 0.9977573243568356 -0.015131232238871462
 -0.00018855032669629602 -0.001862082405682663 0.00020581046745798883 0.0029136960276659376 0.9977573243568356 -0.015131232238871462 0.0020650829640507153 0.006091656646165591
0.03126302626094 0.002252720581707963 0.007666527438336522 0.9975124526876251 -0.01894052609983677 0.00026177101844164946 0.0036443080260028862 -0.00023662331302536774 -0.002331404552854032
 0.9975124526876251 -0.01894052609983677 0.002252798944624492 0.007666520661325598 -0.0002366248087375872 -0.00233140423727182 0.00026105309379271336 0.003644397271832981
 0.00026177101844164946 0.0036443080260028862 -0.0002366248087375872 -0.00233140423727182 0.00225272612197284 0.007666108133827272 0.9975124465472469 -0.018940943901317103
 -0.00023662331302536774 -0.002331404552854032 0.00026105309379271336 0.003644397271832981 0.9975124465472469 -0.018940943901317103 0.0022527814031171552 0.007666105602994028
0.037515631513130004 0.0024536448144653208 0.009258741897131068 0.9972492952799172 -0.022763284762346386 0.0003245206404669437 0.004375871926931066 -0.0002907570863746908 -0.0028019329947225825
 0.9972492952799172 -0.022763284762346386 0.002453757625189551 0.009258734033088313 -0.0002907592482753755 -0.0028019325617646778 0.00032348657866465824 0.004375995648899654
 0.0003245206404669437 0.004375871926931066 -0.0002907592482753755 -0.0028019325617646778 0.002453653190509154 0.009258238901876503 0.9972492867731492 -0.022763786009606008
 -0.0002907570863746908 -0.0028019329947225825 0.00032348657866465824 0.004375995648899654 0.9972492867731492 -0.022763786009606008 0.00245373268515561 0.009258236685455046
0.043768236765320004 0.002668096008892512 0.010868123371910772 0.9969676000100134 -0.026599391799133773 0.00039459692858606225 0.005108258733513336 -0.00035103331760072924 -0.0032735628133839147
 0.9969676000100134 -0.026599391799133773 0.002668249530545755 0.01086811453279167 -0.00035103627017691393 -0.0032735622365793527 0.0003931888560351232 0.005108424041738523
 0.00039459692858606225 0.005108258733513336 -0.00035103627017691393 -0.0032735622365793527 0.0026681078220352396 0.010867536724468009 0.9969675887551401 -0.02659997651704443
 -0.00035103331760072924 -0.0032735628133839147 0.0003931888560351232 0.005108424041738523 0.9969675887551401 -0.02659997651704443 0.002668215889349181 0.010867535171800618
0.050020842017509996 0.002896350768928168 0.012494258990225184 0.9966671085734496 -0.030448954367330583 0.00047207722284119304 0.0058413921359238225 -0.00041753236496017284 -0.0037461930221631074
 0.9966671085734496 -0.030448954367330583 0.002896551272243828 0.012494249298726834 -0.00041753623337413293 -0.003746192271348408 0.0004702370837688772 0.005841606828829134
 0.00047207722284119304 0.0058413921359238225 -0.00041753623337413293 -0.003746192271348408 0.0028963666302993245 0.012493588741292734 0.996667094185483 -0.030449622587760895
 -0.00041753236496017284 -0.0037461930221631074 0.0004702370837688772 0.005841606828829134 0.996667094185483 -0.030449622587760895 0.002896507623794869 0.012493588236101676
0.055454545454549996 0.00310613466391653 0.013920752491103828 0.9963905060609752 -0.033805298290680706 0.0005454822874378794 0.006479049701091093 -0.000480437178491611 -0.004157658194383183
 0.9963905060609752 -0.033805298290680706 0.003106381095586808 0.013920742167133671 -0.00048044194490341443 -0.004157657264942771 0.0005432193776207004 0.006479314185588787
 0.0005454822874378794 0.006479049701091093 -0.00048044194490341443 -0.004157657264942771 0.003106154548178074 0.013920009634759192 0.9963904886352389 -0.03380603911452487
 -0.000480437178491611 -0.004157658194383183 0.0005432193776207004 0.006479314185588787 0.9963904886352389 -0.03380603911452487 0.003106327688220667 0.013920010378738173
0.056273447269699996 0.0031386838219529087 0.014136797313297178 0.9963475614132726 -0.03431200922724831 0.0005570379515280801 0.006575189688496479 -0.0004903332937172872 -0.004219724185392463
 0.9963475614132726 -0.03431200922724831 0.003138937587158566 0.01413678690322772 -0.0004903382037231531 -0.004219723226656756 0.0005547075054727222 0.006575462262063895
 0.0005570379515280801 0.006575189688496479 -0.0004903382037231531 -0.004219723226656756 0.0031387043539003075 0.01413604351799361 0.9963475435044312 -0.03431276099689371
 -0.0004903332937172872 -0.004219724185392463 0.0005547075054727222 0.006575462262063895 0.9963475435044312 -0.03431276099689371 0.003138882623503833 0.014136044479110358
0.06252605252188 0.003395368346168497 0.01579542607408164 0.9960086982281202 -0.03818854493707508 0.0006495545204172695 0.007309564099399126 -0.0005695138636665875 -0.00469405712859911
 0.9960086982281202 -0.03818854493707508 0.0033956816651552328 0.015795415090548798 -0.0005695199414956129 -0.004694055924235523 0.000646675343310478 0.0073099037564404055
 0.0006495545204172695 0.007309564099399126 -0.0005695199414956129 -0.004694055924235523 0.003395394182835123 0.015794588794973256 0.9960086764081839 -0.03818938031434049
 -0.0005695138636665875 -0.00469405712859911 0.000646675343310478 0.0073099037564404055 0.9960086764081839 -0.03818938031434049 0.0033956140773787986 0.01579459167701826
0.06877865777407 0.00366667614821863 0.01746985891649784 0.9956502583352783 -0.04207851504866539 0.000749701216774131 0.008044424013532742 -0.0006551505015029938 -0.005169092158176265
 0.9956502583352783 -0.04207851504866539 0.003667055326773267 0.0174698475161855 -0.0006551578737681215 -0.005169090666629917 0.0007462147031938412 0.008044840673025206
 0.000749701216774131 0.008044424013532742 -0.0006551578737681215 -0.005169090666629917 0.0036667079348576886 0.017468938224035994 0.9956502322098978 -0.042079434103134195
 -0.0006551505015029938 -0.005169092158176265 0.0007462147031938412 0.008044840673025206 0.9956502322098978 -0.042079434103134195 0.003666973804654286 0.017468943518020478
0.07503126302626001 0.003952877752357691 0.019159826982237227 0.9952719809466877 -0.04598184645851435 0.0008575511236202778 0.008779674505095349 -0.000747318261447731 -0.005644728574379007
 0.9952719809466877 -0.04598184645851435 0.003953329112310582 0.01915981533345717 -0.0007473270550701964 -0.00564472675020467 0.0008533984902926992 0.00878017881150936
 0.0008575511236202778 0.008779674505095349 -0.0007473270550701964 -0.00564472675020467 0.0039529161465010065 0.019158822953324304 0.9952719501181166 -0.045982849272377585
 -0.000747318261447731 -0.005644728574379007 0.0008533984902926992 0.00878017881150936 0.9952719501181166 -0.045982849272377585 0.003953232345510622 0.019158831187173334
0.08128386827845 0.0042542424364239205 0.020865073311420002 0.9948736053960211 -0.049898444948234276 0.0009731760395949109 0.009515217404036753 -0.0008460907787693385 -0.006120864353558214
 0.9948736053960211 -0.049898444948234276 0.004254772317703968 0.02086506159419246 -0.000846101120862567 -0.006120862147366578 0.0009682983304105741 0.009515820736658642
 0.0009731760395949109 0.009515217404036753 -0.000846101120862567 -0.006120862147366578 0.004254288107871824 0.020863986029196268 0.9948735694621894 -0.04989953161634635
 -0.0008460907787693385 -0.006120864353558214 0.0009682983304105741 0.009515820736658642 0.9948735694621894 -0.04989953161634635 0.00425465899625238 0.02086399776821423
0.08753647353064001 0.004571038230434793 0.02258534897174985 0.9944548713309848 -0.05382819899977983 0.001096646402109169 0.010250951530871032 -0.0009515402192593393 -0.006597395925321737
 0.9944548713309848 -0.05382819899977983 0.0045716529931811595 0.022585337377851983 -0.0009515522370397323 -0.006597393283737915 0.0010909844934094465 0.010251666013069684
 0.001096646402109169 0.010250951530871032 -0.0009515522370397323 -0.006597393283737915 0.004571091861157223 0.022584178527968943 0.994454829884903 -0.05382936962726067
 -0.0009515402192593393 -0.006597395925321737 0.0010909844934094465 0.010251666013069684 0.994454829884903 -0.05382936962726067 0.004571521807666579 0.022584194375275295
0.09378907878283 0.004903531889960073 0.024320410292545253 0.9940155188834381 -0.05777098250974195 0.0012280312136241929 0.010986772862280855 -0.0010637372240054432 -0.0070742180223107775
 0.9940155188834381 -0.05777098250974195 0.004904237916721212 0.024320399025442807 -0.001063751044682828 -0.007074214887938128 0.001221525820497636 0.010987611370764528
 0.0012280312136241929 0.010986772862280855 -0.001063751044682828 -0.007074214887938128 0.004903594174559717 0.024319156785882354 0.994015471513423 -0.05777223721351541
 -0.0010637372240054432 -0.0070742180223107775 0.001221525820497636 0.010987611370764528 0.994015471513423 -0.05777223721351541 0.0049040875591593565 0.02431917738273221
0.100041684035 0.005251988851487114 0.026070016832012877 0.9935552888252326 -0.061726656774156466 0.0013673979687089327 0.011722574657080199 -0.0011827508524128018 -0.007551223573109937
 0.9935552888252326 -0.061726656774156466 0.005252792549390144 0.026070006106715973 -0.0011827666031255374 -0.00755121988447459 0.0013599896518313316 0.01172355083103931
 0.0013673979687089327 0.011722574657080199 -0.0011827666031255374 -0.00755121988447459 0.0052520604979179 0.026068680368689034 0.9935552351138439 -0.061727995682116385
 -0.0011827508524128018 -0.007551223573109937 0.0013599896518313316 0.01172355083103931 0.9935552351138439 -0.061727995682116385 0.005252621713971501 0.02606870639482652
0.1059090909091 0.005593732440132478 0.02772485303573971 0.9931041935424473 -0.06545022819771838 0.0015054971139909646 0.012412931450884266 -0.0013006922413541404 -0.007998912509406557
 0.9931041935424473 -0.06545022819771838 0.0055946336431266465 0.027724843024573526 -0.001300709918641134 -0.007998908241086677 0.001497187308459662 0.012414049901224284
 0.0015054971139909646 0.012412931450884266 -0.001300709918641134 -0.007998908241086677 0.005593813527031885 0.02772343883006846 0.9931041334955814 -0.06545164624806549
 -0.0013006922413541404 -0.007998912509406557 0.001497187308459662 0.012414049901224284 0.9931041334955814 -0.06545164624806549 0.005594442405981816 0.02772347060365473
0.1062942892872 0.005616673174803856 0.027833929853943843 0.9930739227122521 -0.06569507196797136 0.0015148125826861623 0.012458247557023634 -0.0013086485226477353 -0.008028303623956345
 0.9930739227122521 -0.06569507196797136 0.005617580977873058 0.02783391989685635 -0.00130866633033109 -0.008028299315478191 0.0015064417556614087 0.012459375807263655
 0.0015148125826861623 0.012458247557023634 -0.00130866633033109 -0.008028299315478191 0.005616754903944477 0.0278325105478583 0.9930738622363076 -0.0656964952187902
 -0.0013086485226477353 -0.008028303623956345 0.0015064417556614087 0.012459375807263655 0.9930738622363076 -0.0656964952187902 0.005617388361163823 0.027832542721672234
0.11254689453939999 0.00599784747480966 0.029611911158328993 0.9925711630226559 -0.06967606827492889 0.0016703393207662806 0.013193679665812795 -0.0014414959506256766 -0.008505347285942273
 0.9925711630226559 -0.06967606827492889 0.0059988658460025665 0.029611902206996762 -0.001441515941881995 -0.008505342287899072 0.0016609462579013127 0.013194975183790928
 0.0016703393207662806 0.013193679665812795 -0.001441515941881995 -0.008505342287899072 0.005997940021050653 0.029610409131019276 0.9925710953524458 -0.06967757601782892
 -0.0014414959506256766 -0.008505347285942273 0.0016609462579013127 0.013194975183790928 0.9925710953524458 -0.06967757601782892 0.005998650148154511 0.029610448209659534
0.11879949979160001 0.006395772845263261 0.031403722173405535 0.9920467532882831 -0.07366947676024715 0.001834040727605594 0.013928756615309436 -0.0015813570876173034 -0.008982241698812067
 0.9920467532882831 -0.07366947676024715 0.006396908278975393 0.03140371447619656 -0.0015813793886963238 -0.00898223593729684 0.0018235655721412854 0.013930235382053818
 0.001834040727605594 0.013928756615309436 -0.0015813793886963238 -0.00898223593729684 0.0063958769570545875 0.03140213755178118 0.992046677987615 -0.07367106915716833
 -0.0015813570876173034 -0.008982241698812067 0.0018235655721412854 0.013930235382053818 0.992046677987615 -0.07367106915716833 0.0063966682038529045 0.03140218433131464
0.1250521050438 0.0068107087763856445 0.03320912323405065 0.9915004382230771 -0.0776751200616662 0.002005977557270165 0.01466336162573241 -0.0017282940568709225 -0.009458872004622722
 0.9915004382230771 -0.0776751200616662 0.006811967800560858 0.033209117049798766 -0.0017283187934932535 -0.009458865401517528 0.0019943603299928973 0.01466504042073863
 0.002005977557270165 0.01466336162573241 -0.0017283187934932535 -0.009458865401517528 0.006810825216066906 0.03320745615302713 0.99150035484847 -0.07767679728433786
 -0.0017282940568709225 -0.009458872004622722 0.0019943603299928973 0.01466504042073863 0.99150035484847 -0.07767679728433786 0.006811702056707374 0.0332075114684041
0.131304710296 0.007242913067198937 0.03502787300706551 0.9909319638491931 -0.081692812938306 0.002186208703450374 0.015397375554976079 -0.0018823670891750992 -0.009935121336361333
 0.9909319638491931 -0.081692812938306 0.0072443022457671655 0.03502786860456191 -0.0018823943864456918 -0.00993511380930211 0.0021733893116478056 0.015399271964901411
 0.002186208703450374 0.015397375554976079 -0.0018823943864456918 -0.00993511380930211 0.007243042611583864 0.03502612360909794 0.9909318719494706 -0.08169457516845187
 -0.0018823670891750992 -0.009935121336361333 0.0021733893116478056 0.015399271964901411 0.9909318719494706 -0.08169457516845187 0.007244009547066165 0.03502618833406613
0.1375573155481 0.007590890091223788 0.03662360864557094 0.9904428645248826 -0.08548614755051531 0.002351261459396446 0.016107131380448763 -0.002020124136681646 -0.010387325128658906
 0.9904428645248826 -0.08548614755051531 0.007592416080698341 0.036623605174215125 -0.0020201540045876203 -0.010387316663119383 0.00233721418172805 0.016109241942262233
 0.002351261459396446 0.016107131380448763 -0.0020201540045876203 -0.010387316663119383 0.007591032614325968 0.03662177737674972 0.990442763710914 -0.08548799488124542
 -0.002020124136681646 -0.010387325128658906 0.00233721418172805 0.016109241942262233 0.990442763710914 -0.08548799488124542 0.007592095933904296 0.036621850506703385
0.1438099208003 0.007951039338743594 0.03821142889955114 0.9899367164188029 -0.0892703375560974 0.0025229751066443286 0.01681422862904962 -0.0021633901704081505 -0.010837087280848466
 0.9899367164188029 -0.0892703375560974 0.007952708756394663 0.038211426471249366 -0.002163422712665312 -0.010837077799684907 0.0025076459023637755 0.01681656930498373
 0.0025229751066443286 0.01681422862904962 -0.002163422712665312 -0.010837077799684907 0.007951195474500058 0.038209515951248926 0.9899366062413972 -0.08927227016185074
 -0.0021633901704081505 -0.010837087280848466 0.0025076459023637755 0.01681656930498373 0.9899366062413972 -0.08927227016185074 0.007952360025875177 0.038209598137998964
0.1500625260525 0.008323240552693933 0.03979121500884031 0.9894136434638778 -0.09304530283398844 0.0027012936422116337 0.017518602622133332 -0.0023121107449852038 -0.011284346445768208
 0.9894136434638778 -0.09304530283398844 0.008325060047803572 0.039791213730787325 -0.0023121460634506737 -0.011284335868864884 0.002684628760900489 0.017521189955098236
 0.0027012936422116337 0.017518602622133332 -0.0023121460634506737 -0.011284335868864884 0.008323410938328524 0.0397892205774847 0.9894135234676025 -0.09304732089910707
 -0.0023121107449852038 -0.011284346445768208 0.002684628760900489 0.017521189955098236 0.9894135234676025 -0.09304732089910707 0.008324681612152962 0.03978931248772286
0.15631513130469998 0.008707372703144128 0.04136285185123022 0.9888737701337131 -0.09681096327534838 0.0028861604421884447 0.01822018971927182 -0.002466230784260978 -0.01172904251960798
