! Created with skrf 1.8.0 (http://scikit-rf.org).
# GHz S RI R 50.0 
!freq ReS11 ImS11 ReS12 ImS12 ReS13 ImS13
! ReS14 ImS14
! ReS21 ImS21 ReS22 ImS22 ReS23 ImS23
! ReS24 ImS24
! ReS31 ImS31 ReS32 ImS32 ReS33 ImS33
! ReS34 ImS34
! ReS41 ImS41 ReS42 ImS42 ReS43 ImS43
! ReS44 ImS44
!
0.0 0.001517315714568 0.0 0.9984826842854 0.0 5.829246586892e-05 0.0 -5.82924653358e-05 7.138768108789552e-21
 0.9984826842854 0.0 0.001517315714554 0.0 -5.829246533572e-05 7.138768108779753e-21 5.829246586836e-05 0.0
 5.829246586892e-05 0.0 -5.829246533572e-05 7.138768108779753e-21 0.001517315707458 0.0 0.9984826842783 0.0
 -5.82924653358e-05 7.138768108789552e-21 5.829246586836e-05 0.0 0.9984826842783 0.0 0.001517315707452 0.0
0.005 0.0016323950864890887 0.0012449274946881997 0.9983371327720149 -0.003178227052184169 8.102592853722215e-05 0.000620951148519569 -7.888132187936847e-05 -0.00039348978053738485
 0.9983371327720149 -0.003178227052184169 0.0016323904699571733 0.0012449302215982937 -7.888182766210735e-05 -0.0003934902230017021 8.106441344915087e-05 0.0006209367148445823
 8.102592853722215e-05 0.000620951148519569 -7.888182766210735e-05 -0.0003934902230017021 0.0016323941880540167 0.0012448608005294142 0.9983371324140206 -0.00317829411358895
 -7.888132187936847e-05 -0.00039348978053738485 8.106441344915087e-05 0.0006209367148445823 0.9983371324140206 -0.00317829411358895 0.0016323906589466328 0.0012448627990571974
0.006252605252188 0.0016625544578847491 0.0015610431791023152 0.9982987555722269 -0.003973563201671461 8.74885773547832e-05 0.0007765023035428249 -8.467747977132776e-05 -0.0004923673560961921
 0.9982987555722269 -0.003973563201671461 0.0016625472405609638 0.0015610465832691276 -8.467826638436368e-05 -0.0004923679028177134 8.754870917903785e-05 0.0007764835276960126
 8.74885773547832e-05 0.0007765023035428249 -8.467826638436368e-05 -0.0004923679028177134 0.0016625531334330144 0.001560959824186176 0.9982987550928796 -0.003973647024467443
 -8.467747977132776e-05 -0.0004923673560961921 8.754870917903785e-05 0.0007764835276960126 0.9982987550928796 -0.003973647024467443 0.0016625476168327287 0.0015609623061867029
0.01250521050438 0.001821188952942668 0.0031546885975226994 0.9980956095778233 -0.00794793373348792 0.00012438154506083895 0.0015534468988750256 -0.0001174735533293525 -0.0009871159622368761
 0.9980956095778233 -0.00794793373348792 0.0018211601236125547 0.003154695353315284 -0.00011747664814332358 -0.00098711698662602 0.00012462142031222602 0.001553401465110928
 0.00012438154506083895 0.0015534468988750256 -0.00011747664814332358 -0.00098711698662602 0.0018211842079777529 0.0031545222381921183 0.9980956082116134 -0.007948101142536171
 -0.0001174735533293525 -0.0009871159622368761 0.00012462142031222602 0.001553401465110928 0.9980956082116134 -0.007948101142536171 0.0018211621840759794 0.003154527020968779
0.01875781575657 0.0019935609578850483 0.004770958014612472 0.9978729968634951 -0.011932785236636838 0.00016905746402705608 0.0023313336142075287 -0.00015678014336000927 -0.0014835658582646332
 0.9978729968634951 -0.011932785236636838 0.0019934961589744317 0.004770968070136262 -0.00015678703775253054 -0.0014835672798663585 0.0001695965144240445 0.0023312521614126105
 0.00016905746402705608 0.0023313336142075287 -0.00015678703775253054 -0.0014835672798663585 0.0019935507083371027 0.004770708906694059 0.997872994213418 -0.011933036157797706
 -0.00015678014336000927 -0.0014835658582646332 0.0001695965144240445 0.0023312521614126105 0.997872994213418 -0.011933036157797706 0.0019935012300930648 0.004770715773778344
0.02501042100875 0.0021800024163384293 0.0064076019196298226 0.9976306582475976 -0.01593005253519425 0.00022160320201910702 0.003110192898782702 -0.0002026936807506391 -0.001981501086743364
 0.9976306582475976 -0.01593005253519425 0.0021798873060933296 0.006407615214847732 -0.00020270584596105074 -0.0019815028120724596 0.00022256102331446066 0.003110064626490442
 0.00022160320201910702 0.003110192898782702 -0.00020270584596105074 -0.0019815028120724596 0.0021799845751516327 0.006407270325469999 0.9976306539123878 -0.01593038695527623
 -0.0002026936807506391 -0.001981501086743364 0.00022256102331446066 0.003110064626490442 0.9976306539123878 -0.01593038695527623 0.0021798967213275643 0.006407279017281913
0.03126302626094 0.0023808315645585435 0.008063464789130729 0.9973683211497911 -0.019940566342852163 0.00028210592656369333 0.0038899863432663912 -0.0002553080201461611 -0.0024807692122780795
 0.9973683211497911 -0.019940566342852163 0.002380651807183477 0.008063481253625996 -0.00025532691070095535 -0.002480771134664682 0.00028360238623970405 0.0038897989997325176
 0.00028210592656369333 0.0038899863432663912 -0.00025532691070095535 -0.002480771134664682 0.00238080404285279 0.008063051020833644 0.9973683147245599 -0.019940984266789332
 -0.0002553080201461611 -0.0024807692122780795 0.00028360238623970405 0.0038897989997325176 0.9973683147245599 -0.019940984266789332 0.0023806669092122064 0.008063061232055477
0.037515631513130004 0.0025963598155939955 0.009737794812115086 0.9970857066872896 -0.0239647434752285 0.0003506523581063415 0.00467064828982725 -0.00031471507462025965 -0.002981239715737984
 0.9970857066872896 -0.0239647434752285 0.002596101074197785 0.009737814363634389 -0.0003147421301247616 -0.0029812417152929836 0.00035280764471072834 0.004670388154823606
 0.0003506523581063415 0.00467064828982725 -0.0003147421301247616 -0.0029812417152929836 0.0025963205248528513 0.00973729921724752 0.9970856977648479 -0.023965244940836756
 -0.00031471507462025965 -0.002981239715737984 0.00035280764471072834 0.004670388154823606 0.9970856977648479 -0.023965244940836756 0.002596123217422074 0.009737310595065869
0.043768236765320004 0.0028268944212531174 0.011430033792084777 0.9967825325487905 -0.028002796876601226 0.00042732841024074224 0.005452098466574796 -0.0003810050447202376 -0.0034827913606291796
 0.9967825325487905 -0.028002796876601226 0.0028265423519667964 0.01143005633567289 -0.0003810416909535939 -0.003482793304299596 0.00043026305785377874 0.005451750332511819
 0.00042732841024074224 0.005452098466574796 -0.0003810416909535939 -0.003482793304299596 0.002826841273963904 0.011429456765526294 0.99678252071895 -0.028003381943227455
 -0.0003810050447202376 -0.0034827913606291796 0.00043026305785377874 0.005451750332511819 0.99678252071895 -0.028003381943227455 0.0028265729030939033 0.01142946890801683
0.050020842017509996 0.003072739708251455 0.013139730337157249 0.9964585144455196 -0.032054822356712254 0.0005122189678368094 0.006234247232814413 -0.00045426650183217547 -0.003985306949497313
 0.9964585144455196 -0.032054822356712254 0.00307227995492582 0.013139755764423987 -0.0004543141514917145 -0.003985308691086007 0.0005160538673665484 0.006233794385153469
 0.0005122189678368094 0.006234247232814413 -0.0004543141514917145 -0.003985308691086007 0.0030726706180941987 0.013139072328225825 0.9964584992936935 -0.03205549109864507
 -0.00045426650183217547 -0.003985306949497313 0.0005160538673665484 0.006233794385153469 0.9964584992936935 -0.03205549109864507 0.0030723202930595986 0.013139084783213158
0.055454545454549996 0.0032990554875353376 0.014639384261397414 0.9961597833991913 -0.03558752019268465 0.0005927276560608274 0.006914450774016496 -0.0005236622019211355 -0.0044227011965626275
 0.9961597833991913 -0.03558752019268465 0.003298490481034237 0.014639412095807998 -0.0005237205513802125 -0.004422702633642762 0.0005974433595666468 0.006913892167443218
 0.0005927276560608274 0.006914450774016496 -0.0005237205513802125 -0.004422702633642762 0.003298970849331143 0.014638656275543272 0.9961597650198367 -0.0355882617312261
 -0.0005236622019211355 -0.0044227011965626275 0.0005974433595666468 0.006913892167443218 0.9961597650198367 -0.0355882617312261 0.0032985404542110325 0.014638668594923264
0.056273447269699996 0.003334197714880954 0.014866497249153905 0.9961133669649541 -0.03612084112962692 0.0006054077319965688 0.0070169981243372835 -0.0005345864003730215 -0.004488670782624353
 0.9961133669649541 -0.03612084112962692 0.003333615903700681 0.014866525437747462 -0.0005346464535476078 -0.004488672162849829 0.0006102641343460298 0.007016422321641431
 0.0006054077319965688 0.0070169981243372835 -0.0005346464535476078 -0.004488672162849829 0.0033341105969030348 0.014865758750977657 0.996113348071459 -0.03612159364718739
 -0.0005345864003730215 -0.004488670782624353 0.0006102641343460298 0.007016422321641431 0.996113348071459 -0.03612159364718739 0.0033336674206078313 0.014865771014816592
0.06252605252188 0.0036115685305983204 0.016609988081604743 0.9957468041325128 -0.0402008231859799 0.0007069770897621617 0.007800249277924131 -0.0006220500617417159 -0.0049927672405844425
 0.9957468041325128 -0.0402008231859799 0.003610850265432563 0.01661001889482705 -0.0006221239063485341 -0.004992768087128278 0.0007129766039948052 0.007799530731736485
 0.0007069770897621617 0.007800249277924131 -0.0006221239063485341 -0.004992768087128278 0.0036114613029593237 0.016609169644168535 0.9957467810726068 -0.04020165959296972
 -0.0006220500617417159 -0.0049927672405844425 0.0007129766039948052 0.007799530731736485 0.9957467810726068 -0.04020165959296972 0.003610914366640896 0.016609181160855795
0.06877865777407 0.0039051504778541183 0.018369883188522052 0.9953585398185236 -0.044294701177834565 0.0008170080054268202 0.008583894264987192 -0.0007167411345146659 -0.005497479961196828
 0.9953585398185236 -0.044294701177834565 0.0039042813351843663 0.018369916475091265 -0.0007168301465420548 -0.005497480088746931 0.0008242725930126391 0.008583011619642514
 0.0008170080054268202 0.008583894264987192 -0.0007168301465420548 -0.005497480088746931 0.0039050210619095264 0.01836898541277988 0.995358512160863 -0.04429562160784122
 -0.0007167411345146659 -0.005497479961196828 0.0008242725930126391 0.008583011619642514 0.995358512160863 -0.04429562160784122 0.0039043594400297765 0.018368995573114368
0.07503126302626001 0.004215240198354811 0.02014588085819329 0.9949482880526236 -0.048402379222298675 0.0009355799190162597 0.009367822631543135 -0.0008187415451737562 -0.006002691313937365
 0.9949482880526236 -0.048402379222298675 0.00421420572227139 0.020145916452222648 -0.0008188470888978304 -0.006002690524254207 0.0009442318853126224 0.009366752943982537
 0.0009355799190162597 0.009367822631543135 -0.0008188470888978304 -0.006002690524254207 0.004215086520143465 0.020144904395614963 0.9949482553597566 -0.04840338382958537
 -0.0008187415451737562 -0.006002691313937365 0.0009442318853126224 0.009366752943982537 0.9949482553597566 -0.04840338382958537 0.004214299265138364 0.020144912536521755
0.08128386827845 0.004542132677920941 0.0219376914182995 0.9945157632818129 -0.052523738738038145 0.0010627706514566681 0.0101519202641259 -0.0009281314402704189 -0.006508282052476509
 0.9945157632818129 -0.052523738738038145 0.004540918375461521 0.021937729139281423 -0.0009282548684628968 -0.00650828013442861 0.0010729326351013287 0.01015063898374625
 0.0010627706514566681 0.0101519202641259 -0.0009282548684628968 -0.00650828013442861 0.004541952668630397 0.021936636975354657 0.9945157251086147 -0.05252482769344601
 -0.0009281314402704189 -0.006508282052476509 0.0010729326351013287 0.01015063898374625 0.9945157251086147 -0.05252482769344601 0.004541028805558648 0.021936642379408827
0.08753647353064001 0.004886121233518228 0.02374503316804113 0.9940606805926199 -0.05665864245958141 0.0011986563142747655 0.010936069636779044 -0.0010449891225344015 -0.007014131090358421
 0.9940606805926199 -0.05665864245958141 0.0048847125697430984 0.023745072821076067 -0.0010451317765703845 -0.007014127819986969 0.0012104512748039292 0.010934550585369377
 0.0011986563142747655 0.010936069636779044 -0.0010451317765703845 -0.007014127819986969 0.004885912830909795 0.023743901505516272 0.9940606364862233 -0.056659815951516916
 -0.0010449891225344015 -0.007014131090358421 0.0012104512748039292 0.010934550585369377 0.9940606364862233 -0.056659815951516916 0.004884841352328959 0.023743903400457497
0.09378907878283 0.0052474974722904804 0.025567629464222703 0.9935827559098899 -0.06080693730223146 0.0013433112210856305 0.011720150002274693 -0.0011693909837135964 -0.007520115336794135
 0.9935827559098899 -0.06080693730223146 0.005245879865025924 0.025567670840381824 -0.0011695541936597791 -0.007520110477363043 0.0013568624249988813 0.011718365354037988
 0.0013433112210856305 0.011720150002274693 -0.0011695541936597791 -0.007520110477363043 0.005247258620743106 0.025566421398627845 0.9935827054083146 -0.06080819553564207
 -0.0011693909837135964 -0.007520115336794135 0.0013568624249988813 0.011718365354037988 0.9935827054083146 -0.06080819553564207 0.0052460284812329665 0.025566418957230636
0.100041684035 0.00562655122997214 0.02740520658795109 0.9930817061778202 -0.06496845645174569 0.001496807801149364 0.012504037533122363 -0.0013014114339568801 -0.008026109587242893
 0.9930817061778202 -0.06496845645174569 0.005624710045334764 0.0274052494647427 -0.0013015965187119162 -0.008026102889281843 0.0015122388068153816 0.012501957794897506
 0.001496807801149364 0.012504037533122363 -0.0013015965187119162 -0.008026102889281843 0.005626279882589512 0.02740392298757809 0.9930816488098835 -0.06496979965228676
 -0.0013014114339568801 -0.008026109587242893 0.0015122388068153816 0.012501957794897506 0.9930816488098835 -0.06496979965228676 0.005624879993305718 0.02740391532753029
0.1059090909091 0.005998587050962125 0.029142960054339556 0.9925902410706289 -0.06888546887447464 0.0016489522561614195 0.013239344549993622 -0.0014322921286915062 -0.00850082716906952
 0.9925902410706289 -0.06888546887447464 0.005996522702411625 0.029143004125492214 -0.0014324989302310373 -0.008500818507667386 0.001666259876995575 0.013236959574822092
 0.0016489522561614195 0.013239344549993622 -0.0014324989302310373 -0.008500818507667386 0.005998283356069039 0.029141606414049948 0.992590176821744 -0.06888689202593347
 -0.0014322921286915062 -0.00850082716906952 0.001666259876995575 0.013236959574822092 0.992590176821744 -0.06888689202593347 0.0059967140458113055 0.029141593005373344
0.1062942892872 0.00602357049624321 0.029257492140024093 0.9925572495307796 -0.06914302093052946 0.0016592165136778889 0.013287605434582529 -0.0014411228294635792 -0.008531986446572158
 0.9925572495307796 -0.06914302093052946 0.00602149104310463 0.02925753628208808 -0.0014413310967768202 -0.0085319776479431 0.001676651155012038 0.013285199426138539
 0.0016592165136778889 0.013287605434582529 -0.0014413310967768202 -0.0085319776479431 0.006023264615057567 0.029256133930410152 0.9925571848150644 -0.06914444933937035
 -0.0014411228294635792 -0.008531986446572158 0.001676651155012038 0.013285199426138539 0.9925571848150644 -0.06914444933937035 0.006021683838115413 0.029256120114368057
0.11254689453939999 0.006438841327432141 0.031124213818922605 0.9920091054552334 -0.07333044078681701 0.0018306057635127581 0.014070724036386385 -0.0015885953976485716 -0.009037616278307634
 0.9920091054552334 -0.07333044078681701 0.006436508852356181 0.031124258978817043 -0.001588828144162841 -0.009037605104248808 0.0018501681327323894 0.014067958870931391
 0.0018306057635127581 0.014070724036386385 -0.001588828144162841 -0.009037605104248808 0.006438498884996348 0.03112278197993906 0.9920090328999568 -0.07333195466370881
 -0.0015885953976485716 -0.009037616278307634 0.0018501681327323894 0.014067958870931391 0.9920090328999568 -0.07333195466370881 0.00643672602803889 0.03112276101582678
0.11879949979160001 0.006872647751429346 0.03300509846227601 0.991436994946793 -0.07753051602601324 0.002011041816478984 0.014853260873978069 -0.0017438971617188416 -0.009542867169192042
 0.991436994946793 -0.07753051602601324 0.006870047433922421 0.03300514438140614 -0.001744155673061941 -0.009542853332373624 0.002032856246103546 0.01485010193888611
 0.002011041816478984 0.014853260873978069 -0.001744155673061941 -0.009542853332373624 0.0068722667314358625 0.0330035940303528 0.9914369140483976 -0.07753211564727681
 -0.0017438971617188416 -0.009542867169192042 0.002032856246103546 0.01485010193888611 0.9914369140483976 -0.07753211564727681 0.006870290541953828 0.033003564871687374
0.1250521050438 0.00732527166541785 0.034899871300715805 0.9908406406622825 -0.08174303733561607 0.0022005887162585267 0.01563508075552096 -0.0019070938634154733 -0.01004760491296743
 0.9908406406622825 -0.08174303733561607 0.007322388612153062 0.03489991771056937 -0.0019073794141634375 -0.01004758811354374 0.00222477975990171 0.015631491693246544
 0.0022005887162585267 0.01563508075552096 -0.0019073794141634375 -0.01004758811354374 0.007324850064064225 0.034898295368843694 0.9908405509051967 -0.0817447229942167
 -0.0019070938634154733 -0.01004760491296743 0.00222477975990171 0.015631491693246544 0.9908405509051967 -0.0817447229942167 0.007322659223409948 0.03489825691539557
0.131304710296 0.007796992727382933 0.036808255356011045 0.9902197670692254 -0.08596778667187226 0.0023993082005967755 0.01641604582694056 -0.0020782488854064777 -0.010551693001155223
 0.9902197670692254 -0.08596778667187226 0.007793811967395623 0.03680830197936862 -0.0020785627391659255 -0.010551672926825111 0.002426000613321563 0.016411988516133534
 0.0023993082005967755 0.01641604582694056 -0.0020785627391659255 -0.010551672926825111 0.007796528554493292 0.03680660907164902 0.9902196679249381 -0.0859695586795722
 -0.0020782488854064777 -0.010551693001155223 0.002426000613321563 0.016411988516133534 0.9902196679249381 -0.0859695586795722 0.007794111672332372 0.036806560170141916
0.1375573155481 0.008179378302752938 0.03848215000273607 0.9896828525142599 -0.08995660611582122 0.0025817815860284805 0.01717142492236212 -0.0022319129034240447 -0.011030439164710975
 0.9896828525142599 -0.08995660611582122 0.008175884361841773 0.038482197965991886 -0.0022322570891991503 -0.0110304158004014 0.002611029970257553 0.01716690551599132
 0.0025817815860284805 0.01717142492236212 -0.0022322570891991503 -0.0110304158004014 0.008178870328021542 0.03848043407400301 0.9896827435487436 -0.08995846465278537
 -0.0022319129034240447 -0.011030439164710975 0.002611029970257553 0.01716690551599132 0.9896827435487436 -0.08995846465278537 0.00817621382499223 0.03848037565559918
0.1438099208003 0.008575218289928976 0.040147361283479746 0.9891270777212904 -0.09393542950568433 0.002771612056542003 0.01792379889473698 -0.0023917173832404574 -0.011506396446971146
 0.9891270777212904 -0.09393542950568433 0.008571396029757452 0.04014741057274111 -0.002392093286404901 -0.011506369482070643 0.002803528780362018 0.01791878264553916
 0.002771612056542003 0.01792379889473698 -0.002392093286404901 -0.011506369482070643 0.008574664679299135 0.04014557686542709 0.9891269584070392 -0.09393737487584346
 -0.0023917173832404574 -0.011506396446971146 0.002803528780362018 0.01791878264553916 0.9891269584070392 -0.09393737487584346 0.008571756702529857 0.040145508088396314
0.1500625260525 0.008984375316499472 0.04180375335277351 0.9885525840766067 -0.09790416120798677 0.0029687346053773726 0.018673093208671023 -0.0025575985889495154 -0.011979493259134194
 0.9885525840766067 -0.09790416120798677 0.008980209526424657 0.041803803975959064 -0.0025580075934737486 -0.011979462370362083 0.0030034314177163385 0.018667544097271626
 0.0029687346053773726 0.018673093208671023 -0.0025580075934737486 -0.011979462370362083 0.008983774257921889 0.041801901644377845 0.9885524538750781 -0.09790619372774709
 -0.0025575985889495154 -0.011979493259134194 0.0030034314177163385 0.018667544097271626 0.9885524538750781 -0.09790619372774709 0.008980602868315412 0.04180182165726974
0.15631513130469998 0.009406711060863644 0.043451194465591474 0.9879595136568068 -0.10186270586373643 0.0031730834700013175 0.019419234596241598 -0.002729492011326507 -0.012449659508329733
