! Created with skrf 1.8.0 (http://scikit-rf.org).
# GHz S RI R 50.0 
!freq ReS11 ImS11 ReS12 ImS12 ReS13 ImS13
! ReS14 ImS14
! ReS21 ImS21 ReS22 ImS22 ReS23 ImS23
! ReS24 ImS24
! ReS31 ImS31 ReS32 ImS32 ReS33 ImS33
! ReS34 ImS34
! ReS41 ImS41 ReS42 ImS42 ReS43 ImS43
! ReS44 ImS44
!
0.0 0.001245212268067 0.0 0.9987547877204 0.0 4.789208572779e-05 0.0 -4.789208448407e-05 5.865088796791095e-21
 0.9987547877204 0.0 0.001245212268073 0.0 -4.789208448388e-05 5.865088796767826e-21 4.789208572706e-05 0.0
 4.789208572779e-05 0.0 -4.789208448388e-05 5.865088796767826e-21 0.00124521227374 0.0 0.9987547877261 0.0
 -4.789208448407e-05 5.865088796791095e-21 4.789208572706e-05 0.0 0.9987547877261 0.0 0.001245212273753 0.0
0.005 0.0013391222463571102 0.0010123520241875621 0.9986360779454264 -0.002609699957140094 6.765113593301123e-05 0.0005686718912176565 -6.55767655005331e-05 -0.00034991599484056606
 0.9986360779454264 -0.002609699957140094 0.0013391072750807977 0.001012360804111509 -6.55762637656492e-05 -0.0003499156726725525 6.774167196608351e-05 0.0005686374650498869
 6.765113593301123e-05 0.0005686718912176565 -6.55762637656492e-05 -0.0003499156726725525 0.0013391225279217492 0.0010124191531636511 0.9986360782783564 -0.0026096329024440854
 -6.55767655005331e-05 -0.00034991599484056606 6.774167196608351e-05 0.0005686374650498869 0.9986360782783564 -0.0026096329024440854 0.0013391076600050354 0.0010124277862394472
0.006252605252188 0.0013635491997809072 0.0012694830889571627 0.9986050390661304 -0.0032627983231987324 7.316402205048025e-05 0.0007111108538738564 -7.047678913654504e-05 -0.0004378694586644952
 0.9986050390661304 -0.0032627983231987324 0.0013635257965653393 0.001269494249070309 -7.047600786882173e-05 -0.00043786906254741014 7.330547839845378e-05 0.0007110661914317252
 7.316402205048025e-05 0.0007111108538738564 -7.047600786882173e-05 -0.00043786906254741014 0.0013635495665439692 0.0012695670129924026 0.9986050395137144 -0.003262714498060739
 -7.047678913654504e-05 -0.0004378694586644952 7.330547839845378e-05 0.0007110661914317252 0.9986050395137144 -0.003262714498060739 0.0013635263257236446 0.0012695779787783186
0.01250521050438 0.0014909569165097026 0.0025661166461893184 0.9984422341057656 -0.0065266212438311 0.00010408172810313919 0.0014225430332896849 -9.77795973472698e-05 -0.0008780381466150382
 0.9984422341057656 -0.0065266212438311 0.0014908634605915873 0.002566140820437018 -9.777651198521363e-05 -0.0008780374261920937 0.000104645870073143 0.001422436349254319
 0.00010408172810313919 0.0014225430332896849 -9.777651198521363e-05 -0.0008780374261920937 0.0014909578043067865 0.0025662842867520425 0.9984422353226631 -0.006526453867105044
 -9.77795973472698e-05 -0.0008780381466150382 0.000104645870073143 0.001422436349254319 0.9984422353226631 -0.006526453867105044 0.0014908650100875888 0.002566307962035353
0.01875781575657 0.0016276707274083383 0.003881729547873803 0.9982662012230853 -0.009799463036643571 0.0001407098497276964 0.002134848960398378 -0.00012987577906411327 -0.0013198435769427657
 0.9982662012230853 -0.009799463036643571 0.0016274607151703618 0.0038817686910841186 -0.00012986888935710114 -0.0013198426172285232 0.0001419772487144644 0.002134660011924391
 0.0001407098497276964 0.002134848960398378 -0.00012986888935710114 -0.0013198426172285232 0.0016276722848813186 0.003881980902947748 0.9982662035324609 -0.009799212191766517
 -0.00012987577906411327 -0.0013198435769427657 0.0001419772487144644 0.002134660011924391 0.9982662035324609 -0.009799212191766517 0.0016274637861283126 0.003882019122779465
0.02501042100875 0.0017739212273462398 0.005214509137728905 0.9980767633269436 -0.013082953755246358 0.0001831136272568409 0.002848100084095396 -0.0001668386736571326 -0.001763100857623726
 0.9980767633269436 -0.013082953755246358 0.001773548243343442 0.005214565289975955 -0.0001668264940293127 -0.0017630997582062206 0.00018536505489341034 0.0028478058717523198
 0.0001831136272568409 0.002848100084095396 -0.0001668264940293127 -0.0017630997582062206 0.0017739235958764152 0.0052148442203662285 0.9980767670513617 -0.013082619526082603
 -0.0001668386736571326 -0.001763100857623726 0.00018536505489341034 0.0028478058717523198 0.9980767670513617 -0.013082619526082603 0.0017735533440676576 0.0052148988951824125
0.03126302626094 0.0019299291794034963 0.00656354391227397 0.9978737328740703 -0.016377816510671946 0.00023135895677199882 0.0035622981737379643 -0.00020873984340932805 -0.0022076914674845167
 0.9978737328740703 -0.016377816510671946 0.001929346873181159 0.006563619195730032 -0.00020872090031188567 -0.002207690342743601 0.0002348756600373552 0.0035618729275356826
 0.00023135895677199882 0.0035622981737379643 -0.00020872090031188567 -0.002207690342743601 0.0019299324934722898 0.006563962766355395 0.9978737383352403 -0.016377398965803366
 -0.00020873984340932805 -0.0022076914674845167 0.0002348756600373552 0.0035618729275356826 0.9978737383352403 -0.016377398965803366 0.0019293545192113272 0.006564035878581763
0.037515631513130004 0.0020959107386243157 0.007928255711198042 0.9976569171986728 -0.019684435233278286 0.0002855117965352166 0.004277418073197528 -0.0002556496651828865 -0.0026535204996166795
 0.9976569171986728 -0.019684435233278286 0.0020950728098966982 0.007928352328419493 -0.00025562249583744326 -0.0026535194788373175 0.0002905756290783537 0.0042768332242516666
 0.0002855117965352166 0.004277418073197528 -0.00025562249583744326 -0.0026535194788373175 0.0020959151259312154 0.007928758405521215 0.9976569247169306 -0.019683934431966945
 -0.0002556496651828865 -0.0026535204996166795 0.0002905756290783537 0.0042768332242516666 0.9976569247169306 -0.019683934431966945 0.002095083523185238 0.007928852007675255
0.043768236765320004 0.002272079480600531 0.009308226932792412 0.9974261206453489 -0.023003027404417797 0.0003456378962418116 0.004993420690308238 -0.0003076375575350785 -0.0031005036627145873
 0.9974261206453489 -0.023003027404417797 0.0022709396678449404 0.009308347165639419 -0.00030760070912205344 -0.0031005028901660053 0.0003525313886037186 0.004992644838135374
 0.0003456378962418116 0.004993420690308238 -0.00030760070912205344 -0.0031005028901660053 0.0022720850612538424 0.009308813555114325 0.9974261305388038 -0.02300244340258767
 -0.0003076375575350785 -0.0031005036627145873 0.0003525313886037186 0.004992644838135374 0.9974261305388038 -0.02300244340258767 0.002270953975900644 0.00930892976844889
0.050020842017509996 0.002458647348353712 0.010703129141330097 0.9971811456212711 -0.026333715394432574 0.0004118026442709903 0.005710258363777129 -0.0003647720743826776 -0.0035485619038193644
 0.9971811456212711 -0.026333715394432574 0.0024571594195698346 0.010703275350069333 -0.0003647241036145342 -0.0035485615388136586 0.0004208090417600524 0.0057092572416503895
 0.0004118026442709903 0.005710258363777129 -0.0003647241036145342 -0.0035485615388136586 0.002458654237364833 0.010703799788211756 0.9971811582074187 -0.026333048254923653
 -0.0003647720743826776 -0.0035485619038193644 0.0004208090417600524 0.0057092572416503895 0.9971811582074187 -0.026333048254923653 0.0024571778572265086 0.010703940801693429
0.055454545454549996 0.0026293895919136325 0.011927253168247925 0.9969565857832938 -0.02923805696244167 0.00047425637119008615 0.006333848677709607 -0.00041865600996499237 -0.0039387517772359795
 0.9969565857832938 -0.02923805696244167 0.0026275616100351583 0.011927423928078655 -0.0004185972085876259 -0.003938751907502059 0.00048532954628010443 0.006332621707554226
 0.00047425637119008615 0.006333848677709607 -0.0004185972085876259 -0.003938751907502059 0.002629397706727983 0.011927996930035475 0.996956600966242 -0.029237317620365744
 -0.00041865600996499237 -0.0039387517772359795 0.00048532954628010443 0.006332621707554226 0.996956600966242 -0.029237317620365744 0.0026275840755534117 0.011928161325267785
0.056273447269699996 0.002655825154567963 0.012112687982906439 0.9969217932040334 -0.029676561491999893 0.000484070963285255 0.006427877486752721 -0.00042712094281819305 -0.003997618774717972
 0.9969217932040334 -0.029676561491999893 0.0026539428985067706 0.01211286260560088 -0.0004270604156459856 -0.003997618991664412 0.0004954742444475474 0.006426613926107593
 0.000484070963285255 0.006427877486752721 -0.0004270604156459856 -0.003997618991664412 0.00265583346129161 0.012113442772788675 0.9969218087992787 -0.02967581127145876
 -0.00042712094281819305 -0.003997618774717972 0.0004954742444475474 0.006426613926107593 0.9969218087992787 -0.02967581127145876 0.002653966006971214 0.012113610842269735
0.06252605252188 0.0028638228602395214 0.013536663951587717 0.9966478635296036 -0.033031587083711456 0.0005625072293216595 0.00714621995311716 -0.0004947510728946015 -0.004447598976556145
 0.9966478635296036 -0.033031587083711456 0.002861500078746968 0.013536869503658816 -0.0004946765643097581 -0.004447599965011604 0.0005765921117869649 0.007144653847493806
 0.0005625072293216595 0.00714621995311716 -0.0004946765643097581 -0.004447599965011604 0.002863832688445451 0.013537503014621574 0.996647882448525 -0.033030753842781556
 -0.0004947510728946015 -0.004447598976556145 0.0005765921117869649 0.007144653847493806 0.996647882448525 -0.033030753842781556 0.0028615284053431908 0.013537700462254743
0.06877865777407 0.0030828497339176948 0.014974840878239434 0.9963591560605992 -0.03639878411188238 0.0006471752057432487 0.007865224012246175 -0.0005677285494979968 -0.004898427497289053
 0.9963591560605992 -0.03639878411188238 0.003080040234218932 0.014975079952240088 -0.0005676386434298777 -0.004898429462005938 0.0006642271432646888 0.007863312280966485
 0.0006471752057432487 0.007865224012246175 -0.0005676386434298777 -0.004898429462005938 0.003082861183235478 0.014975764357773123 0.9963591786172592 -0.036397867913803755
 -0.0005677285494979968 -0.004898427497289053 0.0006642271432646888 0.007863312280966485 0.9963591786172592 -0.036397867913803755 0.0030800743334305045 0.014975993571579568
0.07503126302626001 0.0033131144452053867 0.016427018651547828 0.9960554697926755 -0.03977812230158482 0.0007381379843297026 0.008584824813938841 -0.0006461186148714044 -0.005350029060444622
 0.9960554697926755 -0.03977812230158482 0.003309772032800826 0.016427293917073045 -0.000646011904166162 -0.005350032221407887 0.0007584431571901106 0.008582521365696953
 0.0007381379843297026 0.008584824813938841 -0.000646011904166162 -0.005350032221407887 0.0033131276102107508 0.01642802670818283 0.996055496299055 -0.03977712320808971
 -0.0006461186148714044 -0.005350029060444622 0.0007584431571901106 0.008582521365696953 0.996055496299055 -0.03977712320808971 0.00330981246469819 0.016428290141836274
0.08128386827845 0.0035548251077399764 0.017893008375241597 0.995736603410923 -0.04316955395295414 0.0008354579315778002 0.009304954764589871 -0.0007299856440293377 -0.005802327764257478
 0.995736603410923 -0.04316955395295414 0.0035509035791864755 0.017893322579000934 -0.0007298607304355997 -0.005802332356729986 0.0008593032320393526 0.009302210461038707
 0.0008354579315778002 0.009304954764589871 -0.0007298607304355997 -0.005802332356729986 0.0035548400796047274 0.017894101177977455 0.9957366341782653 -0.04316847203311235
 -0.0007299856440293377 -0.005802327764257478 0.0008593032320393526 0.009302210461038707 0.9957366341782653 -0.04316847203311235 0.003550950910746442 0.017894401350714264
0.08753647353064001 0.0038081893000920385 0.01937262900349651 0.995402355427033 -0.04657301725690383 0.0009391966378928468 0.01002554377895084 -0.0008193931157295032 -0.00625524682695951
 0.995402355427033 -0.04657301725690383 0.0038036424357478595 0.019372984969642817 -0.0008192486099025025 -0.006255253101511387 0.000966869651639035 0.010022306398383057
 0.0009391966378928468 0.01002554377895084 -0.0008192486099025025 -0.006255253101511387 0.0038082061660171798 0.019373806736718933 0.9954023907648664 -0.04657185258022834
 -0.0008193931157295032 -0.00625524682695951 0.000966869651639035 0.010022306398383057 0.9954023907648664 -0.04657185258022834 0.003803697239986247 0.01937414623349288
0.09378907878283 0.004073414062031912 0.020865704948514693 0.9950525242936972 -0.04998843864064058 0.0010494148686581231 0.010746519453716182 -0.0009144035802097671 -0.006708708412063912
 0.9950525242936972 -0.04998843864064058 0.004068195619041836 0.020866105579059255 -0.0009142381017727092 -0.006708716634615076 0.0010812038528748267 0.01074273365485101
 0.0010494148686581231 0.010746519453716182 -0.0009142381017727092 -0.006708716634615076 0.004073432905613974 0.020866967810523905 0.9950525645097599 -0.04998719127842314
 -0.0009144035802097671 -0.006708708412063912 0.0010812038528748267 0.01074273365485101 0.9950525645097599 -0.04998719127842314 0.004068258474896309 0.02086734928230847
0.100041684035 0.004350705878438366 0.02237206432477209 0.9946869085082657 -0.053415734478262096 0.0011661725164526379 0.011467807202910116 -0.0010150786243935252 -0.007162633493731732
 0.9946869085082657 -0.053415734478262096 0.004344769583897871 0.02237251260023768 -0.0010148908020408654 -0.007162643945569543 0.0012023663752765102 0.011463414488941536
 0.0011661725164526379 0.011467807202910116 -0.0010148908020408654 -0.007162643945569543 0.004350726780702661 0.02237341252549762 0.9946869539090561 -0.0534144045058982
 -0.0010150786243935252 -0.007162633493731732 0.0012023663752765102 0.011463414488941536 0.9946869539090561 -0.0534144045058982 0.004344841076551583 0.022373838689781406
0.1059090909091 0.004622073116586061 0.023797552934051558 0.9943292815318949 -0.056642605609340604 0.001281737257425576 0.012144874810957438 -0.0011147573318318815 -0.0075889440622061675
 0.9943292815318949 -0.056642605609340604 0.004615421076481599 0.023798048700683645 -0.001114547303010307 -0.007588956875547982 0.0013223279315429804 0.01213985652691515
 0.001281737257425576 0.012144874810957438 -0.001114547303010307 -0.007588956875547982 0.004622096021890349 0.02379898141899941 0.9943293320753677 -0.056641198186781316
 -0.0011147573318318815 -0.0075889440622061675 0.0013223279315429804 0.01213985652691515 0.9943293320753677 -0.056641198186781316 0.004615501211428167 0.023799452053866212
0.1062942892872 0.004640270653399548 0.023891537614872043 0.9943053067087099 -0.056854812381875695 0.0012895285542726363 0.012189330353950742 -0.0011214788351541001 -0.007616941763505015
 0.9943053067087099 -0.056854812381875695 0.004633570196890895 0.023892036595167945 -0.001121267306687809 -0.007616954741325836 0.0013304168117526886 0.012184269036678203
 0.0012895285542726363 0.012189330353950742 -0.001121267306687809 -0.007616954741325836 0.004640293692549802 0.023892971377835203 0.9943053575990332 -0.05685339987694572
 -0.0011214788351541001 -0.007616941763505015 0.0013304168117526886 0.012184269036678203 0.9943053575990332 -0.05685339987694572 0.004633650917511882 0.023893445019349265
0.11254689453939999 0.0049423136751256995 0.02542395666300377 0.9939075177625188 -0.06030557216729118 0.001419540989351836 0.01291101022490907 -0.0012336637607526391 -0.008071551557728786
 0.9939075177625188 -0.06030557216729118 0.004934802701800088 0.02542450948842091 -0.0012334271732386225 -0.00807156737364372 0.0014654137603020694 0.01290521538930867
 0.001419540989351836 0.01291101022490907 -0.0012334271732386225 -0.00807156737364372 0.004942338927209919 0.02542547622424246 0.9939075744453935 -0.06030407721049336
 -0.0012336637607526391 -0.008071551557728786 0.0014654137603020694 0.01290521538930867 0.9939075744453935 -0.06030407721049336 0.004934893247375203 0.025426000195880677
0.11879949979160001 0.005257039575503137 0.026969153877004128 0.9934933408519057 -0.06376790661327122 0.0015562668169730638 0.013632766184885443 -0.0013516918714517232 -0.008526379804133746
 0.9934933408519057 -0.06376790661327122 0.005248671678864741 0.026969763769450195 -0.0013514288812995659 -0.008526398785702015 0.001607414775888503 0.013626169653823735
 0.0015562668169730638 0.013632766184885443 -0.0013514288812995659 -0.008526398785702015 0.0052570671145189905 0.026970759484990683 0.993493403628411 -0.06376632928844368
 -0.0013516918714517232 -0.008526379804133746 0.001607414775888503 0.013626169653823735 0.993493403628411 -0.06376632928844368 0.0052487726520528775 0.026971336708912504
0.1250521050438 0.005584652284010987 0.028526961604008704 0.9930625755549538 -0.06724170204937453 0.0016997619745490048 0.014354515706448042 -0.001475620518821604 -0.008981341978373868
 0.9930625755549538 -0.06724170204937453 0.005575380998573727 0.02852763186851144 -0.0014753297919248886 -0.00898136446860952 0.0017564763228829854 0.014347046005794582
 0.0016997619745490048 0.014354515706448042 -0.0014753297919248886 -0.00898136446860952 0.0055846821825296595 0.02852865351950574 0.9930626447244596 -0.06724004244374954
 -0.001475620518821604 -0.008981341978373868 0.0017564763228829854 0.014347046005794582 0.9930626447244596 -0.06724004244374954 0.0055754930078343356 0.028529286988497986
0.131304710296 0.00592535497840815 0.030097211624420563 0.9926150219258523 -0.07072683882818935 0.001850081295769817 0.015076174404704042 -0.0016055058941957191 -0.00943635207617358
 0.9926150219258523 -0.07072683882818935 0.005915133772521449 0.030097945650755395 -0.001605186106070626 -0.009436378433560247 0.0019126537276242357 0.015067756728816273
 0.001850081295769817 0.015076174404704042 -0.001605186106070626 -0.009436378433560247 0.005925387307806926 0.030098990122216115 0.9926150977857009 -0.07072509703040109
 -0.0016055058941957191 -0.00943635207617358 0.0019126537276242357 0.015067756728816273 0.9926150977857009 -0.07072509703040109 0.005915257431872191 0.030099682901271376
0.1375573155481 0.006194883844220372 0.03147263924281719 0.9922349706457435 -0.07401602463579676 0.0019861068180573593 0.01577561476651038 -0.0017201603340753558 -0.009869341718452917
 0.9922349706457435 -0.07401602463579676 0.0061836635007393335 0.03147342293956108 -0.0017198097277627005 -0.009869371925758423 0.002054682691676255 0.015766271237638116
 0.0019861068180573593 0.01577561476651038 -0.0017198097277627005 -0.009869371925758423 0.006194919458387068 0.03147450423482141 0.9922350534959861 -0.07401420073937302
 -0.0017201603340753558 -0.009869341718452917 0.002054682691676255 0.015766271237638116 0.9922350534959861 -0.07401420073937302 0.0061837986414243025 0.03147524265448492
0.1438099208003 0.006473649274775685 0.03284181398690809 0.9918419952664077 -0.0772979220350894 0.0021276250376572846 0.016473015836251218 -0.0018394298760863533 -0.010300438437371436
 0.9918419952664077 -0.0772979220350894 0.006461382774393762 0.03284264954665986 -0.0018390470629320004 -0.01030047283783584 0.002202470235146289 0.01646267905061234
 0.0021276250376572846 0.016473015836251218 -0.0018390470629320004 -0.01030047283783584 0.006473688386432785 0.032843765725500865 0.9918420854016322 -0.07729601613578427
 -0.0018394298760863533 -0.010300438437371436 0.002202470235146289 0.01646267905061234 0.9918420854016322 -0.07729601613578427 0.006461529876916137 0.032844551725518964
0.1500625260525 0.006761566248412642 0.034204651981427366 0.9914361838552347 -0.08057248129869272 0.0022745954756431368 0.01716833205049728 -0.0019632745277600944 -0.010729596746087743
 0.9914361838552347 -0.08057248129869272 0.006748206494062551 0.03420554172370335 -0.0019628581230614747 -0.010729635696391524 0.002355974641067613 0.01715693216948845
 0.0022745954756431368 0.01716833205049728 -0.0019628581230614747 -0.010729635696391524 0.006761609078845821 0.03420669072799956 0.9914362815678102 -0.08057049349626917
 -0.0019632745277600944 -0.010729596746087743 0.002355974641067613 0.01715693216948845 0.9914362815678102 -0.08057049349626917 0.006748366035179183 0.03420752636771791
0.15631513130469998 0.007058549286798172 0.03556107206630967 0.9910176247667305 -0.08383965227794132 0.002426977272017681 0.017861518473724407 -0.002091653890858317 -0.011156772027079197
