! Created with skrf 1.8.0 (http://scikit-rf.org).
# GHz S RI R 50.0 
!freq ReS11 ImS11 ReS12 ImS12 ReS13 ImS13
! ReS14 ImS14
! ReS21 ImS21 ReS22 ImS22 ReS23 ImS23
! ReS24 ImS24
! ReS31 ImS31 ReS32 ImS32 ReS33 ImS33
! ReS34 ImS34
! ReS41 ImS41 ReS42 ImS42 ReS43 ImS43
! ReS44 ImS44
!
0.0 0.001572483511947 0.0 0.9984275164824 0.0 6.079142335208e-05 0.0 -6.07914230855e-05 7.444802169727008e-21
 0.9984275164824 0.0 0.001572483511977 0.0 -6.079142308623e-05 7.444802169816407e-21 6.079142335258e-05 0.0
 6.079142335208e-05 0.0 -6.079142308623e-05 7.444802169816407e-21 0.001572483502036 0.0 0.9984275164724 0.0
 -6.07914230855e-05 7.444802169727008e-21 6.079142335258e-05 0.0 0.9984275164724 0.0 0.001572483502024 0.0
0.005 0.0016919574387938485 0.0012847298168331858 0.9982763372415695 -0.0032939020587083737 8.554518258973804e-05 0.00067974404425394 -8.29415445926561e-05 -0.00042492444963310606
 0.9982763372415695 -0.0032939020587083737 0.0016919840772424792 0.001284714279328223 -8.294518326877446e-05 -0.00042492725233827584 8.535306577166614e-05 0.0006798169312209101
 8.554518258973804e-05 0.00067974404425394 -8.294518326877446e-05 -0.00042492725233827584 0.0016919551762719436 0.0012846639074662726 0.9982763368858913 -0.0032939691200915256
 -8.29415445926561e-05 -0.00042492444963310606 8.535306577166614e-05 0.0006798169312209101 0.9982763368858913 -0.0032939691200915256 0.0016919856360887388 0.001284646072581071
0.006252605252188 0.0017233141616809333 0.0016109700557962847 0.9982364008195022 -0.004118179725204135 9.265091581179898e-05 0.0008500016765384747 -8.920704731830531e-05 -0.0005317055945117338
 0.9982364008195022 -0.004118179725204135 0.0017233558029458003 0.0016109503747018495 -8.921270935108576e-05 -0.0005317090502293475 9.235074802176764e-05 0.0008500963719936677
 9.265091581179898e-05 0.0008500016765384747 -8.921270935108576e-05 -0.0005317090502293475 0.0017233106947997755 0.0016108876794809174 0.9982364003334869 -0.004118263548769769
 -8.920704731830531e-05 -0.0005317055945117338 9.235074802176764e-05 0.0008500963719936677 0.9982364003334869 -0.004118263548769769 0.00172335831027022 0.0016108651187662984
0.01250521050438 0.0018885131545393799 0.0032557077900915196 0.9980245692509885 -0.008237142190640919 0.00013357722231782852 0.0017003046858551456 -0.00012481947857492556 -0.0010659805785686173
 0.9980245692509885 -0.008237142190640919 0.0018886794328611374 0.003255665850543873 -0.00012484179154257925 -0.0010659869665823648 0.00013238012057437487 0.0017005327861080901
 0.00013357722231782852 0.0017003046858551456 -0.00012484179154257925 -0.0010659869665823648 0.0018884998517460585 0.003255543385408973 0.9980245678533608 -0.008237309601071151
 -0.00012481947857492556 -0.0010659805785686173 0.00013238012057437487 0.0017005327861080901 0.9980245678533608 -0.008237309601071151 0.001888689995943665 0.0032554955735813545
0.01875781575657 0.002068447485334157 0.0049238520564186955 0.9977917541423984 -0.012366906999395584 0.00018366458536031498 0.0025514807494032795 -0.000167739923681621 -0.0016020376238499035
 0.9977917541423984 -0.012366906999395584 0.0020688211266726387 0.004923785157600382 -0.00016778968159082342 -0.0016020463178372942 0.00018097518802647316 0.0025518885904530254
 0.00018366458536031498 0.0025514807494032795 -0.00016778968159082342 -0.0016020463178372942 0.0020684180089599476 0.0049236059040123886 0.9977917514193537 -0.012367157933184861
 -0.000167739923681621 -0.0016020376238499035 0.00018097518802647316 0.0025518885904530254 0.9977917514193537 -0.012367157933184861 0.002068845297685072 0.0049235299253434775
0.02501042100875 0.0022634729134491625 0.006613057014529364 0.9975376771529099 -0.016509467143199154 0.00024300928105278795 0.003403558919970857 -0.00021807577931383637 -0.0021396259738413726
 0.9975376771529099 -0.016509467143199154 0.002264136485960234 0.006612962365504125 -0.00021816364682638304 -0.002139636233690739 0.0002382318664736907 0.0034042002223769524
 0.00024300928105278795 0.003403558919970857 -0.00021816364682638304 -0.002139636233690739 0.00226342093198324 0.006612729456796037 0.9975376726846228 -0.016509801578476396
 -0.00021807577931383637 -0.0021396259738413726 0.0002382318664736907 0.0034042002223769524 0.9975376726846228 -0.016509801578476396 0.002264179812108475 0.0066126222090602815
0.03126302626094 0.0024739304606044158 0.008322111007341593 0.9972620459661903 -0.02066567010850217 0.00031170819784220383 0.004256488573651657 -0.000275931290480593 -0.002678568323998349
 0.9972620459661903 -0.02066567010850217 0.0024749664248426314 0.008321985735322439 -0.00027606782485779216 -0.002678579294501756 0.00030424614132064213 0.0042574244901752885
 0.00031170819784220383 0.004256488573651657 -0.00027606782485779216 -0.002678579294501756 0.002473849653197512 0.008321702450361722 0.9972620393325035 -0.020666088063540904
 -0.000275931290480593 -0.002678568323998349 0.00030424614132064213 0.0042574244901752885 0.9972620393325035 -0.020666088063540904 0.0024750344580105805 0.008321560652744699
0.037515631513130004 0.0027001536813993096 0.010050220651785704 0.9969645617987615 -0.024835933725645555 0.000389857753385221 0.00511018749502516 -0.0003414083163384202 -0.003218712729150924
 0.9969645617987615 -0.024835933725645555 0.002701644425639741 0.01005006180689886 -0.00034160397861587004 -0.0032187234395976458 0.00037911328589868573 0.005111486688153157
 0.000389857753385221 0.00511018749502516 -0.00034160397861587004 -0.0032187234395976458 0.002700037734195459 0.010049731577977127 0.9969645525749762 -0.024836435246940795
 -0.0003414083163384202 -0.003218712729150924 0.00037911328589868573 0.005111486688153157 0.9969645525749762 -0.024836435246940795 0.0027017427210421587 0.010049551774958195
0.043768236765320004 0.002942471468036466 0.011796792955229382 0.9966449224483057 -0.02902046398218008 0.0004775533866621932 0.005964556521942184 -0.00041460660249790794 -0.0037599179606380884
 0.9966449224483057 -0.02902046398218008 0.002944499337310316 0.011796597514057665 -0.00041487176403461957 -0.00375992732470265 0.0004629274826243399 0.005966295250651237
 0.0004775533866621932 0.005964556521942184 -0.00041487176403461957 -0.00375992732470265 0.0029423140746240657 0.011796223933732768 0.9966449102053945 -0.029021049134974504
 -0.00041460660249790794 -0.0037599179606380884 0.0004629274826243399 0.005966295250651237 0.9966449102053945 -0.029021049134974504 0.002944633455454554 0.011796002497256606
0.050020842017509996 0.003201209347997731 0.013561345278298456 0.9963028238404704 -0.03321934498803066 0.0005748892545912037 0.0068194855889822025 -0.0004956238759305655 -0.004302047469610369
 0.9963028238404704 -0.03321934498803066 0.0032038566707129137 0.013561110146207308 -0.000495968822659991 -0.004302054285308868 0.0005557815881907534 0.006821747799339867
 0.0005748892545912037 0.0068194855889822025 -0.000495968822659991 -0.004302054285308868 0.003201004210840121 0.013560696958473959 0.9963028081451466 -0.0332200138637723
 -0.0004956238759305655 -0.004302047469610369 0.0005557815881907534 0.006821747799339867 0.9963028081451466 -0.0332200138637723 0.003204032179016696 0.013560430089084766
0.055454545454549996 0.003439646316816548 0.01510907205477033 0.995987053233095 -0.03687996077866984 0.000667378128977812 0.00756280818942072 -0.0005724547099956617 -0.004773820349396517
 0.995987053233095 -0.03687996077866984 0.0034428988292945716 0.01510879986285629 -0.0005728772816046604 -0.0047738238845205895 0.0006438871253411105 0.007565599535199639
 0.000667378128977812 0.00756280818942072 -0.0005728772816046604 -0.0047738238845205895 0.0034393945815930924 0.015108355421345428 0.9959870341814836 -0.03688070249806788
 -0.0005724547099956617 -0.004773820349396517 0.0006438871253411105 0.007565599535199639 0.9959870341814836 -0.03688070249806788 0.0034431148344502335 0.01510804585080346
0.056273447269699996 0.0034766901502956858 0.015343461135556654 0.9959379609471909 -0.037432583104259814 0.0006819580191747158 0.007674856688117056 -0.0005845558605650885 -0.0048449664376626934
 0.9959379609471909 -0.037432583104259814 0.0034800392623699724 0.015343183148440381 -0.0005849907957000511 -0.004844969387378975 0.0006577669620901465 0.007677734105473925
 0.0006819580191747158 0.007674856688117056 -0.0005849907957000511 -0.004844969387378975 0.003476430980770734 0.015342734257880245 0.995937941360588 -0.037433335810584605
 -0.0005845558605650885 -0.0048449664376626934 0.0006577669620901465 0.007677734105473925 0.995937941360588 -0.037433335810584605 0.0034802617359016574 0.015342417984923619
0.06252605252188 0.003769234355818529 0.017142765910973037 0.995550028395081 -0.041660131160381746 0.0007988506768828739 0.008530545512261331 -0.0006814962552252704 -0.005388540149237588
 0.995550028395081 -0.041660131160381746 0.0037733676246768343 0.01714244183615072 -0.0006820313011582914 -0.0053885377997487495 0.000768973323559614 0.008534137734069318
 0.0007988506768828739 0.008530545512261331 -0.0006820313011582914 -0.0053885377997487495 0.0037689148749098286 0.017141961299407617 0.9955500044720725 -0.04166096782967297
 -0.0006814962552252704 -0.005388540149237588 0.000768973323559614 0.008534137734069318 0.9955500044720725 -0.04166096782967297 0.0037736426465865332 0.017141591480549404
0.06877865777407 0.00407916027906632 0.018958912365062537 0.9951387209081806 -0.04590190288407712 0.0009256564155146423 0.00938642243030809 -0.0007865366863482814 -0.0059326330374301845
 0.9951387209081806 -0.04590190288407712 0.004084160126522482 0.018958538901502998 -0.0007871818858391057 -0.005932623839983593 0.0008894886276827665 0.009390837018913573
 0.0009256564155146423 0.00938642243030809 -0.0007871818858391057 -0.005932623839983593 0.0040787742180910394 0.018958030934708565 0.9951386921966238 -0.045902823666759955
 -0.0007865366863482814 -0.0059326330374301845 0.0008894886276827665 0.009390837018913573 0.9951386921966238 -0.045902823666759955 0.004084493288808655 0.01895760325457815
0.07503126302626001 0.004406784146983477 0.020791571456498063 0.9947037336536306 -0.05015778202150368 0.0010624624844690757 0.010242353114865934 -0.0008997666475531185 -0.00647710808222094
 0.9947037336536306 -0.05015778202150368 0.004412733072958136 0.020791145234227423 -0.0009005319645797572 -0.006477090372590084 0.0010193989505430463 0.010247705689951692
 0.0010624624844690757 0.010242353114865934 -0.0009005319645797572 -0.006477090372590084 0.0044063252490208 0.02079061420997403 0.9947036996936909 -0.050158787090505336
 -0.0008997666475531185 -0.00647710808222094 0.0010193989505430463 0.010247705689951692 0.9947036996936909 -0.050158787090505336 0.00441312997706259 0.020790124178214166
0.08128386827845 0.004752420117149421 0.02264042623547741 0.9942447625282983 -0.054427628391111565 0.0012093540744121235 0.011098198965891119 -0.0010212734301331984 -0.007021826418098215
 0.9942447625282983 -0.054427628391111565 0.004759400722096602 0.022639943814363125 -0.001022168750262875 -0.007021798416682012 0.0011587883800644734 0.011104613296236831
 0.0012093540744121235 0.011098198965891119 -0.001022168750262875 -0.007021798416682012 0.0047518821377294 0.022639394269886187 0.994244722851757 -0.05442871793570798
 -0.0010212734301331984 -0.007021826418098215 0.0011587883800644734 0.011104613296236831 0.994244722851757 -0.05442871793570798 0.004759866979778795 0.022638837218296286
0.08753647353064001 0.005116380250569655 0.02450516762360451 0.9937615044058751 -0.05871128205661348 0.001366414203569769 0.01195381740788211 -0.0011511420462126504 -0.007566647073598759
 0.9937615044058751 -0.05871128205661348 0.005124475258744356 0.02450462549133474 -0.00115217717687816 -0.0075666068855121775 0.0013077389116071439 0.011961425502241005
 0.001366414203569769 0.01195381740788211 -0.00115217717687816 -0.0075666068855121775 0.005115756959111509 0.024504062125384453 0.9937614585353494 -0.0587124562884589
 -0.0011511420462126504 -0.007566647073598759 0.0013077389116071439 0.011961425502241005 0.9937614585353494 -0.0587124562884589 0.0051250164922092434 0.024503433204523358
0.09378907878283 0.005498974457464796 0.02638549139589472 0.9932536573599771 -0.06300856630416546 0.0015337236069264334 0.01280906211454873 -0.0012894551484785586 -0.008111426788985335
 0.9932536573599771 -0.06300856630416546 0.005508266740256176 0.026384885965218995 -0.001290639818935688 -0.008111372404186834 0.0014663303451041174 0.012818004311515172
 0.0015337236069264334 0.01280906211454873 -0.001290639818935688 -0.008111372404186834 0.0054982596382836596 0.026384313646180647 0.9932536048081808 -0.06300982545265786
 -0.0012894551484785586 -0.008111426788985335 0.0014663303451041174 0.012818004311515172 0.9932536048081808 -0.06300982545265786 0.005508888582950369 0.026383607820951487
0.100041684035 0.005900510420909399 0.02828109597960156 0.9927209208682888 -0.06731928980878579 0.0017113606294529523 0.013663783174730054 -0.001436292945365365 -0.008656019898483792
 0.9927209208682888 -0.06731928980878579 0.005911083019833009 0.02828042358466844 -0.001437636806511863 -0.00865594919189896 0.0016346401848326567 0.013674208231383773
 0.0017113606294529523 0.013663783174730054 -0.001437636806511863 -0.00865594919189896 0.0058996978743195505 0.02827984735126351 0.9927208611373309 -0.06732063412472244
 -0.001436292945365365 -0.008656019898483792 0.0016346401848326567 0.013674208231383773 0.9927208611373309 -0.06732063412472244 0.005911791116820846 0.028279059395881084
0.1059090909091 0.0062948087014258365 0.030073549793010003 0.9921981011968254 -0.07137648764062027 0.0018875145887306665 0.014465235425634637 -0.0015819069884467662 -0.00916676110597327
 0.9921981011968254 -0.07137648764062027 0.00630665843909452 0.030072811151361782 -0.001583408940537249 -0.009166673048051709 0.0018014868390975908 0.014477194857647528
 0.0018875145887306665 0.014465235425634637 -0.001583408940537249 -0.009166673048051709 0.006293898825094921 0.03007223598602151 0.9921980342656549 -0.07137791212188867
 -0.0015819069884467662 -0.00916676110597327 0.0018014868390975908 0.014477194857647528 0.9921980342656549 -0.07137791212188867 0.0063074526214006894 0.03007136603234141
0.1062942892872 0.006321293505253827 0.030191680791340447 0.9921629960056277 -0.0716432482692223 0.001899401120001416 0.014517827236652398 -0.0015917331148427763 -0.009200278240000075
 0.9921629960056277 -0.0716432482692223 0.006333229655877182 0.03019093768335697 -0.0015932457389657068 -0.009200188971674603 0.0018127435392473776 0.014529892415940517
 0.001899401120001416 0.014517827236652398 -0.0015932457389657068 -0.009200188971674603 0.006320377049143978 0.030190362752312138 0.9921629285858726 -0.0716446780222317
 -0.0015917331148427763 -0.009200278240000075 0.0018127435392473776 0.014529892415940517 0.9921629285858726 -0.0716446780222317 0.006334029664319161 0.030189487244335858
0.11254689453939999 0.006761626652849265 0.03211694497800914 0.9915795856275388 -0.07598022564581419 0.0020979183277947664 0.01537103761516832 -0.001755850715290368 -0.009744051107983329
 0.9915795856275388 -0.07598022564581419 0.006775009808066101 0.03211612731996649 -0.0017575415956405434 -0.00974394092324516 0.0020007130226036033 0.015384908771763794
 0.0020979183277947664 0.01537103761516832 -0.0017575415956405434 -0.00974394092324516 0.0067606001238271545 0.032115559092670026 0.9915795099971894 -0.07598174112350757
 -0.001755850715290368 -0.009744051107983329 0.0020007130226036033 0.015384908771763794 0.9915795099971894 -0.07598174112350757 0.006775907397513388 0.03211459040636046
0.11879949979160001 0.007221810271079484 0.034056586433089946 0.9909703945485231 -0.08032999512996324 0.002306982799123905 0.016223254394035172 -0.0019287180954891943 -0.010287185217342612
 0.9909703945485231 -0.08032999512996324 0.00723672412517292 0.034055690293661345 -0.0019305966457905195 -0.010287051646982787 0.0021986186568127724 0.016239106058704208
 0.002306982799123905 0.016223254394035172 -0.0019305966457905195 -0.010287051646982787 0.007220667525948058 0.03405513436187413 0.9909703101726629 -0.0803315966389842
 -0.0019287180954891943 -0.010287185217342612 0.0021986186568127724 0.016239106058704208 0.9909703101726629 -0.0803315966389842 0.007237724978505812 0.03405406666040721
0.1250521050438 0.007702142112503588 0.036010301026754905 0.9903351297149426 -0.08469231990700071 0.0025266622756894308 0.017074314511536515 -0.0021104048030955187 -0.010829524690259164
 0.9903351297149426 -0.08469231990700071 0.0077186706253054215 0.03600932237328335 -0.0021124803569816508 -0.010829365150745517 0.0024065277737374685 0.017092329973846385
 0.0025266622756894308 0.017074314511536515 -0.0021124803569816508 -0.010829365150745517 0.007700877029662308 0.03600878452477091 0.9903350360447776 -0.0846940077749254
 -0.0021104048030955187 -0.010829524690259164 0.0024065277737374685 0.017092329973846385 0.9903350360447776 -0.0846940077749254 0.007719780438453628 0.03600761175190749
0.131304710296 0.008202917148425118 0.03797778198910858 0.9896735003747433 -0.08906695377346467 0.0027570215929926707 0.0179240518429893 -0.0023009774927186485 -0.011370911052503721
 0.9896735003747433 -0.08906695377346467 0.008221144569318738 0.03797671667968971 -0.002303259303045459 -0.011370722846208634 0.0026245049181213486 0.017944423232215487
 0.0027570215929926707 0.0179240518429893 -0.002303259303045459 -0.011370722846208634 0.008201523629390818 0.037976202911477096 0.9896733968469057 -0.08906872834390213
 -0.0023009774927186485 -0.011370911052503721 0.0026245049181213486 0.017944423232215487 0.9896733968469057 -0.08906872834390213 0.008222369052275667 0.037974918782033684
0.1375573155481 0.00861060963618542 0.03970198271305505 0.9890990791921885 -0.09319679183103755 0.0029699987989459217 0.018746782624909752 -0.0024725352759469113 -0.011885570182995386
 0.9890990791921885 -0.09319679183103755 0.008630627475131073 0.039700849885649 -0.002475037089128145 -0.011885353040835565 0.0028248039777857563 0.01876948334287959
 0.0029699987989459217 0.018746782624909752 -0.002475037089128145 -0.011885353040835565 0.008609082103056876 0.039700342800625024 0.9890989653481495 -0.09319865330332716
 -0.0024725352759469113 -0.011885570182995386 0.0028248039777857563 0.01876948334287959 0.9890989653481495 -0.09319865330332716 0.008631971635614721 0.03969896430467693
0.1438099208003 0.009032673173416968 0.04141687306275118 0.9885043827430023 -0.09731593219545732 0.0031915931401888223 0.019565964794847904 -0.0026509490679609694 -0.012397054319534183
 0.9885043827430023 -0.09731593219545732 0.009054567177790745 0.041415669743946636 -0.0026536808298497708 -0.01239680558269601 0.0030331649866467214 0.019591170712297767
 0.0031915931401888223 0.019565964794847904 -0.0026536808298497708 -0.01239680558269601 0.0090310056528242 0.04141517423462946 0.9885042580195583 -0.09731788090583969
 -0.0026509490679609694 -0.012397054319534183 0.0030331649866467214 0.019591170712297767 0.9885042580195583 -0.09731788090583969 0.00905603661939563 0.04141369619108704
0.1500625260525 0.009468955512721582 0.043122303063987136 0.9878895674134638 -0.1014242656475636 0.003421726685746518 0.02038150719524911 -0.0028361446203851886 -0.012905280306296448
 0.9878895674134638 -0.1014242656475636 0.009492811744450958 0.04312102602580152 -0.0028391162534946077 -0.012904997209130542 0.003249513385204643 0.020409400605158147
 0.003421726685746518 0.02038150719524911 -0.0028391162534946077 -0.012904997209130542 0.009467142059193853 0.043120547316210706 0.9878894312353823 -0.10142630194496509
 -0.0028361446203851886 -0.012905280306296448 0.003249513385204643 0.020409400605158147 0.9878894312353823 -0.10142630194496509 0.009494412076553705 0.04311896419915093
0.15631513130469998 0.009919303283305958 0.044818127262577986 0.9872547904306955 -0.10552168349940438 0.003660320551468192 0.02119332023828738 -0.0030280467461741064 -0.013410166784611512
