! Created with skrf 1.8.0 (http://scikit-rf.org).
# GHz S RI R 50.0 
!freq ReS11 ImS11 ReS12 ImS12 ReS13 ImS13
! ReS14 ImS14
! ReS21 ImS21 ReS22 ImS22 ReS23 ImS23
! ReS24 ImS24
! ReS31 ImS31 ReS32 ImS32 ReS33 ImS33
! ReS34 ImS34
! ReS41 ImS41 ReS42 ImS42 ReS43 ImS43
! ReS44 ImS44
!
0.0 0.001549549361561 0.0 0.9984504506328 0.0 6.015592274524e-05 0.0 -6.015592318908e-05 7.366975878326086e-21
 0.9984504506328 0.0 0.001549549361548 0.0 -6.015592318888e-05 7.366975878301594e-21 6.015592274458e-05 0.0
 6.015592274524e-05 0.0 -6.015592318888e-05 7.366975878301594e-21 0.001549549358712 0.0 0.9984504506299 0.0
 -6.015592318908e-05 7.366975878326086e-21 6.015592274458e-05 0.0 0.9984504506299 0.0 0.001549549358712 0.0
0.005 0.001667277825806896 0.0012605887121150312 0.998301466487067 -0.0032463103778299193 8.543419753017426e-05 0.0007050511467994261 -8.265247541744572e-05 -0.00043518092054800893
 0.998301466487067 -0.0032463103778299193 0.001667305448182456 0.0012605725552761718 -8.264725133037505e-05 -0.00043517692380110463 8.527662024667275e-05 0.0007051110893446339
 8.543419753017426e-05 0.0007050511467994261 -8.264725133037505e-05 -0.00043517692380110463 0.001667280767765653 0.0012606542435084386 0.9983014668397702 -0.0032462433065358516
 -8.265247541744572e-05 -0.00043518092054800893 8.527662024667275e-05 0.0007051110893446339 0.9983014668397702 -0.0032462433065358516 0.0016673032058889031 0.001260641162214027
0.006252605252188 0.0016981586555720777 0.0015807265265855768 0.998262131658843 -0.004058683766218627 9.268234378578146e-05 0.0008816339182342373 -8.901514900902402e-05 -0.000544547888012418
 0.998262131658843 -0.004058683766218627 0.0016982018350959376 0.001580706048890415 -8.900701977310611e-05 -0.000544542960418616 9.243614307955881e-05 0.0008817117630884339
 9.268234378578146e-05 0.0008816339182342373 -8.900701977310611e-05 -0.000544542960418616 0.0016981631945835005 0.001580808418084254 0.9982621321499369 -0.0040585999449887205
 -8.901514900902402e-05 -0.000544547888012418 9.243614307955881e-05 0.0008817117630884339 0.9982621321499369 -0.0040585999449887205 0.001698198269322123 0.0015807917901683867
0.01250521050438 0.0018607471630446826 0.003194815026892444 0.9980536154623166 -0.008118199333621082 0.00013438593633923604 0.001763480571573449 -0.00012517536321596137 -0.0010917691742884997
 0.9980536154623166 -0.008118199333621082 0.0018609195878891774 0.003194771228396136 -0.0001251433246162202 -0.0010917600687586975 0.000133404116078988 0.0017636677287450166
 0.00013438593633923604 0.001763480571573449 -0.0001251433246162202 -0.0010917600687586975 0.0018607647126960259 0.003194978485475281 0.9980536168468537 -0.008118031931958716
 -0.00012517536321596137 -0.0010917691742884997 0.000133404116078988 0.0017636677287450166 0.9980536168468537 -0.008118031931958716 0.0018609047668481256 0.0031949424809833045
0.01875781575657 0.002037672723734357 0.004832049652333689 0.997824641151015 -0.012188431346583104 0.00018536170457876145 0.002646172531578999 -0.00016874932816259456 -0.0016408157518093946
 0.997824641151015 -0.012188431346583104 0.0020380601869090446 0.004831979456916472 -0.0001686778779641823 -0.0016408033635956808 0.00018315608259437046 0.002646506634143416
 0.00018536170457876145 0.002646172531578999 -0.0001686778779641823 -0.0016408033635956808 0.0020377117429504574 0.00483229441937541 0.9978246438443948 -0.012188180438832515
 -0.00016874932816259456 -0.0016408157518093946 0.00018315608259437046 0.002646506634143416 0.9978246438443948 -0.012188180438832515 0.0020380264527250828 0.004832236184609113
0.02501042100875 0.002229282402357433 0.006490119855850453 0.9975749375278974 -0.01627134822597304 0.00024570675001268124 0.003529752089187065 -0.00021984588508788794 -0.002191423661654585
 0.9975749375278974 -0.01627134822597304 0.0022299705380015755 0.006490019986127885 -0.00021971970521086076 -0.0021914090471496705 0.00024178891563248723 0.0035302767275358824
 0.00024570675001268124 0.003529752089187065 -0.00021971970521086076 -0.0021914090471496705 0.0022293513289362407 0.006490445611030118 0.9975749419399607 -0.01627101385100696
 -0.00021984588508788794 -0.002191423661654585 0.00024178891563248723 0.0035302767275358824 0.9975749419399607 -0.01627101385100696 0.0022299102334332856 0.00649036221159005
0.03126302626094 0.0024359088437433114 0.008167833819940481 0.997304219667147 -0.02036778872490492 0.00031551887756140493 0.004414175085530096 -0.0002785706394135561 -0.002743409167449356
 0.997304219667147 -0.02036778872490492 0.002436983175803758 0.008167700803015886 -0.0002783745645741551 -0.002743393546135638 0.0003093997373836251 0.004414939843596482
 0.00031551887756140493 0.004414175085530096 -0.0002783745645741551 -0.002743393546135638 0.0024360161055863023 0.008168240178563286 0.9973042262105531 -0.020367370888461835
 -0.0002785706394135561 -0.002743409167449356 0.0003093997373836251 0.004414939843596482 0.9973042262105531 -0.020367370888461835 0.002436888648041453 0.008168128605272568
0.037515631513130004 0.0026578774079536634 0.009864412366384532 0.9970121962776378 -0.024478167960704553 0.0003948954765764642 0.0052993632703921415 -0.0003450267771578298 -0.003296616391904024
 0.9970121962776378 -0.024478167960704553 0.0026594233825585054 0.00986424253627351 -0.0003447457789307111 -0.0032966011469604045 0.00038608504989391543 0.00530042378707919
 0.0003948954765764642 0.0052993632703921415 -0.0003447457789307111 -0.0032966011469604045 0.0026580314218265615 0.00986489886735566 0.9970122053653668 -0.024477666646584007
 -0.0003450267771578298 -0.003296616391904024 0.00038608504989391543 0.00530042378707919 0.9970122053653668 -0.024477666646584007 0.002659286978128887 0.009864756039899721
0.043768236765320004 0.0028955089205978416 0.011579274071519154 0.9966985726867164 -0.028602692231472087 0.0004839330008012432 0.006185220222536271 -0.00041931535680527355 -0.0038509013982919314
 0.9966985726867164 -0.028602692231472087 0.0028976119318624093 0.011579063570254294 -0.0004189345341697501 -0.003850888076820557 0.0004719403217034259 0.006186638261099121
 0.0004839330008012432 0.006185220222536271 -0.0004189345341697501 -0.003850888076820557 0.002895718095391851 0.011579840165240681 0.9966985847355967 -0.02860210741264783
 -0.00041931535680527355 -0.0038509013982919314 0.0004719403217034259 0.006186638261099121 0.9966985847355967 -0.02860210741264783 0.002897425998079947 0.011579662934806006
0.050020842017509996 0.0031491209528500216 0.013311946460305028 0.9963630523597491 -0.03274144775225746 0.000582726660264248 0.00707163792822372 -0.0005015354138663114 -0.004406125617939973
 0.9963630523597491 -0.03274144775225746 0.003151866365514896 0.013311691238022325 -0.0005010399872084898 -0.004406115931039703 0.0005670597362609375 0.007073481448865686
 0.000582726660264248 0.00707163792822372 -0.0005010399872084898 -0.004406115931039703 0.003149393687774228 0.013312591521574768 0.996363067788862 -0.03274077937673582
 -0.0005015354138663114 -0.004406125617939973 0.0005670597362609375 0.007073481448865686 0.996363067788862 -0.03274077937673582 0.0031516232474989047 0.013312376672790482
0.055454545454549996 0.00338274030841804 0.014831838390679501 0.9960534611579238 -0.036349718145698734 0.0006765773681692617 0.007842326968876354 -0.0005795038782908584 -0.004889289071295719
 0.9960534611579238 -0.036349718145698734 0.003386113306589906 0.014831540866161513 -0.0005788969456852975 -0.004889284059965056 0.0006573170530659003 0.007844600306930382
 0.0006765773681692617 0.007842326968876354 -0.0005788969456852975 -0.004889284059965056 0.0033830750937216755 0.014832551498489525 0.9960534798682905 -0.03634897710671262
 -0.0005795038782908584 -0.004889289071295719 0.0006573170530659003 0.007844600306930382 0.9960534798682905 -0.03634897710671262 0.003385814275923989 0.014832301296273801
0.056273447269699996 0.0034190284714181113 0.01506202243481941 0.9960053377925202 -0.03689444415796017 0.0006913702036931177 0.007958500016247483 -0.0005917839846914822 -0.004962152625333964
 0.9960053377925202 -0.03689444415796017 0.0034225016414371617 0.01506171824932844 -0.0005911592918278913 -0.004962148448129804 0.0006715360087189971 0.007960843250216268
 0.0006913702036931177 0.007958500016247483 -0.0005911592918278913 -0.004962148448129804 0.0034193731573768818 0.015062745746423491 0.9960053570253933 -0.03689369216417606
 -0.0005917839846914822 -0.004962152625333964 0.0006715360087189971 0.007960843250216268 0.9960053570253933 -0.03689369216417606 0.0034221936828312993 0.015062489998713327
0.06252605252188 0.0037055441873122107 0.016829136296320088 0.9956251311082355 -0.041061638416021604 0.0008099557490050997 0.008845683533228028 -0.0006901560866004699 -0.005518846377477835
 0.9956251311082355 -0.041061638416021604 0.003709830481595707 0.01682877871192364 -0.0006893875801102761 -0.0055188497491050065 0.0007854602388366503 0.008848607057476908
 0.0008099557490050997 0.008845683533228028 -0.0006893875801102761 -0.0055188497491050065 0.003705969205180441 0.016829937054764443 0.9956251545717234 -0.04106080272601264
 -0.0006901560866004699 -0.005518846377477835 0.0007854602388366503 0.008848607057476908 0.9956251545717234 -0.04106080272601264 0.0037094500226287188 0.01682963706302421
0.06877865777407 0.00400897873508592 0.018612949474719327 0.9952221344876825 -0.045242949035656205 0.0009385736389280886 0.009733060005521056 -0.00079674467438816 -0.0060760701713428854
 0.9952221344876825 -0.045242949035656205 0.004014163550319882 0.018612533860493854 -0.0007958179198608558 -0.006076083294891444 0.000908921782651988 0.009736650817497224
 0.0009385736389280886 0.009733060005521056 -0.0007958179198608558 -0.006076083294891444 0.004009492456214827 0.018613826785356256 0.9952221626132154 -0.045242029558625496
 -0.00079674467438816 -0.0060760701713428854 0.000908921782651988 0.009736650817497224 0.9952221626132154 -0.045242029558625496 0.004013702928105588 0.01861347914027922
0.07503126302626001 0.004329640753550131 0.020413141465776826 0.9947960505054683 -0.04943826507401242 0.001077312311709645 0.010620496124503 -0.0009116405821856023 -0.006633685982923408
 0.9947960505054683 -0.04943826507401242 0.004335809535079775 0.02041266299323224 -0.0009105412570474187 -0.006633711225384013 0.0010420081351950137 0.010624847716698709
 0.001077312311709645 0.010620496124503 -0.0009105412570474187 -0.006633711225384013 0.004330251538728413 0.020414094342173863 0.9947960837300163 -0.04943726170601974
 -0.0009116405821856023 -0.006633685982923408 0.0010420081351950137 0.010624847716698709 0.9947960837300163 -0.04943726170601974 0.004335261083093991 0.02041369556978128
0.08128386827845 0.004667836904685478 0.022229403806667075 0.9943465824088377 -0.053647452109107055 0.001226258181583173 0.011507854200954879 -0.001034932455368552 -0.007191554042362294
 0.9943465824088377 -0.053647452109107055 0.004675075164724493 0.022228857446857774 -0.001033646348251566 -0.00719159393453618 0.0011848048201737909 0.011513066635036377
 0.001226258181583173 0.011507854200954879 -0.001033646348251566 -0.00719159393453618 0.004668553103449613 0.02223043117316022 0.9943466211745671 -0.0536463647292796
 -0.001034932455368552 -0.007191554042362294 0.0011848048201737909 0.011513066635036377 0.9943466211745671 -0.0536463647292796 0.004674431212226 0.02222997773391052
0.08753647353064001 0.005023871850284144 0.024061435922933118 0.9938734343565196 -0.057870356346886274 0.0013854955250177665 0.012394992488147507 -0.0011667066760838974 -0.007749532545699012
 0.9938734343565196 -0.057870356346886274 0.005032265186415564 0.024060816442912053 -0.0011652196865126966 -0.0077495897820941545 0.0013373952838755731 0.012401172468455242
 0.0013854955250177665 0.012394992488147507 -0.0011652196865126966 -0.0077495897820941545 0.00502470180013379 0.024062536607892256 0.99387347911168 -0.0578691848231261
 -0.0011667066760838974 -0.007749532545699012 0.0013373952838755731 0.012401172468455242 0.99387347911168 -0.0578691848231261 0.00503151805831492 0.024062024895087786
0.09378907878283 0.005398048201393331 0.02590894214799524 0.9933763116354658 -0.06210680756152568 0.0015551063716629078 0.013281765423357678 -0.0013070472834694105 -0.008307477453699912
 0.9933763116354658 -0.06210680756152568 0.005407682314851183 0.025908244106650654 -0.0013053454218394948 -0.0083075548923999 0.0014998607923727976 0.01328902636966559
 0.0015551063716629078 0.013281765423357678 -0.0013053454218394948 -0.0083075548923999 0.005399000227025649 0.02591011488436689 0.993376362835013 -0.06210555174889037
 -0.0013070472834694105 -0.008307477453699912 0.0014998607923727976 0.01328902636966559 0.993376362835013 -0.06210555174889037 0.0054068243316411115 0.025909541222059903
0.100041684035 0.005790666445880077 0.02777162954493964 0.9928549208575993 -0.06635662123955859 0.0017351703973489895 0.014168023807829918 -0.0014560358910354523 -0.008865242357910674
 0.9928549208575993 -0.06635662123955859 0.0058016271598283105 0.02777084728825794 -0.0014541052788725544 -0.008865343020430799 0.0016722803300399213 0.01417648592724061
 0.0017351703973489895 0.014168023807829918 -0.0014541052788725544 -0.008865343020430799 0.00579174885810289 0.027772872972141087 0.992854978963643 -0.06635528097731956
 -0.0014560358910354523 -0.008865242357910674 0.0016722803300399213 0.01417648592724061 0.992854978963643 -0.06635528097731956 0.00580065063694371 0.02777223361227997
0.1059090909091 0.006176135458729492 0.029533111242917597 0.9923433193620167 -0.07035659813456187 0.0019137172560551843 0.014999079355628565 -0.00160378165492304 -0.009388349270318178
 0.9923433193620167 -0.07035659813456187 0.0061884192266415 0.029532244622338794 -0.001601623861647013 -0.009388474619393633 0.0018431991276657298 0.015008784084037134
 0.0019137172560551843 0.014999079355628565 -0.001601623861647013 -0.009388474619393633 0.006177347770468896 0.029534419679913524 0.9923433843762388 -0.07035517846951367
 -0.00160378165492304 -0.009388349270318178 0.0018431991276657298 0.015008784084037134 0.9923433843762388 -0.07035517846951367 0.006187324473633021 0.029533715193850812
0.1062942892872 0.006202024861380867 0.029649206281642186 0.9923089701467189 -0.07061960017684323 0.0019257648200449457 0.015053614952075432 -0.0016137516006007962 -0.009422678387071472
 0.9923089701467189 -0.07061960017684323 0.006214398139494079 0.029648333937211172 -0.0016115784709243772 -0.009422805458178894 0.0018547305000863612 0.015063405309946726
 0.0019257648200449457 0.015053614952075432 -0.0016115784709243772 -0.009422805458178894 0.006203245956369932 0.029650518939444277 0.9923090356291632 -0.0706181752936076
 -0.0016137516006007962 -0.009422678387071472 0.0018547305000863612 0.015063405309946726 0.9923090356291632 -0.0706181752936076 0.006213295387717557 0.02964981005846188
0.11254689453939999 0.006632419416596677 0.031541380372698206 0.9917381693157032 -0.0748955357154702 0.002126964296304687 0.015938382797659748 -0.0017802709149977302 -0.009979634143004679
 0.9917381693157032 -0.0748955357154702 0.006646291381406094 0.03154041184357275 -0.0017778416128925324 -0.009979790970526868 0.0020472854253875033 0.015949635387468034
 0.002126964296304687 0.015938382797659748 -0.0017778416128925324 -0.009979790970526868 0.006633787474497904 0.03154276070436285 0.9917382426524772 -0.07489402602502447
 -0.0017802709149977302 -0.009979634143004679 0.0020472854253875033 0.015949635387468034 0.9917382426524772 -0.07489402602502447 0.006645054706317063 0.03154197839901804
0.11879949979160001 0.0070821436638329885 0.033447858719722466 0.9911422300381164 -0.07918420868869218 0.002338840819532526 0.01682216801904896 -0.0019556676485441627 -0.010535955662488326
 0.9911422300381164 -0.07918420868869218 0.007097600615359 0.03344678767768215 -0.0019529686319094057 -0.010536145757077406 0.0022500166505568363 0.01683502383109238
 0.002338840819532526 0.01682216801904896 -0.0019529686319094057 -0.010536145757077406 0.007083666947989371 0.03344930506928156 0.9911423117159253 -0.07918261399179215
 -0.0019556676485441627 -0.010535955662488326 0.0022500166505568363 0.01683502383109238 0.9911423117159253 -0.07918261399179215 0.007096222317237383 0.033448445351890815
0.1250521050438 0.007551488623627037 0.035368346347399826 0.9905208660151346 -0.0834853901772908 0.0025614636186661655 0.017704808114990186 -0.0021400128368585787 -0.011091486395596208
 0.9905208660151346 -0.0834853901772908 0.007568617058126238 0.035367166225350674 -0.0021370306771354665 -0.011091713430493822 0.002462993044313013 0.01771941520387539
 0.0025614636186661655 0.017704808114990186 -0.0021370306771354665 -0.011091713430493822 0.007553175379254657 0.03536985695824009 0.990520956530281 -0.08348371026218462
 -0.0021400128368585787 -0.011091486395596208 0.002462993044313013 0.01771941520387539 0.990520956530281 -0.08348371026218462 0.007567089432081106 0.03536891575110268
0.131304710296 0.008040742664170911 0.03730254579702437 0.9898737931396121 -0.08779884211545735 0.00279489905803975 0.018586137490559006 -0.0023333746453441653 -0.011646067199733781
 0.9898737931396121 -0.08779884211545735 0.00805962929285942 0.03730124978078464 -0.0023300960284525526 -0.011646335010489665 0.002686280702391792 0.018602651041357755
 0.00279489905803975 0.018586137490559006 -0.0023300960284525526 -0.011646335010489665 0.008042601117209301 0.03730411881181566 0.9898738929980337 -0.0877970767569812
 -0.0023333746453441653 -0.011646067199733781 0.002686280702391792 0.018602651041357755 0.9898738929980337 -0.0877970767569812 0.00805794462877454 0.03730309194092703
0.1375573155481 0.008438541178250391 0.03899627788944977 0.9893124219180716 -0.09187033157413178 0.0030105492603821017 0.01944027230689141 -0.0025072904311253235 -0.012173748276571044
 0.9893124219180716 -0.09187033157413178 0.008459278076237744 0.03899488474935201 -0.0025036956764652287 -0.012174057189107053 0.002891534286844991 0.019458669503857492
 0.0030105492603821017 0.01944027230689141 -0.0025036956764652287 -0.012174057189107053 0.008440579148063357 0.03899791134840827 0.9893125315497551 -0.09186848065887115
 -0.0025072904311253235 -0.012173748276571044 0.002891534286844991 0.019458669503857492 0.9893125315497551 -0.09186848065887115 0.008457429204009936 0.038996820609922024
0.1438099208003 0.008850329937822443 0.040680895415299 0.9887312775886613 -0.09593133446626612 0.0032349339950048872 0.0202908520159987 -0.0026881728114091976 -0.012698240606697078
 0.9887312775886613 -0.09593133446626612 0.00887300490085003 0.040679399790409104 -0.0026842476228138208 -0.012698594392727535 0.003105066269336507 0.020311274868150504
 0.0032349339950048872 0.0202908520159987 -0.0026842476228138208 -0.012698594392727535 0.008852555552337202 0.04068258738517038 0.9887313974981109 -0.09592939777697652
 -0.0026881728114091976 -0.012698240606697078 0.003105066269336507 0.020311274868150504 0.9887313974981109 -0.09592939777697652 0.008870984198842758 0.04068143017388773
0.1500625260525 0.009275961085189266 0.042356252742944224 0.9881305121891432 -0.09998174513624682 0.0034679755487299724 0.021137785682780526 -0.0028759474413958966 -0.01321946044142308
 0.9881305121891432 -0.09998174513624682 0.009300662138832481 0.04235464894399881 -0.0028716775558363323 -0.013219863023927374 0.003326801599100016 0.021160381396386287
 0.0034679755487299724 0.021137785682780526 -0.0028716775558363323 -0.013219863023927374 0.009278382449712597 0.04235800120997442 0.9881306428887322 -0.09997972244943326
 -0.0028759474413958966 -0.01321946044142308 0.003326801599100016 0.021160381396386287 0.9881306428887322 -0.09997972244943326 0.009298461986038519 0.042356774706227514
0.15631513130469998 0.009715285674831313 0.04402220864075772 0.9875102785714468 -0.10402145840737263 0.003709595266899365 0.021980983912584292 -0.003070539040706745 -0.013737325830543792
 0.9875102785714468 -0.10402145840737263 0.009742101081699614 0.04402049064074172 -0.0030659102287925537 -0.013737781283121286 0.003556664323135726 0.02200590483841589
