! Created with skrf 1.8.0 (http://scikit-rf.org).
# GHz S RI R 50.0 
!freq ReS11 ImS11 ReS12 ImS12 ReS13 ImS13
! ReS14 ImS14
! ReS21 ImS21 ReS22 ImS22 ReS23 ImS23
! ReS24 ImS24
! ReS31 ImS31 ReS32 ImS32 ReS33 ImS33
! ReS34 ImS34
! ReS41 ImS41 ReS42 ImS42 ReS43 ImS43
! ReS44 ImS44
!
0.0 0.001714683682892 0.0 0.9982853162972 0.0 6.648569046076e-05 0.0 -6.64856909048e-05 8.142148855566362e-21
 0.9982853162972 0.0 0.001714683682893 0.0 -6.648569090487e-05 8.142148855574934e-21 6.648569046072e-05 0.0
 6.648569046076e-05 0.0 -6.648569090487e-05 8.142148855574934e-21 0.001714683692842 0.0 0.9982853163072 0.0
 -6.64856909048e-05 8.142148855566362e-21 6.648569046072e-05 0.0 0.9982853163072 0.0 0.001714683692839 0.0
0.005 0.0018454231471293162 0.0014010901340055378 0.9981198247766683 -0.0035913082928991 9.361221379976236e-05 0.0007394031282879759 -9.08595767469259e-05 -0.00046280683773356976
 0.9981198247766683 -0.0035913082928991 0.0018454221659340827 0.0014010906311867032 -9.085720743455989e-05 -0.0004628049843826488 9.362921253491741e-05 0.0007393966812940444
 9.361221379976236e-05 0.0007394031282879759 -9.085720743455989e-05 -0.0004628049843826488 0.00184542490786711 0.0014011563409332042 0.9981198251475734 -0.0035912412274179506
 -9.08595767469259e-05 -0.00046280683773356976 9.362921253491741e-05 0.0007393966812940444 0.9981198251475734 -0.0035912412274179506 0.0018454211427883283 0.0014011585526408714
0.006252605252188 0.0018798768632619736 0.001756856596490306 0.998075913635473 -0.0044899877847402155 0.00010144278392571642 0.0009245988155235552 -9.781726238342101e-05 -0.0005790983817629478
 0.998075913635473 -0.0044899877847402155 0.001879875330235263 0.0017568572326130112 -9.781357584631523e-05 -0.0005790960964089397 0.00010146934301036665 0.0009245904361462122
 0.00010144278392571642 0.0009245988155235552 -9.781357584631523e-05 -0.0005790960964089397 0.0018798795453449733 0.0017569393329612847 0.9980759141444324 -0.004489903968023842
 -9.781726238342101e-05 -0.0005790983817629478 0.00010146934301036665 0.0009245904361462122 0.9980759141444324 -0.004489903968023842 0.001879873659522066 0.001756942123517339
0.01250521050438 0.002062207197695388 0.0035503108931352638 0.9978418902318464 -0.008980593848435633 0.00014677562590188786 0.0018494649995751185 -0.00013770192938707986 -0.0011608999966783212
 0.9978418902318464 -0.008980593848435633 0.0020622010854235723 0.0035503122965453043 -0.00013768740466290298 -0.0011608957720619286 0.0001468815440500804 0.0018494447588660284
 0.00014677562590188786 0.0018494649995751185 -0.00013768740466290298 -0.0011608957720619286 0.002062217350910317 0.003550476031097278 0.9978418917027649 -0.008980426456092622
 -0.00013770192938707986 -0.0011608999966783212 0.0001468815440500804 0.0018494447588660284 0.9978418917027649 -0.008980426456092622 0.0020621938446976702 0.0035504818836947496
0.01875781575657 0.002262107079515381 0.005369034434021547 0.997582930886978 -0.013482708099828709 0.0002025948062385473 0.0027751982407462302 -0.00018626951502554232 -0.001744531925004493
 0.997582930886978 -0.013482708099828709 0.0022620933617820533 0.00536903670314139 -0.0001862371298278032 -0.0017445261796554933 0.00020283275782887432 0.002775161921165197
 0.0002025948062385473 0.0027751982407462302 -0.0001862371298278032 -0.0017445261796554933 0.002262129475372937 0.0053692817273720125 0.9975829337647687 -0.013482457217489708
 -0.00018626951502554232 -0.001744531925004493 0.00020283275782887432 0.002775161921165197 0.9975829337647687 -0.013482457217489708 0.0022620766473962477 0.005369290965804621
0.02501042100875 0.0024799940422114797 0.007210436159164765 0.9972987070783766 -0.017998468544920456 0.0002690119761903858 0.0037018104691401332 -0.00024364484461874194 -0.002329701026130578
 0.9972987070783766 -0.017998468544920456 0.002479969708127309 0.007210439358752779 -0.00024358766284801573 -0.0023296942581059747 0.00026943466952187396 0.003701753137793387
 0.0002690119761903858 0.0037018104691401332 -0.00024358766284801573 -0.0023296942581059747 0.00248003345556772 0.007210765333480708 0.9972987118160143 -0.017998134221692105
 -0.00024364484461874194 -0.002329701026130578 0.00026943466952187396 0.003701753137793387 0.9972987118160143 -0.017998134221692105 0.0024799396221970222 0.007210778329057949
0.03126302626094 0.002716268290037405 0.009073160426614636 0.9969888748590165 -0.022528763246193396 0.0003461387135047255 0.0046292268709356155 -0.000309948678175345 -0.0029161929842575953
 0.9969888748590165 -0.022528763246193396 0.00271623034025952 0.009073164586865475 -0.0003098598355029561 -0.002916185771933208 0.00034679894215207017 0.004629142873961686
 0.0003461387135047255 0.0046292268709356155 -0.0003098598355029561 -0.002916185771933208 0.0027163294896559212 0.009073571162843772 0.9969888819074103 -0.02252834551051976
 -0.000309948678175345 -0.0029161929842575953 0.00034679894215207017 0.004629142873961686 0.9969888819074103 -0.02252834551051976 0.0027161829781107223 0.009073588334020392
0.037515631513130004 0.0029713209243880955 0.010956306481510145 0.9966530834267647 -0.0270740107948857 0.00043408544147182027 0.0055573379221074 -0.00038529856159442733 -0.0035038203043486257
 0.9966530834267647 -0.0270740107948857 0.002971266368241595 0.01095631159707806 -0.0003851712581365525 -0.0035038133066194435 0.0004350361091353213 0.005557220876256904
 0.00043408544147182027 0.0055573379221074 -0.0003851712581365525 -0.0035038133066194435 0.0029714086753563607 0.010956798418501789 0.9966530932368661 -0.0270735096513057
 -0.00038529856159442733 -0.0035038203043486257 0.0004350361091353213 0.005557220876256904 0.9966530932368661 -0.0270735096513057 0.0029711978198068674 0.010956820230748529
0.043768236765320004 0.0032455371022443997 0.012859190938081813 0.9962909786253226 -0.031634397759347455 0.0005329608985109157 0.006486015240368176 -0.0004698091200875484 -0.004092406488347166
 0.9962909786253226 -0.031634397759347455 0.0032454629545099908 0.012859196967309645 -0.00046963661608818226 -0.004092400444660019 0.0005342550323676318 0.0064858580236414175
 0.0005329608985109157 0.006486015240368176 -0.00046963661608818226 -0.004092400444660019 0.0032456561675816603 0.012859763655854645 0.9962909916506426 -0.03163381320460151
 -0.0004698091200875484 -0.004092406488347166 0.0005342550323676318 0.0064858580236414175 0.9962909916506426 -0.03163381320460151 0.003245369305632243 0.012859790621937288
0.050020842017509996 0.0035392974942894118 0.01478124961724343 0.9959022047502998 -0.0362099767774685 0.0006428718085975844 0.0074151181288540586 -0.0005635921464378413 -0.004681779523230652
 0.9959022047502998 -0.0362099767774685 0.003539200772378486 0.014781256481308232 -0.0005633677595793762 -0.004681775253550703 0.0006445625666494412 0.00741491287067022
 0.0006428718085975844 0.0074151181288540586 -0.0005633677595793762 -0.004681775253550703 0.00353945263327761 0.014781902640085061 0.9959022214458599 -0.03620930879654884
 -0.0005635921464378413 -0.004681779523230652 0.0006445625666494412 0.00741491287067022 0.9959022214458599 -0.03620930879654884 0.0035390781028960647 0.014781935320438406
0.055454545454549996 0.0038107492836210264 0.0164667644050494 0.9955424132978645 -0.04019860724792351 0.0007474310522972543 0.008222766168096562 -0.0006527075100421827 -0.005194468983313033
 0.9955424132978645 -0.04019860724792351 0.0038106305214556033 0.01646677190123133 -0.0006524326517558712 -0.0051944669837171754 0.0007495097641002036 0.008222512179602268
 0.0007474310522972543 0.008222766168096562 -0.0006524326517558712 -0.0051944669837171754 0.003810939634604031 0.01646748678630003 0.9955424335550153 -0.04019786674481064
 -0.0006527075100421827 -0.005194468983313033 0.0007495097641002036 0.008222512179602268 0.9955424335550153 -0.04019786674481064 0.0038104794452844142 0.016467524924922126
0.056273447269699996 0.003852979010152723 0.016721989363372106 0.9954864056265191 -0.04080071467330202 0.0007639226393945578 0.008344496803050288 -0.0006667565984556407 -0.005271768691291965
 0.9954864056265191 -0.04080071467330202 0.0038528567308280175 0.016721996945623274 -0.0006664737020142791 -0.0052717670960601105 0.000766063314264814 0.008344234874183447
 0.0007639226393945578 0.008344496803050288 -0.0006664737020142791 -0.0052717670960601105 0.003853174979011742 0.01672272216102612 0.9954864264503932 -0.04079996323758601
 -0.0006667565984556407 -0.005271768691291965 0.000766063314264814 0.008344234874183447 0.9954864264503932 -0.04079996323758601 0.003852701116149719 0.016722761164102252
0.06252605252188 0.004186955175498698 0.01868096157419572 0.9950432253422058 -0.045406518866244604 0.0008962154021186948 0.009273994169473717 -0.0007794085520493145 -0.005862202835222491
 0.9950432253422058 -0.045406518866244604 0.004186804352294991 0.01868096971939641 -0.0007790605737518343 -0.005862204895279574 0.0008988594224479935 0.009273666171786958
 0.0008962154021186948 0.009273994169473717 -0.0007790605737518343 -0.005862204895279574 0.004187196725295789 0.0186817735562328 0.9950432507544901 -0.04540568393831436
 -0.0007794085520493145 -0.005862202835222491 0.0008988594224479935 0.009273666171786958 0.9950432507544901 -0.04540568393831436 0.0041866118614232745 0.018681819539045734
0.06877865777407 0.004541596307505617 0.02065774641257156 0.9945723087867192 -0.050027253105233135 0.0010398494759319143 0.010203446905285584 -0.0009016511277095144 -0.006452909329326597
 0.9945723087867192 -0.050027253105233135 0.004541413947052529 0.02065775492636081 -0.0009012315489231723 -0.006452916105832653 0.001043050405958048 0.010203042661401856
 0.0010398494759319143 0.010203446905285584 -0.0009012315489231723 -0.006452916105832653 0.004541888184607 0.020658636923178653 0.9945723392511048 -0.05002633464338132
 -0.0009016511277095144 -0.006452909329326597 0.001043050405958048 0.010203042661401856 0.9945723392511048 -0.05002633464338132 0.00454118064407929 0.020658690592000387
0.07503126302626001 0.004917269577351077 0.022651942801866585 0.9940733020797191 -0.054662747427276615 0.0011949214482566103 0.01113268614139105 -0.0010335843989728174 -0.007043713454859046
 0.9940733020797191 -0.054662747427276615 0.004917052676384185 0.02265195145027067 -0.0010330867542177706 -0.007043726089223002 0.0011987329862861564 0.011132194684230837
 0.0011949214482566103 0.01113268614139105 -0.0010330867542177706 -0.007043726089223002 0.004917616521748538 0.022652911133800815 0.9940733380634043 -0.054661745370848266
 -0.0010335843989728174 -0.007043713454859046 0.0011987329862861564 0.011132194684230837 0.9940733380634043 -0.054661745370848266 0.004916774619677593 0.02265297324467965
0.08128386827845 0.005314338998974985 0.02466316178905581 0.9935458529326152 -0.05931280475658195 0.0013615249615071905 0.012061537942576408 -0.0011753052929271133 -0.00763443798613999
 0.9935458529326152 -0.05931280475658195 0.005314084541374678 0.024663170297990845 -0.0011747231696577502 -0.007634457699910048 0.0013660009374196127 0.012060947504905776
 0.0013615249615071905 0.012061537942576408 -0.0011747231696577502 -0.007634457699910048 0.005314745744750948 0.0246642071644795 0.9935458949070879 -0.05931171904444701
 -0.0011753052929271133 -0.00763443798613999 0.0013660009374196127 0.012060947504905776 0.9935458949070879 -0.05931171904444701 0.005313757784543547 0.0246642785240922
0.08753647353064001 0.005733165370239426 0.02669102193888271 0.9929896109647096 -0.06397720548165521 0.0015397505676473856 0.012989823645087698 -0.0013269074816714117 -0.008224902927455683
 0.9929896109647096 -0.06397720548165521 0.005732870323310758 0.026691029993812163 -0.0013262345201167198 -0.00822493102222828 0.0015449449395313001 0.01298912164895003
 0.0015397505676473856 0.012989823645087698 -0.0013262345201167198 -0.00822493102222828 0.005733636643211563 0.02669214352431502 0.9929896594056836 -0.06397603603660408
 -0.0013269074816714117 -0.008224902927455683 0.0015449449395313001 0.01298912164895003 0.9929896594056836 -0.06397603603660408 0.005732490914437216 0.02669222499071105
0.09378907878283 0.006174106178349261 0.028735146078137583 0.9924042279897494 -0.06865571069168275 0.0017296855859039362 0.013917360116868427 -0.0014884812694503833 -0.008814925335550719
 0.9924042279897494 -0.06865571069168275 0.006173767489700538 0.028735153323819342 -0.001487711162669217 -0.008814963192859787 0.0017356524360371147 0.013916533163054209
 0.0017296855859039362 0.013917360116868427 -0.001487711162669217 -0.008814963192859787 0.00617464669576067 0.028736342972460645 0.9924042833777142 -0.06865445743171346
 -0.0014884812694503833 -0.008814925335550719 0.0017356524360371147 0.013916533163054209 0.9924042833777142 -0.06865445743171346 0.006173331471916311 0.028736435456002015
0.100041684035 0.00663751548304724 0.030795158887894115 0.991789358283483 -0.0733480645745537 0.0019314139634336578 0.014843959958093745 -0.0016601134760502918 -0.009404319210539917
 0.991789358283483 -0.0733480645745537 0.006637130077128792 0.030795164928152943 -0.0016592399701083034 -0.009404368291730292 0.0019382074938131403 0.014842993815602733
 0.0019314139634336578 0.014843959958093745 -0.0016592399701083034 -0.009404368291730292 0.0066381299525430345 0.03079643012586945 0.9917894211043171 -0.07334672740884414
 -0.0016601134760502918 -0.009404319210539917 0.0019382074938131403 0.014842993815602733 0.9917894211043171 -0.07334672740884414 0.006636633488500474 0.03079653459015988
0.1059090909091 0.007093123083368426 0.03274237872786772 0.9911852448350597 -0.0777636950728276 0.002131512280346673 0.01571245324645162 -0.0018303942962347916 -0.009956662772746837
 0.9911852448350597 -0.0777636950728276 0.007092691017241805 0.032742383240142565 -0.0018294181206390532 -0.009956723786420754 0.0021391309607412612 0.015711342796916702
 0.002131512280346673 0.01571245324645162 -0.0018294181206390532 -0.009956723786420754 0.007093811221217671 0.03274371879463604 0.9911853150778457 -0.07776227907932455
 -0.0018303942962347916 -0.009956662772746837 0.0021391309607412612 0.015711342796916702 0.9911853150778457 -0.07776227907932455 0.007092133981960303 0.032743835426342745
0.1062942892872 0.007123743780637214 0.03287068512100617 0.9911446588355525 -0.07805399619983569 0.002145016138175176 0.015769431672916553 -0.001841887317761191 -0.009992895424249875
 0.9911446588355525 -0.07805399619983569 0.007123308555060399 0.032870689518698995 -0.0018409042119213093 -0.009992957270352695 0.002152690665412226 0.01576831126833304
 0.002145016138175176 0.015769431672916553 -0.0018409042119213093 -0.009992957270352695 0.007124436899205196 0.03287202967381011 0.9911447295807063 -0.07805257502758393
 -0.001841887317761191 -0.009992895424249875 0.002152690665412226 0.01576831126833304 0.9911447295807063 -0.07805257502758393 0.0071227474291121855 0.03287214713676644
0.11254689453939999 0.00763313785515444 0.03496134824076238 0.990469789592347 -0.08277322089093091 0.002370568903401089 0.016693579812309175 -0.0020338822862160004 -0.010580461686420947
 0.990469789592347 -0.08277322089093091 0.007632649677297314 0.03496135051775688 -0.002032783433225822 -0.010580537918038382 0.0023791788532818653 0.016692289219291504
 0.002370568903401089 0.016693579812309175 -0.002032783433225822 -0.010580537918038382 0.007633914308068698 0.03496276501234144 0.9904698687596002 -0.08277171560447631
 -0.0020338822862160004 -0.010580461686420947 0.0023791788532818653 0.016692289219291504 0.9904698687596002 -0.08277171560447631 0.007632020042962755 0.03496289654731551
0.11879949979160001 0.008166040618589365 0.037066769366682524 0.9897644136921346 -0.08750544130068576 0.002608145273775853 0.017616205103856135 -0.002236174026062989 -0.011166822533010776
 0.9897644136921346 -0.08750544130068576 0.008165496321990397 0.037066769003946856 -0.0022349533325400246 -0.01116691485010839 0.0026177451754150587 0.017614727532581833
 0.002608145273775853 0.017616205103856135 -0.0022349533325400246 -0.01116691485010839 0.008166905078026145 0.037068257198191804 0.9897645017852925 -0.08750385178051147
 -0.002236174026062989 -0.011166822533010776 0.0026177451754150587 0.017614727532581833 0.9897645017852925 -0.08750385178051147 0.008164794203777461 0.03706840393514895
0.1250521050438 0.008722790942928804 0.039186566457014495 0.9890281976939478 -0.09225034826113032 0.002857814352509191 0.01853710457075502 -0.002448834212021241 -0.011751779334492854
 0.9890281976939478 -0.09225034826113032 0.008722187323376982 0.039186562894902965 -0.002447485638857117 -0.011751889516300466 0.0028684588320671846 0.018535422357350412
 0.002857814352509191 0.01853710457075502 -0.002447485638857117 -0.011751889516300466 0.008723748067016016 0.03918812411950532 0.9890282952240569 -0.09224867438278435
 -0.002448834212021241 -0.011751779334492854 0.0028684588320671846 0.018535422357350412 0.9890282952240569 -0.09224867438278435 0.008721408741677015 0.03918828724635675
0.131304710296 0.009303723485430232 0.0413203536572986 0.9882608118038868 -0.09700762147846144 0.0031196412000500154 0.01945607164344433 -0.0026719304250686516 -0.01233513032074384
 0.9882608118038868 -0.09700762147846144 0.009303057297399057 0.04132034629578076 -0.0026704479879025513 -0.012335260225522586 0.003131384974190151 0.019454166239557567
 0.0031196412000500154 0.01945607164344433 -0.0026704479879025513 -0.012335260225522586 0.009304777917228717 0.04132197985665615 0.9882609192891925 -0.09700586310709237
 -0.0026719304250686516 -0.01233513032074384 0.003131384974190151 0.019454166239557567 0.9882609192891925 -0.09700586310709237 0.009302198268842666 0.041322160620627636
0.1375573155481 0.009781782375809652 0.04318988670171075 0.9875893782067213 -0.1014989138704871 0.0033622384510462403 0.020345793416525256 -0.0028740694614962804 -0.012889599193344026
 0.9875893782067213 -0.1014989138704871 0.009781048541498603 0.04318987327670946 -0.0028724441483386747 -0.012889749120444037 0.0033751084976861288 0.020343666197013124
 0.0033622384510462403 0.020345793416525256 -0.0028724441483386747 -0.012889749120444037 0.00978293802364674 0.04319158042983978 0.9875894961025724 -0.10149707096175063
 -0.0028740694614962804 -0.012889599193344026 0.0033751084976861288 0.020343666197013124 0.9875894961025724 -0.10149707096175063 0.009780105932267061 0.04319177799463797
0.1438099208003 0.01027683330594227 0.04504848844568534 0.9868939869415535 -0.10597771864732589 0.003614593600937035 0.021231239630187825 -0.003084248609609932 -0.013440137159828069
 0.9868939869415535 -0.10597771864732589 0.01027602821339181 0.045048468276234 -0.003082473969980777 -0.01344030895579586 0.00362863976124824 0.021228873473223782
 0.003614593600937035 0.021231239630187825 -0.003082473969980777 -0.01344030895579586 0.010278094660226566 0.045050248395220864 0.9868941157631927 -0.10597579107868309
 -0.003084248609609932 -0.013440137159828069 0.00362863976124824 0.021228873473223782 0.9868941157631927 -0.10597579107868309 0.010274998188102223 0.04505046393379338
0.1500625260525 0.010788685377808091 0.04689597136487545 0.9861748338273292 -0.1104438914987912 0.0038766082456398172 0.022112298134217175 -0.0033023719604368183 -0.013986638738393063
 0.9861748338273292 -0.1104438914987912 0.010787805358874247 0.04689594375764508 -0.0033004415600549723 -0.0139868343245402 0.0038918801301088025 0.02210967526689473
 0.0038766082456398172 0.022112298134217175 -0.0033004415600549723 -0.0139868343245402 0.010790056906252163 0.046897796179257024 0.9861749740956807 -0.11044187914169949
 -0.0033023719604368183 -0.013986638738393063 0.0038918801301088025 0.02210967526689473 0.9861749740956807 -0.11044187914169949 0.010786684088436478 0.04689803092535385
0.15631513130469998 0.011317146137113805 0.04873215353497866 0.9854321159040994 -0.11489728936185846 0.00414818269146087 0.022988858934216042 -0.0035283423111499017 -0.014529000884462831
 0.9854321159040994 -0.11489728936185846 0.011316187465641172 0.04873211778591588 -0.003526249732279695 -0.014529222256531417 0.004164729677776736 0.022985960936995967
