! Created with skrf 1.8.0 (http://scikit-rf.org).
# GHz S RI R 50.0 
!freq ReS11 ImS11 ReS12 ImS12 ReS13 ImS13
! ReS14 ImS14
! ReS21 ImS21 ReS22 ImS22 ReS23 ImS23
! ReS24 ImS24
! ReS31 ImS31 ReS32 ImS32 ReS33 ImS33
! ReS34 ImS34
! ReS41 ImS41 ReS42 ImS42 ReS43 ImS43
! ReS44 ImS44
!
0.0 0.001838723783883 0.0 0.9981612761991 0.0 7.175431628621e-05 0.0 -7.175431632876e-05 8.78736938170226e-21
 0.9981612761991 0.0 0.001838723783865 0.0 -7.175431632952e-05 8.787369381795332e-21 7.17543162833e-05 0.0
 7.175431628621e-05 0.0 -7.175431632952e-05 8.787369381795332e-21 0.00183872377537 0.0 0.9981612761906 0.0
 -7.175431632876e-05 8.78736938170226e-21 7.17543162833e-05 0.0 0.9981612761906 0.0 0.001838723775316 0.0
0.005 0.0019793912476407456 0.001496925126962026 0.997983100491101 -0.0038509600699364863 0.00010220081165736601 0.000828727830914447 -9.885592672024872e-05 -0.0005133310451936542
 0.997983100491101 -0.0038509600699364863 0.0019794179498667168 0.0014969094373206665 -9.885940827698379e-05 -0.0005133335781014899 0.00010202984031855986 0.0008287930595545085
 0.00010220081165736601 0.000828727830914447 -9.885940827698379e-05 -0.0005133335781014899 0.0019793905300464877 0.0014969927513559618 0.997983100884966 -0.00385089301016651
 -9.885592672024872e-05 -0.0005133310451936542 0.00010202984031855986 0.0008287930595545085 0.997983100884966 -0.00385089301016651 0.001979419446163504 0.0014969759234854088
0.006252605252188 0.002016586545429492 0.0018770318643634204 0.9979356348998317 -0.004814595253346028 0.0001110985463755405 0.0010362712441059315 -0.00010666005967222457 -0.0006423168647399737
 0.9979356348998317 -0.004814595253346028 0.0020166282866104003 0.0018770119103046147 -0.00010666547829481036 -0.0006423199834115643 0.00011083142385157489 0.001036356007853797
 0.0001110985463755405 0.0010362712441059315 -0.00010666547829481036 -0.0006423199834115643 0.0020165853381214926 0.001877116371702553 0.9979356354295029 -0.0048145114376591264
 -0.00010666005967222457 -0.0006423168647399737 0.00011083142385157489 0.001036356007853797 0.9979356354295029 -0.0048145114376591264 0.002016630539018365 0.0018770950144822685
0.01250521050438 0.0022141512289339956 0.0037931580031379556 0.9976815929135625 -0.009629657954737908 0.000163175437717982 0.0020726138111015493 -0.00015175683505371665 -0.0012875703711319067
 0.9976815929135625 -0.009629657954737908 0.0022143179185992387 0.003793114652908518 -0.00015177820174785826 -0.0012875760788831415 0.00016211030500338643 0.0020728185861152324
 0.000163175437717982 0.0020726138111015493 -0.00015177820174785826 -0.0012875760788831415 0.0022141458421303458 0.0037933266381254033 0.9976815944552383 -0.009629490539970056
 -0.00015175683505371665 -0.0012875703711319067 0.00016211030500338643 0.0020728185861152324 0.9976815944552383 -0.009629490539970056 0.0022143263234521817 0.0037932806640214533
0.01875781575657 0.0024319125235162005 0.005736188279884537 0.9973987902010966 -0.014456835947345573 0.00022811282737252188 0.0031097070273616865 -0.00020719766542515386 -0.0019347281674913757
 0.9973987902010966 -0.014456835947345573 0.002432287119649854 0.0057361178655502 -0.00020724532955855622 -0.0019347358097644332 0.00022572034748585208 0.003110074929665454
 0.00022811282737252188 0.0031097070273616865 -0.00020724532955855622 -0.0019347358097644332 0.002431900017282333 0.005736440756638358 0.997398793251994 -0.014456585005207648
 -0.00020719766542515386 -0.0019347281674913757 0.00022572034748585208 0.003110074929665454 0.997398793251994 -0.014456585005207648 0.002432305558827992 0.005736366638396153
0.02501042100875 0.002670346391680186 0.007703306374156536 0.9970868510070643 -0.019298385367741724 0.00030604060984670123 0.004147544542998036 -0.000273128766531884 -0.002583433618718953
 0.9970868510070643 -0.019298385367741724 0.002671011714284216 0.007703205028780541 -0.0002732129571071335 -0.0025834424061271844 0.0003017914351628029 0.004148126332879838
 0.00030604060984670123 0.004147544542998036 -0.0002732129571071335 -0.0025834424061271844 0.0026703238295294903 0.007703642428750876 0.9970868560584953 -0.019298050894436886
 -0.000273128766531884 -0.002583433618718953 0.0003017914351628029 0.004148126332879838 0.9970868560584953 -0.019298050894436886 0.0026710440351472107 0.007703536402947325
0.03126302626094 0.0029299087599295144 0.009693020384354298 0.9967453830012565 -0.02415522005665227 0.00039708847488692344 0.005186018419348555 -0.0003496909499518728 -0.003233421658104817
 0.9967453830012565 -0.02415522005665227 0.002930947541982291 0.00969288404740903 -0.000349821795188854 -0.003233430665224052 0.0003904527871651781 0.005186872547521365
 0.00039708847488692344 0.005186018419348555 -0.000349821795188854 -0.003233430665224052 0.00292987321318693 0.009693439731920318 0.9967453905475588 -0.024154802015475308
 -0.0003496909499518728 -0.003233421658104817 0.0003904527871651781 0.005186872547521365 0.9967453905475588 -0.024154802015475308 0.00293099756642274 0.009693297804557159
0.037515631513130004 0.0032110446348013215 0.011704325321903271 0.9963739868407464 -0.02902774902145759 0.0005013844012042665 0.006224979847261942 -0.0004370206733803587 -0.003884458113391453
 0.9963739868407464 -0.02902774902145759 0.003212539558523802 0.011704149741225349 -0.00043720821021633394 -0.0038844662783448403 0.0004918317245268648 0.0062261725291939095
 0.0005013844012042665 0.006224979847261942 -0.00043720821021633394 -0.0038844662783448403 0.0032109931824777357 0.011704827653282998 0.9963739973832991 -0.02902724734596385
 -0.0004370206733803587 -0.003884458113391453 0.0004918317245268648 0.0062261725291939095 0.9963739973832991 -0.02902724734596385 0.003212611086786826 0.011704645601607003
0.043768236765320004 0.0035141916048340963 0.013736448272424874 0.9959722601241199 -0.03391613121950339 0.0006190539267220168 0.007264257620118454 -0.0005352503875024864 -0.004536321288892973
 0.9959722601241199 -0.03391613121950339 0.0035162253330138747 0.013736229004874503 -0.0005355045670206531 -0.004536327413190775 0.0006060530575247001 0.007265862918921024
 0.0006190539267220168 0.007264257620118454 -0.0005355045670206531 -0.004536327413190775 0.0035141213303140338 0.013737033249614306 0.9959722741709767 -0.03391554581819742
 -0.0005352503875024864 -0.004536321288892973 0.0006060530575247001 0.007265862918921024 0.9959722741709767 -0.03391554581819742 0.003516322142333048 0.013736806622287108
0.050020842017509996 0.003839781430990484 0.015788743079390027 0.9955397994382578 -0.03882038081975652 0.0007502196942932092 0.008303665792654995 -0.0006445086313707526 -0.005188794370815048
 0.9955397994382578 -0.03882038081975652 0.0038424366344672824 0.015788475490414188 -0.0006448393219760976 -0.00518879711928957 0.000733238693934709 0.008305765705077364
 0.0007502196942932092 0.008303665792654995 -0.0006448393219760976 -0.00518879711928957 0.0038396894179490897 0.01578941034411525 0.9955398175033561 -0.038819711567571386
 -0.0006445086313707526 -0.005188794370815048 0.000733238693934709 0.008305765705077364 0.9955398175033561 -0.038819711567571386 0.0038425624768393158 0.015789134460231672
0.055454545454549996 0.004141286729751241 0.017588186626920414 0.99513870510738 -0.04309514901579536 0.0008752601476448139 0.00920689619107883 -0.0007485107515448505 -0.005756141109647038
 0.99513870510738 -0.04309514901579536 0.00414454917923764 0.017587873131493598 -0.0007489158841450934 -0.005756139733925862 0.0008543877452379898 0.009209498756271566
 0.0008752601476448139 0.00920689619107883 -0.0007489158841450934 -0.005756139733925862 0.004141173457143254 0.01758892509029486 0.9951387270883442 -0.043094406772201714
 -0.0007485107515448505 -0.005756141109647038 0.0008543877452379898 0.009209498756271566 0.9951387270883442 -0.043094406772201714 0.004144703280970442 0.01758860241961443
0.056273447269699996 0.00418824082954889 0.017860638664220663 0.9950762016063047 -0.043740418834317535 0.0008950011167390947 0.009343007453265925 -0.0007649200178996684 -0.0058416617286971275
 0.9950762016063047 -0.043740418834317535 0.004191600213870152 0.017860317926264475 -0.0007653370071682962 -0.005841659629463981 0.0008735073421625803 0.00934569199673488
 0.0008950011167390947 0.009343007453265925 -0.0007653370071682962 -0.005841659629463981 0.0041881241619570395 0.017861387831057486 0.9950762242120873 -0.04373966557972669
 -0.0007649200178996684 -0.0058416617286971275 0.0008735073421625803 0.00934569199673488 0.9950762242120873 -0.04373966557972669 0.00419175881768532 0.017861057778019596
0.06252605252188 0.0045599918579108814 0.019951610641834504 0.9945810645427609 -0.04867610146319258 0.0010535141039555865 0.010382076818132285 -0.0008966051613163438 -0.006494706905298775
 0.9945810645427609 -0.04867610146319258 0.004564138188897715 0.019951231731927505 -0.0008971181570235126 -0.006494698349776035 0.0010269742636915095 0.010385444117739229
 0.0010535141039555865 0.010382076818132285 -0.0008971181570235126 -0.006494698349776035 0.004559847617217482 0.01995244128961506 0.9945810922209318 -0.048675264037098036
 -0.0008966051613163438 -0.006494706905298775 0.0010269742636915095 0.010385444117739229 0.9945810922209318 -0.048675264037098036 0.004564333257421737 0.019952051919977298
0.06877865777407 0.004955452079782852 0.022061164376776583 0.9940539878947577 -0.053627237009143014 0.0012258708231723033 0.011420660502880101 -0.001039680573069427 -0.007147711439836688
 0.9940539878947577 -0.053627237009143014 0.004960468208685256 0.022060722073106376 -0.0010402992036242416 -0.0071476946827714735 0.0011937510516443542 0.011424816877634516
 0.0012258708231723033 0.011420660502880101 -0.0010402992036242416 -0.0071476946827714735 0.004955277343606324 0.022062076064906212 0.9940540211872517 -0.053626315208959024
 -0.001039680573069427 -0.007147711439836688 0.0011937510516443542 0.011424816877634516 0.9940540211872517 -0.053626315208959024 0.0049607034198582405 0.02206162199229076
0.07503126302626001 0.005375034602198049 0.024188824290139365 0.9934945735604774 -0.05859359655318837 0.0014121794804861426 0.012458538345591373 -0.001194258537211526 -0.007800454151084279
 0.9934945735604774 -0.05859359655318837 0.005381003490284103 0.024188313167638312 -0.0011949923515948428 -0.0078004273106321 0.0013739454261579597 0.012463598393582008
 0.0014121794804861426 0.012458538345591373 -0.0011949923515948428 -0.0078004273106321 0.005374826441967712 0.024189816544943368 0.9934946130206586 -0.058592590156975585
 -0.001194258537211526 -0.007800454151084279 0.0013739454261579597 0.012463598393582008 0.9934946130206586 -0.058592590156975585 0.005381282496180217 0.024189292138775284
0.08128386827845 0.005819148028270527 0.026334126732764574 0.9929024261283034 -0.06357492107643642 0.001612544114470955 0.013495483981615734 -0.0013604469739180232 -0.008452710680382976
 0.9929024261283034 -0.06357492107643642 0.005826152772101591 0.02633354115763438 -0.001361305441481255 -0.00845267173818477 0.0015676610389169362 0.013501570663702129
 0.001612544114470955 0.013495483981615734 -0.001361305441481255 -0.00845267173818477 0.005818903507991939 0.02633519905612869 0.9929024723219357 -0.0635738298347926
 -0.0013604469739180232 -0.008452710680382976 0.0015676610389169362 0.013501570663702129 0.9929024723219357 -0.0635738298347926 0.005826479197771287 0.026334598435455926
0.08753647353064001 0.006288196356972266 0.028496615088912533 0.9922771532676353 -0.0685709263643017 0.0018270643990699448 0.01453126526217908 -0.00153834929423291 -0.009104253202614996
 0.9922771532676353 -0.0685709263643017 0.006296320212783349 0.02849594921219098 -0.0015393418040393486 -0.009104200003936627 0.0017749972849749412 0.014538509984079679
 0.0018270643990699448 0.01453126526217908 -0.0015393418040393486 -0.009104200003936627 0.006287912531059325 0.02849776695368693 0.9922772067742412 -0.06856975000561165
 -0.00153834929423291 -0.009104253202614996 0.0017749972849749412 0.014538509984079679 0.9922772067742412 -0.06856975000561165 0.006296697656085156 0.028497083979826025
0.09378907878283 0.00678257884457269 0.03067583627936976 0.9916183660860699 -0.07358130652489246 0.0020558354524253786 0.015565644577012051 -0.001728064248971893 -0.009754850245585691
 0.9916183660860699 -0.07358130652489246 0.006791905253250695 0.03067508402943132 -0.0017292001090956903 -0.009754780499461232 0.0019960491193941107 0.015574187269402589
 0.0020558354524253786 0.015565644577012051 -0.0017292001090956903 -0.009754780499461232 0.006782252756092394 0.030677067132193203 0.9916184274999037 -0.07358004475325523
 -0.001728064248971893 -0.009754850245585691 0.0019960491193941107 0.015574187269402589 0.9916184274999037 -0.07358004475325523 0.006792337283591055 0.03067629540037552
0.100041684035 0.007302689839326051 0.032871338217533574 0.9909256794636407 -0.07860573656853168 0.0022989476504063975 0.016598379119522767 -0.0019296857739828975 -0.010404266579009678
 0.9909256794636407 -0.07860573656853168 0.007313302451589619 0.03287049329136639 -0.0019309742106499049 -0.01040417785842858 0.0022309068770406445 0.01660836831617156
 0.0022989476504063975 0.016598379119522767 -0.0019309742106499049 -0.01040417785842858 0.007302318517940462 0.03287264748109477 0.9909257493944731 -0.0786043890622859
 -0.0019296857739828975 -0.010404266579009678 0.0022309068770406445 0.01660836831617156 0.9909257493944731 -0.0786043890622859 0.007313792608890263 0.032871780310870964
0.1059090909091 0.007814505451812245 0.034945987588918814 0.9902444958952624 -0.08333310490786333 0.0025402019608989908 0.01756577438953459 -0.002129794399738924 -0.01101238820245148
 0.9902444958952624 -0.08333310490786333 0.007826401317510712 0.03494504974884217 -0.0021312343305637414 -0.011012279348020666 0.002463928569007839 0.01757726379707373
 0.0025402019608989908 0.01756577438953459 -0.0021312343305637414 -0.011012279348020666 0.007814088969590176 0.03494736988223701 0.9902445743881568 -0.08333167663817756
 -0.002129794399738924 -0.01101238820245148 0.002463928569007839 0.01757726379707373 0.9902445743881568 -0.08333167663817756 0.007826949213552155 0.0349464068224903
0.1062942892872 0.007848918595308625 0.03508266791928839 0.9901987123695297 -0.08364387434777595 0.002556486444016073 0.017629221104358214 -0.0021433028321703306 -0.01105226316394369
 0.9901987123695297 -0.08364387434777595 0.007860901296320666 0.03508172377282212 -0.002144752988643787 -0.011052152906073085 0.002479656096301896 0.017640814017984896
 0.002556486444016073 0.017629221104358214 -0.002144752988643787 -0.011052152906073085 0.00784849905606331 0.035084054987743245 0.9901987914441851 -0.0836424407650847
 -0.0021433028321703306 -0.01105226316394369 0.002479656096301896 0.017640814017984896 0.9901987914441851 -0.0836424407650847 0.007861453090390264 0.03508308541233637
0.11254689453939999 0.00842164907291447 0.03730937006744455 0.989437088168004 -0.0886953620577548 0.002828532179213794 0.018657917966199523 -0.002368999254774253 -0.011698597133600308
 0.989437088168004 -0.0886953620577548 0.008435086007174112 0.03730831990461408 -0.002370620190274115 -0.011698462640058435 0.0027423773439222993 0.0186712805619978
 0.002828532179213794 0.018657917966199523 -0.002370620190274115 -0.011698462640058435 0.008421178313917218 0.0373108343113086 0.989437177031617 -0.08869384203263088
 -0.002368999254774253 -0.011698597133600308 0.0027423773439222993 0.0186712805619978 0.989437177031617 -0.08869384203263088 0.008435702917059562 0.03730975506568525
0.11879949979160001 0.009021259726564788 0.03955098590937852 0.9886404349155531 -0.09375982741826697 0.0031151599202417475 0.019684212537414793 -0.002606853580897246 -0.012343021808387155
 0.9886404349155531 -0.09375982741826697 0.009036235323526489 0.03954982267004419 -0.0026086542693722404 -0.012342860245529007 0.003019146043228015 0.019699519604035116
 0.0031151599202417475 0.019684212537414793 -0.0026086542693722404 -0.012342860245529007 0.009020734727501704 0.03955252667725907 0.9886405342321022 -0.09375822056009153
 -0.002606853580897246 -0.012343021808387155 0.003019146043228015 0.019699519604035116 0.9886405342321022 -0.09375822056009153 0.00903692079580288 0.03955133018502228
0.1250521050438 0.009648123284330163 0.04180705241324857 0.9878083856502289 -0.09883688461287664 0.003416439274934573 0.02070784321616016 -0.002856938897331264 -0.01298528673339244
 0.9878083856502289 -0.09883688461287664 0.00966472228296715 0.041805768759860196 -0.0028589282261670683 -0.012985095132603272 0.00331003230377004 0.020725278434105817
 0.003416439274934573 0.02070784321616016 -0.0028589282261670683 -0.012985095132603272 0.009647541004640802 0.04180866902818904 0.9878084961043753 -0.09883519051116146
 -0.002856938897331264 -0.01298528673339244 0.00331003230377004 0.020725278434105817 0.9878084961043753 -0.09883519051116146 0.00966547973127854 0.041807347387283346
0.131304710296 0.010302606520399089 0.0440771015993575 0.9869405786764102 -0.10392613506833241 0.0037324342226576815 0.021728544126798772 -0.003119322678398223 -0.013625137736896832
 0.9869405786764102 -0.10392613506833241 0.010320913994524334 0.044075689902467394 -0.0031215094469732962 -0.01362491299503342 0.0036151007537634484 0.021748300134003935
 0.0037324342226576815 0.021728544126798772 -0.0031215094469732962 -0.01362491299503342 0.010301963897443957 0.04407879336331821 0.9869407009743446 -0.10392435328960722
 -0.003119322678398223 -0.013625137736896832 0.0036151007537634484 0.021748300134003935 0.9869407009743446 -0.10392435328960722 0.010321746798521037 0.044077338330373854
0.1375573155481 0.010845452739098092 0.046064072279437575 0.986176349355328 -0.10873039608575297 0.004027170857426773 0.022717530052523763 -0.003358170970239358 -0.014233724135176297
 0.986176349355328 -0.10873039608575297 0.010865558922902432 0.046062556337379185 -0.0033605679662487295 -0.014233465602275576 0.003898641818076815 0.022739598074731457
 0.004027170857426773 0.022717530052523763 -0.0033605679662487295 -0.014233465602275576 0.010844745494535648 0.046065839497614974 0.986176484058073 -0.10872852637260541
 -0.003358170970239358 -0.014233724135176297 0.003898641818076815 0.022739598074731457 0.986176484058073 -0.10872852637260541 0.010866471935330592 0.046064272510752534
0.1438099208003 0.011407655032033599 0.04803848029851324 0.9853846513840376 -0.11352036924430835 0.004333755019431981 0.023701141610973493 -0.0036064817432146677 -0.014837468454149117
 0.9853846513840376 -0.11352036924430835 0.01142964614868633 0.048036854216334156 -0.0036090983578770733 -0.014837173051993176 0.004193545526511962 0.023725699782338742
 0.004333755019431981 0.023701141610973493 -0.0036090983578770733 -0.014837173051993176 0.011406879849388492 0.04804032233685531 0.9853847991985506 -0.113518411174458
 -0.0036064817432146677 -0.014837468454149117 0.004193545526511962 0.023725699782338742 0.9853847991985506 -0.113518411174458 0.01143064296913948 0.04803863666910919
0.1500625260525 0.011988980932301482 0.05000009952329174 0.9845657225210719 -0.11829587285994862 0.0046520587144550036 0.024679233684439403 -0.003864132172907044 -0.015436238259249063
 0.9845657225210719 -0.11829587285994862 0.012012943528334487 0.04999835699412086 -0.0038669777609930613 -0.015435902786993052 0.004499687525558532 0.024706466646984202
 0.0046520587144550036 0.024679233684439403 -0.0038669777609930613 -0.015435902786993052 0.011988134458440335 0.05000201573039971 0.9845658841725794 -0.1182938259966079
 -0.003864132172907044 -0.015436238259249063 0.004499687525558532 0.024706466646984202 0.9845658841725794 -0.1182938259966079 0.012014027741763373 0.05000020419836877
0.15631513130469998 0.012589195905638598 0.051948710633019375 0.983719802197016 -0.12305672737022043 0.0049819521791359764 0.025651664134137712 -0.0041309977000382235 -0.01602990438418519
 0.983719802197016 -0.12305672737022043 0.01261521685914014 0.051946844922503406 -0.00413408157905243 -0.016029525519207156 0.004816941757998964 0.02568176295763377
