! Created with skrf 1.8.0 (http://scikit-rf.org).
# GHz S RI R 50.0 
!freq ReS11 ImS11 ReS12 ImS12 ReS13 ImS13
! ReS14 ImS14
! ReS21 ImS21 ReS22 ImS22 ReS23 ImS23
! ReS24 ImS24
! ReS31 ImS31 ReS32 ImS32 ReS33 ImS33
! ReS34 ImS34
! ReS41 ImS41 ReS42 ImS42 ReS43 ImS43
! ReS44 ImS44
!
0.0 0.001543268002997 0.0 0.9984567319487 0.0 5.92773217082e-05 0.0 -5.927732108659e-05 7.259378153072236e-21
 0.9984567319487 0.0 0.001543268002974 0.0 -5.927732108583e-05 7.259378152979162e-21 5.927732170766e-05 0.0
 5.92773217082e-05 0.0 -5.927732108583e-05 7.259378152979162e-21 0.001543268027124 0.0 0.9984567319729 0.0
 -5.927732108659e-05 7.259378153072236e-21 5.927732170766e-05 0.0 0.9984567319729 0.0 0.001543268027136 0.0
0.005 0.0016603703865085988 0.001267149523752488 0.9983086030400812 -0.0032325086437879204 8.232440500834291e-05 0.0006250773563327188 -8.013042533005715e-05 -0.0003972499000869237
 0.9983086030400812 -0.0032325086437879204 0.0016603817735663601 0.001267142821747996 -8.01304618158049e-05 -0.00039724986480029807 8.226107652147463e-05 0.0006251015403567097
 8.232440500834291e-05 0.0006250773563327188 -8.01304618158049e-05 -0.00039724986480029807 0.0016603710508485722 0.0012672163506982706 0.9983086033920273 -0.0032324415812042006
 -8.013042533005715e-05 -0.0003972499000869237 8.226107652147463e-05 0.0006251015403567097 0.9983086033920273 -0.0032324415812042006 0.0016603818086609488 0.0012672101167470035
0.006252605252188 0.0016910794772183348 0.0015889002558700917 0.9982695154545607 -0.004041424516748728 8.890055502382604e-05 0.0007816629695580502 -8.600943438113085e-05 -0.0004970695805081228
 0.9982695154545607 -0.004041424516748728 0.0016910972776142952 0.0015888917196532812 -8.600949165939304e-05 -0.0004970695356411576 8.880161085986109e-05 0.0007816943601334366
 8.890055502382604e-05 0.0007816629695580502 -8.600949165939304e-05 -0.0004970695356411576 0.0016910804546758683 0.0015889837770475328 0.9982695159433129 -0.004041340693017851
 -8.600943438113085e-05 -0.0004970695805081228 8.880161085986109e-05 0.0007816943601334366 0.9982695159433129 -0.004041340693017851 0.0016910972705092501 0.0015889758385499281
0.01250521050438 0.0018527195354277964 0.003210915574422321 0.9980624325594519 -0.008083627069260085 0.00012656976461058165 0.0015637702346108574 -0.00011931985238173785 -0.0009965231483524547
 0.9980624325594519 -0.008083627069260085 0.001852790617837082 0.0032108968866472235 -0.00011932008420947041 -0.000996523049572563 0.00012617521977214088 0.001563845546478623
 0.00012656976461058165 0.0015637702346108574 -0.00011932008420947041 -0.000996523049572563 0.001852722869850044 0.0032110822709128586 0.9980624339365409 -0.008083459672203648
 -0.00011931985238173785 -0.0009965231483524547 0.00012617521977214088 0.001563845546478623 0.9980624339365409 -0.008083459672203648 0.0018527900056362109 0.0032110649133638295
0.01875781575657 0.0020285410897476525 0.0048558942302569874 0.9978352258010483 -0.01213644026337585 0.00017237276151910232 0.0023468122774723274 -0.0001593102886108436 -0.001497680204971421
 0.9978352258010483 -0.01213644026337585 0.0020287008271394433 0.004855863631252467 -0.00015931081417606887 -0.0014976800393155455 0.0001714865084413344 0.002346946513557434
 0.00017237276151910232 0.0023468122774723274 -0.00015931081417606887 -0.0014976800393155455 0.002028548169429484 0.004856143887661313 0.9978352284714389 -0.01213618937067428
 -0.0001593102886108436 -0.001497680204971421 0.0001714865084413344 0.002346946513557434 0.9978352284714389 -0.01213618937067428 0.002028699007573789 0.004856115512008068
0.02501042100875 0.002218886613602454 0.006521543904871156 0.9975876274759417 -0.016201826705938276 0.0002263985445680675 0.0031308126860363885 -0.0002060793387746489 -0.0020003216090136787
 0.9975876274759417 -0.016201826705938276 0.0022191703137143933 0.006521499501353111 -0.000206080278600854 -0.0020003213596384538 0.0002248244269872844 0.0031310232323712483
 0.0002263985445680675 0.0031308126860363885 -0.000206080278600854 -0.0020003213596384538 0.0022188988306542016 0.006521876300461319 0.9975876318452213 -0.016201492362395348
 -0.0002060793387746489 -0.0020003216090136787 0.0002248244269872844 0.0031310232323712483 0.9975876318452213 -0.016201492362395348 0.0022191666747551496 0.006521835199410318
0.03126302626094 0.002424084445273977 0.008206684612538108 0.9973193562073636 -0.02028062605142311 0.00028873650174184934 0.003915726426276547 -0.00025972292085805007 -0.0025042912693813285
 0.9973193562073636 -0.02028062605142311 0.002424527369164936 0.008206624379111321 -0.0002597243966577512 -0.0025042909155257374 0.0002862781283203978 0.003916033065160266
 0.00028873650174184934 0.003915726426276547 -0.0002597243966577512 -0.0025042909155257374 0.0024241031955280785 0.008207099513489932 0.9973193626821946 -0.020280208270310983
 -0.00025972292085805007 -0.0025042912693813285 0.0002862781283203978 0.003916033065160266 0.9973193626821946 -0.020280208270310983 0.0024245212879393696 0.008207043873441441
0.037515631513130004 0.002644455842721593 0.009910546748143264 0.9970301242214082 -0.024373256891689433 0.00035947556048028837 0.004701481215699498 -0.0003203349234409947 -0.0030094547701632317
 0.9970301242214082 -0.024373256891689433 0.0026450932161011173 0.009910468527769936 -0.0003203370579109469 -0.003009454287080009 0.0003559362199837838 0.004701906149351441
 0.00035947556048028837 0.004701481215699498 -0.0003203370579109469 -0.003009454287080009 0.0026444825237922054 0.009911043891476339 0.9970301332080947 -0.024372755674345416
 -0.0003203349234409947 -0.0030094547701632317 0.0003559362199837838 0.004701906149351441 0.9970301332080947 -0.024372755674345416 0.002645084057465347 0.009910971793441635
0.043768236765320004 0.0028803177071787924 0.01163255743742389 0.9967196402934957 -0.028479930333764836 0.00043870378916509626 0.005487990097572356 -0.0003880074304797822 -0.0035156867967730755
 0.9967196402934957 -0.028479930333764836 0.002881184729337868 0.01163245894151892 -0.00038801034720379744 -0.0035156861556723084 0.0004338864088931989 0.005488557975178599
 0.00043870378916509626 0.005487990097572356 -0.00038801034720379744 -0.0035156861556723084 0.002880353720620394 0.01163313653469599 0.9967196522010092 -0.0284793456644764
 -0.0003880074304797822 -0.0035156867967730755 0.0004338864088931989 0.005488557975178599 0.9967196522010092 -0.0284793456644764 0.00288117184780132 0.011633045954846715
0.050020842017509996 0.003131983850708099 0.013372252252118305 0.9963876112437311 -0.03260073821076668 0.0005265081535109897 0.006275156643569399 -0.0004628307995418167 -0.0040228659362135325
 0.9963876112437311 -0.03260073821076668 0.0031331157020753975 0.013372131060338879 -0.00046283462282026766 -0.004022865104206615 0.0005202152808377593 0.006275894589709189
 0.0005265081535109897 0.006275156643569399 -0.00046283462282026766 -0.004022865104206615 0.0031320306003306936 0.013372912983022638 0.9963876264832526 -0.032600070062818044
 -0.0004628307995418167 -0.0040228659362135325 0.0005202152808377593 0.006275894589709189 0.9963876264832526 -0.032600070062818044 0.003133098440755163 0.013372801792923718
0.055454545454549996 0.0033637662443894503 0.014898150145807228 0.9960813421466683 -0.03619333772949065 0.0006098442616224737 0.0069596822053977925 -0.0005337308373925602 -0.004464295901977748
 0.9960813421466683 -0.03619333772949065 0.0033651568016354787 0.014898007162319246 -0.0005337355499480843 -0.004464294874126489 0.0006021084869202723 0.006960591919111576
 0.0006098442616224737 0.0069596822053977925 -0.0005337355499480843 -0.004464294874126489 0.003363823465419473 0.014898881538283502 0.9960813606172275 -0.03619259700108932
 -0.0005337308373925602 -0.004464295901977748 0.0006021084869202723 0.006960591919111576 0.9960813606172275 -0.03619259700108932 0.003365135191229441 0.014898750627473019
0.056273447269699996 0.0033997656440761135 0.015129231870159297 0.9960337428156 -0.03673569634906576 0.0006229743415673866 0.007062877502083879 -0.0005448936741388149 -0.004530872134837172
 0.9960337428156 -0.03673569634906576 0.0034011974930407926 0.015129085429914566 -0.0005448985289072634 -0.004530871074871091 0.0006150081392621992 0.007063815145804924
 0.0006229743415673866 0.007062877502083879 -0.0005448985289072634 -0.004530871074871091 0.0033998245354476295 0.015129973887900246 0.9960337618003647 -0.03673494467885741
 -0.0005448936741388149 -0.004530872134837172 0.0006150081392621992 0.007063815145804924 0.9960337618003647 -0.03673494467885741 0.0034011751831208347 0.015129839854516693
0.06252605252188 0.003683972362201598 0.016903138265832764 0.9956577402570715 -0.04088476830780099 0.0007281866243470846 0.007851043800793841 -0.0006342829609367748 -0.005039585305479428
 0.9956577402570715 -0.04088476830780099 0.0036857393715332173 0.01690296389173201 -0.0006342889726525807 -0.005039583976286575 0.0007183488751518434 0.00785221330497619
 0.0007281866243470846 0.007851043800793841 -0.0006342889726525807 -0.005039583976286575 0.003684044802852436 0.01690396118727838 0.9956577634037964 -0.04088393306434888
 -0.0006342829609367748 -0.005039585305479428 0.0007183488751518434 0.00785221330497619 0.9956577634037964 -0.04088393306434888 0.0036857113327503125 0.016903801972877327
0.06877865777407 0.003984911368479808 0.01869364048694035 0.9952593087434181 -0.04504787953525844 0.000842227735106398 0.00863954198783959 -0.000731083788026773 -0.0055488844999940085
 0.9952593087434181 -0.04504787953525844 0.003987048701182926 0.018693435359917895 -0.0007310910825312725 -0.005548882856035086 0.0008303198526331939 0.008640978078633501
 0.000842227735106398 0.00863954198783959 -0.0007310910825312725 -0.005548882856035086 0.003984998767089981 0.01869454389713166 0.9952593364725798 -0.04504696065528952
 -0.000731083788026773 -0.0055488844999940085 0.0008303198526331939 0.008640978078633501 0.9952593364725798 -0.04504696065528952 0.003987014241527358 0.018694357058847776
0.07503126302626001 0.004302888197570403 0.02050042566106753 0.9948381537039837 -0.04922492630025147 0.0009651787603220007 0.00942825436937527 -0.0008353794504385886 -0.006058647389615259
 0.9948381537039837 -0.04922492630025147 0.004305431023084879 0.020500186827406997 -0.0008353881538787367 -0.006058645381023655 0.000951001804977594 0.009429994365599444
 0.0009651787603220007 0.00942825436937527 -0.0008353881538787367 -0.006058645381023655 0.004302991963292916 0.02050140911234132 0.994838186439528 -0.04922392370870717
 -0.0008353794504385886 -0.006058647389615259 0.000951001804977594 0.009429994365599444 0.994838186439528 -0.04922392370870717 0.0043053894382249725 0.020501192101741245
0.08128386827845 0.004638206578431192 0.022323193000653163 0.9943939810912599 -0.05341578162933123 0.0010971190373074858 0.010217059468697587 -0.00094725134828905 -0.006568749928204577
 0.9943939810912599 -0.05341578162933123 0.004641190078383323 0.022322917370762013 -0.0009472615869821338 -0.006568747500735669 0.0010804737357510677 0.010219143311106174
 0.0010971190373074858 0.010217059468697587 -0.0009472615869821338 -0.006568747500735669 0.004638328120128945 0.022324256011414197 0.9943940192613763 -0.053414695240303546
 -0.00094725134828905 -0.006568749928204577 0.0010804737357510677 0.010219143311106174 0.9943940192613763 -0.053414695240303546 0.004641140651328097 0.022324006173643676
0.08753647353064001 0.004991168416088921 0.02416164966327604 0.9939264976134519 -0.057620299393892946 0.0012381260565194503 0.011005832280889825 -0.0010667789189139443 -0.007079066124590527
 0.9939264976134519 -0.057620299393892946 0.0049946277898884495 0.024161334010293883 -0.0010667908192273472 -0.007079063219576255 0.0012188128243557862 0.011008302561202521
 0.0012381260565194503 0.011005832280889825 -0.0010667908192273472 -0.007079063219576255 0.004991309142122452 0.024162791717519998 0.9939265416512802 -0.05761912911068384
 -0.0010667789189139443 -0.007079066124590527 0.0012188128243557862 0.011008302561202521 0.9939265416512802 -0.05761912911068384 0.004994569791371829 0.024162506290433844
0.09378907878283 0.005362073745481782 0.026015507786116596 0.9934354109426167 -0.061838317228184385 0.001388275366769751 0.01179444446430563 -0.0011940395652349654 -0.007589467882833587
 0.9934354109426167 -0.061838317228184385 0.005366044216030236 0.026015148744347544 -0.0011940532535039605 -0.007589464437123966 0.001366094333563615 0.011797346454016772
 0.001388275366769751 0.01179444446430563 -0.0011940532535039605 -0.007589464437123966 0.005362235062732825 0.02601672833272134 0.9934354612862223 -0.06183706294382095
 -0.0011940395652349654 -0.007589467882833587 0.001366094333563615 0.011797346454016772 0.9934354612862223 -0.06183706294382095 0.005365976903471025 0.026016404445774945
0.100041684035 0.005751220664639358 0.027884482324503256 0.9929204299053183 -0.06606965864905229 0.0015476404824276038 0.012582764481044532 -0.001329108580998486 -0.00809982489837484
 0.9929204299053183 -0.06606965864905229 0.005755737484192645 0.027884076387592802 -0.0013291241833871296 -0.008099820844307746 0.0015223915190922877 0.012586146159879573
 0.0015476404824276038 0.012582764481044532 -0.0013291241833871296 -0.008099820844307746 0.005751403978243197 0.02788578077674135 0.9929204869985838 -0.06606832024644356
 -0.001329108580998486 -0.00809982489837484 0.0015223915190922877 0.012586146159879573 0.9929204869985838 -0.06606832024644356 0.005755660102144618 0.027885415449568757
0.1059090909091 0.006133248072264181 0.029651812043201723 0.9924151849555588 -0.07005227323525427 0.0017056330345881045 0.013322133607089486 -0.00146302330552695 -0.008578582056559083
 0.9924151849555588 -0.07005227323525427 0.006138309675025315 0.02965135878413556 -0.001463040818588655 -0.008578577366008611 0.0016773229242275812 0.01332601149753545
 0.0017056330345881045 0.013322133607089486 -0.001463040818588655 -0.008578577366008611 0.0061334533026237235 0.029653183037106172 0.992415248791508 -0.07005085578004704
 -0.00146302330552695 -0.008578582056559083 0.0016773229242275812 0.01332601149753545 0.992415248791508 -0.07005085578004704 0.006138222144851041 0.02965277601291693
0.1062942892872 0.006158905253131622 0.029768289418427085 0.992381264662285 -0.07031413465331268 0.0017162927919564415 0.013370657713627603 -0.001472059073910896 -0.00861000458307196
 0.992381264662285 -0.07031413465331268 0.006164003708981307 0.029767832937361238 -0.0014720767162871896 -0.008609999848419819 0.0016877755399057103 0.013374569797701767
 0.0017162927919564415 0.013370657713627603 -0.0014720767162871896 -0.008609999848419819 0.006159111965530477 0.029769665155321142 0.9923813289548215 -0.07031271200364926
 -0.001472059073910896 -0.00861000458307196 0.0016877755399057103 0.013374569797701767 0.9923813289548215 -0.07031271200364926 0.006163915488612759 0.029769255296227353
0.11254689453939999 0.006585421479072226 0.03166664515342447 0.9918176268790438 -0.07457154492687544 0.0018943014675601125 0.01415798656106937 -0.0016229618867848947 -0.009119872015909154
 0.9918176268790438 -0.07457154492687544 0.006591136899125282 0.03166613433428164 -0.0016229816946036848 -0.009119866523843622 0.0018623153696154093 0.014162482530619214
 0.0018943014675601125 0.01415798656106937 -0.0016229816946036848 -0.009119866523843622 0.006585652989070771 0.031668097517334785 0.9918176988269526 -0.07457003789184996
 -0.0016229618867848947 -0.009119872015909154 0.0018623153696154093 0.014162482530619214 0.9918176988269526 -0.07457003789184996 0.006591037057697409 0.03166763992144826
0.11879949979160001 0.007031061096145652 0.03357926458753683 0.9912292298909852 -0.07884167879387623 0.0020817333753402087 0.014944610519282878 -0.0017818855176136002 -0.009629289914690408
 0.9912292298909852 -0.07884167879387623 0.007037428854977706 0.03357869548900645 -0.001781907615809419 -0.009629283583742024 0.0020460777081047683 0.014949746645983739
 0.0020817333753402087 0.014944610519282878 -0.001781907615809419 -0.009629283583742024 0.0070313187988494865 0.033580792882863114 0.9912293099571666 -0.07884008722673493
 -0.0017818855176136002 -0.009629289914690408 0.0020460777081047683 0.014949746645983739 0.9912293099571666 -0.07884008722673493 0.007037316595956232 0.03358028423017662
0.1250521050438 0.007496113535266812 0.03550586099305833 0.9906157888645508 -0.0831243159574407 0.002278652986263418 0.015730386255906576 -0.001948896038209496 -0.010138118618665617
 0.9906157888645508 -0.0831243159574407 0.007503169059550573 0.035505229523817745 -0.001948920551076851 -0.010138111362678235 0.00223912689398631 0.01573622162974449
 0.002278652986263418 0.015730386255906576 -0.001948920551076851 -0.010138111362678235 0.007496398820851722 0.03550746449146899 0.9906158775189282 -0.08312263969760952
 -0.001948896038209496 -0.010138118618665617 0.00223912689398631 0.01573622162974449 0.9906158775189282 -0.08312263969760952 0.007503043572039498 0.03550690134459426
0.131304710296 0.007980865788441286 0.037446145247349995 0.9899770209539942 -0.08741922709802745 0.0024851222873822623 0.016515167674370945 -0.0021240570123885684 -0.010646216087265011
 0.9899770209539942 -0.08741922709802745 0.007988644562884685 0.03744544716308808 -0.00212408406342772 -0.010646207815404901 0.002441524817042766 0.01652176423003074
 0.0024851222873822623 0.016515167674370945 -0.00212408406342772 -0.010646207815404901 0.007981180041725253 0.03744782318168211 0.9899771186747649 -0.08741746597706186
 -0.0021240570123885684 -0.010646216087265011 0.002441524817042766 0.01652176423003074 0.9899771186747649 -0.08741746597706186 0.007988505021748612 0.03744720198328051
0.1375573155481 0.008374483060221241 0.039148197575908955 0.9894238078477007 -0.09147443711901687 0.0026752438618409527 0.0172740618215943 -0.0022815245658165087 -0.011128670962444857
 0.9894238078477007 -0.09147443711901687 0.008383022146602942 0.03914744341990443 -0.0022815541523979964 -0.01112866165658295 0.002627471717176944 0.01728141059824019
 0.0026752438618409527 0.0172740618215943 -0.0022815541523979964 -0.01112866165658295 0.008374826819365003 0.03914994967109065 0.989423915049646 -0.09147259105979512
 -0.0022815245658165087 -0.011128670962444857 0.002627471717176944 0.01728141059824019 0.989423915049646 -0.09147259105979512 0.008382868685589526 0.039149280822363276
0.1438099208003 0.008781969953900166 0.040841309156754026 0.9888511147821539 -0.09551936340806061 0.0028730378211587583 0.018029799409556447 -0.0024452780661186387 -0.011608239913113827
 0.9888511147821539 -0.09551936340806061 0.008791305125808148 0.040840495631661866 -0.0024453102882323963 -0.011608229488109153 0.002820907559350295 0.01803795716665722
 0.0028730378211587583 0.018029799409556447 -0.0024453102882323963 -0.011608229488109153 0.008782344443558274 0.04084313466726734 0.9888512319407384 -0.09551743225111776
 -0.0024452780661186387 -0.011608239913113827 0.002820907559350295 0.01803795716665722 0.9888512319407384 -0.09551743225111776 0.008791137072624824 0.040842415487155996
0.1500625260525 0.009203183122128733 0.0425253384529824 0.9882590891551198 -0.09955390504970602 0.0030784355210501887 0.018782301002127588 -0.0026152510584187185 -0.012084848515852988
 0.9882590891551198 -0.09955390504970602 0.009213350212433235 0.04252446208761672 -0.002615286013975891 -0.012084836883343025 0.0030217647355799127 0.018791326586059306
 0.0030784355210501887 0.018782301002127588 -0.002615286013975891 -0.012084836883343025 0.00920358955234518 0.04252723660784116 0.9882592167523944 -0.09955188862687683
 -0.0026152510584187185 -0.012084848515852988 0.0030217647355799127 0.018791326586059306 0.9882592167523944 -0.09955188862687683 0.009213166892084717 0.0425264642640314
0.15631513130469998 0.009637978206603108 0.0442001481978133 0.9876478791062149 -0.10357796148955155 0.0032913675033483963 0.019531488523278698 -0.0027913762698764757 -0.01255842392262928
