! Created with skrf 1.8.0 (http://scikit-rf.org).
# GHz S RI R 50.0 
!freq ReS11 ImS11 ReS12 ImS12 ReS13 ImS13
! ReS14 ImS14
! ReS21 ImS21 ReS22 ImS22 ReS23 ImS23
! ReS24 ImS24
! ReS31 ImS31 ReS32 ImS32 ReS33 ImS33
! ReS34 ImS34
! ReS41 ImS41 ReS42 ImS42 ReS43 ImS43
! ReS44 ImS44
!
0.0 0.001899810919573 0.0 0.9981001890719 0.0 7.401655554634e-05 0.0 -7.401655377041e-05 9.064413565885056e-21
 0.9981001890719 0.0 0.001899810919608 0.0 -7.401655377143e-05 9.064413566009971e-21 7.401655554823e-05 0.0
 7.401655554634e-05 0.0 -7.401655377143e-05 9.064413566009971e-21 0.00189981091818 0.0 0.9981001890705 0.0
 -7.401655377041e-05 9.064413565885056e-21 7.401655554823e-05 0.0 0.9981001890705 0.0 0.001899810918167 0.0
0.005 0.0020453184242200874 0.001550294377123567 0.997915863527059 -0.0039784670770204545 0.0001049358930459357 0.000831768698170593 -0.00010163940386847217 -0.0005190208871490141
 0.997915863527059 -0.0039784670770204545 0.002045343536409951 0.0015502798156845745 -0.00010163731066018065 -0.0005190193979943566 0.00010476874170407496 0.0008318322398844941
 0.0001049358930459357 0.000831768698170593 -0.00010163731066018065 -0.0005190193979943566 0.0020453193138707847 0.0015503612261860975 0.9979158639207222 -0.003978400014205728
 -0.00010163940386847217 -0.0005190208871490141 0.00010476874170407496 0.0008318322398844941 0.9979158639207222 -0.003978400014205728 0.0020453434359622618 0.0015503470981448292
0.006252605252188 0.0020838563001752126 0.001943926167246945 0.9978666731716714 -0.004973996637500537 0.00011399997626594737 0.0010400798240509956 -0.00010961824154899902 -0.0006494272919890349
 0.9978666731716714 -0.004973996637500537 0.0020838955550947927 0.0019439077475217885 -0.00010961498345848988 -0.0006494254594385775 0.00011373882000426322 0.0010401624498345356
 0.00011399997626594737 0.0010400798240509956 -0.00010961498345848988 -0.0006494254594385775 0.00208385760174377 0.0019440097267947936 0.997866673698357 -0.004973912822289594
 -0.00010961824154899902 -0.0006494272919890349 0.00011373882000426322 0.0010401624498345356 0.997866673698357 -0.004973912822289594 0.0020838953101230467 0.0019439918304596107
0.01250521050438 0.0022889142583477815 0.00392810208116478 0.997602909713757 -0.009948345096376555 0.00016719622012675357 0.00208026458288953 -0.00015585367672983012 -0.0013017585271783588
 0.997602909713757 -0.009948345096376555 0.0022890710012485292 0.00392806305694359 -0.0001558408264787422 -0.0013017551860121691 0.00016615480731182992 0.002080464815104016
 0.00016719622012675357 0.00208026458288953 -0.0001558408264787422 -0.0013017551860121691 0.002288918900879551 0.003928269068594895 0.9976029112714926 -0.009948177726401384
 -0.00015585367672983012 -0.0013017585271783588 0.00016615480731182992 0.002080464815104016 0.9976029112714926 -0.009948177726401384 0.002289069489458669 0.003928230911045918
0.01875781575657 0.0025155101310360473 0.0059399229181184 0.9973085164495616 -0.014935058021279285 0.00023373823975507115 0.003121200076291975 -0.00021288111235937915 -0.001955969999972593
 0.9973085164495616 -0.014935058021279285 0.0025158623381388357 0.005939860944795786 -0.00021285244256541864 -0.0019559655542354852 0.00023139887690579644 0.0031215608414578164
 0.00023373823975507115 0.003121200076291975 -0.00021285244256541864 -0.0019559655542354852 0.0025155201199799832 0.005940173360260389 0.9973085195233252 -0.01493480723128056
 -0.00021288111235937915 -0.001955969999972593 0.00023139887690579644 0.0031215608414578164 0.9973085195233252 -0.01493480723128056 0.002515858539760431 0.005940112427211433
0.02501042100875 0.0027641486418049977 0.007976463729455215 0.9969830941997789 -0.019936448610581112 0.0003137607838073411 0.0041628624796002526 -0.0002808516590252842 -0.002611696947004008
 0.9969830941997789 -0.019936448610581112 0.0027647741455820067 0.007976376333982765 -0.0002808010138164317 -0.00261169188669025 0.00030960568133981726 0.0041634344465239
 0.0003137607838073411 0.0041628624796002526 -0.0002808010138164317 -0.00261169188669025 0.0027641659760109434 0.007976797711752337 0.9969830992785272 -0.019936114510518833
 -0.0002808516590252842 -0.002611696947004008 0.00030960568133981726 0.0041634344465239 0.9969830992785272 -0.019936114510518833 0.0027647670629303463 0.007976711368224318
0.03126302626094 0.0030353131714530466 0.010036166714904133 0.9966262266355701 -0.024953443368789713 0.00040739807752670403 0.005205128379922693 -0.00035991069790931705 -0.003268663481183812
 0.9966262266355701 -0.024953443368789713 0.00303628971473622 0.01003605130230788 -0.00035983198157551235 -0.0032686583829658004 0.0004009089112177767 0.00520597001119832
 0.00040739807752670403 0.005205128379922693 -0.00035983198157551235 -0.0032686583829658004 0.0030353398356143214 0.010036584365231995 0.9966262342011226 -0.024953026059971028
 -0.00035991069790931705 -0.003268663481183812 0.0004009089112177767 0.00520597001119832 0.9966262342011226 -0.024953026059971028 0.003036278361064807 0.010036469861802918
0.037515631513130004 0.003329475317272438 0.012117976382946531 0.9962374903378148 -0.029986446909199854 0.0005147823002965783 0.006247834023305962 -0.00045019891115280833 -0.0039266234049743194
 0.9962374903378148 -0.029986446909199854 0.0033308805925096503 0.01211783023924634 -0.0004500860825716085 -0.003926618932446399 0.0005054400362579046 0.00624901165341999
 0.0005147823002965783 0.006247834023305962 -0.0004500860825716085 -0.003926618932446399 0.0033295132883019935 0.012118477848298169 0.9962375008699829 -0.029985946507346494
 -0.00045019891115280833 -0.0039266234049743194 0.0005054400362579046 0.00624901165341999 0.9962375008699829 -0.029985946507346494 0.0033308639966301745 0.012118332323921219
0.043768236765320004 0.0036470985502422746 0.014221076339050839 0.9958164589619329 -0.03503560511568694 0.0006360428362606153 0.007290793358751286 -0.0005518526141130403 -0.004585342237032361
 0.9958164589619329 -0.03503560511568694 0.0036490102338598207 0.014220896632483174 -0.0005516996838437705 -0.004585339140827121 0.0006233276692902644 0.007292381280188464
 0.0006360428362606153 0.007290793358751286 -0.0005516996838437705 -0.004585339140827121 0.0036471497977917187 0.014221661800856033 0.9958164729359591 -0.035035021735420765
 -0.0005518526141130403 -0.004585342237032361 0.0006233276692902644 0.007292381280188464 0.9958164729359591 -0.035035021735420765 0.0036489874378858728 0.01422148228412444
0.050020842017509996 0.0039886398695934445 0.016344780570271233 0.9953627054042334 -0.04010091380996732 0.0007713058035298645 0.008333805508876203 -0.0006650038338420156 -0.005244589821891232
 0.9953627054042334 -0.04010091380996732 0.003991135652881426 0.01634456435097568 -0.0006648048623116737 -0.005244588939728678 0.0007546971561602609 0.00833588606113644
 0.0007713058035298645 0.008333805508876203 -0.0006648048623116737 -0.005244588939728678 0.003988706357331431 0.01634545022754731 0.9953627232911002 -0.04010024758129696
 -0.0006650038338420156 -0.005244589821891232 0.0007546971561602609 0.00833588606113644 0.9953627232911002 -0.04010024758129696 0.00399110571288102 0.016345233636466294
0.055454545454549996 0.004305224704935506 0.01820660274701588 0.9949414741027969 -0.04451586020135653 0.0009003203423005123 0.009240093154660718 -0.0007727723577278249 -0.005817747181995758
 0.9949414741027969 -0.04451586020135653 0.004308291217234826 0.018206352308788885 -0.0007725285893822448 -0.005817748971887923 0.0008799047965388373 0.009242675005175671
 0.0009003203423005123 0.009240093154660718 -0.0007725285893822448 -0.005817748971887923 0.0043053060288135445 0.018207345756808633 0.9949414957689863 -0.04451512208336224
 -0.0007727723577278249 -0.005817747181995758 0.0008799047965388373 0.009242675005175671 0.9949414957689863 -0.04451512208336224 0.004308254313293988 0.018207094357426037
0.056273447269699996 0.0043545506140456065 0.018488480051457472 0.9948758031337214 -0.04518227210444541 0.0009206937011242871 0.009376658478399146 -0.0007897802796945986 -0.005904136712512819
 0.9948758031337214 -0.04518227210444541 0.004357708232808486 0.01848822425023578 -0.000789529376349797 -0.0059041389692190685 0.0008996702592616691 0.009379322137943224
 0.0009206937011242871 0.009376658478399146 -0.000789529376349797 -0.0059041389692190685 0.004354634301936672 0.01848923413150209 0.9948758253997686 -0.04518152316171415
 -0.0007897802796945986 -0.005904136712512819 0.0008996702592616691 0.009379322137943224 0.9948758253997686 -0.04518152316171415 0.004357670218946407 0.018488977272502854
0.06252605252188 0.004745276850420153 0.020651613441654084 0.9943553271060398 -0.05027951167540249 0.0010843251207128908 0.010419131189345945 -0.0009263052532023803 -0.006563752237792511
 0.9943553271060398 -0.05027951167540249 0.004749174113928946 0.020651314867483943 -0.0009259965760699488 -0.006563758645296239 0.0010583648943961635 0.010422476659308986
 0.0010843251207128908 0.010419131189345945 -0.0009259965760699488 -0.006563758645296239 0.004745379695214811 0.020652452189473366 0.9943553542121771 -0.05027868016741875
 -0.0009263052532023803 -0.006563752237792511 0.0010583648943961635 0.010422476659308986 0.9943553542121771 -0.05027868016741875 0.004749127109775475 0.020652151755055716
0.06877865777407 0.00516125953399185 0.02283364960843252 0.993800854456801 -0.055392414220454794 0.0012623144899377224 0.011460994739602399 -0.001074697528506091 -0.0072232033589014885
 0.993800854456801 -0.055392414220454794 0.005165974353368529 0.022833304944908567 -0.0010743252841332557 -0.007223215016203627 0.0012308948917528694 0.011465129038764128
 0.0012623144899377224 0.011460994739602399 -0.0010743252841332557 -0.007223215016203627 0.0051613834910205 0.02283457329055176 0.9938008868583496 -0.05539150030622956
 -0.001074697528506091 -0.0072232033589014885 0.0012308948917528694 0.011465129038764128 0.9938008868583496 -0.05539150030622956 0.005165917456347376 0.02283422585607135
0.07503126302626001 0.0056029345294986675 0.02503407656921593 0.9932119650604769 -0.06052072251256638 0.0014547718372641945 0.01250201321963426 -0.0012350712121872002 -0.007882253980180783
 0.9932119650604769 -0.06052072251256638 0.005608544946385048 0.02503368236988189 -0.0012346296558541877 -0.00788227207330795 0.0014173697742811955 0.012507051770189246
 0.0014547718372641945 0.01250201321963426 -0.0012346296558541877 -0.00788227207330795 0.005603081554265113 0.02503508547450741 0.9932120032069339 -0.060519726359931254
 -0.0012350712121872002 -0.007882253980180783 0.0014173697742811955 0.012507051770189246 0.9932120032069339 -0.060519726359931254 0.005608477267761525 0.025034687493799165
0.08128386827845 0.006070732548746762 0.027252394159677444 0.992588242011256 -0.06566414774117026 0.0016618025696698113 0.013541944285137884 -0.0014075355909917969 -0.008540664517298624
 0.992588242011256 -0.06566414774117026 0.006077316762969633 0.027251946842216327 -0.0014070190270186556 -0.008540690319232748 0.0016178945461731047 0.013548010998905525
 0.0016618025696698113 0.013541944285137884 -0.0014070190270186556 -0.008540690319232748 0.006070904597683917 0.02725348859411951 0.9925882863451889 -0.0656630695314043
 -0.0014075355909917969 -0.008540664517298624 0.0016178945461731047 0.013548010998905525 0.9925882863451889 -0.0656630695314043 0.006077237427955419 0.027253036394027416
0.08753647353064001 0.006565079028001773 0.029488108969883322 0.991929272048977 -0.07082237460076979 0.0018835072600961705 0.014580539576979912 -0.0015921949703914273 -0.00919819163148052
 0.991929272048977 -0.07082237460076979 0.006572715426116273 0.02948760480918341 -0.001591597752705773 -0.009198226502065475 0.0018325694891659328 0.014587766939920836
 0.0018835072600961705 0.014580539576979912 -0.001591597752705773 -0.009198226502065475 0.006565278060403763 0.02948928926029044 0.9919293230066262 -0.0708212145243075
 -0.0015921949703914273 -0.00919819163148052 0.0018325694891659328 0.014587766939920836 0.9919293230066262 -0.0708212145243075 0.006572623574163924 0.029488779034094435
0.09378907878283 0.0070863939672900535 0.031740730750229915 0.9912346459514866 -0.07599506492533373 0.0021199814403235163 0.0156175450547989 -0.0017891485087193181 -0.00985458806391207
 0.9912346459514866 -0.07599506492533373 0.007095161151180621 0.031740165870147774 -0.0017884650415089613 -0.00985463344973494 0.002061489962928626 0.01562607420952465
 0.0021199814403235163 0.0156175450547989 -0.0017884650415089613 -0.00985463344973494 0.007086621946560156 0.03174199724089782 0.9912347039617447 -0.07599382318434167
 -0.0017891485087193181 -0.00985458806391207 0.002061489962928626 0.01562607420952465 0.9912347039617447 -0.07599382318434167 0.007095055935902056 0.03174142504052626
0.100041684035 0.00763509174134558 0.034009769796107495 0.9905039589019318 -0.08118186035996558 0.002371315399400639 0.016652701265932917 -0.0019984900468952094 -0.010509602548700326
 0.9905039589019318 -0.08118186035996558 0.0076450685562118184 0.034009140160164944 -0.0019977147852553094 -0.01050965998294076 0.0023047462102369796 0.016662682092060455
 0.002371315399400639 0.016652701265932917 -0.0019977147852553094 -0.01050965998294076 0.007635350635611443 0.03401112284822648 0.9905040243854637 -0.08118053716825982
 -0.0019984900468952094 -0.010509602548700326 0.0023047462102369796 0.016662682092060455 0.9905040243854637 -0.08118053716825982 0.0076449491450814415 0.034010484575392956
0.1059090909091 0.008175254795252317 0.03615351615311474 0.989785133130474 -0.08606161101638544 0.0026207561232712093 0.017622168025615868 -0.002206280403071424 -0.011122779928086052
 0.989785133130474 -0.08606161101638544 0.008186438671431432 0.036152821927333385 -0.002205414005232902 -0.011122850139884434 0.002546130355467232 0.01763365525672009
 0.0026207561232712093 0.017622168025615868 -0.002205414005232902 -0.011122850139884434 0.008175544495806507 0.03615495077762115 0.9897852060022575 -0.08606021159578048
 -0.002206280403071424 -0.011122779928086052 0.002546130355467232 0.01763365525672009 0.9897852060022575 -0.08606021159578048 0.008186305194534916 0.036154246632706825
0.1062942892872 0.008211580888367728 0.036294735001689706 0.9897368108381202 -0.0863823843803131 0.0026375939860703397 0.017685743578869623 -0.0022203079359063675 -0.011162979775550008
 0.9897368108381202 -0.0863823843803131 0.00822284645166213 0.03629403640236915 -0.0022194353867811523 -0.011163050877803666 0.0025624231649155173 0.017697334771099162
 0.0026375939860703397 0.017685743578869623 -0.0022194353867811523 -0.011163050877803666 0.008211872672333446 0.036296174993458746 0.9897368842073618 -0.08638097996233836
 -0.0022203079359063675 -0.011162979775550008 0.0025624231649155173 0.017697334771099162 0.9897368842073618 -0.08638097996233836 0.008222712026392123 0.03629546638947019
0.11254689453939999 0.008816263884315776 0.038595132388089766 0.9889328067889773 -0.09159624385419918 0.0029188964141629572 0.01871640239375764 -0.002454684863401198 -0.011814460389675806
 0.9889328067889773 -0.09159624385419918 0.008828897613801281 0.03859436043492168 -0.0024537095862837643 -0.011814546865795732 0.0028346002627893264 0.018729771537493112
 0.0029188964141629572 0.01871640239375764 -0.0024537095862837643 -0.011814546865795732 0.008816590540442143 0.03859665971424891 0.9889328884479871 -0.09159475844474284
 -0.002454684863401198 -0.011814460389675806 0.0028346002627893264 0.018729771537493112 0.9889328884479871 -0.09159475844474284 0.008828747370793547 0.03859587634861798
0.11879949979160001 0.009449536905343765 0.04091046398455473 0.9880915572031758 -0.09682303026788665 0.003215296071650601 0.01974440333158112 -0.002701697678996573 -0.01246378102765588
 0.9880915572031758 -0.09682303026788665 0.009463618547965104 0.040909614090918284 -0.0027006142869845404 -0.012463884669480988 0.0031213512555061606 0.019759726975897472
 0.003215296071650601 0.01974440333158112 -0.0027006142869845404 -0.012463884669480988 0.009449900424913503 0.040912079055983756 0.9880916475466146 -0.09682146411145921
 -0.002701697678996573 -0.01246378102765588 0.0031213512555061606 0.019759726975897472 0.9880916475466146 -0.09682146411145921 0.00946345169794572 0.04091121631376369
0.1250521050438 0.010111789580277045 0.04324022696513918 0.9872126782681061 -0.10206232071424376 0.0035268603321995744 0.020769467420520965 -0.0029614172206745525 -0.013110674370629525
 0.9872126782681061 -0.10206232071424376 0.01012739924108222 0.04323929433355888 -0.0029602203813443007 -0.013110797055740805 0.0034227440264648044 0.020786931148441105
 0.0035268603321995744 0.020769467420520965 -0.0029602203813443007 -0.013110797055740805 0.010112191964932175 0.04324193020694088 0.9872127776811599 -0.10206067406611415
 -0.0029614172206745525 -0.013110674370629525 0.0034227440264648044 0.020786931148441105 0.9872127776811599 -0.10206067406611415 0.010127215009559142 0.04324098327463547
0.131304710296 0.010803404737281412 0.04558391297385574 0.9862957922246329 -0.10731367871044228 0.0038536503700411263 0.02179131127268554 -0.0032339081410711597 -0.013754869221874168
 0.9862957922246329 -0.10731367871044228 0.010820622907640978 0.04558289258014226 -0.003232592577642782 -0.01375501291329748 0.003738840409908297 0.02181110976860383
 0.0038536503700411263 0.02179131127268554 -0.003232592577642782 -0.01375501291329748 0.010803847999949294 0.04558570482556901 0.9862959010820629 -0.10731195183520809
 -0.0032339081410711597 -0.013754869221874168 0.003738840409908297 0.02181110976860383 0.9862959010820629 -0.10731195183520809 0.01082042053439198 0.04558466867603743
0.1375573155481 0.011378970251324973 0.04763599047912966 0.985486397088092 -0.11227142768196384 0.004158853756591668 0.022780857343219437 -0.003482503587480364 -0.01436722804994212
 0.985486397088092 -0.11227142768196384 0.011397884924913546 0.04763489641342614 -0.0034810617005705756 -0.014367393205010608 0.004033095008286552 0.022802985132494468
 0.004158853756591668 0.022780857343219437 -0.0034810617005705756 -0.014367393205010608 0.01137945764489879 0.04763787065127385 0.9854865157952072 -0.11226962083716147
 -0.003482503587480364 -0.01436722804994212 0.004033095008286552 0.022802985132494468 0.9854865157952072 -0.11226962083716147 0.011397662369232592 0.0476367608708178
0.1438099208003 0.011975107066728772 0.0496747189871354 0.9846478130550944 -0.11721403459997286 0.00447629520077346 0.023764725214371372 -0.003740915840290297 -0.014974448580866464
 0.9846478130550944 -0.11721403459997286 0.011995800392573676 0.04967354687404455 -0.003739342014605589 -0.014974637147943233 0.004339114481451812 0.023789362518915697
 0.00447629520077346 0.023764725214371372 -0.003739342014605589 -0.014974637147943233 0.011975640849457528 0.0496766878718154 0.9846479419764215 -0.11721214806708649
 -0.003740915840290297 -0.014974448580866464 0.004339114481451812 0.023789362518915697 0.9846479419764215 -0.11721214806708649 0.011995556684987044 0.049675500257894696
0.1500625260525 0.012591562605082618 0.051699853488575157 0.9837802980460095 -0.12214130010631588 0.004805837317578317 0.024742760774965504 -0.004009012752102388 -0.015576389900209988
 0.9837802980460095 -0.12214130010631588 0.012614117133470146 0.051698598584682925 -0.004007301397649163 -0.015576603904800515 0.004656765118075689 0.024770094405640045
 0.004805837317578317 0.024742760774965504 -0.004007301397649163 -0.015576603904800515 0.012592145062455474 0.05170191149020848 0.9837804375363045 -0.12213933417474804
 -0.004009012752102388 -0.015576389900209988 0.004656765118075689 0.024770094405640045 0.9837804375363045 -0.12213933417474804 0.012613851304387377 0.05170064148921827
0.15631513130469998 0.013228081984994176 0.05371115637202874 0.9828841118542864 -0.12705302738515886 0.005147340795819265 0.02571481320147932 -0.004286660284456222 -0.016172914663584236
 0.9828841118542864 -0.12705302738515886 0.013252580677186354 0.053709813548085836 -0.004284805837234151 -0.0161731562076288 0.004985911346617743 0.025745036476250018
