! Created with skrf 1.8.0 (http://scikit-rf.org).
# GHz S RI R 50.0 
!freq ReS11 ImS11 ReS12 ImS12 ReS13 ImS13
! ReS14 ImS14
! ReS21 ImS21 ReS22 ImS22 ReS23 ImS23
! ReS24 ImS24
! ReS31 ImS31 ReS32 ImS32 ReS33 ImS33
! ReS34 ImS34
! ReS41 ImS41 ReS42 ImS42 ReS43 ImS43
! ReS44 ImS44
!
0.0 0.00160861209867 0.0 0.9983913879013 0.0 6.202049835656e-05 0.0 -6.202049897736e-05 7.595320555414562e-21
 0.9983913879013 0.0 0.001608612098693 0.0 -6.202049897811e-05 7.59532055550641e-21 6.202049835544e-05 0.0
 6.202049835656e-05 0.0 -6.202049897811e-05 7.59532055550641e-21 0.001608612095846 0.0 0.9983913878984 0.0
 -6.202049897736e-05 7.595320555414562e-21 6.202049835544e-05 0.0 0.9983913878984 0.0 0.001608612095837 0.0
0.005 0.0017309019049112809 0.0013183831970663346 0.9982366612834217 -0.0033692193752922093 8.659046054562663e-05 0.0006680525369645446 -8.419224723590563e-05 -0.00042195817176406857
 0.9982366612834217 -0.0033692193752922093 0.0017309043508032672 0.0013183817878078504 -8.419589086745019e-05 -0.0004219609771527108 8.656606260597043e-05 0.000668061861407645
 8.659046054562663e-05 0.0006680525369645446 -8.419589086745019e-05 -0.0004219609771527108 0.001730899622363526 0.0013183172938552935 0.9982366609189833 -0.0033692864341877365
 -8.419224723590563e-05 -0.00042195817176406857 8.656606260597043e-05 0.000668061861407645 0.9982366609189833 -0.0033692864341877365 0.0017309059073051822 0.001318313574468951
0.006252605252188 0.0017630321992577855 0.0016531451306563702 0.9981957464533998 -0.004212337898881949 9.363101316235338e-05 0.0008353933337277958 -9.047246165857687e-05 -0.0005279863303087932
 0.9981957464533998 -0.004212337898881949 0.0017630360222937846 0.0016531433125840955 -9.047813138178083e-05 -0.0005279897891244242 9.359289408522354e-05 0.0008354054386676085
 9.363101316235338e-05 0.0008353933337277958 -9.047813138178083e-05 -0.0005279897891244242 0.0017630287038720137 0.0016530627659775035 0.9981957459568026 -0.00421242171321461
 -9.047246165857687e-05 -0.0005279863303087932 9.359289408522354e-05 0.0008354054386676085 0.9981957459568026 -0.00421242171321461 0.001763038528915085 0.0016530580517123208
0.01250521050438 0.0019325068795735755 0.0033407382195177896 0.9979784888073734 -0.008425400313279275 0.0001341185089460112 0.0016711710548816365 -0.0001262144671865801 -0.0010584807058839853
 0.9979784888073734 -0.008425400313279275 0.001932522140674469 0.0033407340258416337 -0.000126236810400905 -0.0010584870961629573 0.00013396651063833016 0.0016712001297485232
 0.0001341185089460112 0.0016711710548816365 -0.000126236810400905 -0.0010584870961629573 0.001932493492582059 0.0033405737992219377 0.9979784873987495 -0.008425567706286125
 -0.0001262144671865801 -0.0010584807058839853 0.00013396651063833016 0.0016712001297485232 0.9979784873987495 -0.008425567706286125 0.0019325327304938707 0.003340563692700175
0.01875781575657 0.0021174184787876933 0.0050521807024416325 0.9977393360488115 -0.012649424213948136 0.00018357933907464885 0.0025078661313258778 -0.00016935871391642577 -0.0015907320208473831
 0.9977393360488115 -0.012649424213948136 0.002117452763682546 0.005052173574366885 -0.00016940853891628238 -0.0015907407089661325 0.00018323792009464104 0.002507918029950023
 0.00018357933907464885 0.0025078661313258778 -0.00016940853891628238 -0.0015907407089661325 0.0021173888126666492 0.005051934469755358 0.9977393333061797 -0.012649675082708685
 -0.00016935871391642577 -0.0015907320208473831 0.00018323792009464104 0.002507918029950023 0.9977393333061797 -0.012649675082708685 0.00211747699478752 0.005051918184902691
0.02501042100875 0.0023181373184176074 0.0067850679152020674 0.9974779978851352 -0.016886440682959653 0.0002421109686890847 0.0033454995712885573 -0.00022001360969357487 -0.00212449473676033
 0.9974779978851352 -0.016886440682959653 0.0023181981928729893 0.006785057294342273 -0.000220101594926124 -0.0021245049720029557 0.00024150457877172146 0.0033455811019444566
 0.0002421109686890847 0.0033454995712885573 -0.000220101594926124 -0.0021245049720029557 0.002318084994644693 0.006784740122905029 0.9974779933877947 -0.016886774979457907
 -0.00022001360969357487 -0.00212449473676033 0.00024150457877172146 0.0033455811019444566 0.9974779933877947 -0.016886774979457907 0.0023182416212122223 0.006784716772528559
0.03126302626094 0.0025350184378661786 0.008538154431879616 0.9971941696645202 -0.02113730954708307 0.0003098111098040693 0.004184017019940193 -0.0002782843965720494 -0.0026595922876435857
 0.9971941696645202 -0.02113730954708307 0.002535113452187352 0.008538139760991097 -0.00027842111254406613 -0.002659603200866619 0.000308864120849169 0.00418413595040098
 0.0003098111098040693 0.004184017019940193 -0.00027842111254406613 -0.002659603200866619 0.0025349370846937213 0.008537745396597707 0.9971941629932125 -0.021137727224127083
 -0.0002782843965720494 -0.0026595922876435857 0.000308864120849169 0.00418413595040098 0.9971941629932125 -0.021137727224127083 0.0025351816345707693 0.008537713993055444
0.037515631513130004 0.002768409081653526 0.010310622226717414 0.9968875401273034 -0.025402451152745437 0.0003867767916571894 0.005023334120182286 -0.0003442738860013221 -0.0031958717277341554
 0.9968875401273034 -0.025402451152745437 0.002768545773893682 0.010310602950447235 -0.0003444698063773437 -0.0031958823310168213 0.00038541346790800735 0.005023499186729301
 0.0003867767916571894 0.005023334120182286 -0.0003444698063773437 -0.0031958823310168213 0.0027682923318468385 0.010310132303477137 0.996887530862698 -0.025402952190161338
 -0.0003442738860013221 -0.0031958717277341554 0.00038541346790800735 0.005023499186729301 0.996887530862698 -0.025402952190161338 0.0027686442682894677 0.010310091758212066
0.043768236765320004 0.003018651591275435 0.01210185789852647 0.9965577945633328 -0.02968206906868001 0.0004731039206619129 0.00586335030511374 -0.0004180827110075599 -0.0037331899477657114
 0.9965577945633328 -0.02968206906868001 0.0030188374902431906 0.01210183346398163 -0.00041834821912844984 -0.003733199134285245 0.00047124840560466613 0.005863571222849679
 0.0004731039206619129 0.00586335030511374 -0.00041834821912844984 -0.003733199134285245 0.003018493080114057 0.012101287502280888 0.996557782284396 -0.029682653452612433
 -0.0004180827110075599 -0.0037331899477657114 0.00047124840560466613 0.005863571222849679 0.996557782284396 -0.029682653452612433 0.0030189718552055623 0.01210123662527479
0.050020842017509996 0.003286084738943122 0.013911360633614438 0.9962046164144747 -0.03397624204831476 0.0005688870081547239 0.006703954505031528 -0.0004998094113632934 -0.004271407979277807
 0.9962046164144747 -0.03397624204831476 0.0032863273669186763 0.013911330491080811 -0.0005001548044339975 -0.004271414523300472 0.0005664633203446156 0.006704241978677333
 0.0005688870081547239 0.006703954505031528 -0.0005001548044339975 -0.004271414523300472 0.003285878106717881 0.013910710241403806 0.9962046007006506 -0.03397690976988365
 -0.0004998094113632934 -0.004271407979277807 0.0005664633203446156 0.006704241978677333 0.9962046007006506 -0.03397690976988365 0.0032865031642949523 0.013910647740417165
0.055454545454549996 0.0035327140802014893 0.015498370638246668 0.9958784172389507 -0.03771982973091765 0.0006598770169930513 0.007434850478242638 -0.0005773376382817744 -0.0047397596393526
 0.9958784172389507 -0.03771982973091765 0.003533012113136872 0.015498335091718317 -0.0005777607515025983 -0.004739762799188376 0.000656897767477189 0.007435205261373219
 0.0006598770169930513 0.007434850478242638 -0.0005777607515025983 -0.004739762799188376 0.0035324604661780322 0.015497651159080809 0.9958783981971098 -0.03772056987650495
 -0.0005773376382817744 -0.0047397596393526 0.000656897767477189 0.007435205261373219 0.9958783981971098 -0.03772056987650495 0.0035332284342951574 0.0154975774269081
0.056273447269699996 0.0035710444099237982 0.01573869703239529 0.9958276882297759 -0.03828496913056665 0.0006742189739285875 0.007545027940359392 -0.0005895504422682355 -0.004810388216806102
 0.9958276882297759 -0.03828496913056665 0.0035713512850554714 0.015738660635848185 -0.0005899859340232347 -0.004810390773716492 0.0006711510082289418 0.007545393675223541
 0.0006742189739285875 0.007545027940359392 -0.0005899859340232347 -0.004810390773716492 0.0035707832991515695 0.015737967177757533 0.9958276686585045 -0.0382857201924564
 -0.0005895504422682355 -0.004810388216806102 0.0006711510082289418 0.007545393675223541 0.9958276686585045 -0.0382857201924564 0.0035715740778205704 0.015737891657352898
0.06252605252188 0.003873863959380897 0.017583476254448883 0.9954266923004133 -0.04260819442563608 0.000789190986275051 0.0083864456720643 -0.0006874001451433069 -0.005349992887049626
 0.9954266923004133 -0.04260819442563608 0.0038742425982751976 0.01758343306197493 -0.0006879358676427445 -0.005349989993405173 0.0007854025186707284 0.008386902385063027
 0.000789190986275051 0.0083864456720643 -0.0006879358676427445 -0.005349989993405173 0.003873542016597875 0.017582667535836677 0.9954266684480229 -0.04260902883446748
 -0.0006874001451433069 -0.005349992887049626 0.0007854025186707284 0.008386902385063027 0.9954266684480229 -0.04260902883446748 0.003874517952375491 0.017582577496369895
0.06877865777407 0.004194874394666048 0.01944533522925716 0.9950013111231878 -0.04694582183981301 0.0009138923235984065 0.00922807752386148 -0.00079345069535884 -0.005890083151185941
 0.9950013111231878 -0.04694582183981301 0.0041953323149416825 0.01944528470351459 -0.0007940967001934164 -0.005890073224792251 0.0009093070184922252 0.009228638954498837
 0.0009138923235984065 0.00922807752386148 -0.0007940967001934164 -0.005890073224792251 0.004194485270242461 0.01944444830758484 0.9950012825642389 -0.04694673960956908
 -0.00079345069535884 -0.005890083151185941 0.0009093070184922252 0.009228638954498837 0.9950012825642389 -0.04694673960956908 0.004195665798638127 0.019444342144102685
0.07503126302626001 0.004534404452663253 0.02132392926195015 0.9945512277640449 -0.05129772441074605 0.001048410248328066 0.010069788673408723 -0.0009077920360705031 -0.006430518543467334
 0.9945512277640449 -0.05129772441074605 0.004534949175331103 0.02132387087044243 -0.0009085582950538219 -0.006430499883466795 0.0010429516679668776 0.0100704695946689
 0.001048410248328066 0.010069788673408723 -0.0009085582950538219 -0.006430499883466795 0.004533941800879697 0.02132296486219788 0.9945511940710171 -0.05129872556202452
 -0.0009077920360705031 -0.006430518543467334 0.0010429516679668776 0.0100704695946689 0.9945511940710171 -0.05129872556202452 0.004535346359140832 0.021322840863207668
0.08128386827845 0.00489278061134691 0.023218925788802382 0.9940761261601053 -0.055663750498663164 0.0011928298874585627 0.010911440058878182 -0.001030511804203502 -0.006971156599927939
 0.9940761261601053 -0.055663750498663164 0.004893419663472476 0.023218859004145977 -0.0010314082097967543 -0.006971127386909239 0.0011864215024651999 0.01091225628802319
 0.0011928298874585627 0.010911440058878182 -0.0010314082097967543 -0.006971127386909239 0.004892238091318831 0.023217884702549083 0.9940760869034468 -0.055664835057177856
 -0.001030511804203502 -0.006971156599927939 0.0011864215024651999 0.01091225628802319 0.9940760869034468 -0.055664835057177856 0.0048938861204046846 0.023217741048676112
0.08753647353064001 0.005270327057642963 0.025130000064535637 0.9935756913814062 -0.06004372805243288 0.0013472341192519274 0.011752888658618664 -0.0011616952485801167 -0.007511852619828805
 0.9935756913814062 -0.06004372805243288 0.005271067974712066 0.025129924364625345 -0.0011627316139651914 -0.007511810915941908 0.0013397993208483596 0.011753857067717614
 0.0013472341192519274 0.011752888658618664 -0.0011627316139651914 -0.007511810915941908 0.005269698333444136 0.025128883152089696 0.9935756461290118 -0.06004489604758702
 -0.0011616952485801167 -0.007511852619828805 0.0013397993208483596 0.011753857067717614 0.9935756461290118 -0.06004489604758702 0.005271609280247857 0.02512871791472673
0.09378907878283 0.005667365625106268 0.027056832084269337 0.9930496098668202 -0.06443746764713822 0.0015117034620177757 0.012593987706720107 -0.0013014251450853929 -0.00805245949696333
 0.9930496098668202 -0.06443746764713822 0.005668215953792298 0.027056746952313807 -0.0013026112041654829 -0.008052403246059619 0.0015031655748606295 0.01259512623313319
 0.0015117034620177757 0.012593987706720107 -0.0013026112041654829 -0.008052403246059619 0.005666644366663045 0.027055640272319385 0.9930495581842282 -0.06443871911547201
 -0.0013014251450853929 -0.00805245949696333 0.0015031655748606295 0.01259512623313319 0.9930495581842282 -0.06443871911547201 0.005668837685601033 0.027055451412062004
0.100041684035 0.00608421570969477 0.028999104325847586 0.9924975696421847 -0.06884476470869262 0.0016863159660176201 0.013434586857461133 -0.0014497817074561109 -0.008592827608276607
 0.9924975696421847 -0.06884476470869262 0.00608518301038062 0.028999009250340383 -0.0014511271146069795 -0.008592754636062246 0.0016765982621510006 0.013435914514066885
 0.0016863159660176201 0.013434586857461133 -0.0014511271146069795 -0.008592754636062246 0.006083395593217031 0.028997838607461433 0.9924975110917872 -0.06884609969457017
 -0.0014497817074561109 -0.008592827608276607 0.0016765982621510006 0.013435914514066885 0.9924975110917872 -0.06884609969457017 0.006085890748168089 0.028997623972579527
0.1059090909091 0.006493685948036377 0.030835481383257483 0.9919556529499276 -0.07299268184735078 0.0018594636411860758 0.01422280839884119 -0.0015969135897707456 -0.009099553058610012
 0.9919556529499276 -0.07299268184735078 0.0064947699050251035 0.03083537651621114 -0.0015984172375568505 -0.00909946231262434 0.0018485689872223445 0.01422433179286644
 0.0018594636411860758 0.01422280839884119 -0.0015984172375568505 -0.00909946231262434 0.006492767318450399 0.030834147280681616 0.9919555875542542 -0.07299409524691278
 -0.0015969135897707456 -0.009099553058610012 0.0018485689872223445 0.01422433179286644 0.9919555875542542 -0.07299409524691278 0.0064955634267232715 0.030833906400534093
0.1062942892872 0.00652119416960242 0.0309565000544613 0.9919192605247464 -0.07326540118302496 0.001871147106279625 0.014274532315770659 -0.0016068424963625563 -0.009132804742690853
 0.9919192605247464 -0.07326540118302496 0.006522286018936859 0.030956394529085222 -0.0016083568260548346 -0.00913271275689266 0.0018601728198155759 0.014276069200902384
 0.001871147106279625 0.014274532315770659 -0.0016083568260548346 -0.00913271275689266 0.0065202688781168345 0.03095516149613163 0.9919191946658856 -0.07326681973254676
 -0.0016068424963625563 -0.009132804742690853 0.0018601728198155759 0.014276069200902384 0.9919191946658856 -0.07326681973254676 0.006523085344319708 0.03095491882087125
0.11254689453939999 0.006978615212311077 0.0329287020374329 0.9913143743197634 -0.07769914680263501 0.002066269677065853 0.015113666951615487 -0.0017726823261121577 -0.00967223605227374
 0.9913143743197634 -0.07769914680263501 0.006979839206012338 0.032928585560784776 -0.0017743750724626963 -0.009672122642839532 0.002053962019542342 0.015115434258864338
 0.002066269677065853 0.015113666951615487 -0.0017743750724626963 -0.009672122642839532 0.006977578436581415 0.03292729177463328 0.9913143007084732 -0.07770064896892595
 -0.0017726823261121577 -0.00967223605227374 0.002053962019542342 0.015115434258864338 0.9913143007084732 -0.07770064896892595 0.006980735702414625 0.03292701867737518
0.11879949979160001 0.007456790272470556 0.03491539153902587 0.9906826050102157 -0.08214576008095566 0.002271753687013331 0.015951830396114686 -0.001947373170208659 -0.01021096402830215
 0.9906826050102157 -0.08214576008095566 0.007458154027944223 0.03491526361432541 -0.0019492537464124934 -0.01021082666759467 0.0022580358633936246 0.015953850423824682
 0.002271753687013331 0.015951830396114686 -0.0019492537464124934 -0.01021082666759467 0.007455635711520161 0.0349139107790941 0.9906825231986539 -0.08214734592207722
 -0.001947373170208659 -0.01021096402830215 0.0022580358633936246 0.015953850423824682 0.9906825231986539 -0.08214734592207722 0.00745915328018204 0.034913604760536336
0.1250521050438 0.00795602788196035 0.03691624753613659 0.9900236489417915 -0.08660498909343987 0.0024876662550362034 0.016788859128637517 -0.0021309840658274024 -0.010748828492788309
 0.9900236489417915 -0.08660498909343987 0.007957539041118998 0.03691610767074622 -0.0021330618035328088 -0.010748664535838212 0.002472461480301898 0.016791155289121954
 0.0024876662550362034 0.016788859128637517 -0.0021330618035328088 -0.010748664535838212 0.007954749243978883 0.03691469755838663 0.9900235584784737 -0.08660665867314517
 -0.0021309840658274024 -0.010748828492788309 0.002472461480301898 0.016791155289121954 0.9900235584784737 -0.08660665867314517 0.007958646635196714 0.0369143559995348
0.131304710296 0.008476633533736441 0.038930946089560735 0.9893372050048599 -0.09107657211140562 0.0027140715069817077 0.017624586558768526 -0.0023235810174736865 -0.01128566660200981
 0.9893372050048599 -0.09107657211140562 0.008478299765614983 0.03893079379450474 -0.002325865166050698 -0.011285473286732964 0.0026973030232829587 0.01762718338728744
 0.0027140715069817077 0.017624586558768526 -0.002325865166050698 -0.011285473286732964 0.008475224536819898 0.038929328247408475 0.9893371054338654 -0.09107832549776897
 -0.0023235810174736865 -0.01128566660200981 0.0026973030232829587 0.01762718338728744 0.9893371054338654 -0.09107832549776897 0.008479521288631218 0.038928948407448524
0.1375573155481 0.008901676021575284 0.040697476494260525 0.9887402579560144 -0.0952984247089692 0.002923038729392635 0.01843315593853697 -0.0024972557869743597 -0.011795627831735815
 0.9887402579560144 -0.0952984247089692 0.008903506255605648 0.04069731689502979 -0.002499760104797232 -0.011795404827369932 0.0029046671835885455 0.01843605043344073
 0.002923038729392635 0.01843315593853697 -0.002499760104797232 -0.011795404827369932 0.00890013097032268 0.04069579206721087 0.9887401488641887 -0.09530026190504355
 -0.0024972557869743597 -0.011795627831735815 0.0029046671835885455 0.01843605043344073 0.9887401488641887 -0.09530026190504355 0.00890484662851077 0.040695376845037025
0.1438099208003 0.009341754231574358 0.04245433919596467 0.9881221738875261 -0.09950919116789761 0.003140431660727768 0.019238188395475253 -0.002677857406050878 -0.01230233829215711
 0.9881221738875261 -0.09950919116789761 0.009343756370034692 0.04245417219080417 -0.002680591835925301 -0.012302082870474414 0.0031203870882354594 0.01924140308154662
 0.003140431660727768 0.019238188395475253 -0.002680591835925301 -0.012302082870474414 0.009340066961517497 0.04245258957306943 0.9881220548226437 -0.09951111223187295
 -0.002677857406050878 -0.01230233829215711 0.0031203870882354594 0.01924140308154662 0.9881220548226437 -0.09951111223187295 0.00934522106145404 0.04245213654671437
0.1500625260525 0.009796707921617746 0.04420137600743521 0.9874831173723692 -0.10370875513901068 0.0033661716525955282 0.020039593549944428 -0.002865309363431288 -0.012805712735432379
 0.9874831173723692 -0.10370875513901068 0.00979888990038762 0.044201201473917755 -0.002868283823426541 -0.012805422058539134 0.0033443845468809526 0.020043151771680024
 0.0033661716525955282 0.020039593549944428 -0.002868283823426541 -0.012805422058539134 0.009794872283895091 0.04419956263219692 0.9874829878790006 -0.10371076013289197
 -0.002865309363431288 -0.012805712735432379 0.0033443845468809526 0.020043151771680024 0.9874829878790006 -0.10371076013289197 0.00980048437244339 0.04419906926374342
0.15631513130469998 0.010266375650035369 0.045938433472995 0.9868232538880114 -0.1078970009324654 0.0036001790886532343 0.020837282641436236 -0.0030595341714234137 -0.01330566777517341
 0.9868232538880114 -0.1078970009324654 0.01026874543969484 0.04593825126644676 -0.0030627585543849412 -0.013305338896046221 0.0035765804090959084 0.02084120855373313
