! Created with skrf 1.8.0 (http://scikit-rf.org).
# GHz S RI R 50.0 
!freq ReS11 ImS11 ReS12 ImS12 ReS13 ImS13
! ReS14 ImS14
! ReS21 ImS21 ReS22 ImS22 ReS23 ImS23
! ReS24 ImS24
! ReS31 ImS31 ReS32 ImS32 ReS33 ImS33
! ReS34 ImS34
! ReS41 ImS41 ReS42 ImS42 ReS43 ImS43
! ReS44 ImS44
!
0.0 0.001592557539946 0.0 0.9984074424544 0.0 6.130101846362e-05 0.0 -6.130101828707e-05 7.507209582973363e-21
 0.9984074424544 0.0 0.001592557539928 0.0 -6.130101828585e-05 7.507209582823956e-21 6.130101846454e-05 0.0
 6.130101846362e-05 0.0 -6.130101828585e-05 7.507209582823956e-21 0.001592557542763 0.0 0.9984074424572 0.0
 -6.130101828707e-05 7.507209582973363e-21 6.130101846454e-05 0.0 0.9984074424572 0.0 0.001592557542806 0.0
0.005 0.0017135581590984983 0.001306599127244753 0.9982543550374832 -0.003335633634949274 8.535261637295426e-05 0.0006518731246838021 -8.303643296477683e-05 -0.00041325657274595415
 0.9982543550374832 -0.003335633634949274 0.0017135687887198114 0.0013065928749851853 -8.303663156118705e-05 -0.00041325665675774923 8.530160609447198e-05 0.0006518927574578764
 8.535261637295426e-05 0.0006518731246838021 -8.303663156118705e-05 -0.00041325665675774923 0.0017135587699099735 0.0013066659891938003 0.9982543553940741 -0.00333556657083621
 -8.303643296477683e-05 -0.00041325657274595415 8.530160609447198e-05 0.0006518927574578764 0.9982543553940741 -0.00333556657083621 0.001713568888901524 0.001306660140660619
0.006252605252188 0.0017453337393101573 0.0016383647853275673 0.9982138955541291 -0.004170349312619166 9.223832741148424e-05 0.0008151659191898015 -8.918507162664832e-05 -0.0005170970942295416
 0.9982138955541291 -0.004170349312619166 0.0017453503551055764 0.0016383567824262508 -8.918538120165671e-05 -0.0005170971963290153 9.215863121374494e-05 0.0008151913809409979
 9.223832741148424e-05 0.0008151659191898015 -8.918538120165671e-05 -0.0005170971963290153 0.0017453346293607689 0.0016384483492552263 0.9982138960463266 -0.004170265488870988
 -8.918507162664832e-05 -0.0005170970942295416 9.215863121374494e-05 0.0008151913809409979 0.9982138960463266 -0.004170265488870988 0.0017453504460148849 0.0016384408642849116
0.01250521050438 0.0019128447284437753 0.0033108428267179923 0.9979991809437817 -0.008341432606269536 0.00013180205930224964 0.0016307459342596463 -0.00012413545342472465 -0.0010366515946417503
 0.9979991809437817 -0.008341432606269536 0.001912911076714819 0.0033108249057089657 -0.00012413668006718419 -0.0010366517659126824 0.00013148432734607566 0.0016308068392630953
 0.00013180205930224964 0.0016307459342596463 -0.00012413668006718419 -0.0010366517659126824 0.0019128477226768585 0.003311009620610081 0.9979991823420576 -0.00834126521408614
 -0.00012413545342472465 -0.0010366515946417503 0.00013148432734607566 0.0016308068392630953 0.9979991823420576 -0.00834126521408614 0.0019129108638770748 0.0033109928765115183
0.01875781575657 0.0020954653817931643 0.005006947072311039 0.9977630251262802 -0.01252338679092625 0.00018008580778335515 0.0024472519650695266 -0.0001662609019883819 -0.001557941750746963
 0.9977630251262802 -0.01252338679092625 0.0020956144746951994 0.005006917145181627 -0.0001662636466437652 -0.0015579419492955068 0.00017937224155379426 0.002447360344399747
 0.00018008580778335515 0.0024472519650695266 -0.0001662636466437652 -0.0015579419492955068 0.002095471702260903 0.0050071968994820975 0.9977630278466109 -0.012523135928088977
 -0.0001662609019883819 -0.001557941750746963 0.00017937224155379426 0.002447360344399747 0.9977630278466109 -0.012523135928088977 0.0020956135569099 0.005007168972897447
0.02501042100875 0.002293558973913846 0.006724301219660877 0.997505143536996 -0.016718226404892383 0.00023718434669528038 0.0032647038858057676 -0.00021566662026912859 -0.002080731737944424
 0.997505143536996 -0.016718226404892383 0.002293823757709153 0.006724257032668546 -0.00021567147963954086 -0.0020807319124588456 0.0002359171996969239 0.00326487373984726
 0.00023718434669528038 0.0032647038858057676 -0.00021567147963954086 -0.0020807319124588456 0.002293569846410864 0.006724633903352753 0.9975051479931614 -0.016717892128707737
 -0.00021566662026912859 -0.002080731737944424 0.0002359171996969239 0.00326487373984726 0.9975051479931614 -0.016717892128707737 0.002293821722749492 0.006724592729030442
0.03126302626094 0.0025074737899251774 0.008461676601279758 0.997225237414353 -0.02092680670264172 0.000303192742034887 0.00408304914505703 -0.00027245482143084917 -0.0026048520162145106
 0.997225237414353 -0.02092680670264172 0.0025078871605236455 0.008461615735380746 -0.0002724623887204281 -0.0026048521058498167 0.0003012141698096883 0.004083296451628486
 0.000303192742034887 0.00408304914505703 -0.0002724623887204281 -0.0026048521058498167 0.0025074904463247964 0.008462091954769055 0.9972252440203475 -0.020926389059446295
 -0.00027245482143084917 -0.0026048520162145106 0.0003012141698096883 0.004083296451628486 0.9972252440203475 -0.020926389059446295 0.0025078835870627455 0.008462035326420855
0.037515631513130004 0.002737550508272272 0.010218267705433192 0.9969230014326153 -0.025149548070868496 0.00037820544876619424 0.004902206345207893 -0.0003367254189531822 -0.0031301557548514118
 0.9969230014326153 -0.025149548070868496 0.0027381453202157627 0.01021818757595841 -0.00033673628413413535 -0.003130155689165807 0.00037535744279822305 0.004902549076851376
 0.00037820544876619424 0.004902206345207893 -0.00033673628413413535 -0.003130155689165807 0.002737574185076117 0.010218765538989193 0.9969230106017475 -0.02514904708877841
 -0.0003367254189531822 -0.0031301557548514118 0.00037535744279822305 0.004902549076851376 0.9969230106017475 -0.02514904708877841 0.002738139776941048 0.010218691109281784
0.043768236765320004 0.0029841250530226017 0.011993471705539188 0.9965981268080303 -0.02938665642604251 0.0004623158773283604 0.00572207850905427 -0.0004085762693576207 -0.0036565055716734707
 0.9965981268080303 -0.02938665642604251 0.0029849341264360286 0.011993369561652954 -0.0004085910192398506 -0.0036565052705543675 0.0004584402349427541 0.005722536653172225
 0.0004623158773283604 0.00572207850905427 -0.0004085910192398506 -0.0036565052705543675 0.002984156991463958 0.011994051807089444 0.9965981389537545 -0.029386072133880628
 -0.0004085762693576207 -0.0036565055716734707 0.0004584402349427541 0.005722536653172225 0.9965981389537545 -0.029386072133880628 0.002984926173015579 0.011993957087486384
0.050020842017509996 0.0032475299078083965 0.013786797340981453 0.9962503028694489 -0.033638214258747245 0.0005556161296872364 0.006542558552360066 -0.0004881032520030696 -0.0041837680690758145
 0.9962503028694489 -0.033638214258747245 0.0032485860340268234 0.013786670264816689 -0.00048812247031641067 -0.0041837674426743144 0.0005505544426270213 0.006543154132466646
 0.0005556161296872364 0.006542558552360066 -0.00048812247031641067 -0.0041837674426743144 0.003247571354981445 0.013787459490137387 0.9962503184064985 -0.033637546671575244
 -0.0004881032520030696 -0.0041837680690758145 0.0005505544426270213 0.006543154132466646 0.9962503184064985 -0.033637546671575244 0.0032485752221038194 0.013787341850594024
0.055454545454549996 0.0034903611202542592 0.015359637841577456 0.9959291536717458 -0.037344685945407595 0.0006442305437510999 0.007255985476766516 -0.0005635215530653377 -0.004642613768528742
 0.9959291536717458 -0.037344685945407595 0.003491658554599261 0.015359486598513805 -0.0005635451262043037 -0.004642612778884728 0.0006380093416812704 0.007256719976416707
 0.0006442305437510999 0.007255985476766516 -0.0005635451262043037 -0.004642612778884728 0.0034904118459709397 0.015360371095546412 0.9959291724924308 -0.03734394598533554
 -0.0005635215530653377 -0.004642613768528742 0.0006380093416812704 0.007256719976416707 0.9959291724924308 -0.03734394598533554 0.00349164488666031 0.015360231291644004
0.056273447269699996 0.003528094794399322 0.015597820201018365 0.9958792179985506 -0.0379042252765091 0.0006581968085769784 0.007363531979669056 -0.0005754002771313859 -0.004711811150503666
 0.9958792179985506 -0.0379042252765091 0.0035294307407116258 0.015597665106852928 -0.0005754245444734626 -0.004711810099190156 0.0006517904635149591 0.007364289077148031
 0.0006581968085769784 0.007363531979669056 -0.0005754245444734626 -0.004711810099190156 0.003528147000598389 0.01559856415561077 0.9958792373413085 -0.037903474408862076
 -0.0005754002771313859 -0.004711811150503666 0.0006517904635149591 0.007364289077148031 0.9958792373413085 -0.037903474408862076 0.003529416612011988 0.01559842082400729
0.06252605252188 0.0038261470242994264 0.01742615813515193 0.9954845602472915 -0.042184638923603364 0.000770146863055625 0.008184878360751555 -0.0006705592579718162 -0.005240502560615588
 0.9954845602472915 -0.042184638923603364 0.003827795538326151 0.017425971768302212 -0.0006705891517414994 -0.005240500974918542 0.0007622370493185708 0.00818582313673402
 0.000770146863055625 0.008184878360751555 -0.0006705891517414994 -0.005240500974918542 0.0038262112443346714 0.017426983638961124 0.9954845838110759 -0.04218380478134604
 -0.0006705592579718162 -0.005240502560615588 0.0007622370493185708 0.00818582313673402 0.9954845838110759 -0.04218380478134604 0.003827777626484383 0.017426811700490877
0.06877865777407 0.0041420116824983175 0.01927145659384885 0.9950660177915321 -0.04647936497488841 0.0008915534552694684 0.009006472222370767 -0.0007736700605066991 -0.005769709014792129
 0.9950660177915321 -0.04647936497488841 0.004144005496547803 0.01927123552937584 -0.0007737061548283629 -0.005769706775344236 0.0008819811783207956 0.009007632939592315
 0.0008915534552694684 0.009006472222370767 -0.0007737061548283629 -0.005769706775344236 0.00414208917546445 0.01927236336776504 0.9950660459932779 -0.04647844756362406
 -0.0007736700605066991 -0.005769709014792129 0.0008819811783207956 0.009007632939592315 0.9950660459932779 -0.04647844756362406 0.0041439833272305365 0.019272159764050875
0.07503126302626001 0.004476011707431031 0.021133379341361346 0.9946232792854692 -0.05078828276235657 0.0010225018385408224 0.009828183616629911 -0.0008848204411896933 -0.006299295657018195
 0.9946232792854692 -0.05078828276235657 0.004478383542157038 0.02113311998277124 -0.0008848633067699545 -0.006299292634519863 0.0010111079372860266 0.009829590661136511
 0.0010225018385408224 0.009828183616629911 -0.0008848633067699545 -0.006299292634519863 0.004476103735068039 0.021134367092591953 0.99462331254263 -0.05078728207802212
 -0.0008848204411896933 -0.006299295657018195 0.0010111079372860266 0.009829590661136511 0.99462331254263 -0.05078728207802212 0.004478356632253759 0.021134128620701745
0.08128386827845 0.004828467904898258 0.023011602270884245 0.9941560341538659 -0.05511124730516928 0.0011630752433791282 0.010649878504466564 -0.001004095975460622 -0.006829125707867065
 0.9941560341538659 -0.05511124730516928 0.004831250473267241 0.023011300848534 -0.0010041461795124902 -0.006829121763036201 0.0011497004105500397 0.010651564407092539
 0.0011630752433791282 0.010649878504466564 -0.0010041461795124902 -0.006829121763036201 0.00482857573265794 0.023012670685190573 0.9941560728858935 -0.05511016334137089
 -0.001004095975460622 -0.006829125707867065 0.0011497004105500397 0.010651564407092539 0.9941560728858935 -0.05511016334137089 0.004831218332126564 0.023012393996538788
0.08753647353064001 0.00519969892092008 0.024905809137213564 0.993663972847204 -0.059448093527900654 0.001313354768190043 0.011471419029005992 -0.0011315799803217096 -0.007359060228014522
 0.993663972847204 -0.059448093527900654 0.005202924931760628 0.02490546170666592 -0.0011316380863595039 -0.0073590552115503196 0.0012978395735738437 0.011473418486540685
 0.001313354768190043 0.011471419029005992 -0.0011316380863595039 -0.0073590552115503196 0.005199823816124958 0.024906957877522836 0.9936640174744352 -0.059446926277016005
 -0.0011315799803217096 -0.007359060228014522 0.0012978395735738437 0.011473418486540685 0.9936640174744352 -0.059446926277016005 0.005202887060444745 0.02490663947652712
0.09378907878283 0.005590021182839265 0.026815688498981603 0.993146787069038 -0.06379863927563124 0.0014734192729577878 0.012292663718545073 -0.0012673534330570953 -0.007888957957678697
 0.993146787069038 -0.06379863927563124 0.00559372334461366 0.026815290939164314 -0.0012674200007975235 -0.00788895171022812 0.0014556041884534587 0.012295013614615212
 0.0014734192729577878 0.012292663718545073 -0.0012674200007975235 -0.00788895171022812 0.005590164415406508 0.02681691720977063 0.993146838014029 -0.06379738872414409
 -0.0012673534330570953 -0.007888957957678697 0.0014556041884534587 0.012295013614615212 0.993146838014029 -0.06379738872414409 0.0055936792368076905 0.02681655345237107
0.100041684035 0.005999748820779458 0.028740931490696665 0.9926041699873853 -0.06816268750570767 0.0016433452752891047 0.0131134676426073 -0.0014114948863572657 -0.008418675208798835
 0.9926041699873853 -0.06816268750570767 0.006003959845179873 0.028740479501825733 -0.001411570471557265 -0.00841866756092471 0.001623070702153604 0.01311620706807044
 0.0016433452752891047 0.0131134676426073 -0.001411570471557265 -0.00841866756092471 0.005999911662032353 0.02874223979650267 0.9926042276743423 -0.06816135363539258
 -0.0014114948863572657 -0.008418675208798835 0.001623070702153604 0.01311620706807044 0.9926042276743423 -0.06816135363539258 0.006003908986708969 0.02874182688849515
0.1059090909091 0.006402161453570005 0.030561266550794084 0.9920715800531182 -0.07226997711704027 0.0018118377449639095 0.013883172170566569 -0.0015544347271107047 -0.008915464330739987
 0.9920715800531182 -0.07226997711704027 0.006406879748304582 0.030560759414328953 -0.0015545192760026995 -0.008915455205609444 0.0017891100112870117 0.013886314664583628
 0.0018118377449639095 0.013883172170566569 -0.0015545192760026995 -0.008915455205609444 0.0064023438529848785 0.030562649185190322 0.9920716444543517 -0.07226856504340831
 -0.0015544347271107047 -0.008915464330739987 0.0017891100112870117 0.013886314664583628 0.9920716444543517 -0.07226856504340831 0.006406822081022407 0.03056218656841757
0.1062942892872 0.006429193571796705 0.030681230142349105 0.9920358164324039 -0.07254002793872312 0.0018232068481289806 0.013933682539535155 -0.001564080381327295 -0.008948065791452839
 0.9920358164324039 -0.07254002793872312 0.0064339461771807955 0.0306807192437543 -0.0015641655355963689 -0.008948056563608656 0.0018003131453690655 0.01393685281254844
 0.0018232068481289806 0.013933682539535155 -0.0015641655355963689 -0.008948056563608656 0.006429377294402226 0.03068261764401946 0.9920358812877266 -0.07253861073007432
 -0.001564080381327295 -0.008948065791452839 0.0018003131453690655 0.01393685281254844 0.9920358812877266 -0.07253861073007432 0.006433888046666513 0.03068215163922261
0.11254689453939999 0.006878664672915035 0.032636276100607216 0.9914414230860119 -0.07693043831497177 0.002013075518201763 0.014753156920875593 -0.001725183358600256 -0.00947698096956222
 0.9914414230860119 -0.07693043831497177 0.00688399158794409 0.03263570162843375 -0.0017252786292636562 -0.009476969972066002 0.001987403032817055 0.014756801606437088
 0.002013075518201763 0.014753156920875593 -0.0017252786292636562 -0.009476969972066002 0.006878870550319103 0.032637742379323646 0.9914414955382537 -0.07692893774293952
 -0.001725183358600256 -0.00947698096956222 0.001987403032817055 0.014756801606437088 0.9914414955382537 -0.07692893774293952 0.0068839256567188945 0.0326372191775741
0.11879949979160001 0.007348468744348118 0.03460575963769 0.9908206886650766 -0.08133368537049591 0.002213020165787331 0.015571736164231865 -0.0018948745679472976 -0.010005269434243012
 0.9908206886650766 -0.08133368537049591 0.00735440271146531 0.03460511674225698 -0.001894980497821829 -0.01000525646727937 0.002184409264150873 0.015575901093271954
 0.002213020165787331 0.015571736164231865 -0.001894980497821829 -0.01000525646727937 0.007348698050088053 0.03460730425189811 0.9908207691452178 -0.08133210140733148
 -0.0018948745679472976 -0.010005269434243012 0.002184409264150873 0.015575901093271954 0.9908207691452178 -0.08133210140733148 0.007354328443646326 0.034606719596779655
0.1250521050438 0.007838909664761499 0.036589368864785726 0.990173314099957 -0.08574952561602522 0.00242310692480569 0.016389262595530273 -0.002073221977101255 -0.010532777293944268
 0.990173314099957 -0.08574952561602522 0.007845483443667993 0.036588652507892706 -0.0020733391043602613 -0.010532762147510867 0.002391398025271077 0.016393995883439105
 0.00242310692480569 0.016389262595530273 -0.0020733391043602613 -0.010532762147510867 0.007839163672046108 0.0365909913512683 0.9901734030415766 -0.08574785822994511
 -0.002073221977101255 -0.010532777293944268 0.002391398025271077 0.016393995883439105 0.9901734030415766 -0.08574785822994511 0.00784540029644676 0.03659034082772008
0.131304710296 0.008350288441025427 0.03858678911578098 0.9894990027096752 -0.09017770595325682 0.0026433990836874383 0.01720557556646147 -0.0022602906796737963 -0.011059348075772083
 0.9894990027096752 -0.09017770595325682 0.00835753481194895 0.03858599406784829 -0.0022604195376329625 -0.011059330529724113 0.0026084326902042617 0.017210927631142944
 0.0026433990836874383 0.01720557556646147 -0.0022604195376329625 -0.011059330529724113 0.00835056842234175 0.038588488989214305 0.9894991005493073 -0.09017595510869339
 -0.0022602906796737963 -0.011059348075772083 0.0026084326902042617 0.017210927631142944 0.9894991005493073 -0.09017595510869339 0.00835744223592289 0.03858776802094029
0.1375573155481 0.00876717796710341 0.04033857109320131 0.9889132333259624 -0.09435871326670271 0.0028466414153745976 0.01799512935276244 -0.0024288669344797904 -0.011559427384891886
 0.9889132333259624 -0.09435871326670271 0.008775131156094986 0.04033771012242361 -0.0024290081170869698 -0.011559407405197423 0.002808330061178087 0.01800109395644062
 0.0028466414153745976 0.01799512935276244 -0.0024290081170869698 -0.011559407405197423 0.008767484285498459 0.04034034836958623 0.9889133404657561 -0.09435687898367986
 -0.0024288669344797904 -0.011559427384891886 0.002808330061178087 0.01800109395644062 0.9889133404657561 -0.09435687898367986 0.008775029577048697 0.04033956947837652
0.1438099208003 0.009198801300657165 0.04208087746597548 0.9883067492258949 -0.09852884484874613 0.0030580805162762708 0.01878125789451272 -0.0026041668987075773 -0.012056367407162498
 0.9883067492258949 -0.09852884484874613 0.009207494306117689 0.042079946585754785 -0.0026043209435077886 -0.012056344781746761 0.0030162778405920477 0.0187878814057204
 0.0030580805162762708 0.01878125789451272 -0.0026043209435077886 -0.012056344781746761 0.009199135063991783 0.04208273170335364 0.988306866098587 -0.09852692710058651
 -0.0026041668987075773 -0.012056367407162498 0.0030162778405920477 0.0187878814057204 0.988306866098587 -0.09852692710058651 0.0092073833422609 0.04208189147459899
0.1500625260525 0.009645002704131971 0.04381355452576011 0.9876797104087018 -0.10268798849916846 0.003277640669802436 0.01956387393735037 -0.002786117137692115 -0.012550086219339293
 0.9876797104087018 -0.10268798849916846 0.009654468547631105 0.04381254955242967 -0.002786284578428121 -0.012550060727981302 0.0032322012258285877 0.019571204422130995
 0.003277640669802436 0.01956387393735037 -0.002786284578428121 -0.012550060727981302 0.009645365009316833 0.043815485265160645 0.9876798374489658 -0.1026859872597157
 -0.002786117137692115 -0.012550086219339293 0.0032322012258285877 0.019571204422130995 0.9876798374489658 -0.1026859872597157 0.009654347822349403 0.043814580106835775
0.15631513130469998 0.010105625293215102 0.04553645316903029 0.9870322777319684 -0.10683603259572258 0.0035052452351425948 0.020342891771667 -0.002974643288409752 -0.01304050367199918
 0.9870322777319684 -0.10683603259572258 0.010115897019786624 0.04553536971987661 -0.0029748246548904063 -0.01304047508644379 0.003456024505337148 0.02035097897500496
