! Created with skrf 1.8.0 (http://scikit-rf.org).
# GHz S RI R 50.0 
!freq ReS11 ImS11 ReS12 ImS12 ReS13 ImS13
! ReS14 ImS14
! ReS21 ImS21 ReS22 ImS22 ReS23 ImS23
! ReS24 ImS24
! ReS31 ImS31 ReS32 ImS32 ReS33 ImS33
! ReS34 ImS34
! ReS41 ImS41 ReS42 ImS42 ReS43 ImS43
! ReS44 ImS44
!
0.0 0.001749069923046 0.0 0.9982509300485 0.0 6.770254814991e-05 0.0 -6.770254788216e-05 8.291170855800768e-21
 0.9982509300485 0.0 0.001749069923082 0.0 -6.770254788411e-05 8.291170856039572e-21 6.770254814921e-05 0.0
 6.770254814991e-05 0.0 -6.770254788411e-05 8.291170856039572e-21 0.001749069933053 0.0 0.9982509300585 0.0
 -6.770254788216e-05 8.291170855800768e-21 6.770254814921e-05 0.0 0.9982509300585 0.0 0.001749069932989 0.0
0.005 0.0018824912943680254 0.001432226458773758 0.9980820213270404 -0.003663032686672787 9.497670853737861e-05 0.0007340622265420356 -9.221887661438953e-05 -0.00046272294392534326
 0.9980820213270404 -0.003663032686672787 0.0018825173534787816 0.0014322111950170807 -9.221529290009151e-05 -0.000462720178703356 9.483158087702454e-05 0.0007341176116852376
 9.497670853737861e-05 0.0007340622265420356 -9.221529290009151e-05 -0.000462720178703356 0.001882493584222759 0.0014322923570536821 0.9980820216971674 -0.0036629656230115297
 -9.221887661438953e-05 -0.00046272294392534326 9.483158087702454e-05 0.0007341176116852376 0.9980820216971674 -0.0036629656230115297 0.0018825157970327599 0.0014322794186860126
0.006252605252188 0.001917679816286418 0.0017958801785300448 0.9980371597496928 -0.00457965369575144 0.00010288466738880004 0.0009179255153090143 -9.92276905175118e-05 -0.0005789871876254163
 0.9980371597496928 -0.00457965369575144 0.0019177205517369293 0.0017958607892349595 -9.922211410815282e-05 -0.0005789837788495817 0.00010265792201106739 0.0009179974621317447
 0.00010288466738880004 0.0009179255153090143 -9.922211410815282e-05 -0.0005789837788495817 0.0019176833321043868 0.0017959625371426024 0.9980371602643267 -0.0045795698725990385
 -9.92276905175118e-05 -0.0005789871876254163 0.00010265792201106739 0.0009179974621317447 0.9980371602643267 -0.0045795698725990385 0.0019177180541982376 0.001795946064750215
0.01250521050438 0.002104061653132664 0.0036290085142622946 0.9977978220527272 -0.009159865210011544 0.00014884604619986005 0.0018361461336589898 -0.0001394608852904904 -0.0011606383446068891
 0.9977978220527272 -0.009159865210011544 0.00210422431421947 0.003628966575546945 -0.00013943891118633423 -0.0011606320559398847 0.0001479419072774547 0.0018363195810391897
 0.00014884604619986005 0.0018361461336589898 -0.00013943891118633423 -0.0011606320559398847 0.0021040751288187885 0.003629172867555944 0.9977978235415422 -0.009159697811589857
 -0.0001394608852904904 -0.0011606383446068891 0.0001479419072774547 0.0018363195810391897 0.9977978235415422 -0.009159697811589857 0.002104213766397729 0.0036291369035895576
0.01875781575657 0.0023086639638835397 0.005487827353376051 0.9975325901145528 -0.013751730695102927 0.00020569866131600902 0.0027552282235681494 -0.00018853377385223813 -0.0017441019582295483
 0.9975325901145528 -0.013751730695102927 0.0023090294800790097 0.005487759381568998 -0.0001884847745476695 -0.001744093433065122 0.0002036677812375132 0.0027555390998341644
 0.00020569866131600902 0.0027552282235681494 -0.0001884847745476695 -0.001744093433065122 0.0023086938288905544 0.005488073420885852 0.9975325930403949 -0.013751479781989515
 -0.00018853377385223813 -0.0017441019582295483 0.0002036677812375132 0.0027555390998341644 0.9975325930403949 -0.013751479781989515 0.0023090053407944892 0.005488014738522783
0.02501042100875 0.0025319194416808595 0.007369687420612329 0.9972411230939027 -0.01835742260528167 0.0002735561703052994 0.0036751706444341932 -0.0002465729446600295 -0.0023290858884480966
 0.9972411230939027 -0.01835742260528167 0.002532568587918303 0.007369589635485635 -0.0002464864219424255 -0.002329075895231985 0.00026994916330422237 0.0036756610577295306
 0.0002735561703052994 0.0036751706444341932 -0.0002464864219424255 -0.002329075895231985 0.0025319721149408346 0.007370014848260594 0.9972411279204378 -0.018357088210085623
 -0.0002465729446600295 -0.0023290858884480966 0.00026994916330422237 0.0036756610577295306 0.9972411279204378 -0.018357088210085623 0.0025325253156420592 0.0073699300350413
0.03126302626094 0.0027742428056095536 0.009273198812448048 0.996923064374027 -0.022977838699080485 0.0003525322537013581 0.004595888224618621 -0.0003137008460441286 -0.002915373829646881
 0.996923064374027 -0.022977838699080485 0.0027752562476932954 0.009273067141428053 -0.0003135664095491562 -0.0029153632631065997 0.00034689929466450673 0.004596606499125119
 0.0003525322537013581 0.004595888224618621 -0.0003135664095491562 -0.0029153632631065997 0.0027743246974873026 0.00927360718068003 0.9969230715664333 -0.02297742081792585
 -0.0003137008460441286 -0.002915373829646881 0.00034689929466450673 0.004596606499125119 0.9969230715664333 -0.02297742081792585 0.0027751882976828515 0.009273492642970067
0.037515631513130004 0.003036039257734475 0.011197435175565517 0.9965780503780273 -0.027613397803718596 0.00044273940934406856 0.0055172620116757136 -0.0003900366194285392 -0.0035027750816899587
 0.9965780503780273 -0.027613397803718596 0.003037497582824748 0.011197265254847072 -0.0003898439758953225 -0.0035027649631263927 0.0004346300644199658 0.005518262747880345
 0.00044273940934406856 0.0055172620116757136 -0.0003898439758953225 -0.0035027649631263927 0.0030361567692080565 0.011197923984511114 0.9965780604021358 -0.027612896410199633
 -0.0003900366194285392 -0.0035027750816899587 0.0004346300644199658 0.005518262747880345 0.9965780604021358 -0.027612896410199633 0.0030373994036702015 0.011197775949926332
0.043768236765320004 0.003317707734061961 0.013141691517533761 0.9962057141838129 -0.03226428193533299 0.0005442883728669001 0.006439154543732441 -0.00047569637394593277 -0.00409110930717513
 0.9962057141838129 -0.03226428193533299 0.0033196914753356906 0.013141478691881533 -0.000475435320859547 -0.004091100784524919 0.0005332515296788226 0.00644049868606518
 0.0005442883728669001 0.006439154543732441 -0.000475435320859547 -0.004091100784524919 0.003317867260958426 0.013142260187141422 0.9962057275115624 -0.032263696979428
 -0.00047569637394593277 -0.00409110930717513 0.0005332515296788226 0.00644049868606518 0.9962057275115624 -0.032263696979428 0.0033195575128057613 0.013142074705658854
0.050020842017509996 0.003619642401861319 0.015105384134236653 0.9958056873907769 -0.03693053630169411 0.00065728775248092 0.007361416184837333 -0.0005707932687700667 -0.004680200230917356
 0.9958056873907769 -0.03693053630169411 0.0036222320596249404 0.015105123455870945 -0.0005704536905131087 -0.00468019457870999 0.000642871603256287 0.007363171092191063
 0.00065728775248092 0.007361416184837333 -0.0005704536905131087 -0.00468019457870999 0.0036198503313803784 0.01510603199303441 0.9958057044974488 -0.03692986772002321
 -0.0005707932687700667 -0.004680200230917356 0.000642871603256287 0.007363171092191063 0.9958057044974488 -0.03692986772002321 0.003622056752310731 0.015105804937531412
0.055454545454549996 0.0038987945012900578 0.01682727859196254 0.9954352774303016 -0.040998103871004894 0.0007648693333225882 0.008163066195332181 -0.0006611851248151067 -0.0051926165024972
 0.9954352774303016 -0.040998103871004894 0.003901976084150219 0.016826972081420033 -0.0006607691562476694 -0.005192614478137669 0.0007471490124247049 0.008165237809239957
 0.0007648693333225882 0.008163066195332181 -0.0006607691562476694 -0.005192614478137669 0.0038990496747130414 0.016827994658909766 0.995435298210725 -0.040997362546756164
 -0.0006611851248151067 -0.0051926165024972 0.0007471490124247049 0.008165237809239957 0.995435298210725 -0.040997362546756164 0.003901760325040563 0.01682772798487294
0.056273447269699996 0.0039422334020345765 0.017088001479334782 0.9953776012379029 -0.04161211836665052 0.0007818437660587532 0.008283888233184801 -0.0006754375019955765 -0.005269872573342945
 0.9953776012379029 -0.04161211836665052 0.003945509463333773 0.01708768770616043 -0.0006750093672938879 -0.0052698711926338695 0.0007635958226163216 0.00828612775048256
 0.0007818437660587532 0.008283888233184801 -0.0006750093672938879 -0.0052698711926338695 0.00394249611289966 0.01708872777343857 0.9953776226038462 -0.04161136607248791
 -0.0006754375019955765 -0.005269872573342945 0.0007635958226163216 0.00828612775048256 0.9953776226038462 -0.04161136607248791 0.003945287243037001 0.017088454839447407
0.06252605252188 0.004285867228847719 0.019089077179751314 0.994921087364806 -0.04630892477490199 0.0009180600237721233 0.009206404645685421 -0.0007897362569657786 -0.0058599503749531354
 0.994921087364806 -0.04630892477490199 0.004289910186328976 0.019088704772748682 -0.0007892096173160819 -0.00585995479320892 0.0008955271543964425 0.009209209175615341
 0.0009180600237721233 0.009206404645685421 -0.0007892096173160819 -0.00585995479320892 0.004286191090501802 0.019089881059774633 0.994921113475968 -0.04630808867025636
 -0.0007897362569657786 -0.0058599503749531354 0.0008955271543964425 0.009209209175615341 0.994921113475968 -0.04630808867025636 0.0042896354773710775 0.019089557764571184
0.06877865777407 0.0046509269066514125 0.021108173927847917 0.9944357783742048 -0.051020807407421515 0.0010660373397522835 0.010128793077440123 -0.000913793621276895 -0.006450256013681131
 0.9944357783742048 -0.051020807407421515 0.004655817276221391 0.021107737047923684 -0.0009131586099265968 -0.006450267884665887 0.0010387658210680515 0.010132249651870382
 0.0010660373397522835 0.010128793077440123 -0.0009131586099265968 -0.006450267884665887 0.004651318278146156 0.021109054462416524 0.9944358097230284 -0.05101988736860504
 -0.000913793621276895 -0.006450256013681131 0.0010387658210680515 0.010132249651870382 0.9944358097230284 -0.05101988736860504 0.004655484494955564 0.021108676143507712
0.07503126302626001 0.005037792047572292 0.02314487330796915 0.9939213082827242 -0.05574758351127812 0.001225873559226604 0.011050875553673708 -0.0010477104903028143 -0.007040609598036773
 0.9939213082827242 -0.05574758351127812 0.005043610386358878 0.023144365811997376 -0.0010469573217141038 -0.007040630701670676 0.0011934091397347883 0.011055077904391255
 0.001225873559226604 0.011050875553673708 -0.0010469573217141038 -0.007040630701670676 0.005038257276520205 0.023145829465000715 0.9939213453682837 -0.055746579406698395
 -0.0010477104903028143 -0.007040609598036773 0.0011934091397347883 0.011055077904391255 0.9939213453682837 -0.055746579406698395 0.005043213940781821 0.02314539127784022
0.08128386827845 0.005446838833452309 0.025198768995040043 0.9933773128983852 -0.06048904246639699 0.001397663395962534 0.011972468932901872 -0.0011915844603570239 -0.007630828577495923
 0.9933773128983852 -0.06048904246639699 0.005453665756999016 0.02519818443135589 -0.0011907034299896784 -0.007630860819700264 0.0013595513685549078 0.011977517561392214
 0.001397663395962534 0.011972468932901872 -0.0011907034299896784 -0.007630860819700264 0.0054473842551518515 0.025199799654866777 0.9933773562281341 -0.060487954142532184
 -0.0011915844603570239 -0.007630828577495923 0.0013595513685549078 0.011977517561392214 0.9933773562281341 -0.060487954142532184 0.005453200046538729 0.025199296570040858
0.08753647353064001 0.005878439947425422 0.027269462099858508 0.992803430154671 -0.06524495041548388 0.0015814982764507004 0.012893385239189554 -0.0013455097146933934 -0.00822072749259677
 0.992803430154671 -0.06524495041548388 0.005886356147172285 0.027268793702896206 -0.001344491199053976 -0.008220772905120197 0.0015372835584499375 0.012899387485309876
 0.0015814982764507004 0.012893385239189554 -0.001344491199053976 -0.008220772905120197 0.005879071883403078 0.027270566047303792 0.9928034802442389 -0.06524377770398257
 -0.0013455097146933934 -0.00822072749259677 0.0015372835584499375 0.012899387485309876 0.9928034802442389 -0.06524377770398257 0.005885815562057772 0.027269992846842964
0.09378907878283 0.00633296447091061 0.029356557818619438 0.9921993004131822 -0.0700150535998805 0.0017774661887221292 0.013813431919531752 -0.0015095769045614556 -0.008810117808818014
 0.9921993004131822 -0.0700150535998805 0.006342050731391698 0.029355798502898985 -0.0015084113614041118 -0.008810178549050474 0.001726693408345781 0.01382050202897192
 0.0017774661887221292 0.013813431919531752 -0.0015084113614041118 -0.008810178549050474 0.006333689227615377 0.029357733743699793 0.9921993577873107 -0.07001379631605142
 -0.0015095769045614556 -0.008810117808818014 0.001726693408345781 0.01382050202897192 0.9921993577873107 -0.07001379631605142 0.006341429652659762 0.029357085016737804
0.100041684035 0.0068107777557322524 0.03145966300654675 0.9915645667456673 -0.07479908078176879 0.001985651534700096 0.01473241204348049 -0.0016838730267719644 -0.009398807817517275
 0.9915645667456673 -0.07479908078176879 0.006821114971561964 0.031458805359942915 -0.0016825509955217905 -0.009398886168276492 0.001927865122568491 0.014740671233667695
 0.001985651534700096 0.01473241204348049 -0.0016825509955217905 -0.009398886168276492 0.006811601623330312 0.0314609095011507 0.9915646319392794 -0.07479773872717356
 -0.0016838730267719644 -0.009398807817517275 0.001927865122568491 0.014740671233667695 0.9915646319392794 -0.07479773872717356 0.00682040777053641 0.03146017963888001
0.1059090909091 0.007280657769737274 0.03344741424533653 0.990940787251289 -0.07930079125458966 0.002192194932658508 0.015593628285049257 -0.0018568087328149064 -0.009950420415772416
 0.990940787251289 -0.07930079125458966 0.007292242560650415 0.03344645728678218 -0.0018553313230300018 -0.009950517479859727 0.0021274125446740467 0.015603119814389069
 0.002192194932658508 0.015593628285049257 -0.0018553313230300018 -0.009950517479859727 0.007281580347362476 0.033448725599217875 0.9909408602783649 -0.07929936945285415
 -0.0018568087328149064 -0.009950420415772416 0.0021274125446740467 0.015603119814389069 0.9909408602783649 -0.07929936945285415 0.007291449415014339 0.033447914317438536
0.1062942892872 0.007312241277114659 0.03357838434822834 0.9908988752016822 -0.07959674508090338 0.0022061349846781257 0.01565012447721073 -0.0018684812987974722 -0.009986602571632475
 0.9908988752016822 -0.07959674508090338 0.007323910470511791 0.03357742062442573 -0.0018669934010900088 -0.00998670094093176 0.0021408792705895677 0.015659701001833195
 0.0022061349846781257 0.01565012447721073 -0.0018669934010900088 -0.00998670094093176 0.007313170527945857 0.03357969991150574 0.990898948759992 -0.07959531803715948
 -0.0018684812987974722 -0.009986602571632475 0.0021408792705895677 0.015659701001833195 0.990898948759992 -0.07959531803715948 0.00732311150860746 0.033578883101319665
0.11254689453939999 0.00783771247333404 0.03571232698028446 0.9902018750649556 -0.08440774536988863 0.0024389933341962735 0.01656636402663916 -0.002063481032156825 -0.010573303862014953
 0.9902018750649556 -0.08440774536988863 0.007850794811134248 0.035711249090450044 -0.002061817972399992 -0.010573424782813938 0.002365812647901295 0.01657739323840286
 0.0024389933341962735 0.01656636402663916 -0.002061817972399992 -0.010573424782813938 0.007838753360533485 0.03571371001017648 0.9902019575450342 -0.08440623310664296
 -0.002063481032156825 -0.010573303862014953 0.002365812647901295 0.01657739323840286 0.9902019575450342 -0.08440623310664296 0.007849898439862868 0.035712800228938954
0.11879949979160001 0.008387544574184879 0.03786109342008312 0.9894732191036233 -0.08923176737520006 0.0026842993625006487 0.01748092157231244 -0.0022689475044140577 -0.011158710211504082
 0.9894732191036233 -0.08923176737520006 0.008402121384992293 0.03785989292379184 -0.0022671000706059002 -0.011158856341436275 0.0026027381386471565 0.01749354598402877
 0.0026842993625006487 0.01748092157231244 -0.0022671000706059002 -0.011158856341436275 0.008388703330180878 0.03786254221843015 0.9894733110743094 -0.08923016964430946
 -0.0022689475044140577 -0.011158710211504082 0.0026027381386471565 0.01749354598402877 0.9894733110743094 -0.08923016964430946 0.008401121945546847 0.0378615332251005
0.1250521050438 0.008962086420676245 0.04002428273276898 0.9887125638127608 -0.09406848455167009 0.002942121692598676 0.01839358419172589 -0.0024849518307963336 -0.01174261689150033
 0.9887125638127608 -0.09406848455167009 0.00897823921224003 0.04002295082804231 -0.002482910895261243 -0.011742791012576784 0.0028517245791058075 0.018407953535442046
 0.002942121692598676 0.01839358419172589 -0.002482910895261243 -0.011742791012576784 0.008963369255722565 0.0400257955028561 0.9887126658558919 -0.09406680108909239
 -0.0024849518307963336 -0.01174261689150033 0.0028517245791058075 0.018407953535442046 0.9887126658558919 -0.09406680108909239 0.008977131035183937 0.04002468083019326
0.131304710296 0.009561682278505557 0.04220148987962414 0.9879195696544044 -0.09891755878756509 0.0032125246527472157 0.019304135277217128 -0.0027115608352304595 -0.012324815952760682
 0.9879195696544044 -0.09891755878756509 0.009579492754687542 0.04220001739218699 -0.0027093173555495635 -0.012325020971039552 0.003112836622719386 0.019320406561525828
 0.0032125246527472157 0.019304135277217128 -0.0027093173555495635 -0.012325020971039552 0.009563095379084972 0.04220306472227385 0.9879196823656459 -0.0989157893168595
 -0.0027115608352304595 -0.012324815952760682 0.003112836622719386 0.019320406561525828 0.9879196823656459 -0.0989157893168595 0.009578270160277978 0.04220183766764772
0.1375573155481 0.010055917226289785 0.04410971118042673 0.9872247185969808 -0.10349589061531944 0.003463781609824264 0.0201852304375542 -0.002917169791053651 -0.012877907825021469
 0.9872247185969808 -0.10349589061531944 0.01007547226804932 0.04410811724468511 -0.0029147102339312264 -0.012878144258738873 0.003354571711993687 0.020203392395460363
 0.003463781609824264 0.0201852304375542 -0.0029147102339312264 -0.012878144258738873 0.010057466160068553 0.04411134640118346 0.9872248424727958 -0.10349403499252337
 -0.002917169791053651 -0.012877907825021469 0.003354571711993687 0.020203392395460363 0.9872248424727958 -0.10349403499252337 0.010074130370083619 0.04411002838445124
0.1438099208003 0.01056774315156299 0.046006617346356 0.9865050139158429 -0.10806131498314593 0.0037251520734375696 0.021061871980783946 -0.003130943238271254 -0.013426961443451457
 0.9865050139158429 -0.10806131498314593 0.010589125476944168 0.04600489434694592 -0.003128257875884864 -0.013427232181431312 0.0036060061407904537 0.021082069478118644
 0.0037251520734375696 0.021061871980783946 -0.003128257875884864 -0.013427232181431312 0.010569433962056255 0.04600831099552575 0.9865051495503584 -0.10805937294180701
 -0.003130943238271254 -0.013426961443451457 0.0036060061407904537 0.021082069478118644 0.9865051495503584 -0.10805937294180701 0.010587658722395879 0.04600689692957753
0.1500625260525 0.011096959720404604 0.04789201193875216 0.985760660745389 -0.1126136793393529 0.003996532949044547 0.021933941929921597 -0.003352782015938654 -0.013971868292105538
 0.985760660745389 -0.1126136793393529 0.011120252253169767 0.04789015182226661 -0.0033498611484164367 -0.013972176339601839 0.003867039696770829 0.021956325137024797
 0.003996532949044547 0.021933941929921597 -0.0033498611484164367 -0.013972176339601839 0.011098798421973944 0.047893761989114526 0.9857608087442751 -0.11261165060343764
 -0.003352782015938654 -0.013971868292105538 0.003867039696770829 0.021956325137024797 0.9857608087442751 -0.11261165060343764 0.011118655087722407 0.0478922464520719
0.15631513130469998 0.01164336493863404 0.04976570438434121 0.9849918655237668 -0.11715283254608615 0.004277819776508754 0.022801324601463214 -0.0035825856158680173 -0.014512522392004184
 0.9849918655237668 -0.11715283254608615 0.011668650813866543 0.049763698649054305 -0.0035794195719349355 -0.014512870870060991 0.0041375708518517065 0.02282604893178972
