! Created with skrf 1.8.0 (http://scikit-rf.org).
# GHz S RI R 50.0 
!freq ReS11 ImS11 ReS12 ImS12 ReS13 ImS13
! ReS14 ImS14
! ReS21 ImS21 ReS22 ImS22 ReS23 ImS23
! ReS24 ImS24
! ReS31 ImS31 ReS32 ImS32 ReS33 ImS33
! ReS34 ImS34
! ReS41 ImS41 ReS42 ImS42 ReS43 ImS43
! ReS44 ImS44
!
0.0 0.001352054563549 0.0 0.9986479454287 0.0 5.196790101055e-05 0.0 -5.196790138769e-05 6.364232409283985e-21
 0.9986479454287 0.0 0.001352054563538 0.0 -5.196790138766e-05 6.3642324092803116e-21 5.196790100982e-05 0.0
 5.196790101055e-05 0.0 -5.196790138766e-05 6.3642324092803116e-21 0.001352054564609 0.0 0.9986479454297 0.0
 -5.196790138769e-05 6.364232409283985e-21 5.196790100982e-05 0.0 0.9986479454297 0.0 0.001352054564605 0.0
0.005 0.0014542275482251575 0.0011039264619717216 0.998518743626697 -0.0028329042251472878 7.29694853275287e-05 0.0005881017138463682 -7.07632530659402e-05 -0.0003665340320030823
 0.998518743626697 -0.0028329042251472878 0.0014542509470130815 0.0011039128743940915 -7.07637784046603e-05 -0.00036653448536092215 7.28159286893809e-05 0.0005881599835173496
 7.29694853275287e-05 0.0005881017138463682 -7.07637784046603e-05 -0.00036653448536092215 0.0014542266952903818 0.001103859740737418 0.9985187432903211 -0.0028329712911080484
 -7.07632530659402e-05 -0.0003665340320030823 7.28159286893809e-05 0.0005881599835173496 0.9985187432903211 -0.0028329712911080484 0.0014542511302005744 0.0011038454656988196
0.006252605252188 0.0014808774634164736 0.0013842827855648564 0.9984848497411088 -0.0035418468611035305 7.890479712468599e-05 0.0007354130570604421 -7.600406495309455e-05 -0.00045865355753051123
 0.9984848497411088 -0.0035418468611035305 0.0014809140396278323 0.001384265555706509 -7.6004882032413e-05 -0.00045865411768565914 7.866487484669782e-05 0.0007354886990411474
 7.890479712468599e-05 0.0007354130570604421 -7.6004882032413e-05 -0.00045865411768565914 0.0014808761922644508 0.0013841994082627487 0.9984848492778964 -0.00354193067542397
 -7.600406495309455e-05 -0.00045865355753051123 7.866487484669782e-05 0.0007354886990411474 0.9984848492778964 -0.00354193067542397 0.0014809143889410997 0.0013841813089920684
0.01250521050438 0.0016203131544530857 0.0027978721898735525 0.9983064240844648 -0.007084649594219637 0.00011259934054313752 0.001471180422388288 -0.00010538652205319196 -0.0009196388283649629
 0.9983064240844648 -0.007084649594219637 0.0016204591980033762 0.0027978352764583374 -0.0001053897374466211 -0.0009196398781442585 0.00011164247779050802 0.001471361707535466
 0.00011259934054313752 0.001471180422388288 -0.0001053897374466211 -0.0009196398781442585 0.001620308648049196 0.0027977057414264464 0.9983064228090983 -0.0070848169897179
 -0.00010538652205319196 -0.0009196388283649629 0.00011164247779050802 0.001471361707535466 0.9983064228090983 -0.0070848169897179 0.0016204611750171036 0.0027976669788419245
0.01875781575657 0.0017706367327906425 0.004231890826250135 0.9981124678482016 -0.010637064295915075 0.00015312350801683 0.002207829495377669 -0.00014019966232992195 -0.0013822899583546791
 0.9981124678482016 -0.010637064295915075 0.0017709648875561409 0.004231831634467369 -0.00014020682642889733 -0.0013822914167465536 0.00015097376086303023 0.002208151709648142
 0.00015312350801683 0.002207829495377669 -0.00014020682642889733 -0.0013822914167465536 0.00177062701711818 0.0042316415059301575 0.9981124654028732 -0.010637315179346069
 -0.00014019966232992195 -0.0013822899583546791 0.00015097376086303023 0.002208151709648142 0.9981124654028732 -0.010637315179346069 0.0017709697659941785 0.0042315793449761415
0.02501042100875 0.0019321166967887343 0.005684357534171667 0.9979027733669462 -0.014200843549579501 0.0002005510102757527 0.00294541309944809 -0.00018052556656959062 -0.0018464117352578876
 0.9979027733669462 -0.014200843549579501 0.0019326994553107131 0.005684273355587375 -0.00018053820935918762 -0.0018464135090445742 0.00019673207410181125 0.002945916609057333
 0.0002005510102757527 0.00294541309944809 -0.00018053820935918762 -0.0018464135090445742 0.001932099800424124 0.005684025532297439 0.9979027693982717 -0.014201177869196661
 -0.00018052556656959062 -0.0018464117352578876 0.00019673207410181125 0.002945916609057333 0.9979027693982717 -0.014201177869196661 0.0019327085196951656 0.005683937095631108
0.03126302626094 0.0021050102765056817 0.007154268056924244 0.9976771213706356 -0.017776755725985097 0.0002549564464020062 0.00368391496024945 -0.00022644426788346394 -0.0023118739960126217
 0.9976771213706356 -0.017776755725985097 0.0021059200192460217 0.007154156075714279 -0.00022646390244718785 -0.002311875979587383 0.0002489912017667212 0.00368464524109286
 0.0002549564464020062 0.00368391496024945 -0.00022646390244718785 -0.002311875979587383 0.0021049842244654235 0.007153853571620227 0.9976771155233431 -0.017777173455113718
 -0.00022644426788346394 -0.0023118739960126217 0.0002489912017667212 0.00368464524109286 0.9976771155233431 -0.017777173455113718 0.00210593455993203 0.007153735845511969
0.037515631513130004 0.002289569288199944 0.008640979195492273 0.9974352869700784 -0.021365200776784103 0.0003164144747710942 0.004423291832912119 -0.00027803436460640326 -0.002778569480536021
 0.9974352869700784 -0.021365200776784103 0.002290878310074096 0.008640836491993126 -0.0002780624890188122 -0.0027785715558615613 0.00030782477503979336 0.004424299523797075
 0.0003164144747710942 0.004423291832912119 -0.0002780624890188122 -0.0027785715558615613 0.002289532103433275 0.008640482446847357 0.9974352788885334 -0.021365701899967216
 -0.00027803436460640326 -0.002778569480536021 0.00030782477503979336 0.004424299523797075 0.9974352788885334 -0.021365701899967216 0.0022908996247201704 0.008640332284430355
0.043768236765320004 0.0024860424117974576 0.010144021370693434 0.9971770420696843 -0.024966397612107224 0.0003849994381673639 0.005163486309521513 -0.0003353732467842601 -0.003246401011708554
 0.9971770420696843 -0.024966397612107224 0.002487822942458608 0.010143844923992305 -0.0003354113452236846 -0.0032464030483327173 0.00037330600044925273 0.005164827272844558
 0.0003849994381673639 0.005163486309521513 -0.0003354113452236846 -0.0032464030483327173 0.0024859921157443783 0.010143442603208248 0.9971770313982082 -0.024966982123101875
 -0.0003353732467842601 -0.003246401011708554 0.00037330600044925273 0.005164827272844558 0.9971770313982082 -0.024966982123101875 0.002487852336773188 0.010143256726593037
0.050020842017509996 0.0026946762538467553 0.011663021176723175 0.9969021565701803 -0.028580461484508324 0.0004607851456578812 0.005904432108063694 -0.0003985371887308362 -0.0037152761964805952
 0.9969021565701803 -0.028580461484508324 0.0026970004757217282 0.011662807866537618 -0.0003985867323017379 -0.0037152780515552486 0.0004455074962164846 0.005906167493591702
 0.0004607851456578812 0.005904432108063694 -0.0003985867323017379 -0.0037152780515552486 0.0026946108660640695 0.011662360651430646 0.996902142951534 -0.028581129394462577
 -0.0003985371887308362 -0.0037152761964805952 0.0004455074962164846 0.005906167493591702 0.996902142951534 -0.028581129394462577 0.0026970392625622007 0.01166213565317349
0.055454545454549996 0.0028860517541040723 0.01299579170074189 0.9966495788406312 -0.03173168182354014 0.0005325499208752619 0.006548890394807312 -0.0004582176519001421 -0.004123520428433773
 0.9966495788406312 -0.03173168182354014 0.0028889070561130795 0.012995543744970008 -0.0004582783265566345 -0.00412352200011826 0.0005137663378393531 0.006551022361839001
 0.0005325499208752619 0.006548890394807312 -0.0004582783265566345 -0.00412352200011826 0.002885971641005357 0.012995060362653073 0.9966495623694422 -0.031732422220200805
 -0.0004582176519001421 -0.004123520428433773 0.0005137663378393531 0.006551022361839001 0.9966495623694422 -0.031732422220200805 0.0028889550770405384 0.01299479849941327
0.056273447269699996 0.0029157159006153086 0.013197663357150877 0.9966103990624665 -0.03220744195043024 0.0005438447259449252 0.006646056663011409 -0.0004676013795460419 -0.004185104827425437
 0.9966103990624665 -0.03220744195043024 0.0029186559645375336 0.013197409965327875 -0.0004676638267600319 -0.004185106345734019 0.0005245011784148173 0.0066482529732032405
 0.0005438447259449252 0.006646056663011409 -0.0004676638267600319 -0.004185106345734019 0.0029156334385262933 0.013196921366689127 0.9966103821379351 -0.0322081932732273
 -0.0004676013795460419 -0.004185104827425437 0.0005245011784148173 0.0066482529732032405 0.9966103821379351 -0.0322081932732273 0.0029187054639293482 0.013196653710844206
0.06252605252188 0.0031494052253689692 0.014747669905295344 0.9963015372811107 -0.03584734370829101 0.000634250515315964 0.00738828254876349 -0.0005426399231170523 -0.004655797453624965
 0.9963015372811107 -0.03584734370829101 0.003153033266204722 0.014747373116854158 -0.0005427167203677877 -0.004655798467611988 0.0006103581704292272 0.0073910117048140616
 0.000634250515315964 0.00738828254876349 -0.0005427167203677877 -0.004655798467611988 0.003149303705395698 0.014746846766930213 0.9963015166900686 -0.035848178467942526
 -0.0005426399231170523 -0.004655797453624965 0.0006103581704292272 0.0073910117048140616 0.9963015166900686 -0.035848178467942526 0.0031530948056073134 0.014746532789636417
0.06877865777407 0.0033959870590021886 0.016312787606334117 0.9959753384215847 -0.039500138996529606 0.0007320739649428489 0.008131028326823438 -0.0006237258206367166 -0.005127264530095569
 0.9959753384215847 -0.039500138996529606 0.0034003752100148347 0.016312444010164816 -0.0006238184024642125 -0.005127264859905484 0.0007031487254440284 0.008134367735007848
 0.0007320739649428489 0.008131028326823438 -0.0006238184024642125 -0.005127264859905484 0.0033958644967547946 0.016311883662926217 0.9959753138018527 -0.03950105722647761
 -0.0006237258206367166 -0.005127264530095569 0.0007031487254440284 0.008134367735007848 0.9959753138018527 -0.03950105722647761 0.003400450124577575 0.01631151957264384
0.07503126302626001 0.0036557032814658785 0.017892780124360876 0.9956315693829236 -0.0431657754486939 0.0008373855597081379 0.0088742090819975 -0.000710930942131191 -0.00559941588061041
 0.9956315693829236 -0.0431657754486939 0.003660923688757401 0.017892386213511396 -0.0007110407315009281 -0.00559941533411558 0.0008029421564931392 0.008878241700035525
 0.0008373855597081379 0.0088742090819975 -0.0007110407315009281 -0.00559941533411558 0.003655557692147651 0.017891795747822105 0.9956315403700385 -0.0431667771888102
 -0.000710930942131191 -0.00559941588061041 0.0008029421564931392 0.008878241700035525 0.9956315403700385 -0.0431667771888102 0.0036610133210096918 0.017891377625179148
0.08128386827845 0.003928794863440627 0.019487422753281837 0.9952699969620179 -0.046844181287140116 0.0009502547440837808 0.009617736780692648 -0.0008043259909914062 -0.0060721603409027635
 0.9952699969620179 -0.046844181287140116 0.003934919700185425 0.01948697492484248 -0.0008044543994469766 -0.0060721587137419165 0.0009098067710095636 0.009622551183978064
 0.0009502547440837808 0.009617736780692648 -0.0008044543994469766 -0.0060721587137419165 0.003928624262119065 0.019486358346124295 0.9952699631889819 -0.046845266582424765
 -0.0008043259909914062 -0.0060721603409027635 0.0009098067710095636 0.009622551183978064 0.9952699631889819 -0.046845266582424765 0.003935025400178913 0.01948588214334138
0.08753647353064001 0.004215501874755866 0.021096498774753378 0.9948903880181869 -0.050535268912055196 0.0010707498527077694 0.010361520520362147 -0.0009039804633394376 -0.00654540551335148
 0.9948903880181869 -0.050535268912055196 0.0042226033553231694 0.02109599332944227 -0.0009041288912203467 -0.0065454025889558915 0.0010238098082907628 0.01036721096790832
 0.0010707498527077694 0.010361520520362147 -0.0009041288912203467 -0.0065454025889558915 0.004215304277243167 0.021095354763333067 0.9948903491155112 -0.050536437819806726
 -0.0009039804633394376 -0.00654540551335148 0.0010238098082907628 0.01036721096790832 0.9948903491155112 -0.050536437819806726 0.004222726480672489 0.021094816303399353
0.09378907878283 0.00451606347075945 0.022719796855454208 0.9944925096174124 -0.05423893745413338 0.0011989380439577752 0.011105466706496146 -0.001009962603838308 -0.007019057596799325
 0.9944925096174124 -0.05423893745413338 0.004524213864746103 0.022719229996705854 -0.001010132440359255 -0.0070190531464301275 0.001145017378960322 0.011112133206487735
 0.0011989380439577752 0.011105466706496146 -0.001010132440359255 -0.0070190531464301275 0.004515836893587725 0.022718573699809865 0.9944924652127404 -0.05424019003438462
 -0.001009962603838308 -0.007019057596799325 0.001145017378960322 0.011112133206487735 0.9944924652127404 -0.05424019003438462 0.004524355780377988 0.022717968675092615
0.100041684035 0.0048307178613643705 0.024357109147122122 0.9940761291628422 -0.05795507462722159 0.001334885235324558 0.011849479187244273 -0.0011223393589910816 -0.007493021261594276
 0.9940761291628422 -0.05795507462722159 0.004839989507838257 0.024356476979865063 -0.001122531982359743 -0.007493015044378413 0.0012734944051949989 0.01185722756206596
 0.001334885235324558 0.011849479187244273 -0.001122531982359743 -0.007493015044378413 0.004830460322663473 0.024355807333971684 0.994076078880566 -0.05795641095007301
 -0.0011223393589910816 -0.007493021261594276 0.0012734944051949989 0.01185722756206596 0.994076078880566 -0.05795641095007301 0.004840151586336004 0.02435513130458499
0.1059090909091 0.005139016204750687 0.025906115491489325 0.9936683660617589 -0.0614535064825771 0.00146957155473519 0.012547628476727817 -0.001233667309506248 -0.007937982932371555
 0.9936683660617589 -0.0614535064825771 0.005149405893773268 0.025905418407309946 -0.00123388255964753 -0.007937974827299165 0.0014007246948541845 0.012556493556500266
 0.00146957155473519 0.012547628476727817 -0.00123388255964753 -0.007937974827299165 0.0051387278110752 0.025904740336875925 0.9936683099192843 -0.06145492145806954
 -0.001233667309506248 -0.007937982932371555 0.0014007246948541845 0.012556493556500266 0.9936683099192843 -0.06145492145806954 0.005149588147842649 0.025903993519383495
0.1062942892872 0.005159702269035695 0.02600822984193526 0.9936410145153578 -0.06168355812877352 0.001478656040382734 0.012593459355758658 -0.0012411763280943634 -0.00796719955968081
 0.9936410145153578 -0.06168355812877352 0.005170167590849671 0.026007528370840537 -0.0012413931055930644 -0.00796719132263584 0.001409304561994853 0.012602401306476147
 0.001478656040382734 0.012593459355758658 -0.0012413931055930644 -0.00796719132263584 0.005159411788837034 0.026006849889616587 0.9936409579765448 -0.06168497826969219
 -0.0012411763280943634 -0.00796719955968081 0.001409304561994853 0.012602401306476147 0.9936409579765448 -0.06168497826969219 0.005170351212188624 0.02600609828123903
0.11254689453939999 0.005503252877085856 0.02767295407882394 0.9931869341082424 -0.0654242566924686 0.0016303137065734868 0.013337306231362455 -0.0013665377126983404 -0.008441493858845468
 0.9931869341082424 -0.0654242566924686 0.005514984395056976 0.027672179206255126 -0.0013667800007498136 -0.008441483336919601 0.00155251021866955 0.0133475594016247
 0.0016303137065734868 0.013337306231362455 -0.0013667800007498136 -0.008441483336919601 0.0055029274778519 0.027671496534140284 0.9931868709301086 -0.06542576073580825
 -0.0013665377126983404 -0.008441493858845468 0.00155251021866955 0.0133475594016247 0.9931868709301086 -0.06542576073580825 0.0055151909467170135 0.02767066463552707
0.11879949979160001 0.0058616047707955934 0.02935107708410549 0.992713657055819 -0.0691770309099803 0.0017899200536152144 0.014080916526378042 -0.001498486264630295 -0.008915803794416272
 0.992713657055819 -0.0691770309099803 0.005874675118213345 0.02935022460752604 -0.0014987554088558483 -0.008915790710518613 0.001703172380668819 0.014092604565483946
 0.0017899200536152144 0.014080916526378042 -0.0014987554088558483 -0.008915790710518613 0.005861242478074007 0.029349542527488753 0.992713586851628 -0.06917861894397374
 -0.001498486264630295 -0.008915803794416272 0.001703172380668819 0.014092604565483946 0.992713586851628 -0.06917861894397374 0.005874905995157102 0.029348625487497965
0.1250521050438 0.006234991872812469 0.03104239349789697 0.9922209532592619 -0.07294173387016281 0.001957535412298395 0.014824184700987682 -0.0016370832328641588 -0.009390027235857398
 0.9922209532592619 -0.07294173387016281 0.006249473810218117 0.03104145910684029 -0.0016373805681356999 -0.009390011300889543 0.001861350631690015 0.01483743732632761
 0.001957535412298395 0.014824184700987682 -0.0016373805681356999 -0.009390011300889543 0.006234590715774269 0.031040782537328542 0.9922208756383821 -0.0729434059933275
 -0.0016370832328641588 -0.009390027235857398 0.001861350631690015 0.01483743732632761 0.9922208756383821 -0.0729434059933275 0.006249730414869349 0.031039775361461512
0.131304710296 0.006623646874358116 0.03274669682400415 0.9917085935105718 -0.07671821167853513 0.002133218563679204 0.015567003012827497 -0.0017823883095706649 -0.009864060261891098
 0.9917085935105718 -0.07671821167853513 0.006639613304016401 0.03274567609662517 -0.001782715160039585 -0.009864041174781412 0.0020271030754879828 0.015581956071394043
 0.002133218563679204 0.015567003012827497 -0.001782715160039585 -0.009864041174781412 0.006623204886375776 0.03274501009979612 0.991708508077758 -0.07671996799508733
 -0.0017823883095706649 -0.009864060261891098 0.0020271030754879828 0.015581956071394043 0.991708508077758 -0.07671996799508733 0.006639897046231349 0.03274390764634671
0.1375573155481 0.006934030574394727 0.03424053858699556 0.9912701464524406 -0.08028299513926383 0.0022940484126090376 0.016286314831776227 -0.001911610310857311 -0.010314775157853505
 0.9912701464524406 -0.08028299513926383 0.006951560521358186 0.034239449787170535 -0.0019119687719224183 -0.010314752934318662 0.0021777612622639942 0.016302936220290033
 0.0022940484126090376 0.016286314831776227 -0.0019119687719224183 -0.010314752934318662 0.006933546505270585 0.03423877640645719 0.9912700528537982 -0.0802848356888921
 -0.001911610310857311 -0.010314775157853505 0.0021777612622639942 0.016302936220290033 0.9912700528537982 -0.0802848356888921 0.006951872020213422 0.03423759677487369
0.1438099208003 0.007255164995775908 0.03572724097029748 0.9908165726648029 -0.08383949624224447 0.0024614014109930076 0.017003154373788076 -0.0020460212220031323 -0.010763276674477601
 0.9908165726648029 -0.08383949624224447 0.007274332514485691 0.03572608104809794 -0.0020464127413689108 -0.010763251018844617 0.002334493762756635 0.017021567215592226
 0.0024614014109930076 0.017003154373788076 -0.0020464127413689108 -0.010763251018844617 0.007254637014252511 0.03572540396131128 0.9908164705074136 -0.08384142112224889
 -0.0020460212220031323 -0.010763276674477601 0.002334493762756635 0.017021567215592226 0.9908164705074136 -0.08384142112224889 0.0072746730466688465 0.03572414342241859
0.1500625260525 0.007586946521252114 0.037206701859543896 0.9903479790587926 -0.08738764936833182 0.0026352269219762246 0.01771746256817843 -0.0021855728068268764 -0.011209510024915069
 0.9903479790587926 -0.08738764936833182 0.007607825843262097 0.03720546756356973 -0.002185998831120251 -0.011209480629498296 0.0024972522342827427 0.017737794453925027
 0.0026352269219762246 0.01771746256817843 -0.002185998831120251 -0.011209480629498296 0.007586372808561192 0.03720479067238329 0.9903478679461932 -0.08738965868130281
 -0.0021855728068268764 -0.011209510024915069 0.0024972522342827427 0.017737794453925027 0.9903478679461932 -0.08738965868130281 0.0076081966832213166 0.03720344527036328
0.15631513130469998 0.007929270910469759 0.03867882234329342 0.9898644729629874 -0.09092738869091883 0.0028154737820319576 0.018429181215084096 -0.0023302162995977502 -0.011653421501188274
