! Created with skrf 1.8.0 (http://scikit-rf.org).
# GHz S RI R 50.0 
!freq ReS11 ImS11 ReS12 ImS12 ReS13 ImS13
! ReS14 ImS14
! ReS21 ImS21 ReS22 ImS22 ReS23 ImS23
! ReS24 ImS24
! ReS31 ImS31 ReS32 ImS32 ReS33 ImS33
! ReS34 ImS34
! ReS41 ImS41 ReS42 ImS42 ReS43 ImS43
! ReS44 ImS44
!
0.0 0.001471516720905 0.0 0.9985284832791 0.0 5.631352970981e-05 0.0 -5.631352961039e-05 6.896418378605381e-21
 0.9985284832791 0.0 0.001471516720931 0.0 -5.631352961074e-05 6.896418378648244e-21 5.631352971125e-05 0.0
 5.631352970981e-05 0.0 -5.631352961074e-05 6.896418378648244e-21 0.00147151671905 0.0 0.9985284832772 0.0
 -5.631352961039e-05 6.896418378605381e-21 5.631352971125e-05 0.0 0.9985284832772 0.0 0.001471516719059 0.0
0.005 0.0015829565370357314 0.0012100283338168575 0.9983875556480573 -0.003082360179485964 7.784633528176433e-05 0.0005839066822707585 -7.584814716788954e-05 -0.00037292841883319644
 0.9983875556480573 -0.003082360179485964 0.0015829676723797083 0.0012100217767816324 -7.584938290771259e-05 -0.0003729292893801474 7.777782796114562e-05 0.0005839327666536455
 7.784633528176433e-05 0.0005839066822707585 -7.584938290771259e-05 -0.0003729292893801474 0.0015829566608293018 0.0012100954619117831 0.9983875559910691 -0.003082293127025782
 -7.584814716788954e-05 -0.00037292841883319644 7.777782796114562e-05 0.0005839327666536455 0.9983875559910691 -0.003082293127025782 0.0015829682355785175 0.0012100887562868025
0.006252605252188 0.0016121213320108873 0.001517275759702614 0.9983504539705654 -0.003853710945446059 8.395822639344307e-05 0.0007301872759442265 -8.132719576156943e-05 -0.00046663769750688065
 0.9983504539705654 -0.003853710945446059 0.001612138738973831 0.0015172674169592617 -8.132911931248386e-05 -0.00046663876930271307 8.385118965943686e-05 0.000730221137324711
 8.395822639344307e-05 0.0007301872759442265 -8.132911931248386e-05 -0.00046663876930271307 0.0016121214649499661 0.0015173596640244503 0.9983504544455974 -0.003853627129962253
 -8.132719576156943e-05 -0.00046663769750688065 8.385118965943686e-05 0.000730221137324711 0.9983504544455974 -0.003853627129962253 0.0016121395577970037 0.0015173511490821933
0.01250521050438 0.0017652873414764742 0.0030662020380789376 0.9981543827972241 -0.00770825333736783 0.00011879797003001773 0.0014608662854341489 -0.0001122196862445696 -0.0009355405743097832
 0.9981543827972241 -0.00770825333736783 0.0017653568548125658 0.0030661838683451836 -0.00011222727465213444 -0.0009355425377422336 0.000118371122536402 0.0014609475195037685
 0.00011879797003001773 0.0014608662854341489 -0.00011222727465213444 -0.0009355425377422336 0.0017652873139760896 0.0030663695482767506 0.9981543841271258 -0.007708085954578856
 -0.0001122196862445696 -0.0009355405743097832 0.000118371122536402 0.0014609475195037685 0.9981543841271258 -0.007708085954578856 0.0017653595495340884 0.0030663511697094827
0.01875781575657 0.0019313366894409436 0.004637114152963226 0.9979400348241324 -0.011573014758834273 0.00016091230525915352 0.0021924919090371506 -0.0001490826169139118 -0.0014060918553984755
 0.9979400348241324 -0.011573014758834273 0.001931492903431495 0.004637084553283978 -0.00014909955047036328 -0.0014060944940771686 0.0001599534139613984 0.002192636584237659
 0.00016091230525915352 0.0021924919090371506 -0.00014909955047036328 -0.0014060944940771686 0.0019313362193131736 0.0046373651213637125 0.9979400373859852 -0.011572763923980661
 -0.0001490826169139118 -0.0014060918553984755 0.0001599534139613984 0.002192636584237659 0.9979400373859852 -0.011572763923980661 0.0019314985170659506 0.004637335410476126
0.02501042100875 0.002110582476504743 0.006227840446652333 0.9977071661393894 -0.015449880574130546 0.00021038189692602734 0.002925092118139375 -0.00019200506271687017 -0.0018780969448236558
 0.9977071661393894 -0.015449880574130546 0.0021108599236336206 0.00622779770642704 -0.00019203498152446798 -0.001878100002594939 0.0002086786264685015 0.002925318766618
 0.00021038189692602734 0.002925092118139375 -0.00019203498152446798 -0.001878100002594939 0.0021105812955779795 0.006228174763966886 0.9977071703122233 -0.015449546380973721
 -0.00019200506271687017 -0.0018780969448236558 0.0002086786264685015 0.002925318766618 0.9977071703122233 -0.015449546380973721 0.0021108694917925854 0.006228132144717531
0.03126302626094 0.0023033248482766 0.007837270176477645 0.9974555199266062 -0.01933966600889042 0.00026728789103914243 0.003658632271908614 -0.00024107385832120614 -0.0023514190833879593
 0.9974555199266062 -0.01933966600889042 0.0023037580167576802 0.007837212479636327 -0.00024112036919596915 -0.0023514222638379577 0.00026462760183137475 0.003658961903604483
 0.00026728789103914243 0.003658632271908614 -0.00024112036919596915 -0.0023514222638379577 0.002303322696358078 0.007837687776713521 0.9974555260857593 -0.019339248524557654
 -0.00024107385832120614 -0.0023514190833879593 0.00026462760183137475 0.003658961903604483 0.9974555260857593 -0.019339248524557654 0.002303772563067234 0.007837630568213325
0.037515631513130004 0.0025098575841749197 0.00946468428122495 0.9971848332359363 -0.02324278532324347 0.00033171116824458634 0.00439305295484836 -0.00029637416906526707 -0.0028259415034565527
 0.9971848332359363 -0.02324278532324347 0.002510480929471449 0.009464609707166605 -0.0002964408490067463 -0.002825944469701237 0.0003278808234482492 0.00439350908265619
 0.00033171116824458634 0.00439305295484836 -0.0002964408490067463 -0.002825944469701237 0.002509854210844523 0.00946518510475575 0.9971848417547323 -0.023242284624945785
 -0.00029637416906526707 -0.0028259415034565527 0.0003278808234482492 0.00439350908265619 0.9971848417547323 -0.023242284624945785 0.0025105014683764987 0.009465111522466476
0.043768236765320004 0.002730470643334965 0.01110955170530715 0.9968948397150517 -0.027159455418484496 0.0004037319889668289 0.005128281488200036 -0.0003579896993102377 -0.0033015559119973247
 0.9968948397150517 -0.027159455418484496 0.0027313185969579127 0.011109458229417033 -0.000358080097503541 -0.003301558286563203 0.00039851810786360384 0.005128890156639978
 0.0004037319889668289 0.005128281488200036 -0.000358080097503541 -0.003301558286563203 0.00273046580823952 0.011110135715345854 0.9968948509652665 -0.027158871576831452
 -0.0003579896993102377 -0.0033015559119973247 0.00039851810786360384 0.005128890156639978 0.9968948509652665 -0.027158871576831452 0.0027313461347544905 0.011110043871763604
0.050020842017509996 0.0029654513517176732 0.012771445245148364 0.9965852709842702 -0.03108977991915222 0.0004834297825893346 0.00586423667347654 -0.00042600276556283744 -0.0037781577434350387
 0.9965852709842702 -0.03108977991915222 0.0029665583287330224 0.012771330739085346 -0.0004261204046119145 -0.003778159108169415 0.00047661841882808305 0.005865026488817663
 0.0004834297825893346 0.00586423667347654 -0.0004261204046119145 -0.003778159108169415 0.00296544482407398 0.012772112415922165 0.996585285335615 -0.031089113009890795
 -0.00042600276556283744 -0.0037781577434350387 0.00047661841882808305 0.005865026488817663 0.996585285335615 -0.031089113009890795 0.0029665938637736585 0.01277200032100853
0.055454545454549996 0.003181546625244581 0.014229224039854035 0.9963001395480608 -0.0345164659431468 0.0005589851743083547 0.006504326421796558 -0.0004903666629017382 -0.00419306094662519
 0.9963001395480608 -0.0345164659431468 0.0031829066431252454 0.01422908944895735 -0.000490510815821532 -0.004193061062548756 0.0005506114318035857 0.006505298903863859
 0.0005589851743083547 0.006504326421796558 -0.000490510815821532 -0.004193061062548756 0.0031815384464676287 0.014229963469252007 0.9963001568926056 -0.034515726909166856
 -0.0004903666629017382 -0.00419306094662519 0.0005506114318035857 0.006505298903863859 0.9963001568926056 -0.034515726909166856 0.0031829499326881242 0.014229832079693003
0.056273447269699996 0.003215085017063705 0.014450000224606126 0.9962558574429794 -0.0350337904267394 0.0005708829972724561 0.006600831125554202 -0.0005004943123867998 -0.0042556438253075835
 0.9962558574429794 -0.0350337904267394 0.003216485423127276 0.01444986245634856 -0.000500642689130448 -0.004255643721308502 0.0005622597314915894 0.006601833286660196
 0.0005708829972724561 0.006600831125554202 -0.000500642689130448 -0.004255643721308502 0.0032150765753391603 0.014450750543632982 0.9962558752624364 -0.03503304052825019
 -0.0005004943123867998 -0.0042556438253075835 0.0005622597314915894 0.006601833286660196 0.9962558752624364 -0.03503304052825019 0.0032165299457474097 0.014450616105034812
0.06252605252188 0.003479655259773858 0.016144891784301337 0.9959063287954277 -0.03899146916128526 0.0006661689805207595 0.0073379725532746526 -0.0005815438980193582 -0.004733911099217013
 0.9959063287954277 -0.03899146916128526 0.0034813834969944133 0.0161447284180667 -0.0005817264839434855 -0.0047339090267780074 0.0006555189231485552 0.007339220882744129
 0.0006661689805207595 0.0073379725532746526 -0.0005817264839434855 -0.0047339090267780074 0.003479644693266422 0.016145725251209348 0.9959063504490875 -0.038990636355663126
 -0.0005815438980193582 -0.004733911099217013 0.0006555189231485552 0.007339220882744129 0.9959063504490875 -0.038990636355663126 0.003481437992330553 0.01614556627416087
0.06877865777407 0.003759444194074794 0.017855821337084358 0.9955364144309772 -0.04296276243935932 0.0007693638773735318 0.008075564522248483 -0.0006692296622861021 -0.0052128558626018985
 0.9955364144309772 -0.04296276243935932 0.003761534667603806 0.017855629932953795 -0.0006694499039173237 -0.005212851281154588 0.0007564716781963456 0.008077095497685094
 0.0007693638773735318 0.008075564522248483 -0.0006694499039173237 -0.005212851281154588 0.0037594313015369184 0.01785673796274714 0.99553644028226 -0.04296184681309564
 -0.0006692296622861021 -0.0052128558626018985 0.0007564716781963456 0.008077095497685094 0.99553644028226 -0.04296184681309564 0.0037616001137768308 0.01785655214994008
0.07503126302626001 0.004054732516378482 0.01958250798480159 0.995145843714061 -0.04694758919408227 0.0008805425387672458 0.008813506942136864 -0.0007636282838267315 -0.005692373289274531
 0.995145843714061 -0.04694758919408227 0.0040572196401138785 0.019582285998299795 -0.0007638896027859664 -0.005692365617352251 0.0008651924015809996 0.008815359727406392
 0.0008805425387672458 0.008813506942136864 -0.0007638896027859664 -0.005692365617352251 0.004054717106539488 0.019583507792248198 0.9951458741239049 -0.04694659083697635
 -0.0007636282838267315 -0.005692373289274531 0.0008651924015809996 0.008815359727406392 0.9951458741239049 -0.04694659083697635 0.004057297009981189 0.01958329274337913
0.08128386827845 0.004365799537784435 0.021324682796986367 0.9947343462216333 -0.05094584663655215 0.000999778435810653 0.009551696392320778 -0.0008648149303789371 -0.006172357115013271
 0.9947343462216333 -0.05094584663655215 0.004368717740314356 0.021324427578399585 -0.000865120723481025 -0.00617234573020474 0.0009817541369361938 0.00955391286870844
 0.000999778435810653 0.009551696392320778 -0.000865120723481025 -0.00617234573020474 0.004365781429386443 0.02132576581965368 0.9947343815488603 -0.050944765643333646
 -0.0008648149303789371 -0.006172357115013271 0.0009817541369361938 0.00955391286870844 0.9947343815488603 -0.050944765643333646 0.004368808001438727 0.021325519030889376
0.08753647353064001 0.004692923178998997 0.023082084867642273 0.9943016519474583 -0.05495741414317812 0.0011271435782451932 0.010290026350522443 -0.0009728632037958045 -0.006652699423755692
 0.9943016519474583 -0.05495741414317812 0.004696306909366275 0.023081793661170514 -0.0009732168429452691 -0.006652683662679966 0.0011062284885870776 0.010292651147709476
 0.0011271435782451932 0.010290026350522443 -0.0009732168429452691 -0.006652683662679966 0.004692902200552639 0.023083251148239527 0.9943016925479387 -0.05495625061446089
 -0.0009728632037958045 -0.006652699423755692 0.0011062284885870776 0.010292651147709476 0.9943016925479387 -0.05495625061446089 0.0046964110246242126 0.023082970011391358
0.09378907878283 0.005036379938236001 0.02485445848201102 0.9938474914811983 -0.058982156037092254 0.0012627084354271754 0.011028387358068758 -0.0010878450817334744 -0.00713329050085203
 0.9938474914811983 -0.058982156037092254 0.00504026367179417 0.024854128424759456 -0.0010882499138509937 -0.007133269659137338 0.001238685544929395 0.011031467884861116
 0.0012627084354271754 0.011028387358068758 -0.0010882499138509937 -0.007133269659137338 0.005036355928345444 0.024855708074346 0.9938475377082697 -0.058980910077357084
 -0.0010878450817334744 -0.00713329050085203 0.001238685544929395 0.011031467884861116 0.9938475377082697 -0.058980910077357084 0.005040382599837912 0.0248553898759411
0.100041684035 0.005396444841545025 0.026641551050287225 0.9933715961740504 -0.06301992360678217 0.0014065418589339184 0.011766667149480832 -0.0012098308567170819 -0.007614018725769319
 0.9933715961740504 -0.06301992360678217 0.005400863085698586 0.02664117917104487 -0.0012102902035397074 -0.007613992058037758 0.001379193803205785 0.011770253624314317
 0.0014065418589339184 0.011766667149480832 -0.0012102902035397074 -0.007613992058037758 0.005396417648911224 0.026642884018574595 0.9933716483781113 -0.06301859532492655
 -0.0012098308567170819 -0.007614018725769319 0.001379193803205785 0.011770253624314317 0.9933716483781113 -0.06301859532492655 0.005400997781573131 0.026642525938680738
0.1059090909091 0.005749676131442567 0.02833171098413244 0.9929050127983482 -0.06682064433458264 0.0015490942872736255 0.012459288179942473 -0.0013307326172903862 -0.008065154748075159
 0.9929050127983482 -0.06682064433458264 0.00575462737489143 0.028331297059366232 -0.001331246118852853 -0.008065121898795588 0.001518427936091401 0.012463397635736723
 0.0015490942872736255 0.012459288179942473 -0.001331246118852853 -0.008065121898795588 0.005749645823371518 0.028333122259090904 0.992905070927128 -0.0668192389054362
 -0.0013307326172903862 -0.008065154748075159 0.001518427936091401 0.012463397635736723 0.992905070927128 -0.0668192389054362 0.005754777732831971 0.02833272409386257
0.1062942892872 0.005773391378687098 0.028443111550667668 0.9928736982924659 -0.06707055662003496 0.0015587110064799832 0.012504750748369419 -0.0013388890726060236 -0.00809477050247108
 0.9928736982924659 -0.06707055662003496 0.0057783786788268695 0.028442694768469372 -0.0013394062304970384 -0.0080947372223291 0.0015278200958968261 0.012508896229456765
 0.0015587110064799832 0.012504750748369419 -0.0013394062304970384 -0.0080947372223291 0.005773360861945833 0.028444527968394886 0.9928737568207299 -0.06706914613029105
 -0.0013388890726060236 -0.00809477050247108 0.0015278200958968261 0.012508896229456765 0.9928737568207299 -0.06706914613029105 0.005778530094149362 0.028444127079197048
0.11254689453939999 0.0061674914283636004 0.03025888933601835 0.9923535311643906 -0.07113388447892453 0.0017192812666087045 0.013242520550869852 -0.0014750864600414902 -0.008575430206221302
 0.9923535311643906 -0.07113388447892453 0.006173082373663823 0.030258424458523794 -0.0014756646997229565 -0.00857538948626261 0.0016846295165240293 0.013247280965975416
 0.0017192812666087045 0.013242520550869852 -0.0014756646997229565 -0.00857538948626261 0.006167457456397623 0.03026038928578004 0.9923535963610868 -0.0711323919008292
 -0.0014750864600414902 -0.008575430206221302 0.0016846295165240293 0.013247280965975416 0.9923535963610868 -0.0711323919008292 0.006173251457396726 0.030259942550036736
0.11879949979160001 0.006579015175546725 0.03208863320847755 0.99181082932056 -0.07520972711158513 0.0018883161837350137 0.013979856393010186 -0.0016184878700849226 -0.009055880150546137
 0.99181082932056 -0.07520972711158513 0.006585244404983955 0.03208811693015559 -0.0016191304363837229 -0.009055831122363155 0.0018496853468941614 0.013985290568910545
 0.0018883161837350137 0.013979856393010186 -0.0016191304363837229 -0.009055831122363155 0.006578977627273938 0.03209021678191988 0.9918109015262415 -0.0752081525697995
 -0.0016184878700849226 -0.009055880150546137 0.0018496853468941614 0.013985290568910545 0.9918109015262415 -0.0752081525697995 0.0065854321035041085 0.032089721051145215
0.1250521050438 0.007008231021542088 0.03393209068364165 0.9912453286305365 -0.07929789567944377 0.00206587738384983 0.014716635610393785 -0.001769156207027021 -0.009536000566141702
 0.9912453286305365 -0.07929789567944377 0.00701513322958595 0.03393151958370458 -0.0017698663184922611 -0.009535942320352308 0.0020230489840068885 0.014722805301882904
 0.00206587738384983 0.014716635610393785 -0.0017698663184922611 -0.009535942320352308 0.007008189786126285 0.03393375798261086 0.9912454081825797 -0.07929623930248704
 -0.001769156207027021 -0.009536000566141702 0.0020230489840068885 0.014722805301882904 0.9912454081825797 -0.07929623930248704 0.007015340487686391 0.03393320999501043
0.131304710296 0.007455405489252081 0.0357890074099306 0.9906567664379844 -0.08339819313453599 0.002252024500275035 0.015452733091987303 -0.0019271523603786606 -0.010015669589943323
 0.9906567664379844 -0.08339819313453599 0.007463015432080466 0.03578837795003115 -0.0019279332090508291 -0.010015601176207551 0.0022047798670022573 0.015459703010379253
 0.002252024500275035 0.015452733091987303 -0.0019279332090508291 -0.010015601176207551 0.007455360465975332 0.035790758543897176 0.9906568536696068 -0.08339645505707863
 -0.0019271523603786606 -0.010015669589943323 0.0022047798670022573 0.015459703010379253 0.9906568536696068 -0.08339645505707863 0.007463243192801051 0.03579015492211112
0.1375573155481 0.007816276708667332 0.03741854059882532 0.990149445276997 -0.08726973416347693 0.002422874605248706 0.016164263401674362 -0.0020686514598439345 -0.010470977852300766
 0.990149445276997 -0.08726973416347693 0.007824630683997934 0.037417862749898334 -0.002069507533458994 -0.010470899203628129 0.002371104052162759 0.016172022145852793
 0.002422874605248706 0.016164263401674362 -0.002069507533458994 -0.010470899203628129 0.007816226828044667 0.037420376227998514 0.990149540529761 -0.08726791451773115
 -0.0020686514598439345 -0.010470977852300766 0.002371104052162759 0.016172022145852793 0.990149540529761 -0.08726791451773115 0.007824880853669268 0.0374197260319837
0.1438099208003 0.008189801852302274 0.03903987537739946 0.9896243822309063 -0.09113181738936173 0.002600623457142732 0.01687302830633004 -0.002215804206506866 -0.010923756083007417
 0.9896243822309063 -0.09113181738936173 0.008198934904327401 0.039039146454145315 -0.00221673889253942 -0.010923666272175843 0.002544127745930533 0.01688163495229512
 0.002600623457142732 0.01687302830633004 -0.00221673889253942 -0.010923666272175843 0.008189746853893069 0.03904179568928129 0.9896244858335617 -0.09112991631938228
 -0.002215804206506866 -0.010923756083007417 0.002544127745930533 0.01688163495229512 0.9896244858335617 -0.09112991631938228 0.008199208599890996 0.03904109627904065
0.1500625260525 0.008575854435390221 0.04065288679073389 0.9890817075151567 -0.09498435721259765 0.002785212321578796 0.017578959863000447 -0.0023685537777619263 -0.01137394040255085
 0.9890817075151567 -0.09498435721259765 0.00858580166995589 0.04065210396161712 -0.002369570453938184 -0.011373838465500505 0.0027237932919646807 0.01758847565061143
 0.002785212321578796 0.017578959863000447 -0.002369570453938184 -0.011373838465500505 0.00857579405768354 0.040654891985370076 0.9890818197930411 -0.09498237486544428
 -0.0023685537777619263 -0.01137394040255085 0.0027237932919646807 0.01758847565061143 0.9890818197930411 -0.09498237486544428 0.008586100018873711 0.04065414057247755
0.15631513130469998 0.00897430714069392 0.04225745369411259 0.9885215519334045 -0.09882726812505743 0.0029765818036933413 0.01828199123865577 -0.0025268426842443206 -0.011821468238239945
 0.9885215519334045 -0.09882726812505743 0.008985103727082451 0.04225661397861655 -0.002527944718337161 -0.011821353174303453 0.0029100423886238647 0.018292479551055223
