! Created with skrf 1.8.0 (http://scikit-rf.org).
# GHz S RI R 50.0 
!freq ReS11 ImS11 ReS12 ImS12 ReS13 ImS13
! ReS14 ImS14
! ReS21 ImS21 ReS22 ImS22 ReS23 ImS23
! ReS24 ImS24
! ReS31 ImS31 ReS32 ImS32 ReS33 ImS33
! ReS34 ImS34
! ReS41 ImS41 ReS42 ImS42 ReS43 ImS43
! ReS44 ImS44
!
0.0 0.001553049328408 0.0 0.9984469506696 0.0 5.992298394149e-05 0.0 -5.992298413134e-05 7.338449071180317e-21
 0.9984469506696 0.0 0.001553049328428 0.0 -5.992298413154e-05 7.33844907120481e-21 5.992298394392e-05 0.0
 5.992298394149e-05 0.0 -5.992298413154e-05 7.33844907120481e-21 0.001553049310471 0.0 0.9984469506517 0.0
 -5.992298413134e-05 7.338449071180317e-21 5.992298394392e-05 0.0 0.9984469506517 0.0 0.001553049310485 0.0
0.005 0.0016709917501291148 0.0012704127317805887 0.9982977514614603 -0.0032532331785429056 8.389911316935176e-05 0.0006605344047453302 -8.155031478143723e-05 -0.00041453639287717184
 0.9982977514614603 -0.0032532331785429056 0.0016709759176770527 0.0012704218742940392 -8.155418217866016e-05 -0.00041453923487788934 8.399499404098681e-05 0.0006604979944453801
 8.389911316935176e-05 0.0006605344047453302 -8.155418217866016e-05 -0.00041453923487788934 0.0016709907765988696 0.0012704805036989415 0.998297751828601 -0.003253166115986718
 -8.155031478143723e-05 -0.00041453639287717184 8.399499404098681e-05 0.0006604979944453801 0.998297751828601 -0.003253166115986718 0.001670977620349043 0.001270488223725203
0.006252605252188 0.0017019353709176173 0.0015930124859873487 0.9982583640470055 -0.004067335765738351 9.073071524980659e-05 0.0008259887792245247 -8.765790617222946e-05 -0.0005187059619231598
 0.9982583640470055 -0.004067335765738351 0.0017019106224409125 0.0015930240510097322 -8.766392518536902e-05 -0.0005187094632413067 9.088052134433207e-05 0.0008259414848973749
 9.073071524980659e-05 0.0008259887792245247 -8.766392518536902e-05 -0.0005187094632413067 0.0017019337652967646 0.001593097171649425 0.998258364536681 -0.004067251955827078
 -8.765790617222946e-05 -0.0005187059619231598 9.088052134433207e-05 0.0008259414848973749 0.998258364536681 -0.004067251955827078 0.001701913199330045 0.0015931069765813294
0.01250521050438 0.0018648922011236376 0.003219383836491605 0.9980495928382561 -0.008135464690152623 0.00012981326248056262 0.0016523460170858374 -0.00012231906813205536 -0.0010399211594049739
 0.9980495928382561 -0.008135464690152623 0.0018647933927244803 0.003219408349860854 -0.00012234280132327998 -0.0010399275989812424 0.0001304106896202094 0.0016522322109901188
 0.00012981326248056262 0.0016523460170858374 -0.00012234280132327998 -0.0010399275989812424 0.0018648852270256157 0.0032195528725497747 0.9980495942218632 -0.008135297292316884
 -0.00012231906813205536 -0.0010399211594049739 0.0001304106896202094 0.0016522322109901188 0.9980495942218632 -0.008135297292316884 0.0018648030980471415 0.003219574027505636
0.01875781575657 0.002042277706809102 0.004868887341643432 0.9978203758440618 -0.012214285103390263 0.00017726291410866064 0.0024796252940132136 -0.00016401372599118838 -0.0015628932606751554
 0.9978203758440618 -0.012214285103390263 0.0020420557061845397 0.004868926312092975 -0.00016406666968240806 -0.0015629019610091475 0.00017860505071984328 0.0024794219957915546
 0.00017726291410866064 0.0024796252940132136 -0.00016406666968240806 -0.0015629019610091475 0.002042261632030169 0.004869140518854948 0.9978203785332154 -0.012214034207042855
 -0.00016401372599118838 -0.0015628932606751554 0.00017860505071984328 0.0024794219957915546 0.9978203785332154 -0.012214034207042855 0.0020420770681667815 0.004869174642120404
0.02501042100875 0.002234439121520606 0.006539211010411018 0.9975704415068465 -0.016305769766095202 0.00023317260206160177 0.003307860927662861 -0.00021284559525419728 -0.0020873832233460677
 0.9975704415068465 -0.016305769766095202 0.0022340449091519483 0.0065392660525513124 -0.00021293911422456838 -0.00208739338127461 0.0002355566943112464 0.003307541518175523
 0.00023317260206160177 0.003307860927662861 -0.00021293911422456838 -0.00208739338127461 0.002234410226468494 0.006539548166234422 0.9975704459094487 -0.016305435404583544
 -0.00021284559525419728 -0.0020873832233460677 0.0002355566943112464 0.003307541518175523 0.9975704459094487 -0.016305435404583544 0.0022340824282592923 0.0065395969349571715
0.03126302626094 0.002441709331862236 0.00822916297467335 0.9972995044859555 -0.020410760426810757 0.00029763548363432956 0.004137011063508776 -0.00026891543463226675 -0.0026132222916779692
 0.9972995044859555 -0.020410760426810757 0.002441093972135323 0.00822923580499178 -0.00026906078437561226 -0.0026132329768838183 0.0003013592072660413 0.004136545262464667
 0.00029763548363432956 0.004137011063508776 -0.00026906078437561226 -0.0026132329768838183 0.0024416639127003816 0.008229583955004489 0.9972995110135867 -0.02041034261530035
 -0.00026891543463226675 -0.0026132222916779692 0.0003013592072660413 0.004136545262464667 0.9972995110135867 -0.02041034261530035 0.0024411521299922915 0.008229649101554647
0.037515631513130004 0.0026644140122872553 0.009937964513682795 0.9970072730311051 -0.0245296747346225 0.0003707441320093252 0.004967003706100491 -0.00033232177539549505 -0.0031402659780357376
 0.9970072730311051 -0.0245296747346225 0.002663528634821556 0.009938056948398648 -0.000332530113485974 -0.0031402761325074057 0.0003761057132856095 0.00496635753461185
 0.0003707441320093252 0.004967003706100491 -0.000332530113485974 -0.0031402761325074057 0.0026643483755949015 0.009938469172982826 0.9970072820952652 -0.024529173469666862
 -0.00033232177539549505 -0.0031402659780357376 0.0003761057132856095 0.00496635753461185 0.9970072820952652 -0.024529173469666862 0.0026636118909879507 0.009938552482862623
0.043768236765320004 0.002902874371965689 0.011665034924986604 0.9966934519643517 -0.028662721296440007 0.00045259015047268444 0.0057977507271799456 -0.0004031611795222214 -0.0036683800610373954
 0.9966934519643517 -0.028662721296440007 0.002901670155929737 0.011665148878914662 -0.00040344357208742915 -0.0036683884988093314 0.000459888422306084 0.0057968864656885956
 0.00045259015047268444 0.0057977507271799456 -0.00040344357208742915 -0.0036683884988093314 0.002902784835382839 0.011665623131246961 0.9966934639792917 -0.02866213655110166
 -0.0004031611795222214 -0.0036683800610373954 0.000459888422306084 0.0057968864656885956 0.9966934639792917 -0.02866213655110166 0.002901782951110486 0.011665726441480789
0.050020842017509996 0.0031574084299337162 0.013409902629777362 0.9963577441934666 -0.03280998849864745 0.0005432639353018229 0.006629153644884887 -0.00048152833070709956 -0.004197434813048103
 0.9963577441934666 -0.03280998849864745 0.0031558365908529043 0.01341004011566805 -0.0004818957565860246 -0.004197440220047641 0.0005527983591706799 0.006628029789153434
 0.0005432639353018229 0.006629153644884887 -0.0004818957565860246 -0.004197440220047641 0.0031572913204487465 0.013410574251355455 0.9963577595757075 -0.032809320235620325
 -0.00048152833070709956 -0.004197434813048103 0.0005527983591706799 0.006628029789153434 0.9963577595757075 -0.032809320235620325 0.003155983346005069 0.013410699449419255
0.055454545454549996 0.0033919051251003647 0.014940382543821976 0.9960479977738149 -0.0364256488341718 0.0006293005998205626 0.007352118476356023 -0.0005558173486421737 -0.0046578638902302376
 0.9960479977738149 -0.0364256488341718 0.0033899742103307242 0.01494054219019868 -0.0005562675213531256 -0.0046578654966286485 0.0006410219958571902 0.007350732345791108
 0.0006293005998205626 0.007352118476356023 -0.0005562675213531256 -0.0046578654966286485 0.0033917610778807436 0.01494112655312757 0.9960480164231775 -0.036424907949557384
 -0.0005558173486421737 -0.0046578638902302376 0.0006410219958571902 0.007350732345791108 0.9960480164231775 -0.036424907949557384 0.003390154053568835 0.014941272343833181
0.056273447269699996 0.003428331668589742 0.01517216151079547 0.9959998516066999 -0.03697148809728248 0.0006428545038266871 0.007461106463074711 -0.0005675160513849191 -0.004727302170060117
 0.9959998516066999 -0.03697148809728248 0.0034263434458355743 0.01517232463911043 -0.0005679794046984653 -0.004727303103995032 0.0006549251704697156 0.00745967767940312
 0.0006428545038266871 0.007461106463074711 -0.0005679794046984653 -0.004727303103995032 0.003428183322137332 0.015172916420936542 0.9959998707761167 -0.03697073626445071
 -0.0005675160513849191 -0.004727302170060117 0.0006549251704697156 0.00745967767940312 0.9959998707761167 -0.03697073626445071 0.003426528563236646 0.015173065443980902
0.06252605252188 0.003715957381915242 0.016951446934419984 0.9956194756656448 -0.04114717912722123 0.0007514493547909101 0.008293497235480412 -0.0006612152811252425 -0.005257854180274698
 0.9956194756656448 -0.04114717912722123 0.0037135040270664284 0.01695163791344155 -0.0006617853729973023 -0.0052578490705555555 0.0007663569718173459 0.00829171431561189
 0.0007514493547909101 0.008293497235480412 -0.0006617853729973023 -0.0052578490705555555 0.003715774142271496 0.016952285010105393 0.9956194990459015 -0.04114634365894021
 -0.0006612152811252425 -0.005257854180274698 0.0007663569718173459 0.00829171431561189 0.9956194990459015 -0.04114634365894021 0.0037137318898152827 0.01695245984453566
0.06877865777407 0.004020596855967049 0.01874742144434989 0.9952163178351074 -0.045336982143507995 0.0008691343460871442 0.009126209001088733 -0.0007627150343006285 -0.005788962085486152
 0.9952163178351074 -0.045336982143507995 0.004017629621362921 0.018747642580717216 -0.0007634025938989368 -0.005788949233179042 0.0008871802153978094 0.009124018817135848
 0.0008691343460871442 0.009126209001088733 -0.0007634025938989368 -0.005788949233179042 0.004020375073970896 0.018748342564955545 0.9952163458535491 -0.04533606296209406
 -0.0007627150343006285 -0.005788962085486152 0.0008871802153978094 0.009124018817135848 0.9952163458535491 -0.04533606296209406 0.004017904593191517 0.018748545246302855
0.07503126302626001 0.00434255945055724 0.020559765690757126 0.9947900799165187 -0.04954078823178383 0.0009959935841622927 0.009959120381062926 -0.0008721023427853407 -0.00632049574536362
 0.9947900799165187 -0.04954078823178383 0.00433902957830659 0.020560019390296398 -0.0008729180178590221 -0.006320473323150794 0.0010174795722076204 0.009956465840646956
 0.0009959935841622927 0.009959120381062926 -0.0008729180178590221 -0.006320473323150794 0.00434229548341067 0.020560769738743285 0.9947901130054317 -0.049539785246996676
 -0.0008721023427853407 -0.00632049574536362 0.0010174795722076204 0.009956465840646956 0.9947901130054317 -0.049539785246996676 0.004339356003823951 0.02056100235192873
0.08128386827845 0.004682152619670529 0.022388172402165573 0.9943404643254231 -0.05375846498094016 0.0011321093185800352 0.010792105980169784 -0.0009894621910677625 -0.006852323261883961
 0.9943404643254231 -0.05375846498094016 0.0046780113305164095 0.022388461171132284 -0.0009904165482324994 -0.006852289314048146 0.001157337820860443 0.010788925981915162
 0.0011321093185800352 0.010792105980169784 -0.0009904165482324994 -0.006852289314048146 0.0046818428300398895 0.02238925926148102 0.9943405029213835 -0.05375737809171967
 -0.0009894621910677625 -0.006852323261883961 0.001157337820860443 0.010788925981915162 0.9943405029213835 -0.05375737809171967 0.004678393534204244 0.02238952394140174
0.08753647353064001 0.005039681890029188 0.02423234221159574 0.9938671743291309 -0.0579898606067403 0.001277561841285211 0.011625036672160567 -0.0011148774446724844 -0.007384310724729742
 0.9938671743291309 -0.0579898606067403 0.005034880372142198 0.02423266865825696 -0.0011159809692919424 -0.007384263167170442 0.001306835742344747 0.01162126606158779
 0.001277561841285211 0.011625036672160567 -0.0011159809692919424 -0.007384263167170442 0.005039322645412123 0.02423351177308281 0.9938672188747111 -0.057988689696155615
 -0.0011148774446724844 -0.007384310724729742 0.001306835742344747 0.01162126606158779 0.9938672188747111 -0.057988689696155615 0.005035322658895747 0.024233810705508393
0.09378907878283 0.0054154508105881925 0.026091980678243844 0.9933699142608908 -0.06223480688566118 0.0014324293888115878 0.012457779808286154 -0.0012484287738967915 -0.007916322038601733
 0.9933699142608908 -0.06223480688566118 0.00540994020900842 0.02609234751482198 -0.0012496918699036095 -0.007916258658851618 0.0014660520181931176 0.012453349334309471
 0.0014324293888115878 0.012457779808286154 -0.0012496918699036095 -0.007916258658851618 0.00541503848302984 0.026093232832804063 0.9933699652044161 -0.06223355182799155
 -0.0012484287738967915 -0.007916322038601733 0.0014660520181931176 0.012453349334309471 0.9933699652044161 -0.06223355182799155 0.005410446863577619 0.026093568255640937
0.100041684035 0.005809760883076401 0.02796679611148306 0.992848389716314 -0.06649312129219737 0.0015967880454978338 0.01329019937743083 -0.0013901945750938794 -0.008448218804125388
 0.992848389716314 -0.06649312129219737 0.005803492288325339 0.027967206156548532 -0.0013916275645254707 -0.008448137261407552 0.0016350631304452772 0.013285035649409875
 0.0015967880454978338 0.01329019937743083 -0.0013916275645254707 -0.008448137261407552 0.00580929184795753 0.02796813075405007 0.9928484475124902 -0.06649178194922133
 -0.0013901945750938794 -0.008448218804125388 0.0016350631304452772 0.013285035649409875 0.9928484475124902 -0.06649178194922133 0.00580406757472576 0.027968504959039523
0.1059090909091 0.006196908741587504 0.029739655968141866 0.992336664988894 -0.07050108214575315 0.0017597190750004144 0.014070918578168546 -0.0015307654831048143 -0.008947117944450713
 0.992336664988894 -0.07050108214575315 0.006189884309819446 0.029740109220333533 -0.0015323672138134656 -0.008947017114565541 0.0018026365427124154 0.014064996296426015
 0.0017597190750004144 0.014070918578168546 -0.0015323672138134656 -0.008947017114565541 0.006196383198344944 0.029741067926315354 0.9923367296352362 -0.07049966357213475
 -0.0015307654831048143 -0.008947117944450713 0.0018026365427124154 0.014064996296426015 0.9923367296352362 -0.07049966357213475 0.006190527859420757 0.029741480658246985
0.1062942892872 0.0062229114752412554 0.029856497922530797 0.99230230773785 -0.07076460861462676 0.0017707116485879302 0.014122156135168276 -0.0015402508888248637 -0.008979860235244849
 0.99230230773785 -0.07076460861462676 0.006215835912315527 0.029856954103684333 -0.001541864011262453 -0.008979758060540096 0.0018139432637545993 0.014116181580671969
 0.0017707116485879302 0.014122156135168276 -0.001541864011262453 -0.008979758060540096 0.006222382110819157 0.029857914953160165 0.9923023728482593 -0.07076318483490796
 -0.0015402508888248637 -0.008979860235244849 0.0018139432637545993 0.014116181580671969 0.9923023728482593 -0.07076318483490796 0.006216484073696336 0.02985833028787499
0.11254689453939999 0.006655199724376826 0.031760795381759625 0.9917313769912969 -0.07504906217152005 0.0019542716940340334 0.014953507707709094 -0.0016986713162754155 -0.009511103107172042
 0.9917313769912969 -0.07504906217152005 0.006647268141813045 0.031761300738798466 -0.0017004747281703313 -0.00951097770332104 0.0020027642085706024 0.014946640530946778
 0.0019542716940340334 0.014953507707709094 -0.0017004747281703313 -0.00951097770332104 0.006654606410979315 0.031762294704168886 0.9917314498848186 -0.07504755379223832
 -0.0016986713162754155 -0.009511103107172042 0.0020027642085706024 0.014946640530946778 0.9917314498848186 -0.07504755379223832 0.006647993399842771 0.0317627535744128
0.11879949979160001 0.007106920430243854 0.03367939664350258 0.991135307935537 -0.07934626476716221 0.0021475372426749168 0.01578410868497221 -0.001865526934435325 -0.010041801720801121
 0.991135307935537 -0.07934626476716221 0.007098083688916033 0.03367995433196373 -0.001867530708346013 -0.01004165036261682 0.0022015952650147005 0.015776262826126104
 0.0021475372426749168 0.01578410868497221 -0.001867530708346013 -0.01004165036261682 0.007106259550122311 0.033680978163187186 0.9911353890889956 -0.07934467161640683
 -0.001865526934435325 -0.010041801720801121 0.0022015952650147005 0.015776262826126104 0.9911353890889956 -0.07934467161640683 0.007098890243579999 0.03368148303586128
0.1250521050438 0.007578365942048064 0.03561200797771932 0.9905138129887542 -0.08365598944695841 0.002350574827345668 0.016613810698662846 -0.0020408862097997423 -0.010571807887932142
 0.9905138129887542 -0.08365598944695841 0.00756857480382397 0.03561262127288997 -0.0020431003335406746 -0.010571627722364238 0.002410503147678922 0.016604895793932224
 0.002350574827345668 0.016613810698662846 -0.0020431003335406746 -0.010571627722364238 0.007577633878141538 0.035613671609136734 0.9905139028872813 -0.08365431133695758
 -0.0020408862097997423 -0.010571807887932142 0.002410503147678922 0.016604895793932224 0.9905139028872813 -0.08365431133695758 0.007569466832626113 0.03561422501546929
0.131304710296 0.00806982603837076 0.03755833316735636 0.9898666066908202 -0.08797800009401477 0.0025634483602812504 0.017442462496874134 -0.002224814911448001 -0.01110097092571046
 0.9898666066908202 -0.08797800009401477 0.008059031154914888 0.037559005468687005 -0.002227249287064854 -0.011100758972001738 0.002629551890902866 0.017432383839502467
 0.0025634483602812504 0.017442462496874134 -0.002227249287064854 -0.011100758972001738 0.008069019173950788 0.03756007882645654 0.9898667058282602 -0.08797623682912167
 -0.002224814911448001 -0.01110097092571046 0.002629551890902866 0.017432383839502467 0.9898667058282602 -0.08797623682912167 0.008060012812732475 0.03756068336563359
0.1375573155481 0.008469584449589932 0.039264458859986626 0.9893054568118611 -0.0920583114295787 0.0027591526661360443 0.01824457277968302 -0.0023902333017378897 -0.01160387197163691
 0.9893054568118611 -0.0920583114295787 0.008457731020902392 0.03926518107759331 -0.0023929022364254943 -0.01160362793352347 0.002831580649443999 0.018233344177599024
 0.0027591526661360443 0.01824457277968302 -0.0023929022364254943 -0.01160362793352347 0.00846869799761335 0.03926628741534121 0.9893055656125189 -0.09205646291309567
 -0.0023902333017378897 -0.01160387197163691 0.002831580649443999 0.018233344177599024 0.9893055656125189 -0.09205646291309567 0.00845880775706544 0.03926693146486246
0.1438099208003 0.008883438497147159 0.04096149482491458 0.988724532322927 -0.0961281746149583 0.0029627452396099882 0.01904342270620405 -0.0025622635804263003 -0.012103734750834011
 0.988724532322927 -0.0961281746149583 0.008870476143893014 0.040962269760589295 -0.002565177646906054 -0.012103455702235059 0.003041774642090095 0.019030957510876596
 0.0029627452396099882 0.01904342270620405 -0.002565177646906054 -0.012103455702235059 0.008882468629152387 0.04096340628549772 0.9887246512787063 -0.09612624065933206
 -0.0025622635804263003 -0.012103734750834011 0.003041774642090095 0.019030957510876596 0.9887246512787063 -0.09612624065933206 0.00887165231638611 0.04096409162933584
0.1500625260525 0.009311241444355661 0.04264929596277304 0.9881239842142866 -0.10018748529933262 0.003174154619172969 0.019838930549158765 -0.002740835267383876 -0.012600480208092058
 0.9881239842142866 -0.10018748529933262 0.009297119640507534 0.042650126602352796 -0.002744005009375237 -0.012600163106049271 0.003260060723809231 0.01982513895331564
 0.003174154619172969 0.019838930549158765 -0.002744005009375237 -0.012600163106049271 0.009310184318250352 0.04265129034405264 0.9881241138245528 -0.10018546570823428
 -0.002740835267383876 -0.012600480208092058 0.003260060723809231 0.01982513895331564 0.9881241138245528 -0.10018546570823428 0.009298399601372747 0.04265201890195832
0.15631513130469998 0.00975284549873083 0.04432772153537506 0.9875039642618009 -0.1042361395691808 0.0033933084913119007 0.020631016003283174 -0.0029258770042873087 -0.013094030975763732
