! Created with skrf 1.8.0 (http://scikit-rf.org).
# GHz S RI R 50.0 
!freq ReS11 ImS11 ReS12 ImS12 ReS13 ImS13
! ReS14 ImS14
! ReS21 ImS21 ReS22 ImS22 ReS23 ImS23
! ReS24 ImS24
! ReS31 ImS31 ReS32 ImS32 ReS33 ImS33
! ReS34 ImS34
! ReS41 ImS41 ReS42 ImS42 ReS43 ImS43
! ReS44 ImS44
!
0.0 0.001504021889935 0.0 0.9984959781099 0.0 5.763154796385e-05 0.0 -5.763154765245e-05 7.057829036248104e-21
 0.9984959781099 0.0 0.001504021889963 0.0 -5.763154765252e-05 7.057829036256678e-21 5.763154796291e-05 0.0
 5.763154796385e-05 0.0 -5.763154765252e-05 7.057829036256678e-21 0.001504021889685 0.0 0.9984959781096 0.0
 -5.763154765245e-05 7.057829036248104e-21 5.763154796291e-05 0.0 0.9984959781096 0.0 0.001504021889704 0.0
0.005 0.0016180350032317808 0.0012364283728424532 0.9983518005133518 -0.00315028937918021 7.967756240700805e-05 0.0005995445919002131 -7.770099926285511e-05 -0.00038251872539399816
 0.9983518005133518 -0.00315028937918021 0.0016180157616643006 0.0012364395428842657 -7.770236707381703e-05 -0.00038251969360768924 7.979021353654274e-05 0.0005995016507101312
 7.967756240700805e-05 0.0005995445919002131 -7.770236707381703e-05 -0.00038251969360768924 0.0016180343811155143 0.0012363614013387494 0.9983518001595971 -0.0031503564532894377
 -7.770099926285511e-05 -0.00038251872539399816 7.979021353654274e-05 0.0005995016507101312 0.9983518001595971 -0.0031503564532894377 0.0016180156789344182 0.0012363723677909098
0.006252605252188 0.0016479052705941698 0.001550376429003331 0.9983138040007972 -0.003938635067140818 8.592448373317586e-05 0.0007497417802207719 -8.334248247971622e-05 -0.00047863675718212397
 0.9983138040007972 -0.003938635067140818 0.0016478751934311368 0.0015503906286959334 -8.334461157170205e-05 -0.00047863794926225487 8.610049047639533e-05 0.0007496860382702896
 8.592448373317586e-05 0.0007497417802207719 -8.334461157170205e-05 -0.00047863794926225487 0.0016479043719596932 0.0015502927342986863 0.9983138035211109 -0.003938718883985937
 -8.334248247971622e-05 -0.00047863675718212397 8.610049047639533e-05 0.0007496860382702896 0.9983138035211109 -0.003938718883985937 0.0016478751369800495 0.0015503066935660384
0.01250521050438 0.0018049624634540623 0.0031330610568479187 0.9981127787423896 -0.007878076485877428 0.00012147905207664255 0.0014999802619849892 -0.00011521792158470811 -0.0009595817772286383
 0.9981127787423896 -0.007878076485877428 0.001804842378146305 0.003133091863283483 -0.00011522632032434895 -0.0009595839612659889 0.00012218091772570527 0.0014998465213076134
 0.00012147905207664255 0.0014999802619849892 -0.00011522632032434895 -0.0009595839612659889 0.0018049594482438106 0.003132893851378259 0.9981127773906273 -0.007878243881284174
 -0.00011521792158470811 -0.0009595817772286383 0.00012218091772570527 0.0014998465213076134 0.9981127773906273 -0.007878243881284174 0.0018048427088916067 0.003132924316281606
0.01875781575657 0.0019755290228692618 0.004738169616246519 0.9978926573375411 -0.011827912942614082 0.0001643789189450115 0.0022511839169522424 -0.00015335358556025735 -0.0014421958527764862
 0.9978926573375411 -0.011827912942614082 0.001975259211587273 0.004738219646425442 -0.00015337232658715248 -0.0014421987877753786 0.0001659555649075413 0.002250945628976705
 0.0001643789189450115 0.0022511839169522424 -0.00015337232658715248 -0.0014421987877753786 0.001975522689248777 0.004737918959548136 0.9978926547218132 -0.01182816381993177
 -0.00015335358556025735 -0.0014421958527764862 0.0001659555649075413 0.002250945628976705 0.9978926547218132 -0.01182816381993177 0.001975260362325966 0.004737968683082342
0.02501042100875 0.0021599310389425423 0.006363476207023008 0.9976531852835452 -0.015790064967463626 0.00021470803577684143 0.003003380857902298 -0.00019784241780244335 -0.0019262749400674256
 0.9976531852835452 -0.015790064967463626 0.0021594519204919237 0.0063635482679983806 -0.00019787552894892288 -0.001926278340258621 0.00021750850959783725 0.003003007338240889
 0.00021470803577684143 0.003003380857902298 -0.00019787552894892288 -0.001926278340258621 0.0021599201979557747 0.006363142135937732 0.9976531810115519 -0.015790399269304426
 -0.00019784241780244335 -0.0019262749400674256 0.00021750850959783725 0.003003007338240889 0.9976531810115519 -0.015790399269304426 0.0021594543143732903 0.0063632140594554075
0.03126302626094 0.002358481143406261 0.00800783906293212 0.9973940948191177 -0.01976535912601648 0.00027255051646115936 0.0037565345741301555 -0.0002487749429801878 -0.0024116745230646813
 0.9973940948191177 -0.01976535912601648 0.0023577332415071948 0.008007936148129556 -0.000248826414899495 -0.002411678057353262 0.00027692432030460576 0.00375599097982223
 0.00027255051646115936 0.0037565345741301555 -0.000248826414899495 -0.002411678057353262 0.002358464620522681 0.008007421600493246 0.9973940884999675 -0.019765776825317927
 -0.0002487749429801878 -0.0024116745230646813 0.00027692432030460576 0.00375599097982223 0.9973940884999675 -0.019765776825317927 0.002357737295551287 0.00800751885043864
0.037515631513130004 0.0025714853051899784 0.009670516528915289 0.9971151119278611 -0.023754211979020976 0.00033798999743843173 0.0045105829518337585 -0.00030623986366930337 -0.0028982706021915042
 0.9971151119278611 -0.023754211979020976 0.0025704092285531886 0.00967064181641255 -0.00030631365377723125 -0.002898273893930614 0.00034428723716811623 0.0045098302401669925
 0.00033798999743843173 0.0045105829518337585 -0.00030631365377723125 -0.002898273893930614 0.0025714619374236527 0.009670015710301363 0.9971151031691783 -0.023754713053159866
 -0.00030623986366930337 -0.0028982706021915042 0.00034428723716811623 0.0045098302401669925 0.9971151031691783 -0.023754713053159866 0.002570415351034337 0.00967014159678319
0.043768236765320004 0.002799245452959692 0.011350958914143646 0.9968159591653202 -0.027756838158144576 0.0004111093262076743 0.005265450146355448 -0.00037032427512669443 -0.003385947823523099
 0.9968159591653202 -0.027756838158144576 0.0027977818789588055 0.011351115765732469 -0.0003704243096918329 -0.0033859504503918774 0.00041968078346591906 0.005264445027944367
 0.0004111093262076743 0.005265450146355448 -0.0003704243096918329 -0.0033859504503918774 0.0027992140892360838 0.011350374778406586 0.9968159475738649 -0.027757422597228007
 -0.00037032427512669443 -0.003385947823523099 0.00041968078346591906 0.005264445027944367 0.9968159475738649 -0.027757422597228007 0.0027977904716825607 0.01135053279432161
0.050020842017509996 0.003042060695896417 0.013048722457920858 0.9964963570869945 -0.03177333632699276 0.0004919903699304443 0.006021051480499898 -0.0004411137394559202 -0.003874594581515632
 0.9964963570869945 -0.03177333632699276 0.0030401503575322136 0.01304891441866309 -0.00044124391505267373 -0.003874596075421283 0.0005031875336592436 0.0060197463699912575
 0.0004919903699304443 0.006021051480499898 -0.00044124391505267373 -0.003874596075421283 0.0030420201974671363 0.013048055051088915 0.9964963422689984 -0.03177400413090688
 -0.0004411137394559202 -0.003874594581515632 0.0005031875336592436 0.0060197463699912575 0.9964963422689984 -0.03177400413090688 0.0030401618162234794 0.013048248871884145
0.055454545454549996 0.003265531728090159 0.014537901017161006 0.9962017879364302 -0.035275081377506415 0.0005686446510185518 0.0066782175243420925 -0.0005081425620426762 -0.004299945163357084
 0.9962017879364302 -0.035275081377506415 0.003263185039984398 0.014538126510106008 -0.0005083020731771931 -0.004299945256941838 0.0005824096399186765 0.006676609692125999
 0.0005686446510185518 0.0066782175243420925 -0.0005083020731771931 -0.004299945256941838 0.00326548237558081 0.014537161291123637 0.9962017699934218 -0.03527582163245173
 -0.0005081425620426762 -0.004299945163357084 0.0005824096399186765 0.006676609692125999 0.9962017699934218 -0.03527582163245173 0.003263199306033273 0.014537389354077853
0.056273447269699996 0.003300227951317345 0.014763427101967106 0.9961560250856556 -0.03580373133656727 0.0005807138748147762 0.006777295848776976 -0.0005186922992902219 -0.004364100617558214
 0.9961560250856556 -0.03580373133656727 0.0032978116250483133 0.014763657900105738 -0.0005188564836361416 -0.004364100464576795 0.0005948889480707029 0.006775638814474207
 0.0005807138748147762 0.006777295848776976 -0.0005188564836361416 -0.004364100464576795 0.003300177191064933 0.014762676481003828 0.9961560066457618 -0.035804482511110104
 -0.0005186922992902219 -0.004364100617558214 0.0005948889480707029 0.006775638814474207 0.9961560066457618 -0.035804482511110104 0.0032978263394654447 0.014762909964635328
0.06252605252188 0.003574042284095108 0.01649473328390519 0.9957946819434951 -0.03984799736170264 0.0006773593511197986 0.007534087040175896 -0.0006031424596840137 -0.004854355702685702
 0.9957946819434951 -0.03984799736170264 0.0035710607783951596 0.01649500683122618 -0.0006033444921780044 -0.004854353342991297 0.0006948652418027844 0.007532021753227855
 0.0006773593511197986 0.007534087040175896 -0.0006033444921780044 -0.004854353342991297 0.0035739801467485964 0.01649389951350396 0.9957946594850992 -0.039848831921891065
 -0.0006031424596840137 -0.004854355702685702 0.0006948652418027844 0.007532021753227855 0.9957946594850992 -0.039848831921891065 0.0035710791331252456 0.01649417670084289
0.06877865777407 0.003863797087301659 0.018242328080749135 0.9954120462294718 -0.043906071690695464 0.0007820049728436154 0.008291324527787221 -0.000694545151347921 -0.005345248856641166
 0.9954120462294718 -0.043906071690695464 0.003860191231764531 0.018242648473121393 -0.0006947888433624147 -0.005345243684456168 0.0008031952728897283 0.008288790211269185
 0.0007820049728436154 0.008291324527787221 -0.0006947888433624147 -0.005345243684456168 0.003863722468929839 0.01824141123694002 0.9954120193539032 -0.04390698965720468
 -0.000694545151347921 -0.005345248856641166 0.0008031952728897283 0.008288790211269185 0.9954120193539032 -0.04390698965720468 0.003860213606406286 0.018241736352476175
0.07503126302626001 0.004169784168659937 0.02000591644740011 0.995007836605466 -0.047977863423318765 0.0008947274850262604 0.009048903972832137 -0.0007929796831150533 -0.005836667856013894
 0.995007836605466 -0.047977863423318765 0.004165494803570869 0.02000628796579935 -0.0007932688181715275 -0.005836659219572286 0.0009199564410939363 0.00904583535097877
 0.0008947274850262604 0.009048903972832137 -0.0007932688181715275 -0.005836659219572286 0.004169695977166285 0.02000491661359328 0.9950078049122748 -0.047978864826619054
 -0.0007929796831150533 -0.005836667856013894 0.0009199564410939363 0.00904583535097877 0.9950078049122748 -0.047978864826619054 0.004165521573439347 0.020005294066412518
0.08128386827845 0.004492293778954821 0.021785215364891558 0.994581772078047 -0.05206325926336309 0.0010156021167179983 0.00980671756124878 -0.0008985236863359628 -0.006328498913612776
 0.994581772078047 -0.05206325926336309 0.0044872617449185186 0.021785642476587624 -0.0008988620201504584 -0.006328486115120939 0.00104522459422321 0.009803044808954341
 0.0010156021167179983 0.00980671756124878 -0.0008988620201504584 -0.006328486115120939 0.00449219093343972 0.021784132638136552 0.9945817351642501 -0.0520643441374691
 -0.0008985236863359628 -0.006328498913612776 0.00104522459422321 0.009803044808954341 0.9945817351642501 -0.0520643441374691 0.004487293280871094 0.021784567023215934
0.08753647353064001 0.004831614601583739 0.023579949809379993 0.9941335722147754 -0.056162127494374665 0.0011447024964977468 0.010564654242621449 -0.0010112530547675333 -0.006820626459388839
 0.9941335722147754 -0.056162127494374665 0.004825780728665334 0.023580437169672005 -0.0010116443150934105 -0.006820608755004806 0.0011790739381876071 0.010560302935373453
 0.0011447024964977468 0.010564654242621449 -0.0010116443150934105 -0.006820608755004806 0.004831496032471624 0.02357878429790201 0.9941335296747335 -0.056163295879458446
 -0.0010112530547675333 -0.006820626459388839 0.0011790739381876071 0.010560302935373453 0.9941335296747335 -0.056163295879458446 0.004825817398441733 0.023579280397796058
0.09378907878283 0.005188033713678861 0.025389849864609737 0.9936629573357738 -0.060274320817012825 0.0012821005703079467 0.011322599903472735 -0.0011312418801104512 -0.007312932991093405
 0.9936629573357738 -0.060274320817012825 0.005181338812002564 0.02539040231863763 -0.0011316897667363831 -0.007312909590897955 0.0013215769505245901 0.011317490967758784
 0.0012821005703079467 0.011322599903472735 -0.0011316897667363831 -0.007312909590897955 0.005187898363335907 0.025388601686375203 0.9936629087613864 -0.06027557276086787
 -0.0011312418801104512 -0.007312932991093405 0.0013215769505245901 0.011317490967758784 0.9936629087613864 -0.06027557276086787 0.005181380980143442 0.025389164473187738
0.100041684035 0.005561836530279124 0.02721464860539022 0.9931696486907744 -0.06439967841975688 0.0014278665205887035 0.012080437500835838 -0.0012585623851692576 -0.007805298968921602
 0.9931696486907744 -0.06439967841975688 0.005554221378941609 0.027215271190606048 -0.001259070569617504 -0.007805269036918813 0.0014728042954877093 0.0120744871651524
 0.0014278665205887035 0.012080437500835838 -0.001259070569617504 -0.007805269036918813 0.005561683352173466 0.02721331789038337 0.993169593670679 -0.06440101397559944
 -0.0012585623851692576 -0.007805298968921602 0.0014728042954877093 0.0120744871651524 0.993169593670679 -0.06440101397559944 0.005554269407343634 0.027213952528112585
0.1059090909091 0.005928673838555967 0.02894034233127112 0.9926858437710497 -0.06828270799533118 0.0015723237960192143 0.012791382683843193 -0.0013847698920749112 -0.008267277947697917
 0.9926858437710497 -0.06828270799533118 0.005920141233578752 0.0289410354822468 -0.0013853379734948118 -0.008267241084908608 0.001622711086154561 0.012784562366910498
 0.0015723237960192143 0.012791382683843193 -0.0013853379734948118 -0.008267241084908608 0.005928502989836367 0.028938934292621486 0.9926857823253818 -0.06828412206601109
 -0.0013847698920749112 -0.008267277947697917 0.001622711086154561 0.012784562366910498 0.9926857823253818 -0.06828412206601109 0.005920195088724058 0.02893964122467109
0.1062942892872 0.005953306731504494 0.029054080508484178 0.9926533686233815 -0.06853802752753779 0.0015820686861511717 0.012838047165925601 -0.001393284854593605 -0.008297602744270965
 0.9926533686233815 -0.06853802752753779 0.005944712068802548 0.029054778457238986 -0.0013938569799263436 -0.008297565398386044 0.0016328247407048407 0.012831166912478426
 0.0015820686861511717 0.012838047165925601 -0.0013938569799263436 -0.008297565398386044 0.005953134690978361 0.029052667397760856 0.9926533067429788 -0.06853944675503452
 -0.001393284854593605 -0.008297602744270965 0.0016328247407048407 0.012831166912478426 0.9926533067429788 -0.06853944675503452 0.0059447663174667775 0.029053379244943098
0.11254689453939999 0.0063627261807604665 0.030907880237449635 0.9921138407283151 -0.07268918458152455 0.0017447734827210455 0.013595306291481214 -0.001535477564088813 -0.008789720509469716
 0.9921138407283151 -0.07268918458152455 0.00635309269364667 0.030908658980103487 -0.0015361172445973643 -0.008789674821552086 0.001801705074608851 0.013587402808543238
 0.0017447734827210455 0.013595306291481214 -0.0015361172445973643 -0.008789674821552086 0.006362534254673188 0.0309063848844385 0.9921137715695407 -0.07269068754550496
 -0.001535477564088813 -0.008789720509469716 0.001801705074608851 0.013587402808543238 0.9921137715695407 -0.07269068754550496 0.0063531535209304275 0.03090717949725131
0.11879949979160001 0.00679037483323933 0.03277578169631006 0.9915507900027641 -0.07685295615545303 0.0019160453238390716 0.014352089604327238 -0.0016852067081479583 -0.00928152626665962
 0.9915507900027641 -0.07685295615545303 0.006779643146952999 0.03277664686465336 -0.0016859175290218013 -0.009281471262516106 0.0019795100247309945 0.014343064739420864
 0.0019160453238390716 0.014352089604327238 -0.0016859175290218013 -0.009281471262516106 0.006790162009854259 0.03277420426458772 0.9915507131435045 -0.07685454292826327
 -0.0016852067081479583 -0.00928152626665962 0.0019795100247309945 0.014343064739420864 0.9915507131435045 -0.07685454292826327 0.006779710909964461 0.0327750874002494
0.1250521050438 0.007236530637906522 0.034657517281819254 0.9909639429937196 -0.08102913967910759 0.002095946542134568 0.015108269229950524 -0.001842536326758348 -0.009772891809470597
 0.9909639429937196 -0.08102913967910759 0.007224641305693784 0.03465847471293459 -0.001843321843797513 -0.009772826468872035 0.0021663021763198226 0.015098019943862994
 0.002095946542134568 0.015108269229950524 -0.001843321843797513 -0.009772826468872035 0.007236295917369196 0.034655857948485067 0.9909638580081539 -0.08103081033716149
 -0.001842536326758348 -0.009772891809470597 0.0021663021763198226 0.015098019943862994 0.9909638580081539 -0.08103081033716149 0.007224716360973073 0.03465683556912244
0.131304710296 0.007701469433637594 0.0365528172886471 0.9903530279422376 -0.08521752401443083 0.0022845373105688724 0.015863714750357052 -0.0020075282314123842 -0.010263686716040577
 0.9903530279422376 -0.08521752401443083 0.0076883629261300865 0.036553873029172096 -0.002008391970548446 -0.010263609972788737 0.002362141891496512 0.015852133072040486
 0.0022845373105688724 0.015863714750357052 -0.002008391970548446 -0.010263609972788737 0.0077012118277277174 0.03655107624145911 0.9903529343998976 -0.0852192786411694
 -0.0020075282314123842 -0.010263686716040577 0.002362141891496512 0.015852133072040486 0.9903529343998976 -0.0852192786411694 0.007688445630146856 0.03655215451826014
0.1375573155481 0.008077969247221288 0.03821587927275657 0.9898253136535008 -0.08917224048341085 0.002457267438171766 0.016594021153105997 -0.002155546900037229 -0.010729582883384992
 0.9898253136535008 -0.08917224048341085 0.008063580443590183 0.03821701702047282 -0.0021564938382618855 -0.01072949464672806 0.0025423021981568032 0.016581124659061502
 0.002457267438171766 0.016594021153105997 -0.0021564938382618855 -0.01072949464672806 0.008077686733626953 0.03821405720618272 0.9898252111664921 -0.08917407909823037
 -0.002155546900037229 -0.010729582883384992 0.0025423021981568032 0.016581124659061502 0.9898252111664921 -0.08917407909823037 0.00806367210838963 0.038215218839163366
0.1438099208003 0.008467714429267668 0.039870412469630495 0.9892790853093416 -0.09311713437798967 0.0026369468040926274 0.017321469488123378 -0.0023094752481963537 -0.011192798147725001
 0.9892790853093416 -0.09311713437798967 0.0084519828048393 0.039871636914412534 -0.0023105091302163777 -0.011192697375425349 0.0027297380683515503 0.017307159463434443
 0.0026369468040926274 0.017321469488123378 -0.0023105091302163777 -0.011192697375425349 0.008467405848438754 0.039868509637073085 0.9892789734500719 -0.09311905705684591
 -0.0023094752481963537 -0.011192798147725001 0.0027297380683515503 0.017307159463434443 0.9892789734500719 -0.09311905705684591 0.008452083959162802 0.03986975931781172
0.1500625260525 0.008870571199272207 0.04151628449416145 0.9887144806689131 -0.09705211342095763 0.002823513842251742 0.018045989546331454 -0.0024692523414740807 -0.011653264168628271
 0.9887144806689131 -0.09705211342095763 0.008853436111035862 0.041517600588301506 -0.0024703769010282327 -0.01165314977702286 0.0029243860684690275 0.0180301636678099
 0.002823513842251742 0.018045989546331454 -0.0024703769010282327 -0.01165314977702286 0.008870235390480437 0.04151430116153872 0.9887143590067371 -0.09705412024194672
 -0.0024692523414740807 -0.011653264168628271 0.0029243860684690275 0.0180301636678099 0.9887143590067371 -0.09705412024194672 0.008853547294864629 0.0415156438396643
0.15631513130469998 0.009286404870043093 0.04315336696616884 0.9881316381460467 -0.10097708554434809 0.0030169062777597702 0.0187675123108254 -0.002634816512664802 -0.012110914026979532
