! Created with skrf 1.8.0 (http://scikit-rf.org).
# GHz S RI R 50.0 
!freq ReS11 ImS11 ReS12 ImS12 ReS13 ImS13
! ReS14 ImS14
! ReS21 ImS21 ReS22 ImS22 ReS23 ImS23
! ReS24 ImS24
! ReS31 ImS31 ReS32 ImS32 ReS33 ImS33
! ReS34 ImS34
! ReS41 ImS41 ReS42 ImS42 ReS43 ImS43
! ReS44 ImS44
!
0.0 0.0017029573162 0.0 0.9982970426838 0.0 6.633775505856e-05 0.0 -6.633775455828e-05 8.124031878242035e-21
 0.9982970426838 0.0 0.001702957316238 0.0 -6.633775455925e-05 8.124031878360824e-21 6.63377550582e-05 0.0
 6.633775505856e-05 0.0 -6.633775455925e-05 8.124031878360824e-21 0.001702957288056 0.0 0.9982970426556 0.0
 -6.633775455828e-05 8.124031878242035e-21 6.63377550582e-05 0.0 0.9982970426556 0.0 0.001702957288048 0.0
0.005 0.0018328356820356759 0.001385486147442265 0.9981326154447293 -0.0035671322072059644 9.43632066057754e-05 0.0007741534423028382 -9.132884673116553e-05 -0.00047827276604430787
 0.9981326154447293 -0.0035671322072059644 0.0018328422653290932 0.0013854822278591037 -9.132775020873381e-05 -0.0004782718662574055 9.433022259152941e-05 0.0007741660493862764
 9.43632066057754e-05 0.0007741534423028382 -9.132775020873381e-05 -0.0004782718662574055 0.0018328368957296528 0.001385552666175826 0.99813261581668 -0.003567065149275632
 -9.132884673116553e-05 -0.00047827276604430787 9.433022259152941e-05 0.0007741660493862764 0.99813261581668 -0.003567065149275632 0.0018328417971647205 0.0013855498297053856
0.006252605252188 0.0018670530602816586 0.0017373197493495717 0.9980889944492295 -0.0044597660099338875 0.00010246452144995617 0.0009680360090936291 -9.846643568628214e-05 -0.000598459398546365
 0.9980889944492295 -0.0044597660099338875 0.0018670633516973192 0.001737314766770545 -9.846472987531249e-05 -0.0005984582881078355 0.0001024129878132164 0.0009680523810509261
 0.00010246452144995617 0.0009680360090936291 -9.846472987531249e-05 -0.0005984582881078355 0.0018670548806042659 0.001737402893662099 0.9980889949531728 -0.004459682187217537
 -9.846643568628214e-05 -0.000598459398546365 0.0001024129878132164 0.0009680523810509261 0.9980889949531728 -0.004459682187217537 0.0018670625419817892 0.001737399277562204
0.01250521050438 0.0020480783620044295 0.0035110661102797547 0.9978565615662083 -0.00892019489111784 0.00014942252011199226 0.0019362228746300611 -0.00013940238008703162 -0.0011997531162242017
 0.9978565615662083 -0.00892019489111784 0.0020481194655511937 0.003511055295387567 -0.00013939566334468322 -0.001199751052442289 0.00014921703730059544 0.00193626227941918
 0.00014942252011199226 0.0019362228746300611 -0.00013939566334468322 -0.001199751052442289 0.002048085082721412 0.003511232089709518 0.9978565630222394 -0.008920027513634844
 -0.00013940238008703162 -0.0011997531162242017 0.00014921703730059544 0.00193626227941918 0.9978565630222394 -0.008920027513634844 0.0020481156694155365 0.0035112241525036927
0.01875781575657 0.0022464612284362486 0.005309979046535332 0.997599432136433 -0.013392111545481337 0.00020732475757774676 0.002905230628668934 -0.00018927970110146355 -0.0018029308214704998
 0.997599432136433 -0.013392111545481337 0.0022465536092485944 0.00530996146315459 -0.00018926473058080722 -0.0018029279923310077 0.00020686321715203602 0.002905301135350868
 0.00020732475757774676 0.002905230628668934 -0.00018926473058080722 -0.0018029279923310077 0.002246475923202851 0.0053102276990757286 0.9975994349831935 -0.013391860736919519
 -0.00018927970110146355 -0.0018029308214704998 0.00020686321715203602 0.002905301135350868 0.9975994349831935 -0.013391860736919519 0.0022465446429885644 0.005310214704578603
0.02501042100875 0.0024626150055570444 0.007131483580032974 0.9973172811562262 -0.017877641470328838 0.0002762857982249042 0.003875082983305321 -0.0002482271701620669 -0.00240768037573544
 0.9973172811562262 -0.017877641470328838 0.0024627790993365655 0.007131458212163203 -0.0002482007445452801 -0.002407677003476743 0.000275466097029737 0.0038751940229472355
 0.0002762857982249042 0.003875082983305321 -0.0002482007445452801 -0.002407677003476743 0.002462640753431152 0.007131814768797124 0.9973172858318182 -0.017877307332822515
 -0.0002482271701620669 -0.00240768037573544 0.000275466097029737 0.0038751940229472355 0.9973172858318182 -0.017877307332822515 0.0024627627780722584 0.007131795954584669
0.03126302626094 0.00269693583251605 0.008974232772037918 0.9970097683297284 -0.0223776677626447 0.00035642035695729844 0.004845708481816228 -0.0003163692638351435 -0.0030137767041726886
 0.9970097683297284 -0.0223776677626447 0.0026971920557165986 0.008974198524526304 -0.00031632821628808965 -0.0030137730456368432 0.00035514030922357295 0.00484587085424961
 0.00035642035695729844 0.004845708481816228 -0.00031632821628808965 -0.0030137730456368432 0.0026969757180776246 0.008974646373496724 0.997009775270109 -0.022377250388181537
 -0.0003163692638351435 -0.0030137767041726886 0.00035514030922357295 0.00484587085424961 0.997009775270109 -0.022377250388181537 0.0026971661923917553 0.00897462095197841
0.037515631513130004 0.0029498108010693135 0.010837331894416978 0.9966765465659978 -0.026892606891168215 0.0004478420779155517 0.005816997766654981 -0.00039382711346312553 -0.003621024553895656
 0.9966765465659978 -0.026892606891168215 0.0029501795580242508 0.010837287593001526 -0.0003937683079976149 -0.0036210209006070993 0.00044599938056033236 0.005817223652685273
 0.0004478420779155517 0.005816997766654981 -0.0003937683079976149 -0.0036210209006070993 0.0029498679132795467 0.01083782778117962 0.9966765562027412 -0.026892106378399075
 -0.00039382711346312553 -0.003621024553895656 0.00044599938056033236 0.005817223652685273 0.9966765562027412 -0.026892106378399075 0.002950141962166716 0.010837794940112742
0.043768236765320004 0.0032216210975912103 0.012720102308869038 0.9963172654599668 -0.03142264475018916 0.0005506629500511568 0.00678882101697192 -0.0004807188324898135 -0.004229241083719003
 0.9963172654599668 -0.03142264475018916 0.0032221227856000555 0.012720046699744374 -0.00048063916182823163 -0.004229237761853734 0.0005481551704907995 0.006789123992140735
 0.0005506629500511568 0.00678882101697192 -0.00048063916182823163 -0.004229237761853734 0.0032216985314464804 0.012720680357888018 0.9963172782213985 -0.03142206119562544
 -0.0004807188324898135 -0.004229241083719003 0.0005481551704907995 0.006789123992140735 0.9963172782213985 -0.03142206119562544 0.0032220712648907772 0.012720639260906488
0.050020842017509996 0.0035127434436062845 0.014621983917099303 0.995931573076956 -0.035967834141494334 0.0006649929490857212 0.007761035154294977 -0.0005771596206423484 -0.004838248689837537
 0.995931573076956 -0.035967834141494334 0.003513398457514368 0.014621915666403662 -0.0005770560047970164 -0.004838246060178553 0.000661717525291649 0.007761430203199146
 0.0006649929490857212 0.007761035154294977 -0.0005770560047970164 -0.004838246060178553 0.003512844301656296 0.014622643990866699 0.9959315893893806 -0.03596716765780046
 -0.0005771596206423484 -0.004838248689837537 0.000661717525291649 0.007761430203199146 0.9959315893893806 -0.03596716765780046 0.003513330819790031 0.014622593777674584
0.055454545454549996 0.003781711093419348 0.016289915911498226 0.9955746718355155 -0.03993002274458702 0.000773779708227064 0.008606117686461627 -0.0006688118861519602 -0.005368000605361083
 0.9955746718355155 -0.03993002274458702 0.0037825159161517783 0.016289835528866967 -0.0006686849803458908 -0.005367998897095642 0.0007697537904315405 0.008606606024763302
 0.000773779708227064 0.008606117686461627 -0.0006686849803458908 -0.005367998897095642 0.003781834832343754 0.016290647152965073 0.995574691576668 -0.03992928428789034
 -0.0006688118861519602 -0.005368000605361083 0.0007697537904315405 0.008606606024763302 0.995574691576668 -0.03992928428789034 0.003782432491509981 0.016290588300295627
0.056273447269699996 0.0038235508204023643 0.01654248725981553 0.9955191170259626 -0.04052814261135969 0.000790939776565876 0.008733487388272105 -0.0006832617712551623 -0.005447871497222082
 0.9955191170259626 -0.04052814261135969 0.0038243795563479397 0.016542404952844616 -0.0006831311565614606 -0.005447869955114075 0.000786794024541408 0.008733990919000902
 0.000790939776565876 0.008733487388272105 -0.0006831311565614606 -0.005447869955114075 0.0038236782113413915 0.016543229220968587 0.9955191373111167 -0.04052739331209746
 -0.0006832617712551623 -0.005447871497222082 0.000786794024541408 0.008733990919000902 0.9955191373111167 -0.04052739331209746 0.003824293608649748 0.016543169007390578
0.06252605252188 0.004154412840777277 0.018481167207841393 0.9950795451855312 -0.04510347870074339 0.0009286086484088946 0.009706017174401267 -0.0007991346282597401 -0.006057933445687179
 0.9950795451855312 -0.04510347870074339 0.004155435700158463 0.018481069348189234 -0.0007989739866888301 -0.006057933420976144 0.0009234897745607832 0.009706647032895635
 0.0009286086484088946 0.009706017174401267 -0.0007989739866888301 -0.006057933420976144 0.004154569880506072 0.018481990908407027 0.9950795698616216 -0.04510264671056411
 -0.0007991346282597401 -0.006057933445687179 0.0009234897745607832 0.009706647032895635 0.9950795698616216 -0.04510264671056411 0.004155329250656136 0.01848191978629668
0.06877865777407 0.004505695924609837 0.020437607266569617 0.994612506237334 -0.049693707589326355 0.0010781021110547117 0.01067845739262295 -0.0009248845142594991 -0.00666825716233252
 0.994612506237334 -0.049693707589326355 0.004506933317647498 0.020437492275041914 -0.0009246908429412898 -0.006668259119305918 0.0010719072281582872 0.010679232876835459
 0.0010781021110547117 0.01067845739262295 -0.0009246908429412898 -0.006668259119305918 0.004505885735786623 0.020438512549909933 0.994612535717962 -0.04969279304147933
 -0.0009248845142594991 -0.00666825716233252 0.0010719072281582872 0.010679232876835459 0.994612535717962 -0.04969279304147933 0.004506804175773414 0.020438429586871986
0.07503126302626001 0.004877763361253646 0.022411409638945688 0.9941176500924924 -0.054298660988780244 0.0012395198734723894 0.011650635108601514 -0.001060614641493937 -0.0072786632589310115
 0.9941176500924924 -0.054298660988780244 0.004879235710206496 0.02241127585230176 -0.0010603849623630616 -0.007278667696252706 0.0012321460192489422 0.011651576982389661
 0.0012395198734723894 0.011650635108601514 -0.0010603849623630616 -0.007278667696252706 0.0048779890737981 0.0224123963410075 0.9941176847869028 -0.05429766402312181
 -0.001060614641493937 -0.0072786632589310115 0.0012321460192489422 0.011651576982389661 0.9941176847869028 -0.05429766402312181 0.004879081688132269 0.022412300579956298
0.08128386827845 0.005270975298976597 0.02440218862067501 0.9935946282487239 -0.058918143711982895 0.0014129586495848986 0.012622372089174062 -0.0012064250110513125 -0.007888969883192083
 0.9935946282487239 -0.058918143711982895 0.005272703041324432 0.02440203429034174 -0.0012061563705774434 -0.007888977333853 0.0014043028074764274 0.012623502595856987
 0.0014129586495848986 0.012622372089174062 -0.0012061563705774434 -0.007888977333853 0.005271240050143367 0.024403256567778895 0.9935946685614716 -0.05891706447666382
 -0.0012064250110513125 -0.007888969883192083 0.0014043028074764274 0.012623502595856987 0.9935946685614716 -0.05891706447666382 0.005272521955071518 0.024403147026392562
0.08753647353064001 0.005685688685697609 0.026409566039251986 0.9930430941037958 -0.06355193820770506 0.001598512007205424 0.013593485175394977 -0.001362412304499269 -0.008498992420610751
 0.9930430941037958 -0.06355193820770506 0.00568769227787709 0.026409389329679074 -0.0013621017735706213 -0.008499003451856333 0.001588471128828758 0.013594828050912451
 0.001598512007205424 0.013593485175394977 -0.0013621017735706213 -0.008499003451856333 0.005685995620117435 0.02641071504478669 0.9930431404343143 -0.06355077686173126
 -0.001362412304499269 -0.008498992420610751 0.001588471128828758 0.013594828050912451 0.9930431404343143 -0.06355077686173126 0.005687481948013572 0.02641059071463957
0.09378907878283 0.006122257177353085 0.028433167996011897 0.9924627032400664 -0.06819980780118685 0.0017962702216496442 0.014563786562714207 -0.0015286697699602378 -0.009108543297717459
 0.9924627032400664 -0.06819980780118685 0.006124557097557514 0.028432966983050707 -0.0015283144437586375 -0.00910855851098882 0.001784741250760902 0.014565367048384672
 0.0017962702216496442 0.014563786562714207 -0.0015283144437586375 -0.00910855851098882 0.006122609446891318 0.028434397860115396 0.9924627559823647 -0.06819856451410802
 -0.0015286697699602378 -0.009108543297717459 0.001784741250760902 0.014565367048384672 0.9924627559823647 -0.06819856451410802 0.006124315350152107 0.028434257705823175
0.100041684035 0.006581031021375848 0.030472622492554093 0.9918531136886798 -0.0728614990603974 0.002006320132374839 0.015533084020878047 -0.0017052871044552463 -0.009717431854280499
 0.9918531136886798 -0.0728614990603974 0.006583647772969674 0.030472395161522777 -0.0017048841024001696 -0.009717451885154686 0.00199320003017547 0.015534928875698531
 0.002006320132374839 0.015533084020878047 -0.0017048841024001696 -0.009717451885154686 0.006581431785065097 0.03047393300671009 0.9918531732308065 -0.0728601740070116
 -0.0017052871044552463 -0.009717431854280499 0.00199320003017547 0.015534928875698531 0.9918531732308065 -0.0728601740070116 0.0065833724405380935 0.030473775964723414
0.1059090909091 0.007032046029303643 0.032400520676771655 0.9912542204101675 -0.07724833362100507 0.002214683074993842 0.016441578853281142 -0.001880522607130791 -0.010288034193150865
 0.9912542204101675 -0.07724833362100507 0.007034978766160628 0.032400266734282854 -0.0018800722680718032 -0.010288059353233537 0.002199976190746143 0.016443697489816902
 0.002214683074993842 0.016441578853281142 -0.0018800722680718032 -0.010288059353233537 0.007032495179174113 0.03240190666912771 0.9912542866806078 -0.07724693200761507
 -0.001880522607130791 -0.010288034193150865 0.002199976190746143 0.016443697489816902 0.9912542866806078 -0.07724693200761507 0.0070346699533363885 0.03240173278630243
0.1062942892872 0.007062356922775634 0.03252755765240763 0.9912139861793805 -0.07753674357672484 0.0022287450024038994 0.016501181074780786 -0.0018923503331880404 -0.010325464263415154
 0.9912139861793805 -0.07753674357672484 0.0070653110372721935 0.032527301896088275 -0.0018918967989196693 -0.010325489781536478 0.0022139307737842405 0.016503318587212965
 0.0022287450024038994 0.016501181074780786 -0.0018918967989196693 -0.010325489781536478 0.007062809346930062 0.032528948592520576 0.9912140529033084 -0.07753533694330686
 -0.0018923503331880404 -0.010325464263415154 0.0022139307737842405 0.016503318587212965 0.9912140529033084 -0.07753533694330686 0.007064999960107612 0.03252877356980641
0.11254689453939999 0.0075665778965564486 0.0345976003701632 0.990544984380421 -0.0822252593287343 0.0024636243791732676 0.017467877159412205 -0.0020899416871127626 -0.010932443486620971
 0.990544984380421 -0.0822252593287343 0.007569889936836102 0.03459731398652443 -0.002089434788537895 -0.010932475195632193 0.0024470131002553457 0.017470337158729123
 0.0024636243791732676 0.017467877159412205 -0.002089434788537895 -0.010932475195632193 0.007567085154902459 0.03459907149994969 0.990545058661538 -0.08222377130889118
 -0.0020899416871127626 -0.010932443486620971 0.0024470131002553457 0.017470337158729123 0.990545058661538 -0.08222377130889118 0.007569540963969088 0.03459887737251873
0.11879949979160001 0.008094033110336352 0.036682375265373456 0.9898457751311408 -0.08692675175157857 0.0027110339575277123 0.018432967756333327 -0.0022981394786879463 -0.011538169256495838
 0.9898457751311408 -0.08692675175157857 0.008097723673734642 0.0366820559552176 -0.00229757640796164 -0.011538207893968961 0.002692522803933251 0.018435781623320414
 0.0027110339575277123 0.018432967756333327 -0.00229757640796164 -0.011538207893968961 0.00809459838344616 0.03668392633265322 0.9898458573383042 -0.08692518254929574
 -0.0022981394786879463 -0.011538169256495838 0.002692522803933251 0.018435781623320414 0.9898458573383042 -0.08692518254929574 0.008097334663921388 0.036683711943765115
0.1250521050438 0.008645057718382415 0.038781503868264 0.9891160286695506 -0.09164091458545766 0.002971045443699194 0.01939624451930631 -0.002517017977092615 -0.012142438079554372
 0.9891160286695506 -0.09164091458545766 0.008649147439636743 0.038781149232643 -0.0025163959507893408 -0.012142484416928626 0.002950531719758838 0.019399445196496758
 0.002971045443699194 0.01939624451930631 -0.0025163959507893408 -0.012142484416928626 0.008645684194063764 0.0387831346076075 0.9891161191642652 -0.09163926441162487
 -0.002517017977092615 -0.012142438079554372 0.002950531719758838 0.019399445196496758 0.9891161191642652 -0.09163926441162487 0.008648716262411487 0.03878289876588918
0.131304710296 0.009219982688444355 0.04089460397706816 0.9883554188544538 -0.09636743056346775 0.0032437264207646403 0.020357495391565138 -0.002746647282827803 -0.012745043256865136
 0.9883554188544538 -0.09636743056346775 0.009224492242836906 0.04089421151444768 -0.002745963541921556 -0.012745098099386435 0.003221107589572402 0.02036111739282658
 0.0032437264207646403 0.020357495391565138 -0.002745963541921556 -0.012745098099386435 0.009220673561390435 0.040896314106448624 0.9883555179906346 -0.09636569963850015
 -0.002746647282827803 -0.012745043256865136 0.003221107589572402 0.02036111739282658 0.9883555179906346 -0.09636569963850015 0.009224016779756681 0.04089605558376012
0.1375573155481 0.009692903944163361 0.04274450278824646 0.9876899143793243 -0.10082902984065156 0.003496624417970623 0.02128908781702463 -0.0029546093782243247 -0.013318363790609744
 0.9876899143793243 -0.10082902984065156 0.00969785415242804 0.042744077500840735 -0.0029538596551556993 -0.013318427254957087 0.0034718482406736325 0.021293127868844786
 0.003496624417970623 0.02128908781702463 -0.0029538596551556993 -0.013318427254957087 0.009693661496793462 0.04274629238677965 0.9876900225344839 -0.10082721837718141
 -0.0029546093782243247 -0.013318363790609744 0.0034718482406736325 0.021293127868844786 0.9876900225344839 -0.10082721837718141 0.009697333165733022 0.04274601676698149
0.1438099208003 0.010182607442310322 0.04458354422669338 0.98700068638228 -0.10527822060526099 0.0037597196175079596 0.022216284259748847 -0.0031708612471226106 -0.013887666667871182
 0.98700068638228 -0.10527822060526099 0.010188019018404628 0.04458308406754587 -0.0031700425466977583 -0.013887739556958583 0.0037326928528006627 0.022220774105700156
 0.0037597196175079596 0.022216284259748847 -0.0031700425466977583 -0.013887739556958583 0.010183434717083295 0.04458541306967947 0.9870008039028016 -0.10527632883542716
 -0.0031708612471226106 -0.013887666667871182 0.0037326928528006627 0.022220774105700156 0.9870008039028016 -0.10527632883542716 0.010187450567661634 0.044585119536185124
0.1500625260525 0.010688903855119317 0.04641154234951056 0.9862879290736034 -0.10971485963918565 0.004032911090191517 0.023138969278972483 -0.0033953049050392107 -0.014452843620056936
 0.9862879290736034 -0.10971485963918565 0.010694797543588363 0.04641104516093127 -0.003394414237490347 -0.014452926769663789 0.00400354122798771 0.0231439418002098
 0.004032911090191517 0.023138969278972483 -0.003394414237490347 -0.014452926769663789 0.010689803891017237 0.04641349020366823 0.9862880562986941 -0.10971288780518605
 -0.0033953049050392107 -0.014452843620056936 0.00400354122798771 0.0231439418002098 0.9862880562986941 -0.10971288780518605 0.01069417971110444 0.04641317787539744
0.15631513130469998 0.011211602300402872 0.048228316770656234 0.9855518378864204 -0.11413880496554972 0.004316096591195424 0.024057029623761064 -0.003627841047502567 -0.015013788871315152
 0.9855518378864204 -0.11413880496554972 0.011217998877209643 0.04822778028196977 -0.003626875428590059 -0.015013883150017173 0.004284291866526409 0.024062518823173347
