! Created with skrf 1.8.0 (http://scikit-rf.org).
# GHz S RI R 50.0 
!freq ReS11 ImS11 ReS12 ImS12 ReS13 ImS13
! ReS14 ImS14
! ReS21 ImS21 ReS22 ImS22 ReS23 ImS23
! ReS24 ImS24
! ReS31 ImS31 ReS32 ImS32 ReS33 ImS33
! ReS34 ImS34
! ReS41 ImS41 ReS42 ImS42 ReS43 ImS43
! ReS44 ImS44
!
0.0 0.001619547975447 0.0 0.9983804520246 0.0 6.224757395571e-05 0.0 -6.224757386742e-05 7.623129209142434e-21
 0.9983804520246 0.0 0.001619547975437 0.0 -6.224757386677e-05 7.623129209062831e-21 6.22475739561e-05 0.0
 6.224757395571e-05 0.0 -6.224757386677e-05 7.623129209062831e-21 0.001619547972601 0.0 0.9983804520217 0.0
 -6.224757386742e-05 7.623129209142434e-21 6.22475739561e-05 0.0 0.9983804520217 0.0 0.001619547972621 0.0
0.005 0.001742648173650395 0.0013312826649334044 0.9982247022547932 -0.0033918626786229684 8.634927525769191e-05 0.0006466045627305633 -8.406674886618477e-05 -0.00041268119817241725
 0.9982247022547932 -0.0033918626786229684 0.0017426656768353324 0.0013312724887544882 -8.406943513786317e-05 -0.00041268328227278745 8.62337506536155e-05 0.0006466485827547486
 8.634927525769191e-05 0.0006466045627305633 -8.406943513786317e-05 -0.00041268328227278745 0.0017426463048696003 0.001331216523496264 0.9982247018905172 -0.003391929741625618
 -8.406674886618477e-05 -0.00041268119817241725 8.62337506536155e-05 0.0006466485827547486 0.9982247018905172 -0.003391929741625618 0.0017426668226680378 0.0013312045084783713
0.006252605252188 0.0017749976556916032 0.001669300534886758 0.998183507310486 -0.004240644357421629 9.326652863397538e-05 0.0008085831355314744 -9.024557731042448e-05 -0.0005163722239944572
 0.998183507310486 -0.004240644357421629 0.0017750250158073333 0.0016692875867097227 -9.024975720294295e-05 -0.0005163747938056867 9.30860329098265e-05 0.0008086403036910117
 9.326652863397538e-05 0.0008085831355314744 -9.024975720294295e-05 -0.0005163747938056867 0.0017749948090496452 0.0016692178750451476 0.998183506815888 -0.004240728176382356
 -9.024557731042448e-05 -0.0005163722239944572 9.30860329098265e-05 0.0008086403036910117 0.998183506815888 -0.004240728176382356 0.0017750268823979373 0.0016692026183942282
0.01250521050438 0.0019456650051333738 0.0033732278688073376 0.9979647075592488 -0.008481981304524546 0.00013310184052711487 0.0016176133445991662 -0.00012540232638352794 -0.0010351692611465897
 0.9979647075592488 -0.008481981304524546 0.001945774245493217 0.0033731996716243285 -0.00012541879688346766 -0.001035174012019979 0.00013238207962376435 0.001617750880730718
 0.00013310184052711487 0.0016176133445991662 -0.00012541879688346766 -0.001035174012019979 0.0019456541920728962 0.003373062886162579 0.9979647061418365 -0.008482148706762687
 -0.00012540232638352794 -0.0010351692611465897 0.00013238207962376435 0.001617750880730718 0.9979647061418365 -0.008482148706762687 0.0019457822646169647 0.003373029942819371
0.01875781575657 0.002131936661437925 0.005101116657816235 0.9977237707152841 -0.012734310411503696 0.00018184828170243866 0.002427576090132698 -0.00016782779764292003 -0.0015556890046993343
 0.9977237707152841 -0.012734310411503696 0.002132182113560232 0.005101070743721516 -0.00016786452433248256 -0.0015556954692691229 0.00018023145190255752 0.0024278219144795283
 0.00018184828170243866 0.002427576090132698 -0.00016786452433248256 -0.0015556954692691229 0.0021319127793062234 0.005100869620577575 0.997723767951663 -0.012734561311319333
 -0.00016782779764292003 -0.0015556890046993343 0.00018023145190255752 0.0024278219144795283 0.997723767951663 -0.012734561311319333 0.002132200571338906 0.005100816305187505
0.02501042100875 0.0023341870238418484 0.006850546198257625 0.9974604031616207 -0.016999674439977516 0.00023960200811564938 0.003238482348998465 -0.0002176283768733225 -0.0020776975854359192
 0.9974604031616207 -0.016999674439977516 0.0023346229006398138 0.006850479950523578 -0.00021769322878793893 -0.002077705209733954 0.0002367301975909956 0.003238868947226637
 0.00023960200811564938 0.003238482348998465 -0.00021769322878793893 -0.002077705209733954 0.002334144974497587 0.00685021739174373 0.9974603986256096 -0.017000008814114204
 -0.0002176283768733225 -0.0020776975854359192 0.0002367301975909956 0.003238868947226637 0.9974603986256096 -0.017000008814114204 0.0023346560834599404 0.0068501407855289295
0.03126302626094 0.002552775050843028 0.008620262202664647 0.997174296793598 -0.021278937545224363 0.00030645946381539866 0.004050273072629987 -0.0002749074175024715 -0.0026010248426881874
 0.997174296793598 -0.021278937545224363 0.002553455477553233 0.008620172859520927 -0.00027500818343322925 -0.0026010329851984897 0.0003019743233597617 0.00405083752277704
 0.00030645946381539866 0.004050273072629987 -0.00027500818343322925 -0.0026010329851984897 0.002552709740249524 0.00861985198231843 0.9971742900572285 -0.02127935538015602
 -0.0002749074175024715 -0.0026010248426881874 0.0003019743233597617 0.00405083752277704 0.9971742900572285 -0.02127935538015602 0.0025535076749579294 0.008619748936685524
0.037515631513130004 0.0027880518254590945 0.010409440375669682 0.9968651368475269 -0.02557252163668735 0.0003825164361349597 0.004862861214626687 -0.000339765919018916 -0.0031255222980792943
 0.9968651368475269 -0.02557252163668735 0.0027890308600189294 0.010409325032322418 -0.0003399103156991177 -0.003125530229464824 0.0003760590335425239 0.004863645232849349
 0.0003825164361349597 0.004862861214626687 -0.0003399103156991177 -0.003125530229464824 0.002787958164050712 0.01040894914838482 0.9968651274810411 -0.025573022947990697
 -0.000339765919018916 -0.0031255222980792943 0.0003760590335425239 0.004863645232849349 0.9968651274810411 -0.025573022947990697 0.002789106367332117 0.01040881628616031
0.043768236765320004 0.003040363468141856 0.012217462270763292 0.996532605080938 -0.02988063044716405 0.00046786760828721743 0.005676144496250329 -0.00041230275661945976 -0.0036510503964823702
 0.996532605080938 -0.02988063044716405 0.0030416951174983046 0.01221731788082979 -0.0004124984335547223 -0.0036510572995414117 0.00045907836138330774 0.005677194488512552
 0.00046786760828721743 0.005676144496250329 -0.0004124984335547223 -0.0036510572995414117 0.003040236370974918 0.012216890509156204 0.9965325926527028 -0.029881215265991832
 -0.00041230275661945976 -0.0036510503964823702 0.00045907836138330774 0.005677194488512552 0.9965325926527028 -0.029881215265991832 0.0030417982371114954 0.012216724224826829
0.050020842017509996 0.0033100524851970526 0.014043822679255578 0.9961763813932171 -0.034203342067892134 0.000562606281630654 0.006490010697494362 -0.0004926147566934818 -0.004177473225328777
 0.9961763813932171 -0.034203342067892134 0.003311790720623057 0.0140436460555066 -0.0004928692993081674 -0.004177478194998214 0.0005511249333008608 0.006491377813647781
 0.000562606281630654 0.006490010697494362 -0.0004928692993081674 -0.004177478194998214 0.003309886871424734 0.01404317092353546 0.9961763654679283 -0.03420401043985742
 -0.0004926147566934818 -0.004177473225328777 0.0005511249333008608 0.006491377813647781 0.9961763654679283 -0.03420401043985742 0.0033119257610015104 0.014042967382931154
0.055454545454549996 0.0035587967674390276 0.015645537397918567 0.9958473221856765 -0.03797176855058147 0.0006526321355478292 0.007197665778963372 -0.0005687963644024092 -0.004635572520236041
 0.9958473221856765 -0.03797176855058147 0.00356093215172569 0.015645330064530834 -0.0005691081750656065 -0.00463557500649878 0.0006385181722711174 0.007199353751112767
 0.0006526321355478292 0.007197665778963372 -0.0005691081750656065 -0.00463557500649878 0.0035585935586492303 0.015644816614816558 0.9958473028648411 -0.03797250958298858
 -0.0005687963644024092 -0.004635572520236041 0.0006385181722711174 0.007199353751112767 0.9958473028648411 -0.03797250958298858 0.003561098436836534 0.015644577405383192
0.056273447269699996 0.00359745845504221 0.01588808416687793 0.9957961447875934 -0.03854065433779592 0.0006668241765848303 0.007304340245939742 -0.0005807966998881528 -0.00470465594040152
 0.9957961447875934 -0.03854065433779592 0.003599657225071462 0.01588787198168671 -0.000581117631466992 -0.004704657983798239 0.0006522897948342673 0.007306080434825532
 0.0006668241765848303 0.007304340245939742 -0.000581117631466992 -0.004704657983798239 0.0035972492481037652 0.015887353019308215 0.9957961249261245 -0.038541406329404934
 -0.0005807966998881528 -0.00470465594040152 0.0006522897948342673 0.007306080434825532 0.9957961249261245 -0.038541406329404934 0.0035998285018720814 0.01588710815879621
0.06252605252188 0.00390291838863194 0.017749852082033207 0.9953915740137277 -0.04289250976491697 0.0007806112704298481 0.008119007649538571 -0.0006769412890582555 -0.005232463352403206
 0.9953915740137277 -0.04289250976491697 0.0039056316322651614 0.017749600867273695 -0.0006773360721409774 -0.005232461388890298 0.0007626622653180106 0.008121181714422944
 0.0007806112704298481 0.008119007649538571 -0.0006773360721409774 -0.005232461388890298 0.003902660518068109 0.01774904221847345 0.9953915497731892 -0.04289334545272491
 -0.0006769412890582555 -0.005232463352403206 0.0007626622653180106 0.008121181714422944 0.9953915497731892 -0.04289334545272491 0.003905843469432629 0.017748751743643258
0.06877865777407 0.004226766912390687 0.019628759655587323 0.9949623480355718 -0.04725881036071489 0.0009040556581696294 0.008933882351955929 -0.0007811390947555282 -0.005760759095994143
 0.9949623480355718 -0.04725881036071489 0.004230048571316633 0.019628465802291013 -0.0007816151319208093 -0.005760751957258359 0.0008823298107589507 0.008936556006000978
 0.0009040556581696294 0.008933882351955929 -0.0007816151319208093 -0.005760751957258359 0.00422645531280986 0.019627871821697614 0.994962318967578 -0.04725972983594486
 -0.0007811390947555282 -0.005760759095994143 0.0008823298107589507 0.008936556006000978 0.994962318967578 -0.04725972983594486 0.004230305300583414 0.01962753120572083
0.07503126302626001 0.004569336345166852 0.02152445855743795 0.9945081463986831 -0.051639427023220476 0.0010372434249399758 0.00974882928711603 -0.0008934784889288782 -0.006289405104969078
 0.9945081463986831 -0.051639427023220476 0.004573240376494749 0.02152411831492378 -0.0008940431234274389 -0.006289391535108671 0.0010113779248089206 0.009752073208568383
 0.0010372434249399758 0.00974882928711603 -0.0008940431234274389 -0.006289391535108671 0.00456896595832551 0.02152349357030235 0.9945081120502027 -0.0516404303909274
 -0.0008934784889288782 -0.006289405104969078 0.0010113779248089206 0.009752073208568383 0.9945081120502027 -0.0516404303909274 0.004573546338303386 0.021523098051770512
0.08128386827845 0.0049309567098789805 0.023436612614734904 0.9940286495366775 -0.05603420576451838 0.001180258526569909 0.010563709247816251 -0.0010140455696004097 -0.006818261278936076
 0.9940286495366775 -0.05603420576451838 0.0049355370981649365 0.02343622208933714 -0.0010147060856161396 -0.006818239934556121 0.0011498900167003637 0.010567599134730566
 0.001180258526569909 0.010563709247816251 -0.0010147060856161396 -0.006818239934556121 0.004930522484879056 0.02343557136204162 0.9940286094483709 -0.05603529314506832
 -0.0010140455696004097 -0.006818261278936076 0.0011498900167003637 0.010567599134730566 0.9940286094483709 -0.05603529314506832 0.004935896641695911 0.023435115942542207
0.08753647353064001 0.005311955699478442 0.025364893467717507 0.9935235390353729 -0.06044297200683127 0.0013331826753673504 0.011378379154388435 -0.0011429240797656295 -0.007347185255629581
 0.9935235390353729 -0.06044297200683127 0.005317266469036706 0.02536444862117568 -0.0011436877025195222 -0.007347154705954239 0.0012979473023995954 0.011382995778852023
 0.0013331826753673504 0.011378379154388435 -0.0011436877025195222 -0.007347154705954239 0.005311452593880728 0.025363776910705436 0.9935234927416173 -0.060444143533775994
 -0.0011429240797656295 -0.007347185255629581 0.0012979473023995954 0.011382995778852023 0.9935234927416173 -0.060444143533775994 0.005317683952818511 0.025363256351777354
0.09378907878283 0.005712658613781242 0.027308977470689614 0.992992497872686 -0.06486553364048937 0.0014960952289007161 0.012192692251143796 -0.0012801953221882349 -0.007876032261462903
 0.992992497872686 -0.06486553364048937 0.005718753841089392 0.027308474117974487 -0.0012810692179166258 -0.007875990988452725 0.0014556286984303177 0.012198121512725275
 0.0014960952289007161 0.012192692251143796 -0.0012810692179166258 -0.007875990988452725 0.005712081594544779 0.02730778664608829 0.9929924449010001 -0.06486678945913472
 -0.0012801953221882349 -0.007876032261462903 0.0014556286984303177 0.012198121512725275 0.9929924449010001 -0.06486678945913472 0.005719233633025618 0.027307195465895637
0.100041684035 0.006133388273405258 0.029268543424769627 0.9924352106384289 -0.06930168325678394 0.0016690730816341238 0.01300649826303101 -0.0014259380709001107 -0.00840465500784715
 0.9924352106384289 -0.06930168325678394 0.0061403220990543335 0.02926797723158521 -0.0014269293466358222 -0.008404601406342863 0.001623010717326399 0.013012831241522575
 0.0016690730816341238 0.01300649826303101 -0.0014269293466358222 -0.008404601406342863 0.006132732317236533 0.029267279440846686 0.9924351505085929 -0.06930302352899118
 -0.0014259380709001107 -0.00840465500784715 0.001623010717326399 0.013012831241522575 0.9924351505085929 -0.06930302352899118 0.006140868576727528 0.029266611910301794
0.1059090909091 0.006546697840855619 0.03112118343116652 0.9918881057963214 -0.07347670056625277 0.0018406149701843254 0.013769570858075331 -0.0015704747972930867 -0.00890037395967509
 0.9918881057963214 -0.07347670056625277 0.0065544679106951 0.03112055419122306 -0.001571582632572502 -0.008900307251826434 0.0017889695553354118 0.013776839375179555
 0.0018406149701843254 0.013769570858075331 -0.001571582632572502 -0.008900307251826434 0.006545963252520634 0.03111985187305712 0.9918880385055826 -0.07347812024514092
 -0.0015704747972930867 -0.00890037395967509 0.0017889695553354118 0.013776839375179555 0.9918880385055826 -0.07347812024514092 0.006555080956307686 0.031119107261249102
0.1062942892872 0.006574464916831716 0.031243270868814323 0.9918513637423635 -0.07375119983034284 0.0018521905578908846 0.013819643519198396 -0.0015802284803327136 -0.008932903626864051
 0.9918513637423635 -0.07375119983034284 0.00658229155841486 0.031242637348527207 -0.0015813441837104433 -0.008932836004724897 0.001800167364455825 0.013826976526485056
 0.0018521905578908846 0.013819643519198396 -0.0015813441837104433 -0.008932836004724897 0.006573725012178731 0.03124193491225724 0.9918512959662624 -0.07375262472810433
 -0.0015802284803327136 -0.008932903626864051 0.001800167364455825 0.013826976526485056 0.9918512959662624 -0.07375262472810433 0.006582909109588577 0.031241185050725935
0.11254689453939999 0.007036206087177071 0.03323283878746553 0.991240645613787 -0.07821384999157843 0.002045519306001816 0.014631971059176404 -0.0017431399930225154 -0.009460625630721864
 0.991240645613787 -0.07821384999157843 0.007044979851303164 0.03323213329764221 -0.0017443871119515212 -0.009460542208983755 0.001987170035261987 0.014640405690155905
 0.002045519306001816 0.014631971059176404 -0.0017443871119515212 -0.009460542208983755 0.007035377234382417 0.03323143211964236 0.9912405696946415 -0.0782153597014557
 -0.0017431399930225154 -0.009460625630721864 0.001987170035261987 0.014640405690155905 0.9912405696946415 -0.0782153597014557 0.0070456728736995695 0.03323059369019813
0.11879949979160001 0.007518926506229236 0.035236924598957574 0.9906027468931824 -0.0826893890275284 0.0022491281938140646 0.01544332072788613 -0.001914743245589219 -0.00998766588873612
 0.9906027468931824 -0.0826893890275284 0.007528701801240059 0.03523614233738768 -0.0019161287077616633 -0.009987564801795749 0.0021840874135745187 0.015452963910423303
 0.0022491281938140646 0.01544332072788613 -0.0019161287077616633 -0.009987564801795749 0.007518003719110603 0.035235448559157445 0.9906026623247753 -0.08269098374786751
 -0.001914743245589219 -0.00998766588873612 0.0021840874135745187 0.015452963910423303 0.9906026623247753 -0.08269098374786751 0.007529474703179512 0.03523451506332283
0.1250521050438 0.008022937943179069 0.03725520336586332 0.9899373606206299 -0.08717756166744818 0.0024630832044587616 0.016253529256351613 -0.0020951059739049145 -0.010513866625356437
 0.9899373606206299 -0.08717756166744818 0.0080337692917513 0.03725433936602223 -0.0020966366463739793 -0.01051374592117302 0.002390985370508627 0.01626449330012094
 0.0024630832044587616 0.016253529256351613 -0.0020966366463739793 -0.01051374592117302 0.008021916249956785 0.037253659367663 0.9899372668871829 -0.08717924161258195
 -0.0020951059739049145 -0.010513866625356437 0.002390985370508627 0.01626449330012094 0.9899372668871829 -0.08717924161258195 0.008034626492199154 0.037252624039596643
0.131304710296 0.008548549075953926 0.03928734716055469 0.9892441824198772 -0.09167810272211181 0.0026874473333129544 0.017062430343436574 -0.002284292917470904 -0.011039067423722593
 0.9892441824198772 -0.09167810272211181 0.008560491127719078 0.03928639628662415 -0.002285975606230106 -0.011038925063983303 0.002607926863517844 0.01707483298765885
 0.0026874473333129544 0.017062430343436574 -0.002285975606230106 -0.011038925063983303 0.008547423520472613 0.03928573669867494 0.9892440789950083 -0.09167986811590714
 -0.002284292917470904 -0.011039067423722593 0.002607926863517844 0.01707483298765885 0.9892440789950083 -0.09167986811590714 0.00856143705628636 0.03928459249899219
0.1375573155481 0.00897777790863849 0.04107013855144962 0.9886412468946086 -0.09592772749040601 0.0028947968763379478 0.017844412600671804 -0.00245497529341264 -0.011537610492621213
 0.9886412468946086 -0.09592772749040601 0.008990890489238693 0.041069117030753735 -0.00245682017513246 -0.011537446217955551 0.002807669888084599 0.01785824016795947
 0.0028947968763379478 0.017844412600671804 -0.00245682017513246 -0.011537446217955551 0.008976544174191475 0.04106846290109099 0.9886411333312844 -0.0959295784449213
 -0.00245497529341264 -0.011537610492621213 0.002807669888084599 0.01785824016795947 0.9886411333312844 -0.0959295784449213 0.008991928795673836 0.04106722440526566
0.1438099208003 0.009422203618646426 0.042843179905650765 0.9880169405632225 -0.10016617671053026 0.0031105081438128923 0.01862287254508569 -0.0026324550976843082 -0.012032945823364444
 0.9880169405632225 -0.10016617671053026 0.009436542347952739 0.04284208385698045 -0.0026344694970398064 -0.012032757617302818 0.0030154418073729604 0.018638233182648536
 0.0031105081438128923 0.01862287254508569 -0.0026344694970398064 -0.012032757617302818 0.009420856885037915 0.04284144059527668 0.9880168163368654 -0.1001681134423221
 -0.0026324550976843082 -0.012032945823364444 0.0030154418073729604 0.018638233182648536 0.9880168163368654 -0.1001681134423221 0.009437677337082343 0.04284010198405888
0.1500625260525 0.009881664075386766 0.04460631125508682 0.9873714297979787 -0.10439333258684916 0.0033345028172461536 0.019397719753836428 -0.0028166568530773486 -0.012524989581381624
 0.9873714297979787 -0.10439333258684916 0.009897284725148512 0.044605136556860374 -0.002818848076455159 -0.01252477534636703 0.0032311663626645496 0.019414725574827475
 0.0033345028172461536 0.019397719753836428 -0.002818848076455159 -0.01252477534636703 0.009880199543983751 0.044604509874896704 0.987371294375498 -0.10439535531976529
 -0.0028166568530773486 -0.012524989581381624 0.0032311663626645496 0.019414725574827475 0.987371294375498 -0.10439535531976529 0.009898520703358943 0.04460306500972277
0.15631513130469998 0.010355995934983531 0.046359377411634414 0.9867048818818775 -0.1086090780021473 0.003566701611271912 0.02016886542869339 -0.003007504119847422 -0.01301365976395245
 0.9867048818818775 -0.1086090780021473 0.010372954433490877 0.04635811969519046 -0.0030098794551558705 -0.013013417321686947 0.0034547663607566305 0.020187632470523048
