! Created with skrf 1.8.0 (http://scikit-rf.org).
# GHz S RI R 50.0 
!freq ReS11 ImS11 ReS12 ImS12 ReS13 ImS13
! ReS14 ImS14
! ReS21 ImS21 ReS22 ImS22 ReS23 ImS23
! ReS24 ImS24
! ReS31 ImS31 ReS32 ImS32 ReS33 ImS33
! ReS34 ImS34
! ReS41 ImS41 ReS42 ImS42 ReS43 ImS43
! ReS44 ImS44
!
0.0 0.001711009725022 0.0 0.9982889902714 0.0 6.610951638848e-05 0.0 -6.610951653255e-05 8.096080781476639e-21
 0.9982889902714 0.0 0.001711009725009 0.0 -6.610951653225e-05 8.096080781439899e-21 6.610951638768e-05 0.0
 6.610951638848e-05 0.0 -6.610951653225e-05 8.096080781439899e-21 0.001711009726793 0.0 0.9982889902732 0.0
 -6.610951653255e-05 8.096080781476639e-21 6.610951638768e-05 0.0 0.9982889902732 0.0 0.001711009726797 0.0
0.005 0.0018414161580002882 0.0014023570638145805 0.9981239541254185 -0.003583382971474357 9.234795356597834e-05 0.0007096205634268123 -8.985204076029792e-05 -0.00044858551926616277
 0.9981239541254185 -0.003583382971474357 0.0018413953952133094 0.001402369248518613 -8.98524542394591e-05 -0.00044858590080798933 9.247235582638038e-05 0.0007095731531246946
 9.234795356597834e-05 0.0007096205634268123 -8.98524542394591e-05 -0.00044858590080798933 0.0018414159791881595 0.001402424497201463 0.9981239544947822 -0.003583315908198782
 -8.985204076029792e-05 -0.00044858551926616277 9.247235582638038e-05 0.0007095731531246946 0.9981239544947822 -0.003583315908198782 0.0018413963071189675 0.0014024359374126
0.006252605252188 0.0018757798536639702 0.0017584261045868511 0.9980801742097348 -0.004480078201137339 9.989788688084832e-05 0.0008873701180996489 -9.662099287174957e-05 -0.0005612981131764047
 0.9980801742097348 -0.004480078201137339 0.00187574739711281 0.0017584415833023033 -9.662163574979166e-05 -0.0005612985849049816 0.00010009225224459881 0.0008873085282259093
 9.989788688084832e-05 0.0008873701180996489 -9.662163574979166e-05 -0.0005612985849049816 0.001875779506383971 0.0017585103899096586 0.9980801747199661 -0.004479994383116677
 -9.662099287174957e-05 -0.0005612981131764047 0.00010009225224459881 0.0008873085282259093 0.9980801747199661 -0.004479994383116677 0.001875748755949948 0.0017585249242883015
0.01250521050438 0.0020576202777869627 0.0035533327183592455 0.9978469093371225 -0.00896075840056961 0.00014348065761771644 0.0017751046126482884 -0.00013537860278209533 -0.0011251962270867279
 0.9978469093371225 -0.00896075840056961 0.0020574906704100755 0.003553366193986833 -0.000135381130116417 -0.0011251971138321762 0.00014425570978363959 0.0017749561528520583
 0.00014348065761771644 0.0017751046126482884 -0.000135381130116417 -0.0011251971138321762 0.0020576183096784693 0.0035535010887506303 0.9978469108033503 -0.008960591003280066
 -0.00013537860278209533 -0.0011251962270867279 0.00014425570978363959 0.0017749561528520583 0.9978469108033503 -0.008960591003280066 0.0020574955307106806 0.0035535325253680363
0.01875781575657 0.00225696070120022 0.005373424559732106 0.9975888822245805 -0.013452903614123084 0.00019696583793304948 0.002663754004874642 -0.00018250765927054695 -0.0016908845754810202
 0.9975888822245805 -0.013452903614123084 0.0022566694508457893 0.005373478781596167 -0.00018251328660755852 -0.0016908858107557245 0.00019870682552030112 0.0026634880446414506
 0.00019696583793304948 0.002663754004874642 -0.00018251328660755852 -0.0016908858107557245 0.002256955838098587 0.005373676959023975 0.9975888851002666 -0.013452652716181027
 -0.00018250765927054695 -0.0016908845754810202 0.00019870682552030112 0.0026634880446414506 0.9975888851002666 -0.013452652716181027 0.0022566799630711243 0.005373727855036771
0.02501042100875 0.0024742162287635827 0.007216119948624364 0.9973057662045326 -0.01795864893145627 0.0002604618276001769 0.003553326593646285 -0.0002381288457560796 -0.002258087874678794
 0.9973057662045326 -0.01795864893145627 0.002473698960934883 0.007216197875142919 -0.00023813877127647795 -0.002258089380851563 0.000263554068337121 0.003552907317184979
 0.0002604618276001769 0.003553326593646285 -0.00023813877127647795 -0.002258089380851563 0.0024742071824690876 0.0072164563475934414 0.9973057709397105 -0.017958314567751172
 -0.0002381288457560796 -0.002258087874678794 0.000263554068337121 0.003552907317184979 0.9973057709397105 -0.017958314567751172 0.0024737172724445746 0.007216529428478526
0.03126302626094 0.002709784787121058 0.009080069337997541 0.9969972191912797 -0.02247888295479557 0.00033407677401749316 0.004443750533946064 -0.00030235903023481534 -0.002826603383950249
 0.9969972191912797 -0.02247888295479557 0.0027089772091159884 0.009080174132698526 -0.00030237443767439515 -0.002826605072138396 0.00033890599612163073 0.004443136909782066
 0.00033407677401749316 0.004443750533946064 -0.00030237443767439515 -0.002826605072138396 0.0027097702593989123 0.00908048972251618 0.9969972262376484 -0.02247846512835696
 -0.00030235903023481534 -0.002826603383950249 0.00033890599612163073 0.004443136909782066 0.9969972262376484 -0.02247846512835696 0.0027090054690378797 0.009080587877608471
0.037515631513130004 0.002964055320853899 0.010964376902774934 0.9966628922184414 -0.02701402614765229 0.0004179176528708514 0.0053349218482910705 -0.00037531205531789717 -0.0033962529294076418
 0.9966628922184414 -0.02701402614765229 0.0029628931973596797 0.010964511932967467 -0.00037533411555925586 -0.0033962546994987662 0.00042487013844403894 0.005334067578761382
 0.0004179176528708514 0.0053349218482910705 -0.00037533411555925586 -0.0033962546994987662 0.0029640340031426094 0.010964881250146578 0.9966629020302492 -0.027013524853347275
 -0.00037531205531789717 -0.0033962529294076418 0.00042487013844403894 0.005334067578761382 0.9966629020302492 -0.027013524853347275 0.0029629335558165 0.010965007530748203
0.043768236765320004 0.0032374109391513765 0.012868363643771514 0.9963024329237373 -0.03156426765861925 0.00051208981108705 0.006226719039459261 -0.00045709900748910334 -0.003966868319028197
 0.9963024329237373 -0.03156426765861925 0.0032358300722717015 0.012868532480069646 -0.0004571288795078126 -0.003966870059716212 0.0005215524544426057 0.006225572504003891
 0.00051208981108705 0.006226719039459261 -0.0004571288795078126 -0.003966870059716212 0.0032373815114479544 0.01286895194382127 0.9963024459575891 -0.03156368286213394
 -0.00045709900748910334 -0.003966868319028197 0.0005215524544426057 0.006225572504003891 0.9963024459575891 -0.03156368286213394 0.003235884679194949 0.012869109562199462
0.050020842017509996 0.003530230359605807 0.014791469511560146 0.9959154873352961 -0.03612966312430444 0.0006166966796340378 0.007119009120076737 -0.0005478282940258643 -0.004538285342364747
 0.9959154873352961 -0.03612966312430444 0.003528166572134017 0.01479167592820703 -0.0005478671255669436 -0.0045382869312168735 0.0006290570007106213 0.007117513316186248
 0.0006166966796340378 0.007119009120076737 -0.0005478671255669436 -0.0045382869312168735 0.003530191491381707 0.014792141747619962 0.9959155040514625 -0.036128994781308696
 -0.0005478282940258643 -0.004538285342364747 0.0006290570007106213 0.007117513316186248 0.9959155040514625 -0.036128994781308696 0.003528237577419762 0.014792334076602173
0.055454545454549996 0.0038007976688112727 0.016477852703888844 0.9955574344555097 -0.040109415383200536 0.0007161562075667893 0.007894726813837264 -0.0006340192423586071 -0.005035388347443441
 0.9955574344555097 -0.040109415383200536 0.003798262092993813 0.01647809500290463 -0.0006340667837433601 -0.005035389696306255 0.0007313498873108856 0.007892876967140378
 0.0007161562075667893 0.007894726813837264 -0.0006340667837433601 -0.005035389696306255 0.0038007495067190946 0.01647859786810769 0.995557454748385 -0.04010867438824211
 -0.0006340192423586071 -0.005035388347443441 0.0007313498873108856 0.007892876967140378 0.995557454748385 -0.04010867438824211 0.003798349093488969 0.016478823225762267
0.056273447269699996 0.0038428886371298728 0.016733205352264597 0.9955017009451174 -0.04071018265383512 0.0007318395550361637 0.008011650596875733 -0.0006476056404070039 -0.005110340820090874
 0.9955017009451174 -0.04071018265383512 0.0038402777564629648 0.016733453327984902 -0.0006476545684577077 -0.005110342123593271 0.0007474856849880776 0.008009743080222646
 0.0007318395550361637 0.008011650596875733 -0.0006476545684577077 -0.005110342123593271 0.003842838986106383 0.016733961507981867 0.9955017218077451 -0.04070943070327708
 -0.0006476056404070039 -0.005110340820090874 0.0007474856849880776 0.008009743080222646 0.9955017218077451 -0.04070943070327708 0.003840367308283849 0.016734192081312535
0.06252605252188 0.004175757537613898 0.01869312649938885 0.9950607194345141 -0.04530573717247442 0.0008576174202021477 0.008904495104904257 -0.0007565340413438335 -0.0056828710094020875
 0.9950607194345141 -0.04530573717247442 0.004172535380698761 0.018693420218955425 -0.0007565941924872419 -0.005682871883022388 0.0008769380689693816 0.008902107929379104
 0.0008576174202021477 0.008904495104904257 -0.0007565941924872419 -0.005682871883022388 0.0041756957497347934 0.01869396655614351 0.9950607449116544 -0.045304901539338666
 -0.0007565340413438335 -0.0056828710094020875 0.0008769380689693816 0.008902107929379104 0.9950607449116544 -0.045304901539338666 0.004172645624795543 0.018694239069360078
0.06877865777407 0.004529205716215856 0.020670817025964485 0.9945921892071447 -0.04991619411189665 0.0009941267829957636 0.009797388397932899 -0.000874713689645263 -0.006255710659770665
 0.9945921892071447 -0.04991619411189665 0.004525308075358566 0.020671160882053143 -0.000874786180397026 -0.006255710948012353 0.0010175111937203829 0.009794448055998845
 0.0009941267829957636 0.009797388397932899 -0.000874786180397026 -0.006255710948012353 0.004529130426126092 0.020671740964001113 0.994592219772103 -0.04991527470619768
 -0.000874713689645263 -0.006255710659770665 0.0010175111937203829 0.009794448055998845 0.994592219772103 -0.04991527470619768 0.004525441154371934 0.02067205927575342
0.07503126302626001 0.004903598781101105 0.02266587978053 0.994095757812821 -0.054541387323798915 0.0011414615277903842 0.010690170990203739 -0.001002241888824805 -0.006828692424348239
 0.994095757812821 -0.054541387323798915 0.004898961409177107 0.022666278376427273 -0.001002327825791512 -0.00682869196080886 0.0011692994212649194 0.010686598353902668
 0.0011414615277903842 0.010690170990203739 -0.001002327825791512 -0.00682869196080886 0.004903508611287649 0.022666887576153077 0.9940957939448025 -0.054540384043689785
 -0.001002241888824805 -0.006828692424348239 0.0011692994212649194 0.010686598353902668 0.9940957939448025 -0.054540384043689785 0.00489911946161389 0.022667255710247646
0.08128386827845 0.005299299285275826 0.02467792973837307 0.9935710743049206 -0.05918112368675877 0.0012997127743484015 0.011582678585923866 -0.0011392129555957244 -0.007401646491035849
 0.9935710743049206 -0.05918112368675877 0.005293857881616713 0.024678387891042264 -0.0011393134356876057 -0.0074016450984576805 0.0013323942858271107 0.011578388848724733
 0.0012997127743484015 0.011582678585923866 -0.0011393134356876057 -0.0074016450984576805 0.005299192846264352 0.024679021368309493 0.9935711164890368 -0.059180036414323095
 -0.0011392129555957244 -0.007401646491035849 0.0013323942858271107 0.011578388848724733 0.9935711164890368 -0.059180036414323095 0.00529404304101506 0.024679443516233083
0.08753647353064001 0.005716666669209344 0.02670658943608145 0.9930177895519127 -0.0638351876381747 0.0014689687404344392 0.012474742398571314 -0.0012857181167598454 -0.00797440033137825
 0.9930177895519127 -0.0638351876381747 0.005710356865771453 0.026707112179807674 -0.0012858342273863884 -0.007974397821691096 0.0015068843500013565 0.012469645018196933
 0.0014689687404344392 0.012474742398571314 -0.0012858342273863884 -0.007974397821691096 0.0057165425588021415 0.026707764873324623 0.9930178382795363 -0.06383401624381879
 -0.0012857181167598454 -0.00797440033137825 0.0015068843500013565 0.012469645018196933 0.9930178382795363 -0.06383401624381879 0.005710571258745066 0.026708245397370697
0.09378907878283 0.006156057169481526 0.028751485695906662 0.9924355565198486 -0.0685033444255559 0.0016493146091694512 0.013366189384204927 -0.0014418453997423655 -0.008546778543394537
 0.9924355565198486 -0.0685033444255559 0.006148814516621017 0.028752078286654832 -0.0014419782188695148 -0.00854677471777816 0.0016928550669266635 0.0133601880265334
 0.0016493146091694512 0.013366189384204927 -0.0014419782188695148 -0.00854677471777816 0.006155913973340678 0.028752744911400896 0.9924356122903613 -0.0685020887666913
 -0.0014418453997423655 -0.008546778543394537 0.0016928550669266635 0.0133601880265334 0.9924356122903613 -0.0685020887666913 0.00614906026323984 0.028753288348318373
0.100041684035 0.0066178237052072104 0.030812247241370924 0.9918240305366338 -0.07318534247602561 0.0018408323972967783 0.01425684243191748 -0.0016076795211776521 -0.009118602745260218
 0.9918240305366338 -0.07318534247602561 0.006609583657915766 0.030812915161543025 -0.0016078301175509813 -0.00911859739417301 0.001890388643601505 0.014249834916259084
 0.0018408323972967783 0.01425684243191748 -0.0016078301175509813 -0.00911859739417301 0.006617659996187233 0.030813590205135605 0.9918240938567757 -0.07318400239613637
 -0.0016076795211776521 -0.009118602745260218 0.001890388643601505 0.014249834916259084 0.9918240938567757 -0.07318400239613637 0.006609862869164913 0.030814201270581713
0.1059090909091 0.007071804731184706 0.032760152054796446 0.9912232319041834 -0.0775912522368211 0.002030782434283495 0.015091742569487447 -0.00177219797743647 -0.009654533674067396
 0.9912232319041834 -0.0775912522368211 0.007062569934381394 0.03276089585644578 -0.0017723662196584009 -0.009654526691412311 0.0020863395120305633 0.015083692693989143
 0.002030782434283495 0.015091742569487447 -0.0017723662196584009 -0.009654526691412311 0.007071620463345901 0.03276157357774573 0.9912233027773788 -0.07758983278399997
 -0.00177219797743647 -0.009654533674067396 0.0020863395120305633 0.015083692693989143 0.9912233027773788 -0.07758983278399997 0.007062882460201936 0.03276225255788973
0.1062942892872 0.007102315744284825 0.03288850290415383 0.9911828695394117 -0.07788091518417034 0.002043600826047349 0.01514652051670254 -0.0017833017720392363 -0.00968969151496365
 0.9911828695394117 -0.07788091518417034 0.007093013647680301 0.032889251868217555 -0.0017834712051803296 -0.00968968441820133 0.002099563907824131 0.01513839876231436
 0.002043600826047349 0.01514652051670254 -0.0017834712051803296 -0.00968968441820133 0.007102130082247517 0.03288992958422408 0.991182940924666 -0.077879490514338
 -0.0017833017720392363 -0.00968969151496365 0.002099563907824131 0.01513839876231436 0.991182940924666 -0.077879490514338 0.007093328425310449 0.03289061317765935
0.11254689453939999 0.007609879157961285 0.03497988026928066 0.990511734315082 -0.08258978227191927 0.002257695192805131 0.016035038834151246 -0.001968789901431604 -0.010259860356555116
 0.990511734315082 -0.08258978227191927 0.00759945023364507 0.03498071622976057 -0.0019689792217873407 -0.010259851283281187 0.0023204561762132504 0.01602568880824884
 0.002257695192805131 0.016035038834151246 -0.0019689792217873407 -0.010259851283281187 0.007609670089840588 0.03498139063241064 0.9905118142897922 -0.08258827283032455
 -0.001968789901431604 -0.010259860356555116 0.0023204561762132504 0.01602568880824884 0.9905118142897922 -0.08258827283032455 0.007599802668576551 0.034982151842742164
0.11879949979160001 0.008140856063687696 0.03708600461941845 0.9898102887308671 -0.0873116508592259 0.002483187244243256 0.016922208919096585 -0.00216421799902561 -0.010828921690936924
 0.9898102887308671 -0.0873116508592259 0.008129235395552522 0.03708693377377008 -0.0021644282480442504 -0.010828910399731093 0.0025531371237904263 0.016911510586362387
 0.002483187244243256 0.016922208919096585 -0.0021644282480442504 -0.010828910399731093 0.008140622123018982 0.03708759863146743 0.9898103778290102 -0.08731005645133637
 -0.00216421799902561 -0.010828921690936924 0.0025531371237904263 0.016911510586362387 0.9898103778290102 -0.08731005645133637 0.008129627566693031 0.03708844274330423
0.1250521050438 0.008695584660122668 0.039206498114658435 0.9890781999606202 -0.09204621631026198 0.002720145050345463 0.01780783875479842 -0.0023696563766802477 -0.011396684864966573
 0.9890781999606202 -0.09204621631026198 0.008682707180330715 0.039207526912646395 -0.002369888586834253 -0.011396671103849705 0.002797674654973585 0.017795666028570148
 0.002720145050345463 0.01780783875479842 -0.002369888586834253 -0.011396671103849705 0.008695324367190836 0.03920817574092089 0.9890782987266004 -0.09204453672879506
 -0.0023696563766802477 -0.011396684864966573 0.002797674654973585 0.017795666028570148 0.9890782987266004 -0.09204453672879506 0.008683141153733432 0.03920910824155176
0.131304710296 0.009274399055611691 0.04134097914098053 0.9883151387076509 -0.09679316292140445 0.0029686328794665453 0.01869173287689835 -0.002585171449608761 -0.011962956174502933
 0.9883151387076509 -0.09679316292140445 0.009260199530041584 0.041342114292864614 -0.0025854266444800275 -0.011962939681008956 0.003054132775743064 0.01867795357199092
 0.0029686328794665453 0.01869173287689835 -0.0025854266444800275 -0.011962939681008956 0.009274110916865882 0.04134274034624354 0.98831524769675 -0.09679139794678004
 -0.002585171449608761 -0.011962956174502933 0.003054132775743064 0.01867795357199092 0.98831524769675 -0.09679139794678004 0.009260677357485671 0.04134376693334308
0.1375573155481 0.009750586784779636 0.04321222805329233 0.9876478843137244 -0.1012751598376621 0.0031983730649288444 0.01954687531847325 -0.002780394195737473 -0.012500815804643923
 0.9876478843137244 -0.1012751598376621 0.009734996193002061 0.043213453761332 -0.0027806740816531525 -0.012500796540738582 0.003292038964192894 0.019531500817893312
 0.0031983730649288444 0.01954687531847325 -0.0027806740816531525 -0.012500796540738582 0.009750270333932299 0.04321407247173228 0.9876480039978874 -0.10127330936555588
 -0.002780394195737473 -0.012500815804643923 0.003292038964192894 0.019531500817893312 0.9876480039978874 -0.10127330936555588 0.009735519047485468 0.0432151771808961
0.1438099208003 0.010243716988051103 0.045072631672748976 0.9869568226840295 -0.10574477299806243 0.003437337297475722 0.02039796304387392 -0.0029833755437232833 -0.01303488586555842
 0.9869568226840295 -0.10574477299806243 0.010226669342137933 0.04507395340642994 -0.002983681254107224 -0.013034863565062737 0.003539524251545675 0.02038087161561854
 0.003437337297475722 0.02039796304387392 -0.002983681254107224 -0.013034863565062737 0.010243370898405187 0.04507455921891665 0.9869569536164977 -0.10574283681891128
 -0.0029833755437232833 -0.01303488586555842 0.003539524251545675 0.02038087161561854 0.9869569536164977 -0.10574283681891128 0.010227239097055075 0.04507574657270023
0.1500625260525 0.010753601266692427 0.04692200442254468 0.9862421470663354 -0.11020186051197216 0.003685432422394644 0.02124489069260338 -0.003194023473760487 -0.01356506522455428
 0.9862421470663354 -0.11020186051197216 0.010735030411379852 0.04692342797614436 -0.003194356141566559 -0.013565039610023005 0.0037964929911299882 0.021225956169407423
 0.003685432422394644 0.02124489069260338 -0.003194356141566559 -0.013565039610023005 0.010753224210950884 0.04692401500733061 0.9862422898092869 -0.11019983840837906
 -0.003194023473760487 -0.01356506522455428 0.0037964929911299882 0.021225956169407423 0.9862422898092869 -0.11019983840837906 0.010735648916173658 0.04692528981865297
0.15631513130469998 0.011280049706313817 0.04876016624907246 0.9855040518904125 -0.11464628166670034 0.003942564079978183 0.022087554938521853 -0.0034122447342005316 -0.014091255072733032
 0.9855040518904125 -0.11464628166670034 0.011259889314595806 0.048761697750046545 -0.0034126054919469467 -0.014091225855478277 0.004062848288046206 0.0220666467705144
