! Created with skrf 1.8.0 (http://scikit-rf.org).
# GHz S RI R 50.0 
!freq ReS11 ImS11 ReS12 ImS12 ReS13 ImS13
! ReS14 ImS14
! ReS21 ImS21 ReS22 ImS22 ReS23 ImS23
! ReS24 ImS24
! ReS31 ImS31 ReS32 ImS32 ReS33 ImS33
! ReS34 ImS34
! ReS41 ImS41 ReS42 ImS42 ReS43 ImS43
! ReS44 ImS44
!
0.0 0.001597394678286 0.0 0.9984026053217 0.0 6.156335657545e-05 0.0 -6.156335675252e-05 7.539336779174022e-21
 0.9984026053217 0.0 0.001597394678275 0.0 -6.156335675237e-05 7.539336779155652e-21 6.156335657417e-05 0.0
 6.156335657545e-05 0.0 -6.156335675237e-05 7.539336779155652e-21 0.001597394666918 0.0 0.9984026053104 0.0
 -6.156335675252e-05 7.539336779174022e-21 6.156335657417e-05 0.0 0.9984026053104 0.0 0.001597394666915 0.0
0.005 0.0017187767808233788 0.0013093554659092278 0.9982490080661169 -0.003345754435983675 8.603685720111264e-05 0.0006623255468720504 -8.354317670785374e-05 -0.0004185127611092506
 0.9982490080661169 -0.003345754435983675 0.0017188191669880038 0.0013093307807151276 -8.354369524123951e-05 -0.0004185132170158712 8.576516797449113e-05 0.0006624289030839256
 8.603685720111264e-05 0.0006623255468720504 -8.354369524123951e-05 -0.0004185132170158712 0.001718775850171412 0.0013092887868730281 0.9982490077002526 -0.003345821496395254
 -8.354317670785374e-05 -0.0004185127611092506 8.576516797449113e-05 0.0006624289030839256 0.9982490077002526 -0.003345821496395254 0.001718819369424775 0.0013092633411917738
0.006252605252188 0.0017506525609081588 0.0016418260882261218 0.998208406271774 -0.004183002595033154 9.30782730329477e-05 0.0008282304627291088 -8.976475034384004e-05 -0.0005236755414705554
 0.998208406271774 -0.004183002595033154 0.0017507188177371745 0.0016417947581976896 -8.97655567595193e-05 -0.0005236761047949011 9.265378330811361e-05 0.0008283647078532792
 9.30782730329477e-05 0.0008282304627291088 -8.97655567595193e-05 -0.0005236761047949011 0.0017506511829657866 0.0016417427538835848 0.9982084057772267 -0.0041830864135760214
 -8.976475034384004e-05 -0.0005236755414705554 9.265378330811361e-05 0.0008283647078532792 0.9982084057772267 -0.0041830864135760214 0.0017507192119919066 0.001641710460756808
0.01250521050438 0.0019186924721280693 0.00331787654407846 0.9979928931506898 -0.008366740840665701 0.0001337185090063637 0.0016568260949133128 -0.00012515006585930578 -0.0010498438476580125
 0.9979928931506898 -0.008366740840665701 0.001918957027993197 0.003317809105907552 -0.0001251532383243006 -0.0010498449027502258 0.00013202571088170541 0.001657149178493217
 0.0001337185090063637 0.0016568260949133128 -0.0001251532383243006 -0.0010498449027502258 0.0019186875352638223 0.00331771020521537 0.997992891747096 -0.008366908237150687
 -0.00012515006585930578 -0.0010498438476580125 0.00013202571088170541 0.001657149178493217 0.997992891747096 -0.008366908237150687 0.001918959182582677 0.0033176407037308654
0.01875781575657 0.0021018918616964245 0.005017629410751529 0.9977557907403134 -0.012561382604571599 0.00018357803914372913 0.002486310149981522 -0.00016782978287231497 -0.0015777620699682696
 0.9977557907403134 -0.012561382604571599 0.002102486313401367 0.005017520719129512 -0.00016783684983390408 -0.0015777635328892581 0.00017977528138481065 0.0024868876183180167
 0.00018357803914372913 0.002486310149981522 -0.00016783684983390408 -0.0015777635328892581 0.0021018811779305634 0.005017380291663865 0.9977557880071264 -0.012561633484667817
 -0.00016782978287231497 -0.0015777620699682696 0.00017977528138481065 0.0024868876183180167 0.9977557880071264 -0.012561633484667817 0.0021024915939113023 0.005017268259812883
0.02501042100875 0.0023006163655402865 0.006738699438687885 0.9974968126641266 -0.016768947280781474 0.0002427530707388437 0.0033166991482728608 -0.00021791070068609677 -0.0021071879800202316
 0.9974968126641266 -0.016768947280781474 0.0023016720380671994 0.006738544028442879 -0.00021792316978220088 -0.002107189752738659 0.00023599835575002356 0.003317607143525028
 0.0002427530707388437 0.0033166991482728608 -0.00021792316978220088 -0.002107189752738659 0.002300597747969321 0.0067383677580472754 0.9974968081839487 -0.016769281596023797
 -0.00021791070068609677 -0.0021071879800202316 0.00023599835575002356 0.003317607143525028 0.9974968081839487 -0.016769281596023797 0.002301681821238967 0.006738207515715951
0.03126302626094 0.0025152164971480547 0.008479852647902832 0.9972156583050038 -0.020990291216660812 0.0003113404123123132 0.00414793499279253 -0.0002754965239819339 -0.002637947665514825
 0.9972156583050038 -0.020990291216660812 0.002516864518406295 0.008479644744073308 -0.00027551588556604714 -0.0026379496357615065 0.0003007906243512794 0.004149260317346192
 0.0003113404123123132 0.00414793499279253 -0.00027551588556604714 -0.0026379496357615065 0.0025151877564173813 0.008479438638354927 0.9972156516600645 -0.020990708945276316
 -0.0002754965239819339 -0.002637947665514825 0.0003007906243512794 0.004149260317346192 0.9972156516600645 -0.020990708945276316 0.0025168801895404827 0.008479224156925216
0.037515631513130004 0.0027460350734549808 0.01024027951291377 0.9969120204772773 -0.025225834467500277 0.00038943636582352474 0.0049799298457440105 -0.0003406885799312882 -0.0031698906414099016
 0.9969120204772773 -0.025225834467500277 0.002748406425677728 0.01024001303577021 -0.0003407163089590266 -0.003169892682668362 0.0003742469299351615 0.004981770070001056
 0.00038943636582352474 0.0049799298457440105 -0.0003407163089590266 -0.003169892682668362 0.0027459940172770534 0.010239783443915776 0.9969120112478159 -0.02522633559196723
 -0.0003406885799312882 -0.0031698906414099016 0.0003742469299351615 0.004981770070001056 0.9969120112478159 -0.02522633559196723 0.0027484293777548354 0.010239508350851132
0.043768236765320004 0.002993410082042111 0.012019373803055726 0.996585588546708 -0.02947578188458282 0.00047713620756254107 0.005812579798772685 -0.00041358606816766413 -0.003702876181214982
 0.996585588546708 -0.02947578188458282 0.002996635642707861 0.012019042371190582 -0.0004136236253205423 -0.0037028781527568408 0.0004564609321564548 0.005815043382529312
 0.00047713620756254107 0.005812579798772685 -0.0004136236253205423 -0.0037028781527568408 0.0029933545163562435 0.012018795968364023 0.9965855763124315 -0.029476366404622173
 -0.00041358606816766413 -0.003702876181214982 0.0004564609321564548 0.005815043382529312 0.9965855763124315 -0.029476366404622173 0.002996667277632465 0.012018453549708612
0.050020842017509996 0.003257676005505667 0.013816641173124 0.9962360500150489 -0.03374021445085433 0.0005745338774319655 0.006645770506760858 -0.0004942861430195493 -0.004236767690988491
 0.9962360500150489 -0.03374021445085433 0.0032618865833389417 0.013816238105156543 -0.0004943349754197169 -0.004236769437914602 0.000547524894876619 0.006648976926100364
 0.0005745338774319655 0.006645770506760858 -0.0004943349754197169 -0.004236769437914602 0.003257603735575646 0.013815981895891545 0.9962360343547352 -0.033740882378840376
 -0.0004942861430195493 -0.004236767690988491 0.000547524894876619 0.006648976926100364 0.9962360343547352 -0.033740882378840376 0.0032619283130330924 0.013815565097346504
0.055454545454549996 0.0035013062356210596 0.015392946667605396 0.9959132816484686 -0.03745790225517329 0.0006671230177981681 0.007370183038800624 -0.0005708275327509696 -0.00470136632728834
 0.9959132816484686 -0.03745790225517329 0.003506479027639094 0.015392475687074433 -0.0005708873288286228 -0.004701367742253573 0.0006339199773402685 0.007374140686951367
 0.0006671230177981681 0.007370183038800624 -0.0005708873288286228 -0.004701367742253573 0.003501217664843088 0.015392216902786164 0.9959132626664303 -0.0374586426841976
 -0.0005708275327509696 -0.00470136632728834 0.0006339199773402685 0.007374140686951367 0.9959132626664303 -0.0374586426841976 0.003506530682375321 0.015391729472578912
0.056273447269699996 0.0035391645009364143 0.015631654289297314 0.9958630914638005 -0.038019134083179765 0.0006817217588963325 0.007479379957671189 -0.0005828839222001643 -0.004771429952496407
 0.9958630914638005 -0.038019134083179765 0.003544490869425689 0.015631172604443803 -0.0005829454639856002 -0.004771431305790121 0.0006475295255709273 0.007483459834153527
 0.0006817217588963325 0.007479379957671189 -0.0005829454639856002 -0.004771431305790121 0.0035390733293722766 0.015630913927569212 0.9958630719530295 -0.038019885439067994
 -0.0005828839222001643 -0.004771429952496407 0.0006475295255709273 0.007483459834153527 0.9958630719530295 -0.038019885439067994 0.0035445441130417354 0.015630415354470146
0.06252605252188 0.003838204752333493 0.01746402818034037 0.9954663991761549 -0.04231248821254353 0.0007987905044819202 0.008313280006478768 -0.0006794724584479984 -0.005306727607315562
 0.9954663991761549 -0.04231248821254353 0.003844777681540518 0.017463460597946977 -0.0006795481311470386 -0.0053067283838962405 0.0007565638394303901 0.008318375237224632
 0.0007987905044819202 0.008313280006478768 -0.0006795481311470386 -0.0053067283838962405 0.0038380924820663295 0.017463207125928307 0.9954663753891779 -0.04231332302540352
 -0.0006794724584479984 -0.005306727607315562 0.0007565638394303901 0.008318375237224632 0.9954663753891779 -0.04231332302540352 0.0038448438682346197 0.017462619042220406
0.06877865777407 0.004155123656937365 0.01931340551779118 0.9950456595973796 -0.046620184439806124 0.0009258288873771612 0.00914733728353491 -0.0007841426882610772 -0.005842524271804497
 0.9950456595973796 -0.046620184439806124 0.004163073944853425 0.019312744455845087 -0.0007842339011229305 -0.005842524274574813 0.000874715039289076 0.00915360117119597
 0.0009258288873771612 0.00914733728353491 -0.0007842339011229305 -0.005842524274574813 0.00415498809025179 0.019312504195040932 0.9950456311053507 -0.046621102749556144
 -0.0007841426882610772 -0.005842524271804497 0.000874715039289076 0.00915360117119597 0.9950456311053507 -0.046621102749556144 0.004163154511993296 0.019311818521217577
0.07503126302626001 0.004490245901801381 0.021179447307440258 0.9946005596896432 -0.050942099785428234 0.0010629236684955579 0.00998141378698882 -0.0008969833673627419 -0.006378681973360938
 0.9946005596896432 -0.050942099785428234 0.004499704404559087 0.021178684880162616 -0.0008970915175594412 -0.006378680991261624 0.0010020684032840505 0.009989011169150184
 0.0010629236684955579 0.00998141378698882 -0.0008970915175594412 -0.006378680991261624 0.00449008484149304 0.021178466180222663 0.9946005260607453 -0.050943101636170884
 -0.0008969833673627419 -0.006378681973360938 0.0010020684032840505 0.009989011169150184 0.9946005260607453 -0.050943101636170884 0.004499800798504607 0.0211776744902544
0.08128386827845 0.004843893977997224 0.023061826685530612 0.9941307872286406 -0.05527808684002231 0.0012101594718983226 0.010815367277698747 -0.001018080998277422 -0.006915060789775085
 0.9941307872286406 -0.05527808684002231 0.004854991640336741 0.023060954699865396 -0.0010182074710958196 -0.0069150585978407265 0.001138707176615589 0.01082447465524952
 0.0012101594718983226 0.010815367277698747 -0.0010182074710958196 -0.0069150585978407265 0.0048437052279574466 0.02306076624978134 0.994130748028049 -0.055279172287995525
 -0.001018080998277422 -0.006915060789775085 0.001138707176615589 0.01082447465524952 0.994130748028049 -0.055279172287995525 0.004855105316402395 0.023059859767071134
0.08753647353064001 0.005216388151010246 0.02496022463411594 0.993636031060985 -0.05962797800197153 0.0013676186678517337 0.011649051561363536 -0.0011475197503820892 -0.00745151860712953
 0.993636031060985 -0.05962797800197153 0.005229256036232514 0.024959234585224966 -0.0011476659193360957 -0.007451514966537033 0.0012847124679398242 0.011659857225487189
 0.0013676186678517337 0.011649051561363536 -0.0011476659193360957 -0.007451514966537033 0.005216169516679516 0.024959085423793496 0.9936359858501721 -0.05962914710988448
 -0.0011475197503820892 -0.00745151860712953 0.0012847124679398242 0.011659857225487189 0.9936359858501721 -0.05962914710988448 0.005229388458717578 0.024958055016063987
0.09378907878283 0.005608046401110301 0.026874326922942487 0.9931159813349302 -0.06399158849491286 0.0015353812589879127 0.012482316700052724 -0.0012853813766343287 -0.007987910954084833
 0.9931159813349302 -0.06399158849491286 0.005622815722011332 0.026873209988568948 -0.001285548603660646 -0.007987905612196105 0.0014401631465849954 0.012495020857782056
 0.0015353812589879127 0.012482316700052724 -0.001285548603660646 -0.007987905612196105 0.005607795690561351 0.026873109509539434 0.9931159296712735 -0.06399284133283124
 -0.0012853813766343287 -0.007987910954084833 0.0014401631465849954 0.012495020857782056 0.9931159296712735 -0.06399284133283124 0.005622968363908252 0.026871945682711007
0.100041684035 0.006019184342665988 0.028803821867581656 0.9925703297134919 -0.068368718575623 0.0017135247699698423 0.013315009173119572 -0.0014317451264941078 -0.008524090892919792
 0.9925703297134919 -0.068368718575623 0.006035986491223142 0.02880256890142849 -0.0014319347619553588 -0.008524083583346581 0.001605135741958669 0.013329824070897955
 0.0017135247699698423 0.013315009173119572 -0.0014319347619553588 -0.008524083583346581 0.006018899366602769 0.02880252685867987 0.9925702711502044 -0.06837005522272185
 -0.0014317451264941078 -0.008524090892919792 0.001605135741958669 0.013329824070897955 0.9925702711502044 -0.06837005522272185 0.006036160834301884 0.02880121974958122
0.1059090909091 0.006422989244980203 0.030628170796482657 0.992034735739695 -0.07248829719980066 0.001890201681073871 0.014095742126002633 -0.0015768928900841619 -0.009026912592268697
 0.992034735739695 -0.07248829719980066 0.0064418186728450785 0.030626781564972 -0.001577104771419145 -0.009026903181744232 0.0017686711337354375 0.014112741596827379
 0.001890201681073871 0.014095742126002633 -0.001577104771419145 -0.009026903181744232 0.006422670126818369 0.03062680355938058 0.9920346702914206 -0.07248971257111267
 -0.0015768928900841619 -0.009026912592268697 0.0017686711337354375 0.014112741596827379 0.9920346702914206 -0.07248971257111267 0.006442014735920664 0.03062535268853218
0.1062942892872 0.006450115126122295 0.03074839865003303 0.9919987695745806 -0.07275915518651366 0.0019021241386738027 0.014146972010921638 -0.001586687657047549 -0.009059908943820917
 0.9919987695745806 -0.07275915518651366 0.00646908170426132 0.03074700017393692 -0.0015869010398346314 -0.009059899386468931 0.0017797043428925293 0.014164122056351938
 0.0019021241386738027 0.014146972010921638 -0.0015869010398346314 -0.009059899386468931 0.0064497936993630324 0.030747026692454594 0.9919987036604367 -0.07276057572823683
 -0.001586687657047549 -0.009059908943820917 0.0017797043428925293 0.014164122056351938 0.9919987036604367 -0.07276057572823683 0.006469279239570239 0.030745566060485247
0.11254689453939999 0.006901149329653099 0.032707746038903564 0.9914009962038708 -0.0771626732157089 0.0021012516096030357 0.014978044904391294 -0.0017502829413672599 -0.009595213039638022
 0.9914009962038708 -0.0771626732157089 0.006922412180112253 0.03270619223383641 -0.0017505213989851913 -0.009595200940750347 0.0019639404989223257 0.01499776678572462
 0.0021012516096030357 0.014978044904391294 -0.0017505213989851913 -0.009595200940750347 0.00690078927120334 0.03270629781489141 0.9914009224821572 -0.07716417774784295
 -0.0017502829413672599 -0.009595213039638022 0.0019639404989223257 0.01499776678572462 0.9914009224821572 -0.07716417774784295 0.006922634406931103 0.03270467303252719
0.11879949979160001 0.007372594839631682 0.034681551389562415 0.9907767069789967 -0.08157903648453803 0.002310976627846817 0.01580806430222379 -0.0019226021764715147 -0.010129848499444689
 0.9907767069789967 -0.08157903648453803 0.007396286076638333 0.03467983208544213 -0.0019228670250932174 -0.010129833551646145 0.002157913120787768 0.015830607105538127
 0.002310976627846817 0.01580806430222379 -0.0019228670250932174 -0.010129833551646145 0.007372193973925615 0.03468002762229733 0.9907766249880362 -0.0815806251079932
 -0.0019226021764715147 -0.010129848499444689 0.002157913120787768 0.015830607105538127 0.9907766249880362 -0.0815806251079932 0.007396534503278153 0.03467822766436429
0.1250521050438 0.007864756724709508 0.0366694998661497 0.9901256015509793 -0.08600799852091252 0.0025313657342878903 0.016636863497393784 -0.0021037136896087413 -0.010663658019151931
 0.9901256015509793 -0.08600799852091252 0.007891008764888885 0.03666760453050412 -0.0021040062340472155 -0.010663639901518819 0.002361688382311654 0.016662488821335437
 0.0025313657342878903 0.016636863497393784 -0.0021040062340472155 -0.010663639901518819 0.007864312882053453 0.03666790131618339 0.9901255108233894 -0.08600967134551031
 -0.0021037136896087413 -0.010663658019151931 0.002361688382311654 0.016662488821335437 0.9901255108233894 -0.08600967134551031 0.007891284908524534 0.03666591474795701
0.131304710296 0.008377937102895309 0.03867127381606618 0.9894473820217041 -0.09044930318803601 0.002762482461800699 0.01746427270769507 -0.002293682843978777 -0.011196481674869214
 0.9894473820217041 -0.09044930318803601 0.008406882696609984 0.038669191541309315 -0.002294004377690163 -0.011196460052971523 0.0025753296221967766 0.017493254775542172
 0.002762482461800699 0.01746427270769507 -0.002294004377690163 -0.011196460052971523 0.008377448120462032 0.0386696012837646 0.9894472820840191 -0.0904510603302386
 -0.002293682843978777 -0.011196481674869214 0.0025753296221967766 0.017493254775542172 0.9894472820840191 -0.0904510603302386 0.008407188083220876 0.03866741624777677
0.1375573155481 0.008796255194413924 0.04042654231050128 0.9888579762427481 -0.09464256721992731 0.0029765045474614525 0.018264719337373073 -0.00246490902295017 -0.011702611389417835
 0.9888579762427481 -0.09464256721992731 0.008828038626060205 0.040424305773655834 -0.002465261632604291 -0.011702586230913144 0.0027714488914724338 0.0182970234318932
 0.0029765045474614525 0.018264719337373073 -0.002465261632604291 -0.011702586230913144 0.0087957197447438 0.04042479616174185 0.9888578666754311 -0.09464440871763005
 -0.00246490902295017 -0.011702611389417835 0.0027714488914724338 0.0182970234318932 0.9888578666754311 -0.09464440871763005 0.008828373847764371 0.0404224451213006
0.1438099208003 0.00922934510844809 0.042172273327143656 0.9882477202741549 -0.09882488196141048 0.0031991820423784008 0.01906156108198665 -0.0026429643047790525 -0.012205541325102423
 0.9882477202741549 -0.09882488196141048 0.009264101354863058 0.04216987402612165 -0.0026433494102018414 -0.012205512295336216 0.002975440077930956 0.019097438699116544
 0.0031991820423784008 0.01906156108198665 -0.0026433494102018414 -0.012205512295336216 0.009228761188199736 0.042170454340495905 0.9882476006066089 -0.09882680792434202
 -0.0026429643047790525 -0.012205541325102423 0.002975440077930956 0.019097438699116544 0.9882476006066089 -0.09882680792434202 0.009264467780371244 0.04216792789747971
0.1500625260525 0.009677049315481528 0.04390831188192723 0.9876167757826472 -0.10299613371131398 0.003430435413241662 0.019854704585441627 -0.002827773554185318 -0.01270518771708423
 0.9876167757826472 -0.10299613371131398 0.009714913738902793 0.04390574077320135 -0.0028281925737563707 -0.012705154467632866 0.00318722847687723 0.019894416421846223
 0.003430435413241662 0.019854704585441627 -0.0028281925737563707 -0.012705154467632866 0.009676414937656546 0.04390642086734262 0.9876166455394956 -0.10299814425103407
 -0.002827773554185318 -0.01270518771708423 0.00318722847687723 0.019894416421846223 0.9876166455394956 -0.10299814425103407 0.009715312734414056 0.04390370904873481
0.15631513130469998 0.01013920911346067 0.04563450765434354 0.986965305313112 -0.1071562093760414 0.0036701841402292774 0.020644058121103398 -0.0030192606785055484 -0.013201468624585436
 0.986965305313112 -0.1071562093760414 0.010180317472614742 0.04563175513643906 -0.003019715029297087 -0.013201430793218399 0.003406738472410999 0.020687873976908785
