! Created with skrf 1.8.0 (http://scikit-rf.org).
# GHz S RI R 50.0 
!freq ReS11 ImS11 ReS12 ImS12 ReS13 ImS13
! ReS14 ImS14
! ReS21 ImS21 ReS22 ImS22 ReS23 ImS23
! ReS24 ImS24
! ReS31 ImS31 ReS32 ImS32 ReS33 ImS33
! ReS34 ImS34
! ReS41 ImS41 ReS42 ImS42 ReS43 ImS43
! ReS44 ImS44
!
0.0 0.001470778760934 0.0 0.9985292212391 0.0 5.641100673868e-05 0.0 -5.641100629315e-05 6.908355829358735e-21
 0.9985292212391 0.0 0.001470778760921 0.0 -5.641100629374e-05 6.90835582943099e-21 5.641100673641e-05 0.0
 5.641100673868e-05 0.0 -5.641100629374e-05 6.90835582943099e-21 0.001470778752423 0.0 0.9985292212305 0.0
 -5.641100629315e-05 6.908355829358735e-21 5.641100673641e-05 0.0 0.9985292212305 0.0 0.001470778752379 0.0
0.005 0.0015821928401402376 0.001207115370763141 0.998388323075103 -0.003080884732568443 7.831692027759604e-05 0.0005992820390356567 -7.624558851957567e-05 -0.00038007810202345354
 0.998388323075103 -0.003080884732568443 0.0015821951004303975 0.0012071141005169236 -7.624632612217363e-05 -0.00038007871678019293 7.831286559684727e-05 0.0005992837997303021
 7.831692027759604e-05 0.0005992820390356567 -7.624632612217363e-05 -0.00038007871678019293 0.0015821918503334741 0.0012070487324618605 0.9983883227194891 -0.003080951783864946
 -7.624558851957567e-05 -0.00038007810202345354 7.831286559684727e-05 0.0005992837997303021 0.9983883227194891 -0.003080951783864946 0.0015821953785138917 0.0012070466339847096
0.006252605252188 0.0016113523648331833 0.001513633872298781 0.9983512276329541 -0.0038518673337304523 8.452918201591936e-05 0.0007494077888233011 -8.181196227402126e-05 -0.00047558737303106787
 0.9983512276329541 -0.0038518673337304523 0.0016113558970247022 0.0015136321953219006 -8.181310965782805e-05 -0.0004755881321109861 8.452284953316344e-05 0.0007494100383117162
 8.452918201591936e-05 0.0007494077888233011 -8.181310965782805e-05 -0.0004755881321109861 0.0016113508933078328 0.0015135505647982709 0.9983512271531203 -0.003851951162130281
 -8.181196227402126e-05 -0.00047558737303106787 8.452284953316344e-05 0.0007494100383117162 0.9983512271531203 -0.003851951162130281 0.001611356408374308 0.001513547841545866
0.01250521050438 0.0017644990931171434 0.003058927455312095 0.9981551806428132 -0.007704579487438696 0.00011991205747628334 0.0014992705882555196 -0.00011321407174953159 -0.0009534974022169752
 0.9981551806428132 -0.007704579487438696 0.0017645131853588005 0.0030589231929511024 -0.00011321858901995049 -0.0009534988184855892 0.0001198868840331404 0.0014992756372438788
 0.00011991205747628334 0.0014992705882555196 -0.00011321858901995049 -0.0009534988184855892 0.0017644937938291294 0.0030587611633797547 0.9981551793104151 -0.007704746868318339
 -0.00011321407174953159 -0.0009534974022169752 0.0001198868840331404 0.0014992756372438788 0.9981551793104151 -0.007704746868318339 0.0017645158169581235 0.003058754686597222
0.01875781575657 0.0019305409569169215 0.004626216881224133 0.9979408452809746 -0.011567522241532568 0.0001626406757741645 0.002250073802848544 -0.0001507108918363496 -0.0014330808252778799
 0.9979408452809746 -0.011567522241532568 0.0019305726026166378 0.00462620906150295 -0.00015072095928707354 -0.001433082779462707 0.00016258431154530202 0.002250082352802765
 0.0001626406757741645 0.002250073802848544 -0.00015072095928707354 -0.001433082779462707 0.0019305294624934583 0.004625967757401361 0.9979408427149506 -0.011567773075577905
 -0.0001507108918363496 -0.0014330808252778799 0.00016258431154530202 0.002250082352802765 0.9979408427149506 -0.011567773075577905 0.0019305789563234307 0.004625956394226542
0.02501042100875 0.0021097911303532063 0.006213330302107019 0.9977079775838391 -0.015442580147769462 0.00021279700231018926 0.003001851519528039 -0.00019439330563527822 -0.0019141348355925117
 0.9977079775838391 -0.015442580147769462 0.0021098472953815645 0.006213317887515923 -0.00019441107560201986 -0.0019141371886991442 0.0002126972004364474 0.0030018644056593008
 0.00021279700231018926 0.003001851519528039 -0.00019441107560201986 -0.0019141371886991442 0.0021097710689192088 0.0062129984846401665 0.9977079734034187 -0.015442914355335863
 -0.00019439330563527822 -0.0019141348355925117 0.0002126972004364474 0.0030018644056593008 0.9977079734034187 -0.015442914355335863 0.0021098589761544633 0.006212980999342103
0.03126302626094 0.0023025498285315434 0.00781915663290912 0.9974563206910251 -0.019330567752260715 0.00027046344561309344 0.0037545717186856244 -0.0002443498603287028 -0.0023965178733421563
 0.9974563206910251 -0.019330567752260715 0.002302637452800956 0.007819138519735619 -0.0002443774619280041 -0.002396520466414102 0.0002703080447284211 0.003754589907487177
 0.00027046344561309344 0.0037545717186856244 -0.0002443774619280041 -0.002396520466414102 0.0023025188259817864 0.00781874225942065 0.9974563145191537 -0.019330985260050865
 -0.0002443498603287028 -0.0023965178733421563 0.0002703080447284211 0.003754589907487177 0.9974563145191537 -0.019330985260050865 0.002302656072642718 0.007818717312235057
0.037515631513130004 0.0025091108886923287 0.009442976397310433 0.9971856116122639 -0.02323189868897107 0.00033572211852993787 0.004508176291961909 -0.0003006673776000654 -0.0028801096053047972
 0.9971856116122639 -0.02323189868897107 0.002509236886911667 0.009442951414901054 -0.00030070691921970326 -0.0028801122593602657 0.0003354990339540552 0.004508200880341466
 0.00033572211852993787 0.004508176291961909 -0.00030070691921970326 -0.0028801122593602657 0.0025090665674642743 0.009442479600815429 0.9971856030749882 -0.02323239943434835
 -0.0003006673776000654 -0.0028801096053047972 0.0003354990339540552 0.004508200880341466 0.9971856030749882 -0.02323239943434835 0.0025092640640728757 0.009442445746847666
0.043768236765320004 0.002729764323875834 0.011084258092648408 0.9968955839683538 -0.027146789245718134 0.0004086544910720308 0.005262593206995791 -0.00036343117262645555 -0.003364798756322227
 0.9968955839683538 -0.027146789245718134 0.0027299355859280775 0.011084225002884356 -0.0003634847434604043 -0.0033648012723700837 0.0004083517104866681 0.005262625421891666
 0.0004086544910720308 0.005262593206995791 -0.0003634847434604043 -0.0033648012723700837 0.0027297042997667053 0.011083679019971409 0.9968955726916738 -0.02714737315860287
 -0.00036343117262645555 -0.003364798756322227 0.0004083517104866681 0.005262625421891666 0.9968955726916738 -0.02714737315860287 0.002729972941584018 0.011083634708105887
0.050020842017509996 0.0029647975032401903 0.012742574039838072 0.996585969360846 -0.03107534244302353 0.0004893411825729028 0.006017741534297497 -0.00043272513337299853 -0.0038504780796226996
 0.996585969360846 -0.03107534244302353 0.0029650208940065394 0.012742531536690863 -0.00043279480440252735 -0.0038504802386901127 0.0004889467633376533 0.00601778273259672
 0.0004893411825729028 0.006017741534297497 -0.00043279480440252735 -0.0038504802386901127 0.0029647193870027152 0.012741912840765087 0.9965859549726352 -0.031076009457212353
 -0.00043272513337299853 -0.0038504780796226996 0.0004889467633376533 0.00601778273259672 0.9965859549726352 -0.031076009457212353 0.002965070053887018 0.01274185641260065
0.055454545454549996 0.0031809482247246146 0.01419725002448232 0.9963007885046337 -0.03450049536738239 0.0005658196809596185 0.006674514590766481 -0.0004983110715857053 -0.0042732701805414525
 0.9963007885046337 -0.03450049536738239 0.003181222472517517 0.01419719822709494 -0.0004983964024308704 -0.0042732718360576506 0.0005653359794566765 0.0066745647987571195
 0.0005658196809596185 0.006674514590766481 -0.0004983964024308704 -0.0042732718360576506 0.003180852440953216 0.014196517583031736 0.9963007711114042 -0.03450123454464917
 -0.0004983110715857053 -0.0042732701805414525 0.0005653359794566765 0.0066745647987571195 0.9963007711114042 -0.03450123454464917 0.0031812832137642034 0.014196449194550816
0.056273447269699996 0.0032144957685335354 0.014417559071758805 0.9962564981814582 -0.03501758927522717 0.0005778618122640499 0.006773533909028428 -0.0005086317396718976 -0.004337041894388839
 0.9962564981814582 -0.03501758927522717 0.0032147781276677294 0.014417505780845646 -0.0005087195643342123 -0.00433704345755719 0.0005773638803734588 0.006773585577520522
 0.0005778618122640499 0.006773533909028428 -0.0005087195643342123 -0.00433704345755719 0.003214397165241568 0.014416815904143775 0.9962564803113378 -0.03501833932365588
 -0.0005086317396718976 -0.004337041894388839 0.0005773638803734588 0.006773585577520522 0.9962564803113378 -0.03501833932365588 0.00321484072144433 0.014416745593023235
0.06252605252188 0.0034791427650239628 0.01610888782194456 0.9959069001394443 -0.038973511353064344 0.0006742948814286982 0.007529877885940665 -0.0005912320495820802 -0.004824384732763706
 0.9959069001394443 -0.038973511353064344 0.003479490906632536 0.016108822300106018 -0.0005913400643025751 -0.0048243854412045595 0.0006736816308957787 0.007529941641319172
 0.0006742948814286982 0.007529877885940665 -0.0005913400643025751 -0.0048243854412045595 0.0034790212741834512 0.016108062855489807 0.995906878418708 -0.03897434436443048
 -0.0005912320495820802 -0.004824384732763706 0.0006736816308957787 0.007529941641319172 0.995906878418708 -0.03897434436443048 0.0034795685674584645 0.016107976785464426
0.06877865777407 0.0037590206213364077 0.017816261184065183 0.9955369046407574 -0.04294305437820445 0.0007787176714064876 0.008286676748393177 -0.000680605668054238 -0.005312400535771192
 0.9955369046407574 -0.04294305437820445 0.0037594413334527915 0.017816181919006944 -0.0006807358925904017 -0.005312400110801672 0.0007779773645719829 0.008286754337298361
 0.0007787176714064876 0.008286676748393177 -0.0006807358925904017 -0.005312400110801672 0.0037588738368741917 0.017815354596458485 0.9955368787025419 -0.04294397028122477
 -0.000680605668054238 -0.005312400535771192 0.0007779773645719829 0.008286754337298361 0.9955368787025419 -0.04294397028122477 0.0037595356978384693 0.01781525078129497
0.07503126302626001 0.004054410037174121 0.01953939772228936 0.9951462410792712 -0.04692613667000971 0.0008912061522194791 0.009043830021494318 -0.0007768307038426536 -0.005800982148388219
 0.9951462410792712 -0.04692613667000971 0.004054910081448411 0.019539303132158282 -0.0007769851415460158 -0.005800980291505535 0.000890327120094272 0.00904392332054494
 0.0008912061522194791 0.009043830021494318 -0.0007769851415460158 -0.005800980291505535 0.004054235547007318 0.019538409707221982 0.9951462105583019 -0.04692713538591059
 -0.0007768307038426536 -0.005800982148388219 0.000890327120094272 0.00904392332054494 0.9951462105583019 -0.04692713538591059 0.00405502278850818 0.019538286049474395
0.08128386827845 0.00436559031635376 0.021278027965349864 0.9947346390755507 -0.05092265481232298 0.0010118348963410904 0.009801233817090353 -0.0008799837194514179 -0.006290020986198037
 0.9947346390755507 -0.05092265481232298 0.004366176427460367 0.021277916398412196 -0.0008801643575200792 -0.006290017379132837 0.0010108055395728283 0.00980134483290125
 0.0010118348963410904 0.009801233817090353 -0.0008801643575200792 -0.006290017379132837 0.004365385702672941 0.021276958725741237 0.9947346036086937 -0.05092373626197255
 -0.0008799837194514179 -0.006290020986198037 0.0010108055395728283 0.00980134483290125 0.9947346036086937 -0.05092373626197255 0.004366309118388939 0.02127681301572377
0.08753647353064001 0.004692839360088437 0.02303189045012169 0.9943018286802728 -0.05493248755452032 0.001140676996982509 0.010558781075182953 -0.0009901396755824263 -0.006779406809218552
 0.9943018286802728 -0.05493248755452032 0.004693518244997706 0.023031760184363027 -0.0009903484851470062 -0.006779401113975732 0.0011394857868440732 0.010558911944361366
 0.001140676996982509 0.010558781075182953 -0.0009903484851470062 -0.006779401113975732 0.004692602199378304 0.02303074020177925 0.9943017879064198 -0.05493365165519471
 -0.0009901396755824263 -0.006779406809218552 0.0011394857868440732 0.010558911944361366 0.9943017879064198 -0.05493365165519471 0.004693672563236449 0.023030570116673
0.09378907878283 0.005036433635650092 0.024800728898703203 0.9938475405557318 -0.058955498583090765 0.0012778039884733968 0.01131636173952021 -0.0011073718718870175 -0.007269027565304981
 0.9938475405557318 -0.058955498583090765 0.005037211973031448 0.024800578141563168 -0.0011076108081446178 -0.007269019424224401 0.0012764394682546652 0.01131651472863751
 0.0012778039884733968 0.01131636173952021 -0.0011076108081446178 -0.007269019424224401 0.005036161498481263 0.024799497870872367 0.9938474941154601 -0.05895674524846267
 -0.0011073718718870175 -0.007269027565304981 0.0012764394682546652 0.01131651472863751 0.9938474941154601 -0.05895674524846267 0.005037389563274724 0.02479930097376225
0.100041684035 0.005396648125182205 0.026584290148482258 0.9933715061401234 -0.0629915385448636 0.0014232857683725143 0.012073862891225435 -0.0012317518850722038 -0.007758769279342555
 0.9933715061401234 -0.0629915385448636 0.00539753256498015 0.026584117036433968 -0.0012320228873852162 -0.007758758315133897 0.001421736554716587 0.012074040396757678
 0.0014232857683725143 0.012073862891225435 -0.0012320228873852162 -0.007758758315133897 0.0053963385767413705 0.026582978584489644 0.9933714536768838 -0.06299286768469793
 -0.0012317518850722038 -0.007758769279342555 0.001421736554716587 0.012074040396757678 0.9933714536768838 -0.06299286768469793 0.0053977350731470065 0.026582752323448894
0.1059090909091 0.005750030713202286 0.028271139293418488 0.9929047819041303 -0.06679064048424371 0.0015674643370445277 0.012784522055775242 -0.0013550323877361307 -0.008218346660934359
 0.9929047819041303 -0.06679064048424371 0.005751020740570877 0.028270943445366938 -0.0013553352303918367 -0.00821833268694375 0.001565731521899574 0.012784724862609793
 0.0015674643370445277 0.012784522055775242 -0.0013553352303918367 -0.00821833268694375 0.005749683838576885 0.028269752388455294 0.9929047234662322 -0.06679204693268835
 -0.0013550323877361307 -0.008218346660934359 0.001565731521899574 0.012784724862609793 0.9929047234662322 -0.06679204693268835 0.005751248128707034 0.028269496148341105
0.1062942892872 0.0057737562620410795 0.028382322593969056 0.9928734578034171 -0.06704044656265405 0.0015771905208772662 0.012831168853339445 -0.001363349504489403 -0.008248515975536296
 0.9928734578034171 -0.06704044656265405 0.0057747534245377865 0.028382125192284287 -0.0013636544964054913 -0.008248501791340165 0.0015754453053772935 0.0128313734016198
 0.0015771905208772662 0.012831168853339445 -0.0013636544964054913 -0.008248501791340165 0.005773406861525652 0.028380930750679188 0.9928733989623314 -0.06704185808386368
 -0.001363349504489403 -0.008248515975536296 0.0015754453053772935 0.0128313734016198 0.9928733989623314 -0.06704185808386368 0.005774982496767109 0.02838067245792534
0.11254689453939999 0.006168029854769982 0.03019457499804648 0.9923531289928996 -0.07110205138647682 0.0017395846404757598 0.013588161276008844 -0.0015022326664853754 -0.008738149623111622
 0.9923531289928996 -0.07110205138647682 0.00616914633006353 0.030194351300389548 -0.0015025735557829703 -0.008738131802546916 0.0017376321914125503 0.013588395523049177
 0.0017395846404757598 0.013588161276008844 -0.0015025735557829703 -0.008738131802546916 0.006167638156196595 0.03019310314848866 0.9923530634218777 -0.07110354519092524
 -0.0015022326664853754 -0.008738149623111622 0.0017376321914125503 0.013588395523049177 0.9923530634218777 -0.07110354519092524 0.006169403612913248 0.030192810039402815
0.11879949979160001 0.006579739004510713 0.03202079556475753 0.9918102543751958 -0.0751761722879572 0.0019105326567422426 0.014344719207336423 -0.00164846738692724 -0.009227550100528226
 0.9918102543751958 -0.0751761722879572 0.0065809813517309365 0.032020543492973785 -0.0016488460656114727 -0.009227528207748368 0.0019083618207143013 0.014344985938698663
 0.0019105326567422426 0.014344719207336423 -0.0016488460656114727 -0.009227528207748368 0.006579302556397479 0.032019243996365146 0.9918101817247615 -0.07517774827471267
 -0.00164846738692724 -0.009227550100528226 0.0019083618207143013 0.014344985938698663 0.9918101817247615 -0.07517774827471267 0.006581268491337888 0.03201891316870232
0.1250521050438 0.007009152014761348 0.033860731207676555 0.9912445699738551 -0.07926261976419448 0.0020900971589508763 0.015100719156540246 -0.001802117692866878 -0.009716595171616247
 0.9912445699738551 -0.07926261976419448 0.007010526760937545 0.033860448611470625 -0.0018025360371537837 -0.009716568751367321 0.002087696862941278 0.015101021287134248
 0.0020900971589508763 0.015100719156540246 -0.0018025360371537837 -0.009716568751367321 0.007008668359991172 0.03385910022197488 0.9912444898969432 -0.07926427783033367
 -0.001802117692866878 -0.009716595171616247 0.002087696862941278 0.015101021287134248 0.9912444898969432 -0.07926427783033367 0.007010845402710517 0.03385872865490634
0.131304710296 0.007456535295468793 0.03571412695897672 0.9906558133036383 -0.08336119610629991 0.0022783387212882786 0.015856035149569236 -0.0019632455533076065 -0.01020516047368816
 0.9906558133036383 -0.08336119610629991 0.007458048935505619 0.03571381161555964 -0.0019637054236517847 -0.010205129051352735 0.0022756979744094864 0.015856375723410768
 0.0022783387212882786 0.015856035149569236 -0.0019637054236517847 -0.010205129051352735 0.0074560019720360015 0.0357124168762196 0.990655725455904 -0.08336293614263186
 -0.0019632455533076065 -0.01020516047368816 0.0022756979744094864 0.015856375723410768 0.990655725455904 -0.08336293614263186 0.007458400723327409 0.035712001429633794
0.1375573155481 0.007817707531342524 0.037339986697111464 0.9901482066345537 -0.08723086018710788 0.0024509536424606555 0.0165865471737062 -0.002107550285472111 -0.010669140000715834
 0.9901482066345537 -0.08723086018710788 0.007819367688585623 0.03733964568668392 -0.0021080545741178056 -0.01066910355882692 0.002448058870679872 0.016586925871611344
 0.0024509536424606555 0.0165865471737062 -0.0021080545741178056 -0.01066910355882692 0.00781712287360238 0.03733819752049958 0.9901481106695603 -0.08723268207746249
 -0.002107550285472111 -0.010669140000715834 0.002448058870679872 0.016586925871611344 0.9901481106695603 -0.08723268207746249 0.00781975346759752 0.03733774494657172
0.1438099208003 0.008191542742040873 0.03895763518276908 0.9896228500273724 -0.09109105245500417 0.0026305368973016945 0.01731427227361881 -0.0022576271127323208 -0.011130544638629817
 0.9896228500273724 -0.09109105245500417 0.008193356053275563 0.03895726702758309 -0.0022581778431014898 -0.01113050270864355 0.002627376766329594 0.01731469200287851
 0.0026305368973016945 0.01731427227361881 -0.0022581778431014898 -0.01113050270864355 0.008190904423024187 0.03895576719502651 0.9896227456053242 -0.0910929560816361
 -0.0022576271127323208 -0.011130544638629817 0.002627376766329594 0.01731469200287851 0.9896227456053242 -0.0910929560816361 0.008193777320068986 0.03895527513566227
0.1500625260525 0.008577914183561965 0.040566947103680376 0.9890798740114133 -0.09494168690765345 0.0028170291615028345 0.01803914226684819 -0.0024134181147415653 -0.011589309122961486
 0.9890798740114133 -0.09494168690765345 0.00857988726571309 0.040566550261926036 -0.0024140173074765595 -0.011589261217355235 0.002813592385640129 0.01803960604823061
 0.0028170291615028345 0.01803914226684819 -0.0024140173074765595 -0.011589261217355235 0.008577219880067974 0.040565000595749474 0.9890797607953873 -0.09494367215005049
 -0.0024134181147415653 -0.011589309122961486 0.002813592385640129 0.01803960604823061 0.9890797607953873 -0.09494367215005049 0.008580345505792931 0.04056446659505537
0.15631513130469998 0.008976694273478632 0.04216780096346882 0.988519409711556 -0.09878267764616579 0.003010370445416938 0.018761090088582677 -0.0025748646901625686 -0.012045369525186018
