! Created with skrf 1.8.0 (http://scikit-rf.org).
# GHz S RI R 50.0 
!freq ReS11 ImS11 ReS12 ImS12 ReS13 ImS13
! ReS14 ImS14
! ReS21 ImS21 ReS22 ImS22 ReS23 ImS23
! ReS24 ImS24
! ReS31 ImS31 ReS32 ImS32 ReS33 ImS33
! ReS34 ImS34
! ReS41 ImS41 ReS42 ImS42 ReS43 ImS43
! ReS44 ImS44
!
0.0 0.001462703293064 0.0 0.9985372967069 0.0 5.62256286307e-05 0.0 -5.622562829591e-05 6.885653572263503e-21
 0.9985372967069 0.0 0.001462703293101 0.0 -5.622562829793e-05 6.885653572510882e-21 5.622562862924e-05 0.0
 5.62256286307e-05 0.0 -5.622562829793e-05 6.885653572510882e-21 0.001462703276245 0.0 0.99853729669 0.0
 -5.622562829591e-05 6.885653572263503e-21 5.622562862924e-05 0.0 0.99853729669 0.0 0.001462703276178 0.0
0.005 0.001573514889091928 0.001197916103897255 0.9983971551836571 -0.0030641424591298866 7.844225216016962e-05 0.0006129361301975632 -7.627568179354818e-05 -0.0003859123085207665
 0.9983971551836571 -0.0030641424591298866 0.0015735141966241564 0.001197916484922119 -7.627470117599476e-05 -0.0003859115099652629 7.845065204013999e-05 0.0006129329363333925
 7.844225216016962e-05 0.0006129361301975632 -7.627470117599476e-05 -0.0003859115099652629 0.001573515275803594 0.0011978485662929603 0.9983971548311273 -0.003064209524213928
 -7.627568179354818e-05 -0.0003859123085207665 7.845065204013999e-05 0.0006129329363333925 0.9983971548311273 -0.003064209524213928 0.001573513107667376 0.0011978498940339473
0.006252605252188 0.0016025114126238208 0.0015021114500865368 0.9983602656425982 -0.003830937446073844 8.474145288375743e-05 0.0007664750310316209 -8.190334860963273e-05 -0.0004828916369076316
 0.9983602656425982 -0.003830937446073844 0.0016025103303837444 0.0015021119372272214 -8.190182302731304e-05 -0.0004828906512416858 8.475457710260263e-05 0.000766470883720407
 8.474145288375743e-05 0.0007664750310316209 -8.190182302731304e-05 -0.0004828906512416858 0.0016025120874479605 0.0015020270335345742 0.9983602651613506 -0.0038310212677048305
 -8.190334860963273e-05 -0.0004828916369076316 8.475457710260263e-05 0.000766470883720407 0.9983602651613506 -0.0038310212677048305 0.001602508697715722 0.0015020287144981864
0.01250521050438 0.0017547710003778588 0.0030357454216350887 0.9981653452613684 -0.0076627394875116855 0.00012061316104558781 0.0015333600170255835 -0.00011365565536210613 -0.0009681600474583335
 0.9981653452613684 -0.0076627394875116855 0.0017547666832239586 0.0030357464996074775 -0.00011364964741101714 -0.0009681582124786339 0.00012066550152252227 0.0015333500576031555
 0.00012061316104558781 0.0015333600170255835 -0.00011364964741101714 -0.0009681582124786339 0.0017547742914207503 0.003035576791460609 0.9981653439283789 -0.007662906884112864
 -0.00011365565536210613 -0.0009681600474583335 0.00012066550152252227 0.0015333500576031555 0.9981653439283789 -0.007662906884112864 0.0017547607466846151 0.0030355803761629436
0.01875781575657 0.0019198011087743596 0.004591287689832739 0.9979523027511571 -0.011504744983444812 0.00016392248575460448 0.0023011700942705353 -0.00015157724748371705 -0.001455124385237709
 0.9979523027511571 -0.011504744983444812 0.001919791415564735 0.004591289455945352 -0.0001515638551961726 -0.0014551218609903304 0.00016404007163958127 0.0023011523478149156
 0.00016392248575460448 0.0023011700942705353 -0.0001515638551961726 -0.0014551218609903304 0.0019198089425245823 0.004591034890663889 0.9979523001790381 -0.01150499586134825
 -0.00015157724748371705 -0.001455124385237709 0.00016404007163958127 0.0023011523478149156 0.9979523001790381 -0.01150499586134825 0.001919778488750957 0.004591040638276525
0.02501042100875 0.002097912098851242 0.006166578182829049 0.9977208964546647 -0.015358829541008085 0.00021475211048638392 0.00306994485637686 -0.0001957600445774698 -0.0019435744237884577
 0.9977208964546647 -0.015358829541008085 0.002097894897053332 0.006166580726873043 -0.00019573640238908688 -0.0019435713970631973 0.00021496098430698335 0.0030699170490292274
 0.00021475211048638392 0.00306994485637686 -0.00019573640238908688 -0.0019435713970631973 0.002097926412854428 0.0061662412095002065 0.9977208922616692 -0.015359163851856606
 -0.0001957600445774698 -0.0019435744237884577 0.00021496098430698335 0.0030699170490292274 0.9977208922616692 -0.015359163851856606 0.002097872298406176 0.006166249413091786
0.03126302626094 0.0022894014671538143 0.007760512229138895 0.997470871905813 -0.019225804234355385 0.0002731851875072841 0.0038396543309884134 -0.00024629356182403187 -0.002433364597619392
 0.997470871905813 -0.019225804234355385 0.002289374630891515 0.0077605156330901775 -0.0002462568342834135 -0.0024333612823120706 0.0002735114279689083 0.003839613888491402
 0.0002731851875072841 0.0038396543309884134 -0.0002462568342834135 -0.0024333612823120706 0.0022894242032411856 0.007760091062606221 0.9974708657080928 -0.019226221939359273
 -0.00024629356182403187 -0.002433364597619392 0.0002735114279689083 0.003839613888491402 0.9974708657080928 -0.019226221939359273 0.00228933967575602 0.007760102048889847
0.037515631513130004 0.002494560386173824 0.009372374815646407 0.9972019685548821 -0.02310608128696322 0.00033930458076747227 0.004610241156255906 -0.00030326554626818476 -0.0029243718246906225
 0.9972019685548821 -0.02310608128696322 0.002494521795173995 0.009372379153262469 -0.0003032129248182335 -0.002924368461878413 0.0003397743119668389 0.004610185201164354
 0.00033930458076747227 0.004610241156255906 -0.0003032129248182335 -0.002924368461878413 0.0024945934939069304 0.009371869409407145 0.9972019599694087 -0.023106582370302293
 -0.00030326554626818476 -0.0029243718246906225 0.0003397743119668389 0.004610185201164354 0.9972019599694087 -0.023106582370302293 0.0024944717985448147 0.009371883538948638
0.043768236765320004 0.0027136762322403423 0.011001637994365772 0.9969139224814008 -0.026999876596787386 0.0004131925100295382 0.005381633406483005 -0.0003667622074153536 -0.0034164826773884233
 0.9969139224814008 -0.026999876596787386 0.0027136237705153747 0.011001643330856372 -0.0003666909084122831 -0.0034164795353409036 0.0004138319053128291 0.0053815587549952675
 0.0004131925100295382 0.005381633406483005 -0.0003666909084122831 -0.0034164795353409036 0.0027137216691178055 0.011001048287557394 0.996913911125589 -0.027000461052438248
 -0.0003667622074153536 -0.0034164826773884233 0.0004138319053128291 0.0053815587549952675 0.996913911125589 -0.027000461052438248 0.0027135560473960222 0.011001065954958809
0.050020842017509996 0.0029470337662475406 0.0126478771358821 0.9966064677624555 -0.03090729341279893 0.0004949303379892285 0.006153749884302809 -0.00043686830241808095 -0.003909588087792965
 0.9966064677624555 -0.03090729341279893 0.002946965321343363 0.012647883527672535 -0.0004367755658291817 -0.003909585461960461 0.0004957656205903458 0.006153653042982329
 0.0004949303379892285 0.006153749884302809 -0.0004367755658291817 -0.003909585461960461 0.00294709349518946 0.012647203057300833 0.996606453251682 -0.030907961240470384
 -0.00043686830241808095 -0.003909588087792965 0.0004957656205903458 0.006153653042982329 0.996606453251682 -0.030907961240470384 0.0029468771844006333 0.012647224691513753
0.055454545454549996 0.0031616141706743363 0.014092012826610096 0.9963233106569956 -0.03431404525315974 0.0005724004991083391 0.006825262556502108 -0.0005032250434495528 -0.004338835976490892
 0.9963233106569956 -0.03431404525315974 0.0031615301222100932 0.014092020174265656 -0.0005031114531778532 -0.0043388340602956614 0.0005734273480913065 0.006825143351474517
 0.0005724004991083391 0.006825262556502108 -0.0005031114531778532 -0.0043388340602956614 0.0031616879195253936 0.014091265359017488 0.9963232930910721 -0.034314785539145264
 -0.0005032250434495528 -0.004338835976490892 0.0005734273480913065 0.006825143351474517 0.9963232930910721 -0.034314785539145264 0.003161422061962076 0.014091290815872877
0.056273447269699996 0.003194915739908834 0.014310729842253928 0.9962793372697177 -0.034828363352740074 0.0005845984186362685 0.006926502721142965 -0.0005136671577096888 -0.004403580746690295
 0.9962793372697177 -0.034828363352740074 0.003194829201878629 0.014310737336686247 -0.0005135502462925352 -0.004403578959674191 0.0005856558605500457 0.0069263798835996395
 0.0005845984186362685 0.006926502721142965 -0.0005135502462925352 -0.004403578959674191 0.00319499173135775 0.01430997130558639 0.9962793192184372 -0.03482911456233024
 -0.0005136671577096888 -0.004403580746690295 0.0005856558605500457 0.0069263798835996395 0.9962793192184372 -0.03482911456233024 0.0031947179632934985 0.014309997370346189
0.06252605252188 0.0034576032279282614 0.015989873347479425 0.9959322631952838 -0.038763068935078776 0.000682275977413413 0.007699798802211883 -0.0005972406570936756 -0.004898353680711069
 0.9959322631952838 -0.038763068935078776 0.0034574964883103926 0.015989881982612194 -0.0005970968556984423 -0.004898353082224307 0.0006835818970031151 0.007699645845777998
 0.000682275977413413 0.007699798802211883 -0.0005970968556984423 -0.004898353082224307 0.003457697458032619 0.01598903025685756 0.995932241215555 -0.03876390354107787
 -0.0005972406570936756 -0.004898353680711069 0.0006835818970031151 0.007699645845777998 0.995932241215555 -0.03876390354107787 0.0034573594587365103 0.01598906125099794
0.06877865777407 0.0037353758049741654 0.017685011050268762 0.9955649774265339 -0.042711356981349854 0.0007880410082756617 0.008473540620409793 -0.0006876692110474782 -0.005393799403534039
 0.9955649774265339 -0.042711356981349854 0.003735246756042944 0.01768502085463622 -0.0006874958261558112 -0.005393800370369553 0.0007896217670547945 0.008473353102869218
 0.0007880410082756617 0.008473540620409793 -0.0006874958261558112 -0.005393800370369553 0.0037354902575190575 0.01768408329343238 0.9955649511294419 -0.042712275009404284
 -0.0006876692110474782 -0.005393799403534039 0.0007896217670547945 0.008473353102869218 0.9955649511294419 -0.042712275009404284 0.0037350812469681555 0.017684119751358293
0.07503126302626001 0.004028511634707837 0.01939586396367468 0.9951772118349624 -0.0466731471048128 0.0009019701807728624 0.009247626817968597 -0.000785031714356883 -0.005889809382652753
 0.9951772118349624 -0.0466731471048128 0.004028358168597518 0.019395874956150406 -0.0007848260737949221 -0.0058898123186415866 0.0009038521796093331 0.009247399974319266
 0.0009019701807728624 0.009247626817968597 -0.0007848260737949221 -0.0058898123186415866 0.004028648300021324 0.019394851418246054 0.9951771808292165 -0.04667414858535547
 -0.000785031714356883 -0.005889809382652753 0.0009038521796093331 0.009247399974319266 0.9951771808292165 -0.04667414858535547 0.0040281614913094356 0.019394893910360728
0.08128386827845 0.004337287502531202 0.02112216503962921 0.994768698513073 -0.05064833732775414 0.001024138753655314 0.010021952547115034 -0.0008894054959328852 -0.006386273690573931
 0.994768698513073 -0.05064833732775414 0.004337107510164671 0.021122177229251932 -0.0008891649485593445 -0.006386279026544525 0.0010263484282492137 0.010021681286395363
 0.001024138753655314 0.010021952547115034 -0.0008891649485593445 -0.006386279026544525 0.004337448377363625 0.02112106757023558 0.9947686624049799 -0.050649422298625936
 -0.0008894054959328852 -0.006386273690573931 0.0010263484282492137 0.010021681286395363 0.9947686624049799 -0.050649422298625936 0.004336876976585514 0.0211211167034235
0.08753647353064001 0.004661978809161066 0.022863655231324696 0.9943391699752513 -0.05463680796479945 0.0011546204919430539 0.010796409727515334 -0.0010008662634637194 -0.006883080762830157
 0.9943391699752513 -0.05463680796479945 0.004661770179267129 0.022863668617200968 -0.0010005881790294856 -0.0068830889565643085 0.0011571843080226863 0.010796088629730182
 0.0011546204919430539 0.010796409727515334 -0.0010005881790294856 -0.0068830889565643085 0.004662165897155135 0.022862472691336785 0.9943391283685857 -0.054637976469304475
 -0.0010008662634637194 -0.006883080762830157 0.0011571843080226863 0.010796088629730182 0.9943391283685857 -0.054637976469304475 0.004661503102765426 0.022862529109491103
0.09378907878283 0.00500285954025739 0.024620080688566717 0.993888359337121 -0.058638424377273866 0.0012934875868417777 0.011570887229021842 -0.0011194880439997683 -0.007380117234518173
 0.993888359337121 -0.058638424377273866 0.00500262015884112 0.02462009525973253 -0.0011191698130219806 -0.007380128770710504 0.001296432035080691 0.011570510542074797
 0.0012934875868417777 0.011570887229021842 -0.0011191698130219806 -0.007380128770710504 0.005003074851689538 0.02461881291758172 0.9938883118331815 -0.0586396764665954
 -0.0011194880439997683 -0.007380117234518173 0.001296432035080691 0.011570510542074797 0.9938883118331815 -0.0586396764665954 0.005002313854487556 0.02461887730206302
0.100041684035 0.005360202216841972 0.02639119069710743 0.9934160004794271 -0.06265303898795324 0.001440810577416707 0.012345271012512189 -0.001245343121726013 -0.007877267822505484
 0.9934160004794271 -0.06265303898795324 0.005359929965835465 0.026391206432543626 -0.0012449821553820973 -0.007877283212715505 0.0014441621677929882 0.01234483264936905
 0.001440810577416707 0.012345271012512189 -0.0012449821553820973 -0.007877283212715505 0.005360447768191057 0.026389837522152623 0.9934159466758885 -0.06265437471959671
 -0.001245343121726013 -0.007877267822505484 0.0014441621677929882 0.01234483264936905 0.9934159466758885 -0.06265437471959671 0.005359581750819441 0.026389910592398202
0.1059090909091 0.005710743794963874 0.02806632309022263 0.992952907671552 -0.06643200922000202 0.0015868094400425302 0.01307175878211462 -0.0013700861721376186 -0.008343790259477754
 0.992952907671552 -0.06643200922000202 0.005710438768838549 0.028066339890076467 -0.0013696827671025326 -0.008343809755417871 0.0015905672129770767 0.013071256705376335
 0.0015868094400425302 0.01307175878211462 -0.0013696827671025326 -0.008343809755417871 0.005711019563361526 0.028064889604811117 0.9929528475881395 -0.06643342349824748
 -0.0013700861721376186 -0.008343790259477754 0.0015905672129770767 0.013071256705376335 0.9929528475881395 -0.06643342349824748 0.00571004878773216 0.028064971514488946
0.1062942892872 0.005734277831335147 0.0281767361268861 0.9929218282000443 -0.06668049279131255 0.0015966582730191942 0.013119444239115976 -0.0013785019735494404 -0.008374415243411851
 0.9929218282000443 -0.06668049279131255 0.005733970587927613 0.028176752995451203 -0.0013780957036766406 -0.008374435026014822 0.0016004435292255852 0.013118937774880123
 0.0015966582730191942 0.013119444239115976 -0.0013780957036766406 -0.008374435026014822 0.005734555645854255 0.02817529736340503 0.9929217676917212 -0.06668191222796722
 -0.0013785019735494404 -0.008374415243411851 0.0016004435292255852 0.013118937774880123 0.9929217676917212 -0.06668191222796722 0.005733577782450242 0.028175379877510374
0.11254689453939999 0.006125355774055712 0.029976468252149717 0.9924055783598295 -0.07072061649661565 0.0017610976769532436 0.013893287359587912 -0.001519033202827522 -0.008871440155372928
 0.9924055783598295 -0.07072061649661565 0.0061250114096312045 0.02997648621262737 -0.0015185790818819408 -0.008871464895512002 0.0017653431302582863 0.013892706028791191
 0.0017610976769532436 0.013893287359587912 -0.0015185790818819408 -0.008871464895512002 0.0061256678813328665 0.029974943701262115 0.9924055107379006 -0.07072211970861335
 -0.001519033202827522 -0.008871440155372928 0.0017653431302582863 0.013892706028791191 0.9924055107379006 -0.07072211970861335 0.0061245713372195375 0.029975036456585027
0.11879949979160001 0.006533703751070577 0.03179013782819197 0.991866988021894 -0.07477323141912524 0.0019341939103051406 0.014666678188818573 -0.0016670034718098397 -0.009368221118939158
 0.991866988021894 -0.07477323141912524 0.0065333201301302855 0.031790156829304826 -0.0016664989728441785 -0.009368251408478908 0.0019389260933592313 0.01466601488283166
 0.0019341939103051406 0.014666678188818573 -0.0016664989728441785 -0.009368251408478908 0.006534052186857387 0.031788527279182195 0.991866912873664 -0.07477481848177162
 -0.0016670034718098397 -0.009368221118939158 0.0019389260933592313 0.01466601488283166 0.991866912873664 -0.07477481848177162 0.006532830118542705 0.03178863111295277
0.1250521050438 0.006959587695165606 0.033617494361445885 0.9913057955875553 -0.07883815018307652 0.002116010136311276 0.015439491970591059 -0.0018224774327563363 -0.00986463457203367
 0.9913057955875553 -0.07883815018307652 0.006959162674653655 0.03361751434195388 -0.0018219200495201845 -0.009864671029492985 0.0021212555767539075 0.01543873923507662
 0.002116010136311276 0.015439491970591059 -0.0018219200495201845 -0.009864671029492985 0.006959974501600425 0.033615797589319714 0.9913057124961857 -0.07883982117883227
 -0.0018224774327563363 -0.00986463457203367 0.0021212555767539075 0.01543873923507662 0.9913057124961857 -0.07883982117883227 0.0069586200561820265 0.0336159133792957
0.131304710296 0.007403271672145049 0.03545828552893872 0.9907217409292725 -0.08291517728029917 0.002306607484991146 0.016211601434942366 -0.0019855176584742647 -0.010360554816590994
 0.9907217409292725 -0.08291517728029917 0.007402803100274192 0.035458306417751446 -0.00198490490540002 -0.010360598087111983 0.0023123926987413577 0.016210751467447042
 0.002306607484991146 0.016211601434942366 -0.00198490490540002 -0.010360598087111983 0.007403698897390358 0.03545650229578169 0.9907216494734915 -0.08291693229707243
 -0.0019855176584742647 -0.010360554816590994 0.0023123926987413577 0.016210751467447042 0.9907216494734915 -0.08291693229707243 0.007402205212487933 0.035456630960994585
0.1375573155481 0.007761322661474189 0.037072461120665194 0.9902182981386808 -0.08676421321274562 0.0024813423754405928 0.016958759378031867 -0.002131478830247763 -0.010831755289425801
 0.9902182981386808 -0.08676421321274562 0.007760807730228363 0.037072481750886455 -0.002130806902357622 -0.01083180539596463 0.002487680137827931 0.016957813681297538
 0.0024813423754405928 0.016958759378031867 -0.002130806902357622 -0.01083180539596463 0.007761791541840714 0.037070591393394164 0.990218197939285 -0.08676605227464955
 -0.002131478830247763 -0.010831755289425801 0.002487680137827931 0.016957813681297538 0.990218197939285 -0.08676605227464955 0.007760152646406135 0.03707073223306275
0.1438099208003 0.008131914932991683 0.03867848297488014 0.9896972669373583 -0.09060383890907647 0.002663133542855451 0.01770309864805443 -0.002283283934217648 -0.011300356833049821
 0.9896972669373583 -0.09060383890907647 0.008131351368481062 0.03867850320957106 -0.0022825501381249563 -0.011300414410804331 0.0026700478695742395 0.017702050126794818
 0.002663133542855451 0.01770309864805443 -0.0022825501381249563 -0.011300414410804331 0.008132427377976505 0.03867652653511534 0.9896971575758041 -0.09060576209611204
 -0.002283283934217648 -0.011300356833049821 0.0026700478695742395 0.017702050126794818 0.9896971575758041 -0.09060576209611204 0.008130636566245783 0.03867668037363481
0.1500625260525 0.008514922935822391 0.04027622700667861 0.9891587766828854 -0.09443396927644784 0.002851921082014947 0.018444550221155286 -0.002440874465825759 -0.011766293385558924
 0.9891587766828854 -0.09443396927644784 0.008514308449934492 0.040276246709028594 -0.0024400761121672796 -0.011766359095423694 0.0028594358176471635 0.01844339152933834
 0.002851921082014947 0.018444550221155286 -0.0024400761121672796 -0.011766359095423694 0.008515480850993589 0.04027418362651852 0.9891586577374352 -0.09443597667288738
 -0.002440874465825759 -0.011766293385558924 0.0028594358176471635 0.01844339152933834 0.9891586577374352 -0.09443597667288738 0.008513531420474915 0.04027435132513893
0.15631513130469998 0.00891022028737157 0.041865572915920496 0.9886029573250492 -0.09825451931728284 0.0030476444145614992 0.019183046195002208 -0.002604191230863885 -0.012229500239493141
