! Created with skrf 1.8.0 (http://scikit-rf.org).
# GHz S RI R 50.0 
!freq ReS11 ImS11 ReS12 ImS12 ReS13 ImS13
! ReS14 ImS14
! ReS21 ImS21 ReS22 ImS22 ReS23 ImS23
! ReS24 ImS24
! ReS31 ImS31 ReS32 ImS32 ReS33 ImS33
! ReS34 ImS34
! ReS41 ImS41 ReS42 ImS42 ReS43 ImS43
! ReS44 ImS44
!
0.0 0.001681867536604 0.0 0.9983181324549 0.0 6.483506402918e-05 0.0 -6.483506389526e-05 7.940005347184428e-21
 0.9983181324549 0.0 0.001681867536596 0.0 -6.483506389578e-05 7.94000534724811e-21 6.483506402836e-05 0.0
 6.483506402918e-05 0.0 -6.483506389578e-05 7.94000534724811e-21 0.001681867540874 0.0 0.9983181324591 0.0
 -6.483506389526e-05 7.940005347184428e-21 6.483506402836e-05 0.0 0.9983181324591 0.0 0.001681867540841 0.0
0.005 0.001809944288317502 0.0013805767489859008 0.998156076374998 -0.00352226895933623 9.017118101624563e-05 0.0006841402975665921 -8.78526597213063e-05 -0.0004346030849493451
 0.998156076374998 -0.00352226895933623 0.0018099137048185904 0.0013805945413438313 -8.785380497117404e-05 -0.00043460387687238377 9.03608327923206e-05 0.0006840680695557803
 9.017118101624563e-05 0.0006841402975665921 -8.785380497117404e-05 -0.00043460387687238377 0.001809943786601942 0.0013805097152279177 0.9981560760068818 -0.0035223360117820194
 -8.78526597213063e-05 -0.0004346030849493451 9.03608327923206e-05 0.0006840680695557803 0.9981560760068818 -0.0035223360117820194 0.001809913472538857 0.0013805274710064473
0.006252605252188 0.0018436677423168605 0.0017311101609851032 0.9981131282510955 -0.00440367488617793 9.743395150717873e-05 0.0008555156100044136 -9.439970250875825e-05 -0.0005438013217996127
 0.9981131282510955 -0.00440367488617793 0.0018436199354029726 0.0017311327479430038 -9.440148528700158e-05 -0.0005438022961135887 9.773026335734768e-05 0.000855421781658742
 9.743395150717873e-05 0.0008555156100044136 -9.440148528700158e-05 -0.0005438022961135887 0.0018436670255160394 0.0017310263634022767 0.9981131277427038 -0.004403758700069726
 -9.439970250875825e-05 -0.0005438013217996127 9.773026335734768e-05 0.000855421781658742 0.9981131277427038 -0.004403758700069726 0.0018436196388562213 0.0017310489198693027
0.01250521050438 0.00202196731611993 0.0034981021511928914 0.9978845300892877 -0.008807978708168468 0.00013921562387586418 0.0017114536555657806 -0.0001318057702002914 -0.001090128608594327
 0.9978845300892877 -0.008807978708168468 0.0020217764330390186 0.003498150838944383 -0.00013181280429678638 -0.0010901303839169108 0.00014039722480899746 0.0017112275524062588
 0.00013921562387586418 0.0017114536555657806 -0.00013181280429678638 -0.0010901303839169108 0.002021965048552996 0.0034979347301838013 0.9978845286437175 -0.008808146094117284
 -0.0001318057702002914 -0.001090128608594327 0.00014039722480899746 0.0017112275524062588 0.9978845286437175 -0.008808146094117284 0.002021775825378641 0.003497983511503039
0.01875781575657 0.002217181777549701 0.005289883346343602 0.9976320348090667 -0.013223594400430909 0.0001902839119377918 0.0025683375267038185 -0.00017717284743885603 -0.001638218408554535
 0.9976320348090667 -0.013223594400430909 0.002216752875005884 0.005289961961219506 -0.00017718854505773581 -0.0016382207719899458 0.0001929381932208591 0.0025679326714989964
 0.0001902839119377918 0.0025683375267038185 -0.00017718854505773581 -0.0016382207719899458 0.002217177125567182 0.005289632337838174 0.997632031984011 -0.013223845262205838
 -0.00017717284743885603 -0.001638218408554535 0.0001929381932208591 0.0025679326714989964 0.997632031984011 -0.013223845262205838 0.002216751916872541 0.005289711329985391
0.02501042100875 0.002429712836027457 0.007103924264842191 0.9973553265056803 -0.017652628169022928 0.0002507426736507207 0.003426178418797896 -0.00023061629755543009 -0.0021878121735491676
 0.9973553265056803 -0.017652628169022928 0.002428951169603621 0.0071040369117851415 -0.00023064403347264283 -0.002187814869404975 0.00025545719068781575 0.0034255405526834475
 0.0002507426736507207 0.003426178418797896 -0.00023064403347264283 -0.002187814869404975 0.002429704982349728 0.007103589676254878 0.9973553218625145 -0.017652962445695773
 -0.00023061629755543009 -0.0021878121735491676 0.00025545719068781575 0.0034255405526834475 0.9973553218625145 -0.017652962445695773 0.002428949816647584 0.00710370315044793
0.03126302626094 0.002659945645522999 0.008938906479877969 0.9970540741617049 -0.022095961541710576 0.0003206954861869632 0.004284911869129003 -0.00029224797701932057 -0.002738719905567195
 0.9970540741617049 -0.022095961541710576 0.002658756615175712 0.008939057535787371 -0.00029229109476121843 -0.002738722634918311 0.00032805849045452286 0.004283978904119563
 0.0003206954861869632 0.004284911869129003 -0.00029229109476121843 -0.002738722634918311 0.0026599337862572682 0.008938488311009405 0.9970540672633612 -0.02209637918675254
 -0.00029224797701932057 -0.002738719905567195 0.00032805849045452286 0.004283978904119563 0.9970540672633612 -0.02209637918675254 0.00265875481661994 0.008938640817373028
0.037515631513130004 0.0029082567672870604 0.010793957689044413 0.9967279399309784 -0.026554016233578264 0.0004002448460562319 0.005144443109684516 -0.0003621769773990188 -0.003290774839048272
 0.9967279399309784 -0.026554016233578264 0.0029065458796567307 0.010794151799826991 -0.00036223879228249994 -0.00329077725955036 0.0004108455154946629 0.005143145050461824
 0.0004002448460562319 0.005144443109684516 -0.00036223879228249994 -0.00329077725955036 0.0029082401114353907 0.010793455927047788 0.9967279303413143 -0.026554517219904757
 -0.0003621769773990188 -0.003290774839048272 0.0004108455154946629 0.005143145050461824 0.9967279303413143 -0.026554517219904757 0.0029065435789066996 0.010793652291983596
0.043768236765320004 0.0031750172420222343 0.012668418913589384 0.9963765825268154 -0.03102698687340371 0.0004894917720060886 0.006004660865291899 -0.0004405098757577754 -0.0038438196663174223
 0.9963765825268154 -0.03102698687340371 0.003172690080126624 0.012668660992651685 -0.00044059367653441744 -0.0038438213921115206 0.0005039203124669833 0.006002919721347016
 0.0004894917720060886 0.006004660865291899 -0.00044059367653441744 -0.0038438213921115206 0.0031749950090308103 0.012667833551168932 0.9963765698090427 -0.03102757117528324
 -0.0004405098757577754 -0.0038438196663174223 0.0005039203124669833 0.006002919721347016 0.9963765698090427 -0.03102757117528324 0.003172687213803858 0.012668078875973258
0.050020842017509996 0.003460594002379976 0.01456174830628987 0.9959996589536607 -0.035514937120406945 0.000588535549641314 0.00686544305321899 -0.0005273508104363037 -0.0043977008615691815
 0.9959996589536607 -0.035514937120406945 0.003457556199173338 0.014562043534046356 -0.0005274598602811243 -0.004397701463202529 0.0006073832281668517 0.0068631727471944225
 0.000588535549641314 0.00686544305321899 -0.0005274598602811243 -0.004397701463202529 0.0034605654213920945 0.014561079332665216 0.9959996426693386 -0.03551560472250786
 -0.0005273508104363037 -0.0043977008615691815 0.0006073832281668517 0.0068631727471944225 0.9959996426693386 -0.03551560472250786 0.0034575526971500747 0.01456137899330782
0.055454545454549996 0.003724332406685164 0.016222064420460015 0.9956510711848978 -0.03942725306581979 0.0006826395008374519 0.007613846387993586 -0.0006098068254908623 -0.004879601181646933
 0.9956510711848978 -0.03942725306581979 0.0037206004172469363 0.01622241025085051 -0.0006099404482094718 -0.004879600423688644 0.0007058085431338588 0.007611039967958201
 0.0006826395008374519 0.007613846387993586 -0.0006099404482094718 -0.004879600423688644 0.0037242976911667385 0.016221322778481987 0.9956510514446214 -0.03942799305026347
 -0.0006098068254908623 -0.004879601181646933 0.0007058085431338588 0.007611039967958201 0.9956510514446214 -0.03942799305026347 0.0037205963018467625 0.016221674238277025
0.056273447269699996 0.003765350586178228 0.016473473933797726 0.9955968255423395 -0.04001784680929695 0.0006974735388207392 0.007726659593628817 -0.0006228014788872323 -0.0049522658974801795
 0.9955968255423395 -0.04001784680929695 0.00376150779983902 0.016473827758079294 -0.0006229390159975658 -0.004952264901856684 0.0007213326745039208 0.007723765868094122
 0.0006974735388207392 0.007726659593628817 -0.0006229390159975658 -0.004952264901856684 0.003765314897291784 0.016472721338170196 0.9955968052528787 -0.04001859770333116
 -0.0006228014788872323 -0.0049522658974801795 0.0007213326745039208 0.007723765868094122 0.9955968052528787 -0.04001859770333116 0.003761503587169068 0.016473080985847016
0.06252605252188 0.00408964750701184 0.018403167813457976 0.9951677386479985 -0.044535637845629465 0.0008164010114185353 0.008588173954055105 -0.0007269610952405939 -0.005507361732705083
 0.9951677386479985 -0.044535637845629465 0.004084905397178809 0.018403585950818546 -0.0007271303330536615 -0.005507358623047939 0.0008458649394963753 0.008584554277853013
 0.0008164010114185353 0.008588173954055105 -0.0007271303330536615 -0.005507358623047939 0.0040896039601925685 0.018402331589329777 0.9951677139135884 -0.044536472026152185
 -0.0007269610952405939 -0.005507361732705083 0.0008458649394963753 0.008584554277853013 0.9951677139135884 -0.044536472026152185 0.004084900394537809 0.01840275715172351
0.06877865777407 0.004433842434296447 0.0203504304425093 0.9947120551609893 -0.04906818961479254 0.0009454110069720774 0.009449844082615793 -0.0008399263246703193 -0.006062833916392025
 0.9947120551609893 -0.04906818961479254 0.004428106639076561 0.020350918880207222 -0.0008401304520146213 -0.006062828132208784 0.0009810740225878758 0.009445387557363462
 0.0009454110069720774 0.009449844082615793 -0.0008401304520146213 -0.006062828132208784 0.0044337902891821235 0.02034951058527115 0.9947120255410015 -0.049069107081613494
 -0.0008399263246703193 -0.006062833916392025 0.0009810740225878758 0.009445387557363462 0.9947120255410015 -0.049069107081613494 0.0044281007629484075 0.02035000826877211
0.07503126302626001 0.004798290261656175 0.022314880996560194 0.9942294329125256 -0.05361534872839312 0.0010845941979620588 0.010311523007282553 -0.0009617912035106704 -0.006618526032819007
 0.9942294329125256 -0.05361534872839312 0.004791466375511907 0.02231544599527906 -0.0009620333846068908 -0.006618516969877123 0.0011270514854020218 0.01030611027448683
 0.0010845941979620588 0.010311523007282553 -0.0009620333846068908 -0.006618516969877123 0.004798228787223706 0.02231387750415831 0.9942293979643232 -0.05361634948605756
 -0.0009617912035106704 -0.006618526032819007 0.0011270514854020218 0.01030611027448683 0.9942293979643232 -0.05361634948605756 0.004791459538558946 0.022314453796710928
0.08128386827845 0.005183343105821078 0.02429615080370665 0.9937195310129551 -0.05817693550238264 0.0012340387614934003 0.011173059241375521 -0.0010926470498842495 -0.007174279346378511
 0.9937195310129551 -0.05817693550238264 0.005175336656573568 0.024296798901282838 -0.0010929304241194965 -0.007174266356709073 0.0012838863120112737 0.011166562390457694
 0.0012340387614934003 0.011173059241375521 -0.0010929304241194965 -0.007174266356709073 0.005183271580121896 0.02429506367604316 0.9937194902927492 -0.058178019560859724
 -0.0010926470498842495 -0.007174279346378511 0.0012838863120112737 0.011166562390457694 0.9937194902927492 -0.058178019560859724 0.005175328768918568 0.02429572535076647
0.08753647353064001 0.0055893502576522015 0.026293878842955126 0.9931820101486714 -0.06275274841879401 0.0013938302545269982 0.012034297080344624 -0.0012325823684920115 -0.007729932562125856
 0.9931820101486714 -0.06275274841879401 0.005580066684519432 0.026294616858733053 -0.0012329100502452488 -0.007729914954018871 0.0014516647743219413 0.012026579557804853
 0.0013938302545269982 0.012034297080344624 -0.0012329100502452488 -0.007729914954018871 0.005589267967231762 0.0262927080823095 0.9931819632104265 -0.06275391579314026
 -0.0012325823684920115 -0.007729932562125856 0.0014516647743219413 0.012026579557804853 0.9931819632104265 -0.06275391579314026 0.005580057653785049 0.026293462201969094
0.09378907878283 0.006016658100368651 0.028307708524813176 0.9926165328493698 -0.06734256731344195 0.0015640514921980947 0.012895076819393546 -0.0013816827501926905 -0.008285321672609706
 0.9926165328493698 -0.06734256731344195 0.006006002731621789 0.028308543564928658 -0.001382057828604359 -0.008285298710623532 0.0016304703026086187 0.012885993339290379
 0.0015640514921980947 0.012895076819393546 -0.001382057828604359 -0.008285298710623532 0.0060165643403206626 0.02830645413911439 0.9926164792448156 -0.06734381802055686
 -0.0013816827501926905 -0.008285321672609706 0.0016304703026086187 0.012885993339290379 0.9926164792448156 -0.06734381802055686 0.006005992463408651 0.0283073080614314
0.100041684035 0.0064656100054153705 0.030337285344827773 0.9920227637369021 -0.07194615569917891 0.0017447824277095592 0.01375523492801843 -0.0015400307687334824 -0.008840279854967702
 0.9920227637369021 -0.07194615569917891 0.006453488035843446 0.030338224808297728 -0.0015404563073422163 -0.008840250759948626 0.0018203833583977339 0.013744631383939518
 0.0017447824277095592 0.01375523492801843 -0.0015404563073422163 -0.008840250759948626 0.006465504079389288 0.03033594734511907 0.9920227030158917 -0.071947489760521
 -0.0015400307687334824 -0.008840279854967702 0.0018203833583977339 0.013744631383939518 0.9920227030158917 -0.071947489760521 0.006453476435043301 0.03033690872888771
0.1059090909091 0.00690689191137839 0.03225583427417749 0.9914395465999801 -0.07627843487197809 0.0019240063024373016 0.014561687810203132 -0.0016971050292165276 -0.009360506194758814
 0.9914395465999801 -0.07627843487197809 0.006893307329814859 0.03225687872431879 -0.0016975806824953451 -0.009360470597015329 0.0020087677524611484 0.014549509756137021
 0.0019240063024373016 0.014561687810203132 -0.0016975806824953451 -0.009360470597015329 0.006906773942482685 0.03225441782236944 0.9914394787890755 -0.07627984717801388
 -0.0016971050292165276 -0.009360506194758814 0.0020087677524611484 0.014549509756137021 0.9914394787890755 -0.07627984717801388 0.006893294391305141 0.032255487287199715
0.1062942892872 0.006936546210326015 0.03238225511931752 0.9914003697606155 -0.07656326251602978 0.0019361000335999014 0.014614604190930865 -0.0017077058747975986 -0.00939463740917347
 0.9914003697606155 -0.07656326251602978 0.006922862678951174 0.032383306705115425 -0.001708184911165659 -0.009394601358309095 0.0020214813098814247 0.014602317569645768
 0.0019361000335999014 0.014614604190930865 -0.001708184911165659 -0.009394601358309095 0.006936427429689148 0.032380833518282255 0.9914003014702163 -0.07656467995907823
 -0.0017077058747975986 -0.00939463740917347 0.0020214813098814247 0.014602317569645768 0.9914003014702163 -0.07656467995907823 0.006922849649660894 0.03238191033034041
0.11254689453939999 0.007429803682963882 0.03444226264322089 0.9907490204218011 -0.08119362346818126 0.00213807818402833 0.015473013831193821 -0.001884784288501587 -0.0099482217216985
 0.9907490204218011 -0.08119362346818126 0.00741446345054463 0.03444343435816659 -0.0018853198338541757 -0.009948177848549272 0.002233838308493579 0.01545887212798865
 0.00213807818402833 0.015473013831193821 -0.0018853198338541757 -0.009948177848549272 0.007429671367122052 0.03444075745879949 0.9907489441065545 -0.08119512432297765
 -0.001884784288501587 -0.0099482217216985 0.002233838308493579 0.01545887212798865 0.9907489441065545 -0.08119512432297765 0.007414448897102387 0.0344419579819092
0.11879949979160001 0.007945715976395134 0.036516950651260614 0.9900683879929636 -0.08583696206712227 0.0023507875380603025 0.01633028961680684 -0.00207133889035981 -0.010500857253324052
 0.9900683879929636 -0.08583696206712227 0.007928623702610302 0.036518250818907964 -0.002071933929094605 -0.0105008046479035 0.0024575251673695647 0.016314111752843516
 0.0023507875380603025 0.01633028961680684 -0.002071933929094605 -0.0105008046479035 0.007945569452145685 0.03651536190616078 0.9900683031943792 -0.08583854636682485
 -0.00207133889035981 -0.010500857253324052 0.0024575251673695647 0.016314111752843516 0.9900683031943792 -0.08583854636682485 0.007928607530079188 0.03651669474785456
0.1250521050438 0.008484613074866868 0.03860595900277798 0.9893581477302047 -0.09049299046079408 0.00257429542357265 0.017186253960428395 -0.0022674391115715133 -0.011052365541945847
 0.9893581477302047 -0.09049299046079408 0.008465673195652352 0.03860739627324811 -0.00226809660087976 -0.011052303250769604 0.002692609240432325 0.017167849702002948
 0.00257429542357265 0.017186253960428395 -0.00226809660087976 -0.011052303250769604 0.00848445167627216 0.03860428672218426 0.989358053986578 -0.09049465824402668
 -0.0022674391115715133 -0.011052365541945847 0.002692609240432325 0.017167849702002948 0.989358053986578 -0.09049465824402668 0.008465655310371363 0.038605760824455444
0.131304710296 0.00904682123315078 0.04070892404102331 0.9886179780830654 -0.09516141009818577 0.002808665721858304 0.01804072601141044 -0.0024731508236472115 -0.011602565220794555
 0.9886179780830654 -0.09516141009818577 0.009025937938229483 0.04071050740180758 -0.0024738736929629523 -0.011602492247016778 0.002939154303201724 0.01801989589139262
 0.002808665721858304 0.01804072601141044 -0.0024738736929629523 -0.011602492247016778 0.009046644301725748 0.04070716825457325 0.9886178749296468 -0.09516316140715171
 -0.0024731508236472115 -0.011602565220794555 0.002939154303201724 0.01801989589139262 0.9886178749296468 -0.09516316140715171 0.00902591824879794 0.040708792904608916
0.1375573155481 0.009508433548911741 0.0425531723068253 0.9879718519948342 -0.09956943917827571 0.0030248296956372103 0.01886710734958144 -0.002659261317007163 -0.012124989625023614
 0.9879718519948342 -0.09956943917827571 0.009485502563101439 0.04255487894174366 -0.0026600536801847274 -0.01212490580840246 0.0031677921913195886 0.01884387017943561
 0.0030248296956372103 0.01886710734958144 -0.0026600536801847274 -0.01212490580840246 0.009508239318547053 0.0425513335773649 0.9879717390062687 -0.0995712739942048
 -0.002659261317007163 -0.012124989625023614 0.0031677921913195886 0.01884387017943561 0.9879717390062687 -0.0995712739942048 0.00948548200837329 0.04255308508495647
0.1438099208003 0.009986457580442335 0.044386938702428304 0.9873027172739542 -0.10396548956893113 0.003249667566541826 0.01968970852808591 -0.0028527728111964875 -0.012643839854812497
 0.9873027172739542 -0.10396548956893113 0.009961381457997989 0.04438877590435448 -0.002853637771351656 -0.012643744215091252 0.0034056483802511876 0.01966388072472636
 0.003249667566541826 0.01968970852808591 -0.002853637771351656 -0.012643744215091252 0.009986245200522253 0.0443850171211668 0.9873025939892961 -0.10396740792396303
 -0.0028527728111964875 -0.012643839854812497 0.0034056483802511876 0.01966388072472636 0.9873025939892961 -0.10396740792396303 0.009961360135395909 0.044386902952286734
0.1500625260525 0.010480713982178697 0.04621004609650049 0.9866107579949982 -0.10834942761208397 0.0034830931281768724 0.020508432546486793 -0.0030535994552025212 -0.013159021204155522
 0.9866107579949982 -0.10834942761208397 0.010453394993979997 0.04621202160767194 -0.003054540103135437 -0.013158912722380293 0.0036526331168669993 0.020479823794829023
 0.0034830931281768724 0.020508432546486793 -0.003054540103135437 -0.013158912722380293 0.010480482595316691 0.046208041760717404 0.9866106239511793 -0.10835142953917751
 -0.0030535994552025212 -0.013159021204155522 0.0036526331168669993 0.020479823794829023 0.9866106239511793 -0.10835142953917751 0.010453373014806531 0.04621006983158542
0.15631513130469998 0.010991022002283366 0.04802232261769686 0.9858961593177042 -0.11272112065115909 0.003725019080798217 0.02132318425830953 -0.0032616542673315823 -0.013670441104546195
 0.9858961593177042 -0.11272112065115909 0.01096136212775268 0.04802444464228055 -0.003262673681310854 -0.013670318723352613 0.003908655496996212 0.021291597584660402
