! Created with skrf 1.8.0 (http://scikit-rf.org).
# GHz S RI R 50.0 
!freq ReS11 ImS11 ReS12 ImS12 ReS13 ImS13
! ReS14 ImS14
! ReS21 ImS21 ReS22 ImS22 ReS23 ImS23
! ReS24 ImS24
! ReS31 ImS31 ReS32 ImS32 ReS33 ImS33
! ReS34 ImS34
! ReS41 ImS41 ReS42 ImS42 ReS43 ImS43
! ReS44 ImS44
!
0.0 0.001799020351127 0.0 0.9982009796233 0.0 6.958115342572e-05 0.0 -6.958115360354e-05 8.521233704155559e-21
 0.9982009796233 0.0 0.001799020351139 0.0 -6.958115360424e-05 8.521233704241284e-21 6.95811534268e-05 0.0
 6.958115342572e-05 0.0 -6.958115360424e-05 8.521233704241284e-21 0.001799020363936 0.0 0.9982009796361 0.0
 -6.958115360354e-05 8.521233704155559e-21 6.95811534268e-05 0.0 0.9982009796361 0.0 0.001799020363913 0.0
0.005 0.0019363900628299846 0.001475358068872455 0.9980270553633982 -0.003767334876825475 9.732604150227435e-05 0.0007400580975568707 -9.45814232407553e-05 -0.0004690219373454777
 0.9980270553633982 -0.003767334876825475 0.0019364148803724006 0.0014753435222355353 -9.458001303257505e-05 -0.0004690208041450203 9.7182647054398e-05 0.0007401128301973532
 9.732604150227435e-05 0.0007400580975568707 -9.458001303257505e-05 -0.0004690208041450203 0.0019363914347133677 0.0014754244894440286 0.998027055744921 -0.0037672678202350417
 -9.45814232407553e-05 -0.0004690219373454777 9.7182647054398e-05 0.0007401128301973532 0.998027055744921 -0.0037672678202350417 0.001936414263395646 0.0014754112080720416
0.006252605252188 0.0019726691327317174 0.0018499453396677433 0.997980793558594 -0.004710046962884861 0.00010539204486552156 0.0009254269710034043 -0.00010174664584714815 -0.0005868626317574512
 0.997980793558594 -0.004710046962884861 0.00197270792731703 0.0018499268494614014 -0.00010174445186432361 -0.0005868612339245302 0.00010516800801397369 0.0009254980806849562
 0.00010539204486552156 0.0009254269710034043 -0.00010174445186432361 -0.0005868612339245302 0.001972671203515783 0.0018500283540248594 0.9979807940808842 -0.004709963143449064
 -0.00010174664584714815 -0.0005868626317574512 0.00010516800801397369 0.0009254980806849562 0.9979807940808842 -0.004709963143449064 0.001972706888188487 0.001850011458766714
0.01250521050438 0.0021651117256779743 0.0037380984462379724 0.9977335979832379 -0.009420569607368923 0.00015238436564286108 0.0018511699720344015 -0.00014297328351924285 -0.001176379616011305
 0.9977335979832379 -0.009420569607368923 0.0021652666382107606 0.0037380583339211653 -0.00014296464247908513 -0.0011763770270587373 0.00015149103958230495 0.0018513415692987514
 0.00015238436564286108 0.0018511699720344015 -0.00014296464247908513 -0.0011763770270587373 0.0021651194277529998 0.003738264111679175 0.9977335994976042 -0.009420402197028421
 -0.00014297328351924285 -0.001176379616011305 0.00015149103958230495 0.0018513415692987514 0.9977335994976042 -0.009420402197028421 0.002165261906755835 0.0037382273462682578
0.01875781575657 0.0023768207203190427 0.0056525637372816925 0.9974590485797757 -0.014142964795645967 0.00021067425369058354 0.0027777748763567387 -0.0001933973376477332 -0.00176770016725866
 0.9974590485797757 -0.014142964795645967 0.002377168828060743 0.005652498556275818 -0.00019337807553600772 -0.001767696638154094 0.00020866769705494382 0.0027780828079960493
 0.00021067425369058354 0.0027777748763567387 -0.00019337807553600772 -0.001767696638154094 0.0023768376196718383 0.005652811752332274 0.9974590515688603 -0.01414271386997906
 -0.0001933973376477332 -0.00176770016725866 0.00020866769705494382 0.0027780828079960493 0.9974590515688603 -0.01414271386997906 0.00237715775887564 0.005652751896502393
0.02501042100875 0.002608251468766617 0.00759060486097074 0.9971567860837577 -0.018879453589418352 0.0002803793541610789 0.0037052277143778795 -0.00025314970839484293 -0.00236052465928346
 0.9971567860837577 -0.018879453589418352 0.0026088697042839838 0.007590510875472691 -0.00025311570406417127 -0.0023605204894968463 0.0002768156239545003 0.0037057141041058656
 0.0002803793541610789 0.0037052277143778795 -0.00025311570406417127 -0.0023605204894968463 0.0026082811180054514 0.007590934892217603 0.9971567910219925 -0.018879119165640314
 -0.00025314970839484293 -0.00236052465928346 0.0002768156239545003 0.0037057141041058656 0.9971567910219925 -0.018879119165640314 0.00260884963380087 0.00759084850360584
0.03126302626094 0.0028598403523037367 0.009550779950643039 0.9968264349559496 -0.023630945996061026 0.0003616171102129271 0.004633431354659412 -0.00032235688368310297 -0.00295462789181529
 0.9968264349559496 -0.023630945996061026 0.002860805547127587 0.009550653139510291 -0.0003223040601872416 -0.0029546234297529563 0.00035605187498069177 0.0046341446392161355
 0.0003616171102129271 0.004633431354659412 -0.0003223040601872416 -0.0029546234297529563 0.0028598863036314788 0.00955119161471459 0.9968264423228389 -0.023630528050572273
 -0.00032235688368310297 -0.00295462789181529 0.00035605187498069177 0.0046341446392161355 0.9968264423228389 -0.023630528050572273 0.0028607738039184817 0.0095510750332278
0.037515631513130004 0.003132013594627175 0.011532123359919393 0.9964676125935935 -0.02839785917900446 0.0004545035336369411 0.005562255037846692 -0.0004011417763438798 -0.0035498095866621972
 0.9964676125935935 -0.02839785917900446 0.003133402508627435 0.011531959417699923 -0.0004010660963508344 -0.00354980522973234 0.00044649191617863695 0.005563250026771975
 0.0004545035336369411 0.005562255037846692 -0.0004010660963508344 -0.00354980522973234 0.003132079397383853 0.011532616198634788 0.996467622873162 -0.028397357671568542
 -0.0004011417763438798 -0.0035498095866621972 0.00044649191617863695 0.005563250026771975 0.996467622873162 -0.028397357671568542 0.003133356411600409 0.011532465548230494
0.043768236765320004 0.003425190646608548 0.013533896630916678 0.9960799331184931 -0.033180366422475335 0.000559152608375278 0.0064915494442380145 -0.0004896239933203633 -0.004145879358320336
 0.9960799331184931 -0.033180366422475335 0.003427079991954695 0.01353369096770251 -0.000489521456641631 -0.004145875552901492 0.0005482491265797862 0.006492887386811273
 0.000559152608375278 0.0064915494442380145 -0.000489521456641631 -0.004145875552901492 0.003425279845862168 0.01353447012348548 0.9960799467991398 -0.033179781283316175
 -0.0004896239933203633 -0.004145879358320336 0.0005482491265797862 0.006492887386811273 0.9960799467991398 -0.033179781283316175 0.003427016847640504 0.013534281313095064
0.050020842017509996 0.0037397857288825466 0.015555485605132606 0.995663009328861 -0.03797849995349332 0.0006756759115892879 0.00742115294150733 -0.0005879199084271721 -0.0047426505115008575
 0.995663009328861 -0.03797849995349332 0.003742252190999319 0.015555233345434042 -0.0005877865502456197 -0.0047426477528860886 0.0006614344719800998 0.007422901596300637
 0.0006756759115892879 0.00742115294150733 -0.0005877865502456197 -0.0047426477528860886 0.0037399018644304494 0.015556139156420228 0.9956630269042843 -0.03797783109435697
 -0.0005879199084271721 -0.0047426505115008575 0.0006614344719800998 0.007422901596300637 0.9956630269042843 -0.03797783109435697 0.003742169293774839 0.015555907879627741
0.055454545454549996 0.004030890793399255 0.017327979489199372 0.9952766391219032 -0.0421608702023011 0.0007866661616185231 0.008229125055597832 -0.0006813998979678389 -0.005261687875697093
 0.9952766391219032 -0.0421608702023011 0.004033921058884613 0.01732768255307652 -0.0006812365617191423 -0.005261686466951964 0.0007691611969155488 0.008231290768414634
 0.0007866661616185231 0.008229125055597832 -0.0006812365617191423 -0.005261686466951964 0.004031033207480296 0.01732870207383407 0.9952766604880161 -0.042160128500515266
 -0.0006813998979678389 -0.005261687875697093 0.0007691611969155488 0.008231290768414634 0.9952766604880161 -0.042160128500515266 0.0040338187885597294 0.017328430227338286
0.056273447269699996 0.004076208600526033 0.0175963499187374 0.9952164538830071 -0.04279220138394614 0.0008041823362901637 0.008350894654790778 -0.0006961426417286242 -0.005339937024050489
 0.9952164538830071 -0.04279220138394614 0.004079328857098115 0.017596045899617788 -0.0006959745315560016 -0.005339935856362361 0.0007861562593148124 0.008353128360048919
 0.0008041823362901637 0.008350894654790778 -0.0006959745315560016 -0.005339935856362361 0.004076355206279502 0.017597082862239433 0.9952164758534818 -0.04279144869448687
 -0.0006961426417286242 -0.005339937024050489 0.0007861562593148124 0.008353128360048919 0.9952164758534818 -0.04279144869448687 0.004079223488544459 0.01759680459655566
0.06252605252188 0.004434864943912965 0.01965599524419709 0.994739880106336 -0.04762134941380407 0.000944777860637935 0.00928059617558071 -0.0008144019953865642 -0.005937551899427493
 0.994739880106336 -0.04762134941380407 0.004438715683692471 0.01965563401266618 -0.0008141952363402219 -0.005937552915539177 0.000922519927589413 0.009283395919537054
 0.000944777860637935 0.00928059617558071 -0.0008141952363402219 -0.005937552915539177 0.004435045545915886 0.019656806841839028 0.9947399069786205 -0.047620512761118075
 -0.0008144019953865642 -0.005937551899427493 0.000922519927589413 0.009283395919537054 0.9947399069786205 -0.047620512761118075 0.004438585111219668 0.019656476846991622
0.06877865777407 0.004816156537932568 0.02173395674992796 0.9942329025908471 -0.05246577632474498 0.001097565347371443 0.010210072588579712 -0.000942804360837374 -0.006535306210116633
 0.9942329025908471 -0.05246577632474498 0.004820814478210352 0.021733532559610295 -0.0009425550891731958 -0.006535310051550042 0.0010706278623032978 0.01021352607918601
 0.001097565347371443 0.010210072588579712 -0.0009425550891731958 -0.006535310051550042 0.004816374654379752 0.02173484618700624 0.9942329348803371 -0.05246485555792383
 -0.000942804360837374 -0.006535306210116633 0.0010706278623032978 0.01021352607918601 0.9942329348803371 -0.05246485555792383 0.004820655955600406 0.021734459502714423
0.07503126302626001 0.005220481307343955 0.02382978862150154 0.9936951376773201 -0.05732527842232699 0.0012626443574898928 0.011139133148426085 -0.0010814526117662521 -0.00713300850041274
 0.9936951376773201 -0.05732527842232699 0.005226023211513426 0.023829295428605218 -0.001081156996519677 -0.007133015857257093 0.0012305792209691166 0.011143334882113061
 0.0012626443574898928 0.011139133148426085 -0.001081156996519677 -0.007133015857257093 0.0052207404461098285 0.023830755009732113 0.9936951759082618 -0.05732427336882209
 -0.0010814526117662521 -0.00713300850041274 0.0012305792209691166 0.011143334882113061 0.9936951759082618 -0.05732427336882209 0.005225833977661724 0.02383030645257059
0.08128386827845 0.005648233292141012 0.025943057098734353 0.9931262038633106 -0.062199622972546505 0.0014401109758170967 0.012067581736538003 -0.0012304459852178996 -0.0077304644187005415
 0.9931262038633106 -0.062199622972546505 0.005654735986956254 0.025942488557273245 -0.001230100228112363 -0.007730476029502232 0.0014024697676878282 0.01207263306581268
 0.0014401109758170967 0.012067581736538003 -0.001230100228112363 -0.007730476029502232 0.005648536949965586 0.025944099475449952 0.993126248569354 -0.06219853343852488
 -0.0012304459852178996 -0.0077304644187005415 0.0014024697676878282 0.01207263306581268 0.993126248569354 -0.06219853343852488 0.005654513265308296 0.025943583635178995
0.08753647353064001 0.006099802565693693 0.028073335675216776 0.9925257221628246 -0.06708855298718287 0.0016300576427545684 0.012995217205373144 -0.0013898799564204345 -0.008327476472160793
 0.9925257221628246 -0.06708855298718287 0.00610734295819882 0.02807268513149779 -0.0013894802917138298 -0.008327493123823854 0.0015863917124414762 0.013001226404962502
 0.0016300576427545684 0.012995217205373144 -0.0013894802917138298 -0.008327493123823854 0.006100154226312715 0.0280744529972005 0.99252577388841 -0.06708737876329218
 -0.0013898799564204345 -0.008327476472160793 0.0015863917124414762 0.013001226404962502 0.99252577388841 -0.06708737876329218 0.006107083956497997 0.028073864232145192
0.09378907878283 0.006575575115012542 0.030220201668460685 0.9918933164355941 -0.07199179065014513 0.0018325729912555494 0.013921833635101263 -0.0015598461081545649 -0.00892384387914365
 0.9918933164355941 -0.07199179065014513 0.006584230209896963 0.030219462154793514 -0.0015593888027064424 -0.008923866406822622 0.001782433554461053 0.013928915966576331
 0.0018325729912555494 0.013921833635101263 -0.0015593888027064424 -0.008923866406822622 0.0065759782480953035 0.030221392818879922 0.9918933757365407 -0.07199053150423658
 -0.0015598461081545649 -0.00892384387914365 0.001782433554461053 0.013928915966576331 0.9918933757365407 -0.07199053150423658 0.006583932119431986 0.030220725250664163
0.100041684035 0.007075932695793075 0.03238323372824539 0.9912286136921716 -0.07690903981756123 0.0020477416868704278 0.014847220546521987 -0.0017404319972237929 -0.009519362475646814
 0.9912286136921716 -0.07690903981756123 0.007085779612170246 0.03238239795583173 -0.0017399133505575602 -0.009519391762626938 0.0019906799279240392 0.014855498321126781
 0.0020477416868704278 0.014847220546521987 -0.0017399133505575602 -0.009519391762626938 0.007076390755386938 0.03238449751187361 0.9912286811370469 -0.07690769549914403
 -0.0017404319972237929 -0.009519362475646814 0.0019906799279240392 0.014855498321126781 0.9912286811370469 -0.07690769549914403 0.007085439607485633 0.032383745019277065
0.1059090909091 0.007568161240900304 0.03442733695494243 0.990575157653132 -0.08153582169846231 0.0022612345668218715 0.015714288439807045 -0.001919625578141529 -0.01007723665475162
 0.990575157653132 -0.08153582169846231 0.007579196811394762 0.03442640393191037 -0.0019190460329310951 -0.010077273130729085 0.002197268815893497 0.015723805585196433
 0.0022612345668218715 0.015714288439807045 -0.0019190460329310951 -0.010077273130729085 0.007568673969228342 0.034428667741006516 0.9905752332688302 -0.0815343972095476
 -0.001919625578141529 -0.01007723665475162 0.002197268815893497 0.015723805585196433 0.9905752332688302 -0.0815343972095476 0.007578814889289905 0.034427829766375845
0.1062942892872 0.007601252667886345 0.034562009964488355 0.9905312443865699 -0.08183998791084905 0.002275644271111967 0.01577116307751531 -0.0019317210181247295 -0.01011382466865777
 0.9905312443865699 -0.08183998791084905 0.0076123686565676705 0.034561070315584363 -0.0019311373625831062 -0.010113861646235935 0.002211211449998758 0.01578076571724487
 0.002275644271111967 0.01577116307751531 -0.0019311373625831062 -0.010113861646235935 0.007601769090780929 0.034563345108286965 0.9905313205567856 -0.08183855815025137
 -0.0019317210181247295 -0.01011382466865777 0.002211211449998758 0.01578076571724487 0.9905313205567856 -0.08183855815025137 0.007611983894533271 0.03456250132039975
0.11254689453939999 0.008151907816332583 0.036756106538405976 0.9898008426949537 -0.0867843073592113 0.002516357006556091 0.016693442140581577 -0.0021337922654286546 -0.010707019419182192
 0.9898008426949537 -0.0867843073592113 0.008164370276362885 0.03675505505753351 -0.0021331399662366437 -0.010707065066546248 0.0024441045705507255 0.016704506237184603
 0.002516357006556091 0.016693442140581577 -0.0021331399662366437 -0.010707065066546248 0.008152486020281206 0.036757511690781515 0.9898009281865586 -0.0867827918682825
 -0.0021337922654286546 -0.010707019419182192 0.0024441045705507255 0.016704506237184603 0.9898009281865586 -0.0867827918682825 0.008163937896267197 0.03675656997909354
0.11879949979160001 0.008728266160741427 0.03896509656714188 0.9890370467885357 -0.09174165674167582 0.00276995172441489 0.017613834564308706 -0.00234672039484737 -0.011298732252015614
 0.9890370467885357 -0.09174165674167582 0.008742152656454494 0.03896392495166797 -0.0023459958503931765 -0.011298787596119013 0.0026894314236627745 0.017626503936290394
 0.00276995172441489 0.017613834564308706 -0.0023459958503931765 -0.011298787596119013 0.008728909542819368 0.038966570297273545 0.9890371422123082 -0.0917400552143223
 -0.00234672039484737 -0.011298732252015614 0.0026894314236627745 0.017626503936290394 0.9890371422123082 -0.0917400552143223 0.008741669778929574 0.03896552376714683
0.1250521050438 0.009330690755879398 0.041188549278424344 0.9882394990984777 -0.09671168169260135 0.0030364956734253304 0.01853211322912063 -0.002570575484216317 -0.011888745282300541
 0.9882394990984777 -0.09671168169260135 0.009346079034142217 0.04118724886796582 -0.00256977512631544 -0.01188881139770071 0.0029472596803094267 0.018546538976459363
 0.0030364956734253304 0.01853211322912063 -0.00256977512631544 -0.01188881139770071 0.00933140269135019 0.04119009007876684 0.9882396050816148 -0.09670999380225812
 -0.002570575484216317 -0.011888745282300541 0.0029472596803094267 0.018546538976459363 0.9882396050816148 -0.09670999380225812 0.00934554276111008 0.04118893155986051
0.131304710296 0.009959539485801605 0.04342602934789992 0.9874078465775339 -0.10169401563804562 0.0033160513709419087 0.01944804719564779 -0.002805422894210576 -0.01247683726035041
 0.9874078465775339 -0.10169401563804562 0.009976507492384996 0.04342459111313578 -0.0028045431882918925 -0.012476915269087301 0.0032176524028922917 0.019464387752274298
 0.0033160513709419087 0.01944804719564779 -0.0028045431882918925 -0.012476915269087301 0.009960323325886315 0.04342763562976926 0.9874079637641897 -0.10169224104215689
 -0.002805422894210576 -0.01247683726035041 0.0032176524028922917 0.019464387752274298 0.9874079637641897 -0.10169224104215689 0.009975914906324317 0.04342635766565613
0.1375573155481 0.010479481098457824 0.04538745273713053 0.9866774936301911 -0.10639846595726223 0.003576133229354967 0.020333974375381904 -0.003018895619300108 -0.013035291084908182
 0.9866774936301911 -0.10639846595726223 0.010498111591574523 0.04538589565016584 -0.003017931138726063 -0.013035381207885392 0.0034683445831300685 0.020352220824899972
 0.003576133229354967 0.020333974375381904 -0.003017931138726063 -0.013035381207885392 0.01048033938474892 0.045389123384928266 0.9866776225458103 -0.1063966044675355
 -0.003018895619300108 -0.013035291084908182 0.0034683445831300685 0.020352220824899972 0.9866776225458103 -0.1063966044675355 0.010497460792757042 0.04538774581923745
0.1438099208003 0.011017971415610266 0.04733695926597478 0.9859209349924599 -0.11108934860216602 0.0038466610509853842 0.021215195368490234 -0.0032408218145614223 -0.013589475612066164
 0.9859209349924599 -0.11108934860216602 0.011038343290001407 0.047335275817782234 -0.003239768733164602 -0.013589578971509175 0.0037290759604430837 0.021235494091441726
 0.0038466610509853842 0.021215195368490234 -0.003239768733164602 -0.013589578971509175 0.011018907320883764 0.04733869267524425 0.9859210762806861 -0.11108739988763079
 -0.0032408218145614223 -0.013589475612066164 0.0037290759604430837 0.021235494091441726 0.9859210762806861 -0.11108739988763079 0.011037631516636852 0.04733720954163338
0.1500625260525 0.01157479514789552 0.04927433829487065 0.9851383909173914 -0.11576649767458168 0.004127524308244822 0.02209158457381182 -0.0034710952058841673 -0.0141392756791276
 0.9851383909173914 -0.11576649767458168 0.011596987500904099 0.04927252053759823 -0.00346994970718426 -0.014139393442836764 0.003999739055645571 0.02211408728489577
 0.004127524308244822 0.02209158457381182 -0.00346994970718426 -0.014139393442836764 0.011575811812796967 0.04927613280135803 0.9851385452361553 -0.11576446139098961
 -0.0034710952058841673 -0.0141392756791276 0.003999739055645571 0.02211408728489577 0.9851385452361553 -0.11576446139098961 0.011596211984172647 0.049274537754918295
0.15631513130469998 0.012149735174819399 0.05119938547646612 0.9843300831096473 -0.12042974898632801 0.0044186109782053075 0.022963018916092294 -0.0037096080515789044 -0.014684578882390725
 0.9843300831096473 -0.12042974898632801 0.012173827311172855 0.051197425012568076 -0.0037083663290850646 -0.014684712263588673 0.004280224949720673 0.022987882597756068
