! Created with skrf 1.8.0 (http://scikit-rf.org).
# GHz S RI R 50.0 
!freq ReS11 ImS11 ReS12 ImS12 ReS13 ImS13
! ReS14 ImS14
! ReS21 ImS21 ReS22 ImS22 ReS23 ImS23
! ReS24 ImS24
! ReS31 ImS31 ReS32 ImS32 ReS33 ImS33
! ReS34 ImS34
! ReS41 ImS41 ReS42 ImS42 ReS43 ImS43
! ReS44 ImS44
!
0.0 0.001783662163829 0.0 0.9982163378362 0.0 6.924488466721e-05 0.0 -6.924488473411e-05 8.480052644695523e-21
 0.9982163378362 0.0 0.001783662163848 0.0 -6.924488473448e-05 8.480052644740836e-21 6.924488466808e-05 0.0
 6.924488466721e-05 0.0 -6.924488473448e-05 8.480052644740836e-21 0.001783662148559 0.0 0.9982163378209 0.0
 -6.924488473411e-05 8.480052644695523e-21 6.924488466808e-05 0.0 0.9982163378209 0.0 0.001783662148557 0.0
0.005 0.0019198766525451978 0.0014575852814617738 0.9980438673151377 -0.00373552262239805 9.763295511925174e-05 0.0007680005338588312 -9.470114416573472e-05 -0.0004810325635432893
 0.9980438673151377 -0.00373552262239805 0.0019198911352339488 0.001457576743332918 -9.470216549161157e-05 -0.0004810332544804414 9.754549857433431e-05 0.0007680339137204321
 9.763295511925174e-05 0.0007680005338588312 -9.470216549161157e-05 -0.0004810332544804414 0.0019198769673675232 0.0014576523047938146 0.9980438676945305 -0.0037354555626881456
 -9.470114416573472e-05 -0.0004810325635432893 9.754549857433431e-05 0.0007680339137204321 0.9980438676945305 -0.0037354555626881456 0.0019198915658499283 0.0014576438258793413
0.006252605252188 0.001955839137697857 0.0018276859713443796 0.997998007012234 -0.004670278654698459 0.00010587955967335179 0.0009603544053194926 -0.00010199839632279795 -0.0006018991358191445
 0.997998007012234 -0.004670278654698459 0.0019558617774227626 0.0018276751089311137 -0.00010199998632355134 -0.000601899985391461 0.00010574291904252312 0.0009603977716497601
 0.00010587955967335179 0.0009603544053194926 -0.00010199998632355134 -0.000601899985391461 0.001955839556786585 0.0018277697296423159 0.9979980075318716 -0.0046701948364592325
 -0.00010199839632279795 -0.0006018991358191445 0.00010574291904252312 0.0009603977716497601 0.9979980075318716 -0.0046701948364592325 0.001955862376326226 0.001827758957312146
0.01250521050438 0.002146535939971876 0.003693329886684827 0.997753041130549 -0.00934108068699139 0.00015389089713551917 0.0019209340714100968 -0.0001439920189984379 -0.0012065600948672594
 0.997753041130549 -0.00934108068699139 0.0021466263514367825 0.0036933062379472473 -0.00014399829375296106 -0.0012065616362841047 0.00015334605241394344 0.0019210386926357848
 0.00015389089713551917 0.0019209340714100968 -0.00014399829375296106 -0.0012065616362841047 0.002146537058995994 0.003693497010322496 0.9977530426478591 -0.009340913254079082
 -0.0001439920189984379 -0.0012065600948672594 0.00015334605241394344 0.0019210386926357848 0.9977530426478591 -0.009340913254079082 0.002146628169780003 0.003693473706376047
0.01875781575657 0.002356218524493751 0.005585131337524082 0.9974811007391627 -0.014023715233214464 0.00021339694965135113 0.0028823461579693703 -0.00019536515211726632 -0.001813067671273869
 0.9974811007391627 -0.014023715233214464 0.0023564217055874865 0.005585092819030864 -0.00019537915675881375 -0.0018130697084542565 0.0002121731318685703 0.002882533833219324
 0.00021339694965135113 0.0028823461579693703 -0.00019537915675881375 -0.0018130697084542565 0.002356220629714985 0.005585381476925446 0.9974811037362254 -0.014023464232817093
 -0.00019536515211726632 -0.001813067671273869 0.0002121731318685703 0.002882533833219324 0.9974811037362254 -0.014023464232817093 0.002356425345130331 0.00558534373428757
0.02501042100875 0.0025853359817067535 0.007500377400963078 0.9971818317277114 -0.018720387678119933 0.00028451725572382837 0.003844588785867053 -0.0002562515211315542 -0.002421106864712201
 0.9971818317277114 -0.018720387678119933 0.002585696855099763 0.007500321784015682 -0.0002562762676791666 -0.0024211091604093384 0.00028234368971998843 0.003844885107600986
 0.00028451725572382837 0.003844588785867053 -0.0002562762676791666 -0.0024211091604093384 0.0025853393557217275 0.007500710173761463 0.9971818366863987 -0.018720053076390977
 -0.0002562515211315542 -0.002421106864712201 0.00028234368971998843 0.003844885107600986 0.9971818366863987 -0.018720053076390977 0.0025857028929275813 0.007500655953068847
0.03126302626094 0.002834318668769132 0.009437639582335264 0.9968548638852925 -0.023432002708353404 0.00036737120458777203 0.0048075698866408365 -0.000326780255315002 -0.0030304440201708335
 0.9968548638852925 -0.023432002708353404 0.002834882107180604 0.009437564495545368 -0.00032681872807634063 -0.0030304462956033938 0.0003639768727448901 0.004808004262474527
 0.00036737120458777203 0.0048075698866408365 -0.00032681872807634063 -0.0030304462956033938 0.0028343235959655613 0.009438054536115409 0.996854871296123 -0.02343158442726497
 -0.000326780255315002 -0.0030304440201708335 0.0003639768727448901 0.004808004262474527 0.996854871296123 -0.02343158442726497 0.0028348911022424332 0.009437981668533676
0.037515631513130004 0.003103586924679289 0.011395961934387952 0.9964998200091003 -0.028158976139716435 0.00046207677434963656 0.005771161120224874 -0.0004070768037333324 -0.003640872944542648
 0.9964998200091003 -0.028158976139716435 0.0031043977685718312 0.011395864864350624 -0.0004071319618221231 -0.003640874879215026 0.00045719032034612165 0.005771766809087619
 0.00046207677434963656 0.005771161120224874 -0.0004071319618221231 -0.003640874879215026 0.0031035936861731795 0.01139645855728845 0.9964998303700526 -0.02815847404600232
 -0.0004070768037333324 -0.003640872944542648 0.00045719032034612165 0.005771766809087619 0.9964998303700526 -0.02815847404600232 0.003104410258233392 0.011396364745579958
0.043768236765320004 0.0033935544113930433 0.013374614027063348 0.9961163196427527 -0.03290148188202547 0.0005687499214796337 0.006735214286796722 -0.0004972632373188518 -0.004252198534016259
 0.9961163196427527 -0.03290148188202547 0.0033946574833045077 0.01337449231847904 -0.0004973380160246608 -0.004252199765624589 0.0005620996138744231 0.0067360284394849925
 0.0005687499214796337 0.006735214286796722 -0.0004973380160246608 -0.004252199765624589 0.0033935632820472073 0.013375191720078823 0.996116333459731 -0.03290089581445198
 -0.0004972632373188518 -0.004252198534016259 0.0005620996138744231 0.0067360284394849925 0.996116333459731 -0.03290089581445198 0.0033946739817397893 0.013375074538955537
0.050020842017509996 0.0037046296428767337 0.015372988831789433 0.9957039810071422 -0.0376595539894267 0.0006875041974886276 0.007699568115117877 -0.000597458334962088 -0.004864230031245221
 0.9957039810071422 -0.0376595539894267 0.0037060697603743284 0.015372839686971902 -0.0005975556466189993 -0.0048642301556042255 0.0006788179254092844 0.007700631816384683
 0.0006875041974886276 0.007699568115117877 -0.0005975556466189993 -0.0048642301556042255 0.003704640891387545 0.015373646926385523 0.9957039987975826 -0.03765888374084714
 -0.000597458334962088 -0.004864230031245221 0.0006788179254092844 0.007700631816384683 0.9957039987975826 -0.03765888374084714 0.0037060907588788833 0.01537350382226614
0.055454545454549996 0.0039924194862503235 0.017125238538517558 0.9953219293997158 -0.04180706300927179 0.0008006027901152199 0.008537732392522162 -0.0006927489385750871 -0.005396529903079592
 0.9953219293997158 -0.04180706300927179 0.0039941889086323465 0.017125063167415192 -0.0006928681796284794 -0.005396528704390591 0.0007899259323177226 0.008539049412300444
 0.0008006027901152199 0.008537732392522162 -0.0006928681796284794 -0.005396528704390591 0.0039924330115459735 0.01712596589940075 0.9953219510723704 -0.04180631940904613
 -0.0006927489385750871 -0.005396529903079592 0.0007899259323177226 0.008539049412300444 0.9953219510723704 -0.04180631940904613 0.003994214197344808 0.01712579809342173
0.056273447269699996 0.004037216748152139 0.01739055262031167 0.9952624221719188 -0.04243313670070273 0.0008184504668395739 0.008664051613055756 -0.0007077775724423986 -0.005476777727686474
 0.9952624221719188 -0.04243313670070273 0.00403903873534027 0.017390373098220134 -0.0007079003067420279 -0.005476776298676807 0.0008074557550405601 0.008665409924244229
 0.0008184504668395739 0.008664051613055756 -0.0007079003067420279 -0.005476776298676807 0.0040372306331175455 0.017391290367014083 0.9952624444648701 -0.04243238202933709
 -0.0007077775724423986 -0.005476777727686474 0.0008074557550405601 0.008665409924244229 0.9952624444648701 -0.04243238202933709 0.004039064700184047 0.017391118657295902
0.06252605252188 0.004391715850406156 0.019426817427553162 0.9947912618479051 -0.047222111922911376 0.0009616966755900835 0.009628485915282559 -0.0008283330613658707 -0.006089651176998738
 0.9947912618479051 -0.047222111922911376 0.004393964549452598 0.0194266044424761 -0.000828484085566798 -0.006089647706526474 0.0009481207126610222 0.009630187916904672
 0.0009616966755900835 0.009628485915282559 -0.000828484085566798 -0.006089647706526474 0.00439173261948254 0.01942763400041333 0.9947912891865981 -0.047221272547640615
 -0.0008283330613658707 -0.006089651176998738 0.0009481207126610222 0.009630187916904672 0.9947912891865981 -0.047221272547640615 0.004393995921611077 0.019427430872275428
0.06877865777407 0.0047685232421072485 0.021481324645150002 0.9942901199817016 -0.052026315592745884 0.0011173476480588885 0.010592685406751052 -0.000959233460157187 -0.006702658141455841
 0.9942901199817016 -0.052026315592745884 0.004771243524279784 0.021481074964864816 -0.0009594156190859909 -0.006702652099424546 0.0011009173238563515 0.010594784240699276
 0.0011173476480588885 0.010592685406751052 -0.0009594156190859909 -0.006702652099424546 0.004768543128157143 0.021482219137170546 0.9942901529234457 -0.0520253911977034
 -0.000959233460157187 -0.006702658141455841 0.0011009173238563515 0.010594784240699276 0.9942901529234457 -0.0520253911977034 0.004771280716616947 0.021481981645928218
0.07503126302626001 0.005168031433660238 0.023553634620447933 0.993758618228327 -0.056845548042197 0.0012855048998498993 0.011556458449438074 -0.001100583868161769 -0.007315603944283323
 0.993758618228327 -0.056845548042197 0.005171268209950403 0.02355334486396738 -0.0011007999840528975 -0.0073155947585715865 0.0012659468499362366 0.011559011360614331
 0.0012855048998498993 0.011556458449438074 -0.0011007999840528975 -0.0073155947585715865 0.005168054653833509 0.0235546060470576 0.9937586573479675 -0.05684453827329041
 -0.001100583868161769 -0.007315603944283323 0.0012659468499362366 0.011559011360614331 0.9937586573479675 -0.05684453827329041 0.005171311607508613 0.02355433111401208
0.08128386827845 0.005590629126166422 0.025643319747525567 0.9931963803543814 -0.061679580882423445 0.0014662664624668835 0.012519607879220355 -0.0012524857073666434 -0.007928291061431532
 0.9931963803543814 -0.061679580882423445 0.005594427358360809 0.025642986382431922 -0.001252738579741446 -0.007928278117889632 0.0014433071182282692 0.01252267625647879
 0.0014662664624668835 0.012519607879220355 -0.001252738579741446 -0.007928278117889632 0.005590655878904405 0.025644367046411133 0.9931964262444049 -0.06167848534769549
 -0.0012524857073666434 -0.007928291061431532 0.0014433071182282692 0.01252267625647879 0.9931964262444049 -0.06167848534769549 0.00559447731564942 0.02564405145631632
0.08753647353064001 0.006036701130832231 0.02774995971081071 0.9926030325910459 -0.06652816174594829 0.00165972671367321 0.013481931372803305 -0.0014150365980313113 -0.008540518853115115
 0.9926030325910459 -0.06652816174594829 0.006041105841911932 0.02774957905006525 -0.0014153290033149448 -0.008540501495572325 0.0016330923569996372 0.013485580788996698
 0.00165972671367321 0.013481931372803305 -0.0014153290033149448 -0.008540501495572325 0.006036731593636243 0.027751081737628573 0.9926030858636087 -0.06652698002013667
 -0.0014150365980313113 -0.008540518853115115 0.0016330923569996372 0.013485580788996698 0.9926030858636087 -0.06652698002013667 0.006041162682545429 0.027750722135552
0.09378907878283 0.006506628253554676 0.029873138077754376 0.9919782039576567 -0.07139101769123406 0.0018659762141433843 0.014443221725785289 -0.0015883302275701628 -0.009152083394324514
 0.9919782039576567 -0.07139101769123406 0.00651168453857154 0.029872706276040065 -0.0015886649188432448 -0.009152060924594314 0.0018353930358717147 0.014447521976861433
 0.0018659762141433843 0.014443221725785289 -0.0015886649188432448 -0.009152060924594314 0.006506662580677759 0.02987433361043025 0.9919782652462261 -0.0713897493117529
 -0.0015883302275701628 -0.009152083394324514 0.0018353930358717147 0.014447521976861433 0.9919782652462261 -0.0713897493117529 0.006511748553094 0.029873926498285696
0.100041684035 0.00700078715258533 0.032012439825361776 0.9913215265622731 -0.0762678576851406 0.0020851015465476242 0.015403267074830317 -0.0017724562168946855 -0.009762777371439517
 0.9913215265622731 -0.0762678576851406 0.007006540189231347 0.032011952875030086 -0.0017728359234602028 -0.009762749049364848 0.002050295708421306 0.015408292217941802
 0.0020851015465476242 0.015403267074830317 -0.0017728359234602028 -0.009762749049364848 0.0070008254726503264 0.03201370756300003 0.9913215965234405 -0.07626650215378464
 -0.0017724562168946855 -0.009762777371439517 0.002050295708421306 0.015408292217941802 0.9913215965234405 -0.07626650215378464 0.007006611634290069 0.03201324929534589
0.1059090909091 0.007486873147126791 0.034034241572282874 0.9906760136245154 -0.08085669961230539 0.0023025113556149573 0.016302842841826717 -0.0019551669869217565 -0.010334869429309943
 0.9906760136245154 -0.08085669961230539 0.007493321182873835 0.03403369907721845 -0.0019555913962673232 -0.010334834904912285 0.002263493977266866 0.016308619401662675
 0.0023025113556149573 0.016302842841826717 -0.0019555913962673232 -0.010334834904912285 0.007486915305971158 0.03403557581296567 0.99067609234263 -0.08085526181405606
 -0.0019551669869217565 -0.010334869429309943 0.002263493977266866 0.016308619401662675 0.99067609234263 -0.08085526181405606 0.007493399802311706 0.03403506609057874
0.1062942892872 0.0075195501783849325 0.0341674494910064 0.9906326358882308 -0.08115837447327974 0.0023171851579956463 0.01636185108606445 -0.001967499983659656 -0.010372390023238252
 0.9906326358882308 -0.08115837447327974 0.007526045237676351 0.03416690321740828 -0.001967927410624641 -0.010372355066726666 0.002277882857531862 0.016367679476468104
 0.0023171851579956463 0.01636185108606445 -0.001967927410624641 -0.010372355066726666 0.007519592591730561 0.034168788052435485 0.99063271520267 -0.08115693125819606
 -0.001967499983659656 -0.010372390023238252 0.002277882857531862 0.016367679476468104 0.99063271520267 -0.08115693125819606 0.007526124334028297 0.0341682748319686
0.11254689453939999 0.008063285198056555 0.03633774976228385 0.989911171068595 -0.08606224602389095 0.002562305204739271 0.01731875311900107 -0.002173542603699372 -0.01098070711692053
 0.989911171068595 -0.08606224602389095 0.008070567655077368 0.03633713981866113 -0.002174020431588245 -0.010980664702003137 0.0025182327427338523 0.017325467445821672
 0.002562305204739271 0.01731875311900107 -0.002174020431588245 -0.010980664702003137 0.008063331774728195 0.03633915769099187 0.9899112604433218 -0.08606071455538374
 -0.002173542603699372 -0.01098070711692053 0.0025182327427338523 0.017325467445821672 0.9899112604433218 -0.08606071455538374 0.008070654586516368 0.036338585563412726
0.11879949979160001 0.008632355409069797 0.038522920403490056 0.989156775152665 -0.09097913664777998 0.0028205353984547357 0.01827374837413914 -0.0023906606718059956 -0.011587510951253984
 0.989156775152665 -0.09097913664777998 0.00864047075351802 0.03852224226530189 -0.002391191556003635 -0.011587460212153514 0.002771419249100403 0.018281435694873935
 0.0028205353984547357 0.01827374837413914 -0.002391191556003635 -0.011587460212153514 0.008632406186025577 0.038524396161552656 0.9891568753224886 -0.09097751632528644
 -0.0023906606718059956 -0.011587510951253984 0.002771419249100403 0.018281435694873935 0.9891568753224886 -0.09097751632528644 0.008640565665355555 0.038523761009834484
0.1250521050438 0.009227119144575274 0.040722537407060305 0.9883690953675659 -0.09590869790655195 0.003091944854920128 0.01922660803222458 -0.00261892616146212 -0.012192580379076164
 0.9883690953675659 -0.09590869790655195 0.009236112991638451 0.04072178636581798 -0.0026195127317954195 -0.01219252040830398 0.0030375117379064006 0.01923535980588118
 0.003091944854920128 0.01922660803222458 -0.0026195127317954195 -0.01219252040830398 0.009227174123305306 0.040724079381711256 0.9883692070966004 -0.09590698809300297
 -0.00261892616146212 -0.012192580379076164 0.0030375117379064006 0.01923535980588118 0.9883692070966004 -0.09590698809300297 0.009236215988808366 0.040723376919872066
0.131304710296 0.009847929671424588 0.04293617233959892 0.987547783373244 -0.10085056933938112 0.0033765979439123995 0.020177099385098284 -0.0028584062848684404 -0.012795690849185692
 0.987547783373244 -0.10085056933938112 0.009857847771952989 0.04293534349616754 -0.002859051144985546 -0.01279562069764127 0.003316574898965229 0.020187011503967824
 0.0033765979439123995 0.020177099385098284 -0.002859051144985546 -0.01279562069764127 0.009847988815362096 0.04293777883909576 0.9875479074568668 -0.1008487693664716
 -0.0028584062848684404 -0.012795690849185692 0.003316574898965229 0.020187011503967824 0.9875479074568668 -0.1008487693664716 0.00985795891802819 0.042937004605414
0.1375573155481 0.010360985796655236 0.04487542535106208 0.9868267131347287 -0.1055162398104598 0.003641285062528439 0.021097295901706052 -0.003075966483853589 -0.013368894994436557
 0.9868267131347287 -0.1055162398104598 0.010371876058899884 0.04487453116202981 -0.0030766732658388004 -0.013368814475010739 0.003575533946722522 0.021108362359400945
 0.003641285062528439 0.021097295901706052 -0.0030766732658388004 -0.013368814475010739 0.010361048128825143 0.04487709546643111 0.9868268501697481 -0.10551434925283355
 -0.003075966483853589 -0.013368894994436557 0.003575533946722522 0.021108362359400945 0.9868268501697481 -0.10551434925283355 0.01037199670096949 0.04487626114674051
0.1438099208003 0.010892323300162775 0.04680289693009629 0.9860797998185111 -0.11016848776062566 0.0039166131219616155 0.022012740030486474 -0.003302157782322619 -0.01393777218744865
 0.9860797998185111 -0.11016848776062566 0.010904231932384639 0.0468019334873816 -0.003302929237810286 -0.013937680364829046 0.0038448857229190095 0.022025049352352586
 0.0039166131219616155 0.022012740030486474 -0.003302929237810286 -0.013937680364829046 0.010892388558479332 0.04680462896330813 0.986079950604373 -0.11016650595858758
 -0.003302157782322619 -0.01393777218744865 0.0038448857229190095 0.022025049352352586 0.986079950604373 -0.11016650595858758 0.010904362306659986 0.046803730960763776
0.1500625260525 0.011441730087595279 0.04871837954782646 0.9853072605731128 -0.1148071498895067 0.004202470747567803 0.022923305205389797 -0.0035368725615605176 -0.014502205328280305
 0.9853072605731128 -0.1148071498895067 0.011454703426167149 0.048717342705043215 -0.0035377114296285326 -0.014502101230317442 0.004124520704288353 0.02293694913859758
 0.004202470747567803 0.022923305205389797 -0.0035377114296285326 -0.014502101230317442 0.011441797961740498 0.048720171737625065 0.9853074259357719 -0.1148050761610374
 -0.0035368725615605176 -0.014502205328280305 0.004124520704288353 0.02293694913859758 0.9853074259357719 -0.1148050761610374 0.011454843743348547 0.0487192062232803
0.15631513130469998 0.012008992259016462 0.050621671881371864 0.9845093139834814 -0.1194320645651945 0.004498745064517208 0.023828867383414186 -0.0037800017170986386 -0.015062080113549658
 0.9845093139834814 -0.1194320645651945 0.012023076771283973 0.050620557247152864 -0.003780910723903319 -0.015061962731596696 0.004414327901106458 0.023843940856655806
