! Created with skrf 1.8.0 (http://scikit-rf.org).
# GHz S RI R 50.0 
!freq ReS11 ImS11 ReS12 ImS12 ReS13 ImS13
! ReS14 ImS14
! ReS21 ImS21 ReS22 ImS22 ReS23 ImS23
! ReS24 ImS24
! ReS31 ImS31 ReS32 ImS32 ReS33 ImS33
! ReS34 ImS34
! ReS41 ImS41 ReS42 ImS42 ReS43 ImS43
! ReS44 ImS44
!
0.0 0.001485007090777 0.0 0.9985149929064 0.0 5.719139540727e-05 0.0 -5.719139451911e-05 7.003925823660155e-21
 0.9985149929064 0.0 0.001485007090781 0.0 -5.719139451894e-05 7.003925823639335e-21 5.719139540716e-05 0.0
 5.719139540727e-05 0.0 -5.719139451894e-05 7.003925823639335e-21 0.001485007089335 0.0 0.998514992905 0.0
 -5.719139451911e-05 7.003925823660155e-21 5.719139540716e-05 0.0 0.998514992905 0.0 0.001485007089351 0.0
0.005 0.0015975799691123084 0.0012148496818844066 0.9983726005535049 -0.0031108648188507377 8.005860306993923e-05 0.0006312014825063798 -7.776016677174243e-05 -0.00039604185381482215
 0.9983726005535049 -0.0031108648188507377 0.001597591884125897 0.0012148427804961437 -7.775788263631982e-05 -0.0003960401987162435 8.000078492523114e-05 0.0006312236793940795
 8.005860306993923e-05 0.0006312014825063798 -7.775788263631982e-05 -0.0003960401987162435 0.0015975802923686101 0.0012147822899022517 0.9983726002070407 -0.003110931880958469
 -7.776016677174243e-05 -0.00039604185381482215 8.000078492523114e-05 0.0006312236793940795 0.9983726002070407 -0.003110931880958469 0.0015975908702588121 0.0012147760493654573
0.006252605252188 0.0016270544334002321 0.0015233485239582543 0.9983350906138271 -0.0038893495711909455 8.656389715851959e-05 0.0007893102824351488 -8.354390920474498e-05 -0.0004955674017068546
 0.9983350906138271 -0.0038893495711909455 0.001627073057774801 0.0015233397198070311 -8.354035410208525e-05 -0.0004955653629503777 8.647356354648926e-05 0.0007893390688856095
 8.656389715851959e-05 0.0007893102824351488 -8.354035410208525e-05 -0.0004955653629503777 0.001627055004793141 0.0015232642967369571 0.998335090138761 -0.0038894333943925064
 -8.354390920474498e-05 -0.0004955674017068546 8.647356354648926e-05 0.0007893390688856095 0.998335090138761 -0.0038894333943925064 0.0016270715398138597 0.0015232563033579392
0.01250521050438 0.0017819235862071483 0.0030786855565264736 0.9981367319686875 -0.0077795529733299135 0.00012372357523527977 0.001578994714355248 -0.00011623344250223332 -0.0009935692138923376
 0.9981367319686875 -0.0077795529733299135 0.0017819979396698376 0.0030786661435605557 -0.00011621942210013571 -0.0009935654668166492 0.00012336340674317395 0.0015790635074263255
 0.00012372357523527977 0.001578994714355248 -0.00011621942210013571 -0.0009935654668166492 0.0017819264163342805 0.0030785174367492837 0.9981367306284754 -0.007779720369313935
 -0.00011623344250223332 -0.0009935692138923376 0.00012336340674317395 0.0015790635074263255 0.9981367306284754 -0.007779720369313935 0.0017819924449981582 0.003078499499529642
0.01875781575657 0.0019499432599205638 0.004656244291371189 0.9979196771339766 -0.011680088655817822 0.00016875496687126314 0.0023695891534772037 -0.0001553585632805505 -0.0014932935389725852
 0.9979196771339766 -0.011680088655817822 0.0019501103090106473 0.0046562123094784965 -0.00015532728303461495 -0.0014932884792545611 0.0001679460277920352 0.0023697113487336306
 0.00016875496687126314 0.0023695891534772037 -0.00015532728303461495 -0.0014932884792545611 0.001949950018290968 0.004655992461011188 0.9979196745372473 -0.011680339528270358
 -0.0001553585632805505 -0.0014932935389725852 0.0001679460277920352 0.0023697113487336306 0.9979196745372473 -0.011680339528270358 0.001950098397315805 0.004655962494448949
0.02501042100875 0.00213143297973949 0.006253826896466597 0.9976836770781523 -0.01559285655732691 0.00022174394875051773 0.0031611329426785625 -0.0002010148523499608 -0.0019945198474877785
 0.9976836770781523 -0.01559285655732691 0.002131729598825873 0.006253780240023592 -0.00020095959403983903 -0.0019945139426611517 0.00022030731255917203 0.0031613240221844262
 0.00022174394875051773 0.0031611329426785625 -0.00020095959403983903 -0.0019945139426611517 0.0021314453293445595 0.006253491500668728 0.9976836728395396 -0.015593190849821172
 -0.0002010148523499608 -0.0019945198474877785 0.00022030731255917203 0.0031613240221844262 0.9976836728395396 -0.015593190849821172 0.0021317088516256484 0.0062534472911326185
0.03126302626094 0.0023266990323638644 0.007870307086100477 0.9974284697190059 -0.0195186755055979 0.00028277697216973023 0.003953592752004025 -0.0002532953264850229 -0.0024970951031030512
 0.9974284697190059 -0.0195186755055979 0.002327162021831583 0.007870243505131358 -0.0002532094351751558 -0.0024970888934526983 0.0002805335466627791 0.0039538702936021955
 0.00028277697216973023 0.003953592752004025 -0.0002532094351751558 -0.0024970888934526983 0.002326718624811273 0.007869888255108011 0.9974284634521146 -0.019519093179966605
 -0.0002532953264850229 -0.0024970951031030512 0.0002805335466627791 0.0039538702936021955 0.9974284634521146 -0.019519093179966605 0.0023271300342128346 0.00786982746174758
0.037515631513130004 0.00253604115035833 0.009504954100520185 0.9971537868008997 -0.023457959177728596 0.0003519402046536043 0.004746906617458868 -0.0003122911114565557 -0.0030008897190733656
 0.9971537868008997 -0.023457959177728596 0.002536707247808312 0.009504871201037143 -0.00031216798886903036 -0.003000883817987049 0.00034871065171018046 0.004747290314186786
 0.0003519402046536043 0.004746906617458868 -0.00031216798886903036 -0.003000883817987049 0.0025360696265786936 0.009504451958708339 0.9971537781179015 -0.023458460205264813
 -0.0003122911114565557 -0.0030008897190733656 0.00034871065171018046 0.004747290314186786 0.9971537781179015 -0.023458460205264813 0.0025366616275148066 0.009504372113576241
0.043768236765320004 0.00275975510238057 0.011157226972080636 0.9968593566802483 -0.02741092176535875 0.0004293191307196613 0.005540997330511986 -0.0003780916836882441 -0.0035057841653051026
 0.9968593566802483 -0.02741092176535875 0.0027606609918028133 0.01115712221597883 -0.000377924784415402 -0.0035057792594533534 0.00042492382615291486 0.00554150901324289
 0.0004293191307196613 0.005540997330511986 -0.000377924784415402 -0.0035057792594533534 0.002759794096261898 0.011156641632621643 0.9968593451944083 -0.027411506132236196
 -0.0003780916836882441 -0.0035057841653051026 0.00042492382615291486 0.00554150901324289 0.9968593451944083 -0.027411506132236196 0.002760599361083254 0.011156540140751075
0.050020842017509996 0.002998133896315211 0.012826689507515737 0.9965449057273328 -0.03137766292155308 0.0005149983138097937 0.006335777965947312 -0.0004507849590846267 -0.004011663438974241
 0.9965449057273328 -0.03137766292155308 0.0029993162146468235 0.012826560212297673 -0.00045056778812429025 -0.004011660288435529 0.000509257328759271 0.0063364416273301175
 0.0005149983138097937 0.006335777965947312 -0.00045056778812429025 -0.004011660288435529 0.0029981850321509555 0.012826021085619114 0.9965448910500325 -0.03137833061571493
 -0.0004507849590846267 -0.004011663438974241 0.000509257328759271 0.0063364416273301175 0.9965448910500325 -0.03137833061571493 0.0029992362071619015 0.012825895224713984
0.055454545454549996 0.0032174278868961916 0.014291172214235478 0.9962551655580564 -0.03483609323296789 0.0005962618040582147 0.007026953917935681 -0.0005196224591967974 -0.004451999734342116
 0.9962551655580564 -0.03483609323296789 0.0032188801525878906 0.014291019302727382 -0.0005193563639219601 -0.004451998783573194 0.0005892050163328017 0.007027770835794492
 0.0005962618040582147 0.007026953917935681 -0.0005193563639219601 -0.004451998783573194 0.003217490888235499 0.014290431679317313 0.9962551477911951 -0.03483683333971477
 -0.0005196224591967974 -0.004451999734342116 0.0005892050163328017 0.007027770835794492 0.9962551477911951 -0.03483683333971477 0.0032187822631551165 0.01429028233108381
0.056273447269699996 0.003251468399828738 0.014512968549659026 0.9962101591496503 -0.03535820942903358 0.0006090612287272674 0.00713115459528461 -0.0005304573142547249 -0.004518414352122015
 0.9962101591496503 -0.03535820942903358 0.003252963743791764 0.014512811887907658 -0.0005301834255472435 -0.004518413790463238 0.0006017943235985724 0.00713199641435405
 0.0006090612287272674 0.00713115459528461 -0.0005301834255472435 -0.004518413790463238 0.003251533294815412 0.014512217155634277 0.9962101408913734 -0.035358960447189766
 -0.0005304573142547249 -0.004518414352122015 0.0006017943235985724 0.00713199641435405 0.9962101408913734 -0.035358960447189766 0.003252863005542024 0.01451206407585331
0.06252605252188 0.003520047674479078 0.0162157310447298 0.9958548415313538 -0.03935253806504084 0.0007115901284804102 0.00792702778047883 -0.0006171935737254478 -0.005025924042064861
 0.9958548415313538 -0.03935253806504084 0.003521892606185318 0.016215544043423163 -0.0006168565691128002 -0.005025926976407356 0.0007026167557257565 0.007928076147499945
 0.0007115901284804102 0.00792702778047883 -0.0006168565691128002 -0.005025926976407356 0.0035201279394027948 0.01621489678319884 0.9958548193022866 -0.03935337241343603
 -0.0006171935737254478 -0.005025924042064861 0.0007026167557257565 0.007928076147499945 0.9958548193022866 -0.03935337241343603 0.003521768795791687 0.0162147135066265
0.06877865777407 0.003804159156981258 0.01793467035285383 0.9954786772246772 -0.043360589225716055 0.0008226659323845488 0.008723293463381547 -0.0007110769758413855 -0.005534079089355996
 0.9954786772246772 -0.043360589225716055 0.003806390209398647 0.017934449892591835 -0.0007106705044917181 -0.005534086500439934 0.0008118052448347351 0.008724579004822623
 0.0008226659323845488 0.008723293463381547 -0.0007106705044917181 -0.005534086500439934 0.0038042563953254943 0.017933753334418642 0.995478650632537 -0.04336150690848345
 -0.0007110769758413855 -0.005534079089355996 0.0008118052448347351 0.008724579004822623 0.995478650632537 -0.04336150690848345 0.003806240996177538 0.017933536754510315
0.07503126302626001 0.004104088744047738 0.019669497578168927 0.9950813906475825 -0.04738227553450661 0.0009423681243428751 0.009519843530232788 -0.0008121891273709962 -0.006042764964390945
 0.9950813906475825 -0.04738227553450661 0.004106742426682675 0.019669240392130756 -0.0008117068854378597 -0.0060427779066030505 0.0009294389883550446 0.009521399133672115
 0.0009423681243428751 0.009519843530232788 -0.0008117068854378597 -0.0060427779066030505 0.004104204554433341 0.019668497907624226 0.9950813592996723 -0.04738327656548961
 -0.0008121891273709962 -0.006042764964390945 0.0009294389883550446 0.009521399133672115 0.9950813592996723 -0.04738327656548961 0.0041065654924203185 0.019668244788442507
0.08128386827845 0.004420120823798742 0.021419935802047617 0.99466270653138 -0.0514174875513137 0.001070774658914648 0.010316566195911116 -0.0009206099497688353 -0.006551865657986137
 0.99466270653138 -0.0514174875513137 0.004423233627155008 0.021419638474937424 -0.0009200456801982589 -0.0065518852594017764 0.001055595670465663 0.010318427034866809
 0.001070774658914648 0.010316566195911116 -0.0009200456801982589 -0.0065518852594017764 0.004420256798720882 0.021418853581374794 0.9946626700327698 -0.05141857195103693
 -0.0009206099497688353 -0.006551865657986137 0.001055595670465663 0.010318427034866809 0.9946626700327698 -0.05141857195103693 0.0044230266646207855 0.02141856055672595
0.08753647353064001 0.004752538265279746 0.023185716085935015 0.9942223501305222 -0.05546609771616581 0.001207961871353953 0.011113346266854571 -0.0010364176197839188 -0.007061263437311404
 0.9942223501305222 -0.05546609771616581 0.004756146666615245 0.023185375052619736 -0.001035765112428812 -0.007061290899698798 0.0011903513754630887 0.011115549825403125
 0.001207961871353953 0.011113346266854571 -0.001035765112428812 -0.007061290899698798 0.004752695992831893 0.02318455141746055 0.9942223080848033 -0.055467265508670344
 -0.0010364176197839188 -0.007061263437311404 0.0011903513754630887 0.011115549825403125 0.9942223080848033 -0.055467265508670344 0.004755907379912402 0.02318421498988363
0.09378907878283 0.005101622383833869 0.024966574624463767 0.9937600474108574 -0.059527963147153536 0.0013540043911464898 0.011910065339245345 -0.0011596885061438337 -0.00757083867062003
 0.9937600474108574 -0.059527963147153536 0.005105762851699956 0.024966186168495566 -0.0011589415978238136 -0.007570875269455235 0.0013337805031990192 0.01191265143643827
 0.0013540043911464898 0.011910065339245345 -0.0011589415978238136 -0.007570875269455235 0.005101803447198308 0.024965327610171655 0.9937599994192364 -0.05952921436057814
 -0.0011596885061438337 -0.00757083867062003 0.0013337805031990192 0.01191265143643827 0.9937599994192364 -0.05952921436057814 0.005105488955869407 0.024964944149720395
0.100041684035 0.005467652885465225 0.026762250652836595 0.9932755252207088 -0.06360292768865951 0.0015089750572239737 0.012706601945413355 -0.001290497103044895 -0.008080469708001716
 0.9932755252207088 -0.06360292768865951 0.005472361885275118 0.026761810904795034 -0.0012896496778761492 -0.008080516792447775 0.0014859556864699917 0.01270961275943534
 0.0015089750572239737 0.012706601945413355 -0.0012896496778761492 -0.008080516792447775 0.005467858864208709 0.026760921394103736 0.9932754708820115 -0.06360426235551411
 -0.001290497103044895 -0.008080469708001716 0.0014859556864699917 0.01270961275943534 0.9932754708820115 -0.06360426235551411 0.005472051106251999 0.026760487137019496
0.1059090909091 0.005826793926410136 0.028460547504235004 0.992800401766026 -0.06743861378986413 0.0016625818815494571 0.013453790325029179 -0.0014201672154890233 -0.008558644928974207
 0.992800401766026 -0.06743861378986413 0.005832069599038647 0.028460055966989233 -0.0014192199459427434 -0.008558703145729858 0.0016367734754927368 0.013457240173771397
 0.0016625818815494571 0.013453790325029179 -0.0014192199459427434 -0.008558703145729858 0.005827024718918101 0.028459141157662283 0.9928003411043745 -0.06744002680404318
 -0.0014201672154890233 -0.008558644928974207 0.0016367734754927368 0.013457240173771397 0.9928003411043745 -0.06744002680404318 0.005831722150567015 0.02845865568972553
0.1062942892872 0.005850907798756454 0.0285724848780335 0.9927685114513272 -0.06769082344072823 0.001672944835128293 0.013502831667939896 -0.0014289159611130333 -0.008590032798787733
 0.9927685114513272 -0.06769082344072823 0.005856221797097575 0.028571989813740803 -0.0014279619507520827 -0.00859009179168 0.0016469477096882333 0.013506311759929316
 0.001672944835128293 0.013502831667939896 -0.0014279619507520827 -0.00859009179168 0.00585114026869853 0.028571073473741593 0.9927684503620995 -0.06769224159961923
 -0.0014289159611130333 -0.008590032798787733 0.0016469477096882333 0.013506311759929316 0.9927684503620995 -0.06769224159961923 0.005855871871753634 0.028570584520957294
0.11254689453939999 0.006251663394807191 0.030397018275766928 0.9922387351899972 -0.07179147192762513 0.0018459827339493287 0.014298627238161369 -0.0015750156173479448 -0.009099402029001483
 0.9922387351899972 -0.07179147192762513 0.0062576188649329555 0.030396463714234885 -0.001573949001427621 -0.009099474426803299 0.0018168254275623304 0.014302623575730497
 0.0018459827339493287 0.014298627238161369 -0.001573949001427621 -0.009099474426803299 0.006251923928908898 0.03039552482363539 0.9922386669440897 -0.07179297362191739
 -0.0015750156173479448 -0.009099402029001483 0.0018168254275623304 0.014302623575730497 0.9922386669440897 -0.07179297362191739 0.006257227540978621 0.030394977139085396
0.11879949979160001 0.0066701940992984834 0.032235591156791886 0.9916859268670192 -0.07590468500247281 0.00202815572535636 0.015093858612828697 -0.0017288645225180227 -0.009608449285182223
 0.9916859268670192 -0.07590468500247281 0.006676827525874269 0.03223497275802114 -0.0017276793290936904 -0.009608536657935452 0.001995655685303406 0.015098420593229018
 0.00202815572535636 0.015093858612828697 -0.0017276793290936904 -0.009608536657935452 0.00667048426804567 0.032234015754426644 0.9916858510554948 -0.07590627027903779
 -0.0017288645225180227 -0.009608449285182223 0.001995655685303406 0.015098420593229018 0.9916858510554948 -0.07590627027903779 0.006676392561766645 0.03223340516322542
0.1250521050438 0.007106772397950914 0.03408794242982652 0.9911098183987831 -0.08003026556043748 0.0022195286618784216 0.015888393045446612 -0.0018905289683910447 -0.010117044228261329
 0.9911098183987831 -0.08003026556043748 0.007114120282042823 0.03408725569243746 -0.0018892192744437675 -0.010117148219517464 0.0021835032383290347 0.015893572518285583
 0.0022195286618784216 0.015888393045446612 -0.0018892192744437675 -0.010117148219517464 0.00710709376961816 0.03408628517343631 0.9911097346094515 -0.08003193447084148
 -0.0018905289683910447 -0.010117044228261329 0.0021835032383290347 0.015893572518285583 0.9911097346094515 -0.08003193447084148 0.007113639446860346 0.034085607359816764
0.131304710296 0.007561668735721342 0.03595380901281073 0.9905101433281371 -0.08416800810933975 0.0024201641965191432 0.016682095148475636 -0.002060073013313492 -0.010625054281227361
 0.9905101433281371 -0.08416800810933975 0.007569767599948581 0.03595304927140334 -0.002058632945299889 -0.01062517660794831 0.0023804306729364247 0.016687946438055774
 0.0024201641965191432 0.016682095148475636 -0.002058632945299889 -0.01062517660794831 0.007562022877003647 0.03595206999612183 0.9905100511454901 -0.08416976071076139
 -0.002060073013313492 -0.010625054281227361 0.0023804306729364247 0.016687946438055774 0.9905100511454901 -0.08416976071076139 0.007569238673261664 0.03595132050124765
0.1375573155481 0.007929426819207967 0.037589582496269335 0.989992398898635 -0.08807425998299216 0.0026045671746695327 0.017450363155151256 -0.0022120503916415383 -0.011107864631510053
 0.989992398898635 -0.08807425998299216 0.0079383169948623 0.03758876245220769 -0.002210471551109776 -0.011108005410560314 0.0025610271300852854 0.017456877045477697
 0.0026045671746695327 0.017450363155151256 -0.002210471551109776 -0.011108005410560314 0.007929816325236915 0.037587761101776765 0.989992297942898 -0.08807609627618518
 -0.0022120503916415383 -0.011107864631510053 0.0025610271300852854 0.017456877045477697 0.989992297942898 -0.08807609627618518 0.007937736660942683 0.037586954159295013
0.1438099208003 0.008310080845162464 0.03921697062277615 0.9894565251971896 -0.09197084367637531 0.0027964281452116948 0.01821565637501941 -0.002370114413411071 -0.011587954036763125
 0.9894565251971896 -0.09197084367637531 0.008319799498629774 0.03921608678472954 -0.002368390542891684 -0.011588114946002035 0.002748914014029457 0.018222882575505084
 0.0027964281452116948 0.01821565637501941 -0.002368390542891684 -0.011588114946002035 0.008310507466774395 0.03921506686954998 0.9894564150561357 -0.09197276370971902
 -0.002370114413411071 -0.011587954036763125 0.002748914014029457 0.018222882575505084 0.9894564150561357 -0.09197276370971902 0.00831916535240735 0.039214199349431364
0.1500625260525 0.008703500026331176 0.04083584417743982 0.9889026568621838 -0.09585766933911641 0.002995683455859391 0.018977901163617895 -0.00253420337813607 -0.012065252804963348
 0.9889026568621838 -0.09585766933911641 0.008714084375244386 0.040834892872827204 -0.00253232823703281 -0.012065435589018585 0.0029440285850723547 0.018985891208835905
 0.002995683455859391 0.018977901163617895 -0.00253232823703281 -0.012065435589018585 0.008703965524989522 0.04083385807938909 0.9889025371209774 -0.09585967316521479
 -0.00253420337813607 -0.012065252804963348 0.0029440285850723547 0.018985891208835905 0.9889025371209774 -0.09585967316521479 0.008713394008413899 0.0408329266907707
0.15631513130469998 0.009109552686849117 0.04244607787125902 0.988330929170999 -0.09973464729841654 0.003202268728551068 0.019737025084359414 -0.002704254848389671 -0.012539692684365082
