! Created with skrf 1.8.0 (http://scikit-rf.org).
# GHz S RI R 50.0 
!freq ReS11 ImS11 ReS12 ImS12 ReS13 ImS13
! ReS14 ImS14
! ReS21 ImS21 ReS22 ImS22 ReS23 ImS23
! ReS24 ImS24
! ReS31 ImS31 ReS32 ImS32 ReS33 ImS33
! ReS34 ImS34
! ReS41 ImS41 ReS42 ImS42 ReS43 ImS43
! ReS44 ImS44
!
0.0 0.001339690220861 0.0 0.9986603097644 0.0 5.125926366794e-05 0.0 -5.12592644512e-05 6.277449413680978e-21
 0.9986603097644 0.0 0.001339690220844 0.0 -5.125926445035e-05 6.277449413576883e-21 5.125926366819e-05 0.0
 5.125926366794e-05 0.0 -5.125926445035e-05 6.277449413576883e-21 0.001339690228194 0.0 0.9986603097718 0.0
 -5.12592644512e-05 6.277449413680978e-21 5.125926366819e-05 0.0 0.9986603097718 0.0 0.001339690228218 0.0
0.005 0.0014408697746681504 0.0010976880929640166 0.9985324073688988 -0.0028068830809757496 7.124766382305745e-05 0.0005566527280848292 -6.935102689961866e-05 -0.0003509018688874887
 0.9985324073688988 -0.0028068830809757496 0.0014408554322502287 0.0010976964924010247 -6.935416855441268e-05 -0.0003509042884596165 7.132006227362398e-05 0.0005566251053161463
 7.124766382305745e-05 0.0005566527280848292 -6.935416855441268e-05 -0.0003509042884596165 0.0014408684631593792 0.0010977561365483873 0.9985324077053936 -0.002806816024464731
 -6.935102689961866e-05 -0.0003509018688874887 7.132006227362398e-05 0.0005566251053161463 0.9985324077053936 -0.002806816024464731 0.0014408574133957372 0.0010977625594021994
0.006252605252188 0.001467255632223306 0.0013764433365940686 0.9984988715807244 -0.003509313640286157 7.685527170042677e-05 0.0006961001234908901 -7.43862512005323e-05 -0.00043908796686571494
 0.9984988715807244 -0.003509313640286157 0.0014672332124111617 0.0013764540144398643 -7.439113988786868e-05 -0.0004390909511013549 7.696838778623518e-05 0.000696064290760259
 7.685527170042677e-05 0.0006961001234908901 -7.439113988786868e-05 -0.0004390909511013549 0.0014672535163338784 0.001376528385867023 0.9984988720413924 -0.00350922982662946
 -7.43862512005323e-05 -0.00043908796686571494 7.696838778623518e-05 0.000696064290760259 0.9984988720413924 -0.00350922982662946 0.001467236244221076 0.00137653658688748
0.01250521050438 0.0016052801327083855 0.002781896887615546 0.9983224303306273 -0.007019568401527646 0.00010847083778500233 0.0013926487478383143 -0.00010256502926618159 -0.0008803931243854671
 0.9983224303306273 -0.007019568401527646 0.0016051906084317748 0.002781920059519863 -0.00010258429579040406 -0.0008803986561255642 0.00010892191494566316 0.0013925631217760188
 0.00010847083778500233 0.0013926487478383143 -0.00010258429579040406 -0.0008803986561255642 0.0016052711044591214 0.002782066783147797 0.9983224315966827 -0.0070194009991045355
 -0.00010256502926618159 -0.0008803931243854671 0.00010892191494566316 0.0013925631217760188 0.9983224315966827 -0.0070194009991045355 0.0016052021442476887 0.002782084915063489
0.01875781575657 0.0017540331807359593 0.004207572806270949 0.9981307893586726 -0.010539338548520832 0.00014617546223947192 0.0020901245655483387 -0.00013587549080066732 -0.0013233110984888427
 0.9981307893586726 -0.010539338548520832 0.0017538320127127994 0.004207610454294491 -0.00013591845771686217 -0.0013233186668451964 0.00014718875328117466 0.0020899727125128
 0.00014617546223947192 0.0020901245655483387 -0.00013591845771686217 -0.0013233186668451964 0.0017540124647299768 0.004207827488732782 0.9981307917863257 -0.010539087655640567
 -0.00013587549080066732 -0.0013233110984888427 0.00014718875328117466 0.0020899727125128 0.9981307917863257 -0.010539087655640567 0.0017538575225401992 0.004207857370037711
0.02501042100875 0.0019137779847639275 0.0056515119971304595 0.9979237451560797 -0.014070362571845293 0.0001900391575325781 0.002788576690736291 -0.0001743954785638443 -0.0017676632623279526
 0.9979237451560797 -0.014070362571845293 0.0019134207234123835 0.005651566255160963 -0.0001744713586276401 -0.0017676722727427573 0.00019183901249495474 0.002788339808948555
 0.0001900391575325781 0.002788576690736291 -0.0001744713586276401 -0.0017676722727427573 0.0019137408013022315 0.005651851469469223 0.997923749095416 -0.0140700282391783
 -0.0001743954785638443 -0.0017676632623279526 0.00019183901249495474 0.002788339808948555 0.997923749095416 -0.0140700282391783 0.0019134656636871058 0.005651894997858445
0.03126302626094 0.002084766715947448 0.007112722816034657 0.9977010827365547 -0.01761340444951013 0.00024013241691343414 0.0034879916835015125 -0.0002182009809963894 -0.0022133297679318687
 0.9977010827365547 -0.01761340444951013 0.00208420897976879 0.007112795967541896 -0.00021831889627529723 -0.002213339540928927 0.00024294350199198468 0.003487648591534902
 0.00024013241691343414 0.0034879916835015125 -0.00021831889627529723 -0.002213339540928927 0.002084708285976768 0.007113147126201691 0.9977010885391181 -0.017612986697147844
 -0.0002182009809963894 -0.0022133297679318687 0.00024294350199198468 0.003487648591534902 0.9977010885391181 -0.017612986697147844 0.0020842788032777544 0.0071132062763849145
0.037515631513130004 0.0022672462863677135 0.008590571230010396 0.9974625815492258 -0.021168863432613046 0.00029652563648490635 0.004188331675279999 -0.0002673666836891169 -0.002660211418720762
 0.9974625815492258 -0.021168863432613046 0.0022664437487843496 0.008590665707418193 -0.00026753567544096277 -0.0026602211894906805 0.000300573037001872 0.004187858788695246
 0.00029652563648490635 0.004188331675279999 -0.00026753567544096277 -0.0026602211894906805 0.002267161828061015 0.008591080451498055 0.9974625895661487 -0.0211683622696566
 -0.0002673666836891169 -0.002660211418720762 0.000300573037001872 0.004187858788695246 0.9974625895661487 -0.0211683622696566 0.002266543903112154 0.008591157274001298
0.043768236765320004 0.0024614605811418538 0.010084595219870004 0.9972080178441833 -0.024736959582067185 0.0003592888471887523 0.004889545959233379 -0.00032196617416205097 -0.0031082180714783946
 0.9972080178441833 -0.024736959582067185 0.0024603689605497514 0.010084713604430768 -0.0003221952086785911 -0.0031082269897153244 0.0003647981210091969 0.004888917263472374
 0.0003592888471887523 0.004889545959233379 -0.0003221952086785911 -0.0031082269897153244 0.0024613453121311506 0.010085189457346141 0.997208028429847 -0.02473637500124873
 -0.00032196617416205097 -0.0031082180714783946 0.0003647981210091969 0.004888917263472374 0.997208028429847 -0.02473637500124873 0.002460504892044242 0.010085286077440442
0.050020842017509996 0.0026676515078175394 0.011594428081578137 0.9969371658562609 -0.028317810404681627 0.00042849155496974136 0.005591575778954999 -0.0003820720244367209 -0.0035572638392958695
 0.9969371658562609 -0.028317810404681627 0.002666226559500539 0.011594573103539282 -0.0003823699969297056 -0.0035572709691154177 0.00043568875978808585 0.005590762800674284
 0.00042849155496974136 0.005591575778954999 -0.0003823699969297056 -0.0035572709691154177 0.0026675006418902633 0.01159510746112533 0.9969371793654941 -0.028317142392441763
 -0.0003820720244367209 -0.0035572638392958695 0.00043568875978808585 0.005590762800674284 0.9969371793654941 -0.028317142392441763 0.0026664037102758476 0.011595226078058773
0.055454545454549996 0.002856750955640889 0.012919116289764429 0.9966883828420467 -0.03144007863673097 0.0004939139693128399 0.006202273325604647 -0.0004388332870592331 -0.003948276867067864
 0.9966883828420467 -0.03144007863673097 0.0028550004268297767 0.012919286793714723 -0.0004391983394844437 -0.003948281616145742 0.0005027620209011817 0.006201275144631965
 0.0004939139693128399 0.006202273325604647 -0.0004391983394844437 -0.003948281616145742 0.0028565652652437043 0.012919869782437176 0.9966883991812314 -0.031439338101333744
 -0.0004388332870592331 -0.003948276867067864 0.0005027620209011817 0.006201275144631965 0.9966883991812314 -0.031439338101333744 0.002855217815598951 0.012920009358319147
0.056273447269699996 0.0028860595404258905 0.013119760787469271 0.996649798485572 -0.03191146842921683 0.0005042026298698542 0.006294356663416425 -0.0004477558177851831 -0.004007264749089596
 0.996649798485572 -0.03191146842921683 0.002884257049700621 0.013119935326421925 -0.000448131554952236 -0.00400726906898479 0.000513314334850904 0.006293328441040665
 0.0005042026298698542 0.006294356663416425 -0.000448131554952236 -0.00400726906898479 0.002885868287922062 0.013120525461324983 0.9966498152747183 -0.03191071696129324
 -0.0004477558177851831 -0.004007264749089596 0.000513314334850904 0.006293328441040665 0.9966498152747183 -0.03191071696129324 0.0028844808588010073 0.013120668347665093
0.06252605252188 0.003116924023756295 0.014660321278583657 0.9963456877400507 -0.03551794185229867 0.0005864902172861512 0.006997819725023309 -0.0005190881490109114 -0.004458137437383932
 0.9963456877400507 -0.03551794185229867 0.0031146997995892376 0.014660528364027531 -0.0005195504108826617 -0.0044581378402179786 0.000597743504388583 0.006996542778954613
 0.0005864902172861512 0.006997819725023309 -0.0005195504108826617 -0.0044581378402179786 0.0031166875913879455 0.014661171427218872 0.9963457081680148 -0.035517106892015225
 -0.0005190881490109114 -0.004458137437383932 0.000597743504388583 0.006996542778954613 0.9963457081680148 -0.035517106892015225 0.0031149757028177756 0.014661340928350539
0.06877865777407 0.0033604833423309896 0.016215862127055745 0.996024605046091 -0.039137206815857965 0.0006754216643425861 0.007701892418382986 -0.0005961386067468199 -0.004909798387209619
 0.996024605046091 -0.039137206815857965 0.0033577932113628708 0.01621610493912068 -0.0005966960879808182 -0.004909793680209681 0.000689044122280697 0.0077003307210283724
 0.0006754216643425861 0.007701892418382986 -0.0005966960879808182 -0.004909793680209681 0.0033601969327922837 0.016216797952693353 0.9960246294735734 -0.03913628832097931
 -0.0005961386067468199 -0.004909798387209619 0.000689044122280697 0.0077003307210283724 0.9960246294735734 -0.03913628832097931 0.003358126640861847 0.01621699648644326
0.07503126302626001 0.0036169750128317774 0.017786152712561204 0.9956863214838578 -0.04276921517221212 0.0007710634523726178 0.008406499027031132 -0.0006789757471744273 -0.005362163439013717
 0.9956863214838578 -0.04276921517221212 0.00361377481358146 0.017786434582845526 -0.0006796370779189866 -0.005362152343781261 0.0007872831654636383 0.008404613972797475
 0.0007710634523726178 0.008406499027031132 -0.0006796370779189866 -0.005362152343781261 0.003616633824617396 0.017787174446052635 0.9956863502745325 -0.04276821308854649
 -0.0006789757471744273 -0.005362163439013717 0.0007872831654636383 0.008404613972797475 0.9956863502745325 -0.04276821308854649 0.0036141711979556144 0.01778740450247355
0.08128386827845 0.0038866357269268436 0.01937097401059381 0.9953306079769048 -0.04641389963965081 0.0008734811348343709 0.009111560987937571 -0.0007676670605830272 -0.005815147465944631
 0.9953306079769048 -0.04641389963965081 0.00388288130442668 0.01937129842324766 -0.0007684408071303479 -0.005815128618484121 0.0008925266675099797 0.009109311363296515
 0.0008734811348343709 0.009111560987937571 -0.0007684408071303479 -0.005815128618484121 0.0038862349542517806 0.019372081908937265 0.9953306414971829 -0.04641281390385345
 -0.0007676670605830272 -0.005815147465944631 0.0008925266675099797 0.009109311363296515 0.9953306414971829 -0.04641281390385345 0.0038833460681922515 0.01937234605020522
0.08753647353064001 0.004169701361962817 0.020970114994561664 0.9949572354506664 -0.050071177346463776 0.0009827392780579606 0.009816997112495377 -0.0008622789333788096 -0.006268664154968411
 0.9949572354506664 -0.050071177346463776 0.00416534856223252 0.02097048558742318 -0.0008631735985729945 -0.006268636105707059 0.0010048396561191178 0.009814339066164168
 0.0009827392780579606 0.009816997112495377 -0.0008631735985729945 -0.006268636105707059 0.004169236194485985 0.020971309336278627 0.9949572740699919 -0.05007000789114194
 -0.0008622789333788096 -0.006268664154968411 0.0010048396561191178 0.009814339066164168 0.9949572740699919 -0.05007000789114194 0.0041658871251827765 0.020971610196832014
0.09378907878283 0.004466406969622601 0.022583370049913707 0.9945659749723912 -0.05374095236542025 0.001098901403621738 0.010522723748153122 -0.0009628766070092617 -0.006722625849698325
 0.9945659749723912 -0.05374095236542025 0.004461411634265647 0.02258379061592811 -0.0009639006304376156 -0.006722587063535026 0.0011242860928483284 0.010519610761464088
 0.001098901403621738 0.010522723748153122 -0.0009639006304376156 -0.006722587063535026 0.004465872592042657 0.022584651145336594 0.994566019063649 -0.053739699109294464
 -0.0009628766070092617 -0.006722625849698325 0.0011242860928483284 0.010519610761464088 0.994566019063649 -0.053739699109294464 0.00446202941113495 0.02258499143206609
0.100041684035 0.004776986747720854 0.02421053709689544 0.9941565978764557 -0.05742311754248226 0.0012220299317324385 0.011228654900955959 -0.0010695241345640104 -0.007176943434843744
 0.9941565978764557 -0.05742311754248226 0.004771304709006405 0.02421101158552851 -0.001070685892709557 -0.0071768922911940505 0.0012509288141367627 0.011225037758402088
 0.0012220299317324385 0.011228654900955959 -0.001070685892709557 -0.0071768922911940505 0.004776378340392617 0.02421190528053539 0.9941566478166302 -0.05742178039844847
 -0.0010695241345640104 -0.007176943434843744 0.0012509288141367627 0.011225037758402088 0.9941566478166302 -0.05742178039844847 0.004772007109256229 0.02421228777317905
0.1059090909091 0.005081259172314691 0.025749935429859497 0.993755760671701 -0.06088960363960522 0.0013439634507282877 0.011891203839558608 -0.001175159778104746 -0.007603515249967948
 0.993755760671701 -0.06088960363960522 0.005074892551787426 0.025750464252150447 -0.0011764583476972085 -0.007603450960135875 0.0013763694538730478 0.011887066411343333
 0.0013439634507282877 0.011891203839558608 -0.0011764583476972085 -0.007603450960135875 0.005080576908109797 0.025751385664662813 0.9937558164466805 -0.06088818768943893
 -0.001175159778104746 -0.007603515249967948 0.0013763694538730478 0.011887066411343333 0.9937558164466805 -0.06088818768943893 0.005075679276801246 0.025751810356603923
0.1062942892872 0.005101674001527797 0.025851416157123455 0.9937288758813648 -0.06111755588432788 0.001352186126235722 0.011934702322051446 -0.0011822843347301503 -0.007631526259195056
 0.9937288758813648 -0.06111755588432788 0.00509526107649556 0.025851948676152935 -0.001183592140887342 -0.007631461052060179 0.0013848294741588994 0.01193052908216978
 0.001352186126235722 0.011934702322051446 -0.001183592140887342 -0.007631461052060179 0.005100986739800853 0.025852871790213738 0.9937289320510625 -0.06111613475748568
 -0.0011822843347301503 -0.007631526259195056 0.0013848294741588994 0.01193052908216978 0.9937289320510625 -0.06111613475748568 0.00509605350369401 0.025853299341925436
0.11254689453939999 0.005440701095141416 0.027505808268579682 0.993282581198991 -0.06482414160061599 0.0014894300388167147 0.012640775585023325 -0.0013012187451111744 -0.00808628207051252
 0.993282581198991 -0.06482414160061599 0.005433513080791032 0.027506403085893624 -0.0013026808493237405 -0.008086201008538107 0.0015260484875317922 0.012635991551502431
 0.0014894300388167147 0.012640775585023325 -0.0013026808493237405 -0.008086201008538107 0.005439930149339511 0.027507351741997543 0.9932826439833407 -0.06482263638573328
 -0.0013012187451111744 -0.00808628207051252 0.0015260484875317922 0.012635991551502431 0.9932826439833407 -0.06482263638573328 0.005434400931851762 0.02750782728009284
0.11879949979160001 0.005794299395968085 0.029173514636869808 0.9928174866399161 -0.06854274091282261 0.0016338204546986334 0.013346782141807054 -0.0014263875734396962 -0.008541116974490524
 0.9928174866399161 -0.06854274091282261 0.005786292063872885 0.029174176182513292 -0.0014280121623083486 -0.008541018181060771 0.001674644973132104 0.013341329834936615
 0.0016338204546986334 0.013346782141807054 -0.0014280121623083486 -0.008541018181060771 0.005793439931513207 0.029175146367962354 0.9928175564284851 -0.06854115149803323
 -0.0014263875734396962 -0.008541116974490524 0.001674644973132104 0.013341329834936615 0.9928175564284851 -0.06854115149803323 0.005787280728583213 0.02917567289484383
0.1250521050438 0.006162699213841653 0.030854335959853547 0.9923333657147146 -0.07227321269313289 0.0017854148377291987 0.014052627372613067 -0.0015578496482572745 -0.008995935402532003
 0.9923333657147146 -0.07227321269313289 0.006153828304780958 0.030855068828289117 -0.0015596448446744302 -0.008995816915861612 0.0018306766978526746 0.01404644650108614
 0.0017854148377291987 0.014052627372613067 -0.0015596448446744302 -0.008995816915861612 0.00616174639115899 0.03085605639475546 0.9923334429019574 -0.07227153895815237
 -0.0015578496482572745 -0.008995935402532003 0.0018306766978526746 0.01404644650108614 0.9923334429019574 -0.07227153895815237 0.006154923165317174 0.030856636988983537
0.131304710296 0.006546129735475062 0.03254807188794712 0.9918299927333942 -0.07601540897075215 0.0019442692756313005 0.014758214628987394 -0.001695662368619163 -0.00945064008921858
 0.9918299927333942 -0.07601540897075215 0.0065363509542618195 0.03254888084040632 -0.0016976362314576443 -0.009450499862456791 0.001994200020572087 0.014751242062065444
 0.0019442692756313005 0.014758214628987394 -0.0016976362314576443 -0.009450499862456791 0.006545078709811317 0.03254988150353544 0.9918300777192022 -0.07601365078550935
 -0.001695662368619163 -0.00945064008921858 0.001994200020572087 0.014751242062065444 0.9918300777192022 -0.07601365078550935 0.006537557384390802 0.032550519321142536
0.1375573155481 0.006852112978275699 0.03403365653780015 0.9913998783718825 -0.07954822580166482 0.002088724403415104 0.01544089112605138 -0.0018181114419553884 -0.009882627914753707
 0.9913998783718825 -0.07954822580166482 0.0068413795397523555 0.03403452955589993 -0.0018202758518765401 -0.009882465993727139 0.002143442661897092 0.01543314207893106
 0.002088724403415104 0.01544089112605138 -0.0018202758518765401 -0.009882465993727139 0.00685095946833234 0.034035555927711354 0.9913999715098852 -0.07954638311018564
 -0.0018181114419553884 -0.009882627914753707 0.002143442661897092 0.01543314207893106 0.9913999715098852 -0.07954638311018564 0.006842702431793056 0.03403623722817642
0.1438099208003 0.0071687035362753 0.035512239529097385 0.9909549478165276 -0.08307291888759749 0.002239005101847598 0.01612132193138336 -0.0019454691733978343 -0.010312522510810496
 0.9909549478165276 -0.08307291888759749 0.007156970723554722 0.03551318026302811 -0.001947832785979494 -0.01031233690414691 0.0022987223583410014 0.016112739139089168
 0.002239005101847598 0.01612132193138336 -0.001947832785979494 -0.01031233690414691 0.007167442792119646 0.03551422919150765 0.9909550495047046 -0.0830709915657318
 -0.0019454691733978343 -0.010312522510810496 0.0022987223583410014 0.016112739139089168 0.9909550495047046 -0.0830709915657318 0.007158415353376019 0.035514955957743066
0.1500625260525 0.007495800946878276 0.036983721640758575 0.9904953048549686 -0.08658942555451102 0.0023950655049928883 0.016799454954085993 -0.002077690325009429 -0.010740272701194094
 0.9904953048549686 -0.08658942555451102 0.007483023994130782 0.036984733925298115 -0.002080261780636873 -0.010740061337982948 0.002459992188144815 0.01678997906859136
 0.0023950655049928883 0.016799454954085993 -0.002080261780636873 -0.010740061337982948 0.007494428220145091 0.03698580209306952 0.9904954154948677 -0.08658741347474742
 -0.002077690325009429 -0.010740272701194094 0.002459992188144815 0.01678997906859136 0.9904954154948677 -0.08658741347474742 0.007484595623999402 0.03698657642458049
0.15631513130469998 0.007833304163635929 0.0384480067674927 0.9900210536602925 -0.09009768287319121 0.0025568592814803094 0.01747523888426944 -0.002214729170896165 -0.01116582830991343
