! Created with skrf 1.8.0 (http://scikit-rf.org).
# GHz S RI R 50.0 
!freq ReS11 ImS11 ReS12 ImS12 ReS13 ImS13
! ReS14 ImS14
! ReS21 ImS21 ReS22 ImS22 ReS23 ImS23
! ReS24 ImS24
! ReS31 ImS31 ReS32 ImS32 ReS33 ImS33
! ReS34 ImS34
! ReS41 ImS41 ReS42 ImS42 ReS43 ImS43
! ReS44 ImS44
!
0.0 0.001555856193278 0.0 0.9984441438011 0.0 6.00855319627e-05 0.0 -6.008553125212e-05 7.358355352297701e-21
 0.9984441438011 0.0 0.001555856193263 0.0 -6.008553125236e-05 7.358355352327093e-21 6.008553196287e-05 0.0
 6.00855319627e-05 0.0 -6.008553125236e-05 7.358355352327093e-21 0.001555856193276 0.0 0.9984441438011 0.0
 -6.008553125212e-05 7.358355352297701e-21 6.008553196287e-05 0.0 0.9984441438011 0.0 0.001555856193253 0.0
0.005 0.001674015812194547 0.0012717847241616505 0.9982946453287823 -0.003259156117390639 8.436749943349405e-05 0.0006678612916336047 -8.188343578853239e-05 -0.0004181857273900163
 0.9982946453287823 -0.003259156117390639 0.0016740303257553922 0.0012717761865382409 -8.187980059191663e-05 -0.0004181829281998864 8.428036388777705e-05 0.0006678943105086365
 8.436749943349405e-05 0.0006678612916336047 -8.187980059191663e-05 -0.0004181829281998864 0.0016740180797533571 0.0012718506428913685 0.9982946456931312 -0.003259089051846786
 -8.188343578853239e-05 -0.0004181857273900163 8.428036388777705e-05 0.0006678943105086365 0.9982946456931312 -0.003259089051846786 0.0016740287821304432 0.0012718443954206655
0.006252605252188 0.0017050146361260621 0.0015947368774884745 0.998255174332283 -0.004074740855879355 9.131462293538745e-05 0.000835146351053328 -8.804265539464788e-05 -0.0005232733812010874
 0.998255174332283 -0.004074740855879355 0.0017050373245186584 0.0015947260969740402 -8.803699876272284e-05 -0.0005232699297539914 9.117847973341804e-05 0.0008351892544799633
 9.131462293538745e-05 0.000835146351053328 -8.803699876272284e-05 -0.0005232699297539914 0.0017050180977780402 0.0015948192572255541 0.9982551748186181 -0.004074657036932539
 -8.804265539464788e-05 -0.0005232733812010874 9.117847973341804e-05 0.0008351892544799633 0.9982551748186181 -0.004074657036932539 0.0017050348279281998 0.0015948113471702691
0.01250521050438 0.0018682524489962607 0.0032228998435384418 0.9980459339547152 -0.008150276771640694 0.0001312065307748849 0.0016706233186491587 -0.0001230151577279269 -0.0010490805972601471
 0.9980459339547152 -0.008150276771640694 0.001868343056575811 0.003222877182502214 -0.00012299286582952333 -0.0010490742160932753 0.00013066355966768407 0.0016707266974436965
 0.0001312065307748849 0.0016706233186491587 -0.00012299286582952333 -0.0010490742160932753 0.0018682657187484562 0.003223064277799942 0.9980459353408162 -0.008150109373260552
 -0.0001230151577279269 -0.0010490805972601471 0.00013066355966768407 0.0016707266974436965 0.9980459353408162 -0.008150109373260552 0.0018683325247474112 0.003223047468668542
0.01875781575657 0.0020459290874852753 0.004874241585314364 0.9978161604958333 -0.012236524297396648 0.00017985360005411065 0.002506991870952974 -0.00016511121537292304 -0.0015766541047261967
 0.9978161604958333 -0.012236524297396648 0.0020461327085668293 0.004874205824584238 -0.00016506150412543217 -0.0015766454172279416 0.00017863372608754942 0.0025071767211482803
 0.00017985360005411065 0.002506991870952974 -0.00016506150412543217 -0.0015766454172279416 0.0020459584874184017 0.004874487824984701 0.9978161631876789 -0.012236273402063312
 -0.00016511121537292304 -0.0015766541047261967 0.00017863372608754942 0.0025071767211482803 0.9978161631876789 -0.012236273402063312 0.0020461086057998942 0.004874461109505036
0.02501042100875 0.002238393183399658 0.00654644489662187 0.9975655813588715 -0.01633545893494743 0.00023734968000066323 0.0033442832265685543 -0.00021443542960502182 -0.002105750148023994
 0.9975655813588715 -0.01633545893494743 0.0022387548368490344 0.006546394717516193 -0.00021434764386479553 -0.0021057398901168966 0.0002351826408466596 0.003344573860446152
 0.00023734968000066323 0.0033442832265685543 -0.00021434764386479553 -0.0021057398901168966 0.002238445031893432 0.006546772655412667 0.9975655857684779 -0.01633512458397635
 -0.00021443542960502182 -0.002105750148023994 0.0002351826408466596 0.003344573860446152 0.9975655857684779 -0.01633512458397635 0.00223871163567807 0.006546735022103048
0.03126302626094 0.0024459789406693546 0.008238314808101598 0.9972939101535158 -0.020447922985111007 0.00030378909288164736 0.004182450856439034 -0.00027108939333628815 -0.00263619671608743
 0.9972939101535158 -0.020447922985111007 0.002446543596302991 0.008238248796114546 -0.00027095298502369285 -0.002636185737557171 0.00030040419384918566 0.004182874924272033
 0.00030378909288164736 0.004182450856439034 -0.00027095298502369285 -0.002636185737557171 0.0024460595444587467 0.008238723751201042 0.9972939166893332 -0.020447505189595594
 -0.00027108939333628815 -0.00263619671608743 0.00030040419384918566 0.004182874924272033 0.9972939166893332 -0.020447505189595594 0.0024464757639048006 0.008238674188435515
0.037515631513130004 0.0026690132824954663 0.009949070307166137 0.9970008540744012 -0.0245743337671797 0.0003792656619593042 0.00502141745820297 -0.00033517242526464317 -0.0031678465676792953
 0.9970008540744012 -0.0245743337671797 0.002669825878333701 0.009948986953670058 -0.0003349769421468075 -0.0031678358325795577 0.0003743916671052558 0.005022005983392353
 0.0003792656619593042 0.00502141745820297 -0.0003349769421468075 -0.0031678358325795577 0.002669128945866622 0.00994956003055788 0.9970008631498504 -0.024573832528064315
 -0.00033517242526464317 -0.0031678465676792953 0.0003743916671052558 0.005022005983392353 0.9970008631498504 -0.024573832528064315 0.0026697278836686233 0.009949497529135161
0.043768236765320004 0.0029078186179584704 0.011678128742948482 0.9966861169023412 -0.028714899143858514 0.00046387225599748324 0.005861089232423793 -0.00040678182776253326 -0.0037005629581031317
 0.9966861169023412 -0.028714899143858514 0.002908924074198858 0.011678026446011743 -0.0004065169068750357 -0.003700553544895957 0.0004572373376721415 0.005861876650724601
 0.00046387225599748324 0.005861089232423793 -0.0004065169068750357 -0.003700553544895957 0.002907975637494116 0.011678698784519274 0.9966861289310108 -0.028714314439915897
 -0.00040678182776253326 -0.0037005629581031317 0.0004572373376721415 0.005861876650724601 0.9966861289310108 -0.028714314439915897 0.0029087903814105113 0.011678622339671657
0.050020842017509996 0.003162714120324825 0.013425016772110165 0.9963494005213421 -0.0328697065033413 0.0005577005134777246 0.006701361784192244 -0.00048601297803852714 -0.00423421374365089
 0.9963494005213421 -0.0328697065033413 0.00316415735117889 0.013424893836817527 -0.0004856683414362002 -0.004234206845241579 0.0005490322327919145 0.006702385984627994
 0.0005577005134777246 0.006701361784192244 -0.0004856683414362002 -0.004234206845241579 0.003162918788092278 0.013425666600768785 0.9963494159204822 -0.03286903830135914
 -0.00048601297803852714 -0.00423421374365089 0.0005490322327919145 0.006702385984627994 0.9963494159204822 -0.03286903830135914 0.00316398242246095 0.013425575213762185
0.055454545454549996 0.0033975391603641224 0.01495727735600387 0.9960387016849119 -0.03649193588409817 0.0006467993327357568 0.007431985102868276 -0.0005611296797060689 -0.004698629978565155
 0.9960387016849119 -0.03649193588409817 0.003399312407205354 0.014957135036520014 -0.0005607074846914652 -0.004698626323258907 0.0006361422693108584 0.007433248557965443
 0.0006467993327357568 0.007431985102868276 -0.0005607074846914652 -0.004698626323258907 0.0033977903402942523 0.01495799603605806 0.9960387203533055 -0.03649119508380522
 -0.0005611296797060689 -0.004698629978565155 0.0006361422693108584 0.007433248557965443 0.9960387203533055 -0.03649119508380522 0.003399097142234579 0.01495789085841442
0.056273447269699996 0.003434016383163964 0.015189326624046767 0.9959904058174608 -0.03703876642366487 0.00066084064698591 0.0075421230221172485 -0.0005729593437234581 -0.004768668492390013
 0.9959904058174608 -0.03703876642366487 0.003435842308152013 0.015189181262304728 -0.0005725247956815304 -0.0047686654161242835 0.0006498659529803879 0.007543425388604855
 0.00066084064698591 0.0075421230221172485 -0.0005725247956815304 -0.0047686654161242835 0.003434274984474847 0.015190055639034729 0.995990425006443 -0.03703801467805686
 -0.0005729593437234581 -0.004768668492390013 0.0006498659529803879 0.007543425388604855 0.995990425006443 -0.03703801467805686 0.003435620601343039 0.015189948318446885
0.06252605252188 0.0037220397685365516 0.0169706920644287 0.9956088332735977 -0.04122203664135836 0.0007733812873164954 0.008383254754008817 -0.0006677124602261344 -0.005303796902447577
 0.9956088332735977 -0.04122203664135836 0.003724293322809093 0.01697052239455786 -0.0006671778853764402 -0.005303799070086556 0.0007598265285216411 0.008384880207226615
 0.0007733812873164954 0.008383254754008817 -0.0006671778853764402 -0.005303799070086556 0.003722358581961194 0.01697149959553149 0.9956088566751993 -0.04122120129323151
 -0.0006677124602261344 -0.005303796902447577 0.0007598265285216411 0.008384880207226615 0.9956088566751993 -0.04122120129323151 0.00372401929136482 0.016971375358115014
0.06877865777407 0.00402709658843158 0.018768774065099796 0.9952043834026225 -0.04541943631804746 0.000895409350356248 0.009224633637985907 -0.0007703618854158319 -0.0058394678693431575
 0.9952043834026225 -0.04541943631804746 0.004029822733320746 0.0187685781108944 -0.0007697172474751207 -0.005839476817007183 0.0008790002952774041 0.00922663067726228
 0.000895409350356248 0.009224633637985907 -0.0007697172474751207 -0.005839476817007183 0.004027481885641067 0.01876965937146692 0.9952044114434728 -0.0454185172954405
 -0.0007703618854158319 -0.0058394678693431575 0.0008790002952774041 0.00922663067726228 0.9952044114434728 -0.0454185172954405 0.004029490826482197 0.01876951724280932
0.07503126302626001 0.004349497185517695 0.020583251724604 0.9947767570823355 -0.04963085506079052 0.001027009915497238 0.01006613179858648 -0.00088099514243379 -0.006375548893087975
 0.9947767570823355 -0.04963085506079052 0.0043527409180430824 0.02058302741436315 -0.0008802304834011443 -0.006375566271207234 0.0010074717793944494 0.01006855254360016
 0.001027009915497238 0.01006613179858648 -0.0008802304834011443 -0.006375566271207234 0.0043499552305415095 0.020584213987615868 0.9947767901932506 -0.04962985228500619
 -0.00088099514243379 -0.006375548893087975 0.0010074717793944494 0.01006855254360016 0.9947767901932506 -0.04962985228500619 0.004352345580463845 0.02058405300240835
0.08128386827845 0.004689549953656806 0.02241381621378193 0.994325655835008 -0.05385615892255552 0.0011682661137568425 0.01090761723254717 -0.0009996976517119328 -0.006911905700631363
 0.994325655835008 -0.05385615892255552 0.004693356316675456 0.02241356137863586 -0.000998803091349594 -0.006911933273868183 0.0011453235909348438 0.01091051746469152
 0.0011682661137568425 0.01090761723254717 -0.000998803091349594 -0.006911933273868183 0.004690087001745048 0.022414854547341465 0.994325694451439 -0.05385507229696
 -0.0009996976517119328 -0.006911905700631363 0.0011453235909348438 0.01091051746469152 0.994325694451439 -0.05385507229696 0.004692891988151394 0.022414673749307897
0.08753647353064001 0.005047561314685592 0.024260166610485707 0.9938507820665535 -0.05809519451885134 0.0013192590200566806 0.011748954104254208 -0.0011265526581731456 -0.007448401983649686
 0.9938507820665535 -0.05809519451885134 0.005051975406562153 0.024259878982695954 -0.0011255183937954336 -0.0074484416308146974 0.0012926363200512921 0.011752393307651295
 0.0013192590200566806 0.011748954104254208 -0.0011255183937954336 -0.0074484416308146974 0.005048183611922795 0.02426128005001272 0.9938508266290201 -0.05809402393914208
 -0.0011265526581731456 -0.007448401983649686 0.0012926363200512921 0.011752393307651295 0.9938508266290201 -0.05809402393914208 0.005051436522159346 0.02426107849156143
0.09378907878283 0.00542383566791545 0.02612200690885759 0.9933518392824544 -0.06234779197569059 0.0014800675493744455 0.012590002956884453 -0.0012616411534188794 -0.00798489922615605
 0.9933518392824544 -0.06234779197569059 0.005428902652437748 0.02612168411959901 -0.0012604574598707884 -0.007984952940101209 0.001449488436866127 0.012594044358873407
 0.0014800675493744455 0.012590002956884453 -0.0012604574598707884 -0.007984952940101209 0.005424549450528689 0.026123194414843315 0.9933518902372783 -0.06234653732550076
 -0.0012616411534188794 -0.00798489922615605 0.001449488436866127 0.012594044358873407 0.9933518902372783 -0.06234653732550076 0.0054282836424377305 0.02612297115634011
0.100041684035 0.005818675318975677 0.02799904383636592 0.992828532285513 -0.06661376707565103 0.0016507683553067943 0.013430620880873505 -0.0014050417947789914 -0.008521256579966498
 0.992828532285513 -0.06661376707565103 0.0058244404349667095 0.02799868341321846 -0.0014036990245271128 -0.008521326467479022 0.00161595619293959 0.01343533149203664
 0.0016507683553067943 0.013430620880873505 -0.0014036990245271128 -0.008521326467479022 0.005819486811657735 0.02800030429371466 0.9928285900845601 -0.06661242822641873
 -0.0014050417947789914 -0.008521256579966498 0.00161595619293959 0.01343533149203664 0.9928285900845601 -0.06661242822641873 0.005823735724452843 0.02800005840240196
0.1059090909091 0.006206342766039528 0.029774004798260985 0.9923150435322042 -0.07062892378033929 0.001820016083296914 0.014218929499489049 -0.0015472358387715738 -0.009024316259271387
 0.9923150435322042 -0.07062892378033929 0.006212804224453502 0.029773606716221424 -0.001545735087033276 -0.009024403341430117 0.001780979735803502 0.01422433244249541
 0.001820016083296914 0.014218929499489049 -0.001545735087033276 -0.009024403341430117 0.006207251600179062 0.02977533262662757 0.9923151081707879 -0.0706275057953963
 -0.0015472358387715738 -0.009024316259271387 0.001780979735803502 0.01422433244249541 0.9923151081707879 -0.0706275057953963 0.006212014018149726 0.02977506465336263
0.1062942892872 0.006232380392334018 0.029890985215934234 0.9922805673618519 -0.07089292286516274 0.0018314357300174317 0.014270661643429619 -0.001556830822077133 -0.009057330784969684
 0.9922805673618519 -0.07089292286516274 0.006238888963956951 0.02989058457995355 -0.0015553194055540982 -0.009057419066630093 0.0017921135238581402 0.014276112296911303
 0.0018314357300174317 0.014270661643429619 -0.0015553194055540982 -0.009057419066630093 0.006233295808129028 0.029892317430094177 0.9922806324638483 -0.07089149967927376
 -0.001556830822077133 -0.009057330784969684 0.0017921135238581402 0.014276112296911303 0.9922806324638483 -0.07089149967927376 0.006238092972853336 0.029892047978659825
0.11254689453939999 0.006665248733328448 0.031797538708130554 0.9917076524585388 -0.07518505088801312 0.0020221415057785166 0.015109975799297366 -0.0017170819721988467 -0.009592976113616999
 0.9917076524585388 -0.07518505088801312 0.006672546179358037 0.031797095170703935 -0.001715392418076708 -0.009593085123661988 0.0019780319532625916 0.015116241189565126
 0.0020221415057785166 0.015109975799297366 -0.001715392418076708 -0.009593085123661988 0.006666274271998762 0.031798941407995225 0.9917077253287226 -0.07518354321524835
 -0.0017170819721988467 -0.009592976113616999 0.0019780319532625916 0.015116241189565126 0.9917077253287226 -0.07518354321524835 0.006671653322626755 0.03179864747273742
0.11879949979160001 0.007117575800357765 0.0337184108434699 0.99110949735496 -0.07948993213573104 0.002222954957085609 0.0159484107847533 -0.001885866392460597 -0.010128044338139183
 0.99110949735496 -0.07948993213573104 0.007125707644562458 0.03371792160258534 -0.0018839892881729024 -0.010128176524302963 0.0021737804970719246 0.015955569505613915
 0.002222954957085609 0.0159484107847533 -0.0018839892881729024 -0.010128176524302963 0.007118717647834625 0.03371988267827739 0.9911095784663491 -0.07948833981557892
 -0.001885866392460597 -0.010128044338139183 0.0021737804970719246 0.015955569505613915 0.9911095784663491 -0.07948833981557892 0.007124712332144691 0.033719563336920576
0.1250521050438 0.007589654550258232 0.03565330625391766 0.990485813830498 -0.0838073378052259 0.0024339427037378025 0.016785811000437925 -0.0020632525527693735 -0.01066238471480348
 0.990485813830498 -0.0838073378052259 0.007598666431223164 0.03565276839016934 -0.0020611785650427135 -0.010662542638113814 0.002379425568542907 0.01679394558230241
 0.0024339427037378025 0.016785811000437925 -0.0020611785650427135 -0.010662542638113814 0.007590918877419062 0.035654845794935795 0.9904859036635946 -0.08380566066454595
 -0.0020632525527693735 -0.01066238471480348 0.002379425568542907 0.01679394558230241 0.9904859036635946 -0.08380566066454595 0.007597563068108087 0.035654500124002085
0.131304710296 0.008081775317752095 0.03760192706709475 0.9898363158274376 -0.08813702990085018 0.002655168614476425 0.017622017888658355 -0.002249306156873231 -0.011195843979681097
 0.9898363158274376 -0.08813702990085018 0.00809171299865341 0.03760133753928293 -0.0022470260322841537 -0.011196030314283375 0.002595030883779775 0.017631214835019355
 0.002655168614476425 0.017622017888658355 -0.0022470260322841537 -0.011196030314283375 0.008083168278900342 0.03760353280296216 0.9898364148713132 -0.08813526775807641
 -0.002249306156873231 -0.011195843979681097 0.002595030883779775 0.017631214835019355 0.9898364148713132 -0.08813526775807641 0.008090495984648663 0.03760315987476955
0.1375573155481 0.008481961771791623 0.03930982176596381 0.9892730273597016 -0.0922244950207706 0.002859217126732776 0.01843154191470046 -0.002416690869907187 -0.011702902388471359
 0.9892730273597016 -0.0922244950207706 0.008492873157940709 0.03930918651213849 -0.002414190872681673 -0.011703117382072558 0.0027933260234820935 0.01844178857918061
 0.002859217126732776 0.01843154191470046 -0.002414190872681673 -0.011703117382072558 0.008483488979423156 0.03931149225529967 0.9892731360365752 -0.09222264779122416
 -0.002416690869907187 -0.011702902388471359 0.0027933260234820935 0.01844178857918061 0.9892731360365752 -0.09222264779122416 0.008491537553638908 0.03931110014437654
0.1438099208003 0.008896246216894953 0.04100859180947859 0.9886898856287843 -0.09630146606024281 0.003071508747269052 0.019237661587881733 -0.0025907659237837718 -0.012206876790744971
 0.9886898856287843 -0.09630146606024281 0.008908177538676116 0.04100790814863651 -0.002588036108141885 -0.012207123077174161 0.002999612350553251 0.019249037064827543
 0.003071508747269052 0.019237661587881733 -0.002588036108141885 -0.012207123077174161 0.00889791370623448 0.0410103254956073 0.9886900044256954 -0.096299533569084
 -0.0025907659237837718 -0.012206876790744971 0.002999612350553251 0.019249037064827543 0.9886900044256954 -0.096299533569084 0.008906717855920931 0.04100991369967151
0.1500625260525 0.009324480783679794 0.04269809145795761 0.9880870427021253 -0.10036783770342629 0.0032919689756557183 0.020040290217234434 -0.002771459574723016 -0.012707686707879234
 0.9880870427021253 -0.10036783770342629 0.009337478395229686 0.042697356541411886 -0.002768490017592424 -0.012707967026845724 0.003213816897295512 0.020052876482772035
 0.0032919689756557183 0.020040290217234434 -0.002768490017592424 -0.012707967026845724 0.00932629456844605 0.04269988672046874 0.9880871721126524 -0.10036581977057939
 -0.002771459574723016 -0.012707686707879234 0.003213816897295512 0.020052876482772035 0.9880871721126524 -0.10036581977057939 0.009335889148584279 0.04269945465813389
0.15631513130469998 0.009766516529749867 0.04437817936687092 0.987464651447534 -0.10442350509660799 0.0035205224075337965 0.020839342600409462 -0.0029586991780842413 -0.013205253388158655
 0.987464651447534 -0.10442350509660799 0.009780626912564533 0.044377390173052464 -0.002955479979384165 -0.013205570584803265 0.003435865815399305 0.020853224482021378
