! Created with skrf 1.8.0 (http://scikit-rf.org).
# GHz S RI R 50.0 
!freq ReS11 ImS11 ReS12 ImS12 ReS13 ImS13
! ReS14 ImS14
! ReS21 ImS21 ReS22 ImS22 ReS23 ImS23
! ReS24 ImS24
! ReS31 ImS31 ReS32 ImS32 ReS33 ImS33
! ReS34 ImS34
! ReS41 ImS41 ReS42 ImS42 ReS43 ImS43
! ReS44 ImS44
!
0.0 0.001435883457436 0.0 0.9985641165426 0.0 5.547037343368e-05 0.0 -5.54703729001e-05 6.793161461961755e-21
 0.9985641165426 0.0 0.001435883457394 0.0 -5.547037289983e-05 6.79316146192869e-21 5.547037343207e-05 0.0
 5.547037343368e-05 0.0 -5.547037289983e-05 6.79316146192869e-21 0.001435883430441 0.0 0.9985641165156 0.0
 -5.54703729001e-05 6.793161461961755e-21 5.547037343207e-05 0.0 0.9985641165156 0.0 0.001435883430415 0.0
0.005 0.0015446550291140706 0.0011699745070178635 0.9984265339651053 -0.003008389471629158 7.832315402357517e-05 0.0006410410923031706 -7.588808076219594e-05 -0.00039721538016222193
 0.9984265339651053 -0.003008389471629158 0.0015446668000913201 0.0011699676601849755 -7.589076427231238e-05 -0.00039721746170067417 7.824185419372736e-05 0.0006410720260915643
 7.832315402357517e-05 0.0006410410923031706 -7.589076427231238e-05 -0.00039721746170067417 0.0015446532108034136 0.0011699083334348625 0.9984265336152257 -0.0030084565369768545
 -7.588808076219594e-05 -0.00039721538016222193 7.824185419372736e-05 0.0006410720260915643 0.9984265336152257 -0.0030084565369768545 0.0015446679212688032 0.0011698997042666587
0.006252605252188 0.0015730965338140621 0.0014671053864108855 0.9983903421509732 -0.0037612381906313476 8.481225369272427e-05 0.0008016030827365075 -8.161621977715566e-05 -0.0004970447891223565
 0.9983903421509732 -0.0037612381906313476 0.0015731149337005503 0.0014670966759495914 -8.162039542130114e-05 -0.0004970473564412058 8.468522938621043e-05 0.0008016432381737725
 8.481225369272427e-05 0.0008016030827365075 -8.162039542130114e-05 -0.0004970473564412058 0.001573093767393748 0.001467022680240438 0.9983903416803728 -0.003761322016066186
 -8.161621977715566e-05 -0.0004970447891223565 8.468522938621043e-05 0.0008016432381737725 0.9983903416803728 -0.003761322016066186 0.0015731167628995379 0.0014670117341953365
0.01250521050438 0.0017223183913566403 0.0029652521124261194 0.998199247154208 -0.007523392251699604 0.00012181467997572183 0.0016035040251061912 -0.00011392095463456628 -0.0009965838593241749
 0.998199247154208 -0.007523392251699604 0.001722391858399027 0.002965233177762706 -0.00011393740918959836 -0.0009965886167702283 0.00012130811670683662 0.0016036003177729969
 0.00012181467997572183 0.0016035040251061912 -0.00011393740918959836 -0.0009965886167702283 0.0017223079020718282 0.0029650870183063425 0.9981992458365424 -0.007523559646691413
 -0.00011392095463456628 -0.0009965838593241749 0.00012130811670683662 0.0016036003177729969 0.9981992458365424 -0.007523559646691413 0.0017223997302952712 0.0029650635122336058
0.01875781575657 0.0018838580518996013 0.004484995573491458 0.9979906061553808 -0.011295642038714505 0.00016655965563213096 0.002406283830877117 -0.00015248114697270006 -0.0014978685001503114
 0.9979906061553808 -0.011295642038714505 0.0018840231277571595 0.004484964838638294 -0.00015251783995537063 -0.001497875003118419 0.00016542166950848735 0.002406455201708837
 0.00016655965563213096 0.002406283830877117 -0.00015251783995537063 -0.001497875003118419 0.0018838348903464331 0.004484748292560549 0.9979906036108744 -0.011295892913166489
 -0.00015248114697270006 -0.0014978685001503114 0.00016542166950848735 0.002406455201708837 0.9979906036108744 -0.011295892913166489 0.0018840412452725659 0.004484710477823092
0.02501042100875 0.0020580163232747284 0.006024216248985847 0.9977641853461716 -0.015079833609211014 0.00021913076086275745 0.003209994665565138 -0.00019739036583117254 -0.0020006739836858694
 0.9977641853461716 -0.015079833609211014 0.0020583094709243745 0.006024172088030505 -0.00019745516173730378 -0.0020006817120360727 0.0002171093398828359 0.00321026290356774
 0.00021913076086275745 0.003209994665565138 -0.00019745516173730378 -0.0020006817120360727 0.002057975550742079 0.006023886994657398 0.9977641812014587 -0.01508016790760819
 -0.00019739036583117254 -0.0020006739836858694 0.0002171093398828359 0.00321026290356774 0.9977641812014587 -0.01508016790760819 0.0020583420423570726 0.006023833004299046
0.03126302626094 0.002245081486250068 0.00758183186625248 0.9975197384033936 -0.018876767030930032 0.0002796123184075037 0.004014611528253961 -0.0002487396428797753 -0.0025048478349539455
 0.9975197384033936 -0.018876767030930032 0.0022455391099610532 0.0075817726063706825 -0.00024884032760132997 -0.0025048561919806156 0.000276455086502192 0.004015001286097133
 0.0002796123184075037 0.004014611528253961 -0.00024884032760132997 -0.0025048561919806156 0.002245018163644264 0.007581420881196666 0.997519732281885 -0.018877184715583934
 -0.0002487396428797753 -0.0025048478349539455 0.000276455086502192 0.004015001286097133 0.997519732281885 -0.018877184715583934 0.002245590341740396 0.007581348732856149
0.037515631513130004 0.0024453356765785973 0.00915714317652967 0.9972570130428319 -0.02268685054882488 0.00034808849738174314 0.004820079198412731 -0.0003066181838935131 -0.003010262875521607
 0.9972570130428319 -0.02268685054882488 0.002445994135685983 0.009157067099828605 -0.0003067624731365831 -0.0030102711876374443 0.00034354260724574594 0.004820618020999707
 0.00034808849738174314 0.004820079198412731 -0.0003067624731365831 -0.0030102711876374443 0.0024452448679835167 0.00915665073643251 0.9972570045687004 -0.02268735159660645
 -0.0003066181838935131 -0.003010262875521607 0.00034354260724574594 0.004820618020999707 0.9972570045687004 -0.02268735159660645 0.0024460682377348748 0.009156558333456832
0.043768236765320004 0.002659057360261587 0.010749634855694695 0.9969757536688196 -0.026510299619121176 0.00042464290264040576 0.005626326494054635 -0.0003711136277896244 -0.003516802958781874
 0.9969757536688196 -0.026510299619121176 0.0026599529800549245 0.010749540200641084 -0.00037130917207139143 -0.0035168104753973196 0.00041845498405822777 0.0056270448510671
 0.00042464290264040576 0.005626326494054635 -0.00037130917207139143 -0.0035168104753973196 0.0026589341307603448 0.010749061278793114 0.9969757424654401 -0.02651088401256311
 -0.0003711136277896244 -0.003516802958781874 0.00041845498405822777 0.0056270448510671 0.9969757424654401 -0.02651088401256311 0.0026600541648116567 0.010748946410766512
0.050020842017509996 0.002886522482712296 0.012358893247446335 0.9966757027018825 -0.03034721909902632 0.0005093583320379897 0.00643327217453889 -0.0004423121485984271 -0.004024357062720213
 0.9966757027018825 -0.03034721909902632 0.002887691564245591 0.012358778209958761 -0.0004425665365452452 -0.004024362956206309 0.0005012744690945322 0.006434203494635017
 0.0005093583320379897 0.00643327217453889 -0.0004425665365452452 -0.004024362956206309 0.0028863618992703943 0.012358238887447994 0.9966756883925588 -0.030347886834074335
 -0.0004423121485984271 -0.004024357062720213 0.0005012744690945322 0.006434203494635017 0.9966756883925588 -0.030347886834074335 0.002887824047760861 0.012358099230283411
0.055454545454549996 0.003095570781866459 0.013770729398015371 0.9963994872831528 -0.03369258619388831 0.0005896699316529117 0.007135031076399021 -0.000509695387483392 -0.004466175956772936
 0.9963994872831528 -0.03369258619388831 0.0030970069783282997 0.013770595150064763 -0.0005100070288153682 -0.00446617970772727 0.000579731797109097 0.0071361769403525
 0.0005896699316529117 0.007135031076399021 -0.0005100070288153682 -0.00446617970772727 0.003095373730965245 0.013770005157804003 0.9963994699673282 -0.033693326354973414
 -0.000509695387483392 -0.004466175956772936 0.000579731797109097 0.0071361769403525 0.9963994699673282 -0.033693326354973414 0.003097170087534254 0.01376984198231917
0.056273447269699996 0.003128005066134232 0.013984565959529707 0.996356601356532 -0.03419764358388889 0.0006023166093152188 0.0072408278240675555 -0.0005202984853681168 -0.004532816404515712
 0.996356601356532 -0.03419764358388889 0.0031294838946944402 0.013984428693855638 -0.0005206192458724177 -0.004532819770186851 0.0005920823354304365 0.007242008529763999
 0.0006023166093152188 0.0072408278240675555 -0.0005206192458724177 -0.004532819770186851 0.003127802196645627 0.013983831216080942 0.9963565835629897 -0.034198394660072254
 -0.0005202984853681168 -0.004532816404515712 0.0005920823354304365 0.007242008529763999 0.9963565835629897 -0.034198394660072254 0.0031296518961748017 0.013983664331902016
0.06252605252188 0.0033837775341192013 0.01562633967050519 0.9960181901502116 -0.038061559535652274 0.0007035984535154991 0.008048899444108764 -0.0006051559367337955 -0.005042072848984012
 0.9960181901502116 -0.038061559535652274 0.0033856023881926735 0.015626178289768134 -0.0006055505405346758 -0.005042072705115944 0.0006909587580529469 0.008050368986963185
 0.0007035984535154991 0.008048899444108764 -0.0006055505405346758 -0.005042072705115944 0.0033835274476931884 0.015625524986653185 0.9960181684928909 -0.03806239395932067
 -0.0006051559367337955 -0.005042072848984012 0.0006909587580529469 0.008050368986963185 0.9960181684928909 -0.03806239395932067 0.003385810129903229 0.01562532832322445
0.06877865777407 0.003654110887453831 0.01728392688735121 0.9956602092667743 -0.04193891846283047 0.000813283370135267 0.008857388397992503 -0.0006969663338156687 -0.005552017967939124
 0.9956602092667743 -0.04193891846283047 0.003656318046670543 0.017283739463951037 -0.0006974421945036606 -0.005552013255785878 0.0007979827132025366 0.008859189293835168
 0.000813283370135267 0.008857388397992503 -0.0006974421945036606 -0.005552013255785878 0.00365380865520837 0.017283032750208465 0.9956601833652017 -0.04193983624714419
 -0.0006969663338156687 -0.005552017967939124 0.0007979827132025366 0.008859189293835168 0.9956601833652017 -0.04193983624714419 0.0036565697551615914 0.017282803640288887
0.07503126302626001 0.003939274793020008 0.018957057555776344 0.9952823988360665 -0.04582964525093139 0.0009314495530656121 0.009666192016909622 -0.0007958100016553647 -0.006062542441402982
 0.9952823988360665 -0.04582964525093139 0.003941900546505264 0.018956842121499073 -0.0007963744764832748 -0.006062532025226025 0.0009132318864050204 0.009668369880957327
 0.0009314495530656121 0.009666192016909622 -0.0007963744764832748 -0.006062532025226025 0.0039389154879948315 0.018956084499374748 0.9952823683080291 -0.04583064641368097
 -0.0007958100016553647 -0.006062542441402982 0.0009132318864050204 0.009668369880957327 0.9952823683080291 -0.04583064641368097 0.003942200451619498 0.0189558201597645
0.08128386827845 0.00423953761768585 0.020645473472564166 0.9948844991613627 -0.04973364369403889 0.001058173795161243 0.010475203998100402 -0.0009017657112572602 -0.0065735356700730475
 0.9948844991613627 -0.04973364369403889 0.004242618271802434 0.02064522801853985 -0.0009024261015589421 -0.006573518337187363 0.0010367825878811342 0.010477807579820315
 0.001058173795161243 0.010475203998100402 -0.0009024261015589421 -0.006573518337187363 0.004239116314855386 0.020644422077510438 0.9948844636226677 -0.049734728258699214
 -0.0009017657112572602 -0.0065735356700730475 0.0010367825878811342 0.010477807579820315 0.9948844636226677 -0.049734728258699214 0.004242970606989395 0.020644119607842334
0.08753647353064001 0.0045551664244660745 0.022348924428380802 0.9944662509126344 -0.05365080029972041 0.0011935314031500774 0.011284314690902728 -0.001014910626288258 -0.007084885503478504
 0.9944662509126344 -0.05365080029972041 0.00455873831129169 0.02234864690464276 -0.0010156741778436116 -0.007084859964296579 0.0011687096712231734 0.011287395908627042
 0.0011935314031500774 0.011284314690902728 -0.0010156741778436116 -0.007084859964296579 0.004554678201647275 0.022347795319268525 0.9944662099774314 -0.05365196829868944
 -0.001014910626288258 -0.007084885503478504 0.0011687096712231734 0.011287395908627042 0.9944662099774314 -0.05365196829868944 0.004559147313677077 0.022347451700539568
0.09378907878283 0.00488642694598349 0.024067165439111003 0.9940273952997454 -0.05758098700915955 0.001337596115447777 0.01209341129825315 -0.0011353202458893562 -0.007596478056406366
 0.9940273952997454 -0.05758098700915955 0.004890526431103805 0.024066853754079374 -0.0011361941490670385 -0.007596442944494769 0.0013090864544564643 0.01209702527334026
 0.001337596115447777 0.01209341129825315 -0.0011361941490670385 -0.007596442944494769 0.004885866884002386 0.024065959294560034 0.9940273485799148 -0.05758223847436465
 -0.0011353202458893562 -0.007596478056406366 0.0013090864544564643 0.01209702527334026 0.9940273485799148 -0.05758223847436465 0.0048909963412192255 0.02406557138747325
0.100041684035 0.005233583537681983 0.025799954729878807 0.9935676742282756 -0.06152406316861975 0.0014904400229206873 0.012902378031132462 -0.001263068343591801 -0.008108197576153607
 0.9935676742282756 -0.06152406316861975 0.005238247028315922 0.02579960674946648 -0.0012640597333703448 -0.008108151448301655 0.0014579846434728144 0.012906583121800711
 0.0014904400229206873 0.012902378031132462 -0.0012640597333703448 -0.008108151448301655 0.005232946720502541 0.025798672274429522 0.9935676213329819 -0.06152539814029582
 -0.001263068343591801 -0.008108197576153607 0.0014579846434728144 0.012906583121800711 0.9935676213329819 -0.06152539814029582 0.005238782090000089 0.025798236817402936
0.1059090909091 0.005574044705124133 0.027439011308794448 0.9931170686888238 -0.06523580969186132 0.0016419151030275577 0.013661283725445813 -0.0013896847967530736 -0.008588402712574474
 0.9931170686888238 -0.06523580969186132 0.005579270611493829 0.02743862728919999 -0.0013907928750639268 -0.008588344866513185 0.001605522319123459 0.01366609950411758
 0.0016419151030275577 0.013661283725445813 -0.0013907928750639268 -0.008588344866513185 0.005573331394086531 0.0274376579467079 0.9931170096411093 -0.06523722306683241
 -0.0013896847967530736 -0.008588402712574474 0.001605522319123459 0.01366609950411758 0.9931170096411093 -0.06523722306683241 0.005579870673926907 0.027437174791836952
0.1062942892872 0.005596899118490191 0.027547052211458437 0.9930868304460864 -0.0654798770129449 0.0016521334900915826 0.013711096229310783 -0.001398226904688949 -0.008619926347460538
 0.9930868304460864 -0.0654798770129449 0.005602163071814198 0.027546665757909358 -0.0013993428606324243 -0.008619867683747763 0.0016154742557973468 0.01371595406387493
 0.0016521334900915826 0.013711096229310783 -0.0013993428606324243 -0.008619867683747763 0.005596180634515393 0.027545694219246686 0.9930867709825401 -0.06548129553654246
 -0.001398226904688949 -0.008619926347460538 0.0016154742557973468 0.01371595406387493 0.9930867709825401 -0.06548129553654246 0.005602767532608179 0.0275452078261946
0.11254689453939999 0.005976635101994394 0.029308218315420582 0.9925846076824864 -0.06944826679438773 0.0018227450781324833 0.014519444458234337 -0.0015408660611781883 -0.009131544625246492
 0.9925846076824864 -0.06944826679438773 0.005982536033305928 0.029307791165930113 -0.0015421136072878074 -0.009131471829134473 0.0017816235454942424 0.014525019967927457
 0.0018227450781324833 0.014519444458234337 -0.0015421136072878074 -0.009131471829134473 0.005975830043451502 0.02930678561196329 0.9925845412543227 -0.06944976891948855
 -0.0015408660611781883 -0.009131544625246492 0.0017816235454942424 0.014525019967927457 0.9925845412543227 -0.06944976891948855 0.005983214143376278 0.029306244769748694
0.11879949979160001 0.006373051317971901 0.031083213090339554 0.9920607507807467 -0.07342906165534804 0.002002341468209756 0.015327298588184426 -0.0016910540252642872 -0.009642930589205194
 0.9920607507807467 -0.07342906165534804 0.006379625809053496 0.03108274297535315 -0.001692440129794715 -0.00964284198762511 0.001956498928700809 0.015333660039357516
 0.002002341468209756 0.015327298588184426 -0.001692440129794715 -0.00964284198762511 0.006372154782570469 0.03108170655078105 0.9920606769890831 -0.07343064743794998
 -0.0016910540252642872 -0.009642930589205194 0.001956498928700809 0.015333660039357516 0.9920606769890831 -0.07343064743794998 0.006380381822068485 0.03108110761650656
0.1250521050438 0.006786405929489821 0.03287179548542167 0.991515005828389 -0.0774220823179374 0.0021909873853271085 0.016134531863978868 -0.001848857021972935 -0.010153960312093492
 0.991515005828389 -0.0774220823179374 0.006793690636747356 0.032871280086673754 -0.0018503885971460584 -0.010153854155557305 0.002140164908988058 0.0161417508897065
 0.0021909873853271085 0.016134531863978868 -0.0018503885971460584 -0.010153854155557305 0.006785413020456654 0.03287021603794853 0.9915149242713203 -0.07742375181776472
 -0.001848857021972935 -0.010153960312093492 0.002140164908988058 0.0161417508897065 0.9915149242713203 -0.07742375181776472 0.006794528809383512 0.032869555235820656
0.131304710296 0.00721695534348308 0.034673722776368765 0.9909471202842882 -0.0814271416366347 0.00238874552265107 0.01694101496730315 -0.002014339220418253 -0.010664507739600197
 0.9909471202842882 -0.0814271416366347 0.007224987006647254 0.034673159724523187 -0.0020160231221395927 -0.010664382202311851 0.0023326840035024035 0.016949166598353896
 0.00238874552265107 0.01694101496730315 -0.0020160231221395927 -0.010664382202311851 0.0072158611699324185 0.03467207140071944 0.9909470305560539 -0.08142889491909466
 -0.002014339220418253 -0.010664507739600197 0.0023326840035024035 0.016949166598353896 0.9909470305560539 -0.08142889491909466 0.0072259115982023486 0.034671344818671665
0.1375573155481 0.007563721348259466 0.03625236351705418 0.9904581093711686 -0.0852075700354497 0.0025702911793053663 0.017722357865055872 -0.002162244145812645 -0.011150153480812065
 0.9904581093711686 -0.0852075700354497 0.007572540311613993 0.03625176493978562 -0.0021640905522862723 -0.011150008517089907 0.002508861697880477 0.017731427253623602
 0.0025702911793053663 0.017722357865055872 -0.0021640905522862723 -0.011150008517089907 0.0075625216071612015 0.036250641093405485 0.9904580111018007 -0.08520940710839553
 -0.002162244145812645 -0.011150153480812065 0.002508861697880477 0.017731427253623602 0.9904580111018007 -0.08520940710839553 0.0075735549283344515 0.03624985940980358
0.1438099208003 0.007922590748043898 0.03782306120459094 0.9899520635007516 -0.0889788185341305 0.0027591910794980846 0.018500821713090736 -0.0023160855476295683 -0.011633192862784983
 0.9899520635007516 -0.0889788185341305 0.007932234428963559 0.03782242565900058 -0.0023181018323298243 -0.011633026686297454 0.002692157824241706 0.01851087715156581
 0.0027591910794980846 0.018500821713090736 -0.0023181018323298243 -0.011633026686297454 0.007921280662187466 0.03782126873232404 0.9899519562875276 -0.0889807394540491
 -0.0023160855476295683 -0.011633192862784983 0.002692157824241706 0.01851087715156581 0.9899519562875276 -0.0889807394540491 0.007933343215912282 0.037820428928522797
0.1500625260525 0.008293442459401673 0.03938569628679233 0.9894291074732836 -0.09274080570195606 0.0029553844347631835 0.01927633581754678 -0.002475804879411148 -0.012113559471470744
 0.9894291074732836 -0.09274080570195606 0.008303948378649386 0.03938502222313494 -0.00247799840186267 -0.012113370224314045 0.00288251293817534 0.019287448073548593
 0.0029553844347631835 0.01927633581754678 -0.00247799840186267 -0.012113370224314045 0.00829201726391812 0.03938383480295699 0.989428990910882 -0.09274281052957883
 -0.002475804879411148 -0.012113559471470744 0.00288251293817534 0.019287448073548593 0.989428990910882 -0.09274281052957883 0.008305155475858446 0.039382933689949974
0.15631513130469998 0.00867615459956709 0.040940152881265235 0.988889366657216 -0.09649345015263415 0.0031588097778336424 0.02004883059872824 -0.0026413429090955424 -0.012591188248605393
