! Created with skrf 1.8.0 (http://scikit-rf.org).
# GHz S RI R 50.0 
!freq ReS11 ImS11 ReS12 ImS12 ReS13 ImS13
! ReS14 ImS14
! ReS21 ImS21 ReS22 ImS22 ReS23 ImS23
! ReS24 ImS24
! ReS31 ImS31 ReS32 ImS32 ReS33 ImS33
! ReS34 ImS34
! ReS41 ImS41 ReS42 ImS42 ReS43 ImS43
! ReS44 ImS44
!
0.0 0.001802274459048 0.0 0.9981977255325 0.0 7.00839464893e-05 0.0 -7.008394702212e-05 8.582808139225193e-21
 0.9981977255325 0.0 0.001802274458989 0.0 -7.008394702109e-05 8.582808139099056e-21 7.008394648803e-05 0.0
 7.00839464893e-05 0.0 -7.008394702109e-05 8.582808139099056e-21 0.001802274456178 0.0 0.9981977255296 0.0
 -7.008394702212e-05 8.582808139225193e-21 7.008394648803e-05 0.0 0.9981977255296 0.0 0.001802274456166 0.0
0.005 0.0019399954128273605 0.0014710544737394277 0.9980233321218406 -0.003774534512057289 9.909916947753935e-05 0.0007874040557311708 -9.607340638754627e-05 -0.0004914193770433851
 0.9980233321218406 -0.003774534512057289 0.0019400045705936211 0.0014710490506239075 -9.607206328524618e-05 -0.0004914182904840705 9.905457454780605e-05 0.0007874211573318632
 9.909916947753935e-05 0.0007874040557311708 -9.607206328524618e-05 -0.0004914182904840705 0.0019399967545762201 0.0014711209200757717 0.9980233324980795 -0.0037744674471102894
 -9.607340638754627e-05 -0.0004914193770433851 9.905457454780605e-05 0.0007874211573318632 0.9980233324980795 -0.0037744674471102894 0.0019400039771921365 0.001471116732183985
0.006252605252188 0.0019763758357623515 0.0018445801895226363 0.9979769315775301 -0.004719050217594283 0.000107535431312559 0.0009846120984155558 -0.00010353517051063087 -0.0006148968635860743
 0.9979769315775301 -0.004719050217594283 0.001976390151388903 0.0018445732809471845 -0.00010353308099468344 -0.0006148955231248243 0.00010746575801544253 0.000984634304846119
 0.000107535431312559 0.0009846120984155558 -0.00010353308099468344 -0.0006148955231248243 0.0019763778647598957 0.001844663224077968 0.9979769320966602 -0.0047189664018759975
 -0.00010353517051063087 -0.0006148968635860743 0.00010746575801544253 0.000984634304846119 0.9979769320966602 -0.0047189664018759975 0.0019763891543858607 0.0018446578729450407
0.01250521050438 0.002169405597244988 0.0037275008965462347 0.9977289155863984 -0.009438604854279657 0.0001566899275989613 0.001969408641578504 -0.00014653709892657282 -0.001232610940477699
 0.9977289155863984 -0.009438604854279657 0.0021694627668637865 0.0037274857497197568 -0.00014652887000342303 -0.0012326084557846228 0.00015641214206552336 0.001969462109260024
 0.0001566899275989613 0.001969408641578504 -0.00014652887000342303 -0.0012326084557846228 0.0021694131466941853 0.0037276666304922566 0.9977289171008469 -0.00943843745992014
 -0.00014653709892657282 -0.001232610940477699 0.00015641214206552336 0.001969462109260024 0.9977289171008469 -0.00943843745992014 0.002169458217940436 0.003727654754689937
0.01875781575657 0.0023818392464458947 0.005636830437599954 0.9974533312191451 -0.014170087532445004 0.00021766891527849272 0.002955020650585502 -0.00019923340266621018 -0.0018521899166115607
 0.9974533312191451 -0.014170087532445004 0.002381967723845373 0.005636805580411736 -0.00019921506014563945 -0.0018521865253706778 0.00021704503813853743 0.002955116444512489
 0.00021766891527849272 0.002955020650585502 -0.00019921506014563945 -0.0018521865253706778 0.0023818558017445197 0.005637078621331105 0.9974533342025556 -0.014169836657188831
 -0.00019923340266621018 -0.0018521899166115607 0.00021704503813853743 0.002955116444512489 0.9974533342025556 -0.014169836657188831 0.002381957063699544 0.005637058971597626
0.02501042100875 0.0026141348293558294 0.007569821237931578 0.9971498171384929 -0.018915720971114974 0.000290595210916905 0.003941445966615641 -0.00026176174973530016 -0.0024733054109646606
 0.9971498171384929 -0.018915720971114974 0.002614363018815599 0.007569785063966154 -0.00026172936989830615 -0.002473301396391605 0.0002894873131143393 0.003941597097014316
 0.000290595210916905 0.003941445966615641 -0.00026172936989830615 -0.002473301396391605 0.0026141638727291976 0.007570151613366256 0.9971498220622342 -0.018915386668374678
 -0.00026176174973530016 -0.0024733054109646606 0.0002894873131143393 0.003941597097014316 0.9971498220622342 -0.018915386668374678 0.0026143436808430667 0.007570122870461474
0.03126302626094 0.0028667312328868526 0.009525023633579668 0.9968179957397008 -0.02367641318166828 0.000375591360168119 0.0049285886640029536 -0.0003342549623463368 -0.0030957135928859998
 0.9968179957397008 -0.02367641318166828 0.0028670875039973694 0.009524974402734239 -0.0003342046636227246 -0.0030957092841426923 0.00037386144627261366 0.004928810095241624
 0.000375591360168119 0.0049285886640029536 -0.0003342046636227246 -0.0030957092841426923 0.002866776247491514 0.009525435918825993 0.9968180030767417 -0.023675995475356416
 -0.0003342549623463368 -0.0030957135928859998 0.00037386144627261366 0.004928810095241624 0.9968180030767417 -0.023675995475356416 0.0028670569159720194 0.00952539669476021
0.037515631513130004 0.003140057038209164 0.011501465375343018 0.9964574824164162 -0.028452577912789753 0.0004727783576611605 0.005916315095614978 -0.00041684196632827796 -0.003719199179980704
 0.9964574824164162 -0.028452577912789753 0.0031405697348230164 0.01150140121358099 -0.00041676990490524757 -0.0037191949522580804 0.0004702883212583189 0.005916623762769392
 0.0004727783576611605 0.005916315095614978 -0.00041676990490524757 -0.0037191949522580804 0.0031401215061575396 0.011501959238930546 0.9964574926401225 -0.028452076822520555
 -0.00041684196632827796 -0.003719199179980704 0.0004702883212583189 0.005916623762769392 0.9964574926401225 -0.028452076822520555 0.0031405253174103032 0.01150190807732262
0.043768236765320004 0.0034345339126107687 0.013498401930609336 0.9960678893685784 -0.03324438428603599 0.0005822750183347741 0.006904470978224368 -0.0005096481086970154 -0.004343558398969867
 0.9960678893685784 -0.03324438428603599 0.0034352313600054894 0.013498320829207485 -0.0005095504759436636 -0.004343554673447699 0.0005788866287726515 0.006904885805747564
 0.0005822750183347741 0.006904470978224368 -0.0005095504759436636 -0.004343554673447699 0.003434621316524922 0.013498977003550957 0.9960679029549161 -0.033243799814388644
 -0.0005096481086970154 -0.004343558398969867 0.0005788866287726515 0.006904885805747564 0.9960679029549161 -0.033243799814388644 0.0034351705287036668 0.013498912379873778
0.050020842017509996 0.0037505781615255872 0.0155152133213761 0.995648827575011 -0.03805185989541315 0.0007041975852000003 0.007892888437057684 -0.000612795244379374 -0.004968591993293168
 0.995648827575011 -0.03805185989541315 0.003751488672395247 0.015515113135986778 -0.0006126682652619003 -0.004968589237103718 0.0006997724906412934 0.00789343035820901
 0.0007041975852000003 0.007892888437057684 -0.0006126682652619003 -0.004968589237103718 0.0037506919816173595 0.01551586918901023 0.9956488450004527 -0.038051192035469264
 -0.000612795244379374 -0.004968591993293168 0.0006997724906412934 0.00789343035820901 0.9956488450004527 -0.038051192035469264 0.003751408834785407 0.015515789510502396
0.055454545454549996 0.004043065399677747 0.017283598920230826 0.9952604157828763 -0.04224237974036702 0.0008203314777414969 0.008751927583840004 -0.0007109233877770891 -0.0055121588983829154
 0.9952604157828763 -0.04224237974036702 0.00404418405684036 0.017283480302499248 -0.0007107678652105193 -0.00551215739958218 0.0008148930125436148 0.008752598528389822
 0.0008203314777414969 0.008751927583840004 -0.0007107678652105193 -0.00551215739958218 0.004043205001300054 0.017284324629376107 0.9952604369333609 -0.04224163939928069
 -0.0007109233877770891 -0.0055121588983829154 0.0008148930125436148 0.008752598528389822 0.9952604369333609 -0.04224163939928069 0.0040440855920929435 0.017284230520929034
0.056273447269699996 0.004088601494334533 0.017551353467430142 0.9951999079859974 -0.0428749414072103 0.0008386594375896487 0.008881389500832866 -0.0007264017232644812 -0.005594101788021208
 0.9951999079859974 -0.0428749414072103 0.004089753374190378 0.017551231916795806 -0.000726241655196192 -0.005594100514185376 0.0008330591786252191 0.008882081477176255
 0.0008386594375896487 0.008881389500832866 -0.000726241655196192 -0.005594100514185376 0.004088745209347706 0.017552089668997763 0.9951999297295665 -0.04287419014233024
 -0.0007264017232644812 -0.005594101788021208 0.0008330591786252191 0.008882081477176255 0.9951999297295665 -0.04287419014233024 0.004089651931990669 0.017551993274254576
0.06252605252188 0.004449011409227179 0.019606322379338022 0.9947207423396257 -0.0477135023174736 0.0009857708517371543 0.009869788023334651 -0.0008505823248911804 -0.0062198888368678856
 0.9947207423396257 -0.0477135023174736 0.0044504329613255554 0.01960617704379193 -0.0008503854569656453 -0.006219889604226088 0.0009788568814148887 0.009870655064075634
 0.0009857708517371543 0.009869788023334651 -0.0008503854569656453 -0.006219889604226088 0.0044491884947686355 0.019607138405746193 0.9947207688827445 -0.047712667622981354
 -0.0008505823248911804 -0.0062198888368678856 0.0009788568814148887 0.009870655064075634 0.9947207688827445 -0.047712667622981354 0.004450307309798455 0.01960702356407589
0.06877865777407 0.004832211363147076 0.021679649555743603 0.994210943769921 -0.052567369514507224 0.001145638789072446 0.010857890852191165 -0.0009854481641925488 -0.006845752331341025
 0.994210943769921 -0.052567369514507224 0.004833930893137301 0.02167947787558581 -0.000985210816697963 -0.006845755744483576 0.0011372724981274542 0.010858960033190822
 0.001145638789072446 0.010857890852191165 -0.000985210816697963 -0.006845755744483576 0.004832425291422812 0.021680544851120098 0.9942109755970163 -0.05256645135551162
 -0.0009854481641925488 -0.006845752331341025 0.0011372724981274542 0.010858960033190822 0.9942109755970163 -0.05256645135551162 0.0048337784216239766 0.021680409761859303
0.07503126302626001 0.005238600817414791 0.02377088349449886 0.9936701272955244 -0.057436333737865296 0.0013183667020792342 0.01184549858602623 -0.0011311065790783287 -0.007471488931366337
 0.9936701272955244 -0.057436333737865296 0.005240646637883851 0.0237706827679239 -0.0011308251031084326 -0.007471495640566082 0.0013084094475935624 0.011846799068292675
 0.0013183667020792342 0.01184549858602623 -0.0011308251031084326 -0.007471495640566082 0.005238855056080028 0.023771857449134952 0.9936701648940836 -0.057435332075710915
 -0.0011311065790783287 -0.007471488931366337 0.0013084094475935624 0.011846799068292675 0.9936701648940836 -0.057435332075710915 0.005240464730077969 0.023771700240474113
0.08128386827845 0.005668575203986467 0.02587958470718885 0.99309791023371 -0.062320156544746465 0.0015040543506037892 0.012832406099620839 -0.0012876610063164808 -0.008096892337991752
 0.99309791023371 -0.062320156544746465 0.005670975639046251 0.025879352088229546 -0.0012873317835996882 -0.00809690303912899 0.0014923674879543036 0.01283396914729875
 0.0015040543506037892 0.012832406099620839 -0.0012873317835996882 -0.00809690303912899 0.005668873215376655 0.025880636666067644 0.9930979540951453 -0.06231907132802824
 -0.0012876610063164808 -0.008096892337991752 0.0014923674879543036 0.01283396914729875 0.9930979540951453 -0.06231907132802824 0.0056707616730636585 0.025880455393765087
0.08753647353064001 0.006122525838918125 0.02800532090680232 0.9924939125668772 -0.06721857511507304 0.0017027976255812277 0.01381840292189743 -0.001455210849786311 -0.008721753023826937
 0.9924939125668772 -0.06721857511507304 0.006125309228171252 0.02800505340282163 -0.0014548302925004872 -0.00872176845831683 0.0016892425425058706 0.013820261919621163
 0.0017027976255812277 0.01381840292189743 -0.0014548302925004872 -0.00872176845831683 0.006122871078443811 0.0280064501611831 0.9924939631861697 -0.06721740628748435
 -0.001455210849786311 -0.008721753023826937 0.0016892425425058706 0.013820261919621163 0.9924939631861697 -0.06721740628748435 0.006125060576655384 0.028006242806963923
0.09378907878283 0.006600839798641277 0.030147663581373135 0.9918577572762587 -0.07213130568243559 0.0019146883775445424 0.01480327353201055 -0.0016338513432805314 -0.009345858056066615
 0.9918577572762587 -0.07213130568243559 0.006604034501688397 0.03014735805047209 -0.0016334158940312807 -0.009345879010784236 0.0018991265303725448 0.014805464001514161
 0.0019146883775445424 0.01480327353201055 -0.0016334158940312807 -0.009345879010784236 0.006601235714721374 0.030148869373856663 0.9918578151531792 -0.0721300531772697
 -0.0016338513432805314 -0.009345858056066615 0.0018991265303725448 0.014805464001514161 0.9918578151531792 -0.0721300531772697 0.006603748532860174 0.03014863384358
0.100041684035 0.007103899771148605 0.032306185491555776 0.9911890706541865 -0.07705804605382381 0.0021398142491419925 0.015786797591461513 -0.0018236734092581177 -0.009968990994401314
 0.9911890706541865 -0.07705804605382381 0.0071075341716658235 0.03230583863959998 -0.0018231795411007786 -0.009969018301600805 0.0021221072010405707 0.01578935720756987
 0.0021398142491419925 0.015786797591461513 -0.0018231795411007786 -0.009969018301600805 0.007104349803213892 0.03230746701062065 0.9911891362930335 -0.0770567097990215
 -0.0018236734092581177 -0.009968990994401314 0.0021221072010405707 0.01578935720756987 0.9911891362930335 -0.0770567097990215 0.0071072082486973165 0.032307201132150624
0.1059090909091 0.007598811323471546 0.03434606310601568 0.9905316625637247 -0.08169372740292756 0.0023631824323819836 0.01670830560385922 -0.002012047886982804 -0.010552655123253134
 0.9905316625637247 -0.08169372740292756 0.007602884172958056 0.03434567434433167 -0.002011496018280082 -0.01055268918887502 0.0023433365636400605 0.01671124782099175
 0.0023631824323819836 0.01670830560385922 -0.002011496018280082 -0.01055268918887502 0.007599315257134491 0.034347414900268554 0.9905317359495122 -0.08169231248720031
 -0.002012047886982804 -0.010552655123253134 0.0023433365636400605 0.01671124782099175 0.9905317359495122 -0.08169231248720031 0.007602518355422662 0.034347118496091636
0.1062942892872 0.007632083886591116 0.034480458805423726 0.9904874825994855 -0.08199847750487262 0.0023782585105206057 0.016768750144940395 -0.00202476351547258 -0.010590931831402887
 0.9904874825994855 -0.08199847750487262 0.007636186396276284 0.0344800671829352 -0.0020242077319251703 -0.010590966368645477 0.0023582679707637223 0.01677171875068324
 0.0023782585105206057 0.016768750144940395 -0.0020242077319251703 -0.010590966368645477 0.00763259146453366 0.034481815186087714 0.9904875565098054 -0.08199705742193131
 -0.00202476351547258 -0.010590931831402887 0.0023582679707637223 0.01677171875068324 0.9904875565098054 -0.08199705742193131 0.007635817878242577 0.034481516706879496
0.11254689453939999 0.008185765534444249 0.036670053680235216 0.9897526269036369 -0.08695226624147744 0.0026300998964947347 0.017748901791390607 -0.002237203529735104 -0.011211456974070973
 0.9897526269036369 -0.08695226624147744 0.008190364597349339 0.03666961367894879 -0.002236582364947151 -0.011211499664134318 0.0026076877620024898 0.017752321412300306
 0.0026300998964947347 0.017748901791390607 -0.002236582364947151 -0.011211499664134318 0.00818633407731423 0.03667148400770747 0.9897527096004288 -0.0869507622414247
 -0.002237203529735104 -0.011211456974070973 0.0026076877620024898 0.017752321412300306 0.9897527096004288 -0.0869507622414247 0.00818995083933389 0.036671150592136895
0.11879949979160001 0.008765313168810988 0.038874537181613475 0.988984141526383 -0.09191906453750957 0.0028954124468145753 0.01872701884492259 -0.0024610705734974497 -0.01183033924675631
 0.988984141526383 -0.09191906453750957 0.008770437265202435 0.038874045030732766 -0.002460380592352731 -0.011830391057554296 0.0028704408442847126 0.018730933702546502
 0.0028954124468145753 0.01872701884492259 -0.002460380592352731 -0.011830391057554296 0.008765946083608983 0.0388760404844401 0.9889842335306274 -0.09191747652745866
 -0.0024610705734974497 -0.01183033924675631 0.0028704408442847126 0.018730933702546502 0.9889842335306274 -0.09191747652745866 0.008769975618493938 0.03887566971079682
0.1250521050438 0.009371090104959316 0.04109347242991459 0.9881816688663879 -0.09689851165904817 0.0031742653478198466 0.019702863479458856 -0.0026964368752844478 -0.012447347922271134
 0.9881816688663879 -0.09689851165904817 0.009376767754908123 0.04109292419223706 -0.0026956746735663797 -0.012447409866757332 0.0031465966771510013 0.019707320003921655
 0.0031742653478198466 0.019702863479458856 -0.0026956746735663797 -0.012447409866757332 0.009371790785653148 0.041095047686405956 0.9881817707053061 -0.09689683953547551
 -0.0026964368752844478 -0.012447347922271134 0.0031465966771510013 0.019707320003921655 0.9881817707053061 -0.09689683953547551 0.009376255567804083 0.0410946370436506
0.131304710296 0.010003454309320517 0.043326417947553354 0.9873448560265318 -0.10189023460195261 0.0034667227759037 0.0206761938702574 -0.0029433696237604746 -0.013062248767616627
 0.9873448560265318 -0.10189023460195261 0.010009714077101701 0.043325809515172765 -0.0029425318283344036 -0.013062321903707132 0.00343621975536177 0.020681240711818583
 0.0034667227759037 0.0206761938702574 -0.0029425318283344036 -0.013062321903707132 0.010004226135227848 0.04332806407917147 0.9873449682341703 -0.10188847825712313
 -0.0029433696237604746 -0.013062248767616627 0.00343621975536177 0.020681240711818583 0.9873449682341703 -0.10188847825712313 0.010009148694803379 0.04332761096328797
0.1375573155481 0.01052677039956815 0.045282062353617675 0.9866094141816988 -0.1066028024474599 0.00373874303315011 0.021618759818112062 -0.0031678689866228432 -0.01364679799581199
 0.9866094141816988 -0.1066028024474599 0.010533641722701641 0.045281401609839504 -0.0031669504056211274 -0.013646882527853055 0.003705333694014159 0.0216243940948726
 0.00373874303315011 0.021618759818112062 -0.0031669504056211274 -0.013646882527853055 0.01052761588194943 0.045283778722311596 0.9866095372313701 -0.10660096186063314
 -0.0031678689866228432 -0.01364679799581199 0.003705333694014159 0.0216243940948726 0.9866095372313701 -0.10660096186063314 0.010533021470595655 0.04528329180117552
0.1438099208003 0.011068742568113818 0.04722566642031631 0.9858475879138832 -0.11130166115131303 0.0040216897916964985 0.022556404311963592 -0.0034012703013150173 -0.014226851500239895
 0.9858475879138832 -0.11130166115131303 0.011076254164006608 0.047224949990070486 -0.0034002672792897474 -0.01422694848705029 0.003985249069509464 0.022562670962280918
 0.0040216897916964985 0.022556404311963592 -0.0034002672792897474 -0.01422694848705029 0.011069664910563805 0.047227451963093005 0.9858477223355888 -0.111299736227844
 -0.0034012703013150173 -0.014226851500239895 0.003985249069509464 0.022562670962280918 0.9858477223355888 -0.111299736227844 0.011075576561205903 0.04722692932555295
0.1500625260525 0.011629152094319306 0.04915701643332583 0.9850596011662512 -0.11598664136671805 0.004315446909018339 0.023488995949095145 -0.003643460984791405 -0.014802287146109757
 0.9850596011662512 -0.11598664136671805 0.011637332717846267 0.04915624076171603 -0.003642369874407204 -0.014802397689874519 0.00427585079283119 0.023495941521927674
 0.004315446909018339 0.023488995949095145 -0.003642369874407204 -0.014802397689874519 0.011630154476910277 0.04915887005233622 0.9850597474954569 -0.115984632004061
 -0.003643460984791405 -0.014802287146109757 0.00427585079283119 0.023495941521927674 0.9850597474954569 -0.115984632004061 0.011636595292809988 0.049158309662341325
0.15631513130469998 0.012207778368348875 0.05107590508245775 0.9842456793957679 -0.12065757556015441 0.004619896663949274 0.024416405984630477 -0.003894326885996317 -0.015372985749019246
 0.9842456793957679 -0.12065757556015441 0.01221665681271516 0.05107506643151022 -0.0038931440481491447 -0.01537311099525968 0.0045770222172551505 0.024424078615923103
