! Created with skrf 1.8.0 (http://scikit-rf.org).
# GHz S RI R 50.0 
!freq ReS11 ImS11 ReS12 ImS12 ReS13 ImS13
! ReS14 ImS14
! ReS21 ImS21 ReS22 ImS22 ReS23 ImS23
! ReS24 ImS24
! ReS31 ImS31 ReS32 ImS32 ReS33 ImS33
! ReS34 ImS34
! ReS41 ImS41 ReS42 ImS42 ReS43 ImS43
! ReS44 ImS44
!
0.0 0.00142766158289 0.0 0.9985723384036 0.0 5.53097175882e-05 0.0 -5.530971796089e-05 6.773486906254681e-21
 0.9985723384036 0.0 0.001427661582905 0.0 -5.5309717961e-05 6.773486906268152e-21 5.530971758984e-05 0.0
 5.53097175882e-05 0.0 -5.5309717961e-05 6.773486906268152e-21 0.001427661584929 0.0 0.9985723384056 0.0
 -5.530971796089e-05 6.773486906254681e-21 5.530971758984e-05 0.0 0.9985723384056 0.0 0.001427661584946 0.0
0.005 0.00153583153991222 0.0011600802318959826 0.9984355138078707 -0.00299137274938421 7.854336455950728e-05 0.0006584190395057781 -7.601323766037397e-05 -0.00040478083512398893
 0.9984355138078707 -0.00299137274938421 0.0015358329212946692 0.0011600794418015201 -7.601492037452592e-05 -0.00040478216520491373 7.852551734489247e-05 0.0006584257719712256
 7.854336455950728e-05 0.0006584190395057781 -7.601492037452592e-05 -0.00040478216520491373 0.0015358301551089693 0.0011600138098051722 0.9984355134557278 -0.00299143981741158
 -7.601323766037397e-05 -0.00040478083512398893 7.852551734489247e-05 0.0006584257719712256 0.9984355134557278 -0.00299143981741158 0.0015358336082988003 0.0011600117340380526
0.006252605252188 0.001564112050213171 0.0014547140709624312 0.9983995270582879 -0.0037399653373005964 8.513235094916527e-05 0.0008233258576282283 -8.182249552279157e-05 -0.0005065162142473798
 0.9983995270582879 -0.0037399653373005964 0.0015641142095303745 0.0014547130757192822 -8.182511368490678e-05 -0.0005065178552696629 8.51044653639188e-05 0.0008233346071327046
 8.513235094916527e-05 0.0008233258576282283 -8.182511368490678e-05 -0.0005065178552696629 0.0015641099621041454 0.0014546310650260692 0.9983995265846938 -0.003740049158147575
 -8.182249552279157e-05 -0.0005065162142473798 8.51044653639188e-05 0.0008233346071327046 0.9983995265846938 -0.003740049158147575 0.0015641153608206197 0.001454628453705214
0.01250521050438 0.0017124676430180597 0.0029403343585433874 0.9982095474971425 -0.007480868703628998 0.00012266080155334317 0.0016468998636075462 -0.00011458978294764083 -0.0010155953657601663
 0.9982095474971425 -0.007480868703628998 0.0017124762638001578 0.0029403323045766893 -0.00011460009769790706 -0.0010155984131074154 0.00012254957276453042 0.0016469209390915234
 0.00012266080155334317 0.0016468998636075462 -0.00011460009769790706 -0.0010155984131074154 0.0017124598708684598 0.00294016868008766 0.9982095461751948 -0.007481036115402123
 -0.00011458978294764083 -0.0010155953657601663 0.00012254957276453042 0.0016469209390915234 0.9982095461751948 -0.007481036115402123 0.0017124814386443679 0.002940163286714557
0.01875781575657 0.001873034516426261 0.00444746571349677 0.9980021764163571 -0.011231842678624487 0.00016797820847258782 0.002471340855186392 -0.0001537097278881264 -0.001526449453506085
 0.9980021764163571 -0.011231842678624487 0.0018730538843213238 0.004447462559671066 -0.00015373272608211878 -0.0015264536317776678 0.0001677282818756607 0.002471378477393264
 0.00016797820847258782 0.002471340855186392 -0.00015373272608211878 -0.0015264536317776678 0.0018730174637526728 0.004447217620958663 0.9980021738622603 -0.01123209360277082
 -0.0001537097278881264 -0.001526449453506085 0.0001677282818756607 0.002471378477393264 0.9980021738622603 -0.01123209360277082 0.0018730659474235746 0.004447209244408199
0.02501042100875 0.0020461107391552234 0.00597400014777477 0.9977771822493642 -0.014994724069175501 0.0002211690929059347 0.003296708705598989 -0.00019927734781218295 -0.0020388444776167016
 0.9977771822493642 -0.014994724069175501 0.002046145130071944 0.005973995878215658 -0.00019931795576063902 -0.002038849465553583 0.00022072505749525304 0.0032967677183392773
 0.0002211690929059347 0.003296708705598989 -0.00019931795576063902 -0.002038849465553583 0.0020460808189656826 0.005973669909898964 0.9977771780837541 -0.014995058492123193
 -0.00019927734781218295 -0.0020388444776167016 0.00022072505749525304 0.0032967677183392773 0.9977771780837541 -0.014995058492123193 0.0020461669568418946 0.005973658324111811
0.03126302626094 0.0022319819482834154 0.007518861536457019 0.9975343210070549 -0.018770309176321553 0.0002823186867570751 0.004122981832452088 -0.0002513850290379385 -0.0025526229245139854
 0.9975343210070549 -0.018770309176321553 0.0022320356320603006 0.007518856161550088 -0.0002514481230110579 -0.0025526283543721904 0.0002816250270330299 0.004123067706592572
 0.0002823186867570751 0.004122981832452088 -0.0002514481230110579 -0.0025526283543721904 0.0022319355743673323 0.007518449472436214 0.9975343148457396 -0.018770727109689828
 -0.0002513850290379385 -0.0025526229245139854 0.0002816250270330299 0.004123067706592572 0.9975343148457396 -0.018770727109689828 0.002232070102093371 0.00751843442718828
0.037515631513130004 0.002430927682687218 0.009081354826492338 0.9972733427837095 -0.02255900452991143 0.00035151204536355813 0.004950106816280216 -0.00031012327719539244 -0.0030676541438822637
 0.9972733427837095 -0.02255900452991143 0.002431004925767853 0.009081348383670484 -0.0003102136888311807 -0.0030676596012316976 0.0003505131207962023 0.00495022565626419
 0.00035151204536355813 0.004950106816280216 -0.0003102136888311807 -0.0030676596012316976 0.0024308612736796812 0.00908086130956028 0.9972733342415365 -0.022559506007392847
 -0.00031012327719539244 -0.0030676541438822637 0.0003505131207962023 0.00495022565626419 0.9972733342415365 -0.022559506007392847 0.002431054927953223 0.009080842530794312
0.043768236765320004 0.0026432238412244413 0.010660967971694276 0.996993994389344 -0.026361024889438697 0.00042883364117905526 0.0057780134917213045 -0.0003755809919304363 -0.003583819252521816
 0.996993994389344 -0.026361024889438697 0.002643328908597676 0.010660960526174624 -0.00037570351144837564 -0.0035838242761893225 0.0004274736773096962 0.005778172042771576
 0.00042883364117905526 0.0057780134917213045 -0.00037570351144837564 -0.0035838242761893225 0.0026431338182460306 0.010660393424665258 0.9969939830771489 -0.026361609971903323
 -0.0003755809919304363 -0.003583819252521816 0.0004274736773096962 0.005778172042771576 0.9969939830771489 -0.026361609971903323 0.002643397339460176 0.010660370614481295
0.050020842017509996 0.0028691438235954603 0.01225729007820982 0.9966960206675903 -0.0301764750326163 0.0005143671245317943 0.006606621179758011 -0.0004478455748137133 -0.00410100489837898
 0.9966960206675903 -0.0301764750326163 0.0028692809814427583 0.012257281723652388 -0.00044800495319481215 -0.004101008980440354 0.0005125902107077412 0.006606826835392214
 0.0005143671245317943 0.006606621179758011 -0.00044800495319481215 -0.004101008980440354 0.0028690266116676876 0.012256634986438279 0.9966960061918979 -0.030177143795730773
 -0.0004478455748137133 -0.00410100489837898 0.0005125902107077412 0.006606826835392214 0.9966960061918979 -0.030177143795730773 0.0028693707463084833 0.012256607822978934
0.055454545454549996 0.00307675024287475 0.013657839238511386 0.9964217473568038 -0.03350315185644443 0.0005954315968346341 0.007327207374895607 -0.0005162404767422795 -0.004551197558655589
 0.9964217473568038 -0.03350315185644443 0.0030769187554534005 0.013657830192499824 -0.0005164357155914694 -0.004551200373627451 0.0005932468295807268 0.007327460479483385
 0.0005954315968346341 0.007327207374895607 -0.0005164357155914694 -0.004551200373627451 0.003076606503409251 0.013657114585131748 0.9964217298088808 -0.03350389342245342
 -0.0005162404767422795 -0.004551197558655589 0.0005932468295807268 0.007327460479483385 0.9964217298088808 -0.03350389342245342 0.003077029427222998 0.013657083358420335
0.056273447269699996 0.0031089591231124214 0.013869971238962353 0.996379165267917 -0.03400538985553529 0.0006081951578500815 0.0074358417389504055 -0.0005270029635793027 -0.004619100207828936
 0.996379165267917 -0.03400538985553529 0.003109132640861712 0.013869962097964468 -0.0005272039140093419 -0.004619102793611109 0.0006059452483127975 0.007436102548562354
 0.0006081951578500815 0.0074358417389504055 -0.0005272039140093419 -0.004619102793611109 0.0031088111521806253 0.013869236139877124 0.9963791472307919 -0.03400614240077569
 -0.0005270029635793027 -0.004619100207828936 0.0006059452483127975 0.007436102548562354 0.9963791472307919 -0.03400614240077569 0.0031092466548132834 0.013869204277146741
0.06252605252188 0.00336293964943725 0.0154987004376395 0.9960431711501778 -0.03784775640506829 0.0007103992864352644 0.008265581249738084 -0.0006131376282563099 -0.005137995102519605
 0.9960431711501778 -0.03784775640506829 0.0033631538016700574 0.015498690662341457 -0.000613384827156807 -0.005137995590621427 0.0007076202042061156 0.008265905926218568
 0.0007103992864352644 0.008265581249738084 -0.000613384827156807 -0.005137995590621427 0.0033627573550389193 0.01549788593342452 0.9960431491489429 -0.03784859284770814
 -0.0006131376282563099 -0.005137995102519605 0.0007076202042061156 0.008265905926218568 0.9960431491489429 -0.03784859284770814 0.0033632949900701497 0.015497849001031697
0.06877865777407 0.003631353903473864 0.017143192383514014 0.9956877809461185 -0.04170352698295243 0.0008210598296798835 0.00909574101449393 -0.0007063325457463933 -0.005657579303534546
 0.9956877809461185 -0.04170352698295243 0.003631612971989098 0.017143182155997 -0.000706630633495379 -0.005657577045849523 0.0008176952721194627 0.009096138941782322
 0.0008210598296798835 0.00909574101449393 -0.000706630633495379 -0.005657577045849523 0.003631133727072554 0.0171422991326157 0.9956877545720273 -0.04170444746107132
 -0.0007063325457463933 -0.005657579303534546 0.0008176952721194627 0.009096138941782322 0.9956877545720273 -0.04170444746107132 0.003631784270596676 0.017142256735368438
0.07503126302626001 0.003914469065042151 0.01880317916318128 0.9953127372354155 -0.045572627436002086 0.0009402557842348309 0.009926218193507402 -0.0008066691609325271 -0.006177741702853165
 0.9953127372354155 -0.045572627436002086 0.003914777341290464 0.0188031686958209 -0.0008070227424417192 -0.006177736004600521 0.0009362493300279936 0.009926699434055193
 0.0009402557842348309 0.009926218193507402 -0.0008070227424417192 -0.006177736004600521 0.003914207455212081 0.01880220788907912 0.9953127060732392 -0.045573632102258545
 -0.0008066691609325271 -0.006177741702853165 0.0009362493300279936 0.009926699434055193 0.9953127060732392 -0.045573632102258545 0.003914981696674902 0.01880215960662846
0.08128386827845 0.00421255102755774 0.020478404683861248 0.9949177827720307 -0.04945496265792564 0.0010680647341151722 0.010756906231988555 -0.0009142273396372406 -0.006698369947207178
 0.9949177827720307 -0.04945496265792564 0.0042129128143014605 0.02047839421970507 -0.0009146409846789066 -0.00669836006696747 0.0010633598512769763 0.01075748153414382
 0.0010680647341151722 0.010756906231988555 -0.0009146409846789066 -0.00669836006696747 0.0042122444407330095 0.02047735617205389 0.9949177463995216 -0.049456051683103706
 -0.0009142273396372406 -0.006698369947207178 0.0010633598512769763 0.01075748153414382 0.9949177463995216 -0.049456051683103706 0.004213153184468585 0.020477301558363754
0.08753647353064001 0.004525864394233671 0.022168620834660133 0.9945026606753903 -0.0533504203769983 0.001204562765973061 0.011587695156686041 -0.0010290853149712265 -0.007219350155928598
 0.9945026606753903 -0.0533504203769983 0.004526284008115144 0.02216861064759277 -0.0010295635584903103 -0.007219335305667809 0.0011991028206932305 0.011588375961959855
 0.001204562765973061 0.011587695156686041 -0.0010295635584903103 -0.007219335305667809 0.00452550929633791 0.022167495927687905 0.9945026186630715 -0.05335159395544197
 -0.0010290853149712265 -0.007219350155928598 0.0011991028206932305 0.011588375961959855 0.9945026186630715 -0.05335159395544197 0.00452656336325531 0.022167434510583697
0.09378907878283 0.004854672452475648 0.023873584732982095 0.9940671146022206 -0.057258873862174854 0.001349824387309797 0.012418471790593228 -0.0011513196296191555 -0.007740566724367689
 0.9940671146022206 -0.057258873862174854 0.0048551542257748385 0.02387357512803684 -0.0011518669718539821 -0.0077405460694947295 0.001343552653494117 0.01241927024079955
 0.001349824387309797 0.012418471790593228 -0.0011518669718539821 -0.0077405460694947295 0.004854265318970814 0.023872384344191117 0.994067066511943 -0.0572601321985229
 -0.0011513196296191555 -0.007740566724367689 0.001343552653494117 0.01241927024079955 0.994067066511943 -0.0572601321985229 0.004855475548042901 0.02387231562465598
0.100041684035 0.0051992371271997635 0.025593056723429354 0.9936108889006864 -0.06118018388103762 0.0015039224463822005 0.013249119917919107 -0.001281005075091623 -0.00826190218098838
 0.9936108889006864 -0.06118018388103762 0.005199785410104826 0.025593048036772877 -0.0012816259816772655 -0.008261874840388206 0.0014967821159342042 0.013250048862083091
 0.0015039224463822005 0.013249119917919107 -0.0012816259816772655 -0.008261874840388206 0.005198774444829431 0.025591781823315743 0.9936108342855697 -0.06118152720420691
 -0.001281005075091623 -0.00826190218098838 0.0014967821159342042 0.013250048862083091 0.9936108342855697 -0.06118152720420691 0.0052001516946609955 0.025591705274899873
0.1059090909091 0.005537137072908618 0.027219581781747357 0.9931637345762164 -0.06487147660170979 0.0016566271412192808 0.014028372126070323 -0.001409542863507979 -0.008751121974506474
 0.9931637345762164 -0.06487147660170979 0.0055377517425611485 0.027219574290398535 -0.0014102368331065525 -0.008751087517297813 0.0016486199950301143 0.014029435847046832
 0.0016566271412192808 0.014028372126070323 -0.0014102368331065525 -0.008751087517297813 0.005536619079221283 0.02721823790449471 0.9931636734235008 -0.06487289989598286
 -0.001409542863507979 -0.008751121974506474 0.0016486199950301143 0.014029435847046832 0.9931636734235008 -0.06487289989598286 0.005538162954984974 0.027218153505581023
0.1062942892872 0.005559818922950613 0.027326798854720134 0.9931337287552426 -0.06511420018355739 0.0016669280540625858 0.014079520407051621 -0.001418214628072118 -0.008783237090227044
 0.9931337287552426 -0.06511420018355739 0.0055604380859475356 0.0273267914537836 -0.0014189135300912952 -0.008783202136312517 0.0016588622476295806 0.014080593408304289
 0.0016669280540625858 0.014079520407051621 -0.0014189135300912952 -0.008783202136312517 0.005559297190459772 0.027325450483017683 0.9931336671590114 -0.06511562873514971
 -0.001418214628072118 -0.008783237090227044 0.0016588622476295806 0.014080593408304289 0.9931336671590114 -0.06511562873514971 0.005560852340889283 0.027325365551063442
0.11254689453939999 0.0059366768553467 0.029074573730049333 0.9926353803246967 -0.06906076261713012 0.0018389105062276766 0.014909551314287874 -0.001563019385208404 -0.009304449978791667
 0.9926353803246967 -0.06906076261713012 0.005937371291293496 0.029074568013425263 -0.0015638006791699733 -0.009304406437554369 0.0018298622844791965 0.014910782656456446
 0.0018389105062276766 0.014909551314287874 -0.0015638006791699733 -0.009304406437554369 0.005936092584763201 0.029073152986895324 0.9926353112807065 -0.06906227666050313
 -0.001563019385208404 -0.009304449978791667 0.0018298622844791965 0.014910782656456446 0.9926353112807065 -0.06906227666050313 0.005937836538288085 0.029073059087758733
0.11879949979160001 0.006330068374518675 0.030836143602119163 0.9921155908733251 -0.0730197020011366 0.00201993720702671 0.01573908796745734 -0.0017154884961514793 -0.009825417286124995
 0.9921155908733251 -0.0730197020011366 0.006330842500970175 0.030836139999497192 -0.0017163565439307594 -0.009825364137191104 0.0020098495823839694 0.015740492661542697
 0.00201993720702671 0.01573908796745734 -0.0017163565439307594 -0.009825364137191104 0.006329418092271868 0.030834651653923857 0.992115513904173 -0.07302130181594638
 -0.0017154884961514793 -0.009825417286124995 0.0020098495823839694 0.015740492661542697 0.992115513904173 -0.07302130181594638 0.00633136177560029 0.03083454817407363
0.1250521050438 0.006740249282822849 0.03261126966231875 0.9915741089001079 -0.07699084081227299 0.002210073592607016 0.01656800303700138 -0.0018756890954117805 -0.010346013331566163
 0.9915741089001079 -0.07699084081227299 0.006741107543997616 0.03261126863430945 -0.0018766482240999232 -0.010345949508271628 0.0021988895413229043 0.01656959682745754
 0.002210073592607016 0.01656800303700138 -0.0018766482240999232 -0.010345949508271628 0.006739529530651544 0.032609707741223806 0.991574023516867 -0.07699252669521262
 -0.0018756890954117805 -0.010346013331566163 0.0021988895413229043 0.01656959682745754 0.991574023516867 -0.07699252669521262 0.006741683896412025 0.03260959403632515
0.131304710296 0.007167473645953912 0.034399711472610534 0.9910106842628815 -0.08097399373182601 0.0024093830551504282 0.017396166600614146 -0.002043686233123667 -0.01086611029239652
 0.9910106842628815 -0.08097399373182601 0.007168420515640152 0.03439971351041476 -0.0020447407350325897 -0.010866034681829756 0.0023970455298743553 0.01739796597140594
 0.0024093830551504282 0.017396166600614146 -0.0020447407350325897 -0.010866034681829756 0.007166680982649359 0.034398080875255845 0.9910105899643613 -0.08097576599804814
 -0.002043686233123667 -0.01086611029239652 0.0023970455298743553 0.01739796597140594 0.9910105899643613 -0.08097576599804814 0.007169057010424606 0.03439795626917771
0.1375573155481 0.007511522169449969 0.03596574965532094 0.9905255739265385 -0.08473339709123402 0.0025921346239803555 0.018198979086176945 -0.0021937680283273713 -0.011361114532743964
 0.9905255739265385 -0.08473339709123402 0.007512562915181552 0.035965755853417686 -0.002194924343022297 -0.011361027121211736 0.0025786178238956757 0.01820098056881889
 0.0025921346239803555 0.018198979086176945 -0.002194924343022297 -0.011361027121211736 0.007510653774852864 0.03596405141855463 0.990525470302666 -0.08473525592661303
 -0.0021937680283273713 -0.011361114532743964 0.0025786178238956757 0.01820098056881889 0.990525470302666 -0.08473525592661303 0.007513261835971539 0.035963916168710024
0.1438099208003 0.007867569374879431 0.03752389563588849 0.9900235800954298 -0.08848367497605117 0.002782286241892157 0.018998893067313182 -0.002349880002280288 -0.011853480467576148
 0.9900235800954298 -0.08848367497605117 0.007868708638734652 0.03752390648719201 -0.002351142758785124 -0.011853380165703094 0.002767538734601327 0.019001111602928524
 0.002782286241892157 0.018998893067313182 -0.002351142758785124 -0.011853380165703094 0.007866621943932327 0.037522131086987764 0.9900234666461807 -0.08848562068920067
 -0.002349880002280288 -0.011853480467576148 0.002767538734601327 0.019001111602928524 0.9900234666461807 -0.08848562068920067 0.007869472930352716 0.037521984524464494
0.1500625260525 0.008235495253570617 0.039074030867525957 0.9895048265618316 -0.09222474664060268 0.00297977672440898 0.01979583758811043 -0.002511962822098163 -0.012343140660067243
 0.9895048265618316 -0.09222474664060268 0.008236737711002213 0.039074046874140504 -0.0025133366419471314 -0.012343026334622356 0.0029637474188614708 0.019798288647637066
 0.00297977672440898 0.01979583758811043 -0.0025133366419471314 -0.012343026334622356 0.008234465504462525 0.039072201384902784 0.9895047027767055 -0.09222677955320231
 -0.002511962822098163 -0.012343140660067243 0.0029637474188614708 0.019798288647637066 0.9895047027767055 -0.09222677955320231 0.00823757032310223 0.0390720428047625
0.15631513130469998 0.008615179002021812 0.040616040447104686 0.988969437686093 -0.09595653137809669 0.0031845442036605837 0.02058974280544026 -0.002679956458444025 -0.012830029053673135
