! Created with skrf 1.8.0 (http://scikit-rf.org).
# GHz S RI R 50.0 
!freq ReS11 ImS11 ReS12 ImS12 ReS13 ImS13
! ReS14 ImS14
! ReS21 ImS21 ReS22 ImS22 ReS23 ImS23
! ReS24 ImS24
! ReS31 ImS31 ReS32 ImS32 ReS33 ImS33
! ReS34 ImS34
! ReS41 ImS41 ReS42 ImS42 ReS43 ImS43
! ReS44 ImS44
!
0.0 0.001470884908634 0.0 0.9985291150743 0.0 5.6531927468e-05 0.0 -5.653192693533e-05 6.923164337098393e-21
 0.9985291150743 0.0 0.00147088490861 0.0 -5.653192693473e-05 6.923164337024914e-21 5.653192746791e-05 0.0
 5.6531927468e-05 0.0 -5.653192693473e-05 6.923164337024914e-21 0.001470884914303 0.0 0.99852911508 0.0
 -5.653192693533e-05 6.923164337098393e-21 5.653192746791e-05 0.0 0.99852911508 0.0 0.001470884914307 0.0
0.005 0.0015823261629349704 0.001204960137628694 0.9983881648530902 -0.0030812977067876937 7.886022027646676e-05 0.0006137059006849562 -7.665566860140641e-05 -0.0003868546962803148
 0.9983881648530902 -0.0030812977067876937 0.0015823408568306787 0.0012049515186529104 -7.66522074152878e-05 -0.00038685203203248385 7.878220516826366e-05 0.000613735608862271
 7.886022027646676e-05 0.0006137059006849562 -7.66522074152878e-05 -0.00038685203203248385 0.0015823283186378906 0.001205026117843778 0.9983881651986837 -0.0030812306372143333
 -7.665566860140641e-05 -0.0003868546962803148 7.878220516826366e-05 0.000613735608862271 0.9983881651986837 -0.0030812306372143333 0.0015823393884470437 0.0012050196751346289
0.006252605252188 0.0016114916798646913 0.001510941677497184 0.99835105324112 -0.0038523844925256296 8.520613702292202e-05 0.0007674376394945355 -8.230683460666985e-05 -0.00048406984649752545
 0.99835105324112 -0.0038523844925256296 0.0016115146494792 0.0015109307424999803 -8.230144872793359e-05 -0.00048406656108991196 8.508424530036852e-05 0.0007674762048388848
 8.520613702292202e-05 0.0007674376394945355 -8.230144872793359e-05 -0.00048406656108991196 0.0016114949803077753 0.0015110241298759905 0.9983510537116538 -0.0038523006735434458
 -8.230683460666985e-05 -0.00048406984649752545 8.508424530036852e-05 0.0007674762048388848 0.9983510537116538 -0.0038523006735434458 0.001611512284098506 0.0015110159224009218
0.01250521050438 0.0017646636214993035 0.00305356845960355 0.9981549066618213 -0.007705624740694872 0.00012142319023031291 0.0015352818829714341 -0.00011420686661095908 -0.000970515324464677
 0.9981549066618213 -0.007705624740694872 0.001764755344097157 0.0030535449460788256 -0.00011418564118450778 -0.0009705092444902661 0.00012093710560139786 0.001535374398226877
 0.00012142319023031291 0.0015352818829714341 -0.00011418564118450778 -0.0009705092444902661 0.001764676261501115 0.0030537330470831736 0.9981549079983643 -0.007705457347217249
 -0.00011420686661095908 -0.000970515324464677 0.00012093710560139786 0.001535374398226877 0.9981549079983643 -0.007705457347217249 0.0017647453505637027 0.0030537150902785115
0.01875781575657 0.001930723226009558 0.0046182117197395385 0.997940440086516 -0.011569109842801949 0.00016526503022584692 0.0023040426892727258 -0.0001523272691693709 -0.0014586564093016533
 0.997940440086516 -0.011569109842801949 0.0019309293389528834 0.0046181738169350384 -0.00015227993500716776 -0.0014586481167062962 0.00016417307238202698 0.002304207447452114
 0.00016526503022584692 0.0023040426892727258 -0.00015227993500716776 -0.0014586481167062962 0.0019307512154982732 0.0046184582192333274 0.9979404426707811 -0.011568858956760568
 -0.0001523272691693709 -0.0014586564093016533 0.00016417307238202698 0.002304207447452114 0.9979404426707811 -0.011568858956760568 0.0019309064514986612 0.004618428896301936
0.02501042100875 0.002109984077710316 0.0062026981462764775 0.997707409279731 -0.015444724331654546 0.00021681493184016472 0.00307375610544719 -0.00019676050055800838 -0.0019482820514091256
 0.997707409279731 -0.015444724331654546 0.0021103501309906792 0.006202643892399648 -0.0001966769105388873 -0.0019482722296343994 0.0002148753103581699 0.0030740142012298933
 0.00021681493184016472 0.00307375610544719 -0.0001966769105388873 -0.0019482722296343994 0.002110033421459725 0.006203026304390847 0.9977074134966971 -0.01544438999926051
 -0.00019676050055800838 -0.0019482820514091256 0.0002148753103581699 0.0030740142012298933 0.9977074134966971 -0.01544438999926051 0.0021103090892696367 0.0062029839347644625
0.03126302626094 0.002302746766158112 0.007805915635288977 0.9974555571189154 -0.019333282255500253 0.0002761567398255877 0.0038443888009614263 -0.00024759659033232387 -0.0024392455952338588
 0.9974555571189154 -0.019333282255500253 0.0023033182459212534 0.007805842920082286 -0.00024746669840723136 -0.002439235030530572 0.00027312732617411383 0.0038447641463464815
 0.0002761567398255877 0.0038443888009614263 -0.00024746669840723136 -0.002439235030530572 0.002302823462826722 0.007806325148093494 0.9974555633537251 -0.01933286450727142
 -0.00024759659033232387 -0.0024392455952338588 0.00027312732617411383 0.0038447641463464815 0.9974555633537251 -0.01933286450727142 0.0023032537894780163 0.007806267990002109
0.037515631513130004 0.0025093054706956863 0.009427143834935894 0.9971846203626028 -0.023235196574412753 0.0003433740361951268 0.0046158800900662576 -0.0003049237760806463 -0.0029314227495316155
 0.9971846203626028 -0.023235196574412753 0.00251012781439938 0.009427050400551406 -0.0003047376266114653 -0.0029314123313739773 0.0003390122596913594 0.004616399442626445
 0.0003433740361951268 0.0046158800900662576 -0.0003047376266114653 -0.0029314123313739773 0.0025094155161828184 0.009427634353754448 0.9971846290029788 -0.023234695418769245
 -0.0003049237760806463 -0.0029314227495316155 0.0003390122596913594 0.004616399442626445 0.9971846290029788 -0.023234695418769245 0.002510034683152794 0.009427560605960707
0.043768236765320004 0.0027299505164321983 0.011065850444187545 0.9968943323932525 -0.027150682793478282 0.0004185497558942345 0.005388154712512357 -0.0003688287290325555 -0.003424698801759898
 0.9968943323932525 -0.027150682793478282 0.0027310691239887134 0.01106573388542796 -0.00036857645036967457 -0.0034246895229872393 0.0004126125527166862 0.005388847707585177
 0.0004185497558942345 0.005388154712512357 -0.00036857645036967457 -0.0034246895229872393 0.0027300999007020595 0.011066421567409324 0.9968943438270179 -0.027150098224204822
 -0.0003688287290325555 -0.003424698801759898 0.0004126125527166862 0.005388847707585177 0.9968943438270179 -0.027150098224204822 0.0027309420543096888 0.011066329370468598
0.050020842017509996 0.002964969559515054 0.012721607015640247 0.9965844245934494 -0.031079843089883732 0.0005017659556196669 0.006161128108322185 -0.0004393966382690382 -0.003918963340596181
 0.9965844245934494 -0.031079843089883732 0.0029664298030230656 0.01272146477979532 -0.00043906843869777573 -0.003918956297478263 0.0004940097459441851 0.006162027292827113
 0.0005017659556196669 0.006161128108322185 -0.00043906843869777573 -0.003918956297478263 0.0029651642684375345 0.01272225828314018 0.9965844392097615 -0.03107917509095785
 -0.0004393966382690382 -0.003918963340596181 0.0004940097459441851 0.006162027292827113 0.9965844392097615 -0.03107917509095785 0.0029662635286909354 0.012722145720466822
0.055454545454549996 0.003181103531687821 0.014174070992763129 0.9962989620957369 -0.03450553220698563 0.0005806761572421056 0.006833362154993476 -0.000506198488259078 -0.004349212538150413
 0.9962989620957369 -0.03450553220698563 0.0031828974996846236 0.014173904254781206 -0.0005057964190354165 -0.004349208408536176 0.0005711409536724824 0.006834469243727798
 0.0005806761572421056 0.006833362154993476 -0.0005057964190354165 -0.004349208408536176 0.003181342487213114 0.014174791488681695 0.9962989797958527 -0.034504791684224136
 -0.000506198488259078 -0.004349212538150413 0.0005711409536724824 0.006834469243727798 0.9962989797958527 -0.034504791684224136 0.003182692876361754 0.014174659627229554
0.056273447269699996 0.0032146482016444807 0.01439404762254603 0.9962546271538643 -0.03502270757633016 0.0005931036516212046 0.006934709006674564 -0.0005167112304923162 -0.004414107666976113
 0.9962546271538643 -0.03502270757633016 0.0032164954338821296 0.014393877008991432 -0.000516297395466257 -0.004414104059232535 0.0005832843334572751 0.006935849873683441
 0.0005931036516212046 0.006934709006674564 -0.000516297395466257 -0.004414104059232535 0.0032148942172027144 0.014394778514334431 0.9962546453445918 -0.03502195612248634
 -0.0005167112304923162 -0.004414107666976113 0.0005832843334572751 0.006935849873683441 0.9962546453445918 -0.03502195612248634 0.003216284686050721 0.014394643612937153
0.06252605252188 0.00347927032169572 0.016082846149400032 0.9959046696032339 -0.03897925694287681 0.0006926426920091177 0.0077088008480275345 -0.0006008547563718225 -0.00491002337490636
 0.9959046696032339 -0.03897925694287681 0.003481549884132236 0.0160826443088098 -0.0006003456466698075 -0.004910024505687636 0.0006805156465671843 0.0077102218716164185
 0.0006926426920091177 0.0077088008480275345 -0.0006003456466698075 -0.004910024505687636 0.0034795736215703474 0.016083656084985052 0.9959046917623439 -0.03897842199940491
 -0.0006008547563718225 -0.00491002337490636 0.0006805156465671843 0.0077102218716164185 0.9959046917623439 -0.03897842199940491 0.0034812893907089013 0.016083496816042386
0.06877865777407 0.003759118255769738 0.01778770273652255 0.9955342811888295 -0.04294943594744655 0.0008004616477456336 0.00848330263607682 -0.0006919079587484095 -0.005406601505641068
 0.9955342811888295 -0.04294943594744655 0.0037618754859416823 0.017787466670011257 -0.0006912940091745765 -0.0054066087815026476 0.0007857817523766824 0.008485045306309912
 0.0008004616477456336 0.00848330263607682 -0.0006912940091745765 -0.0054066087815026476 0.00375948481248108 0.01778859107405937 0.9955343077127605 -0.042948517470298014
 -0.0006919079587484095 -0.005406601505641068 0.0007857817523766824 0.008485045306309912 0.9955343077127605 -0.042948517470298014 0.0037615599710052227 0.017788405353277376
0.07503126302626001 0.004054472885285438 0.019508335192915036 0.9951431911694135 -0.046933161941366146 0.0009166377155443651 0.009258109475004703 -0.0007899500281985481 -0.005903732020081522
 0.9951431911694135 -0.046933161941366146 0.00405775312401218 0.01950806175085296 -0.0007892217466933803 -0.0059037469509530946 0.0008991593627272478 0.009260218332811614
 0.0009166377155443651 0.009258109475004703 -0.0007892217466933803 -0.0059037469509530946 0.004054908666196798 0.019509301229180917 0.995143222457487 -0.04693215987634569
 -0.0007899500281985481 -0.005903732020081522 0.0008991593627272478 0.009260218332811614 0.995143222457487 -0.04693215987634569 0.004057377308271093 0.019509086916981045
0.08128386827845 0.004365613666984098 0.02124447328635068 0.9947311290530443 -0.05093033052145531 0.001041246626834566 0.010033112934749564 -0.0008950585519006211 -0.006401303446772405
 0.9947311290530443 -0.05093033052145531 0.0043694622656951345 0.021244159166951843 -0.0008942065190494646 -0.006401327645896525 0.0010207237475531599 0.010035635606632043
 0.001041246626834566 0.010033112934749564 -0.0008942065190494646 -0.006401327645896525 0.004366124633602709 0.02124551625551483 0.9947311655078259 -0.050929244804688086
 -0.0008950585519006211 -0.006401303446772405 0.0010207237475531599 0.010035635606632043 0.9947311655078259 -0.050929244804688086 0.004369020865806291 0.021245271156846476
0.08753647353064001 0.004692818628398391 0.02299585478577057 0.9942978248033735 -0.054940819433472246 0.0011743625617482735 0.010808201303691825 -0.0010073094564383134 -0.0068992026462288926
 0.9942978248033735 -0.054940819433472246 0.004697280955914344 0.022995496533517394 -0.0010063243251321424 -0.006899237830101657 0.0011505486527905674 0.010811188536200632
 0.0011743625617482735 0.010808201303691825 -0.0010063243251321424 -0.006899237830101657 0.0046934107358254885 0.02299697385650175 0.9942978668311311 -0.05493964999355347
 -0.0010073094564383134 -0.0068992026462288926 0.0011505486527905674 0.010811188536200632 0.9942978668311311 -0.05493964999355347 0.004696768684700452 0.022996695720631035
0.09378907878283 0.0050363643336405976 0.02476222263941715 0.9938430090206717 -0.058964491344410175 0.0013160580656777828 0.011583259773878023 -0.0011267769472255546 -0.007397314646724158
 0.9938430090206717 -0.058964491344410175 0.005041485783430938 0.024761816643107108 -0.0011256494425545421 -0.007397362635016934 0.0012887062198568312 0.011586765467710695
 0.0013160580656777828 0.011583259773878023 -0.0011256494425545421 -0.007397362635016934 0.0050370435302715885 0.0247634169148071 0.9938430570312606 -0.05896323810165704
 -0.0011267769472255546 -0.007397314646724158 0.0012887062198568312 0.011586765467710695 0.9938430570312606 -0.05896323810165704 0.005040897350087766 0.02476310343472614
0.100041684035 0.00539652583338486 0.02654332290505032 0.9933664131079086 -0.06300119586675051 0.001466403967998693 0.012358170582385308 -0.0012535334447160004 -0.007895522527812858
 0.9933664131079086 -0.06300119586675051 0.005402351830308363 0.026542865395743805 -0.0012522543640358164 -0.00789558524328767 0.001435266907021809 0.0123622518262059
 0.001466403967998693 0.012358170582385308 -0.0012522543640358164 -0.00789558524328767 0.005397298060092311 0.026544591421537856 0.9933664675159034 -0.06299985873357453
 -0.0012535334447160004 -0.007895522527812858 0.001435266907021809 0.0123622518262059 0.9933664675159034 -0.06299985873357453 0.005401681939936926 0.02654424023315158
0.1059090909091 0.005749854711271291 0.028227870715339744 0.9928991311824933 -0.06680092384153073 0.001615416611121793 0.013085100491451201 -0.0013791731323898764 -0.00836301905242782
 0.9928991311824933 -0.06680092384153073 0.005756383198373345 0.028227361296170112 -0.0013777435084848084 -0.008363097428267897 0.0015805023306463056 0.013089776618437791
 0.001615416611121793 0.013085100491451201 -0.0013777435084848084 -0.008363097428267897 0.0057507196324535995 0.028229207966028413 0.9928991919743383 -0.06679950789620966
 -0.0013791731323898764 -0.00836301905242782 0.0015805023306463056 0.013089776618437791 0.9928991919743383 -0.06679950789620966 0.005755632050026053 0.028228819190562825
0.1062942892872 0.005773576599346842 0.028338903187641176 0.9928677694268685 -0.06705077108003817 0.0016254693019903035 0.013132813121705694 -0.00138764951859102 -0.008393707339144699
 0.9928677694268685 -0.06705077108003817 0.00578015260660937 0.02833839023631657 -0.00138620973165827 -0.008393786807543555 0.0015902994116237807 0.01313753022541357
 0.0016254693019903035 0.013132813121705694 -0.00138620973165827 -0.008393786807543555 0.005774447788479843 0.02834024491755537 0.9928678306506289 -0.0670493499576839
 -0.00138764951859102 -0.008393707339144699 0.0015902994116237807 0.01313753022541357 0.9928678306506289 -0.0670493499576839 0.005779395960199526 0.028339853598699245
0.11254689453939999 0.0061677884481690145 0.030148711459300072 0.9923468114445273 -0.07111304467510772 0.0017933212258015034 0.013907064028813742 -0.0015291938200258427 -0.00889174804467478
 0.9923468114445273 -0.07111304467510772 0.006175159974279441 0.030148138974204174 -0.001527584269247374 -0.008891846394610369 0.0017538705930699098 0.013912480556464319
 0.0017933212258015034 0.013907064028813742 -0.001527584269247374 -0.008891846394610369 0.006168764523409587 0.030150125304653826 0.9923468799081138 -0.07111153945910555
 -0.0015291938200258427 -0.00889174804467478 0.0017538705930699098 0.013912480556464319 0.9923468799081138 -0.07111153945910555 0.006174311269396026 0.030149691373746325
0.11879949979160001 0.006579431457976019 0.03197249512455702 0.9918032738764667 -0.0751878348576413 0.0019700249437882 0.01468079726160342 -0.0016782330128082335 -0.009389521483933365
 0.9918032738764667 -0.0751878348576413 0.006587644063626486 0.03197185884834068 -0.0016764447136227171 -0.009389640946759927 0.0019260453960630198 0.014686980063762506
 0.0019700249437882 0.01468079726160342 -0.0016764447136227171 -0.009389640946759927 0.006580518333047111 0.03197397991964637 0.9918033500085937 -0.07518624543461445
 -0.0016782330128082335 -0.009389521483933365 0.0019260453960630198 0.014686980063762506 0.9918033500085937 -0.07518624543461445 0.006586697993680378 0.031973500834145976
0.1250521050438 0.0070087738773450025 0.033810000289998796 0.9912368928239065 -0.07927495105274195 0.0021556436286186676 0.01545388416485324 -0.0018348317030711222 -0.009886902348159279
 0.9912368928239065 -0.07927495105274195 0.007017873182558804 0.03380929579657657 -0.0018328557443860532 -0.009887045257811868 0.0021068867744758754 0.015460903410431878
 0.0021556436286186676 0.01545388416485324 -0.0018328557443860532 -0.009887045257811868 0.007009977455479074 0.03381155480123863 0.9912369770589614 -0.07927327729977567
 -0.0018348317030711222 -0.009886902348159279 0.0021068867744758754 0.015460903410431878 0.9912369770589614 -0.07927327729977567 0.007016824437201906 0.03381102795582377
0.131304710296 0.007456082029182881 0.035660971182859866 0.990647405909742 -0.08337419446571272 0.002350238343610782 0.01622619352844138 -0.001999052368359168 -0.010383763168668807
 0.990647405909742 -0.08337419446571272 0.0074661137200947155 0.03566019387396605 -0.0019968799129963907 -0.010383931961515975 0.002296455615058041 0.01623412273593948
 0.002350238343610782 0.01622619352844138 -0.0019968799129963907 -0.010383931961515975 0.0074574082022545955 0.03566259410646736 0.9906474986880183 -0.08337243625211532
 -0.001999052368359168 -0.010383763168668807 0.002296455615058041 0.01623412273593948 0.9906474986880183 -0.08337243625211532 0.007464956985384503 0.03566201683087881
0.1375573155481 0.007817176758630154 0.03728414763328024 0.99013903238005 -0.08724426222863664 0.0025289923736132804 0.016973464273619156 -0.002146146354406216 -0.010855815682562383
 0.99013903238005 -0.08724426222863664 0.007828188955309913 0.037283307614844656 -0.002143764322258944 -0.010856010486171849 0.002470059115362391 0.01698229028241141
 0.0025289923736132804 0.016973464273619156 -0.002143764322258944 -0.010856010486171849 0.007818630896993709 0.03728583769603388 0.9901391340906824 -0.08724241950294223
 -0.002146146354406216 -0.010855815682562383 0.002470059115362391 0.01698229028241141 0.9901391340906824 -0.08724241950294223 0.007826919530546924 0.03728522209476376
0.1438099208003 0.00819092168552336 0.038899095493713225 0.9896128835040813 -0.09110483314443317 0.0027149720760574155 0.01771784195141647 -0.00229912707597891 -0.01132523812705957
 0.9896128835040813 -0.09110483314443317 0.00820296051889308 0.03889818904592963 -0.002296525971895769 -0.01132546133075004 0.0026506618748406187 0.017727631842087414
 0.0027149720760574155 0.01771784195141647 -0.002296525971895769 -0.01132546133075004 0.008192509572069068 0.03890085134978305 0.9896129945848706 -0.09110290578308707
 -0.00229912707597891 -0.01132523812705957 0.0026506618748406187 0.017727631842087414 0.9896129945848706 -0.09110290578308707 0.008201573195570052 0.03890019569804806
0.1500625260525 0.008577189474010056 0.04050568911908926 0.9890690904289194 -0.09495582057577216 0.002908115886574141 0.018459254978980676 -0.0024579351597975962 -0.011791963514120964
 0.9890690904289194 -0.09495582057577216 0.008590301149502867 0.04050471232416876 -0.0024551055083816904 -0.011792217603055585 0.0028382035976344455 0.018470078279329734
 0.002908115886574141 0.018459254978980676 -0.0024551055083816904 -0.011792217603055585 0.008578916874985796 0.040507509367898924 0.9890692113225769 -0.09495380845111624
 -0.0024579351597975962 -0.011791963514120964 0.0028382035976344455 0.018470078279329734 0.9890692113225769 -0.09495380845111624 0.008588790722611627 0.04050681182430607
0.15631513130469998 0.008975851938104415 0.042103806699531905 0.9885077849089015 -0.09879713800595423 0.0031083615391105947 0.01919763293607716 -0.0026225105275293295 -0.012255926234409164
