! Created with skrf 1.8.0 (http://scikit-rf.org).
# GHz S RI R 50.0 
!freq ReS11 ImS11 ReS12 ImS12 ReS13 ImS13
! ReS14 ImS14
! ReS21 ImS21 ReS22 ImS22 ReS23 ImS23
! ReS24 ImS24
! ReS31 ImS31 ReS32 ImS32 ReS33 ImS33
! ReS34 ImS34
! ReS41 ImS41 ReS42 ImS42 ReS43 ImS43
! ReS44 ImS44
!
0.0 0.001053675774806 0.0 0.9989463242252 0.0 3.958032671768e-05 0.0 -3.958032644036e-05 4.847192008439422e-21
 0.9989463242252 0.0 0.001053675774803 0.0 -3.958032644023e-05 4.847192008423502e-21 3.958032671803e-05 0.0
 3.958032671768e-05 0.0 -3.958032644023e-05 4.847192008423502e-21 0.001053675770532 0.0 0.9989463242209 0.0
 -3.958032644036e-05 4.847192008439422e-21 3.958032671803e-05 0.0 0.9989463242209 0.0 0.001053675770539 0.0
0.005 0.0011326099727864167 0.0008669155593677858 0.9988466180518003 -0.0022083142955767396 5.426172560500992e-05 0.0004100047761535902 -5.293615988546762e-05 -0.0002620733268586095
 0.9988466180518003 -0.0022083142955767396 0.0011326194755618417 0.0008669099907907264 -5.2936500679937644e-05 -0.0002620735423092352 5.420526500461759e-05 0.00041002621988634277
 5.426172560500992e-05 0.0004100047761535902 -5.2936500679937644e-05 -0.0002620735423092352 0.0011326103699347268 0.0008669825400085805 0.9988466183730659 -0.0022082472325070674
 -5.293615988546762e-05 -0.0002620733268586095 5.420526500461759e-05 0.00041002621988634277 0.9988466183730659 -0.0022082472325070674 0.0011326197176252308 0.0008669771333809994
0.006252605252188 0.0011530220048985842 0.0010870756854256763 0.998820719092186 -0.0027609751816825624 5.830396673141963e-05 0.0005127337602788179 -5.6576592114223e-05 -0.00032794016337338604
 0.998820719092186 -0.0027609751816825624 0.0011530368595944638 0.0010870686043198882 -5.6577122803885995e-05 -0.00032794042827108286 5.821575000369637e-05 0.0005127615650003444
 5.830396673141963e-05 0.0005127337602788179 -5.6577122803885995e-05 -0.00032794042827108286 0.0011530225402934275 0.0010871594020718223 0.9988207195085965 -0.0027608913561519613
 -5.6576592114223e-05 -0.00032794016337338604 5.821575000369637e-05 0.0005127615650003444 0.9988207195085965 -0.0027608913561519613 0.0011530371518803696 0.0010871525322393603
0.01250521050438 0.0012587864977730084 0.0021971926995381155 0.9986858632632869 -0.005522939188192524 8.0681378680989e-05 0.001025966438265277 -7.653163123409278e-05 -0.0006576149738932412
 0.9986858632632869 -0.005522939188192524 0.001258845816177125 0.002197177324927808 -7.653372744038501e-05 -0.0006576154560974878 8.03295428496353e-05 0.0010260326088446124
 8.0681378680989e-05 0.001025966438265277 -7.653372744038501e-05 -0.0006576154560974878 0.0012587880902976746 0.0021973598110183066 0.9986858643765226 -0.005522771789946982
 -7.653163123409278e-05 -0.0006576149738932412 8.03295428496353e-05 0.0010260326088446124 0.9986858643765226 -0.005522771789946982 0.00125884642675078 0.002197344949285874
0.01875781575657 0.0013711384398516627 0.0033234701142993432 0.998541633697753 -0.008292666798722443 0.00010675473213912145 0.0015400442956761747 -9.949329155134412e-05 -0.0009886179052233574
 0.998541633697753 -0.008292666798722443 0.0013712717379606196 0.0033234451524040733 -9.949797318456893e-05 -0.0009886185495537746 0.00010596425451238072 0.0015401609361686735
 0.00010675473213912145 0.0015400442956761747 -9.949797318456893e-05 -0.0009886185495537746 0.001371141609710766 0.0033237204553423234 0.9985416357824091 -0.008292415896460677
 -9.949329155134412e-05 -0.0009886179052233574 0.00010596425451238072 0.0015401609361686735 0.9985416357824091 -0.008292415896460677 0.0013712726785016695 0.003323696405517511
0.02501042100875 0.0014902449594540422 0.004464398638528427 0.9983879043689244 -0.011071557712989542 0.00013656686046343831 0.0020550152580313705 -0.0001255087386268034 -0.0013208390265044944
 0.9983879043689244 -0.011071557712989542 0.001490481696120228 0.004464362723833544 -0.00012551701601492112 -0.0013208397692682818 0.00013516255881955 0.0020551959339740427
 0.00013656686046343831 0.0020550152580313705 -0.00012551701601492112 -0.0013208397692682818 0.0014902502318072575 0.004464732032395231 0.9983879077009412 -0.01107122335909328
 -0.0001255087386268034 -0.0013208390265044944 0.00013516255881955 0.0020551959339740427 0.9983879077009412 -0.01107122335909328 0.0014904829710723367 0.004464697533953099
0.03126302626094 0.0016162656722268957 0.005619230890436022 0.9982245408751553 -0.013860246259680221 0.00017016122544214078 0.0025708841497089716 -0.00015462427742645937 -0.0016542097178654858
 0.9982245408751553 -0.013860246259680221 0.0016166352628816524 0.005619182587499808 -0.00015463715311634795 -0.0016542104866970786 0.00016796758226622017 0.0025711438942139834
 0.00017016122544214078 0.0025708841497089716 -0.00015463715311634795 -0.0016542104866970786 0.0016162735753530253 0.0056196471716470015 0.9982245457303827 -0.013859828467221426
 -0.00015462427742645937 -0.0016542097178654858 0.00016796758226622017 0.0025711438942139834 0.9982245457303827 -0.013859828467221426 0.0016166368677816424 0.005619600901758517
0.037515631513130004 0.0017493568288974816 0.006787501822527097 0.9980514046354539 -0.016659080938398515 0.0002075815197067165 0.003087639203377643 -0.00018688567238075353 -0.0019886761468553707
 0.9980514046354539 -0.016659080938398515 0.0017498886535097095 0.006787439626788531 -0.00018690414204587658 -0.001988676860633966 0.00020442259586709409 0.003087994531890651
 0.0002075815197067165 0.003087639203377643 -0.00018690414204587658 -0.001988676860633966 0.001749367895455201 0.006788000805449025 0.9980514112917589 -0.016658579712285917
 -0.00018688567238075353 -0.0019886761468553707 0.00020442259586709409 0.003087994531890651 0.9980514112917589 -0.016658579712285917 0.001749890576528866 0.0067879413800045595
0.043768236765320004 0.001889672919772108 0.007968882746795997 0.9978683545440448 -0.019468270357115344 0.0002488714849276016 0.0036052601167063866 -0.00022233827661789 -0.0023241911995059623
 0.9978683545440448 -0.019468270357115344 0.0018903963288590907 0.007968805085193894 -0.00022236332960186894 -0.0023241917683040647 0.00024457087146663355 0.0036057290444938047
 0.0002488714849276016 0.0036052601167063866 -0.00022236332960186894 -0.0023241917683040647 0.0018896876853834327 0.007969464235233417 0.9978683632800506 -0.01946768568423226
 -0.00022233827661789 -0.0023241911995059623 0.00024457087146663355 0.0036057290444938047 0.9978683632800506 -0.01946768568423226 0.0018903985495456607 0.007969390209599582
0.050020842017509996 0.002037367430929828 0.009163121024985945 0.9976752477778313 -0.022287943502992243 0.00029407481105138574 0.004123721378745981 -0.000261027088604727 -0.0026607111423381123
 0.9976752477778313 -0.022287943502992243 0.0020383117499479355 0.009163026256363983 -0.00026105970826554735 -0.0026607114673782356 0.00028845560087796047 0.004124323439518346
 0.00029407481105138574 0.004123721378745981 -0.00026105970826554735 -0.0026607114673782356 0.002037386434171397 0.009163784802532953 0.9976752588737483 -0.022287275361655437
 -0.000261027088604727 -0.0026607111423381123 0.00028845560087796047 0.004124323439518346 0.9976752588737483 -0.022287275361655437 0.0020383142394096157 0.009163694672151914
0.055454545454549996 0.002171829364038644 0.010211231039881953 0.997499153018676 -0.024746901207005897 0.0003365698434173627 0.004574939867344553 -0.0002973117345393058 -0.002953940626933631
 0.997499153018676 -0.024746901207005897 0.0021729894598478054 0.01021112001929103 -0.0002973517239897474 -0.002953940653013385 0.0003296606633722849 0.004575674682235955
 0.0003365698434173627 0.004574939867344553 -0.0002973517239897474 -0.002953940653013385 0.0021718524893965525 0.010211966141257566 0.9974991663941971 -0.024746160501000328
 -0.0002973117345393058 -0.002953940626933631 0.0003296606633722849 0.004575674682235955 0.9974991663941971 -0.024746160501000328 0.002172992153009332 0.010211860747286172
0.056273447269699996 0.002192593245910955 0.01037001046143963 0.9974719402507563 -0.02511817931003334 0.0003432350712589345 0.004642993894731961 -0.0003029967763556718 -0.0029981939863941505
 0.9974719402507563 -0.02511817931003334 0.002193787779158907 0.010369896876890243 -0.000303037940281913 -0.002998193960001325 0.0003361198428881364 0.004643750159873446
 0.0003432350712589345 0.004642993894731961 -0.000303037940281913 -0.002998193960001325 0.00219261702789442 0.010370756295383924 0.9974719539882138 -0.025117427665783613
 -0.0003029967763556718 -0.0029981939863941505 0.0003361198428881364 0.004643750159873446 0.9974719539882138 -0.025117427665783613 0.0021937905000346493 0.010370648496249146
0.06252605252188 0.0023555028751908107 0.01158937503438009 0.9972582868968323 -0.02795902288822799 0.00039639567350961805 0.005163045879670966 -0.000348291686536994 -0.003336598582982615
 0.9972582868968323 -0.02795902288822799 0.002356976909549279 0.011589240857442335 -0.000348342366705858 -0.003336598088550668 0.0003876064825754606 0.005163978977769648
 0.00039639567350961805 0.005163045879670966 -0.000348342366705858 -0.003336598088550668 0.0023555319796046566 0.01159020267506505 0.9972583035597384 -0.02795818769416998
 -0.000348291686536994 -0.003336598582982615 0.0003876064825754606 0.005163978977769648 0.9972583035597384 -0.02795818769416998 0.0023569798160825457 0.011590075584142325
0.06877865777407 0.00252624859623775 0.012821059191936967 0.9970341418652217 -0.03081049518787077 0.0004535998229189185 0.005683843385491835 -0.0003969558433869663 -0.003675884086384901
 0.9970341418652217 -0.03081049518787077 0.002528031404129764 0.012820902578827086 -0.00039701700628033524 -0.0036758829983353546 0.0004429581989171136 0.005684977522082676
 0.0004535998229189185 0.005683843385491835 -0.00039701700628033524 -0.0036758829983353546 0.0025262835684463783 0.012821968366336938 0.9970341617391291 -0.030809576391006472
 -0.0003969558433869663 -0.003675884086384901 0.0004429581989171136 0.005684977522082676 0.9970341617391291 -0.030809576391006472 0.002528034441451064 0.012821820301920108
0.07503126302626001 0.0027049825350513074 0.014064921690992325 0.9967993586578668 -0.033672599121683626 0.0005148904880828957 0.006205350638450379 -0.00044903294360335076 -0.004016009606885276
 0.9967993586578668 -0.033672599121683626 0.002707103377461212 0.014064740730700215 -0.00044910555024793016 -0.00401600779063875 0.0005022174353214372 0.00620671161586541
 0.0005148904880828957 0.006205350638450379 -0.00044910555024793016 -0.00401600779063875 0.0027050239220278477 0.01406591211100258 0.9967993820308515 -0.033671596654289364
 -0.00044903294360335076 -0.004016009606885276 0.0005022174353214372 0.00620671161586541 0.9967993820308515 -0.033671596654289364 0.002707106481827759 0.014065741332960246
0.08128386827845 0.0028918567168224364 0.015320831519201486 0.9965537902378552 -0.03654532360411955 0.0005803103731232414 0.006727530254572458 -0.0005045663455836254 -0.0043569339864129005
 0.9965537902378552 -0.03654532360411955 0.0028943448463184846 0.01532062423353154 -0.0005046513516028215 -0.004356931298347192 0.0005654263744306411 0.0067291454918393685
 0.0005803103731232414 0.006727530254572458 -0.0005046513516028215 -0.004356931298347192 0.002891905067152853 0.015321902873042841 0.9965538174005947 -0.03654423739212379
 -0.0005045663455836254 -0.0043569339864129005 0.0005654263744306411 0.0067291454918393685 0.9965538174005947 -0.03654423739212379 0.002894347945336605 0.015321707583072485
0.08753647353064001 0.0030870230949430278 0.016588665052854647 0.9962972891160903 -0.03942864635512466 0.0006499018899410948 0.0072503433936152595 -0.0005635990579902467 -0.004698615636281331
 0.9962972891160903 -0.03942864635512466 0.003089907758446308 0.016588429396498953 -0.000563697413615781 -0.004698611923710599 0.000632626912912298 0.007252241946386452
 0.0006499018899410948 0.0072503433936152595 -0.000563697413615781 -0.004698611923710599 0.0030870789580040685 0.01658981700998662 0.9962973203620534 -0.03942747631302656
 -0.0005635990579902467 -0.004698615636281331 0.000632626912912298 0.007252241946386452 0.9962973203620534 -0.03942747631302656 0.0030899107703387593 0.016589595351753483
0.09378907878283 0.0032906335633684407 0.017868304034235175 0.9960297074241528 -0.04232253588545085 0.0007237071336651688 0.007773749864189959 -0.0006261737248501996 -0.005041012424499459
 0.9960297074241528 -0.04232253588545085 0.003293944004915703 0.01786803789463699 -0.0006262863749148702 -0.005041007525631838 0.0007038606387736549 0.007775962444654633
 0.0007237071336651688 0.007773749864189959 -0.0006262863749148702 -0.005041007525631838 0.003290697489210203 0.017869536241247208 0.9960297430499843 -0.04232128192014967
 -0.0006261737248501996 -0.005041012424499459 0.0007038606387736549 0.007775962444654633 0.9960297430499843 -0.04232128192014967 0.003293946838810813 0.017869286300518216
0.100041684035 0.00350283995982146 0.019159634085542405 0.9957508969778084 -0.045226952945647776 0.0008017678579629127 0.008297708202291544 -0.0006923326103700426 -0.00538408159036964
 0.9957508969778084 -0.045226952945647776 0.0035066054232410376 0.01915933528283129 -0.0006924604942963344 -0.005384075334285238 0.0007791688082121887 0.008300267199054323
 0.0008017678579629127 0.008297708202291544 -0.0006924604942963344 -0.005384075334285238 0.0035029124985295652 0.01916094616764867 0.9957509372833034 -0.04522561495484223
 -0.0006923326103700426 -0.00538408159036964 0.0007791688082121887 0.008300267199054323 0.9957509372833034 -0.04522561495484223 0.0035066079786605963 0.019160665972266632
0.1059090909091 0.003709926258933237 0.020381943815861375 0.9954789182887746 -0.04796197415077328 0.0008789267540521108 0.008789851444902195 -0.0007577128153515044 -0.005706588438453511
 0.9954789182887746 -0.04796197415077328 0.0037141453113853297 0.02038161231957925 -0.0007578558441944254 -0.005706580745155936 0.0008535796390066794 0.008792766484456425
 0.0008789267540521108 0.008789851444902195 -0.0007578558441944254 -0.005706580745155936 0.003710007380195552 0.020383330494832014 0.99547896326144 -0.04796055720703591
 -0.0007577128153515044 -0.005706588438453511 0.0008535796390066794 0.008792766484456425 0.99547896326144 -0.04796055720703591 0.0037141475056582073 0.020383020063448404
0.1062942892872 0.003723794059999557 0.020462543590506213 0.9954607093334946 -0.04814185160837045 0.0008841254512689215 0.008822175728382911 -0.000762117582294841 -0.005727779681285739
 0.9954607093334946 -0.04814185160837045 0.003728043791752575 0.020462209877311455 -0.0007622616340665205 -0.005727771887905736 0.0008585923233155458 0.008825115226300329
 0.0008841254512689215 0.008822175728382911 -0.0007622616340665205 -0.005727771887905736 0.0037238757616468773 0.020463935153330053 0.9954607546220194 -0.04814042947852635
 -0.000762117582294841 -0.005727779681285739 0.0008585923233155458 0.008825115226300329 0.9954607546220194 -0.04814042947852635 0.0037280459587748153 0.020463622673262814
0.11254689453939999 0.003953647567152743 0.02177692283577185 0.9951589958406835 -0.05106718009156196 0.0009708209138112485 0.009347108590664361 -0.0008355700940384715 -0.006072062504132166
 0.9951589958406835 -0.05106718009156196 0.003958410819003891 0.021776551896981567 -0.0008357312421722676 -0.006072052984190232 0.0009421717102733156 0.009350464390606305
 0.0009708209138112485 0.009347108590664361 -0.0008357312421722676 -0.006072052984190232 0.00395373898122762 0.02177839346411235 0.9951590464193643 -0.05106567369902597
 -0.0008355700940384715 -0.006072062504132166 0.0009421717102733156 0.009350464390606305 0.9951590464193643 -0.05106567369902597 0.003958412477867943 0.021778046611321232
0.11879949979160001 0.004192552095959516 0.023102663343290027 0.9948456076903739 -0.05400288139154392 0.001061894834420462 0.009872461799414676 -0.0009127311665975167 -0.006416885086403796
 0.9948456076903739 -0.05400288139154392 0.0041978581277104495 0.0231022527957843 -0.000912910334094623 -0.0064168736414247736 0.0010299470971599299 0.009876271437941982
 0.001061894834420462 0.009872461799414676 -0.000912910334094623 -0.0064168736414247736 0.0041926537711045875 0.023104212597319942 0.994845663870439 -0.054001290606088465
 -0.0009127311665975167 -0.006416885086403796 0.0010299470971599299 0.009876271437941982 0.994845663870439 -0.054001290606088465 0.004197859148843554 0.02310382922563184
0.1250521050438 0.0044406591538268475 0.024439657333846756 0.9945203959613582 -0.05694889378564791 0.0011573873676404586 0.010398189253033785 -0.0009936413695838793 -0.006762201646456359
 0.9945203959613582 -0.05694889378564791 0.00444653723600966 0.024439204726067008 -0.0009938394738653608 -0.006762188068731078 0.0011219581921007422 0.010402492021980419
 0.0011573873676404586 0.010398189253033785 -0.0009938394738653608 -0.006762188068731078 0.004440771637190211 0.02444128475377324 0.9945204580584002 -0.056947218465761965
 -0.0009936413695838793 -0.006762201646456359 0.0011219581921007422 0.010402492021980419 0.9945204580584002 -0.056947218465761965 0.004446537479690727 0.024440862658624884
0.131304710296 0.004698120118451267 0.025787797301572685 0.9941832116648837 -0.05990515122506422 0.0012573382110811536 0.010924243758999093 -0.0010783408016269737 -0.00710796556969005
 0.9941832116648837 -0.05990515122506422 0.004704599535093088 0.02578730011314538 -0.0010785587544966822 -0.007107949642252259 0.0012182442613480231 0.010929080724945247
 0.0012573382110811536 0.010924243758999093 -0.0010785587544966822 -0.007107949642252259 0.004698243955618003 0.025789502404710386 0.994183279998946 -0.05990339122065561
 -0.0010783408016269737 -0.00710796556969005 0.0012182442613480231 0.010929080724945247 0.994183279998946 -0.05990339122065561 0.004704598851476114 0.02578903932288386
0.1375573155481 0.0048963769323221535 0.026971414026620354 0.9939026276349296 -0.06269599050043725 0.0013467600372138806 0.01143253957477975 -0.001151889366986551 -0.007436065573035023
 0.9939026276349296 -0.06269599050043725 0.0049034883350374675 0.026970881082181247 -0.0011521283547983908 -0.007436047332860478 0.0013039104316537988 0.011437893513576172
 0.0013467600372138806 0.01143253957477975 -0.0011521283547983908 -0.007436047332860478 0.004896512045901146 0.026973196681989692 0.9939027024847643 -0.06269414572762899
 -0.001151889366986551 -0.007436065573035023 0.0013039104316537988 0.011437893513576172 0.9939027024847643 -0.06269414572762899 0.0049034872688602195 0.02697270109765951
0.1438099208003 0.005101241077688077 0.02815029372417585 0.9936128246089929 -0.06548125338210865 0.0014397741673014776 0.011939554559221553 -0.0012283705539623201 -0.007763003837263056
 0.9936128246089929 -0.06548125338210865 0.005109013968213533 0.028149723305703693 -0.0012286315299825938 -0.0077629830793385654 0.001393001732806084 0.011945461992772754
 0.0014397741673014776 0.011939554559221553 -0.0012286315299825938 -0.0077629830793385654 0.005101387897724151 0.02815215346347872 0.9936129062930957 -0.06547932369288761
 -0.0012283705539623201 -0.007763003837263056 0.001393001732806084 0.011945461992772754 0.9936129062930957 -0.06547932369288761 0.0051090124810727255 0.028151623858907945
0.1500625260525 0.005312656786308124 0.02932438210093804 0.9933138605370436 -0.06826091534537856 0.0015363572695010527 0.012445263193493223 -0.0013077619589617392 -0.008088755876579345
 0.9933138605370436 -0.06826091534537856 0.005321120686686498 0.029323772404905097 -0.001308045874422879 -0.008088732387874333 0.0014854955065281142 0.012451761943250978
 0.0015363572695010527 0.012445263193493223 -0.001308045874422879 -0.008088732387874333 0.005312815733361818 0.02932631843775898 0.9933139493774413 -0.06825890058557797
 -0.0013077619589617392 -0.008088755876579345 0.0014854955065281142 0.012451761943250978 0.9933139493774413 -0.06825890058557797 0.005321118738451643 0.029325753215851888
0.15631513130469998 0.0055305680756434685 0.030493626816090712 0.9930057934603033 -0.07103495117428409 0.001636485841267257 0.012949640259102922 -0.0013900409995714453 -0.008413297644507949
