! Created with skrf 1.8.0 (http://scikit-rf.org).
# GHz S RI R 50.0 
!freq ReS11 ImS11 ReS12 ImS12 ReS13 ImS13
! ReS14 ImS14
! ReS21 ImS21 ReS22 ImS22 ReS23 ImS23
! ReS24 ImS24
! ReS31 ImS31 ReS32 ImS32 ReS33 ImS33
! ReS34 ImS34
! ReS41 ImS41 ReS42 ImS42 ReS43 ImS43
! ReS44 ImS44
!
0.0 0.001979833569473 0.0 0.9980201664305 0.0 7.70594710981e-05 0.0 -7.705947087598e-05 9.437063435225758e-21
 0.9980201664305 0.0 0.001979833569541 0.0 -7.705947087727e-05 9.437063435383739e-21 7.705947109922e-05 0.0
 7.70594710981e-05 0.0 -7.705947087727e-05 9.437063435383739e-21 0.001979833553867 0.0 0.9980201664149 0.0
 -7.705947087598e-05 9.437063435225758e-21 7.705947109922e-05 0.0 0.9980201664149 0.0 0.001979833553864 0.0
0.005 0.00213171821759841 0.0016186884304735234 0.9978277259876177 -0.004145570171895254 0.00010886990202463858 0.0008456047994695635 -0.0001055667593520836 -0.0005310830744130385
 0.9978277259876177 -0.004145570171895254 0.002131743462923673 0.0016186736016824224 -0.00010556720371876748 -0.0005310833238264276 0.00010871789840840309 0.0008456628651685931
 0.00010886990202463858 0.0008456047994695635 -0.00010556720371876748 -0.0005310833238264276 0.0021317188330038754 0.0016187552865337246 0.9978277263772523 -0.0041455031049631285
 -0.0001055667593520836 -0.0005310830744130385 0.00010871789840840309 0.0008456628651685931 0.9978277263772523 -0.0041455031049631285 0.0021317436118603117 0.001618740864435906
0.006252605252188 0.0021720312137366734 0.002029658263965585 0.9977762497052169 -0.005182898040320362 0.00011823394278060907 0.001057384855247644 -0.00011383498865461593 -0.0006645101921287357
 0.9977762497052169 -0.005182898040320362 0.0021720706772839337 0.0020296394102322407 -0.0001138356808285822 -0.0006645104973841945 0.00011799645729352646 0.0010574603354558312
 0.00011823394278060907 0.001057384855247644 -0.0001138356808285822 -0.0006645104973841945 0.0021720321148175673 0.0020297417937281278 0.9977762502531567 -0.0051828142312472115
 -0.00011383498865461593 -0.0006645101921287357 0.00011799645729352646 0.0010574603354558312 0.9977762502531567 -0.0051828142312472115 0.0021720708480750394 0.0020297234654483927
0.01250521050438 0.002387030507640056 0.004101085573946323 0.9974995478980828 -0.01036599175488866 0.0001733902291898013 0.002114886077806089 -0.00016192499396822585 -0.001331913216230303
 0.9974995478980828 -0.01036599175488866 0.0023871880979720967 0.004101044631900275 -0.0001619277303379134 -0.0013319137524421183 0.00017244332249797954 0.0021150688638231063
 0.0001733902291898013 0.002114886077806089 -0.0001619277303379134 -0.0013319137524421183 0.0023870335436359702 0.004101252239191327 0.9974995495209407 -0.010365824320113345
 -0.00016192499396822585 -0.001331913216230303 0.00017244332249797954 0.0021150688638231063 0.9974995495209407 -0.010365824320113345 0.0023871881980514903 0.004101212530943732
0.01875781575657 0.0026253984327900483 0.006201128734387049 0.9971896486727837 -0.01556177057945249 0.00024266880809825653 0.0031731215480332105 -0.00022149638873233664 -0.0020011741437077554
 0.9971896486727837 -0.01556177057945249 0.002625752572987661 0.006201062166752939 -0.00022150250233826836 -0.002001174814931544 0.00024054201338623386 0.0031734509757083045
 0.00024266880809825653 0.0031731215480332105 -0.00022150250233826836 -0.002001174814931544 0.002625404845306158 0.0062013781364451915 0.997189651909308 -0.015561519571369644
 -0.00022149638873233664 -0.0020011741437077554 0.00024054201338623386 0.0031734509757083045 0.997189651909308 -0.015561519571369644 0.002625752350576744 0.00620131372557008
0.02501042100875 0.002887678699911953 0.008326716994851532 0.9968461211463728 -0.020772619551697232 0.0003262115956561823 0.0042320450400559475 -0.00029270820295679414 -0.0026719103826885766
 0.9968461211463728 -0.020772619551697232 0.002888307678980033 0.008326620987168328 -0.0002927190141376263 -0.002671911070252465 0.0003224345429095058 0.004232567756525966
 0.0003262115956561823 0.0042320450400559475 -0.0002927190141376263 -0.002671911070252465 0.002887689718593851 0.008327048699835974 0.9968461265302974 -0.020772284922104423
 -0.00029270820295679414 -0.0026719103826885766 0.0003224345429095058 0.004232567756525966 0.9968461265302974 -0.020772284922104423 0.0028883068519638118 0.008326956018754486
0.03126302626094 0.003174391833752534 0.010476202959584107 0.9964685165843057 -0.025999478444624975 0.00042415950389653004 0.005291511085697572 -0.00037571313388035007 -0.0033438268131856085
 0.9964685165843057 -0.025999478444624975 0.003175373855041415 0.010476073423987476 -0.0003757299520659696 -0.003343827375488275 0.00041826152918716394 0.00529228109251787
 0.00042415950389653004 0.005291511085697572 -0.0003757299520659696 -0.003343827375488275 0.0031744086905829126 0.01047661644701348 0.9964685246633557 -0.025999060095645406
 -0.00037571313388035007 -0.0033438268131856085 0.00041826152918716394 0.00529228109251787 0.9964685246633557 -0.025999060095645406 0.0031753721267657924 0.010476491687468103
0.037515631513130004 0.003486045325740114 0.012648461688381848 0.9960563791360018 -0.031242742641207754 0.0005366508701838339 0.006351333687871343 -0.0004706585863556045 -0.00401665715859934
 0.9960563791360018 -0.031242742641207754 0.0034874585411250494 0.012648294264350648 -0.0004706827108875257 -0.004016657431007016 0.0005281608680629365 0.006352412409329696
 0.0005366508701838339 0.006351333687871343 -0.0004706827108875257 -0.004016657431007016 0.0034860692423474217 0.01264895634188387 0.9960563904634495 -0.031242240434085067
 -0.0004706585863556045 -0.00401665715859934 0.0005281608680629365 0.006352412409329696 0.9960563904634495 -0.031242240434085067 0.0034874555884955114 0.012648795456170103
0.043768236765320004 0.003823137496838487 0.014842616534043658 0.9956092502859079 -0.036502537259304454 0.0006638206695978416 0.007411304218345219 -0.0005776869978309422 -0.0046901461839454935
 0.9956092502859079 -0.036502537259304454 0.0038250600356219324 0.014842406587645591 -0.0005777197182629034 -0.004690145978707349 0.0006522670501720321 0.007412760577204951
 0.0006638206695978416 0.007411304218345219 -0.0005777197182629034 -0.004690145978707349 0.0038231696870353387 0.014843191650690596 0.9956092654271277 -0.036501951004645226
 -0.0005776869978309422 -0.0046901461839454935 0.0006522670501720321 0.007412760577204951 0.9956092654271277 -0.036501951004645226 0.003825055512983896 0.014842990351375963
0.050020842017509996 0.004186159244120051 0.017057925880164235 0.9951266711944107 -0.04177883037911217 0.000805800015596871 0.008471198824226051 -0.0006969358970260671 -0.005364042396802596
 0.9951266711944107 -0.04177883037911217 0.0041886692385065885 0.017057668502133947 -0.0006969784931872358 -0.005364041502988927 0.0007907107177622943 0.00847310932001029
 0.000805800015596871 0.008471198824226051 -0.0006969784931872358 -0.005364041502988927 0.004186200909624611 0.017058580657893646 0.9951266907275449 -0.04177815984920186
 -0.0006969358970260671 -0.005364042396802596 0.0007907107177622943 0.00847310932001029 0.9951266907275449 -0.04177815984920186 0.0041886627747618616 0.017058334416418238
0.055454545454549996 0.004523070428954109 0.01899976121490403 0.9946781498711483 -0.04637738610502394 0.0009413101762846554 0.009392035129184326 -0.0008105944236837494 -0.005949814155061613
 0.9946781498711483 -0.04637738610502394 0.004526154413682688 0.018999458414322924 -0.000810646633972444 -0.005949812473511504 0.0009227645646756736 0.009394408354405326
 0.0009413101762846554 0.009392035129184326 -0.000810646633972444 -0.005949812473511504 0.004523121294173323 0.019000484498403795 0.9946781737025531 -0.04637664211620924
 -0.0008105944236837494 -0.005949814155061613 0.0009227645646756736 0.009394408354405326 0.9946781737025531 -0.04637664211620924 0.004526145941306921 0.01900019533385251
0.056273447269699996 0.004575594878236756 0.01929372755607972 0.9946081841375268 -0.04707148860316166 0.000962715775717872 0.009530782121232123 -0.0008285378564925397 -0.0060380944743206695
 0.9946081841375268 -0.04707148860316166 0.004578770487974569 0.01929341755878905 -0.000828591598477537 -0.006038092657770537 0.0009436183145301828 0.009533230908907477
 0.000962715775717872 0.009530782121232123 -0.000828591598477537 -0.006038092657770537 0.004575647206745718 0.019294461100044808 0.9946082086558151 -0.047070733525330886
 -0.0008285378564925397 -0.0060380944743206695 0.0009436183145301828 0.009533230908907477 0.9946082086558151 -0.047070733525330886 0.004578761685397478 0.019294165144080194
0.06252605252188 0.004991922518780566 0.02154940830904366 0.9940533335113347 -0.05238030757178539 0.0011346902575064843 0.010589809224019335 -0.0009726203787574116 -0.006712049366933186
 0.9940533335113347 -0.05238030757178539 0.004995841954718923 0.021549040222547004 -0.0009726865267973482 -0.006712046370210745 0.0011111117947997008 0.010592888192258055
 0.0011346902575064843 0.010589809224019335 -0.0009726865267973482 -0.006712046370210745 0.004991986681026364 0.021550219627488373 0.9940533636242551 -0.052379467632504305
 -0.0009726203787574116 -0.006712049366933186 0.0011111117947997008 0.010592888192258055 0.9940533636242551 -0.052379467632504305 0.004995830387056506 0.02154986893744932
0.06877865777407 0.00543561424056416 0.023824385614371335 0.993461666593151 -0.05770503015587919 0.0013218409233813721 0.01164802701389836 -0.0011293057557277071 -0.0073856511793228725
 0.993461666593151 -0.05770503015587919 0.005440355787357813 0.02382395368132244 -0.0011293855598944965 -0.007385646721682481 0.00129330835494222 0.011651835862104073
 0.0013218409233813721 0.01164802701389836 -0.0011293855598944965 -0.007385646721682481 0.0054356913867132425 0.023825273615220688 0.9934617029282988 -0.057704105004151754
 -0.0011293057557277071 -0.0073856511793228725 0.00129330835494222 0.011651835862104073 0.9934617029282988 -0.057704105004151754 0.005440340998050856 0.023824862919601442
0.07503126302626001 0.005907136075115021 0.026118096169584173 0.9928327341646529 -0.06304535798179992 0.0015242801307779365 0.012705174965117114 -0.0012987109040915005 -0.008058640507797636
 0.9928327341646529 -0.06304535798179992 0.0059127781139751605 0.026117594339285347 -0.0012988056040623547 -0.008058634285179164 0.0014903201859531728 0.012709821279013767
 0.0015242801307779365 0.012705174965117114 -0.0012988056040623547 -0.008058634285179164 0.005907227332789683 0.02611905966335553 0.9928327773700214 -0.06304434722648641
 -0.0012987109040915005 -0.008058640507797636 0.0014903201859531728 0.012709821279013767 0.9928327773700214 -0.06304434722648641 0.005912759615226517 0.026118583432952477
0.08128386827845 0.006406947919067942 0.028429988267093396 0.9921660910472998 -0.0684009590951859 0.0017421148845538075 0.013760985726766874 -0.0014809471893288564 -0.008730754037755542
 0.9921660910472998 -0.0684009590951859 0.006413568950238315 0.028429410188294646 -0.00148105801413359 -0.00873074572274913 0.0017022542364373082 0.01376658505205366
 0.0017421148845538075 0.013760985726766874 -0.00148105801413359 -0.00873074572274913 0.006407054390299878 0.028431025970693226 0.9921661417929044 -0.06839986230143083
 -0.0014809471893288564 -0.008730754037755542 0.0017022542364373082 0.01376658505205366 0.9921661417929044 -0.06839986230143083 0.006413546220682643 0.028430478412026443
0.08753647353064001 0.006935503382968567 0.030759516536208308 0.9914612965828914 -0.07377147327374523 0.001975446598562808 0.01481518556842666 -0.001676120242421198 -0.009401724293234074
 0.9914612965828914 -0.07377147327374523 0.006943182048024474 0.0307588555490042 -0.0016762484099824546 -0.009401713535108025 0.0019292119821502985 0.014821861482303982
 0.001975446598562808 0.01481518556842666 -0.0016762484099824546 -0.009401713535108025 0.006935626140912134 0.030760627064594835 0.9914613555629792 -0.07377028997185703
 -0.001676120242421198 -0.009401724293234074 0.0019292119821502985 0.014821861482303982 0.9914613555629792 -0.07377028997185703 0.006943154531792802 0.030760002111866407
0.09378907878283 0.007493249595809265 0.033106138215505815 0.9907179150744587 -0.07915651582830134 0.0022243708656978266 0.0158674947268764 -0.0018843297694057161 -0.010071279501557983
 0.9907179150744587 -0.07915651582830134 0.007502064700061964 0.03310538734205145 -0.0018844764862837706 -0.010071265926261633 0.0021712892032138007 0.01587537890736791
 0.0022243708656978266 0.0158674947268764 -0.0018844764862837706 -0.010071265926261633 0.007493389681985116 0.03310732008838138 0.9907179830087881 -0.07915524550759777
 -0.0018843297694057161 -0.010071279501557983 0.0021712892032138007 0.01587537890736791 0.9907179830087881 -0.07915524550759777 0.007502031804421691 0.03310661139456273
0.100041684035 0.008080626980469177 0.035469310446123746 0.9899355162012149 -0.08455568040246257 0.002488977231950111 0.016917627698818556 -0.002105669359097985 -0.010739143528570892
 0.9899355162012149 -0.08455568040246257 0.008090657515312835 0.035468462380178416 -0.002105835820113963 -0.01073912673875071 0.002428575764630101 0.016926859991469968
 0.002488977231950111 0.016917627698818556 -0.002105835820113963 -0.01073912673875071 0.008080785401763345 0.03547056208453618 0.9899355938376361 -0.08455432251548793
 -0.002105669359097985 -0.010739143528570892 0.002428575764630101 0.016926859991469968 0.9899355938376361 -0.08455432251548793 0.008090618609330536 0.035469763011168304
0.1059090909091 0.008659153808423603 0.037701464063685956 0.9891654537173954 -0.0896346883861989 0.002751619206260021 0.01790082775627958 -0.002325392566335206 -0.011364075154359528
 0.9891654537173954 -0.0896346883861989 0.008670396922909685 0.037700517845289494 -0.002325578630978554 -0.011364054965944547 0.0026839193140154533 0.01791145962911158
 0.002751619206260021 0.01790082775627958 -0.002325578630978554 -0.011364054965944547 0.00865933031787399 0.03770277964858926 0.9891655411649204 -0.08963324779477302
 -0.002325392566335206 -0.011364075154359528 0.0026839193140154533 0.01791145962911158 0.9891655411649204 -0.08963324779477302 0.008670351767603534 0.037701889456467616
0.1062942892872 0.008698069006642634 0.03784848825872072 0.98911367541489 -0.08996854109848645 0.0027693489761459996 0.0179652934971605 -0.0023402262882512882 -0.011405035866846725
 0.98911367541489 -0.08996854109848645 0.008709394171635604 0.037847535354095914 -0.002340413676042949 -0.011405015441896446 0.0027011554012140366 0.01797602197914153
 0.0027693489761459996 0.0179652934971605 -0.002340413676042949 -0.011405015441896446 0.008698246732664134 0.037849807989387245 0.9891137635311232 -0.08996709505753032
 -0.0023402262882512882 -0.011405035866846725 0.0027011554012140366 0.01797602197914153 0.9891137635311232 -0.08996709505753032 0.008709348584609233 0.03784891159524134
0.11254689453939999 0.009346001928429312 0.04024312306939873 0.9882519743219176 -0.0953946541143488 0.003065562893317488 0.019010195884909167 -0.002588081325926596 -0.01206867166313704
 0.9882519743219176 -0.0953946541143488 0.00935870115328962 0.04024205732727542 -0.0025882908105255113 -0.012068647159261755 0.002989105506150652 0.019022576926300987
 0.003065562893317488 0.019010195884909167 -0.0025882908105255113 -0.012068647159261755 0.009346199887496522 0.040244509118927956 0.9882520737274377 -0.0953931192984278
 -0.002588081325926596 -0.01206867166313704 0.002989105506150652 0.019022576926300987 0.9882520737274377 -0.0953931192984278 0.009358648172705996 0.040243508147436886
0.11879949979160001 0.010024844507613383 0.042652661526725255 0.9873500010541272 -0.10083355905057172 0.003377689081805188 0.020052033591764367 -0.002849308538414883 -0.012729761780253097
 0.9873500010541272 -0.10083355905057172 0.010038997474445692 0.04265147458160109 -0.002849541276854262 -0.012729732730536188 0.0032924969226211516 0.020066231913822785
 0.003377689081805188 0.020052033591764367 -0.002849541276854262 -0.012729732730536188 0.010025063584498669 0.04265411202912181 0.9873501125923242 -0.10083193479913785
 -0.002849308538414883 -0.012729761780253097 0.0032924969226211516 0.020066231913822785 0.9873501125923242 -0.10083193479913785 0.01003893634462916 0.04265299889450383
0.1250521050438 0.010735007729851998 0.04507654463612296 0.9864073506325408 -0.10628477996059711 0.0037057907345990388 0.02109050052685357 -0.003123975094423466 -0.01338801287963945
 0.9864073506325408 -0.10628477996059711 0.01075069439501813 0.045075227740717885 -0.0031242322303176202 -0.013387978794080406 0.0036113937393050417 0.0211066892572464
 0.0037057907345990388 0.02109050052685357 -0.0031242322303176202 -0.013387978794080406 0.010735248762554623 0.0450780576286616 0.9864074751826083 -0.10628306557905784
 -0.003123975094423466 -0.01338801287963945 0.0036113937393050417 0.0211066892572464 0.9864074751826083 -0.10628306557905784 0.01075062431513668 0.045076824400952044
0.131304710296 0.011476894512275173 0.047514207083430314 0.9854236253227091 -0.11174782622332173 0.004049923934059276 0.022125285983328434 -0.0034121410722094117 -0.014043127529394392
 0.9854236253227091 -0.11174782622332173 0.011494195128170886 0.047512751092165816 -0.003412423735311347 -0.01404308789506129 0.00394585308913146 0.022143646708087994
 0.004049923934059276 0.022125285983328434 -0.003412423735311347 -0.01404308789506129 0.011477158288668856 0.04751578051039739 0.985423763801454 -0.1117460209809413
 -0.0034121410722094117 -0.014043127529394392 0.00394585308913146 0.022143646708087994 0.985423763801454 -0.1117460209809413 0.011494115250576505 0.04751441889897808
0.1375573155481 0.012096906184907674 0.049648955733755544 0.9845525229617142 -0.11690583937647996 0.004371848637060442 0.023126852577350435 -0.003675693463322952 -0.014665519326573848
 0.9845525229617142 -0.11690583937647996 0.012115905686781697 0.04964738032202523 -0.0036760031079526266 -0.014665474010717085 0.004257865955889455 0.023147384487425465
 0.004371848637060442 0.023126852577350435 -0.0036760031079526266 -0.014665474010717085 0.012097192531148935 0.049650588346689194 0.9845526760537977 -0.11690394281618344
 -0.003675693463322952 -0.014665519326573848 0.004257865955889455 0.023147384487425465 0.9845526760537977 -0.11690394281618344 0.012115816528093225 0.049649117654393546
0.1438099208003 0.012739129892733288 0.05176925880790302 0.983649887287324 -0.12204751299830235 0.0047066340889185 0.02412225748475241 -0.003949605223501187 -0.015282316495701711
 0.983649887287324 -0.12204751299830235 0.012759909554694662 0.05176755628557129 -0.003949943018438929 -0.015282264994933351 0.00458231357849313 0.024145129190879657
 0.0047066340889185 0.02412225748475241 -0.003949943018438929 -0.015282264994933351 0.012739439350973396 0.051770948534701634 0.9836500559162191 -0.12204552440309063
 -0.003949605223501187 -0.015282316495701711 0.00458231357849313 0.024145129190879657 0.9836500559162191 -0.12204552440309063 0.01275981044643505 0.051769361807967505
0.1500625260525 0.013403284267011654 0.05387484484311764 0.9827160052580667 -0.12717262240351349 0.005054127881835105 0.025111332403302728 -0.004233729510679921 -0.015893365136168045
 0.9827160052580667 -0.12717262240351349 0.01342592564489512 0.05387300702938886 -0.00423409661551704 -0.01589330692792496 0.004919047177148117 0.02513671864846889
 0.005054127881835105 0.025111332403302728 -0.00423409661551704 -0.01589330692792496 0.01340361731927261 0.053876589534588175 0.9827161903792625 -0.1271705410348688
 -0.004233729510679921 -0.015893365136168045 0.004919047177148117 0.02513671864846889 0.9827161903792625 -0.1271705410348688 0.01342581588934879 0.05387487935162327
0.15631513130469998 0.01408908529072365 0.05596545063227408 0.9817511660092579 -0.1322809460921612 0.005414175426561578 0.0260939128111113 -0.004527917346532445 -0.016498515404358833
 0.9817511660092579 -0.1322809460921612 0.014113670228028828 0.05596346884028273 -0.004528314911341855 -0.016498449947168054 0.005267915860661202 0.02612199438693484
