! Created with skrf 1.8.0 (http://scikit-rf.org).
# GHz S RI R 50.0 
!freq ReS11 ImS11 ReS12 ImS12 ReS13 ImS13
! ReS14 ImS14
! ReS21 ImS21 ReS22 ImS22 ReS23 ImS23
! ReS24 ImS24
! ReS31 ImS31 ReS32 ImS32 ReS33 ImS33
! ReS34 ImS34
! ReS41 ImS41 ReS42 ImS42 ReS43 ImS43
! ReS44 ImS44
!
0.0 0.001705434787751 0.0 0.9982945651895 0.0 6.608381822918e-05 0.0 -6.60838190278e-05 8.092933744782823e-21
 0.9982945651895 0.0 0.001705434787739 0.0 -6.608381902805e-05 8.092933744813438e-21 6.608381822792e-05 0.0
 6.608381822918e-05 0.0 -6.608381902805e-05 8.092933744813438e-21 0.001705434799124 0.0 0.9982945652009 0.0
 -6.60838190278e-05 8.092933744782823e-21 6.608381822792e-05 0.0 0.9982945652009 0.0 0.001705434799098 0.0
0.005 0.001835436465829691 0.0013941748812560622 0.9981300197412416 -0.0035718697149187723 9.294089388466861e-05 0.0007316330290659627 -9.023082461538857e-05 -0.0004585176113371474
 0.9981300197412416 -0.0035718697149187723 0.0018354296007080863 0.0013941788303497927 -9.023374606894164e-05 -0.0004585197337411047 9.296004819142217e-05 0.0007316254357349205
 9.294089388466861e-05 0.0007316330290659627 -9.023374606894164e-05 -0.0004585197337411047 0.0018354352005992267 0.0013941082800199487 0.9981300193679687 -0.0035719367725067204
 -9.023082461538857e-05 -0.0004585176113371474 9.296004819142217e-05 0.0007316254357349205 0.9981300193679687 -0.0035719367725067204 0.001835430126881075 0.0013941113233292399
0.006252605252188 0.0018696876662727192 0.001748183805188979 0.9980863729166162 -0.004465686192348115 0.00010068755153119886 0.0009148847747285804 -9.711816729397047e-05 -0.0005737312447613998
 0.9980863729166162 -0.004465686192348115 0.001869676936310552 0.001748188883929221 -9.712271425756615e-05 -0.0005737338584152861 0.00010071747462513732 0.000914874958927991
 0.00010068755153119886 0.0009148847747285804 -9.712271425756615e-05 -0.0005737338584152861 0.0018696857656809783 0.0017481005458782639 0.9980863724095609 -0.004465770016608674
 -9.711816729397047e-05 -0.0005737312447613998 0.00010071747462513732 0.000914874958927991 0.9980863724095609 -0.004465770016608674 0.0018696778348599767 0.001748104510150614
0.01250521050438 0.002050899348108772 0.003532775391520484 0.9978538338676607 -0.00893200012319589 0.00014550271222748051 0.001830053696293362 -0.00013657017640762373 -0.0011501444287286304
 0.9978538338676607 -0.00893200012319589 0.0020508565221548473 0.0035327870163516556 -0.0001365881068432205 -0.001150149219423043 0.00014562192605056283 0.0018300305060696
 0.00014550271222748051 0.001830053696293362 -0.0001365881068432205 -0.001150149219423043 0.0020508923265871917 0.003532609087757182 0.9978538323966548 -0.008932167529925563
 -0.00013657017640762373 -0.0011501444287286304 0.00014562192605056283 0.0018300305060696 0.9978538323966548 -0.008932167529925563 0.0020508606569717125 0.0035326186505946536
0.01875781575657 0.0022494976645054702 0.005342510607285139 0.9975966360851821 -0.013409774704805144 0.00020063873043997036 0.0027460990792482548 -0.00018456806605957174 -0.0017283812067794724
 0.9975966360851821 -0.013409774704805144 0.0022494014683267977 0.005342530405614641 -0.00018460806658315428 -0.0017283876407577486 0.0002009062672421564 0.0027460581374470347
 0.00020063873043997036 0.0027460990792482548 -0.00018460806658315428 -0.0017283876407577486 0.002249482340999724 0.005342261367521487 0.997596633204718 -0.013410025631511948
 -0.00018456806605957174 -0.0017283812067794724 0.0002009062672421564 0.0027460581374470347 0.997596633204718 -0.013410025631511948 0.0022494111718268 0.005342278290949258
0.02501042100875 0.0024658958859045486 0.00717481490635093 0.997314454461757 -0.017901138972785495 0.0002662060728002837 0.0036630345509635702 -0.00024123517172287465 -0.0023081541110255826
 0.997314454461757 -0.017901138972785495 0.002465725112754281 0.007174844662891106 -0.0002413058292225294 -0.002308161549051894 0.00026668082865062803 0.003662970704069149
 0.0002662060728002837 0.0036630345509635702 -0.0002413058292225294 -0.002308161549051894 0.002465869093121291 0.007174482864560701 0.9973144497154064 -0.017901473402685344
 -0.00024123517172287465 -0.0023081541110255826 0.00026668082865062803 0.003662970704069149 0.9973144497154064 -0.017901473402685344 0.0024657426971602292 0.007174509039320987
0.03126302626094 0.0027004901465266856 0.009028342477024213 0.9970069485432739 -0.022406978935641902 0.0003423151773328979 0.0045807883328248455 -0.00030669086049575856 -0.0028892533305377144
 0.9970069485432739 -0.022406978935641902 0.002700223648372016 0.009028384134432247 -0.00030680067863921164 -0.0028892610267961328 0.00034305597278937714 0.004580695651170948
 0.0003423151773328979 0.0045807883328248455 -0.00030680067863921164 -0.0028892610267961328 0.002700448740353408 0.00902792780306967 0.9970069414741253 -0.022407396887276852
 -0.00030669086049575856 -0.0028892533305377144 0.00034305597278937714 0.004580695651170948 0.9970069414741253 -0.022407396887276852 0.0027002514192904542 0.009027965249769248
0.037515631513130004 0.0029536676056129228 0.010902199978146012 0.9966737710261568 -0.026927713778435232 0.0004290753940392347 0.005499254501976713 -0.00038105137972223535 -0.0034714954775957253
 0.9966737710261568 -0.026927713778435232 0.002953284288391484 0.010902255638217473 -0.0003812087871790904 -0.0034715025793319544 0.0004301410001617653 0.005499126275525727
 0.0004290753940392347 0.005499254501976713 -0.0003812087871790904 -0.0034715025793319544 0.002953608464552001 0.01090170288349856 0.9966737611754733 -0.0269282153002784
 -0.00038105137972223535 -0.0034714954775957253 0.0004301410001617653 0.005499126275525727 0.9966737611754733 -0.0269282153002784 0.002953324546524366 0.010901753753655371
0.043768236765320004 0.003225809587905886 0.012795710321407458 0.9963145712343983 -0.03146353201015442 0.0005265944697559887 0.006418308582806568 -0.0004644301471493194 -0.004054708022003462
 0.9963145712343983 -0.03146353201015442 0.003225288408286541 0.012795782246048486 -0.00046464350222150526 -0.004054713569335002 0.0005280436197696177 0.006418137315522814
 0.0005265944697559887 0.006418308582806568 -0.00046464350222150526 -0.004054713569335002 0.0032257296091206034 0.012795131075410854 0.9963145581376786 -0.03146411716462254
 -0.0004644301471493194 -0.004054708022003462 0.0005280436197696177 0.006418137315522814 0.9963145581376786 -0.03146411716462254 0.003225343447680564 0.012795197652308108
0.050020842017509996 0.0035172930238534577 0.014708315050698223 0.9959289968999161 -0.03601448901279986 0.0006349782268215352 0.007337814003177599 -0.000556937841051084 -0.004638722863641472
 0.9959289968999161 -0.03601448901279986 0.0035166129871560254 0.014708405663121605 -0.0005572154345097146 -0.004638725789467137 0.0006368696196149252 0.007337591406911671
 0.0006349782268215352 0.007337814003177599 -0.0005572154345097146 -0.004638725789467137 0.003517189125269153 0.014707653965262904 0.9959289800877003 -0.03601515789193821
 -0.000556937841051084 -0.004638722863641472 0.0006368696196149252 0.007337591406911671 0.9959289800877003 -0.03601515789193821 0.003516685098460223 0.014707738664814661
0.055454545454549996 0.0037865985679442237 0.016385553439988803 0.995572227771087 -0.03998168147327007 0.0007380710125921223 0.008137145797935426 -0.0006448275351336334 -0.005146771480141397
 0.995572227771087 -0.03998168147327007 0.003785763465847108 0.016385662386834973 -0.000645167635704817 -0.005146771177855841 0.0007403943711438986 0.00813687124425449
 0.0007380710125921223 0.008137145797935426 -0.000645167635704817 -0.005146771177855841 0.0037864713956393434 0.016384821525904477 0.9955722073440256 -0.03998242320374993
 -0.0006448275351336334 -0.005146771480141397 0.0007403943711438986 0.00813687124425449 0.9955722073440256 -0.03998242320374993 0.0037858522717623324 0.016384924040300324
0.056273447269699996 0.003828491175612997 0.01663952642166171 0.995516695233017 -0.04058055489382071 0.00075433032749599 0.008257625254718782 -0.0006586824001002178 -0.005223373206123111
 0.995516695233017 -0.04058055489382071 0.003827631334095778 0.016639638307639152 -0.0006590324569398423 -0.005223372336054337 0.0007567226267450845 0.008257342242851441
 0.00075433032749599 0.008257625254718782 -0.0006590324569398423 -0.005223372336054337 0.0038283602959314233 0.016638783860310365 0.9955166742296384 -0.040581307610589396
 -0.0006586824001002178 -0.005223373206123111 0.0007567226267450845 0.008257342242851441 0.9955166742296384 -0.040581307610589396 0.003827722805656685 0.01663888923194402
0.06252605252188 0.0041597740088709255 0.018588901069314444 0.9950773136433879 -0.04516164075582209 0.0008847520791347213 0.00917758965830066 -0.0007697689796978401 -0.005808491831346809
 0.9950773136433879 -0.04516164075582209 0.004158713460206055 0.018589036978423512 -0.0007701996600912327 -0.005808485883687829 0.0008877039090372119 0.009177236339366705
 0.0008847520791347213 0.00917758965830066 -0.0007701996600912327 -0.005808485883687829 0.004159613108108975 0.018588077450525035 0.9950772879666743 -0.045162477441041786
 -0.0007697689796978401 -0.005808491831346809 0.0008877039090372119 0.009177236339366705 0.9950772879666743 -0.045162477441041786 0.004158826579929114 0.018588206178048843
0.06877865777407 0.004511508371570955 0.02055602430894769 0.9946105002736196 -0.0497576143396386 0.001026342264488856 0.010097548411568472 -0.0008902998803574346 -0.006393910098810046
 0.9946105002736196 -0.0497576143396386 0.004510226257931544 0.020556187155917192 -0.0008908192801900124 -0.006393897684538333 0.0010299122034462414 0.010097114082906703
 0.001026342264488856 0.010097548411568472 -0.0008908192801900124 -0.006393897684538333 0.004511314430897365 0.02055512009977627 0.9946104694338728 -0.049758535148816244
 -0.0008902998803574346 -0.006393910098810046 0.0010299122034462414 0.010097114082906703 0.9946104694338728 -0.049758535148816244 0.00451036331403744 0.020555275002237618
0.07503126302626001 0.004884058057107462 0.022540500189092212 0.9941159044215762 -0.0543683099229842 0.0011791969848907091 0.011017337270584111 -0.0010203744611642425 -0.006979457317976815
 0.9941159044215762 -0.0543683099229842 0.004882533564173579 0.022540693055148577 -0.0010209906122385275 -0.0069794369407538545 0.001183443557541433 0.011016810412095393
 0.0011791969848907091 0.011017337270584111 -0.0010209906122385275 -0.0069794369407538545 0.004883828079619004 0.022539515913126987 0.9941158679201945 -0.05436931502846171
 -0.0010203744611642425 -0.006979457317976815 0.001183443557541433 0.011016810412095393 0.9941158679201945 -0.05436931502846171 0.004882696846622778 0.022539699945798554
0.08128386827845 0.005277783795584351 0.024541944879615515 0.9935931768951954 -0.058993534892041656 0.0013434095128421401 0.01193678701590074 -0.0011600890421911722 -0.007564960343812346
 0.9935931768951954 -0.058993534892041656 0.00527599615168659 0.024542171013990113 -0.0011608099120832096 -0.0075649304000101805 0.0013483911806850366 0.011936155283928418
 0.0013434095128421401 0.01193678701590074 -0.0011608099120832096 -0.0075649304000101805 0.0052775148068570366 0.02454088111082253 0.9935931342247278 -0.05899462448950572
 -0.0011600890421911722 -0.007564960343812346 0.0013483911806850366 0.011936155283928418 0.9935931342247278 -0.05899462448950572 0.005276187953826168 0.024541097366118782
0.08753647353064001 0.005693043196814975 0.026559982099410653 0.993041970324208 -0.06363307428220412 0.0015190701498195309 0.012855723783286869 -0.0013095368000196586 -0.008150243315401465
 0.993041970324208 -0.06363307428220412 0.005690971672265339 0.026560244920805182 -0.0013103702918207166 -0.00815020209415774 0.0015248453008814542 0.012854974004703531
 0.0015190701498195309 0.012855723783286869 -0.0013103702918207166 -0.00815020209415774 0.005692732245334521 0.02655883947031026 0.9930419209667798 -0.06363424858266845
 -0.0013095368000196586 -0.008150243315401465 0.0015248453008814542 0.012854974004703531 0.9930419209667798 -0.06363424858266845 0.00569119429181741 0.026559091178784633
0.09378907878283 0.0061301906595828525 0.028594239868341413 0.9924619394416452 -0.0682866940035471 0.0017062660881460902 0.013773969317004644 -0.0014688076580848162 -0.00873512748014988
 0.9924619394416452 -0.0682866940035471 0.006127814566198736 0.028594542966497057 -0.0014697616099133251 -0.008735073163438146 0.001712893025929465 0.013773087483416407
 0.0017062660881460902 0.013773969317004644 -0.0014697616099133251 -0.008735073163438146 0.0061298348173901476 0.028593019063554107 0.9924618828685606 -0.06828795324003376
 -0.0014688076580848162 -0.00873512748014988 0.001712893025929465 0.013773087483416407 0.9924618828685606 -0.06828795324003376 0.006128070306869923 0.02859330959490052
0.100041684035 0.00658957725781534 0.03064434811944676 0.9918527413465406 -0.07295414321553918 0.0019050812755444682 0.014691341169340672 -0.0016379881736237102 -0.009319431079893163
 0.9918527413465406 -0.07295414321553918 0.006586875948295869 0.030644695256742394 -0.0016390703580679176 -0.009319361742612758 0.0019126182068990995 0.014690312431592073
 0.0019050812755444682 0.014691341169340672 -0.0016390703580679176 -0.009319361742612758 0.00658917362115413 0.030643049878400656 0.9918526770171068 -0.07295548764045463
 -0.0016379881736237102 -0.009319431079893163 0.0019126182068990995 0.014690312431592073 0.9918526770171068 -0.07295548764045463 0.006587167120863696 0.030643382742552922
0.1059090909091 0.007041198806491682 0.032582243582137724 0.9912542431295587 -0.07734639043106598 0.002102287636823999 0.015551236688340572 -0.0018058329175304544 -0.009867045413197894
 0.9912542431295587 -0.07734639043106598 0.007038173573615706 0.032582635622644 -0.0018070424447603252 -0.00986696013458487 0.0021107313420617624 0.015550055837835424
 0.002102287636823999 0.015551236688340572 -0.0018070424447603252 -0.00986696013458487 0.0070407477012102825 0.032580873397302826 0.9912541710191283 -0.07734781504262463
 -0.0018058329175304544 -0.009867045413197894 0.0021107313420617624 0.015550055837835424 0.9912541710191283 -0.07734781504262463 0.0070385001047283645 0.03258124930441344
0.1062942892872 0.007071550607823353 0.032709936919670383 0.991214035751586 -0.07763515610303572 0.002115596281706025 0.015607652860883938 -0.00181716142172492 -0.009902969284711939
 0.991214035751586 -0.07763515610303572 0.007068503475323566 0.032710332032837776 -0.001818379545144797 -0.009902882894821828 0.00212410130439386 0.015606461523722364
 0.002115596281706025 0.015607652860883938 -0.001818379545144797 -0.009902882894821828 0.0070710962980248485 0.032708562037574544 0.991213963113057 -0.07763658598731421
 -0.00181716142172492 -0.009902969284711939 0.00212410130439386 0.015606461523722364 0.991213963113057 -0.07763658598731421 0.007068832399366063 0.03270894088577702
0.11254689453939999 0.0075764547227292 0.03479063511217839 0.9905454852215293 -0.08232945324060571 0.0023378881664492565 0.016522714024613354 -0.002006406877816512 -0.010485554151534808
 0.9905454852215293 -0.08232945324060571 0.007573041200516073 0.03479108231409405 -0.0020077685795286087 -0.010485448570177846 0.002347419255900305 0.016521343541602018
 0.0023378881664492565 0.016522714024613354 -0.0020077685795286087 -0.010485448570177846 0.007575946886444616 0.034789184438385766 0.9905454037069497 -0.08233096887539355
 -0.002006406877816512 -0.010485554151534808 0.002347419255900305 0.016521343541602018 0.9905454037069497 -0.08233096887539355 0.007573410205251592 0.03478961306433635
0.11879949979160001 0.008104629856781039 0.03688606927012705 0.989846755403863 -0.08703674265588748 0.0025720303492761548 0.01743633052850775 -0.002205800298509526 -0.011066994612924522
 0.989846755403863 -0.08703674265588748 0.008100829417749002 0.03688657285154575 -0.0022073131499116875 -0.011066867594616142 0.002582645344983525 0.017434763497256575
 0.0025720303492761548 0.01743633052850775 -0.0022073131499116875 -0.011066867594616142 0.008104065666846108 0.03688454371098454 0.9898466644322702 -0.0870383443496855
 -0.002205800298509526 -0.011066994612924522 0.002582645344983525 0.017434763497256575 0.9898466644322702 -0.0870383443496855 0.008101240843722044 0.036885026052054945
0.1250521050438 0.008656412340078294 0.03899586287915908 0.9891175152541022 -0.09175672067464681 0.002818092480187702 0.018348304589628654 -0.002415413601616829 -0.011647096483229235
 0.9891175152541022 -0.09175672067464681 0.008652204496724417 0.03899642731068131 -0.0024170851053721093 -0.011646945676053748 0.0028298490715078155 0.018346522747227003
 0.002818092480187702 0.018348304589628654 -0.0024170851053721093 -0.011646945676053748 0.008655788996491446 0.0389942633949433 0.98911741422894 -0.09175840875635097
 -0.002415413601616829 -0.011647096483229235 0.0028298490715078155 0.018346522747227003 0.98911741422894 -0.09175840875635097 0.008652660696893319 0.038994803533369524
0.131304710296 0.009232134407784018 0.0411196356859471 0.988357437256925 -0.09648907261073218 0.003076140311403196 0.01925843488307131 -0.0026353147459200433 -0.012225662478915955
 0.988357437256925 -0.09648907261073218 0.00922749871209606 0.04112026561988314 -0.0026371523349062397 -0.012225485424748255 0.0030890960231167493 0.0192564191018149
 0.003076140311403196 0.01925843488307131 -0.0026371523349062397 -0.012225485424748255 0.009231449138260095 0.04111796329331135 0.9883573255657259 -0.09649084742708604
 -0.0026353147459200433 -0.012225662478915955 0.0030890960231167493 0.0192564191018149 0.9883573255657259 -0.09649084742708604 0.009228002053308973 0.04111856545748356
0.1375573155481 0.009705633786523464 0.04298058234342017 0.9876927497104658 -0.1009568863160479 0.003315136333796794 0.02013953821277495 -0.002834463278571739 -0.012775545805457401
 0.9876927497104658 -0.1009568863160479 0.009700546981996775 0.04298126803175769 -0.00283647768819934 -0.012775342100270483 0.0033293308276728492 0.02013728983125217
 0.003315136333796794 0.02013953821277495 -0.00283647768819934 -0.012775342100270483 0.009704882487364064 0.042978838734276895 0.9876926268547191 -0.10095874806350229
 -0.002834463278571739 -0.012775545805457401 0.0033293308276728492 0.02013728983125217 0.9876926268547191 -0.10095874806350229 0.009701100962088923 0.04297949117517963
0.1438099208003 0.010195960415672296 0.04483071125270818 0.9870043583559276 -0.1054123446270596 0.0035637514739650772 0.021016464494682405 -0.003041537009331002 -0.013321576860549128
 0.9870043583559276 -0.1054123446270596 0.01019040163951841 0.044831456315763914 -0.0030437361670286687 -0.013321344077332003 0.003579238811150053 0.02101396570574274
 0.0035637514739650772 0.021016464494682405 -0.0030437361670286687 -0.013321344077332003 0.010195140111602045 0.04482889757446559 0.9870042237233975 -0.10541429364220521
 -0.003041537009331002 -0.013321576860549128 0.003579238811150053 0.02101396570574274 0.9870042237233975 -0.10541429364220521 0.01019100885097576 0.044829603295473475
0.1500625260525 0.01070292634483874 0.04666983744462591 0.9862924559164459 -0.10985530594215398 0.0038218899537004326 0.021889104653815085 -0.003256442363675114 -0.013863652522847854
 0.9862924559164459 -0.10985530594215398 0.010696874744930723 0.0466706456710504 -0.0032588341698166984 -0.013863388137836188 0.0038387238326094367 0.021886336992788077
 0.0038218899537004326 0.021889104653815085 -0.0032588341698166984 -0.013863388137836188 0.010702034071216306 0.04666795489273644 0.9862923088813159 -0.10985734257432117
 -0.003256442363675114 -0.013863652522847854 0.0038387238326094367 0.021886336992788077 0.9862923088813159 -0.10985734257432117 0.010697537807358354 0.04666871703244446
0.15631513130469998 0.011226342102135833 0.04849778146072292 0.9855572363017229 -0.11428562984420776 0.004089454755413167 0.022757351697292122 -0.003479084514698862 -0.014401672035437992
 0.9855572363017229 -0.11428562984420776 0.01121977683740181 0.048498656808018556 -0.003481676841849301 -0.014401373428755427 0.00410768850465709 0.02275429604972912
