! Created with skrf 1.8.0 (http://scikit-rf.org).
# GHz S RI R 50.0 
!freq ReS11 ImS11 ReS12 ImS12 ReS13 ImS13
! ReS14 ImS14
! ReS21 ImS21 ReS22 ImS22 ReS23 ImS23
! ReS24 ImS24
! ReS31 ImS31 ReS32 ImS32 ReS33 ImS33
! ReS34 ImS34
! ReS41 ImS41 ReS42 ImS42 ReS43 ImS43
! ReS44 ImS44
!
0.0 0.001059727782765 0.0 0.9989402722172 0.0 4.022190119206e-05 0.0 -4.022190114776e-05 4.925762249622554e-21
 0.9989402722172 0.0 0.001059727782762 0.0 -4.022190114753e-05 4.925762249594387e-21 4.022190119208e-05 0.0
 4.022190119206e-05 0.0 -4.022190114753e-05 4.925762249594387e-21 0.001059727772093 0.0 0.9989402722066 0.0
 -4.022190114776e-05 4.925762249622554e-21 4.022190119208e-05 0.0 0.9989402722066 0.0 0.001059727772103 0.0
0.005 0.001139222324166731 0.0008644367607463488 0.9988398433852266 -0.002221399396706155 5.620581000443945e-05 0.00046177848128094737 -5.460578837813494e-05 -0.000286774429750735
 0.9988398433852266 -0.002221399396706155 0.0011392120595885233 0.0008644427692730212 -5.460765875420343e-05 -0.00028677588434611486 5.626317518790854e-05 0.00046175672565431877
 5.620581000443945e-05 0.00046177848128094737 -5.460765875420343e-05 -0.00028677588434611486 0.0011392216028500235 0.0008645044494375776 0.9988398437030641 -0.0022213323370319743
 -5.460578837813494e-05 -0.000286774429750735 5.626317518790854e-05 0.00046175672565431877 0.9988398437030641 -0.0022213323370319743 0.0011392134140257655 0.000864509197919755
0.006252605252188 0.001159787631349238 0.0010840015046475833 0.9988137458019006 -0.0027773377473867 6.0600844580437944e-05 0.0005774570534886267 -5.853572342774004e-05 -0.0003588599113014072
 0.9988137458019006 -0.0027773377473867 0.0011597715856669797 0.0010840091213625872 -5.853863382409537e-05 -0.0003588617063335227 6.069047507261408e-05 0.0005774288382970868
 6.0600844580437944e-05 0.0005774570534886267 -5.853863382409537e-05 -0.0003588617063335227 0.0011597864279361244 0.001084086111984076 0.9988137462231693 -0.0027772539278930605
 -5.853572342774004e-05 -0.0003588599113014072 6.069047507261408e-05 0.0005774288382970868 0.9988137462231693 -0.0027772539278930605 0.0011597736275859468 0.0010840921484712746
0.01250521050438 0.0012663955177936806 0.002191249807659817 0.9986777922164187 -0.0055557065571335195 8.4899949151567e-05 0.0011553025773181178 -8.012945437528216e-05 -0.0007196594510579845
 0.9986777922164187 -0.0055557065571335195 0.0012663314431285444 0.0021912661069130477 -8.014092377213958e-05 -0.0007196627930525794 8.52574358165767e-05 0.0011552353696239247
 8.4899949151567e-05 0.0011553025773181178 -8.014092377213958e-05 -0.0007196627930525794 0.0012663901447868629 0.002191418798226191 0.9986777933356642 -0.005555539157122803
 -8.012945437528216e-05 -0.0007196594510579845 8.52574358165767e-05 0.0011552353696239247 0.9986777933356642 -0.005555539157122803 0.0012663390372799105 0.002191431873450914
0.01875781575657 0.0013797233937778318 0.003314811442364959 0.9985322862858335 -0.008341929499601625 0.00011316548170642662 0.00173398088060411 -0.00010505633177444616 -0.0010818883988376817
 0.9985322862858335 -0.008341929499601625 0.0013795794078566585 0.0033148375652412294 -0.00010508190991660869 -0.0010818930071226998 0.00011396868449272359 0.0017338623297407678
 0.00011316548170642662 0.00173398088060411 -0.00010508190991660869 -0.0010818930071226998 0.001379710891405289 0.0033150647439699537 0.9985322883824902 -0.008341678608968093
 -0.00010505633177444616 -0.0010818883988376817 0.00011396868449272359 0.0017338623297407678 0.9985322883824902 -0.008341678608968093 0.0013795960596954743 0.003315085895683792
0.02501042100875 0.001499941104504734 0.004453164254105281 0.9983770997962441 -0.01113741478222552 0.00014544405647994802 0.0023135588570120636 -0.0001333686045583294 -0.0014454119222317122
 0.9983770997962441 -0.01113741478222552 0.001499685385788178 0.0044532014051349355 -0.0001334137765115443 -0.0014454174776989933 0.0001468710151304148 0.0023133751196704904
 0.00014544405647994802 0.0023135588570120636 -0.0001334137765115443 -0.0014454174776989933 0.0014999185105246545 0.004453501836602374 0.9983771031477143 -0.011137080449991827
 -0.0001333686045583294 -0.0014454119222317122 0.0001468710151304148 0.0023133751196704904 0.9983771031477143 -0.011137080449991827 0.0014997145957262596 0.004453532129357892
0.03126302626094 0.0016272108851105786 0.00560555361235755 0.9982120960707751 -0.01394279950929561 0.00018178290035437698 0.0028940489838005365 -0.00016511742447812458 -0.0018101476139103672
 0.9982120960707751 -0.01394279950929561 0.0016268116573225487 0.005605603057300569 -0.00016518762222906581 -0.0018101537582196228 0.00018401201253286987 0.0028937847171406493
 0.00018178290035437698 0.0028940489838005365 -0.00016518762222906581 -0.0018101537582196228 0.0016271752359205127 0.00560597546756187 0.9982121009552728 -0.0139423817635383
 -0.00016511742447812458 -0.0018101476139103672 0.00018401201253286987 0.0028937847171406493 0.9982121009552728 -0.0139423817635383 0.0016268569247966647 0.005606015990528446
0.037515631513130004 0.0017616915543974027 0.0067715092431605145 0.9980371342200487 -0.01675843281481757 0.00022222943615295056 0.0034754428936517494 -0.0002003532733097001 -0.0021760319136423486
 0.9980371342200487 -0.01675843281481757 0.0017611170773101164 0.006771572307916501 -0.00020045388184412825 -0.002176038248932794 0.00022543954506381282 0.003475081239744919
 0.00022222943615295056 0.0034754428936517494 -0.00020045388184412825 -0.002176038248932794 0.001761639883673719 0.006772015376397628 0.9980371409163814 -0.016757931671093965
 -0.0002003532733097001 -0.0021760319136423486 0.00022543954506381282 0.003475081239744919 0.9980371409163814 -0.016757931671093965 0.0017611819006386736 0.006772067242046493
0.043768236765320004 0.001903540133000755 0.007950698189954034 0.9978520708159099 -0.019584522863471863 0.00026683110522203224 0.004057721565353436 -0.00023912612270685904 -0.0025430099074315766
 0.9978520708159099 -0.019584522863471863 0.001902758695572826 0.00795077625993194 -0.00023926248366723274 -0.0025430159961848777 0.00027120154876580466 0.004057244132933197
 0.00026683110522203224 0.004057721565353436 -0.00023926248366723274 -0.0025430159961848777 0.001903469470957849 0.007951288623978616 0.9978520796036499 -0.019583938320982833
 -0.00023912612270685904 -0.0025430099074315766 0.00027120154876580466 0.004057244132933197 0.9978520796036499 -0.019583938320982833 0.0019028465722231087 0.007951352967000546
0.050020842017509996 0.0020529126056291727 0.009142864065797401 0.997656760709471 -0.022421197558838195 0.0003156352624862264 0.004640859542203386 -0.0002814855111894192 -0.002911031098032487
 0.997656760709471 -0.022421197558838195 0.0020518925206899304 0.009142958585461144 -0.0002816629253766318 -0.002911036463007937 0.0003213459021962167 0.004640246387221521
 0.0003156352624862264 0.004640859542203386 -0.0002816629253766318 -0.002911036463007937 0.0020528199792272783 0.009143538828250948 0.9976567718691928 -0.02242052961312989
 -0.0002814855111894192 -0.002911031098032487 0.0003213459021962167 0.004640246387221521 0.9976567718691928 -0.02242052961312989 0.002052006947561376 0.009143616804604088
0.055454545454549996 0.002188952800293554 0.010189267519955688 0.9974785950521334 -0.024895010929522402 0.0003614971529777176 0.005148298893498158 -0.00032124798445543393 -0.0032316624342470968
 0.9974785950521334 -0.024895010929522402 0.0021876996045724242 0.010189377553582651 -0.0003214653495637992 -0.003231666751767008 0.00036851895284998855 0.005147550373474661
 0.0003614971529777176 0.005148298893498158 -0.0003214653495637992 -0.003231666751767008 0.0021888386684397413 0.010190015599600366 0.9974786085015263 -0.02489427049045806
 -0.00032124798445543393 -0.0032316624342470968 0.00036851895284998855 0.005147550373474661 0.9974786085015263 -0.02489427049045806 0.0021878399438146102 0.010190106378358973
0.056273447269699996 0.002209964326716457 0.010347797216919224 0.9974510574930595 -0.02526853433983562 0.00036868911099471 0.005224826992108778 -0.0003274805766960304 -0.0032800473337012623
 0.9974510574930595 -0.02526853433983562 0.0022086739262868562 0.010347909689440589 -0.00032770430573008963 -0.0032800514578805963 0.00037592034898665464 0.005224056597720063
 0.00036868911099471 0.005224826992108778 -0.00032770430573008963 -0.0032800514578805963 0.0022098467587851754 0.010348556350385271 0.9974510713061643 -0.025267782972762404
 -0.0003274805766960304 -0.0032800473337012623 0.00037592034898665464 0.005224056597720063 0.9974510713061643 -0.025267782972762404 0.00220881839965169 0.010348649136408756
0.06252605252188 0.0023748502524415793 0.011565318339029742 0.9972348137893401 -0.028126576524235558 0.00042603965272043376 0.005809590838413402 -0.0003771600699780194 -0.0036500116665135036
 0.9972348137893401 -0.028126576524235558 0.0023732578834874895 0.0115654503260749 -0.00037743533759515693 -0.003650013993076209 0.0004349724406221419 0.005808640094609191
 0.00042603965272043376 0.005809590838413402 -0.00037743533759515693 -0.003650013993076209 0.0023747047618749694 0.011566161892748925 0.997234830538693 -0.02812574171250092
 -0.0003771600699780194 -0.0036500116665135036 0.0004349724406221419 0.005808640094609191 0.997234830538693 -0.02812574171250092 0.0023734358989223386 0.01156627068445059
0.06877865777407 0.0025477250788045512 0.012795268693928498 0.9970078814479659 -0.03099534305223813 0.00048773364863824486 0.0063951154314342345 -0.00043057235667682853 -0.004020877670459198
 0.9970078814479659 -0.03099534305223813 0.002545799099523906 0.012795421815502786 -0.00043090434965454037 -0.004020877602757908 0.0004985494912261031 0.006393959614482053
 0.00048773364863824486 0.0063951154314342345 -0.00043090434965454037 -0.004020877602757908 0.0025475486801851493 0.01279619672587524 0.9970079014178347 -0.030994424765427166
 -0.00043057235667682853 -0.004020877670459198 0.0004985494912261031 0.006393959614482053 0.9970079014178347 -0.030994424765427166 0.0025460141516699397 0.012796322738140997
0.07503126302626001 0.0027287433249340086 0.014037503920512742 0.9967701116887798 -0.03387483463601281 0.0005538175852550997 0.006981362969629368 -0.0004877654115786624 -0.00439259901049072
 0.9967701116887798 -0.03387483463601281 0.002726452100932679 0.014037679854869313 -0.00048815928043897076 -0.0043925959120321365 0.000566698540016281 0.0069799757213851975
 0.0005538175852550997 0.006981362969629368 -0.00048815928043897076 -0.0043925959120321365 0.0027285330284690934 0.01403851650233399 0.9967701351648965 -0.033873832831737
 -0.0004877654115786624 -0.00439259901049072 0.000566698540016281 0.0069799757213851975 0.9967701351648965 -0.033873832831737 0.0027267076834586153 0.014038660968373395
0.08128386827845 0.002918059383209457 0.015291889908557586 0.9965213552120975 -0.0367650378468992 0.0006243376436654082 0.007568293783242635 -0.0005487868091064759 -0.004765129149749964
 0.9965213552120975 -0.0367650378468992 0.002915371284091462 0.015292090392229622 -0.0005492476686785099 -0.0047651223441846835 0.0006394663173588971 0.00756664709040156
 0.0006243376436654082 0.007568293783242635 -0.0005492476686785099 -0.0047651223441846835 0.0029178121946177612 0.015292987116448274 0.9965213824821664 -0.036763952480170815
 -0.0005487868091064759 -0.004765129149749964 0.0006394663173588971 0.00756664709040156 0.9965213824821664 -0.036763952480170815 0.002915670889299346 0.015293151287193335
0.08753647353064001 0.00311582754602391 0.016558299942448108 0.9962614622878255 -0.03966592793341694 0.0006993396712588101 0.008155866523521764 -0.0006136837102144408 -0.005138421151943364
 0.9962614622878255 -0.03966592793341694 0.003112710941747592 0.016558526770305462 -0.0006142166400126137 -0.005138409923063264 0.0007168992140598058 0.008153930696839808
 0.0006993396712588101 0.008155866523521764 -0.0006142166400126137 -0.005138409923063264 0.003115540466360873 0.0165594818631834 0.9962614936413986 -0.03966475895076463
 -0.0006136837102144408 -0.005138421151943364 0.0007168992140598058 0.008153930696839808 0.9962614936413986 -0.03966475895076463 0.0031130580605589838 0.016559667006761564
0.09378907878283 0.003322202018114593 0.017836612665235826 0.9959902828305272 -0.042577470819507385 0.0007788691548184785 0.008744038299591698 -0.0006825028469021032 -0.00551242753684634
 0.9959902828305272 -0.042577470819507385 0.003318625275819931 0.01783686769060674 -0.0006831128914568134 -0.0055124111285702725 0.000799043252607102 0.008741781953097561
 0.0007788691548184785 0.008744038299591698 -0.0006831128914568134 -0.0055124111285702725 0.003321872044156673 0.017837879394953272 0.9959903185598559 -0.042576218160377155
 -0.0006825028469021032 -0.00551242753684634 0.000799043252607102 0.008741781953097561 0.9959903185598559 -0.042576218160377155 0.0033190233977862934 0.017838086796276405
0.100041684035 0.003537336918451397 0.01912671058011008 0.9957076664659877 -0.04549962456621009 0.0008629711943757963 0.009332764777220583 -0.0007552905052900984 -0.005887100174677762
 0.9957076664659877 -0.04549962456621009 0.0035332683989151765 0.019126995715032326 -0.0007559826743733497 -0.005887077791065102 0.0008859440592888066 0.009330154807463641
 0.0008629711943757963 0.009332764777220583 -0.0007559826743733497 -0.005887077791065102 0.0035369610420095494 0.019128062225825193 0.9957077068650781 -0.045498288161596845
 -0.0007552905052900984 -0.005887100174677762 0.0008859440592888066 0.009330154807463641 0.9957077068650781 -0.045498288161596845 0.003533721011402955 0.019128293186216387
0.1059090909091 0.003747322924095458 0.020347946883294925 0.9954319250875676 -0.048251363077816405 0.0009460905402337035 0.009885685936454721 -0.0008272441531417474 -0.00623925314184747
 0.9954319250875676 -0.048251363077816405 0.0037427641396987157 0.02034826206433626 -0.0008280179129008028 -0.006239224391599852 0.0009718577494581476 0.009882712473441564
 0.0009460905402337035 0.009885685936454721 -0.0008280179129008028 -0.006239224391599852 0.0037469012325983555 0.020349378317084398 0.9954319701386318 -0.048249948020502115
 -0.0008272441531417474 -0.00623925314184747 0.0009718577494581476 0.009882712473441564 0.9954319701386318 -0.048249948020502115 0.0037432710552038058 0.020349632583090763
0.1062942892872 0.0037613862731200793 0.020428478924656896 0.9954134625887797 -0.0484323404612588 0.000951690477620049 0.009922000253907812 -0.0008320925072750153 -0.006262390205039346
 0.9954134625887797 -0.0484323404612588 0.0037567943274448116 0.020428796140124973 -0.0008328717760703613 -0.0062623610102796315 0.0009776468373001977 0.009919001819241668
 0.000951690477620049 0.009922000253907812 -0.0008328717760703613 -0.0062623610102796315 0.0037609614809807897 0.020429915601165548 0.995413507954441 -0.048430920237053005
 -0.0008320925072750153 -0.006262390205039346 0.0009776468373001977 0.009919001819241668 0.995413507954441 -0.048430920237053005 0.0037573049153288734 0.02043017143809932
0.11254689453939999 0.003994504003174945 0.021741804807256952 0.995107520417568 -0.05137556384752065 0.001045071254862479 0.010511697713155828 -0.000912954191011086 -0.006638247977506937
 0.995107520417568 -0.05137556384752065 0.003989356969343778 0.02174215613363948 -0.0009138255002151454 -0.006638211095938566 0.001074196340409299 0.010508274213081334
 0.001045071254862479 0.010511697713155828 -0.0009138255002151454 -0.006638211095938566 0.003994027277393571 0.02174332663842271 0.9951075710492405 -0.05137405972338364
 -0.000912954191011086 -0.006638247977506937 0.001074196340409299 0.010508274213081334 0.9951075710492405 -0.05137405972338364 0.0039899290150979165 0.02174360868527096
0.11879949979160001 0.004236843907408275 0.023066576527967373 0.9947896890447989 -0.05432923476773891 0.0011431573139400646 0.011101808868101457 -0.0009979203906125696 -0.007014623003820485
 0.9947896890447989 -0.05432923476773891 0.004231110107078918 0.02306696405539299 -0.0009988886465212914 -0.007014577519933605 0.0011756368470009024 0.011097921922669802
 0.0011431573139400646 0.011101808868101457 -0.0009988886465212914 -0.007014577519933605 0.004236312225027762 0.02306818365029361 0.9947897452449228 -0.054327646653741235
 -0.0009979203906125696 -0.007014623003820485 0.0011756368470009024 0.011097921922669802 0.9947897452449228 -0.054327646653741235 0.0042317470901193505 0.023068493256202836
0.1250521050438 0.004488559641689846 0.02440268304829988 0.994459817485653 -0.0572932884614192 0.001245991955491858 0.011692284197270636 -0.0010870354150910434 -0.007391463918786322
 0.994459817485653 -0.0572932884614192 0.004482207376710499 0.024403108927200944 -0.001088105489607508 -0.007391408877242912 0.0012820121341495846 0.011687893626613075
 0.001245991955491858 0.011692284197270636 -0.001088105489607508 -0.007391408877242912 0.004487969974921471 0.024404375605707358 0.9944598795598834 -0.05729161626341736
 -0.0010870354150910434 -0.007391463918786322 0.0012820121341495846 0.011687893626613075 0.9944598795598834 -0.05729161626341736 0.0044829127734001585 0.024404714135557837
0.131304710296 0.004749804695759135 0.025750013558329753 0.9941177547243936 -0.0602676557652575 0.001353617968045493 0.012283072969762231 -0.0011803430266239217 -0.007768718452844196
 0.9941177547243936 -0.0602676557652575 0.004742802244722828 0.025750480000071598 -0.0011815197572744708 -0.007768652858498491 0.001393365451993568 0.01227813677366459
 0.001353617968045493 0.012283072969762231 -0.0011815197572744708 -0.007768652858498491 0.00474915401151209 0.0257517917058327 0.9941178229813633 -0.060265899381556465
 -0.0011803430266239217 -0.007768718452844196 0.001393365451993568 0.01227813677366459 0.9941178229813633 -0.060265899381556465 0.004743579527486749 0.025752160540237178
0.1375573155481 0.0049516140194051485 0.02693108012233319 0.9938324824189564 -0.06307484303872075 0.001449629580722569 0.012855170028991468 -0.0012613903062765818 -0.00812741559982858
 0.9938324824189564 -0.06307484303872075 0.004943928168806306 0.02693157957544621 -0.0012626808020038023 -0.008127339692373036 0.0014931956520283134 0.012849705710704437
 0.001449629580722569 0.012855170028991468 -0.0012626808020038023 -0.008127339692373036 0.00495089978834782 0.02693294406527184 0.9938325571355959 -0.0630730024189248
 -0.0012613903062765818 -0.00812741559982858 0.0014931956520283134 0.012849705710704437 0.9938325571355959 -0.0630730024189248 0.004944780363421488 0.026933334808408586
0.1438099208003 0.00516015673164335 0.02810732493480802 0.9935378222787208 -0.06587635883612517 0.0015494966768234064 0.013425893254495948 -0.001345687429173401 -0.008484842384528212
 0.9935378222787208 -0.06587635883612517 0.0051517555062867496 0.028107858944440504 -0.0013470968878221486 -0.008484755217768045 0.001597051347244016 0.013419863470036894
 0.0015494966768234064 0.013425893254495948 -0.0013470968878221486 -0.008484755217768045 0.0051593760053517445 0.02810927483127036 0.9935379037620449 -0.06587443388140748
 -0.001345687429173401 -0.008484842384528212 0.001597051347244016 0.013419863470036894 0.9935379037620449 -0.06587443388140748 0.00515268599898728 0.028109688173177015
0.1500625260525 0.005375375577801498 0.029278691974326445 0.9932338338330527 -0.0686721769941592 0.0016531939826983926 0.013995215437296215 -0.0014332094853560368 -0.008840971200781067
 0.9932338338330527 -0.0686721769941592 0.005366226971408415 0.029279262165012664 -0.0014347430994126815 -0.008840871791223967 0.0017049065856343196 0.01398858151299327
 0.0016531939826983926 0.013995215437296215 -0.0014347430994126815 -0.008840871791223967 0.0053745254088510925 0.029280727988813093 0.9932339223927771 -0.06867016760107633
 -0.0014332094853560368 -0.008840971200781067 0.0017049065856343196 0.01398858151299327 0.9932339223927771 -0.06867016760107633 0.005367239139545208 0.02928116466514766
0.15631513130469998 0.005597213072612293 0.030445127208058316 0.9929205767192347 -0.07146227068070875 0.00176069603600319 0.014563109685140421 -0.0015239313593886316 -0.0091957749465471
