! Created with skrf 1.8.0 (http://scikit-rf.org).
# GHz S RI R 50.0 
!freq ReS11 ImS11 ReS12 ImS12 ReS13 ImS13
! ReS14 ImS14
! ReS21 ImS21 ReS22 ImS22 ReS23 ImS23
! ReS24 ImS24
! ReS31 ImS31 ReS32 ImS32 ReS33 ImS33
! ReS34 ImS34
! ReS41 ImS41 ReS42 ImS42 ReS43 ImS43
! ReS44 ImS44
!
0.0 0.001190761945572 0.0 0.9988092380483 0.0 4.512311750973e-05 0.0 -4.512311806484e-05 5.525988210565441e-21
 0.9988092380483 0.0 0.001190761945563 0.0 -4.512311806471e-05 5.525988210549521e-21 4.512311750957e-05 0.0
 4.512311750973e-05 0.0 -4.512311806471e-05 5.525988210549521e-21 0.00119076194859 0.0 0.9988092380514 0.0
 -4.512311806484e-05 5.525988210565441e-21 4.512311750957e-05 0.0 0.9988092380514 0.0 0.001190761948585 0.0
0.005 0.0012803070302416153 0.0009786156645702085 0.9986960896561085 -0.0024951709211710536 6.216059229436404e-05 0.00047342196121973723 -6.0595857632113444e-05 -0.0003014405034100653
 0.9986960896561085 -0.0024951709211710536 0.001280312651829993 0.0009786123422314374 -6.059498238404227e-05 -0.00030143979681248765 6.213069579538062e-05 0.0004734333237640134
 6.216059229436404e-05 0.00047342196121973723 -6.059498238404227e-05 -0.00030143979681248765 0.0012803079929816375 0.0009786823234209754 0.9986960899863591 -0.0024951038581031227
 -6.0595857632113444e-05 -0.0003014405034100653 6.213069579538062e-05 0.0004734333237640134 0.9986960899863591 -0.0024951038581031227 0.0012803123474981097 0.0009786798083203728
0.006252605252188 0.0013035559993175695 0.0012271341755284641 0.9986665667743145 -0.003119608549346903 6.689685670088388e-05 0.0005920323573250807 -6.485552625813196e-05 -0.0003771979539979863
 0.9986665667743145 -0.003119608549346903 0.001303564787241607 0.0012271299579824381 -6.485416454268365e-05 -0.00037719708166653694 6.685014529034106e-05 0.000592047096698355
 6.689685670088388e-05 0.0005920323573250807 -6.485416454268365e-05 -0.00037719708166653694 0.001303557426686702 0.0012272174839951285 0.9986665672126417 -0.00311952473090298
 -6.485552625813196e-05 -0.0003771979539979863 6.685014529034106e-05 0.000592047096698355 0.9986665672126417 -0.00311952473090298 0.0013035642332669113 0.0012272142835791265
0.01250521050438 0.001424569461086125 0.002480178232289421 0.9985120712547572 -0.00624019771102141 9.336519723236285e-05 0.0011845633485504227 -8.843982666104066e-05 -0.0007563438159720358
 0.9985120712547572 -0.00624019771102141 0.001424604557328698 0.002480169140709036 -8.843446306146062e-05 -0.0007563421886121744 9.317890321574023e-05 0.001184598524579603
 9.336519723236285e-05 0.0011845633485504227 -8.843446306146062e-05 -0.0007563421886121744 0.0014245746015318374 0.002480344556061891 0.9985120724409131 -0.006240030310799121
 -8.843982666104066e-05 -0.0007563438159720358 9.317890321574023e-05 0.001184598524579603 0.9985120724409131 -0.006240030310799121 0.0014246017752390782 0.0024803375894056996
0.01875781575657 0.0015540167776590627 0.0037513422354199227 0.9983455952095958 -0.009369406396422328 0.00012458209901297683 0.0017779912159030225 -0.00011593755797692066 -0.0011369524723168403
 0.9983455952095958 -0.009369406396422328 0.001554095651900028 0.0037513275536960058 -0.00011592560044364942 -0.001136950224102412 0.00012416356199103658 0.001778053440267742
 0.00012458209901297683 0.0017779912159030225 -0.00011592560044364942 -0.001136950224102412 0.0015540279148866765 0.0037515913876492047 0.9983455974525354 -0.009369155518119883
 -0.00011593755797692066 -0.0011369524723168403 0.00012416356199103658 0.001778053440267742 0.9983455974525354 -0.009369155518119883 0.0015540889651883313 0.0037515800599588487
0.02501042100875 0.0016921085296523009 0.005038905010612429 0.9981669776462446 -0.012508799810099619 0.00016060224850419073 0.0023723638393362495 -0.0001474090839665857 -0.0015188866021440088
 0.9981669776462446 -0.012508799810099619 0.001692248622721063 0.0050388839691058495 -0.00014738797215622967 -0.0015188838868836832 0.00015985873579342136 0.002372460595893571
 0.00016060224850419073 0.0023723638393362495 -0.00014738797215622967 -0.0015188838868836832 0.0016921279511468287 0.005039236830876991 0.9981669812571786 -0.01250846550495646
 -0.0001474090839665857 -0.0015188866021440088 0.00015985873579342136 0.002372460595893571 0.9981669812571786 -0.01250846550495646 0.0016922363534835664 0.005039220522969726
0.03126302626094 0.0018390462222954984 0.006342005743758921 0.9979760477327346 -0.0156590778241342 0.00020148095955865145 0.0029676782743959245 -0.000182913535883285 -0.0019020571140486865
 0.9979760477327346 -0.0156590778241342 0.0018392649542408224 0.0063419775203181344 -0.00018288073556427042 -0.0019020541055350874 0.00020031957534690146 0.002967817923334487
 0.00020148095955865145 0.0029676782743959245 -0.00018288073556427042 -0.0019020541055350874 0.0018390762148934054 0.006342420061386007 0.9979760530207011 -0.015658660127453625
 -0.000182913535883285 -0.0019020571140486865 0.00020031957534690146 0.002967817923334487 0.9979760530207011 -0.015658660127453625 0.0018392454174499208 0.0063423981307694135
0.037515631513130004 0.001995027173994054 0.007660102059506784 0.9977726297676354 -0.01882061685625634 0.00024727368085315603 0.003563911864168361 -0.00022250922565188763 -0.002286392021826889
 0.9977726297676354 -0.01882061685625634 0.001995341949204203 0.007660065779798998 -0.00022246222580258682 -0.0022863889139437973 0.00024560132286246785 0.003564103650826249
 0.00024727368085315603 0.003563911864168361 -0.00022246222580258682 -0.0022863889139437973 0.0019950700264573062 0.007660598689691022 0.9977726370420313 -0.01882011579100775
 -0.00022250922565188763 -0.002286392021826889 0.00024560132286246785 0.003564103650826249 0.9977726370420313 -0.01882011579100775 0.0019953134545762008 0.00766057047122876
0.043768236765320004 0.0021602464186558997 0.008992805118009045 0.9975565451637219 -0.02199363472431875 0.0002980357738823945 0.0041610316986009565 -0.00026625380234117103 -0.0026718269728652653
 0.9975565451637219 -0.02199363472431875 0.0021606746292556402 0.008992759855693288 -0.0002661901133954408 -0.0026718239796223774 0.0002957591100468186 0.004161285763724972
 0.0002980357738823945 0.0041610316986009565 -0.0002661901133954408 -0.0026718239796223774 0.002160304422788508 0.008993383854571664 0.997556554735368 -0.02199305030802616
 -0.00026625380234117103 -0.0026718269728652653 0.0002957591100468186 0.004161285763724972 0.997556554735368 -0.02199305030802616 0.002160635481967404 0.008993348661023793
0.050020842017509996 0.0023348975993039505 0.010339811445935628 0.997327613425165 -0.02517825876458451 0.00035382238472081456 0.004758998515696385 -0.0003142043189455461 -0.0030583013349572944
 0.997327613425165 -0.02517825876458451 0.0023354566279488185 0.010339756222688092 -0.00031412147160610735 -0.0030582986904972016 0.00035084784059600773 0.0047593259063045705
 0.00035382238472081456 0.004758998515696385 -0.00031412147160610735 -0.0030582986904972016 0.0023349730481120514 0.010340472067650255 0.9973276256043833 -0.0251775910027254
 -0.0003142043189455461 -0.0030583013349572944 0.00035084784059600773 0.0047593259063045705 0.9973276256043833 -0.0251775910027254 0.002335405126774507 0.010340429190110125
0.055454545454549996 0.0024944843478677684 0.011521820467950038 0.9971180901557393 -0.027955274801884502 0.00040642576653705196 0.0052793038000502075 -0.0003593343898352702 -0.00339495767885831
 0.9971180901557393 -0.027955274801884502 0.0024951711728333063 0.011521755753387116 -0.00035923290302611663 -0.003394955543284032 0.00040276855646022427 0.005279704596508055
 0.00040642576653705196 0.0052793038000502075 -0.00035923290302611663 -0.003394955543284032 0.0024945768205456853 0.011522552053814332 0.9971181048538555 -0.027954534610152078
 -0.0003593343898352702 -0.00339495767885831 0.00040276855646022427 0.005279704596508055 0.9971181048538555 -0.027954534610152078 0.002495107549891787 0.011522501906401385
0.056273447269699996 0.002519173436621466 0.011700869496107142 0.9970856527009471 -0.02837455922099571 0.000414688358163433 0.005357768611093326 -0.00036641725811278056 -0.0034457562753592392
 0.9970856527009471 -0.02837455922099571 0.002519880659101834 0.011700803281526952 -0.000366312802534284 -0.003445754233949067 0.00041092211077087477 0.0053581812916402224
 0.000414688358163433 0.005357768611093326 -0.000366312802534284 -0.003445754233949067 0.0025192686254129916 0.011701611759153869 0.9970856677992438 -0.028373808114126247
 -0.00036641725811278056 -0.0034457562753592392 0.00041092211077087477 0.0053581812916402224 0.9970856677992438 -0.028373808114126247 0.0025198150974213205 0.011701560467432651
0.06252605252188 0.0027132659971045112 0.013075761251255239 0.9968304801396755 -0.031582567590202545 0.0004806881725256923 0.005957294888387498 -0.00042294853756218956 -0.003834133699924945
 0.9968304801396755 -0.031582567590202545 0.0027141387842274144 0.013075682962837858 -0.00042282004275129265 -0.0038341325359458763 0.00047603614824545155 0.005957805752087311
 0.0004806881725256923 0.005957294888387498 -0.00042282004275129265 -0.0038341325359458763 0.002713383222749271 0.01307658489187849 0.9968304984690195 -0.0315817331310112
 -0.00042294853756218956 -0.003834133699924945 0.00047603614824545155 0.005957805752087311 0.9968304984690195 -0.0315817331310112 0.002714057449389264 0.013076524434885932
0.06877865777407 0.002917366846661934 0.014464291263226051 0.9965619121318535 -0.03480228753213605 0.0005518758862160304 0.00655752747841878 -0.00048385350340119076 -0.004223375624270646
 0.9965619121318535 -0.03480228753213605 0.002918422566339217 0.014464199766122463 -0.0004836985567495765 -0.004223375632204219 0.0005462437616436278 0.006558150358650885
 0.0005518758862160304 0.00655752747841878 -0.0004836985567495765 -0.004223375632204219 0.0029175084080272015 0.014465195994100533 0.9965619340058839 -0.03480136970871799
 -0.00048385350340119076 -0.004223375624270646 0.0005462437616436278 0.006558150358650885 0.9965619340058839 -0.03480136970871799 0.002918323740362988 0.014465125600092851
0.07503126302626001 0.0031316671428890407 0.01586627969645901 0.9962797644927829 -0.03803370177676939 0.0006283050908712142 0.007158414134051221 -0.0005491869163283087 -0.00461342377052936
 0.9962797644927829 -0.03803370177676939 0.0031329231619713544 0.015866173803359297 -0.0005490031233206443 -0.004613425264935639 0.0006215982958759614 0.007159163815778653
 0.0006283050908712142 0.007158414134051221 -0.0005490031233206443 -0.004613425264935639 0.0031318353400389258 0.015867265205844833 0.9962797902257641 -0.03803270057311653
 -0.0005491869163283087 -0.00461342377052936 0.0006215982958759614 0.007159163815778653 0.9962797902257641 -0.03803270057311653 0.00313280512054788 0.015867184082723473
0.08128386827845 0.003356357683056814 0.017281557700025027 0.9959838526019301 -0.041276776703635616 0.000710028869075276 0.007759900488950059 -0.0006190029327944757 -0.005004219301264792
 0.9959838526019301 -0.041276776703635616 0.0033578313691084638 0.017281436170826885 -0.0006187879167145393 -0.005004222616763672 0.0007021525913801444 0.007760792720146283
 0.000710028869075276 0.007759900488950059 -0.0006187879167145393 -0.005004222616763672 0.0033565548174730895 0.017282623652807937 0.995983882509776 -0.04127569209827944
 -0.0006190029327944757 -0.005004219301264792 0.0007021525913801444 0.007760792720146283 0.995983882509776 -0.04127569209827944 0.0033576923823390712 0.017282530988276795
0.08753647353064001 0.0035916289281638946 0.0187099642056013 0.995673991521724 -0.044531465496365864 0.0007970997542294424 0.00836193023669543 -0.0006933550831166317 -0.005395702634286253
 0.995673991521724 -0.044531465496365864 0.003593337651160877 0.018709825747175446 -0.0006931064848622101 -0.005395708125536748 0.0007879589454540742 0.008362981739741744
 0.0007970997542294424 0.00836193023669543 -0.0006931064848622101 -0.005395708125536748 0.0035918573022521156 0.018711110246135983 0.9956740259216232 -0.044530297459163426
 -0.0006933550831166317 -0.005395702634286253 0.0007879589454540742 0.008362981739741744 0.9956740259216232 -0.044530297459163426 0.0035931759832513338 0.01871100520790345
0.09378907878283 0.003837671007472115 0.020151343642186716 0.9953499960967752 -0.047797710381910684 0.0008895696926405684 0.008964445257411535 -0.0007722962468042762 -0.005787813311241112
 0.9953499960967752 -0.047797710381910684 0.003839632141608904 0.020151186907990604 -0.0007720117247476965 -0.00578782135291631 0.0008790690753083083 0.008965673740450509
 0.0008895696926405684 0.008964445257411535 -0.0007720117247476965 -0.00578782135291631 0.0038379329243819287 0.02015256938633204 0.995350035307447 -0.04779645888173727
 -0.0007722962468042762 -0.005787813311241112 0.0008790690753083083 0.008965673740450509 0.995350035307447 -0.04779645888173727 0.0038394460508056004 0.020152451122196453
0.100041684035 0.004094673709877617 0.021605544251823528 0.995011681043033 -0.051075444270082385 0.0009874900062718775 0.009567385712225568 -0.0008558786264305442 -0.006180489899720022
 0.995011681043033 -0.051075444270082385 0.004096904635165019 0.02160536784151053 -0.0008555558563180411 -0.006180500886477978 0.0009755340817200172 0.009568809880459786
 0.0009874900062718775 0.009567385712225568 -0.0008555558563180411 -0.006180500886477978 0.004094971473456623 0.02160684929192501 0.9950117253853252 -0.05107410926945094
 -0.0008558786264305442 -0.006180489899720022 0.0009755340817200172 0.009568809880459786 0.9950117253853252 -0.05107410926945094 0.004096692373924293 0.021606716929873412
0.1059090909091 0.004345980802265569 0.02298168505859084 0.9946810196128916 -0.0541616321267374 0.0010843800283137734 0.010133513555616796 -0.0009385788424506922 -0.006549434279488885
 0.9946810196128916 -0.0541616321267374 0.0043484807114334625 0.022981488862438074 -0.0009382180820900714 -0.006549448406619481 0.001070971408005683 0.010135139263840742
 0.0010843800283137734 0.010133513555616796 -0.0009382180820900714 -0.006549448406619481 0.004346314299428931 0.022983064116543616 0.9946810690640656 -0.05416021873109397
 -0.0009385788424506922 -0.006549434279488885 0.001070971408005683 0.010135139263840742 0.9946810690640656 -0.05416021873109397 0.004348242297403185 0.022982917714346365
0.1062942892872 0.004362826466558395 0.023072416824142045 0.9946588610292246 -0.05436459197570007 0.0010909113565517772 0.010170690112387953 -0.0009441537196839736 -0.006573669922108032
 0.9946588610292246 -0.05436459197570007 0.0043653445704003565 0.023072219283154356 -0.0009437903945261729 -0.006573684268574077 0.0010774044137116397 0.01017232967928703
 0.0010909113565517772 0.010170690112387953 -0.0009437903945261729 -0.006573684268574077 0.00436316238061436 0.023073800728238527 0.9946589108257774 -0.054363173431311904
 -0.0009441537196839736 -0.006573669922108032 0.0010774044137116397 0.01017232967928703 0.9946589108257774 -0.054363173431311904 0.004365104385281775 0.023073653376434102
0.11254689453939999 0.004642318325195666 0.02455181372881662 0.9942913507520444 -0.05766507114445078 0.0011998837083404496 0.01077429537339958 -0.0010371722905532777 -0.00696728980083101
 0.9942913507520444 -0.05766507114445078 0.004645141004282451 0.0245515935478472 -0.001036766120623323 -0.006967307941556167 0.0011847298331363603 0.01077617107186093
 0.0011998837083404496 0.01077429537339958 -0.001036766120623323 -0.006967307941556167 0.004642694693604355 0.02455327603739188 0.9942914063273108 -0.057663569010024535
 -0.0010371722905532777 -0.00696728980083101 0.0011847298331363603 0.01077617107186093 0.9942914063273108 -0.057663569010024535 0.004644871135847191 0.024553112784180903
0.11879949979160001 0.004933337919747439 0.026043588155676017 0.993908965007861 -0.06097679297262054 0.001314456294476676 0.011378136857648675 -0.0011349843392730189 -0.007361284816654311
 0.993908965007861 -0.06097679297262054 0.004936482581392379 0.02604334377018068 -0.0011345330520138425 -0.00736130720609914 0.0012975593798754302 0.011380270450995591
 0.001314456294476676 0.011378136857648675 -0.0011345330520138425 -0.00736130720609914 0.004933757045858912 0.02604512838382155 0.9939090266887981 -0.06097520719657356
 -0.0011349843392730189 -0.007361284816654311 0.0012975593798754302 0.011380270450995591 0.9939090266887981 -0.06097520719657356 0.004936181264553206 0.0260449482976024
0.1250521050438 0.005236073434348155 0.027547593513261616 0.9935115187607373 -0.06429966277019164 0.0014346775802283347 0.011982148408548358 -0.0012376390715870917 -0.007755589076913455
 0.9935115187607373 -0.06429966277019164 0.005239557498489538 0.027547323302824497 -0.0012371404116560637 -0.007755616189403541 0.0014159413368190759 0.011984562701535048
 0.0014346775802283347 0.011982148408548358 -0.0012371404116560637 -0.007755616189403541 0.005236537620946609 0.027549211150461675 0.9935115868767983 -0.06429799329542901
 -0.0012376390715870917 -0.007755589076913455 0.0014159413368190759 0.011984562701535048 0.9935115868767983 -0.06429799329542901 0.005239222962219506 0.027549013279550418
0.131304710296 0.005550712564895129 0.029063682946837536 0.9930988272099242 -0.06763358040614151 0.0015605952278141065 0.012586262379590669 -0.0013451848673640672 -0.008150135490488028
 0.9930988272099242 -0.06763358040614151 0.005554553465489097 0.029063385234541883 -0.00134463659660028 -0.008150167820185244 0.0015399231949335436 0.012588981229154295
 0.0015605952278141065 0.012586262379590669 -0.00134463659660028 -0.008150167820185244 0.0055512241134610925 0.029065377455774987 0.9930989020927738 -0.06763182717102738
 -0.0013451848673640672 -0.008150135490488028 0.0015399231949335436 0.012588981229154295 0.9930989020927738 -0.06763182717102738 0.005554183932799678 0.029065160828243605
0.1375573155481 0.00579749422653636 0.030394370497621285 0.9927506734826651 -0.07078105134464201 0.0016742947857863327 0.013170239589092204 -0.001439734288989284 -0.008524676156546174
 0.9927506734826651 -0.07078105134464201 0.005801709684002213 0.03039404945145493 -0.0014391330240412273 -0.008524713636504958 0.001651639174806293 0.013173255201680638
 0.0016742947857863327 0.013170239589092204 -0.0014391330240412273 -0.008524713636504958 0.00579805483253978 0.03039614155565998 0.9927507554369414 -0.07077921433299729
 -0.001439734288989284 -0.008524676156546174 0.001651639174806293 0.013173255201680638 0.9927507554369414 -0.07077921433299729 0.005801304033882576 0.03039591069369998
0.1438099208003 0.006052680000449277 0.031719315452748933 0.9923907832795026 -0.0739218092169538 0.0017925770720022053 0.013752529945687885 -0.001538067430850618 -0.0088976711227953
 0.9923907832795026 -0.0739218092169538 0.006057287492301722 0.03171896978489144 -0.0015374107518390042 -0.008897714230142345 0.0017678500010761716 0.01375586374812281
 0.0017925770720022053 0.013752529945687885 -0.0015374107518390042 -0.008897714230142345 0.006053291854292334 0.03172116252734943 0.9923908726350106 -0.07391988837162998
 -0.001538067430850618 -0.0088976711227953 0.0017678500010761716 0.01375586374812281 0.9923908726350106 -0.07391988837162998 0.006056844058720045 0.03172091683178503
0.1500625260525 0.006316195064025006 0.03303844445646914 0.9920192341149767 -0.07705581379696297 0.00191540955136388 0.014333096868886803 -0.0016401527570112223 -0.009269085104036977
 0.9920192341149767 -0.07705581379696297 0.006321212079602833 0.03303807281651827 -0.0016394382467062145 -0.009269134334914702 0.0018885235446849244 0.014336771057218946
 0.00191540955136388 0.014333096868886803 -0.0016394382467062145 -0.009269134334914702 0.006316860348274871 0.03304036699410688 0.9920193312033696 -0.07705380905875524
 -0.0016401527570112223 -0.009269085104036977 0.0018885235446849244 0.014336771057218946 0.9920193312033696 -0.07705380905875524 0.0063207291988700036 0.03304010582973108
0.15631513130469998 0.00658796423818451 0.03435168659636161 0.9916361037042265 -0.08018302431603218 0.0020427594049119897 0.014911904265452807 -0.0017459584365056432 -0.009638883468294312
