! Created with skrf 1.8.0 (http://scikit-rf.org).
# GHz S RI R 50.0 
!freq ReS11 ImS11 ReS12 ImS12 ReS13 ImS13
! ReS14 ImS14
! ReS21 ImS21 ReS22 ImS22 ReS23 ImS23
! ReS24 ImS24
! ReS31 ImS31 ReS32 ImS32 ReS33 ImS33
! ReS34 ImS34
! ReS41 ImS41 ReS42 ImS42 ReS43 ImS43
! ReS44 ImS44
!
0.0 0.001626603170227 0.0 0.9983733968241 0.0 6.299447384909e-05 0.0 -6.299447349321e-05 7.714598032743242e-21
 0.9983733968241 0.0 0.001626603170262 0.0 -6.299447349409e-05 7.714598032851011e-21 6.299447384875e-05 0.0
 6.299447384909e-05 0.0 -6.299447349409e-05 7.714598032851011e-21 0.001626603167417 0.0 0.9983733968212 0.0
 -6.299447349321e-05 7.714598032743242e-21 6.299447384875e-05 0.0 0.9983733968212 0.0 0.001626603167403 0.0
0.005 0.0017503760128757416 0.0013283112474417593 0.9982167694796933 -0.003407176110863166 8.869298891856808e-05 0.000706882926800404 -8.607709397670284e-05 -0.00044140980945325174
 0.9982167694796933 -0.003407176110863166 0.0017503684300866178 0.0013283157548908003 -8.60748374528018e-05 -0.0004414081833964167 8.872502168363652e-05 0.0007068704082577381
 8.869298891856808e-05 0.000706882926800404 -8.60748374528018e-05 -0.0004414081833964167 0.0017503769990945427 0.0013283780026015946 0.9982167698437813 -0.003407109052060538
 -8.607709397670284e-05 -0.00044140980945325174 8.872502168363652e-05 0.0007068704082577381 0.9982167698437813 -0.003407109052060538 0.001750368165669328 0.001328383111408927
0.006252605252188 0.001782915570917986 0.0016656135143714172 0.99817532298286 -0.004259792159923227 9.606637306124212e-05 0.0008839359035943942 -9.263076514609939e-05 -0.0005523311708102011
 0.99817532298286 -0.004259792159923227 0.00178290371803203 0.0016656193396501265 -9.262725297007714e-05 -0.0005523291684462677 9.611641726116033e-05 0.0008839196964661888
 9.606637306124212e-05 0.0008839359035943942 -9.262725297007714e-05 -0.0005523291684462677 0.0017829170496964934 0.0016656969558079778 0.9981753234898482 -0.004259708344203655
 -9.263076514609939e-05 -0.0005523311708102011 9.611641726116033e-05 0.0008839196964661888 0.9981753234898482 -0.004259708344203655 0.0017829032428437642 0.001665703516440133
0.01250521050438 0.0019546628732372926 0.003366081394756235 0.9979550762978957 -0.008520312769286968 0.0001385176901645788 0.0017681650334898569 -0.0001300116610281009 -0.0011073006799591305
 0.9979550762978957 -0.008520312769286968 0.0019546155433719705 0.003366094990518013 -0.00012999780953753837 -0.00110729700918115 0.00013871713405095407 0.001768126528282149
 0.0001385176901645788 0.0017681650334898569 -0.00012999780953753837 -0.00110729700918115 0.0019546681690897163 0.003366248086265991 0.9979550777255876 -0.008520145359569584
 -0.0001300116610281009 -0.0011073006799591305 0.00013871713405095407 0.001768126528282149 0.9979550777255876 -0.008520145359569584 0.0019546130565586523 0.003366262995255089
0.01875781575657 0.0021422364044895014 0.0050906738364142326 0.9977123713049453 -0.012791914572546104 0.00019044999596427156 0.00265328250351591 -0.00017525593643746094 -0.0016640802203754471
 0.9977123713049453 -0.012791914572546104 0.002142130048040221 0.005090697298819361 -0.00017522503303786174 -0.0016640752868801215 0.00019089774080232482 0.0026532142987616557
 0.00019044999596427156 0.00265328250351591 -0.00017522503303786174 -0.0016640752868801215 0.0021422478546595336 0.0050909236690734345 0.9977123740897094 -0.012791663650649258
 -0.00017525593643746094 -0.0016640802203754471 0.00019089774080232482 0.0026532142987616557 0.9977123740897094 -0.012791663650649258 0.0021421240487810144 0.005090948882900707
0.02501042100875 0.0023460149963184167 0.006836952023035153 0.9974469108650796 -0.017076646859906758 0.00025196591039123033 0.003539316610646355 -0.00022847813578989666 -0.002222401395518244
 0.9974469108650796 -0.017076646859906758 0.002345826114767115 0.006836987597703874 -0.00022842354380732911 -0.0022223956831663276 0.0002527607234041331 0.003539210055355121
 0.00025196591039123033 0.003539316610646355 -0.00022842354380732911 -0.0022223956831663276 0.0023460349130558404 0.00683728489200591 0.9974469154391181 -0.017076312447294486
 -0.00022847813578989666 -0.002222401395518244 0.0002527607234041331 0.003539210055355121 0.9974469154391181 -0.017076312447294486 0.0023458151065930202 0.006837322531686834
0.03126302626094 0.002566361808355686 0.008603650016207446 0.9971583832944534 -0.021375373550507813 0.0003231682527582772 0.004426212324620812 -0.00028978932275069844 -0.0027820722952275672
 0.9971583832944534 -0.021375373550507813 0.002566066945832215 0.008603700099045512 -0.00028970446876502945 -0.0027820663669190374 0.0003244088639770116 0.004426057516277659
 0.0003231682527582772 0.004426212324620812 -0.00028970446876502945 -0.0027820663669190374 0.0025663924855511186 0.008604065781543964 0.9971583900919604 -0.021374955647416455
 -0.00028978932275069844 -0.0027820722952275672 0.0003244088639770116 0.004426057516277659 0.9971583900919604 -0.021374955647416455 0.002566049439632152 0.008604118133102412
0.037515631513130004 0.002803631950970366 0.010389934137268747 0.9968464702689706 -0.02568851374894102 0.00040415906737333485 0.005313881505288839 -0.0003592978834703218 -0.0033429272968164775
 0.9968464702689706 -0.02568851374894102 0.002803207688647193 0.010390001275347671 -0.0003591762508757995 -0.0033429217948153984 0.00040594421152464745 0.005313667281259347
 0.00040415906737333485 0.005313881505288839 -0.0003591762508757995 -0.0033429217948153984 0.002803675664094047 0.010390432643216527 0.9968464797266375 -0.025688012314976943
 -0.0003592978834703218 -0.0033429272968164775 0.00040594421152464745 0.005313667281259347 0.9968464797266375 -0.025688012314976943 0.0028031822014673944 0.010390502158340094
0.043768236765320004 0.003058175426906889 0.0121951776196118 0.9965108500480266 -0.030016267021348228 0.0004950391527361256 0.006202218203442402 -0.00043710981066856004 -0.0039048117786193103
 0.9965108500480266 -0.030016267021348228 0.0030575983799406665 0.012195264512041563 -0.0004369449361150449 -0.0039048074247180252 0.000497467587514807 0.00620193213037015
 0.0004950391527361256 0.006202218203442402 -0.0004369449361150449 -0.0039048074247180252 0.0030582344334117704 0.012195758665729138 0.9965108626059778 -0.030015682004088273
 -0.00043710981066856004 -0.0039048117786193103 0.000497467587514807 0.00620193213037015 0.9965108626059778 -0.030015682004088273 0.0030575634333216035 0.012195847962728542
0.050020842017509996 0.0033303384845679842 0.014018867443348801 0.9961511991126912 -0.03435870648795501 0.0005959077743082528 0.007091104962372588 -0.0005233287973682306 -0.00446757583451404
 0.9961511991126912 -0.03435870648795501 0.003329585299364103 0.014018976942139643 -0.0005231142684806871 -0.004467573430135399 0.0005990782860204381 0.007090733324803312
 0.0005959077743082528 0.007091104962372588 -0.0005231142684806871 -0.004467573430135399 0.003330415023830302 0.014019530792561755 0.9961512152151462 -0.034358037814664136
 -0.0005233287973682306 -0.00446757583451404 0.0005990782860204381 0.007090733324803312 0.9961512152151462 -0.034358037814664136 0.0033295394186241634 0.014019642657386741
0.055454545454549996 0.003581432290084007 0.015618343058028394 0.9958188838005948 -0.03814434049187078 0.0006917533637376942 0.007863923638585442 -0.0006051620836802666 -0.00495723400372682
 0.9958188838005948 -0.03814434049187078 0.0035805070922366217 0.015618474638077254 -0.000604899234633256 -0.0049572340062981135 0.0006956490102983745 0.007863465499721271
 0.0006917533637376942 0.007863923638585442 -0.000604899234633256 -0.0049572340062981135 0.003581525870599283 0.015619077707134159 0.9958189033479075 -0.03814359904688533
 -0.0006051620836802666 -0.00495723400372682 0.0006956490102983745 0.007863465499721271 0.9958189033479075 -0.03814359904688533 0.0035804505138346565 0.015619211577633895
0.056273447269699996 0.003620464309657868 0.01586055863869945 0.9957671931464719 -0.03871582444894817 0.0007068624553038837 0.007980415927351716 -0.0006180562480231298 -0.005031071184252685
 0.9957671931464719 -0.03871582444894817 0.0036195116618971857 0.015860693749722682 -0.0006177857020890954 -0.005031071610525945 0.0007108738570945851 0.007979943716057666
 0.0007068624553038837 0.007980415927351716 -0.0006177857020890954 -0.005031071610525945 0.003620560603362622 0.015861304011666914 0.9957672132428468 -0.03871507203192335
 -0.0006180562480231298 -0.005031071184252685 0.0007108738570945851 0.007979943716057666 0.9957672132428468 -0.03871507203192335 0.003619453375133681 0.015861441398988384
0.06252605252188 0.003928893383773563 0.017719849133379085 0.9953585076874137 -0.04308755747041127 0.0008279988074345745 0.008870018555500882 -0.0007213912467706491 -0.005595149488145762
 0.9953585076874137 -0.04308755747041127 0.003927717976175047 0.017720013017430345 -0.0007210583698298142 -0.005595153705963556 0.0008329499323864541 0.008869429455760731
 0.0008279988074345745 0.008870018555500882 -0.0007210583698298142 -0.005595153705963556 0.003929011634575764 0.017720676219606827 0.9953585322321209 -0.04308672119563262
 -0.0007213912467706491 -0.005595149488145762 0.0008329499323864541 0.008869429455760731 0.9953585322321209 -0.04308672119563262 0.003927645812647713 0.017720842254062407
0.06877865777407 0.0042559636655328725 0.019596364797673137 0.99492481860679 -0.047473801277720246 0.0009594103823814585 0.009759774642729277 -0.0008334305022042981 -0.006159661349993389
 0.99492481860679 -0.047473801277720246 0.004254542226485167 0.019596560771622012 -0.0008330290286564344 -0.006159670400051442 0.0009654000729799272 0.0097590510226852
 0.0009594103823814585 0.009759774642729277 -0.0008330290286564344 -0.006159670400051442 0.004256106057644252 0.019597273239768766 0.9949248480608996 -0.04747288102049365
 -0.0008334305022042981 -0.006159661349993389 0.0009654000729799272 0.0097590510226852 0.9949248480608996 -0.04747288102049365 0.00425445471601677 0.019597471217207642
0.07503126302626001 0.004602010664308886 0.021489749925806358 0.9944658024852796 -0.051874420218646834 0.0011011885368911022 0.010649540979280295 -0.0009542682763079126 -0.006724455697157084
 0.9944658024852796 -0.051874420218646834 0.004600319946209406 0.02148998146363241 -0.0009537919887051983 -0.006724470699973394 0.0011083156320493275 0.01064866387842276
 0.0011011885368911022 0.010649540979280295 -0.0009537919887051983 -0.006724470699973394 0.0046021793631587085 0.021490739330542418 0.9944658373169433 -0.05187341583218554
 -0.0009542682763079126 -0.006724455697157084 0.0011083156320493275 0.01064866387842276 0.9944658373169433 -0.05187341583218554 0.004600215618236762 0.021490972719480434
0.08128386827845 0.004967367447877348 0.023399660938965512 0.993981136927056 -0.056289253511074354 0.0012534223056915258 0.011539169799132899 -0.0010839963038369665 -0.007289379372763369
 0.993981136927056 -0.056289253511074354 0.0049653842258514675 0.023399931673130033 -0.0010834390329056167 -0.007289401528691088 0.0012617856254815458 0.011538118917015413
 0.0012534223056915258 0.011539169799132899 -0.0010834390329056167 -0.007289401528691088 0.004967564599024339 0.023400730868371807 0.9939811776118406 -0.0562881648353073
 -0.0010839963038369665 -0.007289379372763369 0.0012617856254815458 0.011538118917015413 0.9939811776118406 -0.0562881648353073 0.004965261607612769 0.02340100331148031
0.08753647353064001 0.005352364603486079 0.025325762009519154 0.9934705008308896 -0.060718119576360516 0.0014161982795763814 0.01242850909323495 -0.0012227037047803206 -0.007854276870350332
 0.9934705008308896 -0.060718119576360516 0.0053500656738457416 0.025326075732261016 -0.0012220593295833955 -0.007854307459576399 0.0014258966083506603 0.012427262778459031
 0.0014161982795763814 0.01242850909323495 -0.0012220593295833955 -0.007854307459576399 0.005352592332676875 0.025326911987756624 0.9934705478526804 -0.06071694643096069
 -0.0012227037047803206 -0.007854276870350332 0.0014258966083506603 0.012427262778459031 0.9934705478526804 -0.06071694643096069 0.005349923289878342 0.025327227303436894
0.09378907878283 0.005757330170174436 0.027267721952146454 0.9929335746372692 -0.06516081911307835 0.001589600486484086 0.013317402848921764 -0.001370476892476215 -0.008418990148792698
 0.9929335746372692 -0.06516081911307835 0.0057546923493229755 0.027268082616937903 -0.001369739340694705 -0.008419030531307718 0.0016007325546124915 0.013315938088433397
 0.001589600486484086 0.013317402848921764 -0.001369739340694705 -0.008419030531307718 0.005757590582434326 0.027268951462487447 0.9929336284889907 -0.06515956130026093
 -0.001370476892476215 -0.008418990148792698 0.0016007325546124915 0.013315938088433397 0.9929336284889907 -0.06515956130026093 0.005754528720061952 0.027269313646613606
0.100041684035 0.006182589547716781 0.029225211946963963 0.992370040555254 -0.06961713734616738 0.0017737102756235608 0.01420569123058521 -0.0015273994775371828 -0.008983358512654603
 0.992370040555254 -0.06961713734616738 0.0061795896706456355 0.02922562367003534 -0.0015265627258789973 -0.008983410128229887 0.0017863747399504218 0.014203983639227938
 0.0017737102756235608 0.01420569123058521 -0.0015265627258789973 -0.008983410128229887 0.0061828847272999525 0.029226520429292597 0.9923701017394477 -0.06961579465324902
 -0.0015273994775371828 -0.008983358512654603 0.0017863747399504218 0.014203983639227938 0.9923701017394477 -0.06961579465324902 0.006179403311625319 0.029226933657001658
0.1059090909091 0.006600394821113795 0.031075940769402906 0.9918167426628769 -0.07381110199146602 0.0019562862272714024 0.015038559477350952 -0.0016830478907577777 -0.0095124991199082
 0.9918167426628769 -0.07381110199146602 0.006597034140492847 0.031076404295283935 -0.0016821126165428417 -0.00951256265698053 0.0019704783267377327 0.015036600605891313
 0.0019562862272714024 0.015038559477350952 -0.0016821126165428417 -0.00951256265698053 0.006600724502648624 0.031077322810477266 0.9918168111941661 -0.07380967944074285
 -0.0016830478907577777 -0.0095124991199082 0.0019704783267377327 0.015036600605891313 0.9918168111941661 -0.07380967944074285 0.006596825096149868 0.031077787895820667
0.1062942892872 0.006628465389060096 0.03119790382554393 0.991779582776785 -0.07408684572107517 0.0019686062025526317 0.015093210729534602 -0.0016935521698466958 -0.009547218530074186
 0.991779582776785 -0.07408684572107517 0.006625080308714895 0.031198370887470378 -0.0016926102445540285 -0.009547282898189558 0.0019829016258784663 0.015091234540051547
 0.0019686062025526317 0.015093210729534602 -0.0016926102445540285 -0.009547282898189558 0.006628797398735151 0.031199290677280216 0.9917796518065063 -0.074085417919379
 -0.0016935521698466958 -0.009547218530074186 0.0019829016258784663 0.015091234540051547 0.9917796518065063 -0.074085417919379 0.006624869728987784 0.031199759304943245
0.11254689453939999 0.007095277480672389 0.03318546876970797 0.9911618876818377 -0.07856970319308818 0.0021743639162741194 0.015979794287591047 -0.0018690126778981779 -0.010110403983980148
 0.9911618876818377 -0.07856970319308818 0.007091484066398376 0.03318599561717589 -0.0018679596552427901 -0.010110482703770688 0.0021903887459326257 0.01597752234091687
 0.0021743639162741194 0.015979794287591047 -0.0018679596552427901 -0.010110482703770688 0.007095648361153029 0.03318693334710692 0.9911619650812958 -0.07856819003665567
 -0.0018690126778981779 -0.010110403983980148 0.0021903887459326257 0.01597752234091687 0.9911619650812958 -0.07856819003665567 0.007091247768003147 0.03318746191435
0.11879949979160001 0.007583342613270341 0.03518757630103491 0.9905166440375267 -0.083065457234182 0.002391056046845488 0.016865271405268677 -0.0020538556072964716 -0.01067274584571499
 0.9905166440375267 -0.083065457234182 0.007579117749554539 0.03518816754865591 -0.002052685614177959 -0.010672840595863146 0.00240890859215261 0.016862675141284995
 0.002391056046845488 0.016865271405268677 -0.002052685614177959 -0.010672840595863146 0.007583754382535819 0.03518911792045031 0.9905167303426512 -0.08306385845856105
 -0.0020538556072964716 -0.01067274584571499 0.00240890859215261 0.016862675141284995 0.9905167303426512 -0.08306385845856105 0.007578854225859182 0.03518971115235388
0.1250521050438 0.008092974443572976 0.037203893493421444 0.9898435431910784 -0.08757384462543703 0.002618752093761556 0.017749468240974973 -0.0022481523578549443 -0.011234072264884709
 0.9898435431910784 -0.08757384462543703 0.00808829502957395 0.03720455392561256 -0.0022468595724729483 -0.011234184803514503 0.0026385305031333167 0.017746517689670106
 0.002618752093761556 0.017749468240974973 -0.0022468595724729483 -0.011234184803514503 0.008093429096446288 0.03720551142744348 0.9898436389503699 -0.08757215995157275
 -0.0022481523578549443 -0.011234072264884709 0.0026385305031333167 0.017746517689670106 0.9898436389503699 -0.08757215995157275 0.008088002764433118 0.03720617423675911
0.131304710296 0.008624483351333955 0.039234084338924655 0.9891422792602932 -0.09209459210465573 0.0028575183156760216 0.018632207700617597 -0.002451971019883164 -0.011794208576081575
 0.9891422792602932 -0.09209459210465573 0.008619326299302451 0.03923481891206373 -0.002450549672458162 -0.011794340740662808 0.0028793205526075403 0.018628871473664488
 0.0028575183156760216 0.018632207700617597 -0.002450549672458162 -0.011794340740662808 0.008624982858854487 0.03923577781876143 0.989142385035958 -0.09209282123666353
 -0.002451971019883164 -0.011794208576081575 0.0028793205526075403 0.018628871473664488 0.989142385035958 -0.09209282123666353 0.008619003765977679 0.03923651530844671
0.1375573155481 0.009059257370538252 0.04101293227861137 0.9885315211018549 -0.09636239198525869 0.0030780052883823106 0.019487023005180203 -0.0026359520548414907 -0.012326730878101625
 0.9885315211018549 -0.09636239198525869 0.009053598438568235 0.041013726960490875 -0.002634393875658052 -0.012326882911808225 0.00310189200016809 0.01948330453594493
 0.0030780052883823106 0.019487023005180203 -0.002634393875658052 -0.012326882911808225 0.009059804924666954 0.04101469993935136 0.9885316373583435 -0.09636053475781889
 -0.0026359520548414907 -0.012326730878101625 0.00310189200016809 0.01948330453594493 0.9885316373583435 -0.09636053475781889 0.009053243062216295 0.04101549961216252
0.1438099208003 0.009509419456296011 0.04278186386924406 0.9878991082410711 -0.10061883033358972 0.003307384318044127 0.020338097575289104 -0.00282727880189192 -0.012855794310140462
 0.9878991082410711 -0.10061883033358972 0.00950323542309567 0.04278272219901857 -0.0028255776453550083 -0.01285596802000369 0.003333446461764283 0.020333967865276192
 0.003307384318044127 0.020338097575289104 -0.0028255776453550083 -0.01285596802000369 0.009510017215915299 0.04278370483312115 0.9878992355393907 -0.1006168864585072
 -0.00282727880189192 -0.012855794310140462 0.003333446461764283 0.020333967865276192 0.9878992355393907 -0.1006168864585072 0.009502845471534963 0.042784570535257714
0.1500625260525 0.009974803391073156 0.044540715056445114 0.9872452113681094 -0.10486378510752326 0.003545571585176228 0.021185335461544268 -0.0030258691673462975 -0.013381307290444877
 0.9872452113681094 -0.10486378510752326 0.009968071044706065 0.04454164074081968 -0.0030240189075459757 -0.013381504555435119 0.003573899510540172 0.02118076445254084
 0.003545571585176228 0.021185335461544268 -0.0030240189075459757 -0.013381504555435119 0.009975453506878288 0.044542628406556324 0.9872453502802312 -0.10486175428759827
 -0.0030258691673462975 -0.013381307290444877 0.003573899510540172 0.02118076445254084 0.9872453502802312 -0.10486175428759827 0.00996764476255102 0.04454356417050848
0.15631513130469998 0.010455241681070829 0.04628932668611703 0.9865700021472418 -0.10909713504672071 0.003792482229228827 0.022028642454225356 -0.00323163999537562 -0.013903180258918011
 0.9865700021472418 -0.10909713504672071 0.01044793781905707 0.04629032360022574 -0.0032296345265219704 -0.01390340302953689 0.0038231656672546477 0.022023599041006054
