! Created with skrf 1.8.0 (http://scikit-rf.org).
# GHz S RI R 50.0 
!freq ReS11 ImS11 ReS12 ImS12 ReS13 ImS13
! ReS14 ImS14
! ReS21 ImS21 ReS22 ImS22 ReS23 ImS23
! ReS24 ImS24
! ReS31 ImS31 ReS32 ImS32 ReS33 ImS33
! ReS34 ImS34
! ReS41 ImS41 ReS42 ImS42 ReS43 ImS43
! ReS44 ImS44
!
0.0 0.001638207323167 0.0 0.9983617926541 0.0 6.313578531648e-05 0.0 -6.313578513911e-05 7.731903718226609e-21
 0.9983617926541 0.0 0.001638207323163 0.0 -6.313578513853e-05 7.73190371815558e-21 6.313578531651e-05 0.0
 6.313578531648e-05 0.0 -6.313578513853e-05 7.73190371815558e-21 0.001638207334515 0.0 0.9983617926655 0.0
 -6.313578513911e-05 7.731903718226609e-21 6.313578531651e-05 0.0 0.9983617926655 0.0 0.001638207334538 0.0
0.005 0.0017628149266988497 0.0013439282495043164 0.9982041160743246 -0.0034310297091609933 8.802274411668188e-05 0.0006718258389822946 -8.559409834327873e-05 -0.00042580391807337523
 0.9982041160743246 -0.0034310297091609933 0.001762830241395294 0.0013439193380735872 -8.559713494762408e-05 -0.0004258062674756003 8.792238740384497e-05 0.0006718641380493121
 8.802274411668188e-05 0.0006718258389822946 -8.559713494762408e-05 -0.0004258062674756003 0.001762812899330075 0.00134386219665519 0.9982041157081106 -0.0034310967726574795
 -8.559409834327873e-05 -0.00042580391807337523 8.792238740384497e-05 0.0006718641380493121 0.9982041157081106 -0.0034310967726574795 0.0017628315402903273 0.0013438512663289843
0.006252605252188 0.0017955787652609635 0.0016851665812750438 0.9981623842085775 -0.004289610865728877 9.517663514965226e-05 0.0008401134294291315 -9.196557246847223e-05 -0.0005327949423270974
 0.9981623842085775 -0.004289610865728877 0.0017956027042296417 0.0016851552255994565 -9.197029753939476e-05 -0.00053279783906575 9.501983864114568e-05 0.0008401631618674189
 9.517663514965226e-05 0.0008401134294291315 -9.197029753939476e-05 -0.00053279783906575 0.0017955756790233573 0.0016850840230889918 0.998162383719223 -0.004289694693335974
 -9.196557246847223e-05 -0.0005327949423270974 9.501983864114568e-05 0.0008401631618674189 0.998162383719223 -0.004289694693335974 0.0017956048183474247 0.001685070134236008
0.01250521050438 0.0019685381520804196 0.0034053590346080527 0.997940576938413 -0.008579906819609127 0.0001364337571024796 0.0016806180515517273 -0.00012828084974662277 -0.0010680956921671663
 0.997940576938413 -0.008579906819609127 0.0019686337320438986 0.003405334142321647 -0.00012829946899911273 -0.0010681010448133099 0.00013580852742177537 0.0016807376569521703
 0.0001364337571024796 0.0016806180515517273 -0.00012829946899911273 -0.0010681010448133099 0.0019685263550131985 0.003405194263904724 0.9979405755155913 -0.008580074215858524
 -0.00012828084974662277 -0.0010680956921671663 0.00013580852742177537 0.0016807376569521703 0.9979405755155913 -0.008580074215858524 0.0019686427121754046 0.0034051641764802163
0.01875781575657 0.002157481124658756 0.005149780362618823 0.9976960822925731 -0.012881304702085289 0.00018700551293651367 0.0025220343439278227 -0.00017219637996926485 -0.0016051518713598029
 0.9976960822925731 -0.012881304702085289 0.002157695881169578 0.005149739608134592 -0.00017223789874730726 -0.0016051591490493014 0.00018560109748487654 0.002522248104591606
 0.00018700551293651367 0.0025220343439278227 -0.00017223789874730726 -0.0016051591490493014 0.002157455024321512 0.0051495336213195405 0.997696079510849 -0.012881555582567681
 -0.00017219637996926485 -0.0016051518713598029 0.00018560109748487654 0.002522248104591606 0.997696079510849 -0.012881555582567681 0.0021577164905194016 0.005149484784637104
0.02501042100875 0.002362790567080612 0.006915976109815609 0.9974285998053699 -0.01719586618766744 0.0002469916646192546 0.0033643750741428474 -0.00022382298985797061 -0.0021437141881497255
 0.9974285998053699 -0.01719586618766744 0.0023631719299578354 0.0069159170375090295 -0.00022389630456656737 -0.0021437227609493194 0.0002444972644655929 0.0033647112758377964
 0.0002469916646192546 0.0033643750741428474 -0.00022389630456656737 -0.0021437227609493194 0.0023627445769050714 0.006915647665521692 0.9974285952389895 -0.01719620051111328
 -0.00022382298985797061 -0.0021437141881497255 0.0002444972644655929 0.0033647112758377964 0.9974285952389895 -0.01719620051111328 0.002363208930695636 0.006915577306906317
0.03126302626094 0.0025848335551455497 0.008702671956220582 0.997137814345266 -0.021524460169818734 0.000316492223277693 0.0042075781230102175 -0.00028326822023956995 -0.0026836015590100066
 0.997137814345266 -0.021524460169818734 0.002585428874757789 0.008702591983517362 -0.0002833821366866166 -0.0026836106968438364 0.000312596712169715 0.004208069076804166
 0.000316492223277693 0.0042075781230102175 -0.0002833821366866166 -0.0026836106968438364 0.0025847620897787174 0.008702262135559302 0.9971378075640639 -0.021524877905086986
 -0.00028326822023956995 -0.0026836015590100066 0.000312596712169715 0.004208069076804166 0.9971378075640639 -0.021524877905086986 0.0025854870273230336 0.008702167263202634
0.037515631513130004 0.0028239690439594775 0.01050902851116153 0.9968234040802274 -0.025867507904514673 0.0003956064506224062 0.005051551443610788 -0.00035063705715136984 -0.0032246561550659057
 0.9968234040802274 -0.025867507904514673 0.002824825608826008 0.01050892493030824 -0.00035080029981069696 -0.0032246650274335145 0.00038999825451313037 0.005052233524269096
 0.0003956064506224062 0.005051551443610788 -0.00035080029981069696 -0.0032246650274335145 0.002823866522967259 0.010508537686096832 0.9968233946543403 -0.025868009044992462
 -0.00035063705715136984 -0.0032246561550659057 0.00038999825451313037 0.005052233524269096 0.9968233946543403 -0.025868009044992462 0.0028249096778410593 0.010508415089811013
0.043768236765320004 0.003080550833028959 0.012334414533950894 0.9964850437256961 -0.03022520971648685 0.0004844323839197639 0.0058961867402605155 -0.0004260321809945113 -0.003766729733514008
 0.9964850437256961 -0.03022520971648685 0.003081715884454863 0.012334284512979984 -0.0004262533984545215 -0.0037667374094008275 0.00047679942937713473 0.005897100429657807
 0.0004844323839197639 0.0058961867402605155 -0.0004262533984545215 -0.0037667374094008275 0.003080411679020048 0.012333843137257416 0.9964850312234952 -0.03022579426532087
 -0.0004260321809945113 -0.003766729733514008 0.00047679942937713473 0.005897100429657807 0.9964850312234952 -0.03022579426532087 0.0030818306377675916 0.012333689388411907
0.050020842017509996 0.003354928934186349 0.014178313203441659 0.9961224061989533 -0.03459763865491761 0.0005830665419364304 0.006741365128409721 -0.0005095540479576952 -0.004309677992159362
 0.9961224061989533 -0.03459763865491761 0.0033564496792178114 0.0141781537868369 -0.0005098418164053349 -0.004309683440053843 0.0005730962409831243 0.006742555060914968
 0.0005830665419364304 0.006741365128409721 -0.0005098418164053349 -0.004309683440053843 0.0033547475735877874 0.014177661729658002 0.9961223901868128 -0.034598306624998285
 -0.0005095540479576952 -0.004309677992159362 0.0005730962409831243 0.006742555060914968 0.9961223901868128 -0.034598306624998285 0.0033565998887931836 0.014177473180444735
0.055454545454549996 0.0036080941071923007 0.015795402106409093 0.9957872925158199 -0.03840936719305843 0.0006768217560857981 0.007476193572457895 -0.0005888133412716146 -0.004782115683092939
 0.9957872925158199 -0.03840936719305843 0.0036099622806106953 0.015795214648012403 -0.0005891658549098429 -0.004782118279058185 0.0006645659761276853 0.0074776630768991674
 0.0006768217560857981 0.007476193572457895 -0.0005891658549098429 -0.004782118279058185 0.003607871544459759 0.015794681491014425 0.9957872731001173 -0.038410107679107984
 -0.0005888133412716146 -0.004782115683092939 0.0006645659761276853 0.0074776630768991674 0.9957872731001173 -0.038410107679107984 0.0036101471817454596 0.01579445956573016
0.056273447269699996 0.0036474502675576735 0.016040276134221907 0.9957351636054718 -0.03898478640470775 0.0006916037136444148 0.007586959900768711 -0.0006013008932970142 -0.004853357822438309
 0.9957351636054718 -0.03898478640470775 0.0036493738904252895 0.01604008424306635 -0.0006016637187461669 -0.0048533599103704715 0.0006789829709088232 0.007588474909369228
 0.0006916037136444148 0.007586959900768711 -0.0006016637187461669 -0.0048533599103704715 0.0036472211307949395 0.016039545136959862 0.9957351436483165 -0.0389855378221112
 -0.0006013008932970142 -0.004853357822438309 0.0006789829709088232 0.007588474909369228 0.9957351436483165 -0.0389855378221112 0.003649564332826129 0.01603931791933346
0.06252605252188 0.003958459024837192 0.017919898068693083 0.995322987899547 -0.04338658852594668 0.0008101367863393076 0.008432838071868834 -0.0007013686966988289 -0.005397625789140859
 0.995322987899547 -0.04338658852594668 0.003960832698426495 0.017919670500514833 -0.0007018150165121442 -0.005397623284740377 0.0007945520209223318 0.00843473123442469
 0.0008101367863393076 0.008432838071868834 -0.0007018150165121442 -0.005397623284740377 0.003958176546374283 0.01791908816612915 0.9953229635589852 -0.043387423425260925
 -0.0007013686966988289 -0.005397625789140859 0.0007945520209223318 0.00843473123442469 0.9953229635589852 -0.043387423425260925 0.003961068154415779 0.017918818190294557
0.06877865777407 0.00428829685103678 0.019816801818140894 0.9948855513655819 -0.047802939449373284 0.000938756596851476 0.009278861289495401 -0.0008098511247420334 -0.005942337248755779
 0.9948855513655819 -0.047802939449373284 0.004291167747727915 0.01981653524641158 -0.0008103893085771759 -0.0059423288193330565 0.0009198937745999986 0.00928118997484352
 0.000938756596851476 0.009278861289495401 -0.0008103893085771759 -0.0059423288193330565 0.004287955469923717 0.01981591369353512 0.9948855222004052 -0.047803857874077135
 -0.0008098511247420334 -0.005942337248755779 0.0009198937745999986 0.00928118997484352 0.9948855222004052 -0.047803857874077135 0.004291453002708394 0.01981559664607502
0.07503126302626001 0.004637302918482233 0.021730628700343122 0.9944225269977579 -0.05223370198142916 0.0010775517959148533 0.010124886430523675 -0.0009268394595614282 -0.006487345789276559
 0.9944225269977579 -0.05223370198142916 0.004640718220919145 0.02173031967352787 -0.0009274778099757878 -0.006487330001914656 0.001055096469638885 0.010127712344116071
 0.0010775517959148533 0.010124886430523675 -0.0009274778099757878 -0.006487330001914656 0.00463689707900737 0.021729663101864676 0.9944224925633071 -0.05223470398479826
 -0.0009268394595614282 -0.006487345789276559 0.001055096469638885 0.010127712344116071 0.9944224925633071 -0.05223470398479826 0.004641058065009234 0.02172929444338448
0.08128386827845 0.005005813933977898 0.02366103218462342 0.9939335888165005 -0.05667871360814323 0.0012266087210674583 0.010970765999983359 -0.0010524225182145163 -0.007032502872801568
 0.9939335888165005 -0.05667871360814323 0.0050098208459473945 0.023660677124829697 -0.0010531692710138898 -0.007032478194450692 0.0012002460769810278 0.010974155229007056
 0.0012266087210674583 0.010970765999983359 -0.0010531692710138898 -0.007032478194450692 0.005005338086830898 0.023659989926683604 0.9939335486650913 -0.05667979925281134
 -0.0010524225182145163 -0.007032502872801568 0.0012002460769810278 0.010974155229007056 0.9939335486650913 -0.05667979925281134 0.005010220074312454 0.02365956488917509
0.08753647353064001 0.005394164100345489 0.025607673503641907 0.9934184121440709 -0.06113779083930511 0.001386011274558672 0.011816348418034963 -0.001186686566258064 -0.0075776575965163726
 0.9934184121440709 -0.06113779083930511 0.005398809857244573 0.025607268704946992 -0.0011875498905710073 -0.0075776223941155015 0.001355426183692501 0.011820371475729143
 0.001386011274558672 0.011816348418034963 -0.0011875498905710073 -0.0075776223941155015 0.005393612702653372 0.02560655546857635 0.9934183658235634 -0.061138960196252146
 -0.001186686566258064 -0.0075776575965163726 0.001355426183692501 0.011820371475729143 0.9934183658235634 -0.061138960196252146 0.0053992732696510415 0.02560606905232161
0.09378907878283 0.005802685046882878 0.02757021851475832 0.9928766738524804 -0.06561073231014451 0.0015558408052953215 0.012661478234834059 -0.0013297152262863223 -0.00812265653217541
 0.9928766738524804 -0.06561073231014451 0.005808016926511008 0.02756976014113086 -0.0013307032245142383 -0.008122609072779799 0.0015207178792796402 0.012666210104168423
 0.0015558408052953215 0.012661478234834059 -0.0013307032245142383 -0.008122609072779799 0.005802052563064747 0.027569025655105304 0.9928766209062977 -0.06561198545729684
 -0.0013297152262863223 -0.00812265653217541 0.0015207178792796402 0.012666210104168423 0.9928766209062977 -0.06561198545729684 0.0058085493273456485 0.02756847262520207
0.100041684035 0.006231705736964721 0.029548335411830433 0.9923080525931367 -0.07009732104033431 0.001736175992860859 0.013505996297924032 -0.001481589383792755 -0.008667343619777938
 0.9923080525931367 -0.07009732104033431 0.006237771070115273 0.02954781949448766 -0.0014827100914240729 -0.008667282070690811 0.0016961996432453845 0.013511516474218874
 0.001736175992860859 0.013505996297924032 -0.0014827100914240729 -0.008667282070690811 0.006230986639781536 0.029547068747466217 0.9923079925599692 -0.0700986580660868
 -0.001481589383792755 -0.008667343619777938 0.0016961996432453845 0.013511516474218874 0.9923079925599692 -0.0700986580660868 0.006238377268459892 0.02954644362988694
0.1059090909091 0.0066532310472622366 0.03141845574510548 0.9917497275852459 -0.07431971523498478 0.0019150238635610058 0.01429778564197005 -0.0016322216205014047 -0.009178049672253018
 0.9917497275852459 -0.07431971523498478 0.006660027752324138 0.031417882098715856 -0.0016334741101019837 -0.009177973145959547 0.001870205943300854 0.01430412191709201
 0.0019150238635610058 0.01429778564197005 -0.0016334741101019837 -0.009177973145959547 0.006652425653810506 0.031417120813002325 0.9917496604776265 -0.0743211310596667
 -0.0016322216205014047 -0.009178049672253018 0.001870205943300854 0.01430412191709201 0.9917496604776265 -0.0743211310596667 0.0066607075800351285 0.03141642285337255
0.1062942892872 0.00668155235978893 0.03154169299950293 0.9917122290135738 -0.07459732613823376 0.0019270927337648755 0.014349739887390118 -0.00164238709004093 -0.009211560100137057
 0.9917122290135738 -0.07459732613823376 0.006688398541106978 0.03154111543400046 -0.001643648475308761 -0.009211482529081242 0.0018819472347346613 0.01435613242004344
 0.0019270927337648755 0.014349739887390118 -0.001643648475308761 -0.009211482529081242 0.006680741131239262 0.03154035362103714 0.9917121614271653 -0.07459874713879425
 -0.00164238709004093 -0.009211560100137057 0.0018819472347346613 0.01435613242004344 0.9917121614271653 -0.07459874713879425 0.006689083351062718 0.03153965069827201
0.11254689453939999 0.007152548208907215 0.03354995938392798 0.9910888859651719 -0.07911050409681009 0.0021286640286768887 0.015192542833284261 -0.0018121834636325872 -0.009755144472115953
 0.9910888859651719 -0.07911050409681009 0.00716022270759299 0.03354931592673612 -0.0018135934271379854 -0.009755048847396693 0.0020780335825394515 0.015199896366487537
 0.0021286640286768887 0.015192542833284261 -0.0018135934271379854 -0.009755048847396693 0.007151639340559652 0.03354854845240533 0.9910888103533714 -0.07911200917722287
 -0.0018121834636325872 -0.009755144472115953 0.0020780335825394515 0.015199896366487537 0.9910888103533714 -0.07911200917722287 0.0071609909472748375 0.03354776175872749
0.11879949979160001 0.0076450135507317414 0.035572800958279735 0.9904377087034335 -0.08363659980314851 0.002340959871252607 0.016034235616512058 -0.001991050590068801 -0.010297932473454209
 0.9904377087034335 -0.08363659980314851 0.00765356392130752 0.03557208722287513 -0.001992616964330748 -0.010297816664150125 0.0022845286766162817 0.016042643428797083
 0.002340959871252607 0.016034235616512058 -0.001992616964330748 -0.010297816664150125 0.007644001545494102 0.03557131970649426 0.9904376245884726 -0.0836381890765558
 -0.001991050590068801 -0.010297932473454209 0.0022845286766162817 0.016042643428797083 0.9904376245884726 -0.0836381890765558 0.007654420413633033 0.035570443022685055
0.1250521050438 0.008159265485541772 0.037609881601028974 0.9897583850842345 -0.0881753473437043 0.002564047137227887 0.01687464546097991 -0.002179057421138321 -0.01083975707745992
 0.9897583850842345 -0.0881753473437043 0.00816873937893615 0.0376090930535348 -0.002180787970001884 -0.01083961885360552 0.0025014994596981913 0.01688420550360214
 0.002564047137227887 0.01687464546097991 -0.002180787970001884 -0.01083961885360552 0.008158144857858327 0.03760833133404112 0.9897582919819286 -0.0881770209316156
 -0.002179057421138321 -0.01083975707745992 0.0025014994596981913 0.01688420550360214 0.9897582919819286 -0.0881770209316156 0.008169688950873841 0.03760735818169105
0.131304710296 0.008695617801964232 0.039660862046053846 0.9890506057563688 -0.09272647064668504 0.0027979894748805722 0.017713596420303894 -0.002376269672973359 -0.011380448502349724
 0.9890506057563688 -0.09272647064668504 0.008706062976071405 0.03965999400039833 -0.002378172091055337 -0.011380285535191942 0.002729009719923848 0.017724411354464446
 0.0027979894748805722 0.017713596420303894 -0.002378172091055337 -0.011380285535191942 0.008694383079127427 0.039659244142443976 0.9890505031758141 -0.09272822867814348
 -0.002376269672973359 -0.011380448502349724 0.002729009719923848 0.017724411354464446 0.9890505031758141 -0.09272822867814348 0.008707110458817773 0.0396581677778071
0.1375573155481 0.009134331446826604 0.04145944249007954 0.9884341644089211 -0.09702359756451358 0.0030143623061169435 0.018525056876001665 -0.0025543440686673293 -0.011893938067432242
 0.9884341644089211 -0.09702359756451358 0.0091458004638704 0.04145851083628258 -0.0025564298467121204 -0.0118937500453199 0.0029387900671675395 0.01853711524424575
 0.0030143623061169435 0.018525056876001665 -0.0025564298467121204 -0.0118937500453199 0.009132977795781639 0.0414577581580333 0.9884340519172153 -0.09702544008233557
 -0.0025543440686673293 -0.011893938067432242 0.0029387900671675395 0.01853711524424575 0.9884340519172153 -0.09702544008233557 0.009146949944446828 0.04145659260511102
0.1438099208003 0.00958858766459389 0.04324803915422717 0.9877958441368814 -0.10130928705002978 0.003239458069590843 0.01933281077921624 -0.0027395104635710424 -0.012404055858398377
 0.9877958441368814 -0.10130928705002978 0.009601129171350094 0.04324704045903836 -0.002741787879868575 -0.01240384047651474 0.0031570059628281554 0.019346206914694963
 0.003239458069590843 0.01933281077921624 -0.002741787879868575 -0.01240384047651474 0.009587109744104644 0.04324628980086376 0.9877957212461247 -0.10131121417402938
 -0.0027395104635710424 -0.012404055858398377 0.0031570059628281554 0.019346206914694963 0.9877957212461247 -0.10131121417402938 0.009602385352716077 0.04324502952479485
0.1500625260525 0.01005821864615224 0.04502648667812604 0.9871358171460809 -0.1055834160225516 0.0034731937080016624 0.02013676233272182 -0.00293168881255963 -0.012910713100799814
 0.9871358171460809 -0.1055834160225516 0.010071881420819962 0.04502541729188593 -0.0029341661245261526 -0.01291046796151301 0.0033835762734263954 0.020151594002453015
 0.0034731937080016624 0.02013676233272182 -0.0029341661245261526 -0.01291046796151301 0.010056611134271814 0.045024673766157326 0.9871356833630113 -0.10558542787740381
 -0.00293168881255963 -0.012910713100799814 0.0033835762734263954 0.020151594002453015 0.9871356833630113 -0.10558542787740381 0.010073249001131362 0.04502331293038849
0.15631513130469998 0.010543055300522772 0.04679462464260223 0.98645425661627 -0.1098458621928902 0.003715485119787011 0.020936817481703854 -0.003130798034140807 -0.013413822986744192
 0.98645425661627 -0.1098458621928902 0.010557888256205602 0.04679348069298618 -0.003133483477985488 -0.013413545600049486 0.003618418854243407 0.02095318584681441
