! Created with skrf 1.8.0 (http://scikit-rf.org).
# GHz S RI R 50.0 
!freq ReS11 ImS11 ReS12 ImS12 ReS13 ImS13
! ReS14 ImS14
! ReS21 ImS21 ReS22 ImS22 ReS23 ImS23
! ReS24 ImS24
! ReS31 ImS31 ReS32 ImS32 ReS33 ImS33
! ReS34 ImS34
! ReS41 ImS41 ReS42 ImS42 ReS43 ImS43
! ReS44 ImS44
!
0.0 0.001247686901761 0.0 0.9987523130982 0.0 4.769447736176e-05 0.0 -4.769447698367e-05 5.8408888575058575e-21
 0.9987523130982 0.0 0.001247686901735 0.0 -4.769447698338e-05 5.840888857470343e-21 4.769447736031e-05 0.0
 4.769447736176e-05 0.0 -4.769447698338e-05 5.840888857470343e-21 0.001247686884972 0.0 0.9987523130815 0.0
 -4.769447698367e-05 5.8408888575058575e-21 4.769447736031e-05 0.0 0.9987523130815 0.0 0.00124768688496 0.0
0.005 0.001341709093417663 0.0010199326675825477 0.998633462069781 -0.0026145620324334634 6.663244325792428e-05 0.0005330634823282312 -6.470426311834906e-05 -0.00033340809078271196
 0.998633462069781 -0.0026145620324334634 0.0013417251824441305 0.0010199232349080753 -6.470431102779145e-05 -0.00033340807408237466 6.653584813673478e-05 0.0005331002063425801
 6.663244325792428e-05 0.0005330634823282312 -6.470431102779145e-05 -0.00033340807408237466 0.001341709678578187 0.0010199995477510747 0.9986334624096708 -0.002614494965144911
 -6.470426311834906e-05 -0.00033340809078271196 6.653584813673478e-05 0.0005331002063425801 0.9986334624096708 -0.002614494965144911 0.0013417252728246095 0.001019990485343116
0.006252605252188 0.0013661603609538325 0.001278963030850324 0.9986023892826295 -0.003268874588915768 7.193607039667311e-05 0.0006665966286978506 -6.941194409455602e-05 -0.00041720496297823465
 0.9986023892826295 -0.003268874588915768 0.0013661855113317938 0.0012789510447056601 -6.941201907302867e-05 -0.0004172049412890346 7.178514706547046e-05 0.0006666442738598069
 7.193607039667311e-05 0.0006665966286978506 -6.941201907302867e-05 -0.0004172049412890346 0.001366161188501442 0.0012790466098752938 0.9986023897264069 -0.0032687907690415684
 -6.941194409455602e-05 -0.00041720496297823465 7.178514706547046e-05 0.0006666442738598069 0.9986023897264069 -0.0032687907690415684 0.0013661855647401637 0.00127903509659386
0.01250521050438 0.0014936668059100785 0.002585071362232314 0.9984394239197358 -0.006538742990613077 0.0001017860689942462 0.0013335922916812661 -9.561376845551257e-05 -0.0008365707926114582
 0.9984394239197358 -0.006538742990613077 0.001493767236727543 0.0025850454264073957 -9.56140692045688e-05 -0.0008365707399369677 0.00010118416973701008 0.001333706119414497
 0.0001017860689942462 0.0013335922916812661 -9.56140692045688e-05 -0.0008365707399369677 0.0014936695648391678 0.0025852381941656013 0.9984394251418116 -0.006538575592030337
 -9.561376845551257e-05 -0.0008365707926114582 0.00010118416973701008 0.001333706119414497 0.9984394251418116 -0.006538575592030337 0.001493766891692754 0.0025852133096178347
0.01875781575657 0.0016304417454199686 0.003910147212212406 0.9982632453325784 -0.009817607943808067 0.00013730590061436062 0.0020014676464344882 -0.00012637137129071257 -0.0012575096216743788
 0.9982632453325784 -0.009817607943808067 0.0016306674263900094 0.003910105235006992 -0.00012637204931731895 -0.0012575095256562934 0.00013595367074743808 0.0020016692796554964
 0.00013730590061436062 0.0020014676464344882 -0.00012637204931731895 -0.0012575095256562934 0.001630447532247956 0.003910397102652408 0.9982632476577459 -0.009817357035411246
 -0.00012637137129071257 -0.0012575096216743788 0.00013595367074743808 0.0020016692796554964 0.9982632476577459 -0.009817357035411246 0.0016306662132339186 0.003910356877187184
0.02501042100875 0.0017767159195832727 0.0052523771775137024 0.9980736763386664 -0.01310710206915078 0.00017855827838337594 0.0026702791368812015 -0.00016175450180236313 -0.0016798547135850716
 0.9980736763386664 -0.01310710206915078 0.0017771167220051402 0.005252316955834208 -0.0001617557092948485 -0.0016798545587838587 0.00017615614553812077 0.0026705931487984434
 0.00017855827838337594 0.0026702791368812015 -0.0001617557092948485 -0.0016798545587838587 0.0017767258372862222 0.005252709917580524 0.9980736800960089 -0.013106767693612846
 -0.00016175450180236313 -0.0016798547135850716 0.00017615614553812077 0.0026705931487984434 0.9980736800960089 -0.013106767693612846 0.001777114165666714 0.005252652286654491
0.03126302626094 0.0019327102257508727 0.006610849855978046 0.9978705292819611 -0.016407950223227063 0.00022560674625914912 0.0033400216364801887 -0.00020183131085124313 -0.002103497742414172
 0.9978705292819611 -0.016407950223227063 0.0019333359468692048 0.006610769078630447 -0.00020183320054363644 -0.0021034975102723415 0.00022185462640188976 0.003340475565733827
 0.00022560674625914912 0.0033400216364801887 -0.00020183320054363644 -0.0021034975102723415 0.0019327253805453497 0.006611265222747646 0.997870534802404 -0.016407532396339058
 -0.00020183131085124313 -0.002103497742414172 0.00022185462640188976 0.003340475565733827 0.997870534802404 -0.016407532396339058 0.0019333315640489993 0.006611188030323775
0.037515631513130004 0.0020986409600656027 0.007984987503662555 0.9976536113710108 -0.019720537794773018 0.00027851500852394925 0.004010666133202365 -0.00024666887542362526 -0.0025283510905674948
 0.9976536113710108 -0.019720537794773018 0.002099541338978722 0.00798488375312555 -0.00024667160056979204 -0.0025283507593698747 0.0002731121652193817 0.004011290514252862
 0.00027851500852394925 0.004010666133202365 -0.00024667160056979204 -0.0025283507593698747 0.0020986624599584696 0.007985485268704497 0.9976536189860582 -0.01972003649653898
 -0.00024666887542362526 -0.0025283510905674948 0.0002731121652193817 0.004011290514252862 0.9976536189860582 -0.01972003649653898 0.0020995346363353227 0.007985386269337175
0.043768236765320004 0.0022747218443547276 0.009374373130630399 0.9974227268042055 -0.02304508355594843 0.0003373466306817692 0.0046821711825465046 -0.00029633339496319374 -0.0029543363820602525
 0.9974227268042055 -0.02304508355594843 0.0022759465735624693 0.009374243884147374 -0.0002963371092600246 -0.0029543359268915568 0.00032999159958024544 0.00468299958080981
 0.0003373466306817692 0.0046821711825465046 -0.0002963371092600246 -0.0029543359268915568 0.002274750799427795 0.009374953024355847 0.9974227368475662 -0.02304449876592982
 -0.00029633339496319374 -0.0029543363820602525 0.00032999159958024544 0.00468299958080981 0.9974227368475662 -0.02304449876592982 0.002275937048386033 0.00937482988455368
0.050020842017509996 0.002461164978917291 0.010778678978480217 0.9971776778244026 -0.026381711129856312 0.0004021648699289361 0.005354487629066637 -0.00035089027241018005 -0.0033813797487087225
 0.9971776778244026 -0.026381711129856312 0.00246276371399363 0.010778521608912324 -0.0003508951298872717 -0.003381379141411977 0.00039255541778529366 0.005355556678074888
 0.0004021648699289361 0.005354487629066637 -0.0003508951298872717 -0.003381379141411977 0.002461202500919539 0.010779340710989628 0.9971776906321035 -0.02638104280599324
 -0.00035089027241018005 -0.0033813797487087225 0.00039255541778529366 0.005355556678074888 0.9971776906321035 -0.02638104280599324 0.0024627508543264157 0.010779191010318568
0.055454545454549996 0.0026317690099134697 0.012010966912291126 0.996953064992083 -0.029291203918102564 0.00046340456025381204 0.005939367694756277 -0.00040232526636230855 -0.0037532969512950355
 0.996953064992083 -0.029291203918102564 0.002633733071772631 0.012010782888693181 -0.0004023312426189697 -0.0037532961863833317 0.0004515898848257894 0.005940678039050794
 0.00046340456025381204 0.005939367694756277 -0.0004023312426189697 -0.0037532961863833317 0.0026318148797427453 0.012011699504734357 0.9969530804761166 -0.029290462958847574
 -0.00040232526636230855 -0.0037532969512950355 0.0004515898848257894 0.005940678039050794 0.9969530804761166 -0.029290462958847574 0.0026337168901093247 0.012011524689300914
0.056273447269699996 0.0026581813464080146 0.012197631470269052 0.9969182653267036 -0.02973048398522496 0.00047303255932538513 0.006027560927964391 -0.00041040414738534336 -0.003809409497492589
 0.9969182653267036 -0.02973048398522496 0.002660203714833407 0.012197443246654019 -0.0004104103023697246 -0.00380940870663348 0.00046086566354326924 0.0060289103675751745
 0.00047303255932538513 0.006027560927964391 -0.0004104103023697246 -0.00380940870663348 0.0026582285476159 0.012198374720282987 0.9969182812367964 -0.029729732074597216
 -0.00041040414738534336 -0.003809409497492589 0.00046086566354326924 0.0060289103675751745 0.9969182812367964 -0.029729732074597216 0.002660186998311032 0.01219819595223387
0.06252605252188 0.00286598109012016 0.013630991905630094 0.9966442892421408 -0.03309142468638011 0.0005500120222226468 0.006701332414680842 -0.0004749389015599115 -0.0042383548312809795
 0.9966442892421408 -0.03309142468638011 0.0028684766990889187 0.013630769993549783 -0.00047494650859462243 -0.004238353822102769 0.0005349838639033686 0.006703005129806352
 0.0005500120222226468 0.006701332414680842 -0.00047494650859462243 -0.004238353822102769 0.002866039083707432 0.013631816325786104 0.9966443085959648 -0.03309058911955188
 -0.0004749389015599115 -0.0042383548312809795 0.0005349838639033686 0.006703005129806352 0.9966443085959648 -0.03309058911955188 0.002868455593725495 0.013631605898460636
0.06877865777407 0.003084773676897545 0.015078544968340086 0.9963555488092611 -0.036464526331689374 0.0006331650023872467 0.0073757400569519245 -0.0005445576492104852 -0.004668145088552984
 0.9963555488092611 -0.036464526331689374 0.0030877921211751435 0.015078286430168826 -0.0005445668629834082 -0.004668143822944595 0.0006149709688818955 0.0073777821165633955
 0.0006331650023872467 0.0073757400569519245 -0.0005445668629834082 -0.004668143822944595 0.0030848435762767263 0.015079450175399885 0.9963555719516447 -0.03646360703225607
 -0.0005445576492104852 -0.004668145088552984 0.0006149709688818955 0.0073777821165633955 0.9963555719516447 -0.03646360703225607 0.003087766085024959 0.015079205411974973
0.07503126302626001 0.0033147679877175216 0.016540091428382683 0.9960518427749012 -0.03984975979874847 0.000722552602472917 0.008050718935680448 -0.0006193227196242453 -0.005098709255825669
 0.9960518427749012 -0.03984975979874847 0.003318358857088213 0.016539793223230584 -0.0006193336949223035 -0.005098707692280719 0.0007008872968376235 0.008053179631951173
 0.000722552602472917 0.008050718935680448 -0.0006193336949223035 -0.005098707692280719 0.0033148509055098427 0.01654107701396985 0.9960518700538215 -0.0398487566722633
 -0.0006193227196242453 -0.005098709255825669 0.0007008872968376235 0.008053179631951173 0.9960518700538215 -0.0398487566722633 0.0033183273372931134 0.016540795152951118
0.08128386827845 0.0035561723660437632 0.018015443293767804 0.9957329695539261 -0.0432470785411575 0.0008182352289873821 0.008726201558534074 -0.0006992956328086318 -0.005529975649008006
 0.9957329695539261 -0.0432470785411575 0.0035603852519997883 0.01801510227742027 -0.0006993085243859892 -0.0055299737425941456 0.0007927924847655082 0.008729133445986288
 0.0008182352289873821 0.008726201558534074 -0.0006993085243859892 -0.0055299737425941456 0.003556269414104201 0.01801650881610243 0.9957330013219279 -0.04324599148319594
 -0.0006992956328086318 -0.005529975649008006 0.0007927924847655082 0.008729133445986288 0.9957330013219279 -0.04324599148319594 0.003560347685681725 0.018016187011515573
0.08753647353064001 0.0038091946355189124 0.019504420449370435 0.9953987273627887 -0.0466564219000873 0.0009202725404795794 0.009402118080929249 -0.0007845370713275409 -0.005961871689083324
 0.9953987273627887 -0.0466564219000873 0.0038140791389714513 0.01950403337385671 -0.0007845520338661451 -0.00596186939140401 0.0008907454408455247 0.009405577015495386
 0.0009202725404795794 0.009402118080929249 -0.0007845520338661451 -0.00596186939140401 0.003809306923904829 0.01950556543648704 0.9953987639765103 -0.046655250792666254
 -0.0007845370713275409 -0.005961871689083324 0.0008907454408455247 0.009405577015495386 0.9953987639765103 -0.046655250792666254 0.003814034952232175 0.019505200757763193
0.09378907878283 0.004074042099618166 0.02100684825954807 0.9950489143340742 -0.05007771745357387 0.0010287233983573884 0.010078396461585907 -0.000875106849106176 -0.006394323744960959
 0.9950489143340742 -0.05007771745357387 0.004079647837590974 0.021006411772718222 -0.0008751240371386772 -0.006394321004127685 0.0009948042985935465 0.010082441639590883
 0.0010287233983573884 0.010078396461585907 -0.0008751240371386772 -0.006394321004127685 0.004074170736028389 0.021008072207028036 0.9950489561547464 -0.05007646216728759
 -0.000875106849106176 -0.006394323744960959 0.0009948042985935465 0.010082441639590883 0.9950489561547464 -0.05007646216728759 0.004079596445318184 0.021007661638809218
0.100041684035 0.004350921525105971 0.022522555802929667 0.9946833286193383 -0.05351088273571683 0.0011436458190814407 0.010754962577154224 -0.0009710638780114923 -0.006827257019154238
 0.9946833286193383 -0.05351088273571683 0.004357298138000748 0.02252206644770164 -0.0009710834458238197 -0.006827253779750782 0.0011050263721282894 0.010759656574050735
 0.0011436458190814407 0.010754962577154224 -0.0009710834458238197 -0.006827253779750782 0.004351067614807212 0.022523858173494293 0.9946833760139567 -0.053509543129896836
 -0.0009710638780114923 -0.006827257019154238 0.0011050263721282894 0.010759656574050735 0.9946833760139567 -0.053509543129896836 0.004357238944362489 0.02252339861514181
0.1059090909091 0.0046218701293506735 0.02395681418944234 0.9943257404131463 -0.05674325845312344 0.0012574250349105193 0.011390042031575025 -0.001066060673240144 -0.007233888914215017
 0.9943257404131463 -0.05674325845312344 0.004629015301171964 0.023956271984382924 -0.0010660826142819544 -0.007233885153392316 0.001214113771473139 0.011395404831856385
 0.0012574250349105193 0.011390042031575025 -0.0010660826142819544 -0.007233885153392316 0.004622033598916499 0.023958189636261826 0.9943257933761762 -0.05674183958171752
 -0.001066060673240144 -0.007233888914215017 0.001214113771473139 0.011395404831856385 0.9943257933761762 -0.05674183958171752 0.004628948234171696 0.02395768120933808
0.1062942892872 0.004640039117318531 0.024051374547433606 0.9943017684845207 -0.05695582651757169 0.0012650969276243864 0.011431740310469568 -0.0010724661324928494 -0.0072605954616884105
 0.9943017684845207 -0.05695582651757169 0.0046472362761261175 0.024050828760888307 -0.0010724882340733537 -0.007260591664745105 0.0012214681121518695 0.011437149119421038
 0.0012650969276243864 0.011431740310469568 -0.0010724882340733537 -0.007260591664745105 0.004640203761753648 0.02405275477349448 0.9943018218247842 -0.056954402437448454
 -0.0010724661324928494 -0.0072605954616884105 0.0012214681121518695 0.011437149119421038 0.9943018218247842 -0.056954402437448454 0.004647168673303258 0.02405224303845955
0.11254689453939999 0.004941600485315653 0.025593137334874585 0.9939040323970102 -0.06041244978036913 0.0013931329115981536 0.012108651616427688 -0.00117937061285429 -0.007694261708324586
 0.9939040323970102 -0.06041244978036913 0.004949667898491684 0.0255925314472382 -0.0011793954017989452 -0.007694257291291769 0.00134418506228465 0.012114844686603028
 0.0013931329115981536 0.012108651616427688 -0.0011793954017989452 -0.007694257291291769 0.004941784782115449 0.025594594815165683 0.9939040920608385 -0.06041094106039548
 -0.00117937061285429 -0.007694261708324586 0.00134418506228465 0.012114844686603028 0.9939040920608385 -0.06041094106039548 0.004949591267242945 0.02559402763019166
0.11879949979160001 0.005255810602665761 0.027147677586787496 0.9934899191107397 -0.06388064646991107 0.0015278089755623703 0.012785616578774738 -0.001291833307626752 -0.008128177029993687
 0.9934899191107397 -0.06388064646991107 0.005264798023302012 0.027147007820082794 -0.0012918609369970944 -0.008128171926716304 0.0014732318154058752 0.012792666853337466
 0.0015278089755623703 0.012785616578774738 -0.0012918609369970944 -0.008128171926716304 0.005256015644484464 0.02714921168530132 0.9934899854825948 -0.06387905293459713
 -0.001291833307626752 -0.008128177029993687 0.0014732318154058752 0.012792666853337466 0.9934899854825948 -0.06387905293459713 0.005264711732651282 0.0271485856893263
0.1250521050438 0.005582873761753709 0.028714828673498716 0.9930592277471103 -0.06736030408990476 0.0016691792958932704 0.013462553452092407 -0.0014099091545259766 -0.00856226129894414
 0.9930592277471103 -0.06736030408990476 0.005592830995108988 0.02871409114001589 -0.0014099397768917658 -0.008562255439628236 0.0016086619703617 0.013470537405895188
 0.0016691792958932704 0.013462553452092407 -0.0014099397768917658 -0.008562255439628236 0.005583100636185255 0.028716438725108286 0.9930593012178522 -0.0673586255480102
 -0.0014099091545259766 -0.00856226129894414 0.0016086619703617 0.013470537405895188 0.9930593012178522 -0.0673586255480102 0.005592734401661328 0.028715750468061088
0.131304710296 0.005922993525100253 0.030294423410573278 0.9926117578736561 -0.07085130417007582 0.0018172969757687609 0.014139378700615478 -0.0015336520008635641 -0.008996432960296341
 0.9926117578736561 -0.07085130417007582 0.005933970435705714 0.03029361411120558 -0.001533685768118341 -0.00899642627150098 0.0017505280886106463 0.014148376377492524
 0.0018172969757687609 0.014139378700615478 -0.001533685768118341 -0.00899642627150098 0.005923243313544989 0.030296108714961696 0.9926118388411626 -0.07084954042062362
 -0.0015336520008635641 -0.008996432960296341 0.0017505280886106463 0.014148376377492524 0.9926118388411626 -0.07084954042062362 0.005933862883744933 0.030295354656227097
0.1375573155481 0.006191649099037571 0.03167942401457617 0.9922320542577554 -0.07414659971907327 0.0019519294570201037 0.014794561197982342 -0.0016429103612819432 -0.009409118464397438
 0.9922320542577554 -0.07414659971907327 0.006203698657256272 0.03167855733014627 -0.0016429473366780993 -0.009409110939494314 0.0018787539838588975 0.014804549175196573
 0.0019519294570201037 0.014794561197982342 -0.0016429473366780993 -0.009409110939494314 0.006191922190675005 0.031681184255016204 0.9922321430615751 -0.0741447506474407
 -0.0016429103612819432 -0.009409118464397438 0.0018787539838588975 0.014804549175196573 0.9922321430615751 -0.0741447506474407 0.006203580287147253 0.03168037860133973
0.1438099208003 0.006469508480883886 0.033058193770100656 0.9918394351436378 -0.07743463039564293 0.002092012575950442 0.015447733977402773 -0.0017565552326204662 -0.009819993057103358
 0.9918394351436378 -0.07743463039564293 0.006482681100825625 0.033057266934687905 -0.001756595551204011 -0.0098199846275034 0.0020121466816533724 0.015458784413744119
 0.002092012575950442 0.015447733977402773 -0.001756595551204011 -0.0098199846275034 0.006469805822975855 0.0330600282544682 0.9918395321800567 -0.07743269580411602
 -0.0017565552326204662 -0.009819993057103358 0.0020121466816533724 0.015458784413744119 0.9918395321800567 -0.07743269580411602 0.00648255138372931 0.0330591686426478
0.1500625260525 0.006756487014471345 0.03443064948981254 0.9914339881144136 -0.08071534725070251 0.002237506651677572 0.01609885142439488 -0.0018745485947954926 -0.010229013721846942
 0.9914339881144136 -0.08071534725070251 0.0067708331854330235 0.03442965958514427 -0.0018745923899821293 -0.010229004316383246 0.0021506678091905576 0.016111039089656828
 0.002237506651677572 0.01609885142439488 -0.0018745923899821293 -0.010229004316383246 0.0067568095397862946 0.03443255749916033 0.9914340937853445 -0.0807133269337784
 -0.0018745485947954926 -0.010229013721846942 0.0021506678091905576 0.016111039089656828 0.9914340937853445 -0.0807133269337784 0.006770691589797249 0.03443164142750779
0.15631513130469998 0.007052499596278335 0.03579671068847504 0.9910158010267448 -0.08398870089998162 0.002388371630145005 0.01674786854709601 -0.001996852046114154 -0.010636138259688177
