! Created with skrf 1.8.0 (http://scikit-rf.org).
# GHz S RI R 50.0 
!freq ReS11 ImS11 ReS12 ImS12 ReS13 ImS13
! ReS14 ImS14
! ReS21 ImS21 ReS22 ImS22 ReS23 ImS23
! ReS24 ImS24
! ReS31 ImS31 ReS32 ImS32 ReS33 ImS33
! ReS34 ImS34
! ReS41 ImS41 ReS42 ImS42 ReS43 ImS43
! ReS44 ImS44
!
0.0 0.001441293829549 0.0 0.9985587061705 0.0 5.538569684861e-05 0.0 -5.538569667116e-05 6.782791614688232e-21
 0.9985587061705 0.0 0.001441293829543 0.0 -5.538569667081e-05 6.782791614645368e-21 5.538569684861e-05 0.0
 5.538569684861e-05 0.0 -5.538569667081e-05 6.782791614645368e-21 0.001441293812489 0.0 0.9985587061534 0.0
 -5.538569667116e-05 6.782791614688232e-21 5.538569684861e-05 0.0 0.9985587061534 0.0 0.001441293812501 0.0
0.005 0.0015504143775871286 0.00117997678514898 0.9984206915379126 -0.0030194521322483084 7.7390350273873e-05 0.0006061065763532666 -7.515217174074974e-05 -0.000381227899684645
 0.9984206915379126 -0.0030194521322483084 0.0015504431137485398 0.0011799599699336726 -7.515207787785561e-05 -0.0003812277687934532 7.721276154566283e-05 0.0006061740994388389
 7.7390350273873e-05 0.0006061065763532666 -7.515207787785561e-05 -0.0003812277687934532 0.0015504150815454428 0.0011800435806804369 0.9984206918951836 -0.0030193850828708715
 -7.515217174074974e-05 -0.000381227899684645 7.721276154566283e-05 0.0006061740994388389 0.9984206918951836 -0.0030193850828708715 0.0015504431178555928 0.001180027266820985
0.006252605252188 0.001578946810310777 0.0014796213064397247 0.9983843860774042 -0.0037750663088506565 8.364647846983674e-05 0.000757932937578341 -8.069275923003703e-05 -0.00047703159391749715
 0.9983843860774042 -0.0037750663088506565 0.001578991730557617 0.0014795999580373147 -8.069261363471722e-05 -0.0004770314312718616 8.336901018702816e-05 0.0007580205986780006
 8.364647846983674e-05 0.000757932937578341 -8.069261363471722e-05 -0.0004770314312718616 0.0015789478283967306 0.0014797048088102973 0.9983843865532721 -0.0037749824803421836
 -8.069275923003703e-05 -0.00047703159391749715 8.336901018702816e-05 0.0007580205986780006 0.9983843865532721 -0.0037749824803421836 0.0015789916538119046 0.0014796840986593912
0.01250521050438 0.0017286440836750175 0.0029903366854073707 0.9981926909823124 -0.007551014946480241 0.00011936178043150216 0.0015162557983851791 -0.00011191336780486923 -0.0009564243133799934
 0.9981926909823124 -0.007551014946480241 0.0017288234562598428 0.0029902906676912296 -0.00011191279970292033 -0.0009564239980603376 0.00011825524044397788 0.0015164661062568236
 0.00011936178043150216 0.0015162557983851791 -0.00011191279970292033 -0.0009564239980603376 0.001728647578766957 0.00299050333029274 0.9981926923080019 -0.007550847536793479
 -0.00011191336780486923 -0.0009564243133799934 0.00011825524044397788 0.0015164661062568236 0.9981926923080019 -0.007550847536793479 0.0017288225654676524 0.0029904587125138076
0.01875781575657 0.0018906960204571495 0.004522675329465209 0.997983394493408 -0.011337052780700975 0.00016261065226379833 0.002275479624590124 -0.00014913995147275498 -0.0014375045415961274
 0.997983394493408 -0.011337052780700975 0.0018910990880439684 0.00452260107515334 -0.0001491386924944124 -0.0014375040834874806 0.00016012478296473733 0.0022758540603319433
 0.00016261065226379833 0.002275479624590124 -0.0001491386924944124 -0.0014375040834874806 0.0018907034636652096 0.004522924879720388 0.9979833970549092 -0.011336801851029348
 -0.00014913995147275498 -0.0014375045415961274 0.00016012478296473733 0.0022758540603319433 0.9979833970549092 -0.011336801851029348 0.0018910966477545918 0.0045228529354324415
0.02501042100875 0.00206540470681792 0.006074512385947735 0.9977562617434782 -0.015135031987887241 0.0002134739592376114 0.003035643343718264 -0.00019246226950510586 -0.0019200661708387253
 0.9977562617434782 -0.015135031987887241 0.0020661205366441842 0.006074406112963804 -0.0001924600570239096 -0.0019200655801716985 0.0002090581877628551 0.003036229644759661
 0.0002134739592376114 0.003035643343718264 -0.0001924600570239096 -0.0019200655801716985 0.0020654175655864244 0.006074844577900853 0.9977562659233391 -0.015134697562599945
 -0.00019246226950510586 -0.0019200661708387253 0.0002090581877628551 0.003036229644759661 0.9977562659233391 -0.015134697562599945 0.0020661157961733853 0.0060747416978973205
0.03126302626094 0.0022530596649019585 0.007644763170011616 0.9975110452846837 -0.01894575581939026 0.00027203333891104536 0.0037967168483606937 -0.0002419677627941221 -0.0024039673936758097
 0.9975110452846837 -0.01894575581939026 0.0022541771963403277 0.007644620887822157 -0.00024196433897404144 -0.0024039666810287273 0.000265136255980061 0.003797569044672694
 0.00027203333891104536 0.0037967168483606937 -0.00024196433897404144 -0.0024039666810287273 0.0022530794078280906 0.0076451777186569685 0.997511051467606 -0.018945337880451267
 -0.0002419677627941221 -0.0024039673936758097 0.000265136255980061 0.003797569044672694 0.997511051467606 -0.018945337880451267 0.0022541693940425064 0.0076450401100537895
0.037515631513130004 0.0024539442679457277 0.009232727134002722 0.997247491669634 -0.02276963457487743 0.00033837031641152567 0.004558642867045778 -0.00029774217847569346 -0.00288908881488114
 0.997247491669634 -0.02276963457487743 0.002455552343079773 0.00923254464690133 -0.00029773728970537407 -0.0028890879911603416 0.0003284394359672175 0.00455982134556623
 0.00033837031641152567 0.004558642867045778 -0.00029773728970537407 -0.0028890879911603416 0.0024539723643092755 0.009233223707978949 0.9972475002436839 -0.022769133086432358
 -0.00029774217847569346 -0.00288908881488114 0.0003284394359672175 0.00455982134556623 0.9972475002436839 -0.022769133086432358 0.002455540706237414 0.009233047397794288
0.043768236765320004 0.002668338222516767 0.010837888190287118 0.9969653441055389 -0.02660688521336716 0.0004125658915844825 0.005321349703349971 -0.0003598698015696073 -0.003375320703073215
 0.9969653441055389 -0.02660688521336716 0.002670525610892122 0.01083766109930381 -0.00035986319806684996 -0.003375319779462024 0.0003990475312669956 0.005322921281211682
 0.0004125658915844825 0.005321349703349971 -0.00035986319806684996 -0.003375319779462024 0.0026683761407758537 0.010838466421672042 0.9969653554617746 -0.02660630011155804
 -0.0003598698015696073 -0.003375320703073215 0.0003990475312669956 0.005322921281211682 0.9969653554617746 -0.02660630011155804 0.0026705093546272275 0.010838247259177654
0.050020842017509996 0.0028965187253515087 0.01245983220357459 0.9966643437867045 -0.030457613792391314 0.0004947003012172731 0.0060847564812261295 -0.00042843353903498726 -0.0038625577394723
 0.9966643437867045 -0.030457613792391314 0.0028993741445830414 0.012459555907842264 -0.00042842497459617585 -0.0038625567273862698 0.0004770395255545537 0.0060867944827531
 0.0004947003012172731 0.0060847564812261295 -0.00042842497459617585 -0.0038625567273862698 0.0028965679332106603 0.012460491672914466 0.9966643583206232 -0.030456944999891905
 -0.00042843353903498726 -0.0038625577394723 0.0004770395255545537 0.0060867944827531 0.9966643583206232 -0.030456944999891905 0.002899352472323704 0.0124602253313621
0.055454545454549996 0.0031062247038844398 0.013882705500715718 0.9963872527085192 -0.03381498831003551 0.0005725865136276239 0.006748680750637664 -0.0004933077900020806 -0.004286717389002209
 0.9963872527085192 -0.03381498831003551 0.0031097326856781094 0.013882382551792723 -0.0004932973241103553 -0.004286716309457587 0.0005508741910235657 0.006751188749767958
 0.0005725865136276239 0.006748680750637664 -0.0004932973241103553 -0.004286716309457587 0.003106284912976034 0.013883435198357169 0.9963872703284437 -0.033814246703489724
 -0.0004933077900020806 -0.004286717389002209 0.0005508741910235657 0.006751188749767958 0.9963872703284437 -0.033814246703489724 0.0031097056498209977 0.013883124206969947
0.056273447269699996 0.003138761063460074 0.014098206483528632 0.9963442306738404 -0.03432185590740658 0.0005848528498455036 0.006848775737745467 -0.0005035149455533064 -0.004350696422193839
 0.9963442306738404 -0.03432185590740658 0.0031423731983067373 0.014097876180909314 -0.0005035041773300782 -0.004350695333246257 0.0005624934524082252 0.006851360073129914
 0.0005848528498455036 0.006848775737745467 -0.0005035041773300782 -0.004350695333246257 0.0031388230264801247 0.014098946732346768 0.9963442487853799 -0.03432110332049116
 -0.0005035149455533064 -0.004350696422193839 0.0005624934524082252 0.006851360073129914 0.9963442487853799 -0.03432110332049116 0.0031423453006471577 0.014098628709960013
0.06252605252188 0.003395338940017923 0.015752697528461052 0.996004744002932 -0.03819959888155443 0.0006831017836445257 0.007613314828654677 -0.0005851942116707056 -0.004839633660653574
 0.996004744002932 -0.03819959888155443 0.003399796460207448 0.0157523082157068 -0.0005851810000015833 -0.00483963250660603 0.0006554862939991047 0.007616532073432319
 0.0006831017836445257 0.007613314828654677 -0.0005851810000015833 -0.00483963250660603 0.003395415121194066 0.015753518046401255 0.9960047660980441 -0.03819876238261174
 -0.0005851942116707056 -0.004839633660653574 0.0006554862939991047 0.007616532073432319 0.9960047660980441 -0.03819876238261174 0.003399761515138828 0.015753143666959048
0.06877865777407 0.003666524651993439 0.017423017737461504 0.9956456226497978 -0.04209079498965417 0.0007895241808052069 0.008378276778378902 -0.000673550137365633 -0.005329265928574639
 0.9956456226497978 -0.04209079498965417 0.0036719162294981816 0.01742256420985693 -0.0006735342455984727 -0.00532926472128992 0.0007560938893826364 0.008382220253212353
 0.0007895241808052069 0.008378276778378902 -0.0006735342455984727 -0.00532926472128992 0.003666616509959121 0.017423917971928583 0.9956456491394252 -0.042089874437160155
 -0.000673550137365633 -0.005329265928574639 0.0007560938893826364 0.008382220253212353 0.9956456491394252 -0.042089874437160155 0.0036718734010937667 0.017423482384752605
0.07503126302626001 0.003952589179225997 0.01910889700279409 0.9952666054078442 -0.04599536980456816 0.000904195855997101 0.009143560817990575 -0.0007686600922197209 -0.0058194887322787995
 0.9952666054078442 -0.04599536980456816 0.0039590035048385885 0.019108373853396633 -0.0007686412865624713 -0.005819487483691077 0.0008643908524417799 0.009148330668334754
 0.000904195855997101 0.009143560817990575 -0.0007686412865624713 -0.005819487483691077 0.003952698168316946 0.01910987634930552 0.9952666367102999 -0.045994365042466685
 -0.0007686600922197209 -0.0058194887322787995 0.0008643908524417799 0.009148330668334754 0.9952666367102999 -0.045994365042466685 0.003958951944010587 0.019109374528898566
0.08128386827845 0.004253802219612653 0.020810077101826772 0.9948674312171818 -0.04991322774755557 0.0010271912728705805 0.009909062739804433 -0.0008705999679749915 -0.006310196265697955
 0.9948674312171818 -0.04991322774755557 0.004261328019949196 0.020809478720058665 -0.0008705780174085122 -0.006310194987764174 0.0009804504940905349 0.00991476601528959
 0.0010271912728705805 0.009909062739804433 -0.0008705780174085122 -0.006310194987764174 0.004253929788313533 0.020811134910231722 0.9948674677577413 -0.04991213859870222
 -0.0008705999679749915 -0.006310196265697955 0.0009804504940905349 0.00991476601528959 0.9948674677577413 -0.04991213859870222 0.004261266863045594 0.02081056165524241
0.08753647353064001 0.004570432186991928 0.022526307823491187 0.99444783935785 -0.05384425590754617 0.0011585834596030346 0.010674675154469074 -0.0009794441272051614 -0.006801281166322805
 0.99444783935785 -0.05384425590754617 0.00457915824065474 0.02252562839341208 -0.0009794188032984888 -0.006801279870996059 0.0011043447466730066 0.010681425887845871
 0.0011585834596030346 0.010674675154469074 -0.0009794188032984888 -0.006801279870996059 0.004570579776519793 0.02252744339466629 0.9944478815692548 -0.05384308217674926
 -0.0009794441272051614 -0.006801281166322805 0.0011043447466730066 0.010681425887845871 0.9944478815692548 -0.05384308217674926 0.004579086609225246 0.022526793326447487
0.09378907878283 0.004902746182898388 0.024257344203450944 0.994007569621111 -0.05778832675537647 0.0012984439297631797 0.011440287670746537 -0.0010952653464493733 -0.007292634352102791
 0.994007569621111 -0.05778832675537647 0.004912761337107464 0.02425657770137574 -0.0010952364232920465 -0.007292633051285765 0.001236144091329787 0.011448206956178658
 0.0012984439297631797 0.011440287670746537 -0.0010952364232920465 -0.007292633051285765 0.004902915227375408 0.02425855678872805 0.9940076179450696 -0.057787068229823366
 -0.0010952653464493733 -0.007292634352102791 0.001236144091329787 0.011448206956178658 0.9940076179450696 -0.057787068229823366 0.004912678338149697 0.024257824349387815
0.100041684035 0.005251009952395893 0.026002944490119542 0.993546362466892 -0.06174530013146765 0.0014468426039226524 0.012205787033195487 -0.0012181347577542158 -0.007784144904117524
 0.993546362466892 -0.06174530013146765 0.005262403139596513 0.026002084681788204 -0.001218102011804406 -0.007784143609645394 0.001375917485644279 0.012215003103812076
 0.0014468426039226524 0.012205787033195487 -0.001218102011804406 -0.007784143609645394 0.005251201876496931 0.026004233291801283 0.993546417353945 -0.06174395657996418
 -0.0012181347577542158 -0.007784144904117524 0.001375917485644279 0.012215003103812076 0.993546417353945 -0.06174395657996418 0.005262307864294977 0.026003412741626028
0.1059090909091 0.00559256018674325 0.027654037064788486 0.9930942956376766 -0.06547010002128105 0.0015939252420360676 0.012923920777032749 -0.0013399067885188011 -0.008245418056811409
 0.9930942956376766 -0.06547010002128105 0.005605327485200935 0.02765308383785815 -0.0013398702540291076 -0.008245416778957947 0.0015143923290658536 0.012934476796401312
 0.0015939252420360676 0.012923920777032749 -0.0013398702540291076 -0.008245416778957947 0.005592774868098813 0.027655396618554314 0.9930943571023353 -0.0654686764549609
 -0.0013399067885188011 -0.008245418056811409 0.0015143923290658536 0.012934476796401312 0.9930943571023353 -0.0654686764549609 0.005605219849190994 0.02765448800092545
0.1062942892872 0.005615487823983115 0.02776286861978536 0.9930639591689705 -0.06571502472817119 0.001603847733380208 0.012971057231735491 -0.0013481217873635221 -0.008275699981090748
 0.9930639591689705 -0.06571502472817119 0.0056283480783775675 0.02776190905695477 -0.0013480849973908841 -0.008275698704686214 0.0015237322925259892 0.012981705536414527
 0.001603847733380208 0.012971057231735491 -0.0013480849973908841 -0.008275698704686214 0.00561570404277133 0.027764232791288656 0.9930640210798423 -0.06571359590089311
 -0.0013481217873635221 -0.008275699981090748 0.0015237322925259892 0.012981705536414527 0.9930640210798423 -0.06571359590089311 0.005628239602042949 0.027763318205762912
0.11254689453939999 0.005996442641108803 0.029536877048602084 0.992560101954275 -0.06969733922002813 0.001769525824770261 0.013735979586847696 -0.0014852940929959845 -0.008767184762255138
 0.992560101954275 -0.06969733922002813 0.006010859115285076 0.029535811065058534 -0.0014852530399254169 -0.008767183515510032 0.0016796542092056056 0.013748202866002207
 0.001769525824770261 0.013735979586847696 -0.0014852530399254169 -0.008767183515510032 0.00599668455846026 0.029538315693851444 0.9925601713598828 -0.0696958248489877
 -0.0014852940929959845 -0.008767184762255138 0.0016796542092056056 0.013748202866002207 0.9925601713598828 -0.0696958248489877 0.006010736496908497 0.029537300959925253
0.11879949979160001 0.006394135684923278 0.031324729842532796 0.9920345341357079 -0.07369207314017233 0.001943941565324723 0.014500432823630872 -0.001629717499552897 -0.009258482405250835
 0.9920345341357079 -0.07369207314017233 0.006410197666764592 0.03132355054961641 -0.0016296719663944313 -0.009258481199593443 0.0018437471968232777 0.014514381184029717
 0.001943941565324723 0.014500432823630872 -0.0016296719663944313 -0.009258481199593443 0.006394404692474735 0.03132624201480543 0.9920346115182197 -0.0736904729403015
 -0.001629717499552897 -0.009258482405250835 0.0018437471968232777 0.014514381184029717 0.9920346115182197 -0.0736904729403015 0.006410059948381511 0.03132512082674912
0.1250521050438 0.006808826590567173 0.0331261859595367 0.9914870002419531 -0.07769904756933514 0.002127157748775935 0.01526429313487387 -0.001781455933755343 -0.009749474019070411
 0.9914870002419531 -0.07769904756933514 0.006826623520064795 0.033124886240994064 -0.0017814057054933773 -0.009749472865750463 0.002016073410016909 0.015280124123366545
 0.002127157748775935 0.01526429313487387 -0.0017814057054933773 -0.009749472865750463 0.0068091240667435375 0.03312777066223725 0.9914870860952666 -0.07769736123780313
 -0.001781455933755343 -0.009749474019070411 0.002016073410016909 0.015280124123366545 0.9914870860952666 -0.07769736123780313 0.00682646972648032 0.03312653651673877
0.131304710296 0.0072407732583311315 0.034941002673430054 0.9909172461436921 -0.08171807568799007 0.0023192352016308234 0.016027434235599696 -0.0019405713578745756 -0.010240038649734396
 0.9909172461436921 -0.08171807568799007 0.007260394744635789 0.03493957517965701 -0.001940516221331975 -0.010240037559792919 0.002196693126671796 0.016045312911657585
 0.0023192352016308234 0.016027434235599696 -0.001940516221331975 -0.010240037559792919 0.007241100567057704 0.034942658860714966 0.9909173409746335 -0.08171630290350171
 -0.0019405713578745756 -0.010240038649734396 0.002196693126671796 0.016045312911657585 0.9909173409746335 -0.08171630290350171 0.007260223883014157 0.034941305051484364
0.1375573155481 0.007588476135581055 0.03653234594520665 0.990426807379066 -0.08551229342640082 0.0024958063932413736 0.016765946888970644 -0.002082843804459324 -0.01070618364320188
 0.990426807379066 -0.08551229342640082 0.007610017965316687 0.03653081376801572 -0.00208278327306291 -0.010706182607311137 0.00236152504869403 0.016785841497090802
 0.0024958063932413736 0.016765946888970644 -0.00208278327306291 -0.010706182607311137 0.007588833885094199 0.03653407303035508 0.9904269116008366 -0.08551043399702743
 -0.002082843804459324 -0.01070618364320188 0.00236152504869403 0.016785841497090802 0.9904269116008366 -0.08551043399702743 0.007609829961478452 0.036532622568505424
0.1438099208003 0.007948324224337467 0.03811574452449242 0.98991927289606 -0.08929733013174909 0.002679531742206741 0.01750165179183656 -0.0022308151755078215 -0.011169813520146806
 0.98991927289606 -0.08929733013174909 0.007971877166659137 0.038114102164468144 -0.0022307489896405013 -0.01116981255288089 0.002532994350217112 0.01752371269150627
 0.002679531742206741 0.01750165179183656 -0.0022307489896405013 -0.01116981255288089 0.007948713620667755 0.038117541458766974 0.9899193870144084 -0.08929538374265521
 -0.0022308151755078215 -0.011169813520146806 0.002532994350217112 0.01752371269150627 0.9899193870144084 -0.08929538374265521 0.007971671168918119 0.03811598942633206
0.1500625260525 0.008320196436765613 0.039691079028743595 0.9893947673981964 -0.09307310480618067 0.00287035215754335 0.01823447970843422 -0.0023844292152515345 -0.011630864680381813
 0.9893947673981964 -0.09307310480618067 0.008345851456418732 0.039689320662853474 -0.0023843571138976683 -0.011630863797197626 0.00271104473866116 0.01825886274391776
 0.00287035215754335 0.01823447970843422 -0.0023843571138976683 -0.011630863797197626 0.008320618662786243 0.03969294472445188 0.9893948919293049 -0.09307107112912778
 -0.0023844292152515345 -0.011630864680381813 0.00271104473866116 0.01825886274391776 0.9893948919293049 -0.09307107112912778 0.008345626606610512 0.03969128590014956
0.15631513130469998 0.008703970896206998 0.041258233743086396 0.9888534161420918 -0.0968395364786801 0.003068207889942654 0.018964362494032116 -0.0025436290132759927 -0.012089274816032395
 0.9888534161420918 -0.0968395364786801 0.008731819159228084 0.041256353216720845 -0.002543550733906101 -0.01208927403330695 0.0028956193011571924 0.018991228941287762
