! Created with skrf 1.8.0 (http://scikit-rf.org).
# GHz S RI R 50.0 
!freq ReS11 ImS11 ReS12 ImS12 ReS13 ImS13
! ReS14 ImS14
! ReS21 ImS21 ReS22 ImS22 ReS23 ImS23
! ReS24 ImS24
! ReS31 ImS31 ReS32 ImS32 ReS33 ImS33
! ReS34 ImS34
! ReS41 ImS41 ReS42 ImS42 ReS43 ImS43
! ReS44 ImS44
!
0.0 0.001337877456734 0.0 0.9986621225432 0.0 5.12056144395e-05 0.0 -5.120561372891e-05 6.2708790951485396e-21
 0.9986621225432 0.0 0.001337877456763 0.0 -5.120561372908e-05 6.270879095169359e-21 5.120561443961e-05 0.0
 5.12056144395e-05 0.0 -5.120561372908e-05 6.270879095169359e-21 0.001337877445381 0.0 0.9986621225319 0.0
 -5.120561372891e-05 6.2708790951485396e-21 5.120561443961e-05 0.0 0.9986621225319 0.0 0.001337877445405 0.0
0.005 0.0014389080730803393 0.0010958533907601297 0.9985343931570636 -0.0028031114790452736 7.128484755144452e-05 0.0005582115886052161 -6.93180494622251e-05 -0.0003515179238418969
 0.9985343931570636 -0.0028031114790452736 0.001438916728447757 0.0010958482918528494 -6.93171183749871e-05 -0.00035151716761544277 7.123832321001035e-05 0.0005582293154640016
 7.128484755144452e-05 0.0005582115886052161 -6.93171183749871e-05 -0.00035151716761544277 0.001438909097986083 0.001095920011836856 0.998534393495831 -0.0028030444131549826
 -6.93180494622251e-05 -0.0003515179238418969 7.123832321001035e-05 0.0005582293154640016 0.998534393495831 -0.0028030444131549826 0.00143891637380249 0.0010959157954725063
0.006252605252188 0.0014652503748340462 0.0013741446928628566 0.9985009043304616 -0.003504598537313272 7.693448311057092e-05 0.0006980474417785652 -7.435942305048417e-05 -0.0004398593778456939
 0.9985009043304616 -0.003504598537313272 0.001465263905084917 0.0013741382105875476 -7.43579745120074e-05 -0.00043985844432412486 7.686179265357942e-05 0.0006980704413667756
 7.693448311057092e-05 0.0006980474417785652 -7.43579745120074e-05 -0.00043985844432412486 0.001465251906624447 0.0013742279441273171 0.9985009047893392 -0.0035045147219606014
 -7.435942305048417e-05 -0.0004398593778456939 7.686179265357942e-05 0.0006980704413667756 0.9985009047893392 -0.0035045147219606014 0.001465263279593646 0.001374222574393508
0.01250521050438 0.0016030197812611075 0.0027772676813977042 0.9983247193174859 -0.007010141016362875 0.0001088748664924097 0.0013965255344158328 -0.00010257463214757301 -0.0008819422890376456
 0.9983247193174859 -0.007010141016362875 0.0016030738135870617 0.0027772536144802643 -0.00010256892720472138 -0.0008819405492577136 0.0001085849863595742 0.0013965805316629423
 0.0001088748664924097 0.0013965255344158328 -0.00010256892720472138 -0.0008819405492577136 0.0016030253412005143 0.0027774338551711727 0.9983247205903197 -0.007009973605166195
 -0.00010257463214757301 -0.0008819422890376456 0.0001085849863595742 0.0013965805316629423 0.9983247205903197 -0.007009973605166195 0.0016030707472158 0.0027774221189030526
0.01875781575657 0.0017514545985851614 0.004200592757036813 0.9981333713332587 -0.010525190821143778 0.00014709576784312675 0.0020959146237235007 -0.000135931077542403 -0.001325640281276971
 0.9981333713332587 -0.010525190821143778 0.0017515760231119415 0.0042005699092574275 -0.00013591836009188292 -0.0013256378828432672 0.00014644456403807815 0.0020960122032314464
 0.00014709576784312675 0.0020959146237235007 -0.00013591836009188292 -0.0013256378828432672 0.0017514666766235004 0.004200841605733452 0.9981333737733856 -0.010524939877429995
 -0.000135931077542403 -0.001325640281276971 0.00014644456403807815 0.0020960122032314464 0.9981333737733856 -0.010524939877429995 0.0017515686931769351 0.004200822449163118
0.02501042100875 0.0019108174843954706 0.005642163683987371 0.9979266573701102 -0.014051484352379564 0.00019166727062365897 0.002796262459317218 -0.00017450657372005077 -0.0017707737433858071
 0.9979266573701102 -0.014051484352379564 0.001911033143007122 0.005642130773946954 -0.00017448412188258438 -0.0017707708571550013 0.0001905105337761753 0.002796414726202287
 0.00019166727062365897 0.002796262459317218 -0.00017448412188258438 -0.0017707708571550013 0.0019108385728456626 0.0056424949237142375 0.9979266613366783 -0.014051149901332204
 -0.00017450657372005077 -0.0017707737433858071 0.0001905105337761753 0.002796414726202287 0.9979266613366783 -0.014051149901332204 0.0019110197233334926 0.005642467243218076
0.03126302626094 0.002081360070476412 0.00710099043385809 0.9977043629708888 -0.01758978476394842 0.00024266012324276277 0.003497553779282532 -0.00021837708178792546 -0.0022172222864724803
 0.9977043629708888 -0.01758978476394842 0.002081696769893013 0.007100946096431314 -0.00021834220196745958 -0.002217219106917854 0.0002408534288685355 0.0034977743668423073
 0.00024266012324276277 0.003497553779282532 -0.00021834220196745958 -0.002217219106917854 0.0020813926568024016 0.007101403760193925 0.9977043688221916 -0.01758936677651525
 -0.00021837708178792546 -0.0022172222864724803 0.0002408534288685355 0.0034977743668423073 0.9977043688221916 -0.01758936677651525 0.0020816754220488627 0.007101366403873398
0.037515631513130004 0.0022633287252790783 0.008576440132950804 0.9974662681198596 -0.02114049096266031 0.0003001450605793746 0.004199748707975237 -0.00026761726022783873 -0.002664886334686957
 0.9974662681198596 -0.02114049096266031 0.0022638132453463166 0.008576382919732116 -0.000267567284061287 -0.00266488307997813 0.00029754370356664683 0.004200052792921063
 0.0003001450605793746 0.004199748707975237 -0.000267567284061287 -0.00266488307997813 0.002263375296562102 0.008576935181706529 0.9974662762181009 -0.02113998939429521
 -0.00026761726022783873 -0.002664886334686957 0.00029754370356664683 0.004200052792921063 0.9974662762181009 -0.02113998939429521 0.0022637821221003773 0.00857688695033752
0.043768236765320004 0.002456966791508868 0.01006805170755554 0.997212149610279 -0.02470382290293839 0.0003641924938755502 0.004902794428477478 -0.0003223006684244617 -0.003113675442192671
 0.997212149610279 -0.02470382290293839 0.0024576258911633894 0.0100679800870578 -0.0003222329508913402 -0.0031136723542258913 0.00036065145462906007 0.004903198748472956
 0.0003641924938755502 0.004902794428477478 -0.0003222329508913402 -0.0031136723542258913 0.0024570298330774468 0.010068628068998725 0.997212160321836 -0.02470323767883536
 -0.0003223006684244617 -0.003113675442192671 0.00036065145462906007 0.004903198748472956 0.997212160321836 -0.02470323767883536 0.0024575831351312484 0.010068567716636539
0.050020842017509996 0.0026625156319166916 0.011575459290806599 0.9969417822223776 -0.028279898117812792 0.0004348723285433768 0.005606630000241035 -0.00038249984870593535 -0.0035635034659951205
 0.9969417822223776 -0.028279898117812792 0.0026633760541054973 0.011575371648468034 -0.00038241176689695337 -0.0035635008103785636 0.0004302462558800702 0.005607152872439157
 0.0004348723285433768 0.005606630000241035 -0.00038241176689695337 -0.0035635008103785636 0.002662597626241106 0.011576116499668398 0.9969417959177216 -0.028279229142372745
 -0.00038249984870593535 -0.0035635034659951205 0.0004302462558800702 0.005607152872439157 0.9969417959177216 -0.028279229142372745 0.0026633197965481087 0.011576042734243775
0.055454545454549996 0.002851003179008067 0.01289803000087816 0.9966934527672134 -0.031398007045443155 0.0005017353872067844 0.006218874207476432 -0.00043934983758922943 -0.003955195953857927
 0.9966934527672134 -0.031398007045443155 0.0028520602661551327 0.012897927059210583 -0.0004392419450259672 -0.003955193908075874 0.0004960480817459144 0.006219516221927042
 0.0005017353872067844 0.006218874207476432 -0.0004392419450259672 -0.003955193908075874 0.0028511036571328458 0.01289875704779001 0.9966934693600323 -0.03139726519322011
 -0.00043934983758922943 -0.003955195953857927 0.0004960480817459144 0.006219516221927042 0.9966934693600323 -0.03139726519322011 0.002851990748162662 0.01289867054113023
0.056273447269699996 0.00288021517489853 0.013098354612799056 0.9966549394044724 -0.031868769266609205 0.0005122538395190092 0.006311188718683313 -0.0004482863529882636 -0.004014286198235714
 0.9966549394044724 -0.031868769266609205 0.002881303651136524 0.01309824925081745 -0.0004481753052666289 -0.004014284264271787 0.0005063970435917868 0.006311850058763303
 0.0005122538395190092 0.006311188718683313 -0.0004481753052666289 -0.004014284264271787 0.002880318600784221 0.01309909214983745 0.9966549564585785 -0.031868016421377134
 -0.0004482863529882636 -0.004014286198235714 0.0005063970435917868 0.006311850058763303 0.9966549564585785 -0.031868016421377134 0.0028812320109805395 0.013099003633523868
0.06252605252188 0.0031103042175030012 0.01463646634579513 0.996351393713494 -0.03547044472836178 0.0005964055744846511 0.00701639941395328 -0.0005197307420186231 -0.004465940061114107
 0.996351393713494 -0.03547044472836178 0.0031116474718922487 0.014636341482873743 -0.000519594147412889 -0.004465939161771114 0.0005891720263006847 0.007017220755342221
 0.0005964055744846511 0.00701639941395328 -0.000519594147412889 -0.004465939161771114 0.003110431550637282 0.01463728363169614 0.9963514145077148 -0.035469607877596336
 -0.0005197307420186231 -0.004465940061114107 0.0005891720263006847 0.007017220755342221 0.9963514145077148 -0.035469607877596336 0.003111558556346927 0.014637178981226039
0.06877865777407 0.0033530205956601973 0.016189547765697258 0.9960309171251763 -0.03908490088048669 0.000687395273937018 0.007722187219016407 -0.0005969025674707762 -0.004918381334410679
 0.9960309171251763 -0.03908490088048669 0.003354645348506721 0.01618940153669071 -0.000596737865211114 -0.004918381806288267 0.0006786386095306661 0.007723191732249913
 0.000687395273937018 0.007722187219016407 -0.000596737865211114 -0.004918381806288267 0.0033531743068557713 0.016190444168638293 0.9960309420467434 -0.039083979863104405
 -0.0005969025674707762 -0.004918381334410679 0.0006786386095306661 0.007723191732249913 0.9960309420467434 -0.039083979863104405 0.0033545372515876738 0.016190321955584064
0.07503126302626001 0.003608601276170884 0.01775736894009201 0.9956932812691982 -0.042712089852811566 0.0007852897986155047 0.00842847406255358 -0.0006798703460604877 -0.005371525660326265
 0.9956932812691982 -0.042712089852811566 0.0036105342477396915 0.01775719939552779 -0.0006796749952508072 -0.005371527863628895 0.0007748633265817201 0.00842968657462713
 0.0007852897986155047 0.00842847406255358 -0.0006796749952508072 -0.005371527863628895 0.0036087838303872897 0.01775834377094952 0.9956933107121426 -0.04271108448667482
 -0.0006798703460604877 -0.005371525660326265 0.0007748633265817201 0.00842968657462713 0.9956933107121426 -0.04271108448667482 0.003610405049505788 0.017758202521732387
0.08128386827845 0.003877282399967329 0.019339711531200444 0.9953382576177822 -0.04635194466869581 0.0008901550645878521 0.00913517898817227 -0.0007687015250614489 -0.005825287724267248
 0.9953382576177822 -0.04635194466869581 0.0038795503141448376 0.019339516636737237 -0.0007684730044481071 -0.0058252920427595105 0.0008779117764297125 0.00913662600185867
 0.0008901550645878521 0.00913517898817227 -0.0007684730044481071 -0.0058252920427595105 0.0038774962562237386 0.019340764041260505 0.9953382919838886 -0.04635085475253141
 -0.0007687015250614489 -0.005825287724267248 0.0008779117764297125 0.00913662600185867 0.9953382919838886 -0.04635085475253141 0.0038793980806459257 0.019340602237244015
0.08753647353064001 0.004159299292620101 0.020936365191351045 0.9949656176440367 -0.050004382796103884 0.0010020559804124318 0.009842218385656892 -0.0008634624450620086 -0.006279581025917836
 0.9949656176440367 -0.050004382796103884 0.00416192888014463 0.020936142827119187 -0.0008631982528333099 -0.006279587866895798 0.0009878485627495533 0.009843928098724043
 0.0010020559804124318 0.009842218385656892 -0.0008631982528333099 -0.006279587866895798 0.0041595469023616785 0.020937494573339495 0.9949656573429333 -0.05000320810803414
 -0.0008634624450620086 -0.006279581025917836 0.0009878485627495533 0.009843928098724043 0.9949656573429333 -0.05000320810803414 0.004161751662280161 0.020937310650694704
0.09378907878283 0.004454886453294581 0.022547124996585417 0.9945751329610123 -0.05366930866308119 0.0011210563874967132 0.010549506150007496 -0.0009642182982726906 -0.006734317724981763
 0.9945751329610123 -0.05366930866308119 0.00445790445533812 0.02254687295636747 -0.0009639159519386175 -0.006734327519224335 0.0011047372363345888 0.01055150847433193
 0.0011210563874967132 0.010549506150007496 -0.0009639159519386175 -0.006734327519224335 0.004455170260162235 0.022548330384532314 0.9945751784115269 -0.05366804896033808
 -0.0009642182982726906 -0.006734317724981763 0.0011047372363345888 0.01055150847433193 0.9945751784115269 -0.05366804896033808 0.0044577002888783095 0.022548122734098387
0.100041684035 0.004764277527488804 0.02417178955433931 0.9941665754476983 -0.05734661550174771 0.0012472190018561421 0.011256953802755638 -0.001071033084786114 -0.007189408527165386
 0.9941665754476983 -0.05734661550174771 0.004767710699109998 0.024171505544727287 -0.0010706901211003203 -0.007189421728897603 0.0012286402380811206 0.011259280383289178
 0.0012472190018561421 0.011256953802755638 -0.0010706901211003203 -0.007189421728897603 0.0047645999658043415 0.02417307002126211 0.9941666270779922 -0.057345270522638325
 -0.001071033084786114 -0.007189408527165386 0.0012286402380811206 0.011259280383289178 0.9941666270779922 -0.057345270522638325 0.004767477603414097 0.024172836988210725
0.1059090909091 0.005067370089016293 0.02570883360264075 0.9937665476411358 -0.06080853456930681 0.0013721780112894535 0.011920882990754087 -0.0011768338907278417 -0.007616704138426009
 0.9937665476411358 -0.06080853456930681 0.00507121720200037 0.025708517428785504 -0.0011764505887550839 -0.007616720971679971 0.0013513441161237662 0.011923544192389253
 0.0013721780112894535 0.011920882990754087 -0.0011764505887550839 -0.007616720971679971 0.005067730984152695 0.025710183628723914 0.9937666054691561 -0.06080710930938052
 -0.0011768338907278417 -0.007616704138426009 0.0013513441161237662 0.011923544192389253 0.9937666054691561 -0.06080710930938052 0.005070955143270916 0.025709925230678058
0.1062942892872 0.005087705267477983 0.02581015958280841 0.9937397173644698 -0.061036186723475244 0.0013806053564638402 0.011964470585454213 -0.0011839695671352903 -0.0076447626006019
 0.9937397173644698 -0.061036186723475244 0.005091580380998737 0.025809841222216835 -0.0011835835420261384 -0.007644779687444262 0.0013596188427592722 0.011967154819002785
 0.0013806053564638402 0.011964470585454213 -0.0011835835420261384 -0.007644779687444262 0.005088068761698738 0.025811514144589962 0.9937397756130109 -0.06103475618328946
 -0.0011839695671352903 -0.0076447626006019 0.0013596188427592722 0.011967154819002785 0.9937397756130109 -0.06103475618328946 0.005091316358901249 0.025811254027991698
0.11254689453939999 0.0054254014844515135 0.027462036827509757 0.9932943314624351 -0.06473789695990255 0.0015212757448225852 0.012671963531862297 -0.0013030892227895452 -0.008100287516249754
 0.9932943314624351 -0.06473789695990255 0.005429745332878255 0.027461681645045352 -0.0013026577113496682 -0.008100308989180573 0.0014977331037453897 0.012675040585676254
 0.0015212757448225852 0.012671963531862297 -0.0013026577113496682 -0.008100308989180573 0.005425808447970502 0.027463464437549105 0.9932943967786657 -0.06473638055580119
 -0.0013030892227895452 -0.008100287516249754 0.0014977331037453897 0.012675040585676254 0.9932943967786657 -0.06473638055580119 0.005429448369783925 0.027463175489906164
0.11879949979160001 0.005777596993508197 0.029127223209674282 0.9928301910887102 -0.06845161287500601 0.0016692891646641096 0.0133793375283582 -0.0014284521957460682 -0.008555889202839114
 0.9928301910887102 -0.06845161287500601 0.005782436393964072 0.029126828643938993 -0.0014279727922228847 -0.008555915586136843 0.0016430417976711527 0.013382844358523802
 0.0016692891646641096 0.0133793375283582 -0.0014279727922228847 -0.008555915586136843 0.005778049827670234 0.02912872276139673 0.9928302639333434 -0.06845001028340869
 -0.0014284521957460682 -0.008555889202839114 0.0016430417976711527 0.013382844358523802 0.9928302639333434 -0.06845001028340869 0.005782104457258967 0.029128403187956294
0.1250521050438 0.006144521552700735 0.030805520153688783 0.9923470702870835 -0.0721771938014589 0.0018247032619525482 0.014086495363120781 -0.0015601172469587356 -0.009011471915820921
 0.9923470702870835 -0.0721771938014589 0.0061498833498286895 0.03080508355143787 -0.0015595875647277948 -0.009011503757019793 0.0017956023694702975 0.014090470732710607
 0.0018247032619525482 0.014086495363120781 -0.0015595875647277948 -0.009011503757019793 0.006145022645618643 0.03080709048049091 0.9923471511333793 -0.07217550467784067
 -0.0015601172469587356 -0.009011471915820921 0.0017956023694702975 0.014090470732710607 0.9923471511333793 -0.07217550467784067 0.006149514388418111 0.030806738438489197
0.131304710296 0.006526403797579672 0.03249672804720975 0.9918447438969562 -0.07591449224754053 0.001987574275036927 0.014793337770522155 -0.001698141703911146 -0.00946693821402298
 0.9918447438969562 -0.07591449224754053 0.006532314867114827 0.03249624666186964 -0.0016975593755864837 -0.009466976083855001 0.0019554708773186344 0.014797822267522498
 0.001987574275036927 0.014793337770522155 -0.0016975593755864837 -0.009466976083855001 0.006526955523406719 0.03249836792245275 0.991844833231202 -0.0759127162262603
 -0.001698141703911146 -0.00946693821402298 0.0019554708773186344 0.014797822267522498 0.991844833231202 -0.0759127162262603 0.00653190681058274 0.032497981520218266
0.1375573155481 0.006830925138386639 0.033980007813364174 0.9914155612515912 -0.07944264469711226 0.0021361199223189787 0.015477269883474875 -0.0018207838603429656 -0.009899679378300181
 0.9914155612515912 -0.07944264469711226 0.00683741334445662 0.03397948896764997 -0.0018201452793116981 -0.00989972325421801 0.0021009387089223957 0.015482253657788542
 0.0021361199223189787 0.015477269883474875 -0.0018201452793116981 -0.00989972325421801 0.006831529244937117 0.03398171633345136 0.9914156594628116 -0.07944078155453195
 -0.0018207838603429656 -0.009899679378300181 0.0021009387089223957 0.015482253657788542 0.9914156594628116 -0.07944078155453195 0.006836964916485368 0.03398130330509316
0.1438099208003 0.007145991140117385 0.03545630264337598 0.9909715982007669 -0.08296268753380895 0.002290670828613559 0.01615890288622896 -0.0019483432480105066 -0.010330324037904171
 0.9909715982007669 -0.08296268753380895 0.007153083531185766 0.035455744257512245 -0.001947645851272159 -0.010330374477008214 0.0022522759014591423 0.016164422734180135
 0.002290670828613559 0.01615890288622896 -0.001947645851272159 -0.010330374477008214 0.007146649867881976 0.03545807855400104 0.9909717057744777 -0.08296073690946694
 -0.0019483432480105066 -0.010330324037904171 0.0022522759014591423 0.016164422734180135 0.9909717057744777 -0.08296073690946694 0.007152592777141613 0.0354576376521023
0.1500625260525 0.0074715015634767845 0.03692551376376635 0.9905129582802494 -0.08647455828543735 0.0024511801533519772 0.016838182754038814 -0.0020807745584291992 -0.010758820889760181
 0.9905129582802494 -0.08647455828543735 0.007479225219678707 0.0369249136515261 -0.0020800157865001863 -0.010758878471476439 0.0024094363002491992 0.016844276808111326
 0.0024511801533519772 0.016838182754038814 -0.0020800157865001863 -0.010758878471476439 0.007472217131793018 0.03692735575988308 0.9905130757128925 -0.08647251980554559
 -0.0020807745584291992 -0.010758820889760181 0.0024094363002491992 0.016844276808111326 0.9905130757128925 -0.08647251980554559 0.007478690175508253 0.03692688566290351
0.15631513130469998 0.007807355585037322 0.03838754551351271 0.9900397454108406 -0.08997819422168633 0.002617600576413229 0.017515056261215745 -0.002218031993485136 -0.011185119633167219
