! Created with skrf 1.8.0 (http://scikit-rf.org).
# GHz S RI R 50.0 
!freq ReS11 ImS11 ReS12 ImS12 ReS13 ImS13
! ReS14 ImS14
! ReS21 ImS21 ReS22 ImS22 ReS23 ImS23
! ReS24 ImS24
! ReS31 ImS31 ReS32 ImS32 ReS33 ImS33
! ReS34 ImS34
! ReS41 ImS41 ReS42 ImS42 ReS43 ImS43
! ReS44 ImS44
!
0.0 0.001604918169853 0.0 0.9983950818301 0.0 6.189749160546e-05 0.0 -6.189749187182e-05 7.580256529607368e-21
 0.9983950818301 0.0 0.001604918169861 0.0 -6.189749187157e-05 7.58025652957675e-21 6.189749160496e-05 0.0
 6.189749160546e-05 0.0 -6.189749187157e-05 7.58025652957675e-21 0.001604918135752 0.0 0.9983950817961 0.0
 -6.189749187182e-05 7.580256529607368e-21 6.189749160496e-05 0.0 0.9983950817961 0.0 0.001604918135774 0.0
0.005 0.0017269297392170603 0.001314820288611019 0.9982407168981928 -0.003361588654466586 8.643348314012292e-05 0.0006695989568129027 -8.407570737172358e-05 -0.0004224164536095293
 0.9982407168981928 -0.003361588654466586 0.0017269153037886775 0.0013148287821779113 -8.407521267380311e-05 -0.00042241614854655435 8.651526397900988e-05 0.0006695677033709342
 8.643348314012292e-05 0.0006695989568129027 -8.407521267380311e-05 -0.00042241614854655435 0.0017269299689459607 0.0013148874818025805 0.9982407172630399 -0.003361521587606735
 -8.407570737172358e-05 -0.0004224164536095293 8.651526397900988e-05 0.0006695677033709342 0.9982407172630399 -0.003361521587606735 0.0017269157943036403 0.0013148957135789598
0.006252605252188 0.0017589863046342464 0.001648680335893347 0.9981999018412981 -0.004202798332986147 9.344867197215587e-05 0.0008373268675577019 -9.035752414426811e-05 -0.0005285605810242922
 0.9981999018412981 -0.004202798332986147 0.001758963739269118 0.0016486911584208752 -9.035675375853507e-05 -0.0005285602065409732 9.357644534520586e-05 0.0008372862957613908
 9.344867197215587e-05 0.0008373268675577019 -9.035675375853507e-05 -0.0005285602065409732 0.0017589865894042257 0.0016487643210752049 0.9981999023379297 -0.004202714508252355
 -9.035752414426811e-05 -0.0005285605810242922 9.357644534520586e-05 0.0008372862957613908 0.9981999023379297 -0.004202714508252355 0.0017589644326699082 0.0016487748025236502
0.01250521050438 0.0019280681196938891 0.0033317385503364933 0.9979831975797377 -0.008406327214751015 0.00013370896233028766 0.001675040634359902 -0.00012610732037871076 -0.00105963622459731
 0.9979831975797377 -0.008406327214751015 0.0019279780106805256 0.003331762283013137 -0.0001261042771220435 -0.0010596355518219945 0.00013421844832871044 0.001674943198426914
 0.00013370896233028766 0.001675040634359902 -0.0001261042771220435 -0.0010596355518219945 0.001928068677143258 0.0033319062809872907 0.997983198995378 -0.00840615980391555
 -0.00012610732037871076 -0.00105963622459731 0.00013421844832871044 0.001674943198426914 0.997983198995378 -0.00840615980391555 0.0019279802163222103 0.003331929187574896
0.01875781575657 0.0021125442652780257 0.005038600069761077 0.9977446912851529 -0.012620801581220016 0.00018277502172201425 0.0025136809751410538 -0.00016925889442081932 -0.0015924712278726028
 0.9977446912851529 -0.012620801581220016 0.002112341775055275 0.005038638975930747 -0.00016925209782107576 -0.0015924703509838899 0.00018391941927818007 0.002513507073405941
 0.00018277502172201425 0.0025136809751410538 -0.00016925209782107576 -0.0015924703509838899 0.002112545076917761 0.00503885143581883 0.997744694051965 -0.01262055062909111
 -0.00016925889442081932 -0.0015924712278726028 0.00018391941927818007 0.002513507073405941 0.997744694051965 -0.01262055062909111 0.0021123463231232102 0.005038888868970613
0.02501042100875 0.002312783512530559 0.006766866133291685 0.9974840939026398 -0.016848248646856162 0.0002407441445433982 0.003353271862428379 -0.0002199204864869582 -0.0021268191281322625
 0.9974840939026398 -0.016848248646856162 0.0023124238890565255 0.006766922638875097 -0.0002199084705979242 -0.002126818160595911 0.00024277667600321588 0.003352998699703564
 0.0002407441445433982 0.003353271862428379 -0.0002199084705979242 -0.002126818160595911 0.002312784536790007 0.006767201004547959 0.9974840984470561 -0.01684791415418993
 -0.0002199204864869582 -0.0021268191281322625 0.00024277667600321588 0.003352998699703564 0.9974840984470561 -0.01684791415418993 0.0023124316033534638 0.006767255209870358
0.03126302626094 0.0025291394192573434 0.008515294718288676 0.9972011020574466 -0.021089526944808333 0.0003077137228876056 0.00419376139952477 -0.00027819718189908753 -0.0026625029616518026
 0.9972011020574466 -0.021089526944808333 0.0025285779729712146 0.008515371409716387 -0.0002781784928747018 -0.0026625020364298875 0.00031088786620687986 0.004193362970559243
 0.0003077137228876056 0.00419376139952477 -0.0002781784928747018 -0.0026625020364298875 0.0025291406039196647 0.0085157129405249 0.9972011088142968 -0.02108910887204687
 -0.00027819718189908753 -0.0026625029616518026 0.00031088786620687986 0.004193362970559243 0.9972011088142968 -0.02108910887204687 0.0025285896828702195 0.008515786305430723
0.037515631513130004 0.002761957791013791 0.010283070247140598 0.996895405782243 -0.02534505655644236 0.00038378040595003895 0.0050350675153502875 -0.00034419163700958076 -0.003199369586408451
 0.996895405782243 -0.02534505655644236 0.002761149880066877 0.010283169870715725 -0.00034416483199448415 -0.0031993688560761064 0.00038834999521186487 0.005034514574585249
 0.00038378040595003895 0.0050350675153502875 -0.00034416483199448415 -0.0031993688560761064 0.0027619590661082374 0.01028357163746478 0.9968954151888643 -0.025344554828327932
 -0.00034419163700958076 -0.003199369586408451 0.00038834999521186487 0.005034514574585249 0.9968954151888643 -0.025344554828327932 0.002761166412337478 0.01028366669017056
0.043768236765320004 0.0030115795596502453 0.012069581359348889 0.9965666916618948 -0.029615041266459384 0.00046903969217050167 0.005877091864506474 -0.00041800433348230024 -0.003737275793451283
 0.9965666916618948 -0.029615041266459384 0.00301048057813099 0.012069706821113151 -0.0004179679799421027 -0.003737275430274521 0.0004752589620067595 0.005876351891670647
 0.00046903969217050167 0.005877091864506474 -0.0004179679799421027 -0.003737275430274521 0.003011580840327855 0.012070165690972641 0.996566704162693 -0.029614455787071996
 -0.00041800433348230024 -0.003737275793451283 0.0004752589620067595 0.005876351891670647 0.996566704162693 -0.029614455787071996 0.0030105027595946797 0.01207028509998807
0.050020842017509996 0.0032783421184355136 0.013874329044430903 0.9962146444354999 -0.03389956035534721 0.0005635856766572238 0.006719725572913081 -0.0004997336622833558 -0.004276082573604775
 0.9962146444354999 -0.03389956035534721 0.0032769074865417786 0.013874483410435422 -0.0004996863377049603 -0.004276082769602941 0.0005717092766786049 0.006718762736980741
 0.0005635856766572238 0.006719725572913081 -0.0004996863377049603 -0.004276082769602941 0.003278343301266455 0.013874996064304482 0.9962146604800765 -0.03389889099045163
 -0.0004997336622833558 -0.004276082573604775 0.0005717092766786049 0.006718762736980741 0.9962146604800765 -0.03389889099045163 0.0032769361394846216 0.013875142638432694
0.055454545454549996 0.0035243471618377283 0.015457183314514797 0.9958895098585842 -0.03763474227112716 0.0006533628244987674 0.007452404284487885 -0.0005772630502057728 -0.004744946491575349
 0.9958895098585842 -0.03763474227112716 0.0035225846487496894 0.01545736541388758 -0.0005772050438608375 -0.004744947344846554 0.0006633484714668452 0.007451216075684502
 0.0006533628244987674 0.007452404284487885 -0.0005772050438608375 -0.004744947344846554 0.003524348162706143 0.015457921951444827 0.9958895293543717 -0.037633999883954085
 -0.0005772630502057728 -0.004744946491575349 0.0006633484714668452 0.007451216075684502 0.9958895293543717 -0.037633999883954085 0.0035226195908914025 0.015458094523101784
0.056273447269699996 0.003562579997061436 0.015696881585577766 0.9958389479439552 -0.03819861358333857 0.0006675108661464589 0.007562852049668088 -0.0005894759322711039 -0.004815652321107533
 0.9958389479439552 -0.03819861358333857 0.0035607651519312627 0.015697068082476315 -0.0005894162239775511 -0.004815653288117643 0.0006777938572587786 0.007561627172158681
 0.0006675108661464589 0.007562852049668088 -0.0005894162239775511 -0.004815653288117643 0.003562580962038314 0.015697630994573178 0.9958389679903741 -0.03819786018012127
 -0.0005894759322711039 -0.004815652321107533 0.0006777938572587786 0.007561627172158681 0.9958389679903741 -0.03819786018012127 0.0035608010955747857 0.01569780768313183
0.06252605252188 0.0038646252193767373 0.017536849759622757 0.9954392857628703 -0.04251214592134765 0.0007809060265887 0.008406348552904504 -0.0006873253411287047 -0.005355847287412458
 0.9954392857628703 -0.04251214592134765 0.0038623856068916384 0.017537071775519008 -0.0006872518462579562 -0.005355849257134234 0.0007936038652684162 0.008404819071029745
 0.0007809060265887 0.008406348552904504 -0.0006872518462579562 -0.005355849257134234 0.0038646258272015794 0.017537681227763526 0.9954393102768833 -0.04251130829319661
 -0.0006873253411287047 -0.005355847287412458 0.0007936038652684162 0.008404819071029745 0.9954393102768833 -0.04251130829319661 0.0038624296536859336 0.017537891121211818
0.06877865777407 0.0041848074851319654 0.019393872068047192 0.9950153416645311 -0.04684006225571061 0.0009038600505893326 0.009250087114352825 -0.0007933739227967811 -0.005896528681051473
 0.9950153416645311 -0.04684006225571061 0.004182098551675712 0.019394133153671732 -0.0007932852483129948 -0.005896531905094629 0.000919228564772772 0.00924820704427534
 0.0009038600505893326 0.009250087114352825 -0.0007932852483129948 -0.005896531905094629 0.004184807577779174 0.01939478522335416 0.9950153711216954 -0.04683914019336141
 -0.0007933739227967811 -0.005896528681051473 0.000919228564772772 0.00924820704427534 0.9950153711216954 -0.04683914019336141 0.004182151507321317 0.019395031554102
0.07503126302626001 0.004523454247460768 0.02126760537174719 0.9945667999795691 -0.05118223669438792 0.0010364598351064018 0.010093935139411741 -0.0009077114820550369 -0.0064375560971160735
 0.9945667999795691 -0.05118223669438792 0.00452023143193306 0.021267909241921193 -0.0009076062447849031 -0.00643756084704404 0.0010547551934084718 0.010091655039822454
 0.0010364598351064018 0.010093935139411741 -0.0009076062447849031 -0.00643756084704404 0.004523453647052118 0.021268599804296122 0.994566834865699 -0.0511812299619531
 -0.0009077114820550369 -0.0064375560971160735 0.0010547551934084718 0.010091655039822454 0.994566834865699 -0.0511812299619531 0.004520294093795971 0.021268885947919376
0.08128386827845 0.004880890725529838 0.023157718660389157 0.9940933458972644 -0.05553851874441069 0.0011787901658594768 0.010937755810549272 -0.0010304255197947005 -0.006978787148865825
 0.9940933458972644 -0.05553851874441069 0.0048771094517024455 0.023158069195751665 -0.0010303023465926839 -0.006978793716224894 0.0012002688420221653 0.010935022746621538
 0.0011787901658594768 0.010937755810549272 -0.0010303023465926839 -0.006978793716224894 0.004880889233308073 0.023158793921948275 0.9940933867097259 -0.0555374270798672
 -0.0010304255197947005 -0.006978787148865825 0.0012002688420221653 0.010935022746621538 0.9940933867097259 -0.0555374270798672 0.004877182606822328 0.023159123398636353
0.08753647353064001 0.005257439871559897 0.025063888752914334 0.9935946657256712 -0.0599087375646109 0.0013309336064239094 0.011781408372876667 -0.0011616011519696985 -0.0075200772227805605
 0.9935946657256712 -0.0599087375646109 0.005253055540568905 0.025064290001898124 -0.0011614586798631811 -0.007520085919126814 0.0013558523395313642 0.01177816588083307
 0.0013309336064239094 0.011781408372876667 -0.0011614586798631811 -0.007520085919126814 0.00525743726750036 0.0250650443547936 0.9935947129739628 -0.05990756068202828
 -0.0011616011519696985 -0.0075200772227805605 0.0013558523395313642 0.01177816588083307 0.9935947129739628 -0.05990756068202828 0.005253139964475142 0.02506542083116583
0.09378907878283 0.005653422311081022 0.026985797212867285 0.9930704471267392 -0.06429270500972496 0.0014929703896709593 0.012624748347934008 -0.0013013210244584344 -0.008061279311319308
 0.9930704471267392 -0.06429270500972496 0.0056483902934365456 0.026986253394137436 -0.0013011579008057844 -0.008061290468246553 0.0015215861410221496 0.01262093640009017
 0.0014929703896709593 0.012624748347934008 -0.0013011579008057844 -0.008061290468246553 0.005653418352498461 0.026987032628876965 0.9930705013336449 -0.06429144259661551
 -0.0013013210244584344 -0.008061279311319308 0.0015215861410221496 0.01262093640009017 0.9930705013336449 -0.06429144259661551 0.005648486748292474 0.026987459920066594
0.100041684035 0.006069156257884726 0.0289231281068648 0.9925203793320795 -0.06869021783868792 0.0016649783116579097 0.013467627700253294 -0.0014496652242743052 -0.008602243898792758
 0.9925203793320795 -0.06869021783868792 0.006063431886163046 0.02892364361194085 -0.0014494801069911518 -0.008602257867941358 0.0016975482184713698 0.013463182670887846
 0.0016649783116579097 0.013467627700253294 -0.0014494801069911518 -0.008602257867941358 0.0060691506794733315 0.0289244427720639 0.9925204410350059 -0.0686888695574308
 -0.0014496652242743052 -0.008602243898792758 0.0016975482184713698 0.013463182670887846 0.9925204410350059 -0.0686888695574308 0.00606354111974066 0.028924924844172386
0.1059090909091 0.006477523512563701 0.030754853490375968 0.9919804142170672 -0.07282894375608957 0.0018355252128576323 0.014258026766889443 -0.0015967832688292903 -0.009109530331779598
 0.9919804142170672 -0.07282894375608957 0.006471108774733435 0.030755428815178145 -0.0015965763018110347 -0.009109547277582078 0.0018720396526782726 0.014252926556191281
 0.0018355252128576323 0.014258026766889443 -0.0015965763018110347 -0.009109547277582078 0.006477516151031237 0.030756241975105177 0.9919804834564784 -0.0728275145666393
 -0.0015967832688292903 -0.009109530331779598 0.0018720396526782726 0.014252926556191281 0.9919804834564784 -0.0728275145666393 0.00647123066509564 0.03075677919734367
0.1062942892872 0.006504957416123511 0.030875566310392948 0.9919441533473131 -0.07310105938234923 0.0018470326262580885 0.014309894968021653 -0.0016067111887284441 -0.009142818889484441
 0.9919441533473131 -0.07310105938234923 0.006498495977100125 0.030876145706627625 -0.0016065027464721125 -0.0091428360425554 0.0018838139530895916 0.014304749599847844
 0.0018470326262580885 0.014309894968021653 -0.0016065027464721125 -0.0091428360425554 0.006504949928071468 0.030876959622461793 0.9919442230987788 -0.0730996248691604
 -0.0016067111887284441 -0.009142818889484441 0.0018838139530895916 0.014304749599847844 0.9919442230987788 -0.0730996248691604 0.0064986187204967 0.030877500595351097
0.11254689453939999 0.00696113886736554 0.032842796222619486 0.9913414621465261 -0.07752500080979427 0.0020392059413899643 0.015151395376264047 -0.0017725336123731617 -0.00968284955941407
 0.9913414621465261 -0.07752500080979427 0.006953895594510231 0.03284344425653159 -0.0017723005248041785 -0.009682870288164275 0.00208045602896432 0.015145478747771725
 0.0020392059413899643 0.015151395376264047 -0.0017723005248041785 -0.009682870288164275 0.006961129155401115 0.032844267538825446 0.9913415405157356 -0.0775234796781591
 -0.0017725336123731617 -0.00968284955941407 0.00208045602896432 0.015145478747771725 0.9913415405157356 -0.0775234796781591 0.006954032561262199 0.032844871689202935
0.11879949979160001 0.007438010950132129 0.034824500766763904 0.9907120008612322 -0.08196180211663444 0.002241568115735267 0.015991970933638563 -0.0019472043527255485 -0.010222178530952588
 0.9907120008612322 -0.08196180211663444 0.0074299410160645315 0.034825222367713966 -0.0019469453107149293 -0.010222203247199859 0.0022875443276986047 0.01598520842730148
 0.002241568115735267 0.015991970933638563 -0.0019469453107149293 -0.010222203247199859 0.007437998674148556 0.03482604940680978 0.9907120884346687 -0.08196019395479243
 -0.0019472043527255485 -0.010222178530952588 0.0022875443276986047 0.01598520842730148 0.9907120884346687 -0.08196019395479243 0.007430092899951838 0.034826721171765454
0.1250521050438 0.007935881130607714 0.036820360601715056 0.9900554669637229 -0.08641121290981647 0.002454186156067999 0.01683146051940976 -0.0021307923349009805 -0.01076064576389322
 0.9900554669637229 -0.08641121290981647 0.00792693963941513 0.0368211608858851 -0.002130506040838565 -0.010760674899492563 0.0025051458239396633 0.016823773790676386
 0.002454186156067999 0.01683146051940976 -0.002130506040838565 -0.010760674899492563 0.007935865924032197 0.03682198584935592 0.990055564346579 -0.086409517279705
 -0.0021307923349009805 -0.01076064576389322 0.0025051458239396633 0.016823773790676386 0.990055564346579 -0.086409517279705 0.007927107113152476 0.036822729830195425
0.131304710296 0.00845505386799314 0.03883005350040935 0.9893715604482498 -0.09087297303373687 0.002677124115277772 0.017669699964503044 -0.00232336345555959 -0.011298088558997233
 0.9893715604482498 -0.09087297303373687 0.008445195847476437 0.03883093777521257 -0.002323048623588612 -0.01129812256583084 0.002733324481366432 0.017661006911871068
 0.002677124115277772 0.017669699964503044 -0.002323048623588612 -0.01129812256583084 0.008455035336770212 0.03883175460011628 0.9893716682651432 -0.09087118947480996
 -0.00232336345555959 -0.011298088558997233 0.002733324481366432 0.017661006911871068 0.9893716682651432 -0.09087118947480996 0.00844537956087013 0.038832575566585203
0.1375573155481 0.008878950042070169 0.040592083105950506 0.9887769154309366 -0.09508550063841957 0.002882524310380479 0.018480779316671827 -0.0024970034052634333 -0.011808663750902244
 0.9887769154309366 -0.09508550063841957 0.008868128015294404 0.040593037386400466 -0.002496658340077728 -0.011808702691629584 0.0029440978462365146 0.018471090122110463
 0.002882524310380479 0.018480779316671827 -0.002496658340077728 -0.011808702691629584 0.008878928883092323 0.04059385894714736 0.9887770341724442 -0.09508362886795953
 -0.0024970034052634333 -0.011808663750902244 0.0029440978462365146 0.018471090122110463 0.9887770341724442 -0.09508362886795953 0.008868327760659222 0.04059474335167384
0.1438099208003 0.009317843533803974 0.042344480159261455 0.9881612218530851 -0.09928698109721214 0.003096194473465855 0.019288368571729463 -0.0026775699935676326 -0.012315990340867082
 0.9881612218530851 -0.09928698109721214 0.00930601207477938 0.04234550852893537 -0.00267719335223062 -0.01231603465576814 0.0031633757639862856 0.019277607865871113
 0.003096194473465855 0.019288368571729463 -0.00267719335223062 -0.01231603465576814 0.009317819511098403 0.04234632989178121 0.9881613521445157 -0.09928502066207975
 -0.0026775699935676326 -0.012315990340867082 0.0031633757639862856 0.019277607865871113 0.9881613521445157 -0.09928502066207975 0.00930622831341472 0.04234728137477871
0.1500625260525 0.009771574976311129 0.04408708722988844 0.987524643486265 -0.1034772987752475 0.003318056972227787 0.02009237901842907 -0.002864986784319924 -0.01281998310750147
 0.987524643486265 -0.1034772987752475 0.00975868857869425 0.04408819399671664 -0.0028645772301274484 -0.012820033254072157 0.0033910790761202997 0.02008046868761888
 0.003318056972227787 0.02009237901842907 -0.0028645772301274484 -0.012820033254072157 0.009771547840553077 0.04408900996958112 0.9875247859699764 -0.10347524920439943
 -0.002864986784319924 -0.01281998310750147 0.0033910790761202997 0.02008046868761888 0.9875247859699764 -0.10347524920439943 0.00975892173974055 0.04409003238236671
0.15631513130469998 0.010239983813039276 0.04581975159460027 0.9868673450011753 -0.10765633868555059 0.00354803322167289 0.020892723541837997 -0.003059176365104922 -0.013320558689927797
 0.9868673450011753 -0.10765633868555059 0.010225996887925921 0.045820941295204275 -0.00305873256777949 -0.013320615142707416 0.0036271276456379432 0.020879582759300474
