! Created with skrf 1.8.0 (http://scikit-rf.org).
# GHz S RI R 50.0 
!freq ReS11 ImS11 ReS12 ImS12 ReS13 ImS13
! ReS14 ImS14
! ReS21 ImS21 ReS22 ImS22 ReS23 ImS23
! ReS24 ImS24
! ReS31 ImS31 ReS32 ImS32 ReS33 ImS33
! ReS34 ImS34
! ReS41 ImS41 ReS42 ImS42 ReS43 ImS43
! ReS44 ImS44
!
0.0 0.001576061324804 0.0 0.9984239386741 0.0 6.073972546448e-05 0.0 -6.073972333513e-05 7.438470776346275e-21
 0.9984239386741 0.0 0.001576061324815 0.0 -6.073972333493e-05 7.438470776321782e-21 6.073972546884e-05 0.0
 6.073972546448e-05 0.0 -6.073972333493e-05 7.438470776321782e-21 0.001576061323371 0.0 0.9984239386726 0.0
 -6.073972333513e-05 7.438470776346275e-21 6.073972546884e-05 0.0 0.9984239386726 0.0 0.001576061323393 0.0
0.005 0.001695777695083277 0.0012912335415456546 0.9982724706446292 -0.0033012436189462043 8.486825011513599e-05 0.0006572027071671129 -8.246543427578095e-05 -0.0004146051826621064
 0.9982724706446292 -0.0033012436189462043 0.0016957967524946914 0.0012912223680917711 -8.246594713602308e-05 -0.0004146055026580062 8.475541336125721e-05 0.0006572457315413895
 8.486825011513599e-05 0.0006572027071671129 -8.246594713602308e-05 -0.0004146055026580062 0.0016957781768929328 0.0012913004644881042 0.9982724710144557 -0.0033011765699642068
 -8.246543427578095e-05 -0.0004146051826621064 8.475541336125721e-05 0.0006572457315413895 0.9982724710144557 -0.0033011765699642068 0.0016957970016038915 0.0012912895347054205
0.006252605252188 0.0017272009276827894 0.00161910829004581 0.998232457714397 -0.004127356516546681 9.17798721384411e-05 0.0008218252174489752 -8.860751595809981e-05 -0.0005187880330009735
 0.998232457714397 -0.004127356516546681 0.0017272307181322322 0.001619094075059675 -8.860831459389431e-05 -0.0005187884259471663 9.160357601606214e-05 0.0008218810792300092
 9.17798721384411e-05 0.0008218252174489752 -8.860831459389431e-05 -0.0005187884259471663 0.001727201599389935 0.0016191919319112858 0.998232458210822 -0.004127272706326253
 -8.860751595809981e-05 -0.0005187880330009735 9.160357601606214e-05 0.0008218810792300092 0.998232458210822 -0.004127272706326253 0.0017272310251507828 0.001619178035020408
0.01250521050438 0.0018927667603258452 0.0032720188958197277 0.9980202189522204 -0.0082554733412037 0.00013151221447518622 0.0016440273243930005 -0.000123500232712015 -0.00104006104243003
 0.9980202189522204 -0.0082554733412037 0.0018928857192889634 0.003271987950515864 -0.00012350338724183497 -0.001040061749931365 0.00013080920785614878 0.0016441615415537666
 0.00013151221447518622 0.0016440273243930005 -0.00012350338724183497 -0.001040061749931365 0.0018927688678925237 0.0032721858318016323 0.9980202203553044 -0.008255305930363015
 -0.000123500232712015 -0.00104006104243003 0.00013080920785614878 0.0016441615415537666 0.9980202203553044 -0.008255305930363015 0.0018928863543191874 0.003272155664021142
0.01875781575657 0.0020731267067083878 0.0049483531590003614 0.9977869540467298 -0.012394388021190932 0.00018002937890536944 0.0024671356014528923 -0.00016552614577662597 -0.0015630804976399589
 0.9977869540467298 -0.012394388021190932 0.0020733940249224236 0.004948302762302482 -0.00016553319046435996 -0.0015630814232255022 0.00017845020334030363 0.0024673751571924565
 0.00018002937890536944 0.0024671356014528923 -0.00016553319046435996 -0.0015630814232255022 0.0020731310267451076 0.004948603109528074 0.9977869567770887 -0.012394137075209375
 -0.00016552614577662597 -0.0015630804976399589 0.00017845020334030363 0.0024673751571924565 0.9977869567770887 -0.012394137075209375 0.0020733950036280735 0.004948554107742497
0.02501042100875 0.0022686373941049253 0.006645761625328913 0.9975323838798297 -0.01654609758890209 0.00023742551712569774 0.003291173267207772 -0.0002147899635173594 -0.0020876079233108223
 0.9975323838798297 -0.01654609758890209 0.002269112150210032 0.006645688869331903 -0.00021480241747195286 -0.0020876089510522963 0.00023462061852146915 0.0032915494794413867
 0.00023742551712569774 0.003291173267207772 -0.00021480241747195286 -0.0020876089510522963 0.002268644704403459 0.006646094293836753 0.9975323883591745 -0.016545763113807496
 -0.0002147899635173594 -0.0020876079233108223 0.00023462061852146915 0.0032915494794413867 0.9975323883591745 -0.016545763113807496 0.0022691134727172613 0.0066460237253210775
0.03126302626094 0.002479640714478828 0.008363031015657085 0.9972562153216525 -0.020711451568427363 0.00030379520677668257 0.004116089130179725 -0.00027139339780483295 -0.002613473177778045
 0.9972562153216525 -0.020711451568427363 0.002480381906428653 0.00836293280893176 -0.0002714127675636006 -0.0026134741720700667 0.0002994146128126753 0.0041166376757118955
 0.00030379520677668257 0.004116089130179725 -0.0002714127675636006 -0.0026134741720700667 0.002479651793671451 0.008363446069091974 0.9972562219742354 -0.020711033529819126
 -0.00027139339780483295 -0.002613473177778045 0.0002994146128126753 0.0041166376757118955 0.9972562219742354 -0.020711033529819126 0.0024803835573160436 0.008363351035203342
0.037515631513130004 0.0027064710994831086 0.010099367055476358 0.9969581487459593 -0.0248908690843703 0.0003792324847964031 0.004941802436675766 -0.0003354358730109173 -0.0031405296031824926
 0.9969581487459593 -0.0248908690843703 0.002707537665489298 0.010099240124488611 -0.00033546365373619596 -0.0031405304086325097 0.000372925662505308 0.004942563393882245
 0.0003792324847964031 0.004941802436675766 -0.00033546365373619596 -0.0031405304086325097 0.002706486727820014 0.010099864113522856 0.996958158001632 -0.02489036741774817
 -0.0003354358730109173 -0.0031405296031824926 0.000372925662505308 0.004942563393882245 0.996958158001632 -0.02489036741774817 0.0027075396153387016 0.010099741551383242
0.043768236765320004 0.0029494583336313693 0.011854176215984218 0.9966378810865224 -0.029084557049053876 0.00046383039091084616 0.0057682165070805196 -0.000407014774558117 -0.0036686403925040058
 0.9966378810865224 -0.029084557049053876 0.0029509091680503395 0.011854017105655168 -0.00040705245070349073 -0.003668640833845671 0.00045524618111864463 0.005769234404263144
 0.00046383039091084616 0.0057682165070805196 -0.00040705245070349073 -0.003668640833845671 0.0029494792890292325 0.011854754844877819 0.9966378933785642 -0.029083971665641452
 -0.000407014774558117 -0.0036686403925040058 0.00045524618111864463 0.005769234404263144 0.9966378933785642 -0.029083971665641452 0.0029509113702261562 0.011854601528327489
0.050020842017509996 0.0032089288546099776 0.013626975504839807 0.9962951073861726 -0.0332926002984509 0.0005576806921169169 0.006595224371356028 -0.00048622553224118126 -0.004197672961085932
 0.9962951073861726 -0.0332926002984509 0.0032108228224502684 0.013626780578606994 -0.00048627457790956675 -0.00419767284311099 0.0005464672851107959 0.006596548237448684
 0.0005576806921169169 0.006595224371356028 -0.00048627457790956675 -0.00419767284311099 0.003208955913185345 0.013627635224579809 0.9962951231541265 -0.033291931077509
 -0.00048622553224118126 -0.004197672961085932 0.0005464672851107959 0.006596548237448684 0.9962951231541265 -0.033291931077509 0.003210825214251751 0.013627447764501043
0.055454545454549996 0.0034480545508812064 0.015181877187543297 0.9959787114085035 -0.036961182483183294 0.0006468236911980195 0.0073143127355601405 -0.0005613327376799833 -0.004658065050589782
 0.9959787114085035 -0.036961182483183294 0.0034503814072864383 0.015181648041647847 -0.000561392853108841 -0.0046580642724871665 0.0006330392140995486 0.007315945849655406
 0.0006468236911980195 0.0073143127355601405 -0.000561392853108841 -0.0046580642724871665 0.0034480875414140597 0.015182606939779696 0.9959787305594068 -0.03696044029387717
 -0.0005613327376799833 -0.004658065050589782 0.0006330392140995486 0.007315945849655406 0.9959787305594068 -0.03696044029387717 0.0034503838998169085 0.015182386929002362
0.056273447269699996 0.0034852064183450333 0.01541734822122971 0.9959295217142959 -0.03751500576512965 0.000660873683604644 0.007422711537500352 -0.0005731616335055546 -0.00472749618929567
 0.9959295217142959 -0.03751500576512965 0.0034876023678053892 0.015417113660672246 -0.000573223512695909 -0.004727495296796719 0.0006466786190688076 0.007424394953701747
 0.000660873683604644 0.007422711537500352 -0.000573223512695909 -0.004727495296796719 0.003485240353439587 0.015418088492577274 0.9959295414047932 -0.03751425256658283
 -0.0005731616335055546 -0.00472749618929567 0.0006466786190688076 0.007424394953701747 0.9959295414047932 -0.03751425256658283 0.0034876048696784283 0.015417863336874326
0.06252605252188 0.0037786124528216966 0.017224919592588758 0.9955408177772297 -0.04175172677272969 0.0007734980315633907 0.008250557514026183 -0.000667914596672348 -0.0052579789155402885
 0.9955408177772297 -0.04175172677272969 0.003781569227369771 0.017224641396612665 -0.0006679907633130145 -0.005257977013255983 0.0007559682154042434 0.008252658665767564
 0.0007734980315633907 0.008250557514026183 -0.0006679907633130145 -0.005257977013255983 0.003778654033159982 0.017225739826811807 0.9955408418444918 -0.04175088942712697
 -0.000667914596672348 -0.0052579789155402885 0.0007559682154042434 0.008252658665767564 0.9955408418444918 -0.04175088942712697 0.0037815717421117202 0.017225473259926505
0.06877865777407 0.00408946623935155 0.01904934227856502 0.9951286893610032 -0.04600267746741326 0.0008956406375489668 0.00907863672347869 -0.0007705739234669241 -0.005788989042935326
 0.9951286893610032 -0.04600267746741326 0.004093042689408009 0.019049016262304208 -0.0007706658213977238 -0.005788985875505341 0.000874422370034329 0.009081218452356495
 0.0008956406375489668 0.00907863672347869 -0.0007706658213977238 -0.005788985875505341 0.004089516227411012 0.01905024182894596 0.9951287182675108 -0.046001755784182835
 -0.0007705739234669241 -0.005788989042935326 0.000874422370034329 0.009081218452356495 0.9951287182675108 -0.046001755784182835 0.004093045101297452 0.01904992997093073
0.07503126302626001 0.004418084992919327 0.020890287164824693 0.9946928306769279 -0.050267741964420146 0.0010273865153059808 0.009906819088149227 -0.0008812270386157004 -0.0063203929787361045
 0.9946928306769279 -0.050267741964420146 0.0044223399874497105 0.02088990895803498 -0.0008813361016301248 -0.00632038827065106 0.0010021255279617151 0.009909948943561592
 0.0010273865153059808 0.009906819088149227 -0.0008813361016301248 -0.00632038827065106 0.004418144144580481 0.02089126533292373 0.9946928648946644 -0.05026673572529922
 -0.0008812270386157004 -0.0063203929787361045 0.0010021255279617151 0.009909948943561592 0.9946928648946644 -0.05026673572529922 0.004422342161666433 0.02089090413822962
0.08128386827845 0.004764783879588567 0.022747437252523428 0.994232936647858 -0.05454678040396959 0.0011688186761877953 0.010734970423886596 -0.0009999592203631797 -0.00685205527081396
 0.994232936647858 -0.05454678040396959 0.004769776316930694 0.022747002297680653 -0.0010000868719938247 -0.006852048726382827 0.0011391601755669203 0.010738720714209062
 0.0011688186761877953 0.010734970423886596 -0.0010000868719938247 -0.006852048726382827 0.004764852942176321 0.022748493281483484 0.994232976659374 -0.0545456893695902
 -0.0009999592203631797 -0.00685205527081396 0.0011391601755669203 0.010738720714209062 0.994232976659374 -0.0545456893695902 0.00476977809932091 0.022748078537243054
0.08753647353064001 0.005129875990993396 0.024620483421897554 0.9937487031562251 -0.05883963313914819 0.0013200180197776524 0.011562952717997245 -0.0011268535248112608 -0.007383838365332333
 0.9937487031562251 -0.05883963313914819 0.00513566481040224 0.024619986971803075 -0.001127001178271412 -0.0073838296686511195 0.0012856067367726623 0.011567400561219155
 0.0013200180197776524 0.011562952717997245 -0.001127001178271412 -0.0073838296686511195 0.005129955702041506 0.02462161650222367 0.9937487494551076 -0.058838457043076456
 -0.0011268535248112608 -0.007383838365332333 0.0012856067367726623 0.011567400561219155 0.9937487494551076 -0.058838457043076456 0.005135666026068985 0.02462114382616892
0.09378907878283 0.005513672289805391 0.026509121419474774 0.9932398272658362 -0.06314612370575787 0.0014810632276380654 0.012390624340294715 -0.0012619907065313843 -0.00791560243684088
 0.9932398272658362 -0.06314612370575787 0.00552031648226515 0.026508558534534207 -0.001262159764521006 -0.00791559125176387 0.0014415434712452967 0.012395851713897383
 0.0014810632276380654 0.012390624340294715 -0.001262159764521006 -0.00791559125176387 0.005513763375588846 0.026510330681563745 0.9932398803579564 -0.0631448622619753
 -0.0012619907065313843 -0.00791560243684088 0.0014415434712452967 0.012395851713897383 0.9932398803579564 -0.0631448622619753 0.005520316935239355 0.026509795519495345
0.100041684035 0.00591648153418656 0.028413049636853403 0.9927060074272093 -0.06746606100730433 0.0016520306598735758 0.013217840199298413 -0.0014054491352378045 -0.008447205278770133
 0.9927060074272093 -0.06746606100730433 0.0059240401536817915 0.028412415181900113 -0.0014056409897775912 -0.008447191248885327 0.0016070463752420655 0.013223933989394946
 0.0016520306598735758 0.013217840199298413 -0.0014056409897775912 -0.008447191248885327 0.0059165847085104325 0.028414334156313597 0.9927060678315892 -0.06746471390479136
 -0.0014054491352378045 -0.008447205278770133 0.0016070463752420655 0.013223933989394946 0.9927060678315892 -0.06746471390479136 0.005924039626053992 0.028413731779173893
0.1059090909091 0.006312040376792493 0.030213322822800145 0.9921821206491245 -0.07153191198825283 0.001821555509677553 0.013993547864988262 -0.0015477053814015168 -0.008945782691346585
 0.9921821206491245 -0.07153191198825283 0.0063205108639802715 0.030212616359168564 -0.0015479198844233963 -0.008945765649698465 0.0017711192466971267 0.014000538132062795
 0.001821555509677553 0.013993547864988262 -0.0015479198844233963 -0.008945765649698465 0.006312155531642338 0.03021467707382436 0.9921821883996528 -0.07153048419900361
 -0.0015477053814015168 -0.008945782691346585 0.0017711192466971267 0.014000538132062795 0.9921821883996528 -0.07153048419900361 0.00632050919772879 0.030214007162707644
0.1062942892872 0.006338610185945847 0.03033196745486452 0.9921469436695973 -0.07179924094083041 0.0018329942531018649 0.014044451873093595 -0.0015573047106223743 -0.008978502225033852
 0.9921469436695973 -0.07179924094083041 0.006347142360660046 0.03033125609549589 -0.0015575207428472325 -0.008978484973656596 0.0017821890828652715 0.014051503922742866
 0.0018329942531018649 0.014044451873093595 -0.0015575207428472325 -0.008978484973656596 0.006338726148561704 0.030333326252936072 0.9921470119191306 -0.07179780784323844
 -0.0015573047106223743 -0.008978502225033852 0.0017821890828652715 0.014051503922742866 0.9921470119191306 -0.07179780784323844 0.006347140611808201 0.030332651753411828
0.11254689453939999 0.0067803623079998486 0.032265573981881 0.9915623377850085 -0.07614544763549663 0.002024025419795686 0.014870307716298846 -0.0017176307750778744 -0.009509346101466701
 0.9915623377850085 -0.07614544763549663 0.0067899272513649534 0.03226478018041366 -0.0017178723550302292 -0.009509325231620642 0.0019670427685620972 0.014878414872828363
 0.002024025419795686 0.014870307716298846 -0.0017178723550302292 -0.009509325231620642 0.0067804917430710826 0.032267006019738594 0.9915624144276258 -0.07614392818696065
 -0.0017176307750778744 -0.009509346101466701 0.0019670427685620972 0.014878414872828363 0.9915624144276258 -0.07614392818696065 0.006789924017078667 0.03226625430835289
0.11879949979160001 0.007242039451554176 0.03421356705921609 0.9909518935064522 -0.08050445443104504 0.0022251929484057124 0.015695252952471674 -0.0018864980251289438 -0.010039587197771122
 0.9909518935064522 -0.08050445443104504 0.007252696473561818 0.03421268507017092 -0.0018867665114917344 -0.010039562292203378 0.0021616760502763312 0.015704517113820045
 0.0022251929484057124 0.015695252952471674 -0.0018867665114917344 -0.010039562292203378 0.007242183026337721 0.03421507124495842 0.990951979105885 -0.0805028482493854
 -0.0018864980251289438 -0.010039587197771122 0.0021616760502763312 0.015704517113820045 0.990951979105885 -0.0805028482493854 0.007252691465402138 0.034214237045762
0.1250521050438 0.007723940535955006 0.03617564249537595 0.9903153166799886 -0.08487602463457182 0.002436562904550047 0.016519129757423468 -0.0020639744216121953 -0.010569073254682445
 0.9903153166799886 -0.08487602463457182 0.007735749054306632 0.03617466636044931 -0.0020642711615161896 -0.010569043875832554 0.0023661548929972613 0.016529657917465197
 0.002436562904550047 0.016519129757423468 -0.0020642711615161896 -0.010569043875832554 0.007724098899273476 0.036177217679099365 0.9903154118171751 -0.08487433131640297
 -0.0020639744216121953 -0.010569073254682445 0.0023661548929972613 0.016529657917465197 0.9903154118171751 -0.08487433131640297 0.007735741958830886 0.036176295524843034
0.131304710296 0.008226361723314216 0.03815149344608102 0.9896523154362159 -0.08925991213882561 0.0026581985325384756 0.017341777336477075 -0.0022501250993007278 -0.011097649463404106
 0.9896523154362159 -0.08925991213882561 0.008239381274869893 0.03815041698866257 -0.002250451428045527 -0.011097615153479203 0.0025805425128979354 0.01735368162916711
 0.0026581985325384756 0.017341777336477075 -0.002250451428045527 -0.011097615153479203 0.008226535504014029 0.03815313842277882 0.9896524207097777 -0.08925813125709096
 -0.0022501250993007278 -0.011097649463404106 0.0025805425128979354 0.01735368162916711 0.9896524207097777 -0.08925813125709096 0.008239371752432471 0.03815212264961917
0.1375573155481 0.008635428797317237 0.03988394075416209 0.9890768129579673 -0.09339887949294004 0.0028627975845026583 0.018137727210952293 -0.0024177402977842 -0.011599801753767616
 0.9890768129579673 -0.09339887949294004 0.00864972239606504 0.039882780828556515 -0.002418097983404637 -0.011599762454767239 0.002777712960807537 0.01815099253971647
 0.0028627975845026583 0.018137727210952293 -0.002418097983404637 -0.011599762454767239 0.0086356177715348 0.03988565492250302 0.9890769288420659 -0.09339701078928386
 -0.0024177402977842 -0.011599801753767616 0.002777712960807537 0.01815099253971647 0.9890769288420659 -0.09339701078928386 0.008649711176242277 0.039884561936924114
0.1438099208003 0.009058930323413884 0.041607075352488684 0.9884809892278202 -0.09752714640721713 0.003075657481408796 0.018930240324732735 -0.0025920453629517145 -0.012098843851835576
 0.9884809892278202 -0.09752714640721713 0.009074558162468452 0.041605827195593886 -0.0025924358019835977 -0.012098799117887308 0.0029828191631767025 0.01894496948626364
 0.003075657481408796 0.018930240324732735 -0.0025924358019835977 -0.012098799117887308 0.009059134936833508 0.0416088575105841 0.9884811163215259 -0.09752518946183017
 -0.0025920453629517145 -0.012098843851835576 0.0029828191631767025 0.01894496948626364 0.9884811163215259 -0.09752518946183017 0.009074545062070822 0.04160768296928051
0.1500625260525 0.009496714160222429 0.04332074730116189 0.9878650006062901 -0.1016446038807531 0.003296702650473939 0.01971922883042768 -0.002772967683227782 -0.012594694617626485
 0.9878650006062901 -0.1016446038807531 0.00951373655863789 0.043319405879180525 -0.002773392266146099 -0.012594643985339814 0.0031957875578099387 0.019735528373996593
 0.003296702650473939 0.01971922883042768 -0.002773392266146099 -0.012594643985339814 0.009496934828857082 0.04332259620042444 0.9878651395236677 -0.1016425582596277
 -0.002772967683227782 -0.012594694617626485 0.0031957875578099387 0.019735528373996593 0.9878651395236677 -0.1016425582596277 0.009513721382241 0.04332133550223103
0.15631513130469998 0.009948627053360951 0.04502481116958019 0.9872290042845614 -0.10575114343735659 0.003525856594648919 0.020504606408847444 -0.002960433730518354 -0.013087274664338068
