! Created with skrf 1.8.0 (http://scikit-rf.org).
# GHz S RI R 50.0 
!freq ReS11 ImS11 ReS12 ImS12 ReS13 ImS13
! ReS14 ImS14
! ReS21 ImS21 ReS22 ImS22 ReS23 ImS23
! ReS24 ImS24
! ReS31 ImS31 ReS32 ImS32 ReS33 ImS33
! ReS34 ImS34
! ReS41 ImS41 ReS42 ImS42 ReS43 ImS43
! ReS44 ImS44
!
0.0 0.001460412586559 0.0 0.9985395873879 0.0 5.569743498892e-05 0.0 -5.569743481202e-05 6.820968526325866e-21
 0.9985395873879 0.0 0.001460412586513 0.0 -5.569743481055e-05 6.820968526145843e-21 5.569743498896e-05 0.0
 5.569743498892e-05 0.0 -5.569743481055e-05 6.820968526145843e-21 0.001460412586532 0.0 0.9985395873879 0.0
 -5.569743481202e-05 6.820968526325866e-21 5.569743498896e-05 0.0 0.9985395873879 0.0 0.001460412586555 0.0
0.005 0.0015709430666296905 0.0012041258806482894 0.9983998263485441 -0.0030589552060368125 7.648069542763913e-05 0.0005581177421798386 -7.464439836015126e-05 -0.00036006260203240675
 0.9983998263485441 -0.0030589552060368125 0.0015709562600872908 0.0012041181515234747 -7.464513193787274e-05 -0.00036006309707573855 7.641006786821625e-05 0.0005581447787935854
 7.648069542763913e-05 0.0005581177421798386 -7.464513193787274e-05 -0.00036006309707573855 0.001570943406127285 0.00120419290041059 0.9983998266945279 -0.0030588881384865075
 -7.464439836015126e-05 -0.00036006260203240675 7.641006786821625e-05 0.0005581447787935854 0.9983998266945279 -0.0030588881384865075 0.0015709566108517746 0.0012041852665117781
0.006252605252188 0.001599859690284876 0.0015098611433491025 0.9983630478077572 -0.0038244490373968575 8.237052347111911e-05 0.000697948093713334 -7.99502348832236e-05 -0.0004505348573279272
 0.9983630478077572 -0.0038244490373968575 0.0015998803137166873 0.0015098512717882306 -7.995137693686225e-05 -0.00045053546630153586 8.226017570488445e-05 0.0006979831648723769
 8.237052347111911e-05 0.000697948093713334 -7.995137693686225e-05 -0.00045053546630153586 0.0015998601524250939 0.0015099448952800134 0.9983630482796396 -0.0038243652189737117
 -7.99502348832236e-05 -0.0004505348573279272 8.226017570488445e-05 0.0006979831648723769 0.9983630482796396 -0.0038243652189737117 0.0015998807926077923 0.0015099351555966055
0.01250521050438 0.0017516628849342307 0.0030511150002810582 0.9981687762329838 -0.00764972114846939 0.0001158952041081391 0.0013964481299356365 -0.00010982066422337818 -0.0009032435428413625
 0.9981687762329838 -0.00764972114846939 0.0017517452349566373 0.0030510931169776025 -0.00010982517175171897 -0.0009032446526405265 0.00011545520737513807 0.0013965320064055465
 0.0001158952041081391 0.0013964481299356365 -0.00010982517175171897 -0.0009032446526405265 0.001751664179943838 0.0030512821860193043 0.9981687775595052 -0.0076495537587056555
 -0.00010982066422337818 -0.0009032435428413625 0.00011545520737513807 0.0013965320064055465 0.9981687775595052 -0.0076495537587056555 0.0017517465809978637 0.00305126069722449
0.01875781575657 0.0019161389589397587 0.004614177408991538 0.9979565415054006 -0.011485131226019274 0.0001563479932711493 0.002095912639954717 -0.0001453962908009551 -0.0013575596524801118
 0.9979565415054006 -0.011485131226019274 0.0019163240069616026 0.004614141188545893 -0.0001454063523387439 -0.0013575611326302269 0.00015535969067544917 0.0020960616753163074
 0.0001563479932711493 0.002095912639954717 -0.0001454063523387439 -0.0013575611326302269 0.0019161414594585163 0.004614427845616067 0.9979565440621996 -0.011484880366646076
 -0.0001453962908009551 -0.0013575596524801118 0.00015535969067544917 0.0020960616753163074 0.9979565440621996 -0.011484880366646076 0.0019163265906117612 0.004614392421450911
0.02501042100875 0.00209359610941305 0.0061968970029540205 0.9977261036672358 -0.015332552419906598 0.00020380641720709792 0.002796363889850752 -0.00018676239069473108 -0.0018133025603561785
 0.9977261036672358 -0.015332552419906598 0.002093924744799317 0.006196843945170007 -0.0001867801719170446 -0.001813304256013495 0.00020205112105930193 0.0027965969521072673
 0.00020380641720709792 0.002796363889850752 -0.0001867801719170446 -0.001813304256013495 0.0020936001985230055 0.006197230544694202 0.9977261078324372 -0.015332218144763677
 -0.00018676239069473108 -0.0018133025603561785 0.00020205112105930193 0.0027965969521072673 0.9977261078324372 -0.015332218144763677 0.0020939289284630544 0.0061971788334011894
0.03126302626094 0.0022843297844927554 0.007798174904521933 0.9974772099809399 -0.01919279641373047 0.00025834843031515497 0.003497766846353544 -0.00023400218504769567 -0.002270344401131688
 0.9974772099809399 -0.01919279641373047 0.0022848428337527713 0.007798102335806279 -0.00023402983272097526 -0.002270346132786149 0.0002556072096875753 0.003498105329844436
 0.00025834843031515497 0.003497766846353544 -0.00023402983272097526 -0.002270346132786149 0.002284335852861858 0.007798591396807252 0.9974772161327417 -0.019192378774484365
 -0.00023400218504769567 -0.002270344401131688 0.0002556072096875753 0.003498105329844436 0.9974772161327417 -0.019192378774484365 0.002284848969715135 0.00779852088267636
0.037515631513130004 0.002488629192373792 0.009417300827730653 0.9972096016130614 -0.023066277261617932 0.00032005173209843625 0.0042000637504806745 -0.0002871973510166033 -0.002728575487002097
 0.9972096016130614 -0.023066277261617932 0.002489367431222297 0.009417205901317914 -0.0002872369949526699 -0.0027285770503105273 0.00031610531480263053 0.004200531599964425
 0.00032005173209843625 0.0042000637504806745 -0.0002872369949526699 -0.0027285770503105273 0.0024886376369107573 0.009417800122513031 0.9972096101285515 -0.023065776292052885
 -0.0002871973510166033 -0.002728575487002097 0.00031610531480263053 0.004200531599964425 0.9972096101285515 -0.023065776292052885 0.0024893758609757306 0.009417708126644534
0.043768236765320004 0.0027067798196129277 0.011053751086843392 0.99692301632937 -0.02695321331057619 0.0003889934371563279 0.004903184632475482 -0.00034642821084559714 -0.0031878937860118197
 0.99692301632937 -0.02695321331057619 0.002707783981897547 0.011053630782779765 -0.00034648196508192046 -0.0031878949517278434 0.00038362216020857646 0.004903808370984812
 0.0003889934371563279 0.004903184632475482 -0.00034648196508192046 -0.0031878949517278434 0.0027067910436822185 0.011054333032052492 0.9969230275853992 -0.026952629036897793
 -0.00034642821084559714 -0.0031878937860118197 0.00038362216020857646 0.004903808370984812 0.9969230275853992 -0.026952629036897793 0.0027077950363286743 0.011054216712487611
0.050020842017509996 0.0029390646049553383 0.012707105096114094 0.9966171898501391 -0.03085371062943499 0.0004652498798614186 0.0056070516459174125 -0.000411773795795928 -0.003648200583219701
 0.9966171898501391 -0.03085371062943499 0.0029403753897241994 0.012706956220931417 -0.0004118437592547706 -0.003648201097101551 0.0004582336660398345 0.005607860404212348
 0.0004652498798614186 0.0056070516459174125 -0.0004118437592547706 -0.003648201097101551 0.00293907901899089 0.012707769527433362 0.9966172042240461 -0.030853043078173128
 -0.000411773795795928 -0.003648200583219701 0.0004582336660398345 0.005607860404212348 0.9966172042240461 -0.030853043078173128 0.0029403893904001287 0.012707625879178376
0.055454545454549996 0.003152624069034855 0.014157368221804818 0.996335584965121 -0.03425440269692934 0.0005375180944674288 0.006219274558915058 -0.000473587414165481 -0.004048948163862485
 0.996335584965121 -0.03425440269692934 0.0031542343485141265 0.01415719178879274 -0.0004736731570902506 -0.004048947885349666 0.0005288933230749969 0.006220269810753657
 0.0005375180944674288 0.006219274558915058 -0.0004736731570902506 -0.004048947885349666 0.0031526415933513454 0.014158104202730075 0.9963356023551866 -0.034253662786904546
 -0.000473587414165481 -0.004048948163862485 0.0005288933230749969 0.006220269810753657 0.9963356023551866 -0.034253662786904546 0.003154251163045092 0.01415793423777468
0.056273447269699996 0.0031857645488973184 0.014377004375009102 0.9962918566432202 -0.03476780393259802 0.0005488964723764727 0.006311581200781033 -0.0004833118603935531 -0.004109398345198214
 0.9962918566432202 -0.03476780393259802 0.003187422626951105 0.014376823561183803 -0.0004834001173115954 -0.004109397927954024 0.0005400148220997507 0.00631260674755435
 0.0005488964723764727 0.006311581200781033 -0.0004834001173115954 -0.004109397927954024 0.0031857825695704024 0.01437775112880707 0.9962918745126208 -0.0347670531174513
 -0.0004833118603935531 -0.004109398345198214 0.0005400148220997507 0.00631260674755435 0.9962918745126208 -0.0347670531174513 0.003187439885541716 0.014377576983571661
0.06252605252188 0.0034471590422608363 0.016063130031746902 0.9959467504407767 -0.03869547902721484 0.0006400075942886241 0.0070166851313471805 -0.000561118865914824 -0.00457138955233234
 0.9959467504407767 -0.03869547902721484 0.0034492050620258687 0.01606291373712364 -0.000561227486134798 -0.004571387899556899 0.0006290395878350633 0.007017961903780818
 0.0006400075942886241 0.0070166851313471805 -0.000561227486134798 -0.004571387899556899 0.003447181093104171 0.0160639589298092 0.9959467721840125 -0.03869464496401752
 -0.000561118865914824 -0.00457138955233234 0.0006290395878350633 0.007017961903780818 0.9959467721840125 -0.03869464496401752 0.0034492258810095693 0.016063750955606065
0.06877865777407 0.0037235260477377773 0.017765189322519033 0.9955816046113813 -0.04263668618715106 0.0007386564966669688 0.007722271391083065 -0.0006452699494950981 -0.005034076006984979
 0.9955816046113813 -0.04263668618715106 0.003726000640656316 0.01776493382942378 -0.0006454009885932968 -0.005034072789110282 0.0007253808036413607 0.007723836525563611
 0.0007386564966669688 0.007722271391083065 -0.0006454009885932968 -0.005034072789110282 0.003723552557585374 0.01776610018406811 0.9955816306067337 -0.042635768881564874
 -0.0006452699494950981 -0.005034076006984979 0.0007253808036413607 0.007723836525563611 0.9955816306067337 -0.042635768881564874 0.0037260253120894988 0.017765854884713404
0.07503126302626001 0.0040151421884205875 0.019482907133045912 0.9951961524429079 -0.046591348607454744 0.0008449152155063722 0.008428244502798443 -0.0007358388834745271 -0.00549735838948712
 0.9951961524429079 -0.046591348607454744 0.004018085974002444 0.019482608547348474 -0.0007359943827856407 -0.005497353251729355 0.0008291101092934845 0.008430137865586256
 0.0008449152155063722 0.008428244502798443 -0.0007359943827856407 -0.005497353251729355 0.004015173592411862 0.01948389976185904 0.9951961830698816 -0.046590348067688844
 -0.0007358388834745271 -0.00549735838948712 0.0008291101092934845 0.008430137865586256 0.9951961830698816 -0.046590348067688844 0.004018114781135419 0.01948361347617781
0.08128386827845 0.004322282782579853 0.021216020309048674 0.9947901273755265 -0.05055936801336131 0.0009588544911204869 0.009134505848072995 -0.0008328980274290509 -0.005961135978042004
 0.9947901273755265 -0.05055936801336131 0.004325736373962175 0.02121567455901192 -0.000833080014099927 -0.005961128540360898 0.0009402978681278527 0.009136770065858496
 0.0009588544911204869 0.009134505848072995 -0.000833080014099927 -0.005961128540360898 0.0043223195216692155 0.021217094502612832 0.9947901630145035 -0.050558284240707706
 -0.0008328980274290509 -0.005961135978042004 0.0009402978681278527 0.009136770065858496 0.9947901630145035 -0.050558284240707706 0.004325769590518965 0.02121676340359599
0.08753647353064001 0.004645221841403064 0.02296427373569744 0.994363263199516 -0.054540628523916584 0.0010805436912056279 0.00984095388210532 -0.0009365182763295922 -0.006425306446548087
 0.994363263199516 -0.054540628523916584 0.004649225850002073 0.022963876570687356 -0.0009367287632292545 -0.0064252963036011065 0.0010590130928483294 0.00984363437239889
 0.0010805436912056279 0.00984095388210532 -0.0009367287632292545 -0.0064252963036011065 0.00464526436188097 0.022965429279673034 0.9943633042316886 -0.054539461518003624
 -0.0009365182763295922 -0.006425306446548087 0.0010590130928483294 0.00984363437239889 0.9943633042316886 -0.054539461518003624 0.004649263740238601 0.022965049373413617
0.09378907878283 0.004984232039579359 0.02472741753557271 0.9939152942302982 -0.05853499940079479 0.0012100507363327813 0.010547484281404436 -0.0010467690048113613 -0.006889765733049426
 0.9939152942302982 -0.05853499940079479 0.004988827080116494 0.02472696452453369 -0.0010470099904376304 -0.006889752454158446 0.0011853233740384298 0.010550629282671637
 0.0012100507363327813 0.010547484281404436 -0.0010470099904376304 -0.006889752454158446 0.004984280792946998 0.02472865420589708 0.9939153410379377 -0.05853374915735555
 -0.0010467690048113613 -0.006889765733049426 0.0011853233740384298 0.010550629282671637 0.9939153410379377 -0.05853374915735555 0.004988869899038607 0.024728221330323024
0.100041684035 0.005339584668171767 0.02650520501146663 0.9934459554684814 -0.06254233705659784 0.0013474420268032453 0.011253990060632059 -0.0011637180092139517 -0.007354407942589522
 0.9934459554684814 -0.06254233705659784 0.005344811363742232 0.02650469154132273 -0.0011639914775787778 -0.007354391071708077 0.0013192948094993245 0.011257650662166531
 0.0013474420268032453 0.011253990060632059 -0.0011639914775787778 -0.007354391071708077 0.005339640111120148 0.02650652257319337 0.9934460084354594 -0.06254100356825354
 -0.0011637180092139517 -0.007354407942589522 0.0013192948094993245 0.011257650662166531 0.9934460084354594 -0.06254100356825354 0.005344859357171494 0.026506032396726168
0.1059090909091 0.0056881490787967824 0.028186569948914757 0.9929858599033882 -0.06631445368471718 0.001483597566445513 0.011916850850901748 -0.0012796132092295135 -0.007790495743407917
 0.9929858599033882 -0.06631445368471718 0.005694005473314043 0.02818599538502135 -0.0012799189505819193 -0.007790475064436577 0.0014520380352814025 0.011921044319148819
 0.001483597566445513 0.011916850850901748 -0.0012799189505819193 -0.007790475064436577 0.005688211218476052 0.028187963192347665 0.9929859190001872 -0.06631304207322053
 -0.0012796132092295135 -0.007790495743407917 0.0014520380352814025 0.011921044319148819 0.9929859190001872 -0.06631304207322053 0.005694058537626864 0.028187415153098753
0.1062942892872 0.005711549574803946 0.028297391103718025 0.9929549827498829 -0.06656248655255387 0.0014927823706531085 0.011960361663861505 -0.0012874314478233736 -0.007819125279370518
 0.9929549827498829 -0.06656248655255387 0.005717448561386648 0.02829681237755014 -0.0012877393682797248 -0.007819104335059739 0.0014609919339684347 0.011964591835266925
 0.0014927823706531085 0.011960361663861505 -0.0012877393682797248 -0.007819104335059739 0.005711612168551156 0.028298789307646347 0.9929550422612068 -0.06656106981211767
 -0.0012874314478233736 -0.007819125279370518 0.0014609919339684347 0.011964591835266925 0.9929550422612068 -0.06656106981211767 0.005717501965870378 0.028298237327557596
0.11254689453939999 0.00610039509134503 0.030103731202048067 0.9924421128869325 -0.07059528274653322 0.0016461349123811718 0.012666487036600737 -0.0014179737791005455 -0.008283808001811822
 0.9924421128869325 -0.07059528274653322 0.006107007023400755 0.030103082237002123 -0.0014183181062221851 -0.008283782477214468 0.0016104776500913505 0.01267134365697538
 0.0016461349123811718 0.012666487036600737 -0.0014183181062221851 -0.008283782477214468 0.006100465301738963 0.030105209791732174 0.9924421793288736 -0.07059378273960577
 -0.0014179737791005455 -0.008283808001811822 0.0016104776500913505 0.01267134365697538 0.9924421793288736 -0.07059378273960577 0.006107066065999106 0.030104591332380033
0.11879949979160001 0.006506387955132933 0.03192398023103659 0.9919070838046812 -0.07464055117152694 0.0018075610621124147 0.01337225168962465 -0.001555407699203339 -0.008748344389751878
 0.9919070838046812 -0.07464055117152694 0.006513753509896785 0.0319232558562148 -0.0015557903725165435 -0.00874831375258397 0.0017678131588652558 0.013377794576288602
 0.0018075610621124147 0.01337225168962465 -0.0015557903725165435 -0.00874831375258397 0.006506466252357614 0.03192553893606982 0.9919071575654963 -0.07463896788318675
 -0.001555407699203339 -0.008748344389751878 0.0017678131588652558 0.013377794576288602 0.9919071575654963 -0.07463896788318675 0.0065138184089411945 0.03192484914690281
0.1250521050438 0.006929793222808612 0.03375789191661879 0.9913496346740915 -0.0786981087383136 0.001977120425211792 0.014077538752345728 -0.0016997940779321158 -0.009212620726021414
 0.9913496346740915 -0.0786981087383136 0.006937953105568276 0.033757086770580834 -0.0017002170217754104 -0.00921258441854864 0.0019330578909871568 0.014083830689132352
 0.001977120425211792 0.014077538752345728 -0.0017002170217754104 -0.00921258441854864 0.006929880081176706 0.033759530456404986 0.9913497161439637 -0.07869644214898415
 -0.0016997940779321158 -0.009212620726021414 0.0019330578909871568 0.014083830689132352 0.9913497161439637 -0.07869644214898415 0.006938024070089798 0.03375876430981172
0.131304710296 0.007370874179265659 0.03560521820775576 0.9907695060419176 -0.08276776428747074 0.0021548707319253347 0.014782229022102463 -0.0018511918943946222 -0.009676521286036969
 0.9907695060419176 -0.08276776428747074 0.00737986912794643 0.03560432673598618 -0.001851657017639564 -0.009676478725084944 0.002106269437797641 0.014789335787230802
 0.0021548707319253347 0.014782229022102463 -0.001851657017639564 -0.009676478725084944 0.007370970076649118 0.03560693628725947 0.9907695956125883 -0.08276601437708223
 -0.0018511918943946222 -0.009676521286036969 0.002106269437797641 0.014789335787230802 0.9907695956125883 -0.08276601437708223 0.0073799463578918265 0.035606088576160544
0.1375573155481 0.007726356800517772 0.037227168864843105 0.9902700111582231 -0.08661069080192713 0.0023178488096635193 0.015462856783941206 -0.001986693892119144 -0.010116553697626419
 0.9902700111582231 -0.08661069080192713 0.00773622960252785 0.0372262055082298 -0.0019872038116276716 -0.010116504840304722 0.002264590704178351 0.015470766680557012
 0.0023178488096635193 0.015462856783941206 -0.0019872038116276716 -0.010116504840304722 0.007726461323392401 0.037228966706135 0.9902701091950677 -0.0866088575929625
 -0.001986693892119144 -0.010116553697626419 0.002264590704178351 0.015470766680557012 0.9902701091950677 -0.0866088575929625 0.007736314240223317 0.03722805127367664
0.1438099208003 0.008094299222681806 0.03884105698723071 0.9897530672222684 -0.09044430955463417 0.002487400311579496 0.016140838264594063 -0.0021276023723705477 -0.010554165555719891
 0.9897530672222684 -0.09044430955463417 0.008105090946773074 0.0388400175520038 -0.002128159102636698 -0.010554109834306984 0.0024292802575348253 0.016149611411053307
 0.002487400311579496 0.016140838264594063 -0.002128159102636698 -0.010554109834306984 0.008094412694119537 0.03884293434623728 0.9897531741139335 -0.09044239303394483
 -0.0021276023723705477 -0.010554165555719891 0.0024292802575348253 0.016149611411053307 0.9897531741139335 -0.09044239303394483 0.008105183350310541 0.03884194725157785
0.1500625260525 0.00847457800197144 0.04044676070398991 0.9892188013627405 -0.09426853783333848 0.0026634693227006686 0.016816108741977694 -0.0022738633019509583 -0.010989296281789865
 0.9892188013627405 -0.09426853783333848 0.00848632975598528 0.04044564078710296 -0.0022744688512954235 -0.010989233106011832 0.0026002832805009897 0.016825807462118692
 0.0026634693227006686 0.016816108741977694 -0.0022744688512954235 -0.010989233106011832 0.00847470073844064 0.04044871732923953 0.9892189174990694 -0.0942665379866861
 -0.0022738633019509583 -0.010989296281789865 0.0026002832805009897 0.016825807462118692 0.9892189174990694 -0.0942665379866861 0.008486430285899833 0.040447654429683594
0.15631513130469998 0.00886706889776521 0.042044161869187864 0.9886673412644669 -0.0980832929675061 0.002845999303337291 0.017488604546836723 -0.0024254220201104814 -0.01142188652938819
