! Created with skrf 1.8.0 (http://scikit-rf.org).
# GHz S RI R 50.0 
!freq ReS11 ImS11 ReS12 ImS12 ReS13 ImS13
! ReS14 ImS14
! ReS21 ImS21 ReS22 ImS22 ReS23 ImS23
! ReS24 ImS24
! ReS31 ImS31 ReS32 ImS32 ReS33 ImS33
! ReS34 ImS34
! ReS41 ImS41 ReS42 ImS42 ReS43 ImS43
! ReS44 ImS44
!
0.0 0.001701060188504 0.0 0.9982989397746 0.0 6.610431312892e-05 0.0 -6.61043132239e-05 8.095443559948319e-21
 0.9982989397746 0.0 0.0017010601885 0.0 -6.610431322365e-05 8.095443559917702e-21 6.610431312992e-05 0.0
 6.610431312892e-05 0.0 -6.610431322365e-05 8.095443559917702e-21 0.001701060206965 0.0 0.998298939793 0.0
 -6.61043132239e-05 8.095443559948319e-21 6.610431312992e-05 0.0 0.998298939793 0.0 0.001701060206978 0.0
0.005 0.001830742159504982 0.001386881394484543 0.9981347630171052 -0.0035629981693690582 9.362750179406723e-05 0.0007539053061164767 -9.067466421313544e-05 -0.0004686655257680306
 0.9981347630171052 -0.0035629981693690582 0.001830768459776803 0.0013868659929426514 -9.066953885589974e-05 -0.0004686616005261307 9.347462840059773e-05 0.0007539634533926101
 9.362750179406723e-05 0.0007539053061164767 -9.066953885589974e-05 -0.0004686616005261307 0.0018307451163692117 0.0013869469115184063 0.9981347633965717 -0.0035629311131474307
 -9.067466421313544e-05 -0.0004686655257680306 9.347462840059773e-05 0.0007539634533926101 0.9981347633965717 -0.0035629311131474307 0.0018307662560508222 0.0013869345842662457
0.006252605252188 0.001864901623922238 0.0017390561594820418 0.9980912150501233 -0.0044545966908250455 0.00010159407837459169 0.0009427237115575957 -9.768750199489566e-05 -0.0005864342088512352
 0.9980912150501233 -0.0044545966908250455 0.001864942736964978 0.0017390366547550746 -9.767952647841304e-05 -0.0005864293703530825 0.00010135522837045865 0.0009427992661394005
 0.00010159407837459169 0.0009427237115575957 -9.767952647841304e-05 -0.0005864293703530825 0.0018649061627353711 0.001739138052895077 0.9980912155597341 -0.004454512867542867
 -9.768750199489566e-05 -0.0005864342088512352 0.00010135522837045865 0.0009427992661394005 0.9980912155597341 -0.004454512867542867 0.0018649392079607289 0.0017391223985178405
0.01250521050438 0.002045585090345811 0.0035144726949597285 0.9978592086956476 -0.00890984430245521 0.0001478248320255518 0.001885643879030735 -0.00013788342447822175 -0.0011756314476803662
 0.9978592086956476 -0.00890984430245521 0.0020457492673171046 0.0035144311230094123 -0.00013785199330691071 -0.0011756225228276435 0.00014687234701871963 0.0018858261436457162
 0.0001478248320255518 0.001885643879030735 -0.00013785199330691071 -0.0011756225228276435 0.0020456026463281595 0.0035146361382497803 0.9978592101602365 -0.008909676902869779
 -0.00013788342447822175 -0.0011756314476803662 0.00014687234701871963 0.0018858261436457162 0.9978592101602365 -0.008909676902869779 0.0020457345989001595 0.0035146023885689447
0.01875781575657 0.0022435372311537943 0.005315008359759935 0.9976026098417994 -0.013376553023704612 0.00020490694533397495 0.0028293917098895223 -0.00018682295223089646 -0.0017666839077774554
 0.9976026098417994 -0.013376553023704612 0.00224390616876189 0.005314941915227165 -0.0001867528600453001 -0.0017666718078243717 0.00020276728290667502 0.002829718375721868
 0.00020490694533397495 0.0028293917098895223 -0.0001867528600453001 -0.0017666718078243717 0.002243576263680034 0.005315253069116137 0.9976026127133117 -0.01337630212776099
 -0.00018682295223089646 -0.0017666839077774554 0.00020276728290667502 0.002829718375721868 0.9976026127133117 -0.01337630212776099 0.002243872774134562 0.00531519868274117
0.02501042100875 0.0024591700899557214 0.007138093777487163 0.997321094544788 -0.017856846920340577 0.000272952764449464 0.0037739832864893946 -0.00024463188565288993 -0.002359291035386238
 0.997321094544788 -0.017856846920340577 0.0024598253418703195 0.007137999443482629 -0.00024450811000219886 -0.0023592768458226073 0.00026915222538338485 0.003774498384558134
 0.000272952764449464 0.0037739832864893946 -0.00024450811000219886 -0.0023592768458226073 0.002459239040769757 0.007138419416220765 0.9973210992725412 -0.0178565125571037
 -0.00024463188565288993 -0.002359291035386238 0.00026915222538338485 0.003774498384558134 0.9973210992725412 -0.0178565125571037 0.002459765637507935 0.007138341775089223
0.03126302626094 0.002692878565540121 0.008982385813698514 0.9970143235748322 -0.022351609557452825 0.0003520749019075184 0.004719344002644495 -0.0003114319024920005 -0.0029532350277754276
 0.9970143235748322 -0.022351609557452825 0.002693901591282646 0.008982260367336814 -0.0003112395733644729 -0.0029532200101259963 0.00034613920873457517 0.004720097943589582
 0.0003520749019075184 0.004719344002644495 -0.0003112395733644729 -0.0029532200101259963 0.0026929858656486168 0.008982791957157848 0.9970143306099254 -0.022351191739665717
 -0.0003114319024920005 -0.0029532350277754276 0.00034613920873457517 0.004720097943589582 0.9970143306099254 -0.022351191739665717 0.002693807996126867 0.008982688372554266
0.037515631513130004 0.002945048564318464 0.010846992877931944 0.9966819508961348 -0.026861258641011358 0.0004423849741246254 0.005665363061924067 -0.0003873414544127607 -0.0035483263504687726
 0.9966819508961348 -0.026861258641011358 0.00294652076226336 0.010846832892253034 -0.00038706583877193875 -0.0035483119427658343 0.0004338390914618839 0.005666412700176895
 0.0004423849741246254 0.005665363061924067 -0.00038706583877193875 -0.0035483119427658343 0.002945202634567118 0.01084747902358592 0.9966819606913858 -0.026860757354053882
 -0.0003873414544127607 -0.0035483263504687726 0.0004338390914618839 0.005666412700176895 0.9966819606913858 -0.026860757354053882 0.0029463856953208935 0.010847346739595712
0.043768236765320004 0.0032160601312572422 0.012731239201444281 0.9963236271305091 -0.03138598167217514 0.000543993002763167 0.006611910060301455 -0.00047247607126831937 -0.004144387177420999
 0.9963236271305091 -0.03138598167217514 0.0032180628660398477 0.012731041046049666 -0.0004721025640697721 -0.004144374994371276 0.0005323610612676697 0.006613318765799338
 0.000543993002763167 0.006611910060301455 -0.0004721025640697721 -0.004144374994371276 0.003216269383209928 0.012731804750578954 0.9963236401416014 -0.03138539689130832
 -0.00047247607126831937 -0.004144387177420999 0.0005323610612676697 0.006613318765799338 0.9963236401416014 -0.03138539689130832 0.0032178787454109903 0.012731640946345537
0.050020842017509996 0.0035062888930906294 0.014634567399540574 0.9959390013388222 -0.0359258333163287 0.0006570070476558195 0.0075588418423943645 -0.0005669484573526166 -0.004741244563555446
 0.9959390013388222 -0.0359258333163287 0.0035089035190296086 0.014634327240031308 -0.0005664625759300522 -0.0047412363965324885 0.0006418123231013099 0.007560679575157597
 0.0006570070476558195 0.0075588418423943645 -0.0005664625759300522 -0.0047412363965324885 0.0035065617286918513 0.014635211668555956 0.9959390180241096 -0.035925164994078274
 -0.0005669484573526166 -0.004741244563555446 0.0006418123231013099 0.007560679575157597 0.9959390180241096 -0.035925164994078274 0.003508662760586511 0.014635013459804882
0.055454545454549996 0.0037744021405803573 0.016303734777301692 0.995583116467115 -0.03988336620796643 0.0007645650119182782 0.008381948477711938 -0.0006567166457335042 -0.005260445499486492
 0.995583116467115 -0.03988336620796643 0.003777614596971656 0.016303454841575905 -0.000656121438290375 -0.0052604424145082295 0.0007458863077670732 0.008384221039435528
 0.0007645650119182782 0.008381948477711938 -0.000656121438290375 -0.0052604424145082295 0.0037747370495792502 0.01630444682246534 0.9955831367219306 -0.03988262524142557
 -0.0006567166457335042 -0.005260445499486492 0.0007458863077670732 0.008384221039435528 0.9955831367219306 -0.03988262524142557 0.003777318458775731 0.016304216324009815
0.056273447269699996 0.0038161067805331295 0.01655649067175714 0.9955277220872886 -0.04048078313734324 0.0007815329418733178 0.008506005874303451 -0.000670868494724661 -0.005338727106963592
 0.9955277220872886 -0.04048078313734324 0.0038194146640687762 0.016556204468463145 -0.0006702558751465589 -0.0053387249239645026 0.0007622978677688164 0.008508349260172542
 0.0007815329418733178 0.008506005874303451 -0.0006702558751465589 -0.0053387249239645026 0.0038164515934274424 0.016557212877371382 0.9955277429102082 -0.040480031217214524
 -0.000670868494724661 -0.005338727106963592 0.0007622978677688164 0.008508349260172542 0.9955277429102082 -0.040480031217214524 0.0038191096825226276 0.0165569773170649
0.06252605252188 0.004145882401034346 0.018496566514189322 0.9950894381692299 -0.045050741825373525 0.0009176740783858435 0.009453242110390688 -0.0007843431987186888 -0.0059366631240598405
 0.9950894381692299 -0.045050741825373525 0.004149964941809228 0.01849623002008071 -0.0007835895934561801 -0.005936669069618154 0.0008939202808950985 0.009456174516970218
 0.0009176740783858435 0.009453242110390688 -0.0007835895934561801 -0.005936669069618154 0.004146307573333426 0.018497365781107486 0.995089463596114 -0.04504990623290434
 -0.0007843431987186888 -0.0059366631240598405 0.0008939202808950985 0.009456174516970218 0.995089463596114 -0.04504990623290434 0.004149588147368987 0.018497089859489307
0.06877865777407 0.004495981215585346 0.020454381052596164 0.9946237991356138 -0.049635576810502985 0.0010655312252131096 0.010400384111952344 -0.0009074766464398096 -0.006534879580124162
 0.9946237991356138 -0.049635576810502985 0.0045009198671792676 0.020453989810451823 -0.0009065679228874668 -0.006534895975184095 0.001036779573956937 0.010403995724263725
 0.0010655312252131096 0.010400384111952344 -0.0009065679228874668 -0.006534895975184095 0.004496495119286025 0.020455256406127012 0.994623829638553 -0.04963465745946707
 -0.0009074766464398096 -0.006534879580124162 0.001036779573956937 0.010403995724263725 0.994623829638553 -0.04963465745946707 0.00450046366736152 0.02045493704997685
0.07503126302626001 0.004866765602694536 0.022429539124613523 0.9941304557187499 -0.054235122135034786 0.0012252023577717466 0.011347259772212178 -0.0010403698884190178 -0.00713320142110192
 0.9941304557187499 -0.054235122135034786 0.004872641892377487 0.022429088463457737 -0.001039292028048655 -0.007133230762891144 0.0011909730284478707 0.011351647667712732
 0.0012252023577717466 0.011347259772212178 -0.001039292028048655 -0.007133230762891144 0.004867376598076251 0.02243048949330435 0.994130491774954 -0.054234118923597856
 -0.0010403698884190178 -0.00713320142110192 0.0011909730284478707 0.011351647667712732 0.994130491774954 -0.054234118923597856 0.004872098691009578 0.022430123564557487
0.08128386827845 0.005258594849145736 0.024421657676109047 0.9936090601862668 -0.05884918501969582 0.001396782501547614 0.012293691808833041 -0.0011831208495284864 -0.007731451145809327
 0.9936090601862668 -0.05884918501969582 0.005265490398654964 0.024421142706883215 -0.0011818599475824072 -0.007731496107664698 0.0013565950482315643 0.012298960031567066
 0.001396782501547614 0.012293691808833041 -0.0011818599475824072 -0.007731496107664698 0.0052593112838813265 0.024422681884835307 0.9936091022788515 -0.05884809783614135
 -0.0011831208495284864 -0.007731451145809327 0.0013565950482315643 0.012298960031567066 0.9936091022788515 -0.05884809783614135 0.005264852595160889 0.02442226617841735
0.08753647353064001 0.0056718250925704835 0.026430361203961666 0.9930592666520991 -0.0634775503923475 0.0015803635819265397 0.013239498119799378 -0.0013358242226420246 -0.008329448522870814
 0.9930592666520991 -0.0634775503923475 0.005679821637442738 0.02642977681447858 -0.0013343664880305875 -0.008329511954062663 0.0015337370169590744 0.013245757753465445
 0.0015803635819265397 0.013239498119799378 -0.0013343664880305875 -0.008329511954062663 0.005672655300869862 0.026431457981086637 0.9930593152707289 -0.06347637910685307
 -0.0013358242226420246 -0.008329448522870814 0.0015337370169590744 0.013245757753465445 0.9930593152707289 -0.06347637910685307 0.005679081627558272 0.026430989221906783
0.09378907878283 0.006106809231607979 0.028455278515842664 0.9924807313586808 -0.06811998410869162 0.00177603427905786 0.014184492049035808 -0.0014985713566973361 -0.008927010406265652
 0.9924807313586808 -0.06811998410869162 0.006115988641391154 0.028454619364953936 -0.0014969031123474041 -0.008927095331780351 0.0017224871593247472 0.014191861288814023
 0.00177603427905786 0.014184492049035808 -0.0014969031123474041 -0.008927095331780351 0.0061077615330548205 0.028456446481924497 0.9924807870001487 -0.0681187285834564
 -0.0014985713566973361 -0.008927010406265652 0.0017224871593247472 0.014191861288814023 0.9924807870001487 -0.0681187285834564 0.0061151388164390075 0.028455921321302084
0.100041684035 0.00656389681039341 0.03049604034635896 0.9918731129379251 -0.0727762353262857 0.0019838798857745713 0.015128482599460048 -0.0016714501413525782 -0.00952395061196978
 0.9918731129379251 -0.0727762353262857 0.0065743411087567085 0.0304953008571707 -0.0016695578246985082 -0.009524060232264568 0.0019229304048611643 0.015137086822506429
 0.0019838798857745713 0.015128482599460048 -0.0016695578246985082 -0.009524060232264568 0.006564979508899436 0.030497278020823172 0.9918731761069065 -0.07277489540777576
 -0.0016714501413525782 -0.00952395061196978 0.0019229304048611643 0.015137086822506429 0.9918731761069065 -0.07277489540777576 0.006573373855728693 0.030496693031906715
0.1059090909091 0.007013236172383273 0.0324251604937107 0.9912761749395133 -0.077157963547686 0.0021900667726424796 0.016013231248568575 -0.0018429683222459968 -0.010083381690801526
 0.9912761749395133 -0.077157963547686 0.007024942188591451 0.03242434032703064 -0.001840853505085674 -0.010083517551398842 0.002121732524761433 0.016023114859805673
 0.0021900667726424796 0.016013231248568575 -0.001840853505085674 -0.010083517551398842 0.007014448771850064 0.03242646214165239 0.9912762456383646 -0.07715654428430516
 -0.0018429683222459968 -0.010083381690801526 0.002121732524761433 0.016023114859805673 0.9912762456383646 -0.07715654428430516 0.007023857814031293 0.032425817819266914
0.1062942892872 0.0070434338876752475 0.03255227758586158 0.9912360726600635 -0.07744603827547608 0.002203982168285906 0.01607127460510474 -0.001854544888903126 -0.010120079844215382
 0.9912360726600635 -0.07744603827547608 0.007055225272078186 0.03255145193842198 -0.001852415052570053 -0.01012021753496696 0.002135148253392308 0.016081246439507584
 0.002203982168285906 0.01607127460510474 -0.001852415052570053 -0.01012021753496696 0.007044655270135443 0.03255358338238799 0.9912361438692671 -0.0774446137980376
 -0.001854544888903126 -0.010120079844215382 0.002135148253392308 0.016081246439507584 0.9912361438692671 -0.0774446137980376 0.007054132973648864 0.032552935054847895
0.11254689453939999 0.007545762890386121 0.03462361992696903 0.9905692746707391 -0.08212911362306569 0.002436419228795002 0.017012668879968974 -0.0020479362141928126 -0.010715205653902375
 0.9905692746707391 -0.08212911362306569 0.007558983752380067 0.03462270204978551 -0.0020455555268146376 -0.010715374965695692 0.0023592186422508373 0.01702414827211335
 0.002436419228795002 0.017012668879968974 -0.0020455555268146376 -0.010715374965695692 0.007547131225566026 0.034624992152748266 0.9905693544417996 -0.08212760440863413
 -0.0020479362141928126 -0.010715205653902375 0.0023592186422508373 0.01702414827211335 0.9905693544417996 -0.08212760440863413 0.007557758786909647 0.0346242768866108
0.11879949979160001 0.00807122245821091 0.03670969482322489 0.9898723862215325 -0.0868251695338704 0.0026812653698737392 0.017952462350466946 -0.002251700913125998 -0.01130913242231526
 0.9898723862215325 -0.0868251695338704 0.008085955403336752 0.0367086783841727 -0.0022490561603895182 -0.011309337080305168 0.002595215814648518 0.017965596630754123
 0.0026812653698737392 0.017952462350466946 -0.0022490561603895182 -0.011309337080305168 0.008072745995302845 0.03671113167875564 0.9898724750855545 -0.08682357539121618
 -0.002251700913125998 -0.01130913242231526 0.002595215814648518 0.017965596630754123 0.9898724750855545 -0.08682357539121618 0.008084590144911913 0.03671034577732957
0.1250521050438 0.008620147279014913 0.038810126671093355 0.989145077894707 -0.09153390251988959 0.0029385909601140577 0.01889044817613052 -0.002465911840443206 -0.011901661365834414
 0.989145077894707 -0.09153390251988959 0.008636475147300867 0.03880900506721152 -0.002462989926129952 -0.011901905269439706 0.002843210189224065 0.018905392122784418
 0.0029385909601140577 0.01889044817613052 -0.002462989926129952 -0.011901905269439706 0.008621834246242244 0.03881162624937979 0.9891451763929726 -0.09153222324448246
 -0.002465911840443206 -0.011901661365834414 0.002843210189224065 0.018905392122784418 0.9891451763929726 -0.09153222324448246 0.008634961965427014 0.03881076591137227
0.131304710296 0.009192867918787838 0.04092453616984238 0.9883870238247988 -0.09625499812221261 0.0032084623014828205 0.01982641586315494 -0.002690637786875819 -0.012492590556965248
 0.9883870238247988 -0.09625499812221261 0.009210873804142688 0.04092330251650997 -0.002687425734053008 -0.012492877779395728 0.003103268230649712 0.01984333176419995
 0.0032084623014828205 0.01982641586315494 -0.002687425734053008 -0.012492877779395728 0.009194726522053697 0.0409260964516119 0.9883871325089806 -0.09625323350021525
 -0.002690637786875819 -0.012492590556965248 0.003103268230649712 0.01984333176419995 0.9883871325089806 -0.09625323350021525 0.009209205064474384 0.040925157762165223
0.1375573155481 0.009663652663421516 0.042776345946491844 0.987724017473443 -0.1007117906439402 0.003459024906971254 0.02073305109853807 -0.0028941569681254675 -0.013054546320280544
 0.987724017473443 -0.1007117906439402 0.009683424413167283 0.042775015711604455 -0.002890635478449226 -0.01305487749269808 0.003343779920851713 0.020751924202049604
 0.003459024906971254 0.02073305109853807 -0.002890635478449226 -0.01305487749269808 0.009665690621838285 0.04277796491566805 0.9877241368139982 -0.10070994057457489
 -0.0028941569681254675 -0.013054546320280544 0.003343779920851713 0.020751924202049604 0.9877241368139982 -0.10070994057457489 0.009681593112453422 0.042776966504097076
0.1438099208003 0.010151141544675077 0.044617356710406716 0.9870373781216704 -0.10515623704522432 0.003719696029720545 0.021635322758785287 -0.0031057828339531575 -0.013612567619479245
 0.9870373781216704 -0.10515623704522432 0.01017276327382668 0.044615924106139994 -0.0031019379641718677 -0.013612946777777654 0.003593962366213738 0.021656302384441318
 0.003719696029720545 0.021635322758785287 -0.0031019379641718677 -0.013612946777777654 0.010153366948212278 0.044619032278319815 0.9870375086682787 -0.10515430132423964
 -0.0031057828339531575 -0.013612567619479245 0.003593962366213738 0.021656302384441318 0.9870375086682787 -0.10515430132423964 0.01017076188373926 0.044617971434967
0.1500625260525 0.010655146582220453 0.046447384076986065 0.9863272984917969 -0.1095881956110809 0.003990375859470907 0.022533115707954663 -0.0033254196243754177 -0.014166548732100381
 0.9863272984917969 -0.1095881956110809 0.010678702661964775 0.04644584294889104 -0.003321237469776524 -0.014166980074504542 0.0038537187227586493 0.022556356629660764
 0.003990375859470907 0.022533115707954663 -0.003321237469776524 -0.014166980074504542 0.01065756749479705 0.046449114070528146 0.9863274408029183 -0.10958617402684925
 -0.0033254196243754177 -0.014166548732100381 0.0038537187227586493 0.022556356629660764 0.9863274408029183 -0.10958617402684925 0.010676523657052364 0.04644798784620311
0.15631513130469998 0.01117547826321311 0.048266249183398294 0.9855939725056755 -0.11400752582541457 0.0042709632806214055 0.02342631697545795 -0.0035529702916641905 -0.01471638636559293
 0.9855939725056755 -0.11400752582541457 0.011201053328119232 0.048264592998848506 -0.0035484369868924873 -0.014716874251827449 0.004122950890916223 0.02345197935902033
