! Created with skrf 1.8.0 (http://scikit-rf.org).
# GHz S RI R 50.0 
!freq ReS11 ImS11 ReS12 ImS12 ReS13 ImS13
! ReS14 ImS14
! ReS21 ImS21 ReS22 ImS22 ReS23 ImS23
! ReS24 ImS24
! ReS31 ImS31 ReS32 ImS32 ReS33 ImS33
! ReS34 ImS34
! ReS41 ImS41 ReS42 ImS42 ReS43 ImS43
! ReS44 ImS44
!
0.0 0.001508285673863 0.0 0.9984917143015 0.0 5.818593923333e-05 0.0 -5.818594119229e-05 7.125722663651407e-21
 0.9984917143015 0.0 0.001508285673797 0.0 -5.818594119077e-05 7.125722663465261e-21 5.818593923057e-05 0.0
 5.818593923333e-05 0.0 -5.818594119077e-05 7.125722663465261e-21 0.001508285686084 0.0 0.9984917143138 0.0
 -5.818594119229e-05 7.125722663651407e-21 5.818593923057e-05 0.0 0.9984917143138 0.0 0.001508285686097 0.0
0.005 0.0016227161655499628 0.0012327589429697453 0.9983469745504769 -0.00315961376525342 8.157549067183668e-05 0.0006486568359216904 -7.926348536930912e-05 -0.0004058381151547625
 0.9983469745504769 -0.00315961376525342 0.0016227005672799974 0.0012327680092031241 -7.926253031018865e-05 -0.0004058373327316691 8.16777597770318e-05 0.0006486179415987614
 8.157549067183668e-05 0.0006486568359216904 -7.926253031018865e-05 -0.0004058373327316691 0.0016227165520707875 0.0012326914165577787 0.9983469741974593 -0.0031596808189665
 -7.926348536930912e-05 -0.0004058381151547625 8.16777597770318e-05 0.0006486179415987614 0.9983469741974593 -0.0031596808189665 0.0016226994796714757 0.0012327014321022608
0.006252605252188 0.0016527012094405267 0.001545807716685174 0.9983088169360729 -0.003950295116532587 8.821963983174374e-05 0.0008111350703612992 -8.520068698380858e-05 -0.0005078257487536317
 0.9983088169360729 -0.003950295116532587 0.0016526768267986875 0.0015458192282754805 -8.519920120300752e-05 -0.0005078247829606016 8.837942666985213e-05 0.000811084565871758
 8.821963983174374e-05 0.0008111350703612992 -8.519920120300752e-05 -0.0005078247829606016 0.001652701890678615 0.0015457232971083459 0.9983088164607727 -0.003950378941777629
 -8.520068698380858e-05 -0.0005078257487536317 8.837942666985213e-05 0.000811084565871758 0.9983088164607727 -0.003950378941777629 0.0016526752029496525 0.001545736006224813
0.01250521050438 0.0018103937426245768 0.0031240839202137166 0.9981068651451411 -0.007901430173745968 0.00012612223146610295 0.0016226322668260336 -0.00011881360773129414 -0.0010181390796975918
 0.9981068651451411 -0.007901430173745968 0.0018102963878331372 0.0031241087359710137 -0.00011880775699223021 -0.0010181372814915082 0.0001267594487819258 0.001622510938424093
 0.00012612223146610295 0.0016226322668260336 -0.00011880775699223021 -0.0010181372814915082 0.0018103970067623722 0.003123915304754156 0.998106863782534 -0.007901597571678486
 -0.00011881360773129414 -0.0010181390796975918 0.0001267594487819258 0.001622510938424093 0.998106863782534 -0.007901597571678486 0.0018102904341314023 0.003123942639607729
0.01875781575657 0.001981701938236911 0.004724902541199867 0.9978856117647044 -0.011863028681629327 0.00017198195372606802 0.0024350491115497897 -0.00015912714368462668 -0.0015301986415632634
 0.9978856117647044 -0.011863028681629327 0.0019814831882534107 0.004724942563490072 -0.00015911410261821546 -0.0015301961679811914 0.00017341344903696815 0.0024348327385648304
 0.00017198195372606802 0.0024350491115497897 -0.00015911410261821546 -0.0015301961679811914 0.001981709716449143 0.004724649784346541 0.9978856091281734 -0.011863279580232228
 -0.00015912714368462668 -0.0015301986415632634 0.00017341344903696815 0.0024348327385648304 0.9978856091281734 -0.011863279580232228 0.0019814702268989882 0.004724693815457461
0.02501042100875 0.0021669548051884086 0.0063460261005250235 0.9976448000294287 -0.015837015577617772 0.0002258876836211116 0.0032484271344989015 -0.00020624049332141305 -0.002043773517600274
 0.9976448000294287 -0.015837015577617772 0.0021665663398301024 0.006346083323996802 -0.0002062174722717979 -0.002043770552315988 0.00022843045678811564 0.0032480877316935957
 0.0002258876836211116 0.0032484271344989015 -0.0002062174722717979 -0.002043770552315988 0.002166969022316819 0.006345689232037966 0.9976447957186642 -0.015837349941951667
 -0.00020624049332141305 -0.002043773517600274 0.00022843045678811564 0.0032480877316935957 0.9976447957186642 -0.015837349941951667 0.0021665436803188845 0.006345752164702336
0.03126302626094 0.002366467737105792 0.007986305461697442 0.9973841598702203 -0.019824217435516628 0.0002879286112670405 0.004062732336412642 -0.00026025011261972036 -0.0025587028581667936
 0.9973841598702203 -0.019824217435516628 0.002365861311672686 0.007986381969385952 -0.00026021435151752097 -0.0025586996118121988 0.0002919001067668975 0.004062238132297215
 0.0002879286112670405 0.004062732336412642 -0.00026021435151752097 -0.0025586996118121988 0.0023664903287799 0.007985884500254356 0.9973841534866621 -0.019824635254096633
 -0.00026025011261972036 -0.0025587028581667936 0.0002919001067668975 0.004062238132297215 0.9973841534866621 -0.019824635254096633 0.002365826266586548 0.007985968670961553
0.037515631513130004 0.0025805493530529247 0.009644993114051367 0.9971034149678593 -0.023825049120534344 0.0003581934701058403 0.004877900952488277 -0.0003212504191222877 -0.0030748501271854454
 0.9971034149678593 -0.023825049120534344 0.0025796767797713143 0.009645091075241712 -0.000321199184307766 -0.0030748468374331627 0.00036391170740516815 0.004877216351432538
 0.0003581934701058403 0.004877900952488277 -0.000321199184307766 -0.0030748468374331627 0.002580582262416859 0.009644488072156562 0.9971034061107104 -0.023825550400459913
 -0.0003212504191222877 -0.0030748501271854454 0.00036391170740516815 0.004877216351432538 0.9971034061107104 -0.023825550400459913 0.0025796266611276242 0.009644595946934467
0.043768236765320004 0.0028095041376420037 0.011321534184208509 0.9968022856052887 -0.027839722708097654 0.00043677017047970436 0.005693853364820751 -0.00038933404579568676 -0.003592089192473958
 0.9968022856052887 -0.027839722708097654 0.0028083172710814987 0.011321655852965731 -0.0003892646281085463 -0.0035920861240358137 0.00044455380514200665 0.005692938904121568
 0.00043677017047970436 0.005693853364820751 -0.0003892646281085463 -0.0035920861240358137 0.0028095493164516476 0.011320945069276564 0.9968022738716703 -0.027840307473777436
 -0.00038933404579568676 -0.003592089192473958 0.00044455380514200665 0.005692938904121568 0.9968022738716703 -0.027840307473777436 0.0028082493913795096 0.011321079242860538
0.050020842017509996 0.0030536336691116953 0.013015480077821672 0.9964804901091401 -0.03186833377046043 0.0005237455769019106 0.006510499848038932 -0.00046459193346231324 -0.004110298582663565
 0.9964804901091401 -0.03186833377046043 0.003052084393011984 0.013015627792027331 -0.0004645016469926613 -0.0041102960272758155 0.0005339139249490157 0.006509312152974803
 0.0005237455769019106 0.006510499848038932 -0.0004645016469926613 -0.0041102960272758155 0.0030536930781772617 0.013014806890646238 0.9964804750938054 -0.03186900206514277
 -0.00046459193346231324 -0.004110298582663565 0.0005339139249490157 0.006509312152974803 0.9964804750938054 -0.03186900206514277 0.003051996065775266 0.013014970086049377
0.055454545454549996 0.0032783458851351694 0.014501405305139322 0.9961838370393893 -0.03538065580501588 0.0006062171763020793 0.00722067887116788 -0.0005358890687160385 -0.004561333338002041
 0.9961838370393893 -0.03538065580501588 0.0032764426014699997 0.014501577616926681 -0.000535778482726172 -0.004561331486358163 0.0006187177509079848 0.00721921542887451
 0.0006062171763020793 0.00722067887116788 -0.000535778482726172 -0.004561331486358163 0.0032784192599770784 0.014500659060272938 0.996183818840279 -0.03538139673042201
 -0.0005358890687160385 -0.004561333338002041 0.0006187177509079848 0.00721921542887451 0.996183818840279 -0.03538139673042201 0.0032763343240159387 0.01450084978763602
0.056273447269699996 0.003313237250854992 0.014726446075100858 0.9961377456977598 -0.035910903710687954 0.0006192053482218706 0.007327743397998627 -0.0005471133514167893 -0.004629358663038723
 0.9961377456977598 -0.035910903710687954 0.003311277466166641 0.01472662225584832 -0.0005469995326010709 -0.0046293569394226 0.0006320783882048455 0.007326235136048235
 0.0006192053482218706 0.007327743397998627 -0.0005469995326010709 -0.0046293569394226 0.0033133128597898536 0.014725688818625354 0.9961377269919665 -0.03591165558747702
 -0.0005471133514167893 -0.004629358663038723 0.0006320783882048455 0.007326235136048235 0.9961377269919665 -0.03591165558747702 0.003311166006270723 0.014725883887250952
0.06252605252188 0.0035886122488843685 0.01645408803601042 0.9957737690387638 -0.03996740298939254 0.0007232338085465596 0.008145481277733221 -0.0006369858816619864 -0.005149150097100108
 0.9957737690387638 -0.03996740298939254 0.003586193862566916 0.01645429518735283 -0.0006368458887020406 -0.005149149550924852 0.0007391321690016822 0.008143601112468913
 0.0007232338085465596 0.008145481277733221 -0.0006368458887020406 -0.005149149550924852 0.0035887060365990295 0.016453246711867524 0.9957737462302414 -0.03996823851461499
 -0.0006369858816619864 -0.005149150097100108 0.0007391321690016822 0.008143601112468913 0.9957737462302414 -0.03996823851461499 0.003586056586842913 0.016453476633839278
0.06877865777407 0.0038800542729010047 0.01819808850215934 0.9953882766532279 -0.0440377649579698 0.0008359138352551677 0.008963605943607721 -0.0007342953823307195 -0.005669552931407237
 0.9953882766532279 -0.0440377649579698 0.003877129186548989 0.01819832921118568 -0.0007341265946927771 -0.005669553935246691 0.0008551587717542343 0.008961298488595957
 0.0008359138352551677 0.008963605943607721 -0.0007341265946927771 -0.005669553935246691 0.0038801682278020886 0.018197163107818146 0.9953882493261124 -0.04403868421382597
 -0.0007342953823307195 -0.005669552931407237 0.0008551587717542343 0.008961298488595957 0.9953882493261124 -0.04403868421382597 0.0038769634148694563 0.018197430992748943
0.07503126302626001 0.00418785726058602 0.01995814788360993 0.994980985227926 -0.048121894610907545 0.0009573267568962413 0.009782005638395763 -0.0008391259381785566 -0.006190446017291625
 0.994980985227926 -0.048121894610907545 0.00418437736000075 0.019958424820895264 -0.0008389257563118017 -0.006190448970586239 0.000980240121331254 0.009779211411345341
 0.0009573267568962413 0.009782005638395763 -0.0008389257563118017 -0.006190448970586239 0.004187993380889627 0.019957138416770423 0.9949809529614896 -0.04812289769089278
 -0.0008391259381785566 -0.006190446017291625 0.000980240121331254 0.009779211411345341 0.9949809529614896 -0.04812289769089278 0.0041841804156230985 0.019957447504816067
0.08128386827845 0.00451231350432395 0.021733978600996948 0.9945516118712348 -0.05221967438695601 0.0010875522577270824 0.010600564787089945 -0.0009515598021877264 -0.006711706633965947
 0.9945516118712348 -0.05221967438695601 0.004508230648237587 0.02173429452131068 -0.0009513256472289841 -0.006711711962972217 0.0011144564614629475 0.010597220164317477
 0.0010875522577270824 0.010600564787089945 -0.0009513256472289841 -0.006711711962972217 0.004512473797774913 0.02173288505892776 0.9945515742399514 -0.05222076139627139
 -0.0009515598021877264 -0.006711706633965947 0.0011144564614629475 0.010597220164317477 0.9945515742399514 -0.05222076139627139 0.004507999858684735 0.02173323872217906
0.08753647353064001 0.004853713637041881 0.023525301034375373 0.9940998743338852 -0.05633096816807029 0.0012266682852846084 0.011419164276059064 -0.001071677331967927 -0.0072332102324960835
 0.9940998743338852 -0.05633096816807029 0.00484897964672093 0.02352565877786776 -0.0010714066456157649 -0.0072332183902441335 0.0012578862574416539 0.011415201447465577
 0.0012266682852846084 0.011419164276059064 -0.0010714066456157649 -0.0072332183902441335 0.004853900121474094 0.023524123411804425 0.9940998309067962 -0.056332139225597586
 -0.001071677331967927 -0.0072332102324960835 0.0012578862574416539 0.011415201447465577 0.9940998309067962 -0.056332139225597586 0.004848712344454962 0.023524525156021114
0.09378907878283 0.005212346592109001 0.025331840621774994 0.9936254912055579 -0.060455624133756325 0.0013747509616201504 0.012237681655714401 -0.0011995569209158848 -0.007754830260740457
 0.9936254912055579 -0.060455624133756325 0.005206913240311593 0.02533224311544049 -0.001199247165233241 -0.007754841726993672 0.0014106061032550822 0.012233028580304079
 0.0013747509616201504 0.012237681655714401 -0.001199247165233241 -0.007754841726993672 0.0052125612953831035 0.025330578912521915 0.9936254415458364 -0.06045687937011655
 -0.0011995569209158848 -0.007754830260740457 0.0014106061032550822 0.012233028580304079 0.9936254415458364 -0.06045687937011655 0.005206606764024225 0.025331032379270476
0.100041684035 0.0055884995427457574 0.027153325743389037 0.9931281820952387 -0.06459347683466098 0.0015318744948511424 0.013055991296869464 -0.0013352749274371694 -0.008276438039165487
 0.9931281820952387 -0.06459347683466098 0.0055823185432265394 0.027153776002856962 -0.0013349235848811526 -0.00827645332035971 0.0015726906295342492 0.013050571658887018
 0.0015318744948511424 0.013055991296869464 -0.0013349235848811526 -0.00827645332035971 0.0055887445033108996 0.027151979939122058 0.9931281257599027 -0.0645948163931816
 -0.0013352749274371694 -0.008276438039165487 0.0015726906295342492 0.013050571658887018 0.9931281257599027 -0.0645948163931816 0.0055819702381794 0.027152488908199903
0.1059090909091 0.005957667636676824 0.028875948365328363 0.9926404105864023 -0.06848825702868933 0.001687605174253811 0.013823584574329143 -0.0014698270052033644 -0.00876578390661349
 0.9926404105864023 -0.06848825702868933 0.005950741070953493 0.028876446271599406 -0.0014694343661275442 -0.00876580325205512 0.001733371518953687 0.013817372344549281
 0.001687605174253811 0.013823584574329143 -0.0014694343661275442 -0.00876580325205512 0.005957942853447463 0.02887452363799779 0.9926403475773045 -0.06848967585537447
 -0.0014698270052033644 -0.00876578390661349 0.001733371518953687 0.013817372344549281 0.9926403475773045 -0.06848967585537447 0.005950351106484069 0.028875088253430502
0.1062942892872 0.005982457827621209 0.02898948612355313 0.9926076678000623 -0.06874434875369091 0.0016981110930334377 0.013873964513409992 -0.0014789056007377087 -0.008797902675046064
 0.9926076678000623 -0.06874434875369091 0.005975480824078268 0.028989987255384875 -0.0014785101740161359 -0.008797922304255284 0.0017442124143369027 0.013867697679235727
 0.0016981110930334377 0.013873964513409992 -0.0014785101740161359 -0.008797922304255284 0.0059827350941191815 0.028988056214883675 0.9926076043389283 -0.0687457727890178
 -0.0014789056007377087 -0.008797902675046064 0.0017442124143369027 0.013867697679235727 0.9926076043389283 -0.0687457727890178 0.005975088043242428 0.028988624607159886
0.11254689453939999 0.0063945048648986515 0.03084005161651903 0.9920636704660223 -0.07290805148892181 0.0018735308780186805 0.014691469661173354 -0.001630521005275506 -0.00931909100529792
 0.9920636704660223 -0.07290805148892181 0.006386683420109537 0.03084060682080335 -0.0016300790173719056 -0.009319115542171455 0.0019252418943515883 0.014684270636902632
 0.0018735308780186805 0.014691469661173354 -0.0016300790173719056 -0.009319115542171455 0.0063948164967400824 0.030838537591778136 0.9920635994219128 -0.07290956016801743
 -0.001630521005275506 -0.00931909100529792 0.0019252418943515883 0.014684270636902632 0.9920635994219128 -0.07290956016801743 0.006386243525182904 0.0308391694724083
0.11879949979160001 0.006824922058106979 0.03270475125288538 0.9914959137437726 -0.07708438668159003 0.0020582018003271613 0.015508372224821024 -0.0017901909435942924 -0.009839867556239197
 0.9914959137437726 -0.07708438668159003 0.006816207642938108 0.032705363826265675 -0.0017896999377823182 -0.009839897586964434 0.0021158472769784464 0.01550015161475214
 0.0020582018003271613 0.015508372224821024 -0.0017896999377823182 -0.009839897586964434 0.00682527012534833 0.03270315309751838 0.9914958346516631 -0.07708598018390597
 -0.0017901909435942924 -0.009839867556239197 0.0021158472769784464 0.01550015161475214 0.9914958346516631 -0.07708598018390597 0.006815718004936432 0.03270385267956738
0.1250521050438 0.007273988694293377 0.03458331249824843 0.9909041229387584 -0.08127314673752058 0.0022521895541072483 0.016324534891000483 -0.0019579828779889385 -0.010360094522123423
 0.9909041229387584 -0.08127314673752058 0.007264332676670853 0.03458398583733545 -0.001957440417812567 -0.010360130659340711 0.002316094453244534 0.01631519885694355
 0.0022521895541072483 0.016324534891000483 -0.001957440417812567 -0.010360130659340711 0.0072743752780755995 0.034581630195006846 0.9909040353253742 -0.08127482525449356
 -0.0019579828779889385 -0.010360094522123423 0.002316094453244534 0.01631519885694355 0.9909040353253742 -0.08127482525449356 0.007263790677354421 0.03458240184345114
0.131304710296 0.007741981837703649 0.03647546065419554 0.9902880251597985 -0.0854741154123937 0.002455557492633331 0.017139817614101233 -0.002133961851271315 -0.010879631756191065
 0.9902880251597985 -0.0854741154123937 0.007731335471401553 0.03647619825951573 -0.002133365520682298 -0.010879674638971928 0.002526046911040966 0.0171292678356149
 0.002455557492633331 0.017139817614101233 -0.002133365520682298 -0.010879674638971928 0.007742409030198289 0.036473694183415825 0.9902879285430333 -0.08547587914676154
 -0.002133961851271315 -0.010879631756191065 0.002526046911040966 0.0171292678356149 0.9902879285430333 -0.08547587914676154 0.0077307385039441495 0.03647454241957093
0.1375573155481 0.008121325060898642 0.03813393897557408 0.9897552438768268 -0.08943997027727783 0.002642147862593012 0.017929157620790045 -0.0022918938979874267 -0.011373492346526359
 0.9897552438768268 -0.08943997027727783 0.008109635093691144 0.03813472767606659 -0.002291239981017994 -0.01137354201149224 0.002719382645649975 0.017917410304322662
 0.002642147862593012 0.017929157620790045 -0.002291239981017994 -0.01137354201149224 0.008121794091320831 0.03813208851886539 0.9897551378440232 -0.08944181933150569
 -0.0022918938979874267 -0.011373492346526359 0.002719382645649975 0.017917410304322662 0.9897551378440232 -0.08944181933150569 0.008108981291424745 0.03813300062679282
0.1438099208003 0.008514001645380964 0.0397837832369935 0.9892037653728687 -0.09339588200619373 0.002836264619419011 0.018715439320291842 -0.0024561487058193335 -0.011864498861984533
 0.9892037653728687 -0.09339588200619373 0.008501218472692324 0.0397846255543753 -0.0024554345816486917 -0.011864555940230583 0.002920540370904942 0.018702404673202874
 0.002836264619419011 0.018715439320291842 -0.0024554345816486917 -0.011864555940230583 0.008514514465122826 0.039781848809128495 0.9892036494438717 -0.09339781657509853
 -0.0024561487058193335 -0.011864498861984533 0.002920540370904942 0.018702404673202874 0.9892036494438717 -0.09339781657509853 0.008500505378620356 0.03978282829787498
0.1500625260525 0.008919875269392084 0.041424858565122895 0.9886337300464593 -0.09734175559553644 0.003037841648956721 0.019498587055934123 -0.002626660948083975 -0.012352577642679684
 0.9886337300464593 -0.09734175559553644 0.00890594914881434 0.041425757190714056 -0.0026258839997704455 -0.012352642790943407 0.0031294521980811093 0.019484172022966765
 0.003037841648956721 0.019498587055934123 -0.0026258839997704455 -0.012352642790943407 0.008920433830261098 0.041422840181012645 0.9886336037338774 -0.09734377588227944
 -0.002626660948083975 -0.012352577642679684 0.0031294521980811093 0.019484172022966765 0.9886336037338774 -0.09734377588227944 0.008905174325612832 0.0414238907666091
0.15631513130469998 0.00933880866425929 0.043057034164607426 0.9880452789896277 -0.10127749631104284 0.0032468120715427153 0.02027852644703578 -0.0028033645031897755 -0.012837656571139042
