! Created with skrf 1.8.0 (http://scikit-rf.org).
# GHz S RI R 50.0 
!freq ReS11 ImS11 ReS12 ImS12 ReS13 ImS13
! ReS14 ImS14
! ReS21 ImS21 ReS22 ImS22 ReS23 ImS23
! ReS24 ImS24
! ReS31 ImS31 ReS32 ImS32 ReS33 ImS33
! ReS34 ImS34
! ReS41 ImS41 ReS42 ImS42 ReS43 ImS43
! ReS44 ImS44
!
0.0 0.001671655358736 0.0 0.9983283446412 0.0 6.451322846294e-05 0.0 -6.451322810749e-05 7.90059183045007e-21
 0.9983283446412 0.0 0.001671655358775 0.0 -6.451322810835e-05 7.900591830555388e-21 6.451322846338e-05 0.0
 6.451322846294e-05 0.0 -6.451322810835e-05 7.900591830555388e-21 0.00167165534454 0.0 0.998328344627 0.0
 -6.451322810749e-05 7.90059183045007e-21 6.451322846338e-05 0.0 0.998328344627 0.0 0.001671655344535 0.0
0.005 0.001798927660414402 0.001370530863015355 0.998167286005109 -0.0035010758565667765 9.004384538892976e-05 0.0006905714538917883 -8.758882393974937e-05 -0.00043691692093869784
 0.998167286005109 -0.0035010758565667765 0.0017989253087812291 0.0013705321696288087 -8.758897754005101e-05 -0.000436916967315309 9.007262730901256e-05 0.0006905606838535634
 9.004384538892976e-05 0.0006905714538917883 -8.758897754005101e-05 -0.000436916967315309 0.0017989283116263473 0.0013705976980269055 0.9981672863691392 -0.003501008791301859
 -8.758882393974937e-05 -0.00043691692093869784 9.007262730901256e-05 0.0006905606838535634 0.9981672863691392 -0.003501008791301859 0.0017989253761398036 0.0013705994560136083
0.006252605252188 0.001832426151444481 0.0017185228010868582 0.9981246137799327 -0.004377180605906676 9.738258424670449e-05 0.0008635519607351969 -9.415084040248786e-05 -0.0005466993869727549
 0.9981246137799327 -0.004377180605906676 0.0018324224752914208 0.0017185244045477908 -9.415107997542448e-05 -0.0005466994425675039 9.742755527120494e-05 0.0008635379387529734
 9.738258424670449e-05 0.0008635519607351969 -9.415107997542448e-05 -0.0005466994425675039 0.0018324271035158207 0.0017186063252014703 0.9981246142828298 -0.0043770967825623175
 -9.415084040248786e-05 -0.0005466993869727549 9.742755527120494e-05 0.0008635379387529734 0.9981246142828298 -0.0043770967825623175 0.0018324225138229336 0.0017186085069118525
0.01250521050438 0.0020094607342749124 0.003472743462261077 0.9978975500737307 -0.008755010544868809 0.0001397060045586544 0.0017274829009841857 -0.00013163437144036162 -0.0010959535964776153
 0.9978975500737307 -0.008755010544868809 0.002009446059914563 0.0034727463502766693 -0.0001316353224665157 -0.0010959536806548205 0.00013988540395016774 0.0017274488139744529
 0.0001397060045586544 0.0017274829009841857 -0.0001316353224665157 -0.0010959536806548205 0.00200946398538013 0.003472910132558416 0.9978975515268359 -0.008754843128534081
 -0.00013163437144036162 -0.0010959535964776153 0.00013988540395016774 0.0017274488139744529 0.9978975515268359 -0.008754843128534081 0.0020094456464002943 0.0034729143258644306
0.01875781575657 0.0022031702935696906 0.00525163589595915 0.997646853613521 -0.013144112363125198 0.00019158654602074193 0.0025923311321567246 -0.00017708360263299862 -0.0016469825057883957
 0.997646853613521 -0.013144112363125198 0.0022031373304789385 0.005251639703474472 -0.00017708573297485527 -0.0016469825832582188 0.00019198969886743888 0.002592269724243747
 0.00019158654602074193 0.0025923311321567246 -0.00017708573297485527 -0.0016469825832582188 0.0022031771838089244 0.00525188542221845 0.9976468564577948 -0.013143861409305544
 -0.00017708360263299862 -0.0016469825057883957 0.00019198969886743888 0.002592269724243747 0.9976468564577948 -0.013143861409305544 0.0022031359532095427 0.005251891438466402
0.02501042100875 0.0024139524121680874 0.007052687367895385 0.9973722119510467 -0.017546581862878757 0.000253128120437038 0.003458109239398638 -0.0002306140802354824 -0.002199524577600747
 0.9973722119510467 -0.017546581862878757 0.0024138938882207516 0.007052691677563399 -0.0002306178552459957 -0.002199524604518605 0.00025384446969163577 0.003458012069141154
 0.000253128120437038 0.003458109239398638 -0.0002306178552459957 -0.002199524604518605 0.0024139642873719203 0.007053019428232382 0.9973722166343495 -0.01754624737145907
 -0.0002306140802354824 -0.002199524577600747 0.00025384446969163577 0.003458012069141154 0.9973722166343495 -0.01754624737145907 0.002413891025404183 0.0070530270539534996
0.03126302626094 0.0026421882583041313 0.008874589215852257 0.9970732976257775 -0.021963297357055708 0.00032443465063993035 0.004324752208857363 -0.0002923378370584524 -0.002753388787146084
 0.9970732976257775 -0.021963297357055708 0.002642096912342556 0.008874593555701641 -0.00029234371987806957 -0.0027533887110179327 0.0003255538319308618 0.0043246096391212265
 0.00032443465063993035 0.004324752208857363 -0.00029234371987806957 -0.0027533887110179327 0.002642206463819909 0.00887500343744469 0.9970733045993053 -0.021962879291166127
 -0.0002923378370584524 -0.002753388787146084 0.0003255538319308618 0.0043246096391212265 0.9970733045993053 -0.021962879291166127 0.0026420920267301064 0.00887501243235165
0.037515631513130004 0.002888250496245734 0.010716476359513429 0.9967497763827663 -0.026394680096437757 0.0004056091254425184 0.005192163983918737 -0.0003623641513357945 -0.0033084080869047136
 0.9967497763827663 -0.026394680096437757 0.00288811907248539 0.010716480201384443 -0.000362372603120379 -0.0033084078464988404 0.00040722099890029155 0.0051919651680458635
 0.0004056091254425184 0.005192163983918737 -0.000362372603120379 -0.0033084078464988404 0.002888276376720736 0.010716972321471561 0.996749786102445 -0.02639417837894378
 -0.0003623641513357945 -0.0033084080869047136 0.00040722099890029155 0.0051919651680458635 0.996749786102445 -0.02639417837894378 0.0028881116106385728 0.010716982417509898
0.043768236765320004 0.003152506336220116 0.01257769587527526 0.9964013105297704 -0.03084092562126827 0.0004967531412749088 0.006060231628333135 -0.000440799805317038 -0.0038644252617951905
 0.9964013105297704 -0.03084092562126827 0.0031523275790675174 0.012577698633606365 -0.00044081128519871034 -0.003864424787088437 0.0004989478045808343 0.006059964495097917
 0.0004967531412749088 0.006060231628333135 -0.00044081128519871034 -0.003864424787088437 0.003152541233519893 0.012578273093242564 0.996401323456307 -0.030840340149831554
 -0.000440799805317038 -0.0038644252617951905 0.0004989478045808343 0.006059964495097917 0.996401323456307 -0.030840340149831554 0.003152316970048137 0.01257828399370145
0.050020842017509996 0.0034353189364952556 0.014457711355151634 0.9960275606501718 -0.03530209932784896 0.0005979666142446965 0.006928831192342375 -0.0005277491666511053 -0.004421287083739267
 0.9960275606501718 -0.03530209932784896 0.0034350855855115755 0.014457712385840604 -0.0005277641317023046 -0.004421286295830826 0.0006008344059441231 0.006928482430471924
 0.0005979666142446965 0.006928831192342375 -0.0005277641317023046 -0.004421286295830826 0.003435364189646185 0.014458369279305631 0.9960275772515357 -0.035301429976241354
 -0.0005277491666511053 -0.004421287083739267 0.0006008344059441231 0.006928482430471924 0.9960275772515357 -0.035301429976241354 0.003435071241226293 0.01445838065833732
0.055454545454549996 0.003696441545137076 0.016106402593363607 0.9956819628133281 -0.03919110565966668 0.000694178002064194 0.007684000093180255 -0.0006103042105843907 -0.004905784727712971
 0.9956819628133281 -0.03919110565966668 0.0036961548466486705 0.01610640155354243 -0.0006103225738789819 -0.00490578359661496 0.0006977043136298809 0.0076835686083152705
 0.000694178002064194 0.007684000093180255 -0.0006103225738789819 -0.00490578359661496 0.0036964968821507366 0.01610713016204372 0.9956819829947506 -0.03919036328669395
 -0.0006103042105843907 -0.004905784727712971 0.0006977043136298809 0.0076835686083152705 0.9956819829947506 -0.03919036328669395 0.0036961367648448034 0.01610714166937888
0.056273447269699996 0.0037370481151760985 0.016356055953989874 0.9956281866304592 -0.03977818334906224 0.0007093475703063388 0.007797830575958956 -0.0006233141876981391 -0.004978841473348154
 0.9956281866304592 -0.03977818334906224 0.003736752900238192 0.016356054553614326 -0.0006233330928531493 -0.004978840284410946 0.0007129790670313617 0.007797385618479563
 0.0007093475703063388 0.007797830575958956 -0.0006233330928531493 -0.004978840284410946 0.0037371050592091854 0.016356793976677494 0.9956282073828886 -0.0397774299593526
 -0.0006233141876981391 -0.004978841473348154 0.0007129790670313617 0.007797385618479563 0.9956282073828886 -0.0397774299593526 0.0037367342146453503 0.01635680547886521
0.06252605252188 0.00405805071863918 0.018272306594200753 0.9952028483490859 -0.044269102282427926 0.0008309919705434445 0.008667091130792405 -0.0007275943665945759 -0.005536935928340021
 0.9952028483490859 -0.044269102282427926 0.004057686355290137 0.018272301999227088 -0.0007276176645525486 -0.005536934241553076 0.0008354779802355082 0.008666534139358053
 0.0008309919705434445 0.008667091130792405 -0.0007276176645525486 -0.005536934241553076 0.004058120682568294 0.01827312404167169 0.9952028737372777 -0.04426826467262606
 -0.0007275943665945759 -0.005536935928340021 0.0008354779802355082 0.008666534139358053 0.9952028737372777 -0.04426826467262606 0.004057662702876126 0.01827313528182767
0.06877865777407 0.004398680802153002 0.02020606858254367 0.9947512061818137 -0.048774738511511706 0.0009629935596918197 0.009536468605997732 -0.0008406866825870865 -0.006095416613671067
 0.9947512061818137 -0.048774738511511706 0.00439823998632775 0.020206059968864643 -0.0008407148236746299 -0.006095414323174555 0.0009684251119122889 0.009535782455285403
 0.0009629935596918197 0.009536468605997732 -0.0008407148236746299 -0.006095414323174555 0.004398765107216881 0.02020696471851155 0.9947512366995965 -0.048773816471853255
 -0.0008406866825870865 -0.006095416613671067 0.0009684251119122889 0.009535782455285403 0.9947512366995965 -0.048773816471853255 0.004398210720900673 0.020206975281613058
0.07503126302626001 0.004759289698516763 0.022156965851768396 0.9942729214004683 -0.05329494190941574 0.0011054437252345137 0.010405813768422787 -0.0009626855184256006 -0.00665412778379271
 0.9942729214004683 -0.05329494190941574 0.004758765102503636 0.022156952334157994 -0.0009627189505063368 -0.006654124774617566 0.0011119120596945996 0.010404980030587678
 0.0011054437252345137 0.010405813768422787 -0.0009627189505063368 -0.006654124774617566 0.004759389658333099 0.022157939876311466 0.9942729575531297 -0.053293935203029434
 -0.0009626855184256006 -0.00665412778379271 0.0011119120596945996 0.010404980030587678 0.9942729575531297 -0.053293935203029434 0.0047587295574551495 0.022157949317504613
0.08128386827845 0.005140226019750282 0.024124634492997475 0.9937676565081326 -0.05782953625835261 0.001258431365093925 0.01127497281807077 -0.0010936825729757178 -0.0072129114160384795
 0.9937676565081326 -0.05782953625835261 0.005139610286473193 0.02412461512497833 -0.0010937217412380037 -0.007212907564078832 0.0012660279177272487 0.011273971747406141
 0.001258431365093925 0.01127497281807077 -0.0010937217412380037 -0.007212907564078832 0.005140342937523003 0.024125685537650425 0.9937676988126897 -0.05782844462608675
 -0.0010936825729757178 -0.0072129114160384795 0.0012660279177272487 0.011273971747406141 0.9937676988126897 -0.05782844462608675 0.005139567773212495 0.024125693382496483
0.08753647353064001 0.005541835609975866 0.026108718261542117 0.9932350755314001 -0.06237832370377572 0.0014220427602421545 0.01214378768800602 -0.0012337667665415965 -0.007771606966487654
 0.9932350755314001 -0.06237832370377572 0.00554112134849233 0.026108692035231217 -0.0012338121133783307 -0.007771602138443892 0.0014308591485851538 0.012142598205810802
 0.0014220427602421545 0.01214378768800602 -0.0012338121133783307 -0.007771602138443892 0.00554197077734752 0.026109845393439055 0.9932351245176426 -0.0623771468598183
 -0.0012337667665415965 -0.007771606966487654 0.0014308591485851538 0.012142598205810802 0.9932351245176426 -0.0623771468598183 0.005541071155332765 0.026109851138290494
0.09378907878283 0.005964461465696603 0.028108865389913626 0.9926748442832288 -0.06694108790917108 0.0015963614501003584 0.0130120962703936 -0.0013830241427539142 -0.008330051206719025
 0.9926748442832288 -0.06694108790917108 0.005963641246335735 0.02810883123606694 -0.001383076107613457 -0.00833004526005704 0.0016064894570289006 0.013010695949972291
 0.0015963614501003584 0.0130120962703936 -0.001383076107613457 -0.00833004526005704 0.0059646161615174295 0.02811006761105762 0.9926749004947306 -0.06693982554166623
 -0.0013830241427539142 -0.008330051206719025 0.0016064894570289006 0.013010695949972291 0.9926749004947306 -0.06693982554166623 0.005963582637869799 0.02811007072352978
0.100041684035 0.006408443634601343 0.030124726247535316 0.9920866306082068 -0.07151759637250031 0.001781468111020092 0.01387973258848751 -0.0015415377660699904 -0.008888078121730212
 0.9920866306082068 -0.07151759637250031 0.006407509983329867 0.03012468303581741 -0.001541596785242911 -0.008888070904650035 0.001792999667562773 0.013878097640473043
 0.001781468111020092 0.01387973258848751 -0.001541596785242911 -0.008888070904650035 0.006408619123098124 0.030126002493576425 0.9920866946033857 -0.07151624814479844
 -0.0015415377660699904 -0.008888078121730212 0.001792999667562773 0.013878097640473043 0.9920866946033857 -0.07151624814479844 0.006407442199466241 0.03012600241326946
0.1059090909091 0.006844797362227463 0.03203037821098816 0.9915089108575504 -0.07582444464032732 0.0019650518679043016 0.01469315471847955 -0.001698775731801978 -0.0094111972474423
 0.9915089108575504 -0.07582444464032732 0.006843750425999997 0.032030325417308644 -0.0016988417645556787 -0.009411188691870985 0.0019779842333239395 0.014691276734598281
 0.0019650518679043016 0.01469315471847955 -0.0016988417645556787 -0.009411188691870985 0.0068449934978783425 0.03203172289460534 0.9915089826792803 -0.07582301551351342
 -0.001698775731801978 -0.0094111972474423 0.0019779842333239395 0.014691276734598281 0.9915089826792803 -0.07582301551351342 0.006843673317749253 0.03203171928425013
0.1062942892872 0.006874119095913004 0.03215595158631706 0.991470104613654 -0.07610760216557887 0.0019774404357699098 0.014746526947948447 -0.001709387617396929 -0.009445518836062297
 0.991470104613654 -0.07610760216557887 0.006873064489607178 0.03215589812568323 -0.00170945412387537 -0.009445510187468484 0.0019904676031480524 0.014744632205814371
 0.0019774404357699098 0.014746526947948447 -0.00170945412387537 -0.009445510187468484 0.0068743166251114375 0.03215730072693345 0.9914701769671324 -0.07610616771586122
 -0.001709387617396929 -0.009445518836062297 0.0019904676031480524 0.014744632205814371 0.9914701769671324 -0.07610616771586122 0.006872986744393937 0.03215729686621913
0.11254689453939999 0.007361821627464365 0.03420219121018662 0.9908249388911281 -0.08071084525829005 0.0021843530146361204 0.015612306054852915 -0.0018866504878571227 -0.01000220158063931
 0.9908249388911281 -0.08071084525829005 0.007360638488939917 0.03420212624945585 -0.0018867249110927197 -0.010002191330110172 0.002198967965232963 0.01561012496074947
 0.0021843530146361204 0.015612306054852915 -0.0018867249110927197 -0.010002191330110172 0.007362042427754612 0.03420361204735231 0.9908250201945257 -0.08070932420145696
 -0.0018866504878571227 -0.01000220158063931 0.002198967965232963 0.01561012496074947 0.9908250201945257 -0.08070932420145696 0.007360549969820954 0.03420360379232599
0.11879949979160001 0.007871881663751638 0.036263092938713874 0.990150808731134 -0.08532705355808412 0.002402277217688759 0.016476893126428794 -0.0020733998707709606 -0.010557951674590943
 0.990150808731134 -0.08532705355808412 0.007870562355910802 0.03626301516730818 -0.002073482636564776 -0.01055793964236339 0.0024185722155007664 0.01647439771732676
 0.002402277217688759 0.016476893126428794 -0.002073482636564776 -0.01055793964236339 0.00787212694631562 0.03626458420996093 0.9901508995943571 -0.08532544548261975
 -0.0020733998707709606 -0.010557951674590943 0.0024185722155007664 0.01647439771732676 0.9901508995943571 -0.08532544548261975 0.007870462222702022 0.03626457092174796
0.1250521050438 0.008404626144405413 0.03833830179852118 0.9894473923329604 -0.08995594373107743 0.0026312810777934536 0.017340107989604683 -0.002269705853187356 -0.011112591527134175
 0.9894473923329604 -0.08995594373107743 0.008403162965678791 0.03833820984740631 -0.0022697973834547116 -0.011112577524088596 0.002649348457997817 0.017337268883706562
 0.0026312810777934536 0.017340107989604683 -0.0022697973834547116 -0.011112577524088596 0.008404897099420692 0.03833986217289215 0.9894474933850923 -0.0899542482033922
 -0.002269705853187356 -0.011112591527134175 0.002649348457997817 0.017337268883706562 0.9894474933850923 -0.0899542482033922 0.008403050349554719 0.03833984318882242
0.131304710296 0.008960378357465555 0.0404274593798951 0.9887143710104374 -0.09459722186748903 0.0028714291745226776 0.01820176717678652 -0.0024756350066861468 -0.011665940649988495
 0.9887143710104374 -0.09459722186748903 0.008958763535866885 0.04042735182271911 -0.0024757357192764 -0.011665924477627754 0.002891361322385007 0.018198553560298994
 0.0028714291745226776 0.01820176717678652 -0.0024757357192764 -0.011665924477627754 0.008960676152559067 0.040429087461993744 0.9887144829008109 -0.09459543842815135
 -0.0024756350066861468 -0.011665940649988495 0.002891361322385007 0.018198553560298994 0.9887144829008109 -0.09459543842815135 0.008958637538220413 0.04042906209725331
0.1375573155481 0.00941621340061417 0.04225921163752512 0.9880747314731044 -0.09897944506435764 0.0030934251269738684 0.019035343079178067 -0.00266187133440555 -0.012191512655558066
 0.9880747314731044 -0.09897944506435764 0.009414437173023359 0.042259090351002886 -0.0026619816468422463 -0.012191494275815506 0.0031152612243224172 0.01903175826832432
 0.0030934251269738684 0.019035343079178067 -0.0026619816468422463 -0.012191494275815506 0.009416538343101681 0.04226090663787068 0.9880748547130916 -0.09897757343474894
 -0.00266187133440555 -0.012191512655558066 0.0031152612243224172 0.01903175826832432 0.9880748547130916 -0.09897757343474894 0.009414297996868744 0.04226087656495631
0.1438099208003 0.009888231839669255 0.044080589043145706 0.9874123319177515 -0.10334980224046325 0.0033243551498702926 0.01986507946176841 -0.002855521120692493 -0.012713525452821473
 0.9874123319177515 -0.10334980224046325 0.009886286003664608 0.04408045299417795 -0.002855641445286097 -0.012713504674841286 0.0033481780595311823 0.019861095244950243
 0.0033243551498702926 0.01986507946176841 -0.002855641445286097 -0.012713504674841286 0.00988858490956861 0.04408234956046124 0.9874124671578339 -0.1033478419706337
 -0.002855521120692493 -0.012713525452821473 0.0033481780595311823 0.019861095244950243 0.9874124671578339 -0.1033478419706337 0.009886132906858285 0.04408231440420298
0.1500625260525 0.010376256680898664 0.04589141705758815 0.9867273539461477 -0.10770816185755129 0.0035641321885862016 0.020690877161559762 -0.0030564990916281797 -0.013231884708845195
 0.9867273539461477 -0.10770816185755129 0.010374132950916966 0.04589126519588589 -0.0030566298369093603 -0.013231861334507029 0.003590024208516323 0.020686464303049962
 0.0035641321885862016 0.020690877161559762 -0.0030566298369093603 -0.013231861334507029 0.010376638826500832 0.045893241637298646 0.9867275018540717 -0.10770611248106507
 -0.0030564990916281797 -0.013231884708845195 0.003590024208516323 0.020686464303049962 0.9867275018540717 -0.10770611248106507 0.010373965175227992 0.04589320102874925
0.15631513130469998 0.010880109546226853 0.04769152634028101 0.9860199802243185 -0.11205439333586263 0.003812668086373709 0.021512638873697736 -0.003264718854572917 -0.013746498208070638
 0.9860199802243185 -0.11205439333586263 0.010877799551079158 0.047691357601295135 -0.003264860425254714 -0.013746472032041124 0.003840710940741133 0.02150776712530346
