! Created with skrf 1.8.0 (http://scikit-rf.org).
# GHz S RI R 50.0 
!freq ReS11 ImS11 ReS12 ImS12 ReS13 ImS13
! ReS14 ImS14
! ReS21 ImS21 ReS22 ImS22 ReS23 ImS23
! ReS24 ImS24
! ReS31 ImS31 ReS32 ImS32 ReS33 ImS33
! ReS34 ImS34
! ReS41 ImS41 ReS42 ImS42 ReS43 ImS43
! ReS44 ImS44
!
0.0 0.001586590013494 0.0 0.9984134099637 0.0 6.150837003101e-05 0.0 -6.15083694976e-05 7.532602782600854e-21
 0.9984134099637 0.0 0.00158659001352 0.0 -6.1508369499e-05 7.532602782772303e-21 6.150837003138e-05 0.0
 6.150837003101e-05 0.0 -6.1508369499e-05 7.532602782772303e-21 0.0015865900249 0.0 0.9984134099751 0.0
 -6.15083694976e-05 7.532602782600854e-21 6.150837003138e-05 0.0 0.9984134099751 0.0 0.001586590024861 0.0
0.005 0.0017072335100609978 0.0012934325109647765 0.9982607601642777 -0.0033235621671265916 8.685084248460391e-05 0.0007044720872894158 -8.425488299993308e-05 -0.0004374728873053778
 0.9982607601642777 -0.0033235621671265916 0.0017072154489217585 0.0012934430153985067 -8.425416324674392e-05 -0.0004374722768967612 8.697909466195256e-05 0.0007044234733732707
 8.685084248460391e-05 0.0007044720872894158 -8.425416324674392e-05 -0.0004374722768967612 0.001707233802342388 0.0012933650214190075 0.9982607597980877 -0.003323629233330419
 -8.425488299993308e-05 -0.0004374728873053778 8.697909466195256e-05 0.0007044234733732707 0.9982607597980877 -0.003323629233330419 0.0017072144357049553 0.0012933763846694508
0.006252605252188 0.0017389176077918025 0.001621893535571185 0.9982204139434706 -0.004155261162552581 9.409243332232809e-05 0.0008809177571218143 -9.06995523298361e-05 -0.0005474103150701142
 0.9982204139434706 -0.004155261162552581 0.0017388893745413924 0.0016219068188836716 -9.069843278458668e-05 -0.000547409561254577 9.429281791301773e-05 0.0008808545875774549
 9.409243332232809e-05 0.0008809177571218143 -9.069843278458668e-05 -0.000547409561254577 0.001738918147986861 0.001621809187521834 0.9982204134537569 -0.0041553449811494465
 -9.06995523298361e-05 -0.0005474103150701142 9.429281791301773e-05 0.0008808545875774549 0.9982204134537569 -0.0041553449811494465 0.001738887873197245 0.0016218235563457907
0.01250521050438 0.0019059593738657015 0.0032778641518231145 0.9980062868652296 -0.008311304986257831 0.00013562972699181908 0.001762111075656673 -0.0001273863904511817 -0.001097472137087212
 0.9980062868652296 -0.008311304986257831 0.0019058466360807006 0.0032778922324954536 -0.0001273819840009908 -0.0010974707298188327 0.00013642889643627362 0.0017619588040745768
 0.00013562972699181908 0.001762111075656673 -0.0001273819840009908 -0.0010974707298188327 0.0019059620829739166 0.0032776957000810593 0.9980062854493492 -0.008311472407098149
 -0.0001273863904511817 -0.001097472137087212 0.00013642889643627362 0.0017619588040745768 0.9980062854493492 -0.008311472407098149 0.0019058411784048767 0.003277726086002822
0.01875781575657 0.0020880888879017635 0.004957449659704923 0.9977707561758752 -0.012478240963880092 0.00018621893662213593 0.00264419565538955 -0.00017168440272855777 -0.0016493501783698247
 0.9977707561758752 -0.012478240963880092 0.002087835556694876 0.004957494122289884 -0.0001716745839157756 -0.0016493482358409745 0.0001880143720517537 0.0026439232181346673
 0.00018621893662213593 0.00264419565538955 -0.0001716745839157756 -0.0016493482358409745 0.002088095426259734 0.004957197248491744 0.9977707534175777 -0.012478491944644855
 -0.00017168440272855777 -0.0016493501783698247 0.0001880143720517537 0.0026439232181346673 0.9977707534175777 -0.012478491944644855 0.0020878237150427207 0.0049572454127658335
0.02501042100875 0.0022856682129135685 0.006658278218816721 0.9975135383726828 -0.016658076616341496 0.00024595944469982 0.0035272104429140503 -0.00022370503137947485 -0.0022027793009246938
 0.9975135383726828 -0.016658076616341496 0.002285218303524719 0.00665834069430816 -0.00022368770266765993 -0.00220277696144456 0.00024914887741479916 0.003526781804443916
 0.00024595944469982 0.0035272104429140503 -0.00022368770266765993 -0.00220277696144456 0.002285680238346796 0.006657941998764211 0.997513533837244 -0.01665841118300682
 -0.00022370503137947485 -0.0022027793009246938 0.00024914887741479916 0.003526781804443916 0.997513533837244 -0.01665841118300682 0.002285197638952221 0.006658009790341341
0.03126302626094 0.002499044420544004 0.008379122701500886 0.9972343358207211 -0.020851663091421647 0.000314950822010402 0.004411109795972677 -0.0002835563683472972 -0.0027575724743769065
 0.9972343358207211 -0.020851663091421647 0.0024983420170453757 0.00837920486144755 -0.0002835294553772084 -0.0027575698965879364 0.0003199325900634075 0.004410483916466227
 0.000314950822010402 0.004411109795972677 -0.0002835294553772084 -0.0027575698965879364 0.002499063610317262 0.008378702857876948 0.9972343290742296 -0.020852081310122877
 -0.0002835563683472972 -0.0027575724743769065 0.0003199325900634075 0.004410483916466227 0.9972343290742296 -0.020852081310122877 0.002498310100127716 0.008378792207953754
0.037515631513130004 0.0027285569650035315 0.01011917804891657 0.9969328443889438 -0.02505941774535889 0.0003932919329348055 0.005295814625280764 -0.00035134396769671405 -0.0033135696544621747
 0.9969328443889438 -0.02505941774535889 0.0027275461953278454 0.010119281602193641 -0.000351305416791009 -0.0033135670173809143 0.0004004651367714137 0.005294945408766357
 0.0003932919329348055 0.005295814625280764 -0.000351305416791009 -0.0033135670173809143 0.0027285850105534166 0.010118674800343477 0.9969328349902465 -0.02505991972375116
 -0.00035134396769671405 -0.0033135696544621747 0.0004004651367714137 0.005294945408766357 0.9969328349902465 -0.02505991972375116 0.0027275006008947067 0.01011878771953946
0.043768236765320004 0.002974540513986117 0.011877841355906932 0.9966087565402987 -0.029281543987223935 0.00048108050605848905 0.006181227953040423 -0.0004271711343452566 -0.0038706222366834873
 0.9966087565402987 -0.029281543987223935 0.002973165529568591 0.011877968046325115 -0.00042711891104554915 -0.0038706197396745977 0.0004908450779971517 0.006180064189316251
 0.00048108050605848905 0.006181227953040423 -0.00042711891104554915 -0.0038706197396745977 0.0029745791220024587 0.011877254957396376 0.9966087440400887 -0.029282129871434387
 -0.0004271711343452566 -0.0038706222366834873 0.0004908450779971517 0.006180064189316251 0.9966087440400887 -0.029282129871434387 0.0029731038375226944 0.011877393534095787
0.050020842017509996 0.00323732626490665 0.013654620980697862 0.9962617629103627 -0.03351812209697802 0.0005784128708595821 0.007067241343044315 -0.0005111390245643574 -0.004428586638536854
 0.9962617629103627 -0.03351812209697802 0.0032355312220071837 0.01365477258556536 -0.0005110711126180007 -0.004428584501265219 0.0005911695992442234 0.007065726647307763
 0.0005784128708595821 0.007067241343044315 -0.0005110711126180007 -0.004428584501265219 0.0032373771608824485 0.01365395173089426 0.9962617468517958 -0.03351879206428276
 -0.0005111390245643574 -0.004428586638536854 0.0005911695992442234 0.007065726647307763 0.9962617468517958 -0.03351879206428276 0.0032354510212897632 0.013654118130364117
0.055454545454549996 0.0034795956009079625 0.015213077741876723 0.9959413716844258 -0.037211576312981096 0.0006708219935356198 0.007837610654998729 -0.0005907978898612929 -0.004914105058220732
 0.9959413716844258 -0.037211576312981096 0.0034773901534475814 0.015213252466763536 -0.0005907147201994414 -0.004914103427701215 0.000686505147868294 0.007835741132333242
 0.0006708219935356198 0.007837610654998729 -0.0005907147201994414 -0.004914103427701215 0.0034796585903185346 0.015212336762793115 0.9959413521544166 -0.03721231952453481
 -0.0005907978898612929 -0.004914105058220732 0.000686505147868294 0.007835741132333242 0.9959413521544166 -0.03721231952453481 0.003477291916108202 0.01521252915902775
0.056273447269699996 0.0035172426132262973 0.01544909194733017 0.9958915532406123 -0.037769153752891936 0.0006853837673850159 0.007953738052429396 -0.0006033466628163424 -0.004987321163056014
 0.9958915532406123 -0.037769153752891936 0.0035149716559162926 0.015449270276382036 -0.0006032610635178167 -0.004987319625442505 0.0007015342927269101 0.007951810803907939
 0.0006853837673850159 0.007953738052429396 -0.0006032610635178167 -0.004987319625442505 0.0035173075402693313 0.015448340181229413 0.9958915331564363 -0.037769908018871284
 -0.0006033466628163424 -0.004987321163056014 0.0007015342927269101 0.007951810803907939 0.9958915331564363 -0.037769908018871284 0.0035148705434254724 0.015448536645311782
0.06252605252188 0.0038146155056166635 0.017260871412216005 0.9954978170012138 -0.042034586498298804 0.0008020861892636565 0.0088405947744296 -0.000703890918376109 -0.0055466842754205905
 0.9954978170012138 -0.042034586498298804 0.0038118127489164826 0.017261078307278747 -0.0007037856500383035 -0.005546683597581519 0.0008220329823140835 0.008838188054741096
 0.0008020861892636565 0.0088405947744296 -0.0007037856500383035 -0.005546683597581519 0.0038146962275365784 0.01726003750676935 0.9954977924138932 -0.04203542531109195
 -0.000703890918376109 -0.0055466842754205905 0.0008220329823140835 0.008838188054741096 0.9954977924138932 -0.04203542531109195 0.0038116883332849744 0.01726026635410042
0.06877865777407 0.004129768620509684 0.01908960405185879 0.9950802438441734 -0.04631432829172744 0.0009286112489594728 0.00972768267989567 -0.0008128664554182777 -0.0061065335854890365
 0.9950802438441734 -0.04631432829172744 0.004126378133923852 0.01908984138692298 -0.0008127395530059305 -0.006106534047686858 0.0009527575754992771 0.009724724211520618
 0.0009286112489594728 0.00972768267989567 -0.0008127395530059305 -0.006106534047686858 0.004129866921339271 0.019088688425830065 0.9950802142636702 -0.0463152519319818
 -0.0008128664554182777 -0.0061065335854890365 0.0009527575754992771 0.009724724211520618 0.9950802142636702 -0.0463152519319818 0.0041262280354891975 0.019088952052595278
0.07503126302626001 0.004463023444564139 0.02093495279745349 0.9946385239577495 -0.0506082567155562 0.0010650480532590182 0.01061486808097466 -0.000930365669273355 -0.006666725213294467
 0.9946385239577495 -0.0506082567155562 0.00445898923631917 0.02093522247928215 -0.0009302151841772178 -0.006666727115873925 0.0010937979292300131 0.01061128016611412
 0.0010650480532590182 0.01061486808097466 -0.0009302151841772178 -0.006666727115873925 0.004463141130728938 0.020933955909282913 0.9946384888807089 -0.05060926549819648
 -0.000930365669273355 -0.006666725213294467 0.0010937979292300131 0.01061128016611412 0.9946384888807089 -0.05060926549819648 0.004458811089413485 0.02093425679054543
0.08128386827845 0.004814699287608122 0.02279659266582719 0.9941723483618552 -0.05491622509371382 0.0012114835858888706 0.011502012885003016 -0.001056478613108756 -0.007227113369715193
 0.9941723483618552 -0.05491622509371382 0.004809965287939192 0.022796896635168346 -0.0010563026128549684 -0.007227117033054103 0.0012452417247497019 0.011497712345028178
 0.0012114835858888706 0.011502012885003016 -0.0010563026128549684 -0.007227117033054103 0.004814838188741328 0.02279551501432514 0.9941723072703973 -0.05491731936702909
 -0.001056478613108756 -0.007227113369715193 0.0012452417247497019 0.011497712345028178 0.9941723072703973 -0.05491731936702909 0.0048097567429721075 0.022795855705815646
0.08753647353064001 0.0051851132517113365 0.024674206502793262 0.9936814091624028 -0.0592380667034796 0.0013680025954747887 0.012388974908050679 -0.0011912929168762388 -0.007787550083193765
 0.9936814091624028 -0.0592380667034796 0.005179623297183628 0.024674546736054213 -0.001191089485065523 -0.007787555847634242 0.0014071743493018626 0.012383873023629878
 0.0013680025954747887 0.012388974908050679 -0.001191089485065523 -0.007787555847634242 0.005185275222095315 0.024673048627261263 0.9936813615231117 -0.05923924684847753
 -0.0011912929168762388 -0.007787550083193765 0.0014071743493018626 0.012383873023629878 0.9936813615231117 -0.05923924684847753 0.005179382021967336 0.024673431767759955
0.09378907878283 0.0055745801728224655 0.026567481942313745 0.9931653997816666 -0.06357359777748753 0.0015346874854258693 0.013275608115040177 -0.001334893702558449 -0.008347885005684253
 0.9931653997816666 -0.06357359777748753 0.005568277989701089 0.026567860453870232 -0.0013346609386795224 -0.008347893231484462 0.0015796787810572175 0.013269610567125703
 0.0015346874854258693 0.013275608115040177 -0.0013346609386795224 -0.008347893231484462 0.005574767092258976 0.02656624442422174 0.9931653450437756 -0.06357486420583786
 -0.001334893702558449 -0.008347885005684253 0.0015796787810572175 0.013269610567125703 0.9931653450437756 -0.06357486420583786 0.005568001671544162 0.026566672738450196
0.100041684035 0.005983412539796043 0.02847610917974673 0.9926240151692935 -0.06792261969869341 0.0017116182069113566 0.0141617627984184 -0.001487363495189274 -0.008907965286059829
 0.9926240151692935 -0.06792261969869341 0.005976241727867673 0.02847652802477957 -0.0014870995145785527 -0.008907976353336868 0.001762835476889918 0.014154769610158633
 0.0017116182069113566 0.0141617627984184 -0.0014870995145785527 -0.008907976353336868 0.005983626314808315 0.028474792637014936 0.9926239527637162 -0.06792397285788021
 -0.001487363495189274 -0.008907965286059829 0.001762835476889918 0.014154769610158633 0.9926239527637162 -0.06792397285788021 0.00597592807503362 0.02847526893912857
0.1059090909091 0.006384947233635305 0.03028084051336753 0.992092634417039 -0.0720157967584407 0.0018870363687360277 0.014992753315818851 -0.0016385776422945893 -0.009433171198787865
 0.992092634417039 -0.0720157967584407 0.006376909883156848 0.030281299115624 -0.0016382826680274827 -0.009433185295832388 0.0019444660879338192 0.014984729806853794
 0.0018870363687360277 0.014992753315818851 -0.0016382826680274827 -0.009433185295832388 0.00638518796856142 0.03027945041302969 0.99209256428103 -0.07201723173947913
 -0.0016385776422945893 -0.009433171198787865 0.0019444660879338192 0.014984729806853794 0.99209256428103 -0.07201723173947913 0.006376559132209816 0.0302799743893537
0.1062942892872 0.006411920398148243 0.030399779298974493 0.9920569520015519 -0.07228492064820637 0.0018988721524967175 0.015047285724577999 -0.0016487821314669503 -0.00946763548199209
 0.9920569520015519 -0.07228492064820637 0.006403824414193314 0.030400240576919892 -0.0016484850652019678 -0.009467649790653258 0.001956722262600104 0.015039191204315015
 0.0018988721524967175 0.015047285724577999 -0.0016484850652019678 -0.009467649790653258 0.006412162963214626 0.030398384391871442 0.9920568813395407 -0.07228636101500792
 -0.0016487821314669503 -0.00946763548199209 0.001956722262600104 0.015039191204315015 0.9920568813395407 -0.07228636101500792 0.006403471158369705 0.030398911589529818
0.11254689453939999 0.006860411241519117 0.032338183003040824 0.9914639088720922 -0.07666027685691573 0.0020965240513914573 0.015932020254302154 -0.001819226666170085 -0.010026737504113198
 0.9914639088720922 -0.07666027685691573 0.006851333383026652 0.0323386888616171 -0.001818894661102083 -0.010026755473808026 0.002161414224227905 0.015922712939572696
 0.0020965240513914573 0.015932020254302154 -0.001818894661102083 -0.010026755473808026 0.006860684560595094 0.032336710427831844 0.9914638293439905 -0.07666180494308278
 -0.001819226666170085 -0.010026737504113198 0.002161414224227905 0.015922712939572696 0.9914638293439905 -0.07666180494308278 0.006850938280759911 0.03233729152685239
0.11879949979160001 0.0073291898942754435 0.03429100961774898 0.990844586475839 -0.08104845359155559 0.0023046458648402443 0.016815806447181097 -0.0019987712774469594 -0.010585110582620032
 0.990844586475839 -0.08104845359155559 0.007319073282502406 0.034291562257644466 -0.0019984024961386022 -0.010585132652647624 0.0023769836006006435 0.01680516904999093
 0.0023046458648402443 0.016815806447181097 -0.0019984024961386022 -0.010585132652647624 0.007329495961506511 0.034289460112105 0.9908444974496688 -0.0810500699375796
 -0.0019987712774469594 -0.010585110582620032 0.0023769836006006435 0.01680516904999093 0.9908444974496688 -0.0810500699375796 0.0073186341174754765 0.034290098221748666
0.1250521050438 0.007818558385894635 0.03625794632255286 0.990198687788466 -0.08544920592098634 0.002523306683100579 0.017698481154397507 -0.0021874871704930196 -0.011142591252066564
 0.990198687788466 -0.08544920592098634 0.007807345949319711 0.0362585480027615 -0.002187079791244726 -0.01114261788136888 0.0026034996766502363 0.01768639050775711
 0.002523306683100579 0.017698481154397507 -0.002187079791244726 -0.01114261788136888 0.007818899227257616 0.03625632066141202 0.9901985886086169 -0.0854509110995074
 -0.0021874871704930196 -0.011142591252066564 0.0026034996766502363 0.01768639050775711 0.9901985886086169 -0.0854509110995074 0.007806860534131604 0.036257019000292004
0.131304710296 0.00832881581981997 0.03823867752939259 0.9895259182422164 -0.08986227934250045 0.00275257262205416 0.01857987810359228 -0.002385442480716622 -0.011699013350820098
 0.9895259182422164 -0.08986227934250045 0.00831645027715321 0.038239330573159265 -0.0023849946975441874 -0.011699045017876795 0.002841028677895591 0.018566205109316634
 0.00275257262205416 0.01857987810359228 -0.0023849946975441874 -0.011699045017876795 0.008329193494069364 0.03823697652309108 0.9895258082280751 -0.08986407395917642
 -0.002385442480716622 -0.011699013350820098 0.002841028677895591 0.018566205109316634 0.9895258082280751 -0.08986407395917642 0.008315916455599587 0.038237738425722465
0.1375573155481 0.008745133888564193 0.03997373904883355 0.9889411606570279 -0.09402812951369266 0.002963697215692998 0.01943373869439281 -0.002563791408165663 -0.012228214503579202
 0.9889411606570279 -0.09402812951369266 0.008731553269338506 0.03997443246849383 -0.0025633003775936886 -0.012228251249217035 0.0030606115590954904 0.019418500730226773
 0.002963697215692998 0.01943373869439281 -0.0025633003775936886 -0.012228251249217035 0.008745549443801189 0.039971963696172494 0.9889410392954119 -0.09403001395759829
 -0.002563791408165663 -0.012228214503579202 0.0030606115590954904 0.019418500730226773 0.9889410392954119 -0.09403001395759829 0.008730969605194205 0.03997277850285021
0.1438099208003 0.00917615268525971 0.041699306327420166 0.9883357392331067 -0.09818308073185364 0.003183333624394334 0.020284051319390595 -0.002749272498137944 -0.012754105059312527
 0.9883357392331067 -0.09818308073185364 0.009161298712719698 0.04170004186060865 -0.002748736250257041 -0.012754147359298598 0.003289075833218289 0.020267130218991066
 0.003183333624394334 0.020284051319390595 -0.002748736250257041 -0.012754147359298598 0.00917660804561389 0.041697457529477434 0.9883356058411641 -0.09818505560139902
 -0.002749272498137944 -0.012754105059312527 0.003289075833218289 0.020267130218991066 0.9883356058411641 -0.09818505560139902 0.009160663224589274 0.041698327942172736
0.1500625260525 0.009621715930318984 0.04341522494931097 0.9877098147388853 -0.10232701970074985 0.00341140312322909 0.021130726071847024 -0.0029418078951913497 -0.013276597754175778
 0.9877098147388853 -0.10232701970074985 0.009605530104094375 0.043416004497903206 -0.0029412244628278135 -0.013276646103698171 0.0035263404240924267 0.02111199937268031
 0.00341140312322909 0.021130726071847024 -0.0029412244628278135 -0.013276646103698171 0.00962221304008008 0.04341330364292446 0.987709668612498 -0.10232908561709697
 -0.0029418078951913497 -0.013276597754175778 0.0035263404240924267 0.02111199937268031 0.987709668612498 -0.10232908561709697 0.009604840849344473 0.04341423256425579
0.15631513130469998 0.010081666174119625 0.04512134512451745 0.9870635488310109 -0.10645983374232028 0.0036478260270723043 0.021973674641991653 -0.0031413187507723555 -0.013795607223003171
 0.9870635488310109 -0.10645983374232028 0.0100640897643252 0.04512217076361785 -0.003140686169408651 -0.013795662136605581 0.0037723232578965567 0.021953015632873843
