! Created with skrf 1.8.0 (http://scikit-rf.org).
# GHz S RI R 50.0 
!freq ReS11 ImS11 ReS12 ImS12 ReS13 ImS13
! ReS14 ImS14
! ReS21 ImS21 ReS22 ImS22 ReS23 ImS23
! ReS24 ImS24
! ReS31 ImS31 ReS32 ImS32 ReS33 ImS33
! ReS34 ImS34
! ReS41 ImS41 ReS42 ImS42 ReS43 ImS43
! ReS44 ImS44
!
0.0 0.001541388209594 0.0 0.9984586117852 0.0 5.992982810064e-05 0.0 -5.992982766928e-05 7.339287162863624e-21
 0.9984586117852 0.0 0.001541388209628 0.0 -5.992982767028e-05 7.339287162986087e-21 5.992982809942e-05 0.0
 5.992982810064e-05 0.0 -5.992982767028e-05 7.339287162986087e-21 0.001541388212199 0.0 0.9984586117878 0.0
 -5.992982766928e-05 7.339287162863624e-21 5.992982809942e-05 0.0 0.9984586117878 0.0 0.001541388212185 0.0
0.005 0.0016585037023144247 0.0012520159996385351 0.9983104080173792 -0.003229350660764825 8.53620434174233e-05 0.000714076057828954 -8.254511298830651e-05 -0.0004388310713308062
 0.9983104080173792 -0.003229350660764825 0.0016585169245658372 0.0012520082211927477 -8.25450903038627e-05 -0.00043883098457480284 8.528119376297847e-05 0.0007141068079911513
 8.53620434174233e-05 0.000714076057828954 -8.25450903038627e-05 -0.00043883098457480284 0.0016585044071166454 0.0012520828061687742 0.9983104083818016 -0.0032292836016671596
 -8.254511298830651e-05 -0.0004388310713308062 8.528119376297847e-05 0.0007141068079911513 0.9983104083818016 -0.0032292836016671596 0.0016585169438947554 0.0012520755288003432
0.006252605252188 0.0016892197766582191 0.0015699866338088205 0.9982712868344621 -0.004037481845383503 9.264242617523751e-05 0.0008929151039207375 -8.893979157264461e-05 -0.0005491183821091271
 0.9982712868344621 -0.004037481845383503 0.0016892404461417263 0.0015699767620345184 -8.893975682668903e-05 -0.000549118273673019 9.25161056038982e-05 0.0008929550376063281
 9.264242617523751e-05 0.0008929151039207375 -8.893975682668903e-05 -0.000549118273673019 0.0016892207956854745 0.0015700701247028607 0.998271287321047 -0.004037398030474145
 -8.893979157264461e-05 -0.0005491183821091271 9.25161056038982e-05 0.0008929550376063281 0.998271287321047 -0.004037398030474145 0.001689240392763593 0.0015700608918354788
0.01250521050438 0.0018509173483580294 0.0031731897894891788 0.9980639466379603 -0.008075812794854531 0.0001344694058887513 0.0017860182873170067 -0.00012527365470736573 -0.0011009480873877045
 0.9980639466379603 -0.008075812794854531 0.001850999893592134 0.003173168553269517 -0.00012527352453909734 -0.0011009478697689258 0.0001339656517414216 0.0017861142876186072
 0.0001344694058887513 0.0017860182873170067 -0.00012527352453909734 -0.0011009478697689258 0.0018509208583196858 0.0031733564464777077 0.9980639480160091 -0.008075645388838096
 -0.00012527365470736573 -0.0011009480873877045 0.0001339656517414216 0.0017861142876186072 0.9980639480160091 -0.008075645388838096 0.0018509991059128302 0.0031733366225182814
0.01875781575657 0.00202683546175674 0.004799445215157644 0.997836332687478 -0.012124829396312086 0.00018550635081877927 0.0026799654034060255 -0.0001690449607917415 -0.0016546196460023885
 0.997836332687478 -0.012124829396312086 0.002027020968276622 0.004799411025994875 -0.00016904467982579467 -0.0016546193158279662 0.00018437468407279906 0.002680136748026492
 0.00018550635081877927 0.0026799654034060255 -0.00016904467982579467 -0.0016546193158279662 0.0020268429446918448 0.0047996947857876565 0.9978363353699513 -0.01212457850324199
 -0.0001690449607917415 -0.0016546196460023885 0.00018437468407279906 0.002680136748026492 0.9978363353699513 -0.01212457850324199 0.0020270187641322677 0.004799662943525567
0.02501042100875 0.002217318064308281 0.006446454758376716 0.997588176298146 -0.016186491317295996 0.0002458506611382724 0.003574805031282969 -0.00022036322922256173 -0.0022098646916366787
 0.997588176298146 -0.016186491317295996 0.002217647551080097 0.0064464059466817145 -0.00022036274575467014 -0.002209864243124718 0.00024384048876235272 0.0035750740355337107
 0.0002458506611382724 0.003574805031282969 -0.00022036274575467014 -0.002209864243124718 0.002217330997230376 0.006446787027651273 0.9975881806907713 -0.016186156956220842
 -0.00022036322922256173 -0.0022098646916366787 0.00024384048876235272 0.0035750740355337107 0.9975881806907713 -0.016186156956220842 0.0022176432300688317 0.006446741685617149
0.03126302626094 0.0024226948118824935 0.008113033528346584 0.997319195145619 -0.020261634159571253 0.00031560038376056063 0.004470496900147891 -0.0002793346939716768 -0.0027664974957651743
 0.997319195145619 -0.020261634159571253 0.00242320925429172 0.008112968346416227 -0.00027933395926498504 -0.0027664969207204454 0.00031246076957808005 0.004470888934759324
 0.00031560038376056063 0.004470496900147891 -0.00027933395926498504 -0.0027664969207204454 0.0024227146766089623 0.008113448236537297 0.9973192016575548 -0.020261216346498943
 -0.0002793346939716768 -0.0027664974957651743 0.00031246076957808005 0.004470888934759324 0.9973192016575548 -0.020261216346498943 0.002423202107838048 0.008113387862015545
0.037515631513130004 0.0026432881476926707 0.00979840723483815 0.9970291005742316 -0.024350672061642306 0.00039485313197924564 0.005366965771250054 -0.00034606315091903863 -0.0033243610859676215
 0.9970291005742316 -0.024350672061642306 0.002644028493269374 0.009798323858141405 -0.00034606211885545077 -0.0033243603737208925 0.0003903326952103001 0.005367509293027523
 0.00039485313197924564 0.005366965771250054 -0.00034606211885545077 -0.0033243603737208925 0.002643316427707141 0.009798904103386331 0.9970291096158913 -0.02435017078316229
 -0.00034606315091903863 -0.0033243610859676215 0.0003903326952103001 0.005367509293027523 0.9970291096158913 -0.02435017078316229 0.002644017801417447 0.009798827114250654
0.043768236765320004 0.0028794160336658194 0.011501998420963657 0.9967176005611182 -0.02845381139805621 0.00048370558362455354 0.006264117817503939 -0.00042065026165864403 -0.003883310869449192
 0.9967176005611182 -0.02845381139805621 0.0028804232143900175 0.011501894948853808 -0.00042064888839560776 -0.0038833100067962754 0.0004775524523837936 0.0062648444039494315
 0.00048370558362455354 0.006264117817503939 -0.00042064888839560776 -0.0038833100067962754 0.0028794542142709374 0.011502577130192421 0.9967176125455123 -0.028453226633222146
 -0.00042065026165864403 -0.003883310869449192 0.0004775524523837936 0.0062648444039494315 0.9967176125455123 -0.028453226633222146 0.002880408246732505 0.011502481896085867
0.050020842017509996 0.0031313932187766393 0.013223338065381826 0.9963844012206374 -0.0325711391077929 0.0005822531820194515 0.0071618473966955235 -0.0005031956654864713 -0.0044432078660139925
 0.9963844012206374 -0.0325711391077929 0.0031327081623025053 0.013223212521403134 -0.0005031939092632072 -0.0044432068371715785 0.0005742149757548429 0.007162791782190959
 0.0005822531820194515 0.0071618473966955235 -0.0005031939092632072 -0.0044432068371715785 0.0031314427871599417 0.013223998268148886 0.9963844165642152 -0.03257047081410673
 -0.0005031956654864713 -0.0044432078660139925 0.0005742149757548429 0.007162791782190959 0.9963844165642152 -0.03257047081410673 0.003132688178255276 0.013223883111110165
0.055454545454549996 0.0033634831146746847 0.014733333435260378 0.9960769894013117 -0.036160754136711604 0.0006758407188483654 0.00794238216593798 -0.0005814691153635359 -0.004930438398676825
 0.9960769894013117 -0.036160754136711604 0.0033650987557357465 0.01473318704613074 -0.0005814669938752948 -0.00493043721054282 0.0006659589663506372 0.00794354651348471
 0.0006758407188483654 0.00794238216593798 -0.0005814669938752948 -0.00493043721054282 0.0033635437862439186 0.014734064144892842 0.9960770080037702 -0.03616001321261626
 -0.0005814691153635359 -0.004930438398676825 0.0006659589663506372 0.00794354651348471 0.9960770080037702 -0.03616001321261626 0.003365073800971597 0.014733930274889931
0.056273447269699996 0.0033995318884782 0.014962022245993236 0.9960292076940086 -0.03670266596259444 0.0006905899256161388 0.00806004037698237 -0.0005937970063515637 -0.00500391539244273
 0.9960292076940086 -0.03670266596259444 0.003401195528012945 0.014961872577823393 -0.0005937948272699962 -0.0050039141789880205 0.0006804137553547435 0.008061240489636733
 0.0006905899256161388 0.00806004037698237 -0.0005937948272699962 -0.0050039141789880205 0.0033995943310844243 0.014962763556649642 0.9960292268155685 -0.036701914086652236
 -0.0005937970063515637 -0.00500391539244273 0.0006804137553547435 0.008061240489636733 0.9960292268155685 -0.036701914086652236 0.0034011697747335415 0.014962626751574443
0.06252605252188 0.0036841420085028487 0.016717688270002244 0.9956517247379312 -0.04084835037200039 0.0008088082026366288 0.008958575961092893 -0.0006925499160218078 -0.005565297252370637
 0.9956517247379312 -0.04084835037200039 0.003686195292681019 0.01671751234908056 -0.000692547275883596 -0.005565295833187926 0.0007962406826029372 0.008960072959801023
 0.0008088082026366288 0.008958575961092893 -0.000692547275883596 -0.005565295833187926 0.003684218811570733 0.016718510266486263 0.9956517480600415 -0.040847514847036054
 -0.0006925499160218078 -0.005565297252370637 0.0007962406826029372 0.008960072959801023 0.9956517480600415 -0.040847514847036054 0.0036861630060932727 0.016718350041131303
0.06877865777407 0.003985531504299997 0.018490000482704255 0.9952516571515375 -0.045008112513620566 0.0009369986497997626 0.009857327786542292 -0.0007995479727577305 -0.006127216654689771
 0.9952516571515375 -0.045008112513620566 0.003988015406293105 0.018489796103573458 -0.0007995448348631395 -0.006127215005924698 0.0009217859175621315 0.009859166097992257
 0.0009369986497997626 0.009857327786542292 -0.0007995448348631395 -0.006127215005924698 0.003985624153209746 0.018490902707230205 0.9952516851012398 -0.045007193258472945
 -0.0007995479727577305 -0.006127216654689771 0.0009217859175621315 0.009859166097992257 0.9952516851012398 -0.045007193258472945 0.003987975811185421 0.01849071724202105
0.07503126302626001 0.0043040063420302956 0.020278641239215453 0.9948287101101144 -0.04918184330505172 0.0010752500261931924 0.010756164621031239 -0.0009148826443382454 -0.006689535541622745
 0.9948287101101144 -0.04918184330505172 0.004306961868967756 0.020278406118511085 -0.0009148789733746398 -0.006689533636631869 0.0010571377687320711 0.010758391976490865
 0.0010752500261931924 0.010756164621031239 -0.0009148789733746398 -0.006689533636631869 0.00430411632012058 0.020279623197962057 0.9948287431187927 -0.04918084022418325
 -0.0009148826443382454 -0.006689535541622745 0.0010571377687320711 0.010758391976490865 0.9948287431187927 -0.04918084022418325 0.004306914178058119 0.02027941062537154
0.08128386827845 0.004639870547949612 0.0220833049289468 0.9943825894394918 -0.053369410328107644 0.0012236490958041056 0.011654950833202109 -0.0010386432213756998 -0.007252114146463965
 0.9943825894394918 -0.053369410328107644 0.004643338749628666 0.022083036704217785 -0.001038638983214431 -0.00725211195577707 0.0012023825805174428 0.011657618304993126
 0.0012236490958041056 0.011654950833202109 -0.001038638983214431 -0.00725211195577707 0.0046399993355866215 0.022084366085392142 0.9943826279436019 -0.05336832331799998
 -0.0010386432213756998 -0.007252114146463965 0.0012023825805174428 0.011657618304993126 0.9943826279436019 -0.05336832331799998 0.004643282163656388 0.02208412448915799
0.08753647353064001 0.00499342618639593 0.023903693816395764 0.9939130018541805 -0.057570661942218576 0.001382280515788361 0.012553546726079036 -0.0011709167437251803 -0.007814810693883649
 0.9939130018541805 -0.057570661942218576 0.004997448164788048 0.023903390044413657 -0.0011709119052925132 -0.007814808185158402 0.0013576046256185876 0.012556708763649374
 0.001382280515788361 0.012553546726079036 -0.0011709119052925132 -0.007814808185158402 0.004993575260803352 0.023904833599401064 0.9939130462958958 -0.057569490883017785
 -0.0011709167437251803 -0.007814810693883649 0.0013576046256185876 0.012556708763649374 0.9939130462958958 -0.057569490883017785 0.004997381872734828 0.02390456101322007
0.09378907878283 0.005364973309728783 0.025739515096198456 0.993419655169648 -0.06178543018916774 0.0015512267290391827 0.01345180877910488 -0.0013117879218416148 -0.008377481197070378
 0.993419655169648 -0.06178543018916774 0.005369590227789463 0.02573917325110236 -0.0013117824509806075 -0.008377478335056521 0.001522886000641447 0.013455523244558764
 0.0015512267290391827 0.01345180877910488 -0.0013117824509806075 -0.008377478335056521 0.00536514414354123 0.02574073289344953 0.9934197059972735 -0.06178417495098292
 -0.0013117879218416148 -0.008377481197070378 0.001522886000641447 0.013455523244558764 0.9934197059972735 -0.06178417495098292 0.00536951340603377 0.025740427299572977
0.100041684035 0.005754809888077161 0.027590478719913884 0.9929022584985748 -0.066013532932003 0.001730567859062338 0.014349589835233607 -0.0014613390547533005 -0.00893997931530887
 0.9929022584985748 -0.066013532932003 0.005760062978695963 0.027590096190997733 -0.0014613329200288704 -0.008939976061819954 0.0016983065237984839 0.014353918038354344
 0.001730567859062338 0.014349589835233607 -0.0014613329200288704 -0.008939976061819954 0.005755003948480265 0.02759177388249355 0.9929023161664563 -0.06601219337023098
 -0.0014613390547533005 -0.00893997931530887 0.0016983065237984839 0.014353918038354344 0.9929023161664563 -0.06601219337023098 0.005759974791176779 0.027591433209751052
0.1059090909091 0.006137527755052818 0.029340926185072898 0.9923946055808495 -0.06999311319198842 0.001908383797924383 0.01519149052645762 -0.0016096423752094528 -0.009467534846023862
 0.9923946055808495 -0.06999311319198842 0.006143415397661679 0.029340503026379403 -0.0016096355894952067 -0.009467531187797265 0.0018722105366524564 0.015196453519246506
 0.001908383797924383 0.01519149052645762 -0.0016096355894952067 -0.009467531187797265 0.00613774494039968 0.02934229331879707 0.99239467008762 -0.06999169436183816
 -0.0016096423752094528 -0.009467534846023862 0.0018722105366524564 0.015196453519246506 0.99239467008762 -0.06999169436183816 0.006143315773072847 0.029341917795086367
0.1062942892872 0.006163231723040679 0.02945629577291117 0.9923605224336898 -0.07025477545032799 0.0019203816069876482 0.015246739249835354 -0.001619649944866277 -0.009502156255497942
 0.9923605224336898 -0.07025477545032799 0.006169162298614527 0.0294558698619476 -0.001619643115483205 -0.00950215256937113 0.0018839436346326907 0.01525174598248293
 0.0019203816069876482 0.015246739249835354 -0.001619643115483205 -0.00950215256937113 0.006163450471372923 0.0294576676099836 0.9923605874037399 -0.07025335141069726
 -0.001619649944866277 -0.009502156255497942 0.0018839436346326907 0.01525174598248293 0.9923605874037399 -0.07025335141069726 0.006169061896649366 0.02945728973164868
0.11254689453939999 0.006590532351630522 0.031336677232308915 0.9917941592245145 -0.07450895166054997 0.0021207431495783614 0.01614310301208325 -0.0017867978113147813 -0.010063860706975009
 0.9917941592245145 -0.07450895166054997 0.006597181812731595 0.0313362051507278 -0.0017867902569235713 -0.010063856544060288 0.002079872294129272 0.016148856581941255
 0.0021207431495783614 0.01614310301208325 -0.0017867902569235713 -0.010063856544060288 0.006590777241927117 0.03133812501369485 0.9917942319657997 -0.07450744297656636
 -0.0017867978113147813 -0.010063860706975009 0.002079872294129272 0.016148856581941255 0.9917942319657997 -0.07450744297656636 0.006597068334611962 0.03133770774485002
0.11879949979160001 0.0070370029393781305 0.033231333003473786 0.9912028829454312 -0.07877584506452785 0.002331725038753087 0.017038523849003576 -0.0019628572011272066 -0.010624938799617659
 0.9912028829454312 -0.07877584506452785 0.007044412784166828 0.03323081186902218 -0.001962848891697692 -0.010624934112721278 0.0022861648860970554 0.01704509611259411
 0.002331725038753087 0.017038523849003576 -0.001962848891697692 -0.010624934112721278 0.007037275417680486 0.03323285595863593 0.9912029639349557 -0.07877425155822575
 -0.0019628572011272066 -0.010624938799617659 0.0022861648860970554 0.01704509611259411 0.9912029639349557 -0.07877425155822575 0.007044285355117736 0.03323239705326751
0.1250521050438 0.007502932167661356 0.03513997115992877 0.9905864096612964 -0.08305522950124858 0.00255339710153471 0.017932841316943962 -0.0021478998994020554 -0.011185234080539433
 0.9905864096612964 -0.08305522950124858 0.007511144001178989 0.035139397993039424 -0.002147890805054355 -0.011185228819458739 0.0025028911193291834 0.01794030771193461
 0.00255339710153471 0.017932841316943962 -0.002147890805054355 -0.011185228819458739 0.007503233671110561 0.03514156848131 0.9905864993846059 -0.08305355097993879
 -0.0021478998994020554 -0.011185234080539433 0.0025028911193291834 0.01794030771193461 0.9905864993846059 -0.08305355097993879 0.007511001732947131 0.035141065628982074
0.131304710296 0.007988606114403767 0.03706229734665 0.9899444575886996 -0.08734686974249449 0.002785826340904111 0.018825891885331195 -0.002341994838528536 -0.01174458750472595
 0.9899444575886996 -0.08734686974249449 0.00799766165770546 0.03706166906637797 -0.0023419849294364927 -0.011744581616190007 0.0027301179298825284 0.018834331461977487
 0.002785826340904111 0.018825891885331195 -0.0023419849294364927 -0.011744581616190007 0.007988938070351177 0.037063968184028545 0.9899445565403854 -0.0873451060043246
 -0.002341994838528536 -0.01174458750472595 0.0027301179298825284 0.018834331461977487 0.9899445565403854 -0.0873451060043246 0.007997503648660961 0.03706341900614234
0.1375573155481 0.00838342787524623 0.038745161603466374 0.989387670762873 -0.09139755720075271 0.0030002737668145415 0.01969168023141149 -0.002516474352884191 -0.012276980399188812
 0.989387670762873 -0.09139755720075271 0.008393370608221925 0.03874448859720363 -0.002516463388923992 -0.012276973866513979 0.0029392361431316134 0.01970108092228618
 0.0030002737668145415 0.01969168023141149 -0.002516463388923992 -0.012276973866513979 0.008383790874554584 0.038746905589249016 0.989387779366281 -0.09139570814404141
 -0.002516474352884191 -0.012276980399188812 0.0029392361431316134 0.01970108092228618 0.989387779366281 -0.09139570814404141 0.008393196922114569 0.03874632036545055
0.1438099208003 0.008792129862661903 0.04041897716146156 0.9888112867528406 -0.09543783261188747 0.0032234038635943307 0.02055394783263986 -0.0026979483212596065 -0.012806186121577237
 0.9888112867528406 -0.09543783261188747 0.008803001891635694 0.04041825715102648 -0.0026979362350261073 -0.012806178897092914 0.003156803784399614 0.0205643819061288
 0.0032234038635943307 0.02055394783263986 -0.0026979362350261073 -0.012806178897092914 0.008792525167560825 0.04042079346373275 0.9888114055003915 -0.09543589804061303
 -0.0026979483212596065 -0.012806186121577237 0.003156803784399614 0.0205643819061288 0.9888114055003915 -0.09543589804061303 0.008802811782307414 0.04042017054787355
0.1500625260525 0.00921456581298586 0.04208359974943766 0.9882154560430422 -0.09946759156154655 0.0034551396505335618 0.02141260520185812 -0.002886342509580623 -0.013332120947247636
 0.9882154560430422 -0.09946759156154655 0.009226409355424663 0.04208283030955963 -0.0028863292311406574 -0.013332112981767502 0.0033827453110733294 0.02142414755191421
 0.0034551396505335618 0.02141260520185812 -0.0028863292311406574 -0.013332112981767502 0.009214994666232773 0.04208548750398699 0.9882155854349108 -0.09946557127372564
 -0.002886342509580623 -0.013332120947247636 0.0033827453110733294 0.02142414755191421 0.9882155854349108 -0.09946557127372564 0.009226202075712297 0.042084825124794036
0.15631513130469998 0.009650588389341894 0.04373888945276507 0.9876003299233429 -0.10348673009388847 0.0036954032203606727 0.022267564367783745 -0.003081581752706664 -0.013854702945596521
 0.9876003299233429 -0.10348673009388847 0.009663445777766198 0.0437380680061109 -0.0030815672096771267 -0.01385469418851864 0.003616984276844325 0.022280292485205137
