! Created with skrf 1.8.0 (http://scikit-rf.org).
# GHz S RI R 50.0 
!freq ReS11 ImS11 ReS12 ImS12 ReS13 ImS13
! ReS14 ImS14
! ReS21 ImS21 ReS22 ImS22 ReS23 ImS23
! ReS24 ImS24
! ReS31 ImS31 ReS32 ImS32 ReS33 ImS33
! ReS34 ImS34
! ReS41 ImS41 ReS42 ImS42 ReS43 ImS43
! ReS44 ImS44
!
0.0 0.001360955668965 0.0 0.9986390443311 0.0 5.206914321703e-05 0.0 -5.206914332778e-05 6.376630971071054e-21
 0.9986390443311 0.0 0.001360955668922 0.0 -5.206914332704e-05 6.37663097098043e-21 5.206914321574e-05 0.0
 5.206914321703e-05 0.0 -5.206914332704e-05 6.37663097098043e-21 0.001360955658386 0.0 0.9986390443205 0.0
 -5.206914332778e-05 6.376630971071054e-21 5.206914321574e-05 0.0 0.9986390443205 0.0 0.001360955658383 0.0
0.005 0.0014637825552633206 0.0011159877167664005 0.9985090489376836 -0.002851251101947034 7.228870352682928e-05 0.0005603666236873085 -7.038162989598986e-05 -0.0003541378103408477
 0.9985090489376836 -0.002851251101947034 0.0014637780783901691 0.0011159903796461282 -7.037933398585483e-05 -0.00035413613877554017 7.233571652653437e-05 0.0005603489875005707
 7.228870352682928e-05 0.0005603666236873085 -7.037933398585483e-05 -0.00035413613877554017 0.0014637829161099295 0.001115920300117283 0.998509048594876 -0.0028513181669602688
 -7.038162989598986e-05 -0.0003541378103408477 7.233571652653437e-05 0.0005603489875005707 0.998509048594876 -0.0028513181669602688 0.0014637770364976956 0.001115923669956645
0.006252605252188 0.0014906124862878924 0.0013993837227265515 0.9984749420290349 -0.003564782062165771 7.797243924575062e-05 0.0007007457071106938 -7.548532996364008e-05 -0.0004431350211672101
 0.9984749420290349 -0.003564782062165771 0.001490605487130023 0.0013993870537294287 -7.548175655462413e-05 -0.0004431329615690418 7.804589639534414e-05 0.0007007227782964045
 7.797243924575062e-05 0.0007007457071106938 -7.548175655462413e-05 -0.0004431329615690418 0.001490613127861131 0.0013992994568906572 0.9984749415712193 -0.0035648658974500274
 -7.548532996364008e-05 -0.0004431350211672101 7.804589639534414e-05 0.0007007227782964045 0.9984749415712193 -0.0035648658974500274 0.0014906039369614028 0.001399303657304392
0.01250521050438 0.0016310448817994602 0.002828204941186539 0.9982953671519198 -0.0071304895898580255 0.00011007770229224752 0.0014019496155529456 -0.00010408552520686912 -0.0008884927355948513
 0.9982953671519198 -0.0071304895898580255 0.0016310169227462857 0.0028282116094023022 -0.00010407143296644362 -0.0008884889420107509 0.00011037074006470077 0.0014018943269132333
 0.00011007770229224752 0.0014019496155529456 -0.00010407143296644362 -0.0008884889420107509 0.0016310479871563322 0.0028280367770761377 0.9982953658737099 -0.0071306569914731475
 -0.00010408552520686912 -0.0008884927355948513 0.00011037074006470077 0.0014018943269132333 0.9982953658737099 -0.0071306569914731475 0.00163101129300796 0.0028280450485782716
0.01875781575657 0.0017825304968029654 0.0042775351105773666 0.9981001170737719 -0.010705828182618952 0.000148455907608831 0.0021040857949875136 -0.00013795127957622676 -0.0013354684241022262
 0.9981001170737719 -0.010705828182618952 0.001782467652647298 0.004277545099140989 -0.00013791983905387626 -0.0013354632813937072 0.00014911443967106385 0.0021039870866189454
 0.000148455907608831 0.0021040857949875136 -0.00013791983905387626 -0.0013354632813937072 0.0017825378779455473 0.004277283233999802 0.9981001146177405 -0.01070607908337744
 -0.00013795127957622676 -0.0013354684241022262 0.00014911443967106385 0.0021039870866189454 0.9981001146177405 -0.01070607908337744 0.0017824554399159557 0.004277295446247821
0.02501042100875 0.0019453403342855622 0.005745381369393154 0.997888981990622 -0.014292560408824187 0.00019317866643520838 0.002807200255607751 -0.0001771620820990173 -0.0017838814734133812
 0.997888981990622 -0.014292560408824187 0.0019452286961436909 0.005745394629853134 -0.0001771065400879631 -0.0017838754324062055 0.00019434882099712912 0.0028070454898172035
 0.00019317866643520838 0.002807200255607751 -0.0001771065400879631 -0.0017838754324062055 0.0019453537939122698 0.005745045956905102 0.9978889779999258 -0.014292894772449553
 -0.0001771620820990173 -0.0017838814734133812 0.00019434882099712912 0.0028070454898172035 0.9978889779999258 -0.014292894772449553 0.001945207415526078 0.005745061967051948
0.03126302626094 0.0021197340668447115 0.0072307333589326 0.997661740391445 -0.01789145895032332 0.00024431809173409286 0.0035112766043370255 -0.00022179553105895847 -0.0022336097581218614
 0.997661740391445 -0.01789145895032332 0.0021195597330533975 0.007230749808556048 -0.0002217091973334523 -0.0022336033365520265 0.0002461463461875761 0.003511051553342905
 0.00024431809173409286 0.0035112766043370255 -0.0002217091973334523 -0.0022336033365520265 0.0021197553976507045 0.007230314588481464 0.9976617345073503 -0.01789187676118456
 -0.00022179553105895847 -0.0022336097581218614 0.0002461463461875761 0.003511051553342905 0.9976617345073503 -0.01789187676118456 0.002119526914183342 0.00723033423812726
0.037515631513130004 0.002305965938527309 0.00873294382430014 0.9974181651005344 -0.021502925946019977 0.00030194618639855776 0.004216274036134216 -0.0002719278846302866 -0.0026845516461120955
 0.9974181651005344 -0.021502925946019977 0.002305715008007724 0.008732963344216265 -0.00027180412514913514 -0.002684545428982511 0.00030457943067685087 0.00421596286330539
 0.00030194618639855776 0.004216274036134216 -0.00027180412514913514 -0.002684545428982511 0.0023059969248918673 0.008732441868720454 0.9974181569623572 -0.02150342721594877
 -0.0002719278846302866 -0.0026845516461120955 0.00030457943067685087 0.00421596286330539 0.9974181569623572 -0.02150342721594877 0.0023056681952432836 0.008732464981884716
0.043768236765320004 0.0025042870515289044 0.01025154011262338 0.9971580257038828 -0.02512718143139678 0.0003661345626324836 0.004922138873790382 -0.000327634260676735 -0.003136614451064861
 0.9971580257038828 -0.02512718143139678 0.00250394561809535 0.010251562546385906 -0.00032746649359969643 -0.00313660909085376 0.0003697201322704721 0.004921724112931426
 0.0003661345626324836 0.004922138873790382 -0.00032746649359969643 -0.00313660909085376 0.002504329471366082 0.010250955159336324 0.9971580149498097 -0.025127766180166145
 -0.000327634260676735 -0.003136614451064861 0.0003697201322704721 0.004921724112931426 0.9971580149498097 -0.025127766180166145 0.002503882371056195 0.010250981541024705
0.050020842017509996 0.0027149464355851246 0.011786146275075038 0.9968810897602001 -0.028764341172250678 0.00043695427273779587 0.005628809341785268 -0.0003889887177026635 -0.0035897096506625364
 0.9968810897602001 -0.028764341172250678 0.0027145005827797068 0.011786171427305507 -0.00038877041085854194 -0.0035897058674461153 0.0004416399652635738 0.005628271875520412
 0.00043695427273779587 0.005628809341785268 -0.00038877041085854194 -0.0035897058674461153 0.002715002060289831 0.011785478516706078 0.9968810760257476 -0.02876500943704633
 -0.0003889887177026635 -0.0035897096506625364 0.0004416399652635738 0.005628271875520412 0.9968810760257476 -0.02876500943704633 0.0027144184753495376 0.011785507951731894
0.055454545454549996 0.00290822827402911 0.013132519887794838 0.9966266016533979 -0.03193566284361319 0.0005039388761111177 0.006243529323720663 -0.00044695127178335636 -0.00398423418658452
 0.9966266016533979 -0.03193566284361319 0.0029076803641772276 0.013132547212700489 -0.0004466837767435294 -0.003984232411194359 0.0005097010030725277 0.006242868398122453
 0.0005039388761111177 0.006243529323720663 -0.0004466837767435294 -0.003984232411194359 0.0029082968081796464 0.013131780335620217 0.9966265850302695 -0.03193640372436738
 -0.00044695127178335636 -0.00398423418658452 0.0005097010030725277 0.006242868398122453 0.9966265850302695 -0.03193640372436738 0.0029075799070531544 0.013131812232900152
0.056273447269699996 0.00293819160590643 0.013336444826481888 0.996587123502951 -0.032414454840709844 0.0005144756919068812 0.006336217897206309 -0.0004560642787589363 -0.004043750548677183
 0.996587123502951 -0.032414454840709844 0.0029376274021822657 0.013336472461743649 -0.0004557889479751176 -0.00404374913023248 0.0005204097744529942 0.006335536934930366
 0.0005144756919068812 0.006336217897206309 -0.0004557889479751176 -0.00404374913023248 0.0029382622008837633 0.013335694467670222 0.9965871064202859 -0.03241520666949633
 -0.0004560642787589363 -0.004043750548677183 0.0005204097744529942 0.006335536934930366 0.9965871064202859 -0.03241520666949633 0.0029375240221533798 0.013335726719659212
0.06252605252188 0.0031742688703315885 0.014902155728989315 0.9962758922937306 -0.03607752696844048 0.0005987684254112116 0.007044292515611606 -0.0005289329289512761 -0.00449865098372574
 0.9962758922937306 -0.03607752696844048 0.003173572364071754 0.014902185570795897 -0.0005285941369234542 -0.004498652785611098 0.0006060996351145085 0.007043445571206697
 0.0005987684254112116 0.007044292515611606 -0.0005285941369234542 -0.004498652785611098 0.0031743561968670445 0.014901322982746233 0.9962758714928456 -0.036078362423658146
 -0.0005289329289512761 -0.00449865098372574 0.0006060996351145085 0.007043445571206697 0.9962758714928456 -0.036078362423658146 0.0031734453144322775 0.014901357793308364
0.06877865777407 0.003423423501609942 0.016483023851709425 0.9959471609436541 -0.03975352942520903 0.0006899012302801739 0.00775295745340077 -0.0006076655955779054 -0.004954324563433718
 0.9959471609436541 -0.03975352942520903 0.003422580716385197 0.016483055581671433 -0.0006072569511201958 -0.004954330509060292 0.000698778770667074 0.007751920322862265
 0.0006899012302801739 0.00775295745340077 -0.0006072569511201958 -0.004954330509060292 0.00342352931683278 0.016482108940990958 0.9959471360511858 -0.039754448582280125
 -0.0006076655955779054 -0.004954324563433718 0.000698778770667074 0.007751920322862265 0.9959471360511858 -0.039754448582280125 0.003422427614797557 0.01648214602904251
0.07503126302626001 0.0036858998297765013 0.018078811022382596 0.9956006939582164 -0.043442409307861335 0.0007879419445936717 0.008462133728984871 -0.0006923321189674373 -0.005410684181979357
 0.9956006939582164 -0.043442409307861335 0.0036848967595722766 0.01807884427940611 -0.0006918472765509419 -0.005410695262670535 0.0007985154787781475 0.008460880467980594
 0.0007879419445936717 0.008462133728984871 -0.0006918472765509419 -0.005410695262670535 0.0036860258869208357 0.018077814181693932 0.9956006645964942 -0.043443412253633795
 -0.0006923321189674373 -0.005410684181979357 0.0007985154787781475 0.008460880467980594 0.9956006645964942 -0.043443412253633795 0.0036847152379799876 0.018077853242888943
0.08128386827845 0.003961941283295824 0.019689290739419586 0.9952362557321369 -0.047144094170867894 0.0008929574217805779 0.009171739449027433 -0.0007830012170636764 -0.0058676416948761365
 0.9952362557321369 -0.047144094170867894 0.003960763887739858 0.019689325119067676 -0.000782433876560789 -0.005867658969909462 0.0009053770625069619 0.009170242350464734
 0.0008929574217805779 0.009171739449027433 -0.000782433876560789 -0.005867658969909462 0.003962089333128589 0.01968821221393164 0.995236221519748 -0.047145181004516916
 -0.0007830012170636764 -0.0058676416948761365 0.0009053770625069619 0.009170242350464734 0.995236221519748 -0.047145181004516916 0.003960551593270414 0.019688252920266984
0.08753647353064001 0.00425179039818679 0.021314244511004787 0.9948536107157937 -0.05085849563257345 0.0010050134682135252 0.009881690028420029 -0.0008797404446625948 -0.006325107702432976
 0.9948536107157937 -0.05085849563257345 0.004250424597437314 0.02131427956505924 -0.0008790843511999889 -0.006325132299085848 0.0010194297664799941 0.009879919600114428
 0.0010050134682135252 0.009881690028420029 -0.0008790843511999889 -0.006325132299085848 0.004251962188935652 0.021313084558279825 0.9948535712664628 -0.05085966646386932
 -0.0008797404446625948 -0.006325107702432976 0.0010194297664799941 0.009879919600114428 0.9948535712664628 -0.05085966646386932 0.004250179192149878 0.0213131265578116
0.09378907878283 0.0045556888035291785 0.022953459242647807 0.9944525235607281 -0.05458551193576021 0.0011241747824462037 0.01059189835466385 -0.0009826161501541946 -0.006782991391449521
 0.9944525235607281 -0.05458551193576021 0.004554120473721222 0.02295349447863176 -0.0009818650941816843 -0.006783024505020209 0.0011407387139998697 0.010589823297007035
 0.0011241747824462037 0.01059189835466385 -0.0009818650941816843 -0.006783024505020209 0.004555886081991478 0.022952218130059477 0.9944524784830969 -0.05458676688759579
 -0.0009826161501541946 -0.006782991391449521 0.0011407387139998697 0.010589823297007035 0.9944524784830969 -0.05458676688759579 0.0045538396347950955 0.022952261046779866
0.100041684035 0.004873877190386185 0.024606725309291897 0.9940327592501931 -0.058325029826417 0.0012505048960261957 0.011302274904748085 -0.0010916934291829573 -0.007241200426953732
 0.9940327592501931 -0.058325029826417 0.00487209215857171 0.024606760190274652 -0.0010908412465472322 -0.007241243320783069 0.0012693678466949307 0.011299862088553764
 0.0012505048960261957 0.011302274904748085 -0.0010908412465472322 -0.007241243320783069 0.004874101702629355 0.024605403316571975 0.9940327081480493 -0.058326369032292234
 -0.0010916934291829573 -0.007241200426953732 0.0012693678466949307 0.011299862088553764 0.9940327081480493 -0.058326369032292234 0.004871773578975413 0.02460544675039307
0.1059090909091 0.0051856733705386016 0.02617073475302201 0.9936216593482722 -0.06184543103891965 0.0013756277705519063 0.011968959172079213 -0.0011997479945687162 -0.007671393247081116
 0.9936216593482722 -0.06184543103891965 0.005183672048366831 0.026170768772818806 -0.0011987953496683838 -0.007671446528259228 0.001396786141461693 0.011966197625524276
 0.0013756277705519063 0.011968959172079213 -0.0011987953496683838 -0.007671446528259228 0.005185925026357476 0.02616933712785715 0.9936216022269466 -0.06184684943948845
 -0.0011997479945687162 -0.007671393247081116 0.001396786141461693 0.011966197625524276 0.9936216022269466 -0.06184684943948845 0.005183315968758509 0.026169380661698192
0.1062942892872 0.005206595269934362 0.026273835118321532 0.9935940832226318 -0.062076925944812046 0.0013840661151715463 0.01201272784034232 -0.0012070360766270876 -0.007699640868508007
 0.9935940832226318 -0.062076925944812046 0.005204579308789569 0.026273869062776366 -0.00120607664877211 -0.007699694873986087 0.0014053798645075736 0.01200994228475986
 0.0013840661151715463 0.01201272784034232 -0.00120607664877211 -0.007699694873986087 0.005206848761562872 0.026272432536723872 0.9935940256935779 -0.06207834954955128
 -0.0012070360766270876 -0.007699640868508007 0.0014053798645075736 0.01200994228475986 0.9935940256935779 -0.06207834954955128 0.005204220697023272 0.0262724760636025
0.11254689453939999 0.005554081720625075 0.027954582002637902 0.993136261485246 -0.06584106788956647 0.0015249194624773062 0.012723163078775463 -0.0013287065370615105 -0.008158217113396633
 0.993136261485246 -0.06584106788956647 0.0055518205434638155 0.027954614384476956 -0.001327633791271597 -0.008158283629956149 0.0015488361667430784 0.012719967929409161
 0.0015249194624773062 0.012723163078775463 -0.001327633791271597 -0.008158283629956149 0.005554365937476408 0.02795309913353774 0.993136197120917 -0.06584257605063619
 -0.0013287065370615105 -0.008158217113396633 0.0015488361667430784 0.012719967929409161 0.993136197120917 -0.06584257605063619 0.005551419624100025 0.0279531423057921
0.11879949979160001 0.005916574129091201 0.029648759352430342 0.9926590607252612 -0.06961731504640098 0.0016731246196866373 0.01343348435416217 -0.0014567658536182282 -0.008616831852702822
 0.9926590607252612 -0.06961731504640098 0.0059140533847070464 0.02964878950114615 -0.00145557376337479 -0.008616912347802486 0.0016997967934371538 0.013429840861313467
 0.0016731246196866373 0.01343348435416217 -0.00145557376337479 -0.008616912347802486 0.005916890818258192 0.029647196509180858 0.9926589891106438 -0.06961890793194872
 -0.0014567658536182282 -0.008616831852702822 0.0016997967934371538 0.013429840861313467 0.9926589891106438 -0.06961890793194872 0.005913607898684841 0.02964723885596066
0.1250521050438 0.006294308925251777 0.031356159938339366 0.9921622484161777 -0.07340551922894951 0.0018287398697893157 0.014143593267586609 -0.0015912736162845495 -0.009075386041206206
 0.9921622484161777 -0.07340551922894951 0.006291514192696505 0.03135618713932236 -0.001589956201609115 -0.009075482050299916 0.0018583203669195437 0.014139460764681295
 0.0018287398697893157 0.014143593267586609 -0.001589956201609115 -0.009075482050299916 0.006294659835258283 0.03135451744672605 0.9921621691292668 -0.07340719701716088
 -0.0015912736162845495 -0.009075386041206206 0.0018583203669195437 0.014139460764681295 0.9921621691292668 -0.07340719701716088 0.0062910218973375705 0.031354558474539475
0.131304710296 0.006687521312246862 0.03307657536098768 0.9916455929223749 -0.07720552519668229 0.0019918220401917127 0.014853389330833985 -0.0017322879087916937 -0.009533778876840484
 0.9916455929223749 -0.07720552519668229 0.006684438095203425 0.03307659885597701 -0.0017308392366425162 -0.009533892003338503 0.00202446403358411 0.01484872521307995
 0.0019918220401917127 0.014853389330833985 -0.0017308392366425162 -0.009533892003338503 0.006687908193893665 0.03307485355356057 0.9916455055336599 -0.07720728808135188
 -0.0017322879087916937 -0.009533778876840484 0.00202446403358411 0.01484872521307995 0.9916455055336599 -0.07720728808135188 0.0066838967649584125 0.033074892747087734
0.1375573155481 0.007001860391773476 0.034585734639656134 0.9912034785890722 -0.08079302975219374 0.0021403819146394256 0.015540022303741444 -0.001857781841271588 -0.009969199775746285
 0.9912034785890722 -0.08079302975219374 0.006998473415917981 0.034585754292873964 -0.0018561934452529876 -0.009969330026250719 0.002176152774153104 0.015534836510030061
 0.0021403819146394256 0.015540022303741444 -0.0018561934452529876 -0.009969330026250719 0.007002285939820279 0.03458393314374799 0.9912033827296072 -0.08079487783276539
 -0.001857781841271588 -0.009969199775746285 0.002176152774153104 0.015534836510030061 0.9912033827296072 -0.08079487783276539 0.006997879774887028 0.03458397188434105
0.1438099208003 0.007327116997726464 0.03608770958776566 0.9907460939198403 -0.08437220611680737 0.002294936437323776 0.01622433923429539 -0.0019883055827640468 -0.010402463677141798
 0.9907460939198403 -0.08437220611680737 0.007323411556970871 0.03608772482611135 -0.0019865711406424295 -0.010402612608704379 0.0023339742662492175 0.01621859322060415
 0.002294936437323776 0.01622433923429539 -0.0019865711406424295 -0.010402612608704379 0.007327583137418143 0.03608582868252929 0.9907459891618081 -0.08437413957783325
 -0.0019883055827640468 -0.010402463677141798 0.0023339742662492175 0.01621859322060415 0.9907459891618081 -0.08437413957783325 0.0073227632126608225 0.036085866788955014
0.1500625260525 0.007663186801074864 0.03758239715014043 0.9902735466366768 -0.08794298824495253 0.002455437982175891 0.01690628594099631 -0.0021238122846789485 -0.010833517551373654
 0.9902735466366768 -0.08794298824495253 0.007659148116868583 0.037582407397379815 -0.0021219254885608166 -0.01083368678293818 0.002497880190583805 0.01689993976435003
 0.002455437982175891 0.01690628594099631 -0.0021219254885608166 -0.01083368678293818 0.0076636954712415856 0.03758043712121362 0.9902734325462755 -0.08794500728029785
 -0.0021238122846789485 -0.010833517551373654 0.002497880190583805 0.01689993976435003 0.9902734325462755 -0.08794500728029785 0.007658442680387222 0.03758047442967388
0.15631513130469998 0.008009964853902795 0.039069697488894974 0.9897859448751753 -0.09150530988291392 0.0026218384331424586 0.01758580906831105 -0.0022642545872592406 -0.011262309408164639
