! Created with skrf 1.8.0 (http://scikit-rf.org).
# GHz S RI R 50.0 
!freq ReS11 ImS11 ReS12 ImS12 ReS13 ImS13
! ReS14 ImS14
! ReS21 ImS21 ReS22 ImS22 ReS23 ImS23
! ReS24 ImS24
! ReS31 ImS31 ReS32 ImS32 ReS33 ImS33
! ReS34 ImS34
! ReS41 ImS41 ReS42 ImS42 ReS43 ImS43
! ReS44 ImS44
!
0.0 0.001537994280178 0.0 0.9984620057113 0.0 5.928344442485e-05 0.0 -5.928344424672e-05 7.260128023917622e-21
 0.9984620057113 0.0 0.001537994280198 0.0 -5.928344424766e-05 7.26012802403274e-21 5.928344442486e-05 0.0
 5.928344442485e-05 0.0 -5.928344424766e-05 7.26012802403274e-21 0.001537994283031 0.0 0.9984620057141 0.0
 -5.928344424672e-05 7.260128023917622e-21 5.928344442486e-05 0.0 0.9984620057141 0.0 0.001537994282999 0.0
0.005 0.0016547269848229001 0.0012588374610887645 0.9983143275501293 -0.003221644004168402 8.298492674215578e-05 0.0006496709754232809 -8.058952689902843e-05 -0.0004084108225577912
 0.9983143275501293 -0.003221644004168402 0.0016547428660736835 0.0012588282082995293 -8.059146296945052e-05 -0.000408412342834838 8.287074715641779e-05 0.0006497142899265678
 8.298492674215578e-05 0.0006496709754232809 -8.059146296945052e-05 -0.000408412342834838 0.0016547254701595067 0.0012587711182022534 0.9983143272016033 -0.0032217110687672453
 -8.058952689902843e-05 -0.0004084108225577912 8.287074715641779e-05 0.0006497142899265678 0.9983143272016033 -0.0032217110687672453 0.001654743685446894 0.0012587604218917343
0.006252605252188 0.001685335357628664 0.001578496620250639 0.9982753609132206 -0.004027843423107956 8.975903914963403e-05 0.0008124049153452684 -8.659984536103875e-05 -0.0005110409778728589
 0.9982753609132206 -0.004027843423107956 0.00168536018303327 0.0015784849000820432 -8.660285778449672e-05 -0.0005110428530498633 8.958064202873993e-05 0.0008124611842114861
 8.975903914963403e-05 0.0008124049153452684 -8.660285778449672e-05 -0.0005110428530498633 0.0016853330445325751 0.0015784137188902339 0.9982753604235648 -0.004027927231682385
 -8.659984536103875e-05 -0.0005110409778728589 8.958064202873993e-05 0.0008124611842114861 0.9982753604235648 -0.004027927231682385 0.0016853615194314599 0.0015784001844932922
0.01250521050438 0.0018464233331773813 0.0031900438133174395 0.9980689301171946 -0.008056490971937032 0.00012862082323482953 0.001625173994734861 -0.00012067374111711874 -0.0010245587946678303
 0.9980689301171946 -0.008056490971937032 0.0018465224608354854 0.003190018837324442 -0.00012068560982018221 -0.001024562269545241 0.00012790935069327094 0.001625309441690111
 0.00012862082323482953 0.001625173994734861 -0.00012068560982018221 -0.001024562269545241 0.0018464146766235699 0.0031898783018060864 0.9980689287474004 -0.00805665836121444
 -0.00012067374111711874 -0.0010245587946678303 0.00012790935069327094 0.001625309441690111 0.9980689287474004 -0.00805665836121444 0.001846528389007124 0.0031898495763268966
0.01875781575657 0.002021609576598268 0.00482451815379375 0.9978424570273179 -0.012095747294254732 0.00017595826080588645 0.0024388449939233723 -0.0001616098144766255 -0.0015398191322640255
 0.9978424570273179 -0.012095747294254732 0.0020218323177573576 0.00482447830449719 -0.0001616362780256308 -0.001539823879136634 0.00017435986069847407 0.002439086966916681
 0.00017595826080588645 0.0024388449939233723 -0.0001616362780256308 -0.001539823879136634 0.0020215905351963453 0.004824270244925895 0.9978424543703578 -0.012095998150685107
 -0.0001616098144766255 -0.0015398191322640255 0.00017435986069847407 0.002439086966916681 0.9978424543703578 -0.012095998150685107 0.002021846072947842 0.004824224524374853
0.02501042100875 0.002211235063216577 0.006479633588721267 0.9975956752257432 -0.016147569109671106 0.0002318623959716779 0.0032534483631311614 -0.00020950936422685254 -0.002056589326166142
 0.9975956752257432 -0.016147569109671106 0.0022116306297942563 0.006479577186961719 -0.0002095560913716854 -0.002056594959273705 0.00022902299263470873 0.0032538285038887014
 0.0002318623959716779 0.0032534483631311614 -0.0002095560913716854 -0.002056594959273705 0.0022112016047983736 0.006479303478277288 0.9975956708832039 -0.016147903371412236
 -0.00020950936422685254 -0.002056589326166142 0.00022902299263470873 0.0032538285038887014 0.9975956708832039 -0.016147903371412236 0.0022116554562395412 0.006479238834243766
0.03126302626094 0.0024156266655720577 0.008154213285844609 0.9973283046865461 -0.020212793337556805 0.0002964247972107442 0.004068940118498362 -0.0002644708528356666 -0.002574705422334217
 0.9973283046865461 -0.020212793337556805 0.00241624419969635 0.008154138595659168 -0.00026454345438963833 -0.002574711497149773 0.0002919897680499413 0.004069494389680435
 0.0002964247972107442 0.004068940118498362 -0.00026454345438963833 -0.002574711497149773 0.002415574756225251 0.008153801196236102 0.9973282982583278 -0.020213210951089043
 -0.0002644708528356666 -0.002574705422334217 0.0002919897680499413 0.004069494389680435 0.9973282982583278 -0.020213210951089043 0.002416283342614637 0.008153715580615634
0.037515631513130004 0.002635104177527631 0.00984748964746182 0.997040059018993 -0.024291837022416638 0.0003697366179922558 0.004885246807466885 -0.0003265906045707709 -0.0030940272066788386
 0.997040059018993 -0.024291837022416638 0.0026359927718792495 0.009847394878934483 -0.00032669463953035574 -0.003094033219714875 0.000363350649211219 0.004886015537486553
 0.0003697366179922558 0.004885246807466885 -0.00032669463953035574 -0.003094033219714875 0.002635029784777709 0.00984699582360912 0.9970400501075389 -0.024292337947093956
 -0.0003265906045707709 -0.0030940272066788386 0.000363350649211219 0.004886015537486553 0.9970400501075389 -0.024292337947093956 0.00263604948164268 0.009846887070737893
0.043768236765320004 0.002869983037162023 0.011558891253810766 0.9967306484138709 -0.02838491031998958 0.0004518881536318652 0.005702279180885919 -0.00039596305537152046 -0.0036144245327148967
 0.9967306484138709 -0.02838491031998958 0.0028711917517094047 0.011558774565140954 -0.0003961040345603894 -0.0036144299214736623 0.0004431951729365519 0.005703307114205762
 0.0004518881536318652 0.005702279180885919 -0.0003961040345603894 -0.0036144299214736623 0.002869882126924791 0.011558315966246612 0.9967306366208467 -0.0283854945256042
 -0.00039596305537152046 -0.0036144245327148967 0.0004431951729365519 0.005703307114205762 0.9967306366208467 -0.0283854945256042 0.002871269281138976 0.01155818179425199
0.050020842017509996 0.0031205755829443313 0.013287954832230857 0.9963997811265953 -0.03249210445590209 0.0005429685722771137 0.006519937855505682 -0.0004726808445245091 -0.00413577166213323
 0.9963997811265953 -0.03249210445590209 0.003122153459811331 0.013287814331317715 -0.0004728642329258401 -0.004135775805101726 0.0005316117218394265 0.006521274205189639
 0.0005429685722771137 0.006519937855505682 -0.0004728642329258401 -0.004135775805101726 0.0031204441207945575 0.013287298389447923 0.996399766054152 -0.03249277191083712
 -0.0004726808445245091 -0.00413577166213323 0.0005316117218394265 0.006521274205189639 0.996399766054152 -0.03249277191083712 0.003122255065586876 0.013287136400868376
0.055454545454549996 0.003351350263693918 0.014804596638835456 0.9960945945908527 -0.036072861868826085 0.0006294398285604722 0.00723093389476387 -0.0005453868501964742 -0.0045895130903772655
 0.9960945945908527 -0.036072861868826085 0.003353288778456392 0.01480443386946259 -0.0005456114973106528 -0.004589515600154445 0.0006154775705811505 0.007232581745407542
 0.0006294398285604722 0.00723093389476387 -0.0005456114973106528 -0.004589515600154445 0.0033511889730255496 0.014803869946391353 0.9960945763443337 -0.036073601646938326
 -0.0005453868501964742 -0.0045895130903772655 0.0006154775705811505 0.007232581745407542 0.9960945763443337 -0.036073601646938326 0.0033534139537572867 0.014803681747702106
0.056273447269699996 0.00338719170269973 0.015034282048099862 0.996047164356965 -0.036613434863489044 0.0006430657285489425 0.007338116074791656 -0.0005568348291247189 -0.004657944510642159
 0.996047164356965 -0.036613434863489044 0.0033891877797664403 0.015034115793595856 -0.0005570660474289634 -0.00465794672732084 0.0006286873629926191 0.007339814575981154
 0.0006430657285489425 0.007338116074791656 -0.0005570660474289634 -0.00465794672732084 0.0033870256525645156 0.015033544792911706 0.9960471456062695 -0.036614185538948255
 -0.0005568348291247189 -0.004657944510642159 0.0006286873629926191 0.007339814575981154 0.9960471456062695 -0.036614185538948255 0.0033893167212123796 0.015033352474880957
0.06252605252188 0.00367013917731338 0.016797515747838655 0.9956725048284362 -0.04074886487243615 0.0007522660129992856 0.008156701241925775 -0.0006485140651923494 -0.005180819125502284
 0.9956725048284362 -0.04074886487243615 0.0036726025020929563 0.01679732174975716 -0.0006487984909611058 -0.005180818676436132 0.000734507713376108 0.008158820205690039
 0.0007522660129992856 0.008156701241925775 -0.0006487984909611058 -0.005180818676436132 0.003669934503554974 0.016796698050152385 0.995672482001475 -0.04074969875034479
 -0.0006485140651923494 -0.005180819125502284 0.000734507713376108 0.008158820205690039 0.995672482001475 -0.04074969875034479 0.0036727620423176333 0.016796472774091083
0.06877865777407 0.003969723863374306 0.018577325787781974 0.9952755092091099 -0.044898319815038105 0.0008706542244779629 0.008975575830221388 -0.0007478057662654008 -0.005704270789823626
 0.9952755092091099 -0.044898319815038105 0.003972703505485132 0.01857710200783369 -0.000748148734578929 -0.005704266876649102 0.0008491568240338923 0.008978178197417204
 0.0008706542244779629 0.008975575830221388 -0.000748148734578929 -0.005704266876649102 0.003969476529337189 0.018576428058500998 0.995275481907189 -0.04489923687473506
 -0.0007478057662654008 -0.005704270789823626 0.0008491568240338923 0.008978178197417204 0.995275481907189 -0.04489923687473506 0.003972896910330973 0.018576167079475594
0.07503126302626001 0.004286249775579233 0.02037340006213318 0.994855884437904 -0.0490616959377724 0.000998313454916176 0.009794617966777074 -0.000854795249340842 -0.006228173458065078
 0.994855884437904 -0.0490616959377724 0.004289794840090914 0.02037314441353256 -0.0008552020533784026 -0.006228165223559958 0.0009727170733158582 0.00979777136165928
 0.000998313454916176 0.009794617966777074 -0.0008552020533784026 -0.006228165223559958 0.004285955744756084 0.020372422747779798 0.9948558522618834 -0.04906269616194127
 -0.000854795249340842 -0.006228173458065078 0.0009727170733158582 0.00979777136165928 0.9948558522618834 -0.04906269616194127 0.0042900253782299745 0.020372123203400993
0.08128386827845 0.004620019109385415 0.022185438527332093 0.9944133379928856 -0.053238866321034146 0.0011353249823066547 0.010613701825445318 -0.0009695658720047412 -0.006752399386772762
 0.9944133379928856 -0.053238866321034146 0.004624178749369071 0.022185148874294305 -0.0009700417633471795 -0.006752385914914249 0.0011052690666212425 0.010617478608931794
 0.0011353249823066547 0.010613701825445318 -0.0009700417633471795 -0.006752385914914249 0.004619674345627552 0.0221843821098647 0.9944133005434664 -0.05323994969655915
 -0.0009695658720047412 -0.006752399386772762 0.0011052690666212425 0.010617478608931794 0.9944133005434664 -0.05323994969655915 0.00462444969216174 0.022184041018835365
0.08753647353064001 0.004971332223202611 0.02401314907252997 0.9939475781246302 -0.05742968495788814 0.001281768168590336 0.0114326979037489 -0.001092198963774393 -0.007276818886202931
 0.9939475781246302 -0.05742968495788814 0.004976155652796308 0.024012823229245736 -0.0010927491526095717 -0.007276799202216371 0.001246891539763203 0.011437175226153314
 0.001281768168590336 0.0114326979037489 -0.0010927491526095717 -0.007276799202216371 0.004970932690688156 0.024012014073300968 0.9939475350014702 -0.05743085147243699
 -0.001092198963774393 -0.007276818886202931 0.001246891539763203 0.011437175226153314 0.9939475350014702 -0.05743085147243699 0.004976470273495969 0.024011628333506136
0.09378907878283 0.005340487591276951 0.025856244566814422 0.9934583140622865 -0.0616339896614226 0.0014377203608441818 0.012251473226193665 -0.0012227737531878221 -0.007801300150379967
 0.9934583140622865 -0.0616339896614226 0.00534602409865867 0.02585588029608725 -0.0012234034084157937 -0.007801273220814968 0.0013976612648935365 0.012256733079383877
 0.0014377203608441818 0.012251473226193665 -0.0012234034084157937 -0.007801273220814968 0.00534002925524051 0.025855031546963718 0.993458264864465 -0.06163523930368047
 -0.0012227737531878221 -0.007801300150379967 0.0013976612648935365 0.012256733079383877 0.993458264864465 -0.06163523930368047 0.00534638567234583 0.02585459793313951
0.100041684035 0.005727781737135481 0.02771444070353636 0.9929452562044552 -0.06585160418042882 0.0016032567950129417 0.013069891501325183 -0.0013613672916840103 -0.008325709138572002
 0.9929452562044552 -0.06585160418042882 0.0057340806972092226 0.02771403571502284 -0.0013620815408577813 -0.008325673871381762 0.001557652958031678 0.01307602077015321
 0.0016032567950129417 0.013069891501325183 -0.0013620815408577813 -0.008325673871381762 0.00572726056420006 0.02771315026282584 0.9929452005302352 -0.06585293694184514
 -0.0013613672916840103 -0.008325709138572002 0.001557652958031678 0.01307602077015321 0.9929452005302352 -0.06585293694184514 0.005734492500815257 0.02771266542384712
0.1059090909091 0.0061079755929242825 0.029471642356494288 0.9924419088362297 -0.06982132525186507 0.0017673770273185522 0.013837441308398967 -0.0014987822495532651 -0.008817624186554346
 0.9924419088362297 -0.06982132525186507 0.006115035028931063 0.029471197026184743 -0.0014995805078088602 -0.008817580050036095 0.0017162401430482661 0.013844469855576441
 0.0017673770273185522 0.013837441308398967 -0.0014995805078088602 -0.008817580050036095 0.006107391787519504 0.02947027984453864 0.9924418467183554 -0.06982273600683327
 -0.0014987822495532651 -0.008817624186554346 0.0017162401430482661 0.013844469855576441 0.9924418467183554 -0.06982273600683327 0.006115496949116666 0.029469743773453724
0.1062942892872 0.00613350915258072 0.029587454371415488 0.992408116298897 -0.07008233979441626 0.0017784505011692064 0.013887813244766574 -0.0015080543749621356 -0.00884990949588007
 0.992408116298897 -0.07008233979441626 0.006140620040409778 0.029587006319231474 -0.0015088583043010965 -0.008849864740481734 0.0017269391877966199 0.013894903757762351
 0.0017784505011692064 0.013887813244766574 -0.0015088583043010965 -0.008849864740481734 0.006132921111085176 0.02958608714861548 0.9924080537454611 -0.07008375566937865
 -0.0015080543749621356 -0.00884990949588007 0.0017269391877966199 0.013894903757762351 0.9924080537454611 -0.07008375566937865 0.006141085351688792 0.029585547604284838
0.11254689453939999 0.006557962203468292 0.031475002419286816 0.9918466076116839 -0.07432599652069759 0.001963372209722518 0.014705095885228125 -0.0016629074628268944 -0.009373762496177447
 0.9918466076116839 -0.07432599652069759 0.00656593460727075 0.0314745088994005 -0.0016638061170315109 -0.009373707043559179 0.0019055902847416053 0.014713244464461732
 0.001963372209722518 0.014705095885228125 -0.0016638061170315109 -0.009373707043559179 0.006557303264324093 0.03147355909524536 0.9918465377753678 -0.07432749550403964
 -0.0016629074628268944 -0.009373762496177447 0.0019055902847416053 0.014713244464461732 0.9918465377753678 -0.07432749550403964 0.006566456705138902 0.031472961232660294
0.11879949979160001 0.007001431028747285 0.033376800690650014 0.991260445093229 -0.07858236405813146 0.002158090258835959 0.015521593848681688 -0.0018259965970556465 -0.009897127012282722
 0.991260445093229 -0.07858236405813146 0.007010314663337963 0.03337625923753237 -0.0018269949791720913 -0.009897059595073577 0.0020936742517200352 0.015530902358730591
 0.002158090258835959 0.015521593848681688 -0.0018269949791720913 -0.009897059595073577 0.007000697165647767 0.03337528198534926 0.9912603675691336 -0.07858394614865469
 -0.0018259965970556465 -0.009897127012282722 0.0020936742517200352 0.015530902358730591 0.9912603675691336 -0.07858394614865469 0.007010896827119664 0.03337462205476054
0.1250521050438 0.007464203430838628 0.035292563263900276 0.9906493455378412 -0.08285122253148923 0.0023626705023445335 0.01633715863942433 -0.0019973893185790082 -0.010419859494821488
 0.9906493455378412 -0.08285122253148923 0.007474048150799921 0.0352919713469458 -0.001998492389763218 -0.01041977878743519 0.0022912566742024233 0.016347734035331754
 0.0023626705023445335 0.01633715863942433 -0.001998492389763218 -0.01041977878743519 0.007463390620805637 0.03529096994062356 0.9906492599197666 -0.08285288772831433
 -0.0019973893185790082 -0.010419859494821488 0.0022912566742024233 0.016347734035331754 0.9906492599197666 -0.08285288772831433 0.007474693659897066 0.03529024405089472
0.131304710296 0.007946564760431027 0.0372220018493781 0.9900130277407672 -0.08713234308556432 0.0025771762179924588 0.017151638909451525 -0.002177150583762726 -0.010941813968241614
 0.9900130277407672 -0.08713234308556432 0.007957420573846031 0.03722135686856589 -0.0021783632630483956 -0.010941718586913219 0.0024984006310755885 0.017163593283785444
 0.0025771762179924588 0.017151638909451525 -0.0021783632630483956 -0.010941718586913219 0.007945668984445894 0.03722033471321886 0.990012933621226 -0.08713409139019841
 -0.002177150583762726 -0.010941813968241614 0.0024984006310755885 0.017163593283785444 0.990012933621226 -0.08713409139019841 0.007958132707391565 0.0372195388267033
0.1375573155481 0.008338186849723747 0.0389135396156926 0.9894618647767964 -0.0911740932791489 0.002774935323245157 0.017939895692536494 -0.0023387058558366 -0.011437804162871738
 0.9894618647767964 -0.0911740932791489 0.008350108393567247 0.03891285287311076 -0.0023400355261240665 -0.011437693993524917 0.0026886220885295846 0.017953211948456692
 0.002774935323245157 0.017939895692536494 -0.0023400355261240665 -0.011437693993524917 0.008337204798501835 0.038911799248814834 0.9894617617728619 -0.09117592464886062
 -0.0023387058558366 -0.011437804162871738 0.0026886220885295846 0.017953211948456692 0.9894617617728619 -0.09117592464886062 0.008350889672987064 0.038910943586900164
0.1438099208003 0.008743592147725715 0.04059615477250205 0.9888913057082251 -0.09520557708422363 0.0029806881206008986 0.01872488452381744 -0.002506718848167064 -0.011930838789235627
 0.9888913057082251 -0.09520557708422363 0.00875663035532296 0.040595424371729104 -0.002508170811577054 -0.011930712467818388 0.0028865069910810628 0.018739665116733712
 0.0029806881206008986 0.01872488452381744 -0.002508170811577054 -0.011930712467818388 0.008742519934656837 0.040594341975888557 0.9888911934161102 -0.09520749151065977
 -0.002506718848167064 -0.011930838789235627 0.0028865069910810628 0.018739665116733712 0.9888911934161102 -0.09520749151065977 0.008757483921522233 0.040593423201402266
0.1500625260525 0.009162637536417129 0.042269706145848435 0.9883014976963612 -0.09922669360347346 0.0031943635652792583 0.019506522693247923 -0.0026811213182623378 -0.01242084124292037
 0.9883014976963612 -0.09922669360347346 0.009176843515000073 0.04226893003760253 -0.002682700866067368 -0.012420697350414848 0.003091986280193051 0.01952287381078114
 0.0031943635652792583 0.019506522693247923 -0.002682700866067368 -0.012420697350414848 0.009161471286298246 0.042267821749321595 0.9883013757116236 -0.0992286910802093
 -0.0026811213182623378 -0.01242084124292037 0.003091986280193051 0.01952287381078114 0.9883013757116236 -0.0992286910802093 0.00917777249958287 0.042266836315268425
0.15631513130469998 0.009595178878849347 0.04393405682212029 0.987692588652235 -0.10323734231730189 0.0034158897646767413 0.020284728894291656 -0.002861844179322322 -0.012907736544078384
 0.987692588652235 -0.10323734231730189 0.009610603914531907 0.043933232797369964 -0.002863556591937675 -0.012907573606641782 0.00330499007960013 0.02030276041704141
