! Created with skrf 1.8.0 (http://scikit-rf.org).
# GHz S RI R 50.0 
!freq ReS11 ImS11 ReS12 ImS12 ReS13 ImS13
! ReS14 ImS14
! ReS21 ImS21 ReS22 ImS22 ReS23 ImS23
! ReS24 ImS24
! ReS31 ImS31 ReS32 ImS32 ReS33 ImS33
! ReS34 ImS34
! ReS41 ImS41 ReS42 ImS42 ReS43 ImS43
! ReS44 ImS44
!
0.0 0.001687983500323 0.0 0.9983120164997 0.0 6.551892433384e-05 0.0 -6.551892380035e-05 8.023754031567796e-21
 0.9983120164997 0.0 0.001687983500324 0.0 -6.551892380065e-05 8.023754031604536e-21 6.551892433295e-05 0.0
 6.551892433384e-05 0.0 -6.551892380065e-05 8.023754031604536e-21 0.001687983491811 0.0 0.9983120164911 0.0
 -6.551892380035e-05 8.023754031567796e-21 6.551892433295e-05 0.0 0.9983120164911 0.0 0.001687983491798 0.0
0.005 0.0018166279605454402 0.001377323826665954 0.9981491823429316 -0.003535590693986101 9.25290499163303e-05 0.0007408275485672124 -8.972655892395915e-05 -0.00046160842820720105
 0.9981491823429316 -0.003535590693986101 0.001816627044440673 0.0013773244403638655 -8.972717787221394e-05 -0.00046160896643518493 9.252801380567124e-05 0.0007408279041058516
 9.25290499163303e-05 0.0007408275485672124 -8.972717787221394e-05 -0.00046160896643518493 0.001816627692667786 0.0013773912999952606 0.9981491827124669 -0.0035355236338904875
 -8.972655892395915e-05 -0.00046160842820720105 9.252801380567124e-05 0.0007408279041058516 0.9981491827124669 -0.0035355236338904875 0.0018166280376956806 0.0013773910728120194
0.006252605252188 0.0018505054011527923 0.0017270683099204214 0.9981060095203489 -0.004420332402267061 0.00010031791560410696 0.0009263757533542035 -9.662774300741023e-05 -0.0005776031586307888
 0.9981060095203489 -0.004420332402267061 0.001850503968426887 0.0017270690971729562 -9.662870563516342e-05 -0.0005776038234923079 0.00010031629641444813 0.0009263762207378176
 0.00010031791560410696 0.0009263757533542035 -9.662870563516342e-05 -0.0005776038234923079 0.0018505049109983221 0.0017271526462771262 0.9981060100274622 -0.004420248582202559
 -9.662774300741023e-05 -0.0005776031586307888 0.00010031629641444813 0.0009263762207378176 0.9981060100274622 -0.004420248582202559 0.0018505054506743211 0.001727152369316018
0.01250521050438 0.002029646031751156 0.0034902249113338674 0.9978761101040565 -0.00884132657299253 0.00014536662575184893 0.0018529916212332643 -0.00013614070532397613 -0.0011579308975584153
 0.9978761101040565 -0.00884132657299253 0.002029640301113766 0.0034902266995407026 -0.0001361444928228714 -0.0011579321406464517 0.00014536015732360795 0.0018529928013373536
 0.00014536662575184893 0.0018529916212332643 -0.0001361444928228714 -0.0011579321406464517 0.002029643507452169 0.003490393337216941 0.9978761115758259 -0.008841159139619265
 -0.00013614070532397613 -0.0011579308975584153 0.00014536015732360795 0.0018529928013373536 0.9978761115758259 -0.008841159139619265 0.002029645668324887 0.0034903928506964423
0.01875781575657 0.002225825500475474 0.005278319906395227 0.9976220119977292 -0.013273711701665785 0.00020077383157759483 0.0027804660248503745 -0.00018418594421590315 -0.0017400998371387849
 0.9976220119977292 -0.013273711701665785 0.002225812604008052 0.0052783229492128865 -0.0001841943818259264 -0.0017401015560313774 0.00020075927447054344 0.002780468207988144
 0.00020077383157759483 0.0027804660248503745 -0.0001841943818259264 -0.0017401015560313774 0.002225819376953865 0.005278572251025573 0.9976220148850888 -0.013273460695057616
 -0.00018418594421590315 -0.0017400998371387849 0.00020075927447054344 0.002780468207988144 0.9976220148850888 -0.013273460695057616 0.0022258242443737373 0.0052785716171296244
0.02501042100875 0.0024394497467484363 0.007088807492253133 0.9973433961222472 -0.017719598982699186 0.0002666495452781669 0.003708818280553498 -0.00024088667688878463 -0.0023238179781796
 0.9973433961222472 -0.017719598982699186 0.0024394268111939624 0.007088812082655478 -0.00024090156517195735 -0.002323820052674575 0.00026662364386726485 0.0037088218024381534
 0.0002666495452781669 0.003708818280553498 -0.00024090156517195735 -0.002323820052674575 0.002439438451707919 0.007089143576985017 0.9973434008882924 -0.017719264359244542
 -0.00024088667688878463 -0.0023238179781796 0.00026662364386726485 0.0037088218024381534 0.9973434008882924 -0.017719264359244542 0.0024394471159321185 0.0070891428534611
0.03126302626094 0.0026709078733549016 0.008920358625384867 0.9970399282516264 -0.022179868929909037 0.0003431038509275104 0.004637979427317629 -0.0003063621380912531 -0.002908873913829224
 0.9970399282516264 -0.022179868929909037 0.0026708720194544306 0.008920365096212662 -0.0003063852570495028 -0.0029088762057792963 0.0003430633314605735 0.004637984669851672
 0.0003431038509275104 0.004637979427317629 -0.0003063852570495028 -0.0029088762057792963 0.0026708898134940183 0.008920778227838964 0.9970399353610864 -0.02217945059811708
 -0.0003063621380912531 -0.002908873913829224 0.0003430633314605735 0.004637984669851672 0.9970399353610864 -0.02217945059811708 0.002670903370445731 0.008920777467953729
0.037515631513130004 0.002920580179363842 0.01077209239396221 0.9967112673698619 -0.026654939944782238 0.0004302458060319831 0.005567845301837293 -0.0003807284500592785 -0.0034950837786936464
 0.9967112673698619 -0.026654939944782238 0.002920528522047294 0.010772101118529553 -0.0003807615613070959 -0.003495086132005857 0.0004301873760987581 0.005567852693901704
 0.0004302458060319831 0.005567845301837293 -0.0003807615613070959 -0.003495086132005857 0.0029205537457087103 0.010772595245352679 0.9967112772980417 -0.026654437768033536
 -0.0003807284500592785 -0.0034950837786936464 0.0004301873760987581 0.005567852693901704 0.9967112772980417 -0.026654437768033536 0.0029205732974357233 0.010772594497852296
0.043768236765320004 0.003188841263123779 0.012643342132973714 0.9963570690996351 -0.031145002131964323 0.0005281829101715945 0.006498292688490585 -0.0004640989236582775 -0.004082275122497582
 0.9963570690996351 -0.031145002131964323 0.003188770911570831 0.012643353525507777 -0.0004641437717425653 -0.004082277363166789 0.0005281032584207656 0.006498302706729599
 0.0005281829101715945 0.006498292688490585 -0.0004641437717425653 -0.004082277363166789 0.0031888048260260917 0.012643927913922794 0.9963570823302079 -0.031144415932645848
 -0.0004640989236582775 -0.004082275122497582 0.0005281032584207656 0.006498302706729599 0.9963570823302079 -0.031144415932645848 0.0031888314807233123 0.012643927222878668
0.050020842017509996 0.0034760614454194495 0.014533558742018324 0.995976987454478 -0.03565011391098279 0.000637020775882307 0.007429186003723569 -0.0005565841546872198 -0.0046702802528070094
 0.995976987454478 -0.03565011391098279 0.00347596950357872 0.014533573258340031 -0.000556642467945582 -0.004670282188984959 0.0006369165723282758 0.0074291991733418
 0.000637020775882307 0.007429186003723569 -0.000556642467945582 -0.004670282188984959 0.0034760133535067374 0.014534227082921024 0.9959770044813231 -0.03564944347024545
 -0.0005565841546872198 -0.0046702802528070094 0.0006369165723282758 0.0074291991733418 0.9959770044813231 -0.03564944347024545 0.003476048225990477 0.014534226487613414
0.055454545454549996 0.0037413465201962025 0.016191244451738168 0.995625395377387 -0.039577396131828604 0.0007405373603105287 0.008238410479645653 -0.0006444427779910523 -0.005181806357574444
 0.995625395377387 -0.039577396131828604 0.0037412334601185935 0.016191262085619464 -0.0006445141844033436 -0.005181807859528957 0.0007404091018382174 0.008238426852732935
 0.0007405373603105287 0.008238410479645653 -0.0006445141844033436 -0.005181807859528957 0.0037412869418492734 0.016191984201394522 0.9956254161147138 -0.03957665227238015
 -0.0006444427779910523 -0.005181806357574444 0.0007404091018382174 0.008238426852732935 0.9956254161147138 -0.03957665227238015 0.00374132986639214 0.016191983717298346
0.056273447269699996 0.0037826074848897016 0.01644226326295788 0.99557067588785 -0.04017024937135326 0.0007568628899640743 0.008360380572739448 -0.0006582920277114367 -0.005258932990688968
 0.99557067588785 -0.04017024937135326 0.003782491052027235 0.016442281401006786 -0.0006583655189009483 -0.005258934412750053 0.0007567307862173922 0.008360397468275516
 0.0007568628899640743 0.008360380572739448 -0.0006583655189009483 -0.005258934412750053 0.003782546064844165 0.016443013745655186 0.9955706972180367 -0.040169494427716154
 -0.0006582920277114367 -0.005258932990688968 0.0007567307862173922 0.008360397468275516 0.9955706972180367 -0.040169494427716154 0.003782590276656122 0.01644301328034574
0.06252605252188 0.004108842950288538 0.018369020797901377 0.9951377880037623 -0.044705324292687164 0.0008878104175475373 0.009291724447332176 -0.0007693276748316215 -0.005848066891341996
 0.9951377880037623 -0.044705324292687164 0.004108699121406861 0.018369043098313827 -0.0007694180415084829 -0.005848067571952502 0.0008876470473400515 0.009291745693440373
 0.0008878104175475373 0.009291724447332176 -0.0007694180415084829 -0.005848067571952502 0.004108766502727527 0.01836985295115008 0.9951378141568874 -0.04470448454677147
 -0.0007693276748316215 -0.005848066891341996 0.0008876470473400515 0.009291745693440373 0.9951378141568874 -0.04470448454677147 0.004108821182732965 0.018369852644944597
0.06877865777407 0.0044551283957978026 0.020313424958716145 0.99467797807575 -0.04925521163953708 0.0010299620312068482 0.01022305949709972 -0.0008897934075005207 -0.0064375141980394825
 0.99467797807575 -0.04925521163953708 0.00445495426227635 0.020313452005387554 -0.0008899023324180228 -0.006437513892224161 0.0010297640108071938 0.01022308576934049
 0.0010299620312068482 0.01022305949709972 -0.0008899023324180228 -0.006437513892224161 0.004455035196475546 0.02031433826165902 0.9946780095875623 -0.04925428675096831
 -0.0008897934075005207 -0.0064375141980394825 0.0010297640108071938 0.01022308576934049 0.9946780095875623 -0.04925428675096831 0.004455101480549231 0.02031433813828615
0.07503126302626001 0.004821821428901386 0.0222750880324199 0.9941909014628693 -0.05381975134784972 0.0011834137545930136 0.011154222110737131 -0.0010197886319121495 -0.007027105193140294
 0.9941909014628693 -0.05381975134784972 0.004821614079193051 0.02227512045297878 -0.001019917783205418 -0.007027103638359415 0.0011831776836161883 0.011154254136311444
 0.0011834137545930136 0.011154222110737131 -0.001019917783205418 -0.007027103638359415 0.004821709724950455 0.022276081910937263 0.9941909388850821 -0.053818740939254976
 -0.0010197886319121495 -0.007027105193140294 0.0011831776836161883 0.011154254136311444 0.9941909388850821 -0.053818740939254976 0.004821788756693965 0.022276081988510325
0.08128386827845 0.005209276702931181 0.024253634415902108 0.9936762149545659 -0.05839875684966077 0.0013482588155938231 0.01208504367456015 -0.001159409753532535 -0.007616667779239793
 0.9936762149545659 -0.05839875684966077 0.005209033223462824 0.02425367288228617 -0.001159560784987282 -0.0076166646954484935 0.001347981277422959 0.012085082233091977
 0.0013482588155938231 0.01208504367456015 -0.001159560784987282 -0.0076166646954484935 0.005209144712696727 0.024254708247075554 0.993676258857454 -0.058397660502745835
 -0.001159409753532535 -0.007616667779239793 0.001347981277422959 0.012085082233091977 0.993676258857454 -0.058397660502745835 0.005209237643172872 0.024254708537968593
0.08753647353064001 0.005617845864826448 0.026248696107866676 0.9931335770751704 -0.06299201954912816 0.0015245875044958054 0.013015350917824854 -0.0013087500750291294 -0.008206027201203324
 0.9931335770751704 -0.06299201954912816 0.005617563340219364 0.026248741336870374 -0.0013089246260922067 -0.008206022290942925 0.0015242650672524262 0.013015396842105434
 0.0015245875044958054 0.013015350917824854 -0.0013089246260922067 -0.008206022290942925 0.005617691775389039 0.026249849216500743 0.9931336280488513 -0.06299083680885434
 -0.0013087500750291294 -0.008206027201203324 0.0015242650672524262 0.013015396842105434 0.9931336280488513 -0.06299083680885434 0.005617799763982836 0.02624984972698013
0.09378907878283 0.006047877468166324 0.0282599094748107 0.9925626483585084 -0.06759931203333629 0.001712487037260943 0.01394496616835606 -0.001467899688225285 -0.008795005865869695
 0.9925626483585084 -0.06759931203333629 0.0060475529823007445 0.028259962228513746 -0.001468099384241689 -0.008794998814315691 0.00171211625432018 0.013945020345064025
 0.001712487037260943 0.01394496616835606 -0.001468099384241689 -0.008794998814315691 0.006047699434400436 0.0282611411355713 0.9925627070146323 -0.06759804240628647
 -0.001467899688225285 -0.008795005865869695 0.00171211625432018 0.013945020345064025 0.9925627070146323 -0.06759804240628647 0.0060478236482030805 0.028261141865706985
0.100041684035 0.006499716864341233 0.030286912896293396 0.9919630916034077 -0.07222039041267073 0.0019120414207930217 0.014873707557963104 -0.0016369453630480308 -0.009383423219929061
 0.9919630916034077 -0.07222039041267073 0.006499347501243571 0.0302869739825868 -0.0016371718152658247 -0.009383413694982225 0.001911618831735241 0.014873770928388727
 0.0019120414207930217 0.014873707557963104 -0.0016371718152658247 -0.009383413694982225 0.006499513006468263 0.030288222335092742 0.9919631585765091 -0.07221903336659265
 -0.0016369453630480308 -0.009383423219929061 0.001911618831735241 0.014873770928388727 0.9919631585765091 -0.07221903336659265 0.006499654621223265 0.030288223278357954
0.1059090909091 0.006943858876925521 0.03220307959156305 0.9913741361170947 -0.07656909029007881 0.0021099739035393295 0.015744272534730708 -0.0018046514379382451 -0.00993491649453337
 0.9913741361170947 -0.07656909029007881 0.006943444749960947 0.03220314927306387 -0.0018049044509683458 -0.009934904331190025 0.0021094995411004634 0.0157443454378764
 0.0021099739035393295 0.015744272534730708 -0.0018049044509683458 -0.009934904331190025 0.006943629044724346 0.0322044612678055 0.9913742114938584 -0.0765676506941037
 -0.0018046514379382451 -0.00993491649453337 0.0021094995411004634 0.0157443454378764 0.9913742114938584 -0.0765676506941037 0.006943788065123832 0.032204462399145095
0.1062942892872 0.00697370607418316 0.032329344998147394 0.9913345721144347 -0.0768549960827928 0.0021233313207781254 0.015801389187009896 -0.0018159704334704016 -0.009971095676985415
 0.9913345721144347 -0.0768549960827928 0.006973288918656038 0.03232941527116468 -0.0018162252391437182 -0.009971083329327047 0.002122853452143673 0.015801462747803127
 0.0021233313207781254 0.015801389187009896 -0.0018162252391437182 -0.009971083329327047 0.006973474477010156 0.03233073139086219 0.9913346480637091 -0.07685355104870968
 -0.0018159704334704016 -0.009971095676985415 0.002122853452143673 0.015801462747803127 0.9913346480637091 -0.07685355104870968 0.0069736346767596226 0.032330732533995356
0.11254689453939999 0.007470183648521503 0.03438684331110658 0.9906767579340535 -0.08150285707100315 0.0023464339309381206 0.01672782126881368 -0.002005054681696101 -0.010557836573228905
 0.9906767579340535 -0.08150285707100315 0.007469715786945809 0.034386923671763284 -0.0020053394240654634 -0.010557821036419437 0.0023458972971293042 0.01672790607261333
 0.0023464339309381206 0.01672782126881368 -0.0020053394240654634 -0.010557821036419437 0.007469922358912244 0.03438830578667203 0.990676843544741 -0.08150132344111902
 -0.002005054681696101 -0.010557836573228905 0.0023458972971293042 0.01672790607261333 0.990676843544741 -0.08150132344111902 0.0074701023366113015 0.034388307109355955
0.11879949979160001 0.00798948451651112 0.03645904323034433 0.989989320065951 -0.08616368909142394 0.002581422843914526 0.01765281025325909 -0.0022042742206856802 -0.011143456152366093
 0.989989320065951 -0.08616368909142394 0.0079889630378485 0.036459134626639494 -0.0022045904690791915 -0.011143437042868402 0.0025808239480441105 0.017652907409459073
 0.002581422843914526 0.01765281025325909 -0.0022045904690791915 -0.011143437042868402 0.007989191542511822 0.036460580868570416 0.989989416051621 -0.08616206622235874
 -0.0022042742206856802 -0.011143456152366093 0.0025808239480441105 0.017652907409459073 0.989989416051621 -0.08616206622235874 0.007989392499865714 0.03646058234316066
0.1250521050438 0.008531939827385275 0.03854557720453755 0.9892719326949784 -0.09083719638093753 0.0028283679231824515 0.018576158943097713 -0.002413701376058824 -0.011727761566675014
 0.9892719326949784 -0.09083719638093753 0.00853136182378639 0.03854568063212375 -0.0024140506858275216 -0.011727738483987065 0.002827703258009115 0.018576269618437984
 0.0028283679231824515 0.018576158943097713 -0.0024140506858275216 -0.011727738483987065 0.008531613136020532 0.03854718903802684 0.9892720397984026 -0.09083548359309034
 -0.002413701376058824 -0.011727761566675014 0.002827703258009115 0.018576269618437984 0.9892720397984026 -0.09083548359309034 0.0085318362839092 0.03854719062922962
0.131304710296 0.009097876784343616 0.04064607409338627 0.9885242734012772 -0.09552307237717904 0.0030873351760780697 0.019497666601910147 -0.0026334045672660976 -0.01231055689505158
 0.9885242734012772 -0.09552307237717904 0.009097239352428722 0.04064619059582577 -0.00263378847985917 -0.012310529421744478 0.0030866012249935923 0.01949779202117715
 0.0030873351760780697 0.019497666601910147 -0.00263378847985917 -0.012310529421744478 0.009097514300265048 0.040647759110949366 0.9885243923968842 -0.09552126895255542
 -0.0026334045672660976 -0.01231055689505158 0.0030866012249935923 0.01949779202117715 0.9885243923968842 -0.09552126895255542 0.009097760858931254 0.040647760775585774
0.1375573155481 0.009562823074690667 0.04248603289724651 0.9878708763819593 -0.09994671921384424 0.0033271716875354442 0.020390152975331716 -0.0028322386592457235 -0.012864687011417046
 0.9878708763819593 -0.09994671921384424 0.009562124608936396 0.04248616183616957 -0.00283265964732556 -0.012864655093919064 0.0033263678445813864 0.02039029299531184
 0.0033271716875354442 0.020390152975331716 -0.00283265964732556 -0.012864655093919064 0.009562423823898786 0.042487789874804865 0.987871007842099 -0.09994482468909949
 -0.0028322386592457235 -0.012864687011417046 0.0033263678445813864 0.02039029299531184 0.987871007842099 -0.09994482468909949 0.009562694456557618 0.04248779067426728
0.1438099208003 0.010044270129497263 0.04431535774867562 0.987194209355954 -0.10435820555593747 0.003576668585234872 0.021278462820281844 -0.003038993211320072 -0.013414988038848007
 0.987194209355954 -0.10435820555593747 0.010043507965830858 0.04431550003129189 -0.0030394529634684988 -0.013414951258822498 0.0035757918442261625 0.021278618547262856
 0.003576668585234872 0.021278462820281844 -0.0030394529634684988 -0.013414951258822498 0.01004383217291463 0.04431718556907409 0.9871943540590483 -0.10435621922202988
 -0.003038993211320072 -0.013414988038848007 0.0035757918442261625 0.021278618547262856 0.9871943540590483 -0.10435621922202988 0.010044128013237156 0.044317185378640836
0.1500625260525 0.010542034239206414 0.04613386803700469 0.9864944608377554 -0.10875739349172998 0.003835730522110753 0.022162486987122657 -0.0032535754093107015 -0.013961357430712633
 0.9864944608377554 -0.10875739349172998 0.010541205732334332 0.04613402460457047 -0.0032540756117578587 -0.01396131535271253 0.00383477790128983 0.022162659566382546
 0.003835730522110753 0.022162486987122657 -0.0032540756117578587 -0.01396131535271253 0.01054155560893693 0.04613576553821583 0.9864946195888911 -0.10875531461510923
 -0.0032535754093107015 -0.013961357430712633 0.00383477790128983 0.022162659566382546 0.9864946195888911 -0.10875531461510923 0.010541877793073645 0.04613576422752677
0.15631513130469998 0.011055930216152497 0.047941388549070485 0.9857718204963088 -0.11314414622438858 0.004104260916693611 0.023042118382354034 -0.003475891198633946 -0.01450369498252545
 0.9857718204963088 -0.11314414622438858 0.011055032740101525 0.04794156037637158 -0.0034764335352871086 -0.014503647154035163 0.0041032294591429146 0.023042308997581893
