! Created with skrf 1.8.0 (http://scikit-rf.org).
# GHz S RI R 50.0 
!freq ReS11 ImS11 ReS12 ImS12 ReS13 ImS13
! ReS14 ImS14
! ReS21 ImS21 ReS22 ImS22 ReS23 ImS23
! ReS24 ImS24
! ReS31 ImS31 ReS32 ImS32 ReS33 ImS33
! ReS34 ImS34
! ReS41 ImS41 ReS42 ImS42 ReS43 ImS43
! ReS44 ImS44
!
0.0 0.001755374244874 0.0 0.9982446257353 0.0 6.779872206802e-05 0.0 -6.779872193492e-05 8.302948780388123e-21
 0.9982446257353 0.0 0.001755374244831 0.0 -6.779872193342e-05 8.302948780204425e-21 6.779872206676e-05 0.0
 6.779872206802e-05 0.0 -6.779872193342e-05 8.302948780204425e-21 0.001755374254773 0.0 0.9982446257452 0.0
 -6.779872193492e-05 8.302948780388123e-21 6.779872206676e-05 0.0 0.9982446257452 0.0 0.001755374254806 0.0
0.005 0.001889289633075138 0.001440355329096845 0.9980751368978599 -0.00367598007119018 9.44937385343333e-05 0.0007174920489432222 -9.202042569612931e-05 -0.00045536993857985875
 0.9980751368978599 -0.00367598007119018 0.00188926108488044 0.0014403719521360087 -9.202137553882046e-05 -0.00045537058014460475 9.46745019176846e-05 0.0007174232206909627
 9.44937385343333e-05 0.0007174920489432222 -9.202137553882046e-05 -0.00045537058014460475 0.0018892892257493074 0.0014402882280903496 0.9980751365223662 -0.003676047132287237
 -9.202042569612931e-05 -0.00045536993857985875 9.46745019176846e-05 0.0007174232206909627 0.9980751365223662 -0.003676047132287237 0.0018892607462853831 0.0014403049347649173
0.006252605252188 0.0019246216936360078 0.0018060582580932162 0.9980301162253341 -0.004595838882887502 0.00010218745896953499 0.0008972161070206618 -9.894239988129259e-05 -0.000569782288878462
 0.9980301162253341 -0.004595838882887502 0.0019245770679543247 0.0018060793470671287 -9.894387858919703e-05 -0.0005697830777397395 0.00010246988295710978 0.0008971266689440968
 0.00010218745896953499 0.0008972161070206618 -9.894387858919703e-05 -0.0005697830777397395 0.0019246211334678083 0.0018059743749686856 0.9980301157144116 -0.0045959227103121066
 -9.894239988129259e-05 -0.000569782288878462 0.00010246988295710978 0.0008971266689440968 0.9980301157144116 -0.0045959227103121066 0.0019245766142282751 0.0018059955840771863
0.01250521050438 0.002111839251030951 0.003649456009846874 0.9977899010712151 -0.009192212727819614 0.00014666593518181058 0.0017948150761161494 -0.00013866328709400801 -0.0011421663356540742
 0.9977899010712151 -0.009192212727819614 0.00211166106717928 0.0036495013316707467 -0.00013866912279434122 -0.0011421677670437837 0.00014779214770708725 0.0017945991760391872
 0.00014666593518181058 0.0017948150761161494 -0.00013866912279434122 -0.0011421677670437837 0.002111837577396825 0.0036492884520709316 0.9977898995825268 -0.009192380126920996
 -0.00013866328709400801 -0.0011421663356540742 0.00014779214770708725 0.0017945991760391872 0.9977898995825268 -0.009192380126920996 0.0021116598000623927 0.0036493341749148094
0.01875781575657 0.0023174776418067532 0.005518597931948619 0.9975236515752938 -0.013800252682724966 0.00020134631339737924 0.002693335922190627 -0.00018709109321131268 -0.001716338071534318
 0.9975236515752938 -0.013800252682724966 0.0023170772684150106 0.005518670912282535 -0.00018710411817593296 -0.0017163399639199496 0.0002038761500685239 0.002692948564859187
 0.00020134631339737924 0.002693335922190627 -0.00018710411817593296 -0.0017163399639199496 0.0023174743244673683 0.005518346756361557 0.997523648649715 -0.013800503576976212
 -0.00018709109321131268 -0.001716338071534318 0.0002038761500685239 0.002692948564859187 0.997523648649715 -0.013800503576976212 0.002317074827914403 0.005518420590973414
0.02501042100875 0.0025419717580480047 0.007410825498786045 0.997231024931758 -0.018422137706688727 0.0002663407852854232 0.0035927782356498985 -0.00024435061955171316 -0.002292014595196476
 0.997231024931758 -0.018422137706688727 0.0025412607445820866 0.007410929812441945 -0.0002443736354115112 -0.0022920167292420214 0.00027083420740743857 0.003592166687616443
 0.0002663407852854232 0.0035927782356498985 -0.0002443736354115112 -0.0022920167292420214 0.002541966282489417 0.0074104907507856355 0.9972310201108606 -0.018422472058210466
 -0.00024435061955171316 -0.002292014595196476 0.00027083420740743857 0.003592166687616443 0.9972310201108606 -0.018422472058210466 0.0025412567657337928 0.007410596557132741
0.03126302626094 0.002785738481443023 0.00932474354310836 0.9969116624841305 -0.023058767979858178 0.0003417610490344606 0.004493061675568268 -0.00031056261378438406 -0.0028689848685002897
 0.9969116624841305 -0.023058767979858178 0.0027846285055651366 0.009324883107664753 -0.0003105983965664846 -0.0028689869866994427 0.0003487786390896113 0.004492165417057213
 0.0003417610490344606 0.004493061675568268 -0.0003105983965664846 -0.0028689869866994427 0.002785730343237033 0.00932432527019127 0.9969116553038009 -0.023059185775869226
 -0.00031056261378438406 -0.0028689848685002897 0.0003487786390896113 0.004492165417057213 0.9969116553038009 -0.023059185775869226 0.002784622613723424 0.009324467164211288
0.037515631513130004 0.0030491851702710827 0.011259421909693042 0.9965651985872382 -0.027710563188568245 0.00042771740241432385 0.005394073717464842 -0.0003858445722095617 -0.0034470620156414997
 0.9965651985872382 -0.027710563188568245 0.0030475880005006667 0.01125960088258094 -0.00038589587468524446 -0.00344706382215472 0.000437820572685093 0.0053928243650287295
 0.00042771740241432385 0.005394073717464842 -0.00038589587468524446 -0.00344706382215472 0.003049173880560025 0.011258920167754932 0.9965651885833331 -0.02771106443517256
 -0.0003858445722095617 -0.0034470620156414997 0.000437820572685093 0.0053928243650287295 0.9965651885833331 -0.02771106443517256 0.0030475798182858526 0.011259102518734035
0.043768236765320004 0.0033327129173490776 0.013214152484726502 0.9961912642386901 -0.032377705424434945 0.0005243182905998871 0.006295684178978673 -0.00047031100259031046 -0.004026068834042679
 0.9961912642386901 -0.032377705424434945 0.0033305403830973836 0.013214375261876831 -0.0004703805556158017 -0.004026069994601066 0.0005380693691496143 0.006294005399137772
 0.0005243182905998871 0.006295684178978673 -0.0004703805556158017 -0.004026069994601066 0.003332698002191175 0.013213567340153987 0.9961912509455563 -0.032378290144497515
 -0.00047031100259031046 -0.004026068834042679 0.0005380693691496143 0.006294005399137772 0.9961912509455563 -0.032378290144497515 0.0033305295305226927 0.013213794769732794
0.050020842017509996 0.003636718047020796 0.015188348800101314 0.9957894889498214 -0.03706023950814355 0.0006316700139066104 0.007197751228696483 -0.0005640734963044959 -0.0046058318234459775
 0.9957894889498214 -0.03706023950814355 0.0036338820112666362 0.015188620015742223 -0.0005641640095235177 -0.004605831965285872 0.0006496322645837105 0.007195558648105768
 0.0006316700139066104 0.007197751228696483 -0.0005641640095235177 -0.004605831965285872 0.003636699044850482 0.015187680333050272 0.9957894718975273 -0.03706090773817117
 -0.0005640734963044959 -0.0046058318234459775 0.0006496322645837105 0.007195558648105768 0.9957894718975273 -0.03706090773817117 0.0036338681042897484 0.015187957715209352
0.055454545454549996 0.003917842630644004 0.016919393228562937 0.9954174357755857 -0.041141971661427454 0.0007337736882927721 0.00798192891881303 -0.0006531899526263604 -0.005110143403156347
 0.9954174357755857 -0.041141971661427454 0.003914358421323148 0.01691971048780592 -0.0006533008652969396 -0.005110142327023621 0.0007558537269603711 0.007979214995599115
 0.0007337736882927721 0.00798192891881303 -0.0006533008652969396 -0.005110142327023621 0.0039178197134033775 0.016918652427277747 0.9954174150726016 -0.041142712504627206
 -0.0006531899526263604 -0.005110143403156347 0.0007558537269603711 0.007979214995599115 0.9954174150726016 -0.041142712504627206 0.003914341547384267 0.016918977374681773
0.056273447269699996 0.003961592859807209 0.017181496751136702 0.9953595018710638 -0.041758122203980036 0.0007498765037704235 0.00810012434801954 -0.0006672407164612467 -0.005186178266869704
 0.9953595018710638 -0.041758122203980036 0.003958005194232547 0.017181821278409885 -0.0006673548787322039 -0.0051861769786684464 0.000772614106904389 0.008097325462344545
 0.0007498765037704235 0.00810012434801954 -0.0006673548787322039 -0.0051861769786684464 0.003961569323904698 0.017180745052960262 0.9953594805868824 -0.041758873996653366
 -0.0006672407164612467 -0.005186178266869704 0.000772614106904389 0.008097325462344545 0.9953594805868824 -0.041758873996653366 0.003957987847893597 0.0171810775149643
0.06252605252188 0.0043077260134443485 0.019193127508529282 0.9949009325566884 -0.04647124924618092 0.0008790391351576193 0.009002645966957552 -0.0007799183412467491 -0.005766934644043408
 0.9949009325566884 -0.04647124924618092 0.004303298574208977 0.01919351046113642 -0.0007800588208221295 -0.005766931475888485 0.0009071171413658639 0.008999140049531762
 0.0008790391351576193 0.009002645966957552 -0.0007800588208221295 -0.005766931475888485 0.004307697510735122 0.01919229269096745 0.9949009065634753 -0.04647208466115382
 -0.0007799183412467491 -0.005766934644043408 0.0009071171413658639 0.008999140049531762 0.9949009065634753 -0.04647208466115382 0.0043032774020950295 0.019192685615179624
0.06877865777407 0.004675502698241293 0.021222801386715413 0.9944134115301628 -0.05119947141664072 0.0010192565577595988 0.009905152451882249 -0.0009022089824745632 -0.006347925700172424
 0.9944134115301628 -0.05119947141664072 0.0046701473023406945 0.021223248121270275 -0.0009023784269642826 -0.0063479201635167105 0.0010532408230058815 0.0099008304627723
 0.0010192565577595988 0.009905152451882249 -0.0009023784269642826 -0.0063479201635167105 0.0046754688094186835 0.021221883568496348 0.9944133803457921 -0.05120039053398178
 -0.0009022089824745632 -0.006347925700172424 0.0010532408230058815 0.0099008304627723 0.9944133803457921 -0.05120039053398178 0.00467012191806969 0.021222342594986687
0.07503126302626001 0.0050653046944146435 0.023270097603746116 0.9938965707357585 -0.05594260473949942 0.0011706245381445642 0.010807474747745606 -0.0010342120892391506 -0.0069289738680272895
 0.9938965707357585 -0.05594260473949942 0.0050589330963813385 0.023270613723123865 -0.0010344131255707993 -0.006928965435669325 0.0012110816443194098 0.01080221924368003
 0.0011706245381445642 0.010807474747745606 -0.0010344131255707993 -0.006928965435669325 0.005065265014859112 0.02326909692179689 0.9938965338735287 -0.055943607648482135
 -0.0010342120892391506 -0.0069289738680272895 0.0012110816443194098 0.01080221924368003 0.9938965338735287 -0.055943607648482135 0.0050589031148297854 0.023269627951828936
0.08128386827845 0.0054775103535530814 0.025334607481247735 0.993350043920179 -0.06070043724515132 0.0013332358097237766 0.011709438813352747 -0.0011760238406658032 -0.007509898905224793
 0.993350043920179 -0.06070043724515132 0.005470034222490576 0.025335198838699297 -0.0011762590749028385 -0.007509887011293515 0.0013807329741896961 0.01170312385873718
 0.0013332358097237766 0.011709438813352747 -0.0011762590749028385 -0.007509887011293515 0.005477464493286052 0.02533352409093215 0.9933500008879208 -0.06070152404394058
 -0.0011760238406658032 -0.007509898905224793 0.0013807329741896961 0.01170312385873718 0.9933500008879208 -0.06070152404394058 0.005469999260652627 0.025334133291256805
0.08753647353064001 0.005912494529764737 0.027415929762345706 0.9927734669673378 -0.06547273362568937 0.001507179926839412 0.012610865944059862 -0.0013277370326026394 -0.008090517652525744
 0.9927734669673378 -0.06547273362568937 0.005903825426010807 0.0274166024666299 -0.0013280090496617454 -0.008090501692478014 0.0015622849024346905 0.012603357023431022
 0.001507179926839412 0.012610865944059862 -0.0013280090496617454 -0.008090501692478014 0.005912442112994403 0.02741476382938941 0.9927734172663761 -0.065473904429421
 -0.0013277370326026394 -0.008090517652525744 0.0015622849024346905 0.012603357023431022 0.9927734172663761 -0.065473904429421 0.005903785103657226 0.027415457637551283
0.09378907878283 0.006370628475292694 0.029513667253187867 0.9921664782032231 -0.07025923857736743 0.0016925431221016696 0.01351157301182191 -0.0014894409591337113 -0.00867064388363493
 0.9921664782032231 -0.07025923857736743 0.006360677827558691 0.02951442767449559 -0.0014897523225402328 -0.008670623214259345 0.0017558240895663418 0.013502726943843435
 0.0016925431221016696 0.01351157301182191 -0.0014897523225402328 -0.008670623214259345 0.006370569140927393 0.029512418960911127 0.9921664213280402 -0.07026049351073149
 -0.0014894409591337113 -0.00867064388363493 0.0017558240895663418 0.013502726943843435 0.9921664213280402 -0.07026049351073149 0.006360631768219922 0.029513204091287784
0.100041684035 0.006852279711271725 0.031627424383847316 0.9915287186791408 -0.07505967923392605 0.0018894081662165889 0.014411372658987995 -0.0016612212907421025 -0.009250088210229594
 0.9915287186791408 -0.07505967923392605 0.006840958793401249 0.03162827916075773 -0.001661574542253366 -0.009250062149668654 0.001961433619733044 0.014401037512169193
 0.0018894081662165889 0.014411372658987995 -0.001661574542253366 -0.009250062149668654 0.006852213113230265 0.03162609393208392 0.9915286541168783 -0.07506101843218853
 -0.0016612212907421025 -0.009250088210229594 0.001961433619733044 0.014401037512169193 0.9915286541168783 -0.07506101843218853 0.0068409066258229975 0.03162697738296204
0.1059090909091 0.007325971011058931 0.033625178401980954 0.990901946221098 -0.07957680113257562 0.0020846765070913166 0.015254743437775635 -0.0018316563185067972 -0.009793043538767188
 0.990901946221098 -0.07957680113257562 0.0073132833862162225 0.03362612800541854 -0.0018320511695602668 -0.009793011764606972 0.0021654249459312374 0.015242864901482005
 0.0020846765070913166 0.015254743437775635 -0.0018320511695602668 -0.009793011764606972 0.007325897295531093 0.03362377104430351 0.9909018739720993 -0.07957821954129142
 -0.0018316563185067972 -0.009793043538767188 0.0021654249459312374 0.015242864901482005 0.9909018739720993 -0.07957821954129142 0.007313225154282581 0.033624753383369635
0.1062942892872 0.00735781188061259 0.033756805380346776 0.9908598324414758 -0.07987376700002478 0.002097854229367507 0.015310073462054536 -0.001843159950151506 -0.009828658026130773
 0.9908598324414758 -0.07987376700002478 0.0073450317882989636 0.03375776142781731 -0.0018435576093857131 -0.009828625853910034 0.0021791928561348097 0.015298088472425803
 0.002097854229367507 0.015310073462054536 -0.0018435576093857131 -0.009828625853910034 0.007357737687959839 0.033755392980599735 0.9908597596717115 -0.07987519061378556
 -0.001843159950151506 -0.009828658026130773 0.0021791928561348097 0.015298088472425803 0.9908597596717115 -0.07987519061378556 0.007344973147216055 0.03375638204221786
0.11254689453939999 0.007887584585522111 0.03590141286895691 0.9901594667897857 -0.08470119896365125 0.0023179567439884285 0.016207480071281345 -0.002035334986444127 -0.010406157485098844
 0.9901594667897857 -0.08470119896365125 0.00787325621326236 0.035902477387104344 -0.002035779550560121 -0.010406118442161404 0.002409177298421845 0.016193675562043933
 0.0023179567439884285 0.016207480071281345 -0.002035779550560121 -0.010406118442161404 0.007887502482628629 0.03589991875109425 0.9901593852833841 -0.08470270715192746
 -0.002035334986444127 -0.010406157485098844 0.002409177298421845 0.016193675562043933 0.9901593852833841 -0.08470270715192746 0.007873190740224903 0.03590102101459038
0.11879949979160001 0.008441953215307487 0.03806084680971268 0.989427272527951 -0.08954165899083265 0.0025497872691413377 0.01710339333796125 -0.002237820448030573 -0.010982387500361127
 0.989427272527951 -0.08954165899083265 0.008425987232715565 0.038062027293850796 -0.0022383143911648036 -0.010982340789143605 0.002651458442000093 0.017087590641320774
 0.0025497872691413377 0.01710339333796125 -0.0022383143911648036 -0.010982340789143605 0.008441862902061888 0.038059271218966344 0.9894271817471069 -0.0895432519238648
 -0.002237820448030573 -0.010982387500361127 0.002651458442000093 0.017087590641320774 0.9894271817471069 -0.0895432519238648 0.008425914577710582 0.03806049458637635
0.1250521050438 0.009021268764570479 0.040234703660247756 0.9886629042093374 -0.09439481860187382 0.0027934133555495553 0.01799761043241034 -0.0024506862550220903 -0.0115571457631305
 0.9886629042093374 -0.09439481860187382 0.009003575593345699 0.040236007911806405 -0.002451232027936807 -0.011557090547600284 0.0029061036388015257 0.017979621813734723
 0.0027934133555495553 0.01799761043241034 -0.002451232027936807 -0.011557090547600284 0.009021169956691694 0.04023304685502801 0.9886628036066204 -0.09439649646312641
 -0.0024506862550220903 -0.0115571457631305 0.0029061036388015257 0.017979621813734723 0.9886628036066204 -0.09439649646312641 0.009003495415226038 0.04023439955032245
0.131304710296 0.009625877645238411 0.04242257571005142 0.9878660203774714 -0.09926033768928912 0.0030488984122786465 0.018889924957347735 -0.002673998071338004 -0.012130226775438312
 0.9878660203774714 -0.09926033768928912 0.00960636743538891 0.04242401184871275 -0.00267459810092644 -0.012130162181212089 0.0031731759594479103 0.018869553541687754
 0.0030488984122786465 0.018889924957347735 -0.00267459810092644 -0.012130162181212089 0.009625770074293412 0.042420837966693194 0.9878659093952146 -0.09926210067049866
 -0.002673998071338004 -0.012130226775438312 0.0031731759594479103 0.018869553541687754 0.9878659093952146 -0.09926210067049866 0.009606279403423278 0.042422328547807
0.1375573155481 0.01012474705028592 0.044340880973788147 0.9871677278779548 -0.10385450946102232 0.0032852590116087786 0.019752961069926613 -0.00287663573339514 -0.012674385270562057
 0.9871677278779548 -0.10385450946102232 0.010103321975056543 0.044342428951135694 -0.002877293395678112 -0.012674311131757213 0.0034214063397622445 0.01973022067611549
 0.0032852590116087786 0.019752961069926613 -0.002877293395678112 -0.012674311131757213 0.010124629285042885 0.044339063065973995 0.987167606038062 -0.10385635764981488
 -0.00287663573339514 -0.012674385270562057 0.0034214063397622445 0.01973022067611549 0.987167606038062 -0.10385635764981488 0.010103226777407139 0.044340670744528764
0.1438099208003 0.010641406942359233 0.04624781769612728 0.9864444462911826 -0.10843572422552031 0.0035310888891640435 0.02061175196566378 -0.003087309666466647 -0.013214548976190538
 0.9864444462911826 -0.10843572422552031 0.010617975568387325 0.046249484242765586 -0.0030880275252911375 -0.013214464431680034 0.0036796221811551937 0.02058646099312286
 0.0035310888891640435 0.02061175196566378 -0.0030880275252911375 -0.013214464431680034 0.01064127852595226 0.04624591997631167 0.9864443130385131 -0.10843765780277197
 -0.003087309666466647 -0.013214548976190538 0.0036796221811551937 0.02058646099312286 0.9864443130385131 -0.10843765780277197 0.010617873072670522 0.046247651798687194
0.1500625260525 0.011175656193324217 0.0481431879716729 0.9856963817932451 -0.11300382862799371 0.003786289132357314 0.021466186777629074 -0.0033059216979875183 -0.013750610811272886
 0.9856963817932451 -0.11300382862799371 0.01115012678696603 0.04814498025297201 -0.003306702305781429 -0.013750514965956093 0.003947720970216337 0.0214381569758092
 0.003786289132357314 0.021466186777629074 -0.003306702305781429 -0.013750514965956093 0.011175516670107525 0.04814121080571842 0.9856962365645789 -0.11300584778310695
 -0.0033059216979875183 -0.013750610811272886 0.003947720970216337 0.0214381569758092 0.9856962365645789 -0.11300584778310695 0.011150016882512897 0.04814307426005463
0.15631513130469998 0.01172729201574833 0.05002679977136676 0.9849237418663851 -0.11755867074252306 0.004050759526535258 0.022316156853791243 -0.003532372320758118 -0.014282466205339637
 0.9849237418663851 -0.11755867074252306 0.01169957253504537 0.050028725401234 -0.0035332182183392723 -0.014282358130439663 0.004225598829838831 0.022285193398781423
