! Created with skrf 1.8.0 (http://scikit-rf.org).
# GHz S RI R 50.0 
!freq ReS11 ImS11 ReS12 ImS12 ReS13 ImS13
! ReS14 ImS14
! ReS21 ImS21 ReS22 ImS22 ReS23 ImS23
! ReS24 ImS24
! ReS31 ImS31 ReS32 ImS32 ReS33 ImS33
! ReS34 ImS34
! ReS41 ImS41 ReS42 ImS42 ReS43 ImS43
! ReS44 ImS44
!
0.0 0.001580015042836 0.0 0.9984199849453 0.0 6.112428433229e-05 0.0 -6.112428418157e-05 7.48556589731329e-21
 0.9984199849453 0.0 0.001580015042843 0.0 -6.112428418179e-05 7.485565897340232e-21 6.112428433083e-05 0.0
 6.112428433229e-05 0.0 -6.112428418179e-05 7.485565897340232e-21 0.001580015046133 0.0 0.9984199849486 0.0
 -6.112428418157e-05 7.48556589731329e-21 6.112428433083e-05 0.0 0.9984199849486 0.0 0.001580015046131 0.0
0.005 0.0017000986527403123 0.0012902436459689807 0.9982680385874246 -0.0033097518174092892 8.603099458152127e-05 0.0006867855018249217 -8.347097504276738e-05 -0.0004287389892543412
 0.9982680385874246 -0.0033097518174092892 0.001700107564203547 0.0012902383825905952 -8.346924650397218e-05 -0.00042873762193776236 8.600076444003173e-05 0.0006867973223507397
 8.603099458152127e-05 0.0006867855018249217 -8.346924650397218e-05 -0.00042873762193776236 0.0017001000994217924 0.0012903100304203002 0.9982680389518823 -0.003309684750757105
 -8.347097504276738e-05 -0.0004287389892543412 8.600076444003173e-05 0.0006867973223507397 0.9982680389518823 -0.003309684750757105 0.0017001068372096881 0.0012903061220652689
0.006252605252188 0.001731624906261501 0.0016178858897393175 0.9982278893135877 -0.004137994924013646 9.316276738701999e-05 0.0008588064177150783 -8.97967132550782e-05 -0.000536479023163066
 0.9982278893135877 -0.004137994924013646 0.001731638836144646 0.0016178791296565995 -8.979402381781408e-05 -0.0005364773365163518 9.311553940071979e-05 0.0008588217179275323
 9.316276738701999e-05 0.0008588064177150783 -8.979402381781408e-05 -0.0005364773365163518 0.0017316270909565785 0.0016179688472472053 0.9982278898062481 -0.004137911103996431
 -8.97967132550782e-05 -0.000536479023163066 9.311553940071979e-05 0.0008588217179275323 0.9982278898062481 -0.004137911103996431 0.0017316376221424038 0.0016179637915356142
0.01250521050438 0.0018977720505668962 0.0032696962117084428 0.9980148703351491 -0.008276767770709088 0.00013414655311361418 0.0017179180305014145 -0.0001257762352835153 -0.001075548931867824
 0.9980148703351491 -0.008276767770709088 0.0018978276715132117 0.003269680836833972 -0.00012576564021779004 -0.0010755458052716274 0.00013395833276363066 0.0017179543370696064
 0.00013414655311361418 0.0017179180305014145 -0.00012576564021779004 -0.0010755458052716274 0.001897780213940992 0.0032698617641808755 0.9980148717398485 -0.008276600355516842
 -0.0001257762352835153 -0.001075548931867824 0.00013395833276363066 0.0017179543370696064 0.9980148717398485 -0.008276600355516842 0.0018978222506108751 0.0032698499249195784
0.01875781575657 0.002078826844328411 0.004945017602097968 0.9977806578470951 -0.01242638536001546 0.00018417164314384158 0.002577919149662053 -0.0001691754748025713 -0.0016164100897989586
 0.9977806578470951 -0.01242638536001546 0.0020789518260477882 0.004944991576772618 -0.00016915185271158047 -0.0016164058173514686 0.0001837490923569335 0.002577983373420868
 0.00018417164314384158 0.002577919149662053 -0.00016915185271158047 -0.0016164058173514686 0.0020788447735870983 0.004945265451338398 0.9977806605866423 -0.012426134404310136
 -0.0001691754748025713 -0.0016164100897989586 0.0001837490923569335 0.002577983373420868 0.9977806605866423 -0.012426134404310136 0.0020789392047575283 0.004945244982700721
0.02501042100875 0.002275148288017623 0.006641491062966965 0.9975249708527462 -0.016588848686885288 0.00024333538731112955 0.003438842916751087 -0.00022010320817991873 -0.0021588077322266647
 0.9975249708527462 -0.016588848686885288 0.00227537023907387 0.006641452174356492 -0.00022006150065381638 -0.0021588026606279777 0.0002425852884141396 0.0034389431154367646
 0.00024333538731112955 0.003438842916751087 -0.00022006150065381638 -0.0021588026606279777 0.0022751797640169383 0.006641820863315881 0.9975249753517632 -0.016588514187949377
 -0.00022010320817991873 -0.0021588077322266647 0.0002425852884141396 0.0034389431154367646 0.9975249753517632 -0.016588514187949377 0.002275347415286553 0.0066417898028940546
0.03126302626094 0.002487080520838629 0.008357897277307616 0.9972475142867239 -0.020765007579484566 0.0003117355358715808 0.0043006415720536284 -0.00027866501801068365 -0.0027025616942699918
 0.9972475142867239 -0.020765007579484566 0.0024874269993291724 0.008357843134745009 -0.00027860021891986633 -0.0027025562234559096 0.0003105646965215031 0.004300786952298692
 0.0003117355358715808 0.0043006415720536284 -0.00027860021891986633 -0.0027025562234559096 0.002487129318643277 0.008358308616083226 0.9972475209725571 -0.02076458949647516
 -0.00027866501801068365 -0.0027025616942699918 0.0003105646965215031 0.004300786952298692 0.9972475209725571 -0.02076458949647516 0.002487390960514036 0.008358264884313963
0.037515631513130004 0.0027149601489934697 0.010093437172188491 0.9969479865914299 -0.024955280074488176 0.00038946926409146087 0.00516323531570358 -0.00034496406484485796 -0.0032475175560252234
 0.9969479865914299 -0.024955280074488176 0.002715458668956555 0.010093365206060445 -0.00034487121492270877 -0.0032475121393103013 0.000387784474358127 0.005163436241352973
 0.00038946926409146087 0.00516323531570358 -0.00034487121492270877 -0.0032475121393103013 0.0027150300388306342 0.010093929564386745 0.9969479958963151 -0.024954778333010217
 -0.00034496406484485796 -0.0032475175560252234 0.000387784474358127 0.005163436241352973 0.9969479958963151 -0.024954778333010217 0.0027154063915917157 0.010093870964274504
0.043768236765320004 0.0029591190618995346 0.011847513000636327 0.9966260827844229 -0.029159871264092398 0.00047663270833794846 0.006026527178526467 -0.0004191013624444284 -0.0037935317782659774
 0.9966260827844229 -0.029159871264092398 0.0029597970975503178 0.011847420461174343 -0.0004189755460459959 -0.0037935269223774892 0.00047434072001447986 0.0060267951809198006
 0.00047663270833794846 0.006026527178526467 -0.0004189755460459959 -0.0037935269223774892 0.002959213808965786 0.011848085885409802 0.9966260951467607 -0.029159285759074255
 -0.0004191013624444284 -0.0037935317782659774 0.00047434072001447986 0.0060267951809198006 0.9966260951467607 -0.029159285759074255 0.002959725546374694 0.011848010102087412
0.050020842017509996 0.0032198857439774413 0.013619637843362554 0.9962814960235458 -0.03337886372153416 0.0005733206885577785 0.006890409151551108 -0.0005011758704240338 -0.004340465581947984
 0.9962814960235458 -0.03337886372153416 0.0032207707328563186 0.013619521799209763 -0.000501012213428216 -0.004340461846990904 0.0005703282062110535 0.006890756940598471
 0.0005733206885577785 0.006890409151551108 -0.000501012213428216 -0.004340461846990904 0.0032200091064591534 0.013620290579463208 0.9962815118881626 -0.03337819432109333
 -0.0005011758704240338 -0.004340465581947984 0.0005703282062110535 0.006890756940598471 0.9962815118881626 -0.03337819432109333 0.0032206768588596687 0.013620195179782394
0.055454545454549996 0.003460240483813368 0.01517399828578747 0.9959633793302142 -0.03705699647206982 0.0006651530639698094 0.007641538063213667 -0.0005790224176606471 -0.004816408005416214
 0.9959633793302142 -0.03705699647206982 0.0034613275772856396 0.015173859292719218 -0.0005788219488485314 -0.0048164057408872155 0.0006614760258392211 0.007641966435222279
 0.0006651530639698094 0.007641538063213667 -0.0005788219488485314 -0.0048164057408872155 0.0034603917603857883 0.015174719833530276 0.9959633986055025 -0.037056254033859176
 -0.0005790224176606471 -0.004816408005416214 0.0006614760258392211 0.007641966435222279 0.9959633986055025 -0.037056254033859176 0.003461211816962956 0.015174605318470966
0.056273447269699996 0.003497585939099925 0.015409391207716795 0.9959139185304714 -0.037612261831058036 0.0006796265056099821 0.007754765212275453 -0.0005912845124186303 -0.004888181934509369
 0.9959139185304714 -0.037612261831058036 0.003498705284617457 0.015409248544615178 -0.0005910781808536852 -0.004888179933929485 0.0006758401849931564 0.007755206687893572
 0.0006796265056099821 0.007754765212275453 -0.0005910781808536852 -0.004888179933929485 0.003497741667815672 0.015410123076773792 0.9959139383495871 -0.03761150837247558
 -0.0005912845124186303 -0.004888181934509369 0.0006758401849931564 0.007755206687893572 0.9959139383495871 -0.03761150837247558 0.0034985860244365844 0.015410005508922556
0.06252605252188 0.0037925430042933033 0.017216394617036255 0.9955230422064136 -0.04186001613084786 0.0007956417823887167 0.00861947297845278 -0.0006895221501381892 -0.005436543912955199
 0.9955230422064136 -0.04186001613084786 0.003793924077648458 0.017216222036361865 -0.0006892683491969395 -0.00543654431349206 0.0007909682332076414 0.008620023242136659
 0.0007956417823887167 0.00861947297845278 -0.0006892683491969395 -0.00543654431349206 0.003792734841055428 0.017217204811845105 0.9955230664406541 -0.041859178431706466
 -0.0006895221501381892 -0.005436543912955199 0.0007909682332076414 0.008620023242136659 0.9955230664406541 -0.041859178431706466 0.003793776352332718 0.01721706240476673
0.06877865777407 0.004105078090858159 0.01904029704242205 0.9951085590805735 -0.04612203781789396 0.0009214563245889379 0.009484404705985744 -0.000795981536355001 -0.005985413727536565
 0.9951085590805735 -0.04612203781789396 0.00410674823311014 0.01904009105961556 -0.0007956755097666549 -0.005985417249152692 0.0009158021167790381 0.009485080072397144
 0.0009214563245889379 0.009484404705985744 -0.0007956755097666549 -0.005985417249152692 0.0041053097676750855 0.01904118468261426 0.995108588200116 -0.04612111565975524
 -0.000795981536355001 -0.005985413727536565 0.0009158021167790381 0.009485080072397144 0.995108588200116 -0.04612111565975524 0.00410656894733689 0.01904101464551939
0.07503126302626001 0.004435510222378566 0.02088076569584378 0.9946701616585795 -0.050398207896537456 0.0010571579951900551 0.01034942792715899 -0.0009107532530321489 -0.006534652110113519
 0.9946701616585795 -0.050398207896537456 0.004437496745896593 0.020880522638765105 -0.0009103902826439888 -0.006534659525931101 0.001050429667583942 0.010350245935650237
 0.0010571579951900551 0.01034942792715899 -0.0009103902826439888 -0.006534659525931101 0.004435785460313375 0.020881729810320434 0.994670196144064 -0.05039720104194495
 -0.0009107532530321489 -0.006534652110113519 0.001050429667583942 0.010350245935650237 0.994670196144064 -0.05039720104194495 0.004437282786974151 0.020881529232007385
0.08128386827845 0.004784156311730929 0.02273747987572629 0.9942075432149471 -0.05468838328006568 0.0012028325977417144 0.011214405873516527 -0.0010339256392889148 -0.007084117923178302
 0.9942075432149471 -0.05468838328006568 0.00478648650199362 0.02273719588301291 -0.0010335010447602335 -0.007084130059399913 0.001194936668725984 0.011215385299554313
 0.0012028325977417144 0.011214405873516527 -0.0010335010447602335 -0.007084130059399913 0.004784478819162366 0.022738519414485292 0.9942075835580402 -0.054687291460094954
 -0.0010339256392889148 -0.007084117923178302 0.001194936668725984 0.011215385299554313 0.9942075835580402 -0.054687291460094954 0.004786234738796796 0.022738285262708942
0.08753647353064001 0.005151331132370368 0.024610126735765278 0.9937203980420996 -0.058992400974770216 0.0013585637631473892 0.012079197787181325 -0.001165584714658364 -0.007633667885853154
 0.9937203980420996 -0.058992400974770216 0.005154032248993777 0.024609797755062578 -0.0011650938532962627 -0.007633685621686191 0.0013494067427237267 0.012080358653592463
 0.0013585637631473892 0.012079197787181325 -0.0011650938532962627 -0.007633685621686191 0.005151704603690883 0.024611240559827535 0.9937204447469165 -0.05899122389881403
 -0.001165584714658364 -0.007633667885853154 0.0013494067427237267 0.012080358653592463 0.9937204447469165 -0.05899122389881403 0.005153739531066812 0.02461096968047334
0.09378907878283 0.005537347261483171 0.026498398252507962 0.9932084216770752 -0.06331008107188849 0.0015244328417580331 0.012943659141087072 -0.001305814095729695 -0.008183156396714623
 0.9932084216770752 -0.06331008107188849 0.005540446539817525 0.026498020038563407 -0.0013052523624433195 -0.00818318066429026 0.001513921245046727 0.012945022729180158
 0.0015244328417580331 0.012943659141087072 -0.0013052523624433195 -0.00818318066429026 0.005537775376392921 0.02649958514005797 0.9932084752615438 -0.06330881842093207
 -0.001305814095729695 -0.008183156396714623 0.001513921245046727 0.012945022729180158 0.9932084752615438 -0.06330881842093207 0.005540109697096704 0.026499274256287026
0.100041684035 0.005942515003249532 0.02840198900855308 0.9926713111100685 -0.06764122892983818 0.001700518796436151 0.013807641813632613 -0.0014546949109419019 -0.008732435407942088
 0.9926713111100685 -0.06764122892983818 0.005946039655405806 0.028401557121376993 -0.0014540577382501866 -0.008732467192212908 0.0016885591580689356 0.013809230674047851
 0.001700518796436151 0.013807641813632613 -0.0014540577382501866 -0.008732467192212908 0.005943001424152779 0.028403247649131384 0.9926713721061081 -0.0676398803620216
 -0.0014546949109419019 -0.008732435407942088 0.0016885591580689356 0.013809230674047851 0.9926713721061081 -0.0676398803620216 0.005945655496223538 0.02840289336050379
0.1059090909091 0.006340414475870497 0.030201968478091482 0.9921441620585698 -0.07171761571829163 0.0018751170775283266 0.014617827581366118 -0.0016023421570349275 -0.009247550864070055
 0.9921441620585698 -0.07171761571829163 0.006344363025886475 0.030201482010874248 -0.0016016300720080314 -0.009247590644735846 0.0018617136309125233 0.014619649485618042
 0.0018751170775283266 0.014617827581366118 -0.0016016300720080314 -0.009247590644735846 0.006340958925734706 0.03020329318533894 0.9921442305068843 -0.07171618619009092
 -0.0016023421570349275 -0.009247550864070055 0.0018617136309125233 0.014619649485618042 0.9921442305068843 -0.07171618619009092 0.006343931542746642 0.03020289496218874
0.1062942892872 0.006367142293662547 0.03032059452574743 0.99210876497924 -0.0719856368137598 0.0018868980980390837 0.01467099422753077 -0.001612305711883732 -0.009281354341327805
 0.99210876497924 -0.0719856368137598 0.0063711195099249345 0.030320104328543613 -0.001611588570035659 -0.009281394679973617 0.0018733969876767289 0.014672832190911207
 0.0018868980980390837 0.01467099422753077 -0.001611588570035659 -0.009281394679973617 0.00636769066497407 0.030321923525151295 0.9921088339339141 -0.07198420195906503
 -0.001612305711883732 -0.009281354341327805 0.0018733969876767289 0.014672832190911207 0.9921088339339141 -0.07198420195906503 0.0063706848205053275 0.03032152230658074
0.11254689453939999 0.006811534595501075 0.03225390999866941 0.9915204837576745 -0.07634308514125998 0.002083644621848279 0.015533561464849752 -0.0017787223830996132 -0.009829760034071072
 0.9915204837576745 -0.07634308514125998 0.006815991544973238 0.03225335665575367 -0.0017779207801086833 -0.009829810017399142 0.00206850866041219 0.01553567365223434
 0.002083644621848279 0.015533561464849752 -0.0017779207801086833 -0.009829810017399142 0.006812148541890377 0.03225530787682015 0.991520561235005 -0.07634156360351263
 -0.0017787223830996132 -0.009829760034071072 0.00206850866041219 0.01553567365223434 0.991520561235005 -0.07634156360351263 0.006815503088985799 0.03225485607746536
0.11879949979160001 0.007275994783240012 0.03420162930916612 0.9909061699350695 -0.08071334345468398 0.0022908295448945204 0.016395185366795583 -0.0019540180502084672 -0.010377496706167739
 0.9909061699350695 -0.08071334345468398 0.007280958615415636 0.03420100778377456 -0.0019531275321392596 -0.010377557476986885 0.0022739654216518885 0.016397598199734586
 0.0022908295448945204 0.016395185366795583 -0.0019531275321392596 -0.010377557476986885 0.007276677908000932 0.034203094495343644 0.9909062565164083 -0.08071173481607015
 -0.0019540180502084672 -0.010377496706167739 0.0022739654216518885 0.016397598199734586 0.9909062565164083 -0.08071173481607015 0.007280413132480768 0.03420258833738648
0.1250521050438 0.007760823020476835 0.036163444246539965 0.9902655281930366 -0.0850961711948204 0.002508521244239413 0.017255704622647427 -0.0021382629869001624 -0.010924405944874444
 0.9902655281930366 -0.0850961711948204 0.007766320865917268 0.036162749298568705 -0.002137279137957429 -0.010924478698390278 0.002489835734562335 0.01725844583310202
 0.002508521244239413 0.017255704622647427 -0.002137279137957429 -0.010924478698390278 0.007761578903932167 0.03616497508465932 0.9902656244780893 -0.08509447501054418
 -0.0021382629869001624 -0.010924405944874444 0.002489835734562335 0.01725844583310202 0.9902656244780893 -0.08509447501054418 0.007765715070926692 0.03616441066205948
0.131304710296 0.008266316631405628 0.038139043896318836 0.9895982655785142 -0.08949131831380389 0.002736785195626317 0.018114954850508555 -0.0023315245212711592 -0.01147032670390698
 0.9895982655785142 -0.08949131831380389 0.008272375602887612 0.03813827007993851 -0.0023304429641488288 -0.011470412687575319 0.002716185179346553 0.018118053490345353
 0.002736785195626317 0.018114954850508555 -0.0023304429641488288 -0.011470412687575319 0.008267148829484731 0.03814063864221407 0.9895983721869757 -0.08948953411470677
 -0.0023315245212711592 -0.01147032670390698 0.002716185179346553 0.018118053490345353 0.9895983721869757 -0.08948953411470677 0.008271706185186101 0.03814001191926329
0.1375573155481 0.008678250601344086 0.03987018638543891 0.9890186579880625 -0.0936404801782618 0.0029473891565635403 0.018947020644880314 -0.0025055956641995563 -0.011989350175848628
 0.9890186579880625 -0.0936404801782618 0.008684899210511545 0.039869346103227864 -0.0025044097908314337 -0.011989449511045955 0.002924816598655496 0.0189504730872411
 0.0029473891565635403 0.018947020644880314 -0.0025044097908314337 -0.011989449511045955 0.008679162010960691 0.03987184364750272 0.9890187754039237 -0.09363860767260003
 -0.0025055956641995563 -0.011989350175848628 0.002924816598655496 0.0189504730872411 0.9890187754039237 -0.09363860767260003 0.00868416375396866 0.03987116799063718
0.1438099208003 0.009104719389684912 0.04159193204332873 0.988418578041069 -0.09777884995043665 0.0031664999950201294 0.019775574222336067 -0.0026866262712896783 -0.012505152768844525
 0.988418578041069 -0.09777884995043665 0.009111984925947232 0.04159102115432184 -0.002685331358180944 -0.012505266687811366 0.0031418682694519806 0.019779407282336275
 0.0031664999950201294 0.019775574222336067 -0.002685331358180944 -0.012505266687811366 0.009105713413282373 0.04159365003262155 0.9884187068846744 -0.09777688867434953
 -0.0026866262712896783 -0.012505152768844525 0.0031418682694519806 0.019779407282336275 0.9884187068846744 -0.09777688867434953 0.009111180243563133 0.041592922703984334
0.1500625260525 0.009545568942112713 0.043304128834400275 0.9877981840970417 -0.1019063165818426 0.0033940401796696247 0.020600526201718768 -0.0028745409490256923 -0.01301764994169467
 0.9877981840970417 -0.1019063165818426 0.009553478685625533 0.043303143006369185 -0.0028731322828976615 -0.013017779726253436 0.0033672631650674806 0.020604767685879967
 0.0033940401796696247 0.020600526201718768 -0.0028731322828976615 -0.013017779726253436 0.00954664895094647 0.04330590568949883 0.987798325005266 -0.10190426605583709
 -0.0028745409490256923 -0.01301764994169467 0.0033672631650674806 0.020604767685879967 0.987798325005266 -0.10190426605583709 0.009552601575276225 0.04330512381608218
0.15631513130469998 0.010000644063329296 0.045006629286130036 0.987157635373729 -0.1060227695923049 0.003629931237192372 0.021421788765057456 -0.00306926335004647 -0.013526758982096638
