! Created with skrf 1.8.0 (http://scikit-rf.org).
# GHz S RI R 50.0 
!freq ReS11 ImS11 ReS12 ImS12 ReS13 ImS13
! ReS14 ImS14
! ReS21 ImS21 ReS22 ImS22 ReS23 ImS23
! ReS24 ImS24
! ReS31 ImS31 ReS32 ImS32 ReS33 ImS33
! ReS34 ImS34
! ReS41 ImS41 ReS42 ImS42 ReS43 ImS43
! ReS44 ImS44
!
0.0 0.001435435742171 0.0 0.9985645642305 0.0 5.499056350183e-05 0.0 -5.499056301449e-05 6.734401697900601e-21
 0.9985645642305 0.0 0.001435435742183 0.0 -5.499056301371e-05 6.734401697805078e-21 5.499056350336e-05 0.0
 5.499056350183e-05 0.0 -5.499056301371e-05 6.734401697805078e-21 0.001435435743572 0.0 0.9985645642319 0.0
 -5.499056301449e-05 6.734401697900601e-21 5.499056350336e-05 0.0 0.9985645642319 0.0 0.001435435743625 0.0
0.005 0.0015440669386631966 0.0011782352355716144 0.9984271896149365 -0.003006962850267228 7.634782277632773e-05 0.0005838625505205999 -7.427644684887105e-05 -0.0003703863594317043
 0.9984271896149365 -0.003006962850267228 0.0015440866822617404 0.001178223743273599 -7.427634857651155e-05 -0.000370386343992725 7.621473195270327e-05 0.0005839130196377545
 7.634782277632773e-05 0.0005838625505205999 -7.427634857651155e-05 -0.000370386343992725 0.0015440663298766763 0.0011781683701079014 0.9984271892698457 -0.003007029918001425
 -7.427644684887105e-05 -0.0003703863594317043 7.621473195270327e-05 0.0005839130196377545 0.9984271892698457 -0.003007029918001425 0.0015440866032922441 0.0011781564743642973
0.006252605252188 0.0015724671289299664 0.0014774240751853076 0.9983910623577797 -0.0037594511432326935 8.240724642493998e-05 0.0007301262525059637 -7.967623325360797e-05 -0.00046346173432968834
 0.9983910623577797 -0.0037594511432326935 0.0015724979917588141 0.0014774095239628736 -7.967607984735842e-05 -0.0004634617165567189 8.219930087661329e-05 0.0007301917950567159
 8.240724642493998e-05 0.0007301262525059637 -7.967607984735842e-05 -0.0004634617165567189 0.0015724662469567565 0.001477340518833818 0.998391061888466 -0.0037595349589882414
 -7.967623325360797e-05 -0.00046346173432968834 8.219930087661329e-05 0.0007301917950567159 0.998391061888466 -0.0037595349589882414 0.0015724979389078254 0.0014773254515110853
0.01250521050438 0.0017214454027324343 0.002985791208174628 0.998200364785768 -0.007519773343554599 0.00011693312699119066 0.0014607025238225517 -0.00011007046500652184 -0.0009292040130792437
 0.998200364785768 -0.007519773343554599 0.0017215686340240658 0.0029857602390616447 -0.00011006985460790512 -0.000929203994822896 0.00011610379107542084 0.0014608599673089774
 0.00011693312699119066 0.0014607025238225517 -0.00011006985460790512 -0.000929203994822896 0.0017214424324734129 0.0029856244057789487 0.9982003634699135 -0.007519940738155958
 -0.00011007046500652184 -0.0009292040130792437 0.00011610379107542084 0.0014608599673089774 0.9982003634699135 -0.007519940738155958 0.0017215689888853537 0.0029855922801491084
0.01875781575657 0.0018826779986416383 0.004515675440744301 0.9979922472278712 -0.011290133365819379 0.00015864520960209028 0.002192202455705549 -0.00014626250279158986 -0.0013965980284826375
 0.9979922472278712 -0.011290133365819379 0.0018829548924156215 0.004515626050167639 -0.00014626113340085716 -0.0013965980320987316 0.00015678196547172857 0.0021924830084320028
 0.00015864520960209028 0.002192202455705549 -0.00014626113340085716 -0.0013965980320987316 0.0018826717340139614 0.0045154255886501096 0.9979922446931773 -0.011290384238298663
 -0.00014626250279158986 -0.0013965980284826375 0.00015678196547172857 0.0021924830084320028 0.9979922446931773 -0.011290384238298663 0.0018829561283162325 0.00451537425587111
0.02501042100875 0.0020564642162680703 0.006064963292570529 0.9977664770219519 -0.015072376908773178 0.00020762198884061956 0.0029246604489013396 -0.00018833913021645683 -0.001865449758641452
 0.9977664770219519 -0.015072376908773178 0.0020569559361971906 0.006064893364686033 -0.00018833670075305296 -0.0018654498117116264 0.0002043120123713168 0.0029250999972403363
 0.00020762198884061956 0.0029246604489013396 -0.00018833670075305296 -0.0018654498117116264 0.0020564534439821403 0.006064630567020684 0.9977664728936538 -0.015072711200324234
 -0.00018833913021645683 -0.001865449758641452 0.0002043120123713168 0.0029250999972403363 0.9977664728936538 -0.015072711200324234 0.002056958532420165 0.006064557745150156
0.03126302626094 0.0022430909166389133 0.007632576784528535 0.9975228089864029 -0.018867305557621405 0.00026394261513929836 0.0036580466232548816 -0.00023638496490998873 -0.002335624914571704
 0.9975228089864029 -0.018867305557621405 0.002243858530244203 0.007632484096913099 -0.00023638117504894978 -0.0023356250499612227 0.0002587723893552988 0.0036586857604676785
 0.00026394261513929836 0.0036580466232548816 -0.00023638117504894978 -0.0023356250499612227 0.00224307442077936 0.007632161357796506 0.9975228028919074 -0.018867723235759446
 -0.00023638496490998873 -0.002335624914571704 0.0002587723893552988 0.0036586857604676785 0.9975228028919074 -0.018867723235759446 0.0022438629766208928 0.007632064637228766
0.037515631513130004 0.0024428388946664604 0.009217820360057711 0.997260991957198 -0.022675329804867934 0.00032768609821482364 0.004392305769186513 -0.00029048303631218846 -0.0028070099746835206
 0.997260991957198 -0.022675329804867934 0.0024439433961101916 0.009217702586863464 -0.00029047758642012126 -0.002807010230602177 0.00032024123585323275 0.004393189844768648
 0.00032768609821482364 0.004392305769186513 -0.00029047758642012126 -0.002807010230602177 0.0024428154545249646 0.009217322423191203 0.9972609835234729 -0.022675830841017132
 -0.00029048303631218846 -0.0028070099746835206 0.00032024123585323275 0.004393189844768648 0.9972609835234729 -0.022675830841017132 0.0024439501908480816 0.009217199269466993
0.043768236765320004 0.002655985345325958 0.010820182143312235 0.9969807714219251 -0.026496667725688275 0.00039893093648154 0.005127369191637979 -0.00035071499633033645 -0.003279500332104167
 0.9969807714219251 -0.026496667725688275 0.0026574876735976994 0.01082003685754299 -0.00035070758748773496 -0.003279500752150655 0.00038879609169140334 0.005128548367033295
 0.00039893093648154 0.005127369191637979 -0.00035070758748773496 -0.003279500752150655 0.0026559537345629586 0.010819601898227964 0.9969807602739478 -0.026497252103385646
 -0.00035071499633033645 -0.003279500332104167 0.00038879609169140334 0.005128548367033295 0.9969807602739478 -0.026497252103385646 0.002657497322036406 0.010819449653942548
0.050020842017509996 0.002882805009026588 0.012439251790574672 0.9966818908369504 -0.03033142705766889 0.00047775489606763545 0.005863159595508077 -0.0004171611997686421 -0.003752995403073851
 0.9966818908369504 -0.03033142705766889 0.0028847660636969253 0.012439076465721467 -0.0004171515338692595 -0.0037529960362973017 0.0004645137234614504 0.005864688902511784
 0.00047775489606763545 0.005863159595508077 -0.0004171515338692595 -0.0037529960362973017 0.0028827639988863655 0.012438589456187756 0.9966818766006464 -0.03033209476681982
 -0.0004171611997686421 -0.003752995403073851 0.0004645137234614504 0.005864688902511784 0.9966818766006464 -0.03033209476681982 0.002884779080680728 0.012438405342271851
0.055454545454549996 0.003091234468256468 0.01385956897295517 0.9964068001113144 -0.03367487948310679 0.0005524702134070993 0.00650310943159314 -0.00048001313681803856 -0.004165216043384585
 0.9964068001113144 -0.03367487948310679 0.0030936436080930877 0.013859365415007619 -0.0004800012679956155 -0.0041652169059628015 0.0005361906383508018 0.0065049915335547975
 0.0005524702134070993 0.00650310943159314 -0.0004800012679956155 -0.0041652169059628015 0.003091184288184838 0.013858835489133064 0.9964067828858517 -0.03367561960908918
 -0.00048001313681803856 -0.004165216043384585 0.0005361906383508018 0.0065049915335547975 0.9964067828858517 -0.03367561960908918 0.0030936599763037244 0.01385862132875344
0.056273447269699996 0.003123570770871601 0.014074680188377153 0.9963640924018539 -0.03417964543421198 0.0005642348591410787 0.006599593484708859 -0.0004899007234897243 -0.0042273962242358005
 0.9963640924018539 -0.03417964543421198 0.003126051426328647 0.014074472199629831 -0.0004898885032309616 -0.004227397125179399 0.0005474700011323863 0.006601532885130008
 0.0005642348591410787 0.006599593484708859 -0.0004898885032309616 -0.004227397125179399 0.003123519128029166 0.014073935995868361 0.9963640747013901 -0.034180396476105934
 -0.0004899007234897243 -0.0042273962242358005 0.0005474700011323863 0.006601532885130008 0.9963640747013901 -0.034180396476105934 0.0031260683343319745 0.01407371711242588
0.06252605252188 0.003378553983525169 0.015726157272103334 0.9960271175607319 -0.03804131249898267 0.0006584467039508269 0.0073365824807307516 -0.00056901135682642 -0.004702604133079018
 0.9960271175607319 -0.03804131249898267 0.003381615102839509 0.01572591389708792 -0.0005689962858195552 -0.0047026053618195295 0.0006377397970884222 0.007338996926597758
 0.0006584467039508269 0.0073365824807307516 -0.0005689962858195552 -0.0047026053618195295 0.003378490471648496 0.015725331478754035 0.9960270960196286 -0.03804214687272189
 -0.00056901135682642 -0.004702604133079018 0.0006377397970884222 0.007338996926597758 0.9960270960196286 -0.03804214687272189 0.003381636432741523 0.015725074805517145
0.06877865777407 0.003648024646180063 0.017393398822443444 0.995670707363202 -0.041916383044665724 0.0007604652051677441 0.008074034102833218 -0.0006545695732257812 -0.005178519989581637
 0.995670707363202 -0.041916383044665724 0.0036517270941156276 0.01739311724170888 -0.0006545513560745165 -0.005178521611785263 0.0007353968995003581 0.008076993596800667
 0.0007604652051677441 0.008074034102833218 -0.0006545513560745165 -0.005178521611785263 0.0036479480261931317 0.01739249169783943 0.9956706816038463 -0.04191730076140633
 -0.0006545695732257812 -0.005178519989581637 0.0007353968995003581 0.008076993596800667 0.9956706816038463 -0.04191730076140633 0.0036517533851514105 0.017392194094177436
0.07503126302626001 0.003932251494108228 0.01907613807541085 0.995294602738875 -0.045804785341224535 0.0008703639429451092 0.008811852276575 -0.0007466504931871915 -0.005655043672553953
 0.995294602738875 -0.045804785341224535 0.003936656150365857 0.019075815372398705 -0.00074662883558576 -0.005655045759506287 0.0008405139313781542 0.008815431932242086
 0.0008703639429451092 0.008811852276575 -0.00074662883558576 -0.005655045759506287 0.003932160523558379 0.019075149910360183 0.9952945723816179 -0.0458057864153733
 -0.0007466504931871915 -0.005655043672553953 0.0008405139313781542 0.008815431932242086 0.9952945723816179 -0.0458057864153733 0.003936687948927052 0.019074808115053674
0.08128386827845 0.0042315020340817616 0.020774120152958254 0.9948985447208607 -0.049706426646283754 0.0009882152211646096 0.00954993765569898 -0.0008453278378691585 -0.006132073765726637
 0.9948985447208607 -0.049706426646283754 0.00423666980587827 0.020773753313752204 -0.0008453024466834508 -0.006132076394385296 0.0009531622763672619 0.009554217757724685
 0.0009882152211646096 0.00954993765569898 -0.0008453024466834508 -0.006132076394385296 0.004231395469130793 0.020773051256713797 0.994898509385289 -0.049707511098747104
 -0.0008453278378691585 -0.006132073765726637 0.0009531622763672619 0.009554217757724685 0.994898509385289 -0.049707511098747104 0.004236707667237793 0.020772661887239932
0.08753647353064001 0.004546042544659029 0.02248709820178204 0.9944822746377849 -0.05362119701117206 0.0011140899882102141 0.010288187865996019 -0.0009506738794620111 -0.006609507325180864
 0.9944822746377849 -0.05362119701117206 0.004552034379794399 0.022486684114321337 -0.0009506444628718543 -0.006609510578195804 0.0010734120057085698 0.010293253929833506
 0.0011140899882102141 0.010288187865996019 -0.0009506444628718543 -0.006609510578195804 0.004545919139015809 0.022485948904408092 0.9944822339410244 -0.053622364867109036
 -0.0009506738794620111 -0.006609507325180864 0.0010734120057085698 0.010293253929833506 0.9944822339410244 -0.053622364867109036 0.004552078866125049 0.02248550845594268
0.09378907878283 0.004876138049605898 0.02421483063491314 0.9940455342814285 -0.057548971987477424 0.0012480577615111732 0.011026497668861145 -0.0010627593870787817 -0.007087239730439097
 0.9940455342814285 -0.057548971987477424 0.004883014949325594 0.02421436608796984 -0.0010627256546664149 -0.0070872436961959 0.0012013318080215 0.011032440500013825
 0.0012480577615111732 0.011026497668861145 -0.0010627256546664149 -0.0070872436961959 0.004875996555907662 0.024213601288383946 0.994045487838711 -0.057550223275508565
 -0.0010627593870787817 -0.007087239730439097 0.0012013318080215 0.011032440500013825 0.994045487838711 -0.057550223275508565 0.004883066630819294 0.02421310613237067
0.100041684035 0.005222052275417392 0.025957079117599476 0.9935880660610822 -0.061489614593283885 0.00139018655402545 0.0117647590894311 -0.0011816535700356343 -0.007565164574441544
 0.9935880660610822 -0.061489614593283885 0.005229875306838512 0.025956560799248598 -0.0011816152328506123 -0.007565169347099694 0.0013369889200014167 0.011771674842190055
 0.00139018655402545 0.0117647590894311 -0.0011816152328506123 -0.007565169347099694 0.005221891445140151 0.025955770091896632 0.9935880134857192 -0.06149094934970594
 -0.0011816535700356343 -0.007565164574441544 0.0013369889200014167 0.011771674842190055 0.9935880134857192 -0.06149094934970594 0.005229934761463123 0.02595521647419326
0.1059090909091 0.005561276776713296 0.027604985928207464 0.9931397001008253 -0.065199060966087 0.0015310409090097026 0.012457396633631788 -0.0012994757970836224 -0.00801372494569487
 0.9931397001008253 -0.065199060966087 0.00557004326288983 0.027604414047549066 -0.0012994328775009845 -0.008013730566333213 0.0014713842883182031 0.012465317637075831
 0.0015310409090097026 0.012457396633631788 -0.0012994328775009845 -0.008013730566333213 0.005561096665016912 0.027603602488253175 0.9931396414163722 -0.06520047408508503
 -0.0012994757970836224 -0.00801372494569487 0.0014713842883182031 0.012465317637075831 0.9931396414163722 -0.06520047408508503 0.005570110543655933 0.027602990482366703
0.1062942892872 0.005584047593187476 0.027713607036838953 0.9931096131462889 -0.06544297679974459 0.0015405428011412783 0.012502861520219384 -0.001307424019638726 -0.008043173581675745
 0.9931096131462889 -0.06544297679974459 0.005592877902890431 0.027713031532545767 -0.0013073807904064967 -0.0080431792611786 0.001480449057353854 0.012510851755746366
 0.0015405428011412783 0.012502861520219384 -0.0013073807904064967 -0.0080431792611786 0.005583866177274274 0.027712218725812816 0.9931095540487124 -0.06544439506283116
 -0.001307424019638726 -0.008043173581675745 0.001480449057353854 0.012510851755746366 0.9931095540487124 -0.06544439506283116 0.005592945715670044 0.027711602764576248
0.11254689453939999 0.005962384952117614 0.029484178346234742 0.992609919602636 -0.0694089006465347 0.001699191289549339 0.013240691797596434 -0.0014401366485556964 -0.008521156557048692
 0.992609919602636 -0.0694089006465347 0.005972283778744536 0.02948354213658585 -0.00144008824170586 -0.008521163249171643 0.001631776346944855 0.013249863541328868
 0.001699191289549339 0.013240691797596434 -0.00144008824170586 -0.008521163249171643 0.005962181701458831 0.029482711162134332 0.9926098535912554 -0.06941040246231232
 -0.0014401366485556964 -0.008521156557048692 0.001631776346944855 0.013249863541328868 0.9926098535912554 -0.06941040246231232 0.0059723605425453545 0.029482028845101465
0.11879949979160001 0.006357323804739135 0.03126855665290383 0.992088730523336 -0.07338721911961855 0.001866195086033143 0.01397813427143872 -0.0015798556292618636 -0.008999001345399155
 0.992088730523336 -0.07338721911961855 0.006368352492441645 0.03126785611077912 -0.0015798017611057353 -0.008999009161754598 0.0017910332587741224 0.013988600069731265
 0.001866195086033143 0.01397813427143872 -0.0015798017611057353 -0.008999009161754598 0.0063570974705603215 0.03126701103267808 0.9920886572033599 -0.0733888045356552
 -0.0015798556292618636 -0.008999001345399155 0.0017910332587741224 0.013988600069731265 0.9920886572033599 -0.0733888045356552 0.006368438807177227 0.03126625821420399
0.1250521050438 0.006769122025147825 0.03306650450774487 0.991545792154963 -0.07737775682987941 0.0020416154669168716 0.014715070862543417 -0.0017266433313847783 -0.009476593807121066
 0.991545792154963 -0.07737775682987941 0.006781342036584545 0.03306573589520319 -0.001726583720222325 -0.00947660286518791 0.0019582805381436683 0.014726948838454388
 0.0020416154669168716 0.014715070862543417 -0.001726583720222325 -0.00947660286518791 0.006768871359574956 0.03306488090718837 0.9915457111287868 -0.0773794259014448
 -0.0017266433313847783 -0.009476593807121066 0.0019582805381436683 0.014726948838454388 0.9915457111287868 -0.0773794259014448 0.006781438509631195 0.03306405330470293
0.131304710296 0.007198035822585857 0.03487778282301036 0.9909808520221485 -0.08138033056944964 0.0022255118478616254 0.015451381114179315 -0.0018805602579537164 -0.00995381780349383
 0.9909808520221485 -0.08138033056944964 0.0072115087523792094 0.034876942287575485 -0.0018804946241633418 -0.009953828226636785 0.002133577138237568 0.015464795022432339
 0.0022255118478616254 0.015451381114179315 -0.0018804946241633418 -0.009953828226636785 0.007197759579175016 0.034876081722343195 0.990980762889166 -0.08138208335407682
 -0.0018805602579537164 -0.00995381780349383 0.002133577138237568 0.015464795022432339 0.990980762889166 -0.08138208335407682 0.007211615998229562 0.03487517491245447
0.1375573155481 0.007543075537892476 0.03646679876993689 0.9904949354612831 -0.08515931221331598 0.0023943006456798904 0.016163467023928364 -0.0020181369851856226 -0.010407015338065243
 0.9904949354612831 -0.08515931221331598 0.007557868659994525 0.03646589926822292 -0.0020180650929378283 -0.010407027140612691 0.002293559798933114 0.016178392641901386
 0.0023943006456798904 0.016163467023928364 -0.0020180650929378283 -0.010407027140612691 0.0075427732879866 0.03646502021540093 0.9904948378545793 -0.08516114871468133
 -0.0020181369851856226 -0.010407015338065243 0.002293559798933114 0.016178392641901386 0.9904948378545793 -0.08516114871468133 0.007557986411732748 0.036464047352288795
0.1438099208003 0.00790017080904934 0.038047948987200396 0.9899920909103331 -0.08892920411921895 0.002569918381115274 0.01687286412516425 -0.0021612187590484065 -0.01085778366859746
 0.9899920909103331 -0.08892920411921895 0.007916346794452345 0.03804698755254426 -0.002161140339504134 -0.010857796967473726 0.0024599839064276363 0.016889414083081773
 0.002569918381115274 0.01687286412516425 -0.002161140339504134 -0.010857796967473726 0.007899841455566048 0.038046093425353415 0.9899919844323011 -0.08893112438841481
 -0.0021612187590484065 -0.01085778366859746 0.0024599839064276363 0.016889414083081773 0.9899919844323011 -0.08893112438841481 0.007916475516383087 0.0380450510398183
0.1500625260525 0.008269202399240378 0.03962111582951919 0.9894724411755648 -0.09268992711578065 0.0027523085990096502 0.017579506649935166 -0.002309751522489764 -0.011306061803681173
 0.9894724411755648 -0.09268992711578065 0.008286824083980997 0.039620089299616135 -0.0023096663093294546 -0.011306076720248649 0.002632795122184716 0.017597797678092147
 0.0027523085990096502 0.017579506649935166 -0.0023096663093294546 -0.011306076720248649 0.008268844855666977 0.039619183720810955 0.9894723254255611 -0.09269193120800649
 -0.002309751522489764 -0.011306061803681173 0.002632795122184716 0.017597797678092147 0.9894723254255611 -0.09269193120800649 0.008286964236468877 0.03961806813066917
0.15631513130469998 0.008650050306515677 0.04118618526579487 0.9889361095937849 -0.09644140202541376 0.0029414142216641105 0.018283329868412804 -0.002463680595674244 -0.011751789985616105
