! Created with skrf 1.8.0 (http://scikit-rf.org).
# GHz S RI R 50.0 
!freq ReS11 ImS11 ReS12 ImS12 ReS13 ImS13
! ReS14 ImS14
! ReS21 ImS21 ReS22 ImS22 ReS23 ImS23
! ReS24 ImS24
! ReS31 ImS31 ReS32 ImS32 ReS33 ImS33
! ReS34 ImS34
! ReS41 ImS41 ReS42 ImS42 ReS43 ImS43
! ReS44 ImS44
!
0.0 0.001484272986942 0.0 0.9985157269846 0.0 5.737158071503e-05 0.0 -5.737158089295e-05 7.025992290257466e-21
 0.9985157269846 0.0 0.001484272987007 0.0 -5.737158089357e-05 7.025992290333394e-21 5.737158071624e-05 0.0
 5.737158071503e-05 0.0 -5.737158089357e-05 7.025992290333394e-21 0.001484273001176 0.0 0.9985157269988 0.0
 -5.737158089295e-05 7.025992290257466e-21 5.737158071624e-05 0.0 0.9985157269988 0.0 0.001484273001204 0.0
0.005 0.0015968295002137208 0.0012102693743785324 0.9983733325372247 -0.003109619168844676 8.095398721700282e-05 0.0006567367207655587 -7.844048229024958e-05 -0.0004079647894022297
 0.9983733325372247 -0.003109619168844676 0.001596850943644045 0.0012102568016662827 -7.844185721409646e-05 -0.0004079657587436112 8.082066409806861e-05 0.0006567874682390126
 8.095398721700282e-05 0.0006567367207655587 -7.844185721409646e-05 -0.0004079657587436112 0.0015968295826527925 0.0012103365414743484 0.9983733328955025 -0.0031095521061496123
 -7.844048229024958e-05 -0.0004079647894022297 8.082066409806861e-05 0.0006567874682390126 0.9983733328955025 -0.0031095521061496123 0.0015968515756671993 0.0012103237588248533
0.006252605252188 0.0016262991055522728 0.0015176235592530515 0.9983358183944497 -0.0038877938171446975 8.76788365006412e-05 0.0008212297973942196 -8.436935617319161e-05 -0.0005104919508344543
 0.9983358183944497 -0.0038877938171446975 0.0016263326259576215 0.0015176075786941785 -8.437149637617344e-05 -0.0005104931442940842 8.747053069168708e-05 0.0008212956805437717
 8.76788365006412e-05 0.0008212297973942196 -8.437149637617344e-05 -0.0005104931442940842 0.0016262991564333217 0.0015177074993583638 0.998335818876155 -0.0038877099998394396
 -8.436935617319161e-05 -0.0005104919508344543 8.747053069168708e-05 0.0008212956805437717 0.998335818876155 -0.0038877099998394396 0.0016263335349584358 0.0015176912704160154
0.01250521050438 0.0017811395809352575 0.0030672618288539507 0.9981374166189451 -0.007776461946396485 0.00012617704072913976 0.001642753588864466 -0.00011790353180116493 -0.0010235134360185852
 0.9981374166189451 -0.007776461946396485 0.0017812734370455299 0.003067227207523742 -0.00011791197480781012 -0.001023515622751677 0.00012534634601177325 0.0016429117092886772
 0.00012617704072913976 0.001642753588864466 -0.00011791197480781012 -0.001023515622751677 0.0017811392137788487 0.0030674293853418266 0.9981374179646809 -0.007776294554153006
 -0.00011790353180116493 -0.0010235134360185852 0.00012534634601177325 0.0016429117092886772 0.9981374179646809 -0.007776294554153006 0.0017812764799633224 0.003067394407010152
0.01875781575657 0.0019491235286906233 0.004639145623610096 0.9979202816218301 -0.011675482992181022 0.00017295259447551944 0.0024651532377412445 -0.00015807600455284348 -0.0015382983429023406
 0.9979202816218301 -0.011675482992181022 0.001949424326876485 0.0046390895318150095 -0.00015809484498048294 -0.0015383012824455664 0.00017108648192142403 0.0024654349587798214
 0.00017295259447551944 0.0024651532377412445 -0.00015809484498048294 -0.0015383012824455664 0.0019491222954894588 0.004639396609819299 0.9979202842231413 -0.01167523211937193
 -0.00015807600455284348 -0.0015382983429023406 0.00017108648192142403 0.0024654349587798214 0.9979202842231413 -0.01167523211937193 0.0019494307230445282 0.004639340190564156
0.02501042100875 0.002130570831206719 0.006231075833370952 0.9976841641708054 -0.015586755894983621 0.0002280937240622351 0.003288473780324173 -0.00020498540440794407 -0.0020546121115123995
 0.9976841641708054 -0.015586755894983621 0.0021311050542854554 0.00623099529445018 -0.00020501869207938686 -0.0020546155192260034 0.00022477897355149506 0.0032889152934917087
 0.0002280937240622351 0.003288473780324173 -0.00020501869207938686 -0.0020546155192260034 0.002130568288657552 0.006231410083472035 0.9976841684145473 -0.015586421603324485
 -0.00020498540440794407 -0.0020546121115123995 0.00022477897355149506 0.0032889152934917087 0.9976841684145473 -0.015586421603324485 0.0021311160054975384 0.006231329384717905
0.03126302626094 0.002325788073342062 0.00784192502925997 0.9974288019835857 -0.019511098302250313 0.0002916893973567948 0.004112681761629468 -0.0002587276152526045 -0.002572293306285198
 0.9974288019835857 -0.019511098302250313 0.0023266221160366295 0.007841816924051935 -0.00025877936281999334 -0.002572296852765406 0.0002865122100149522 0.00411332411406283
 0.0002916893973567948 0.004112681761629468 -0.00025877936281999334 -0.002572296852765406 0.002325783787822486 0.00784234239030006 0.9974288082586195 -0.019510680628363038
 -0.0002587276152526045 -0.002572293306285198 0.0002865122100149522 0.00411332411406283 0.9974288082586195 -0.019510680628363038 0.00232663881380604 0.007842234431354074
0.037515631513130004 0.0025350752526236693 0.009470961331682048 0.9971539266310829 -0.023448922641851153 0.0003638283468009276 0.004937712858557658 -0.00031939650782589706 -0.003091205982494022
 0.9971539266310829 -0.023448922641851153 0.002536275445523319 0.009470822400858486 -0.0003194706946599912 -0.0030912092933649523 0.0003563741691653182 0.004938602001919707
 0.0003638283468009276 0.004937712858557658 -0.0003194706946599912 -0.0030912092933649523 0.002535068796980282 0.009471461647487153 0.99715393532542 -0.02344842161313436
 -0.00031939650782589706 -0.003091205982494022 0.0003563741691653182 0.004938602001919707 0.99715393532542 -0.02344842161313436 0.002536299068787211 0.009471323308019986
0.043768236765320004 0.0027587283628043584 0.011117642660043977 0.9968592663177376 -0.02740044180507436 0.0004445986166544152 0.005763486365276903 -0.00038708420659703765 -0.003611225196307893
 0.9968592663177376 -0.02740044180507436 0.002760360991594255 0.011117469505533772 -0.0003871847809466925 -0.0036112278520827883 0.0004344520555673881 0.005764673211284314
 0.0004445986166544152 0.005763486365276903 -0.0003871847809466925 -0.0036112278520827883 0.002758719316368802 0.011118225773869193 0.9968592778196389 -0.027399857436876507
 -0.00038708420659703765 -0.003611225196307893 0.0004344520555673881 0.005764673211284314 0.9968592778196389 -0.027399857436876507 0.0027603927081616916 0.01111805379540708
0.050020842017509996 0.0029970406007818846 0.012781531702395009 0.996544547288538 -0.031365754107459946 0.0005340872975157465 0.006589911171975038 -0.0004618811886382332 -0.004132231024614212
 0.996544547288538 -0.031365754107459946 0.002999171922343221 0.012781320788227853 -0.00046201206906350484 -0.004132232560603873 0.0005208320826937452 0.006591451650691946
 0.0005340872975157465 0.006589911171975038 -0.00046201206906350484 -0.004132232560603873 0.0029970285489336044 0.012782197452248727 0.9965445619869173 -0.03136508640753795
 -0.0004618811886382332 -0.004132231024614212 0.0005208320826937452 0.006591451650691946 0.9965445619869173 -0.03136508640753795 0.0029992128888796567 0.01278198843916218
0.055454545454549996 0.0032162722299186636 0.014241184660066963 0.9962545433098771 -0.034822953469567965 0.0006190028744081503 0.007308551896716335 -0.0005327246901783753 -0.004585710593998956
 0.9962545433098771 -0.034822953469567965 0.003218890728534686 0.014240937953136966 -0.0005328850674291283 -0.004585710744310511 0.0006027073951675525 0.007310449057316601
 0.0006190028744081503 0.007308551896716335 -0.0005328850674291283 -0.004585710744310511 0.0032162572344361044 0.014241922079741173 0.9962545611029708 -0.034822213359907185
 -0.0005327246901783753 -0.004585710593998956 0.0006027073951675525 0.007310449057316601 0.9962545611029708 -0.034822213359907185 0.0032189406650921073 0.014241678018538274
0.056273447269699996 0.0032503029852750244 0.014462254175376766 0.9962094946528283 -0.0353448849604184 0.0006323803414487894 0.007416888696347834 -0.0005438763093064134 -0.004654105635317996
 0.9962094946528283 -0.0353448849604184 0.0032529992431032644 0.014462001828043561 -0.000544041385525572 -0.0046541055415515445 0.0006155993171681333 0.007418843815725614
 0.0006323803414487894 0.007416888696347834 -0.000544041385525572 -0.0046541055415515445 0.003250287519530488 0.014463002386034996 0.9962095129378328 -0.03534413393679326
 -0.0005438763093064134 -0.004654105635317996 0.0006155993171681333 0.007418843815725614 0.9962095129378328 -0.03534413393679326 0.0032530506060131294 0.01446275280590664
0.06252605252188 0.003518804693514568 0.016159475871917402 0.9958538329287503 -0.03933780975710039 0.0007395624163397763 0.008244314505782162 -0.0006331567917824197 -0.005176731670370232
 0.9958538329287503 -0.03933780975710039 0.0035221321319771357 0.016159178280265966 -0.0006333599251770672 -0.005176729391538451 0.000718837552233792 0.00824675041168756
 0.0007395624163397763 0.008244314505782162 -0.0006333599251770672 -0.005176729391538451 0.003518785410381007 0.016160306367901753 0.9958538551915048 -0.03933697540489395
 -0.0006331567917824197 -0.005176731670370232 0.000718837552233792 0.00824675041168756 0.9958538551915048 -0.03933697540489395 0.003522195027256923 0.01616001255148997
0.06877865777407 0.003802833239078248 0.017872888991298085 0.9954772864330206 -0.04334446747898621 0.0008557167846240599 0.009072079274849973 -0.0007298081933571745 -0.0056999912971410875
 0.9954772864330206 -0.04334446747898621 0.0038068581171025284 0.017872542206170412 -0.0007300532173260193 -0.005699986232541834 0.0008306291997556097 0.009075067311209975
 0.0008557167846240599 0.009072079274849973 -0.0007300532173260193 -0.005699986232541834 0.0038028097396857865 0.017873801589813644 0.9954773130656547 -0.043343549787390474
 -0.0007298081933571745 -0.0056999912971410875 0.0008306291997556097 0.009075067311209975 0.9954773130656547 -0.043343549787390474 0.0038069336703525753 0.017873459730621162
0.07503126302626001 0.004102674558206691 0.019602203463482182 0.9950795795829066 -0.047364769311869115 0.00098092519389602 0.009900069397806376 -0.0008339143596632173 -0.006223765608677381
 0.9950795795829066 -0.047364769311869115 0.004107463163132365 0.01960180339672872 -0.0008342050797584225 -0.006223757112165521 0.000951055191264332 0.009903686166560071
 0.00098092519389602 0.009900069397806376 -0.0008342050797584225 -0.006223757112165521 0.004102646448158285 0.019603197969615387 0.9950796109792474 -0.047363768268830084
 -0.0008339143596632173 -0.006223765608677381 0.000951055191264332 0.009903686166560071 0.9950796109792474 -0.047363768268830084 0.004107552490111282 0.019602804122994453
0.08128386827845 0.004418613038189663 0.021347141172950494 0.9946604371426346 -0.05139860436624823 0.0011152677769802448 0.010728167407765577 -0.0009455573693519906 -0.0067479342212535525
 0.9946604371426346 -0.05139860436624823 0.004424231698932029 0.021346683596167683 -0.0009458975632933261 -0.006747921601210228 0.001080194885425514 0.010732494828528167
 0.0011152677769802448 0.010728167407765577 -0.0009458975632933261 -0.006747921601210228 0.004418579926838357 0.02134821738641384 0.9946604736982972 -0.05139751995159062
 -0.0009455573693519906 -0.0067479342212535525 0.001080194885425514 0.010732494828528167 0.9946604736982972 -0.05139751995159062 0.004424335905650137 0.021347767468265687
0.08753647353064001 0.004750931507466248 0.023107431974324907 0.9942195844366549 -0.05544584361027129 0.0012588229561239083 0.011556252258567242 -0.0010648174735564278 -0.007272375013486131
 0.9942195844366549 -0.05544584361027129 0.004757446608171423 0.02310691251715586 -0.001065210891173806 -0.007272357532799817 0.0012181259789417569 0.0115613776277357
 0.0012588229561239083 0.011556252258567242 -0.001065210891173806 -0.007272357532799817 0.004750893007372435 0.023108589684961454 0.9942196265488443 -0.05544467580008856
 -0.0010648174735564278 -0.007272375013486131 0.0012181259789417569 0.0115613776277357 0.9942196265488443 -0.05544467580008856 0.004757566790890078 0.02310807946990524
0.09378907878283 0.005099911199072769 0.024882810839637944 0.9937567475375387 -0.05950634267549481 0.0014116673517619019 0.012384199538183479 -0.0011917730302459964 -0.007796963938191493
 0.9937567475375387 -0.05950634267549481 0.005107389192462918 0.02488222498756918 -0.001192223393366468 -0.007796940814225603 0.0013649244203812934 0.012390215587503164
 0.0014116673517619019 0.012384199538183479 -0.001192223393366468 -0.007796940814225603 0.00509986692585976 0.024884049827958058 0.9937567956060529 -0.059505091441662515
 -0.0011917730302459964 -0.007796963938191493 0.0013649244203812934 0.012390215587503164 0.9937567956060529 -0.059505091441662515 0.005107526438007034 0.024883474947212374
0.100041684035 0.0054658316946944365 0.02667301576782598 0.9932716534392122 -0.06357994390543718 0.0015738756929028611 0.013211881630438538 -0.001326500436038126 -0.008321574890336867
 0.9932716534392122 -0.06357994390543718 0.005474339115421092 0.026672358859577444 -0.0013270114382353624 -0.008321545294932812 0.0015206643251202204 0.013218886584880763
 0.0015738756929028611 0.013211881630438538 -0.0013270114382353624 -0.008321545294932812 0.0054657812660592634 0.026674335807601448 0.9932717078657985 -0.06357860921284783
 -0.001326500436038126 -0.008321574890336867 0.0015206643251202204 0.013218886584880763 0.9932717078657985 -0.06357860921284783 0.005474494501168308 0.02667369174621832
0.1059090909091 0.005824864283586443 0.028366185257397734 0.9927959591603633 -0.0674143521117967 0.001734672253293025 0.013988215918366256 -0.0014600624979438353 -0.008813772444959617
 0.9927959591603633 -0.0674143521117967 0.005834398310021754 0.028365457297615065 -0.0014606337374370383 -0.008813735983034905 0.0016750062091724612 0.013996243133343009
 0.001734672253293025 0.013988215918366256 -0.0014606337374370383 -0.008813735983034905 0.0058248077329316784 0.028367581138758324 0.9927960199209306 -0.06741293906864196
 -0.0014600624979438353 -0.008813772444959617 0.0016750062091724612 0.013996243133343009 0.9927960199209306 -0.06741293906864196 0.005834571689942045 0.028366867919517477
0.1062942892872 0.005848970854949619 0.028477786217040797 0.9927640302185247 -0.06766647788600795 0.001745520729723104 0.01403916783722442 -0.0014690740548921643 -0.008846079619150458
 0.9927640302185247 -0.06766647788600795 0.005858574333123483 0.028477053441448193 -0.001469649361316459 -0.008846042678616595 0.0016854178919451096 0.014047265472027236
 0.001745520729723104 0.01403916783722442 -0.001469649361316459 -0.008846042678616595 0.005848913890636172 0.028479187071070937 0.9927640914074225 -0.0676650596967311
 -0.0014690740548921643 -0.008846079619150458 0.0016854178919451096 0.014047265472027236 0.9927640914074225 -0.0676650596967311 0.005858748927058425 0.028478469164876802
0.11254689453939999 0.0062496047387345455 0.030296861905086115 0.9922336071893042 -0.07176576461312882 0.0019266731468049257 0.014865924484757098 -0.0016195661455021089 -0.009370347660725253
 0.9922336071893042 -0.07176576461312882 0.006260371013713682 0.030296048297583558 -0.0016202093925516427 -0.009370302455850967 0.0018592553198506032 0.014875224181725424
 0.0019266731468049257 0.014865924484757098 -0.0016202093925516427 -0.009370302455850967 0.006249540859770473 0.030298343327430335 0.9922336755474563 -0.07176426288427393
 -0.0016195661455021089 -0.009370347660725253 0.0018592553198506032 0.014875224181725424 0.9922336755474563 -0.07176426288427393 0.006260565874569525 0.030297546759298303
0.11879949979160001 0.006668007514081418 0.03212998187233744 0.9916801150500071 -0.0758776144032637 0.0021174014776844663 0.01569201500941054 -0.001778046786730882 -0.00989424629594894
 0.9916801150500071 -0.0758776144032637 0.006680003447860659 0.032129082310877945 -0.001778761581702178 -0.009894191862034829 0.002042244725668314 0.015702631812166787
 0.0021174014776844663 0.01569201500941054 -0.001778761581702178 -0.009894191862034829 0.006667936342347607 0.03213154360867159 0.9916801909874844 -0.07587602908655179
 -0.001778046786730882 -0.00989424629594894 0.002042244725668314 0.015702631812166787 0.9916801909874844 -0.07587602908655179 0.006680219625465754 0.03213066340438159
0.1250521050438 0.007104451362510729 0.03397688375093842 0.991103286028694 -0.08000182860303055 0.0023177720197936286 0.016517300029378977 -0.0019445838019675455 -0.010417640527355602
 0.991103286028694 -0.08000182860303055 0.007117743953608114 0.033975892951394006 -0.001945373722761816 -0.010417575854225224 0.0022344520620690917 0.01652935469775183
 0.0023177720197936286 0.016517300029378977 -0.001945373722761816 -0.010417575854225224 0.007104372520194146 0.03397852553810782 0.9911033699583571 -0.0800001596452524
 -0.0019445838019675455 -0.010417640527355602 0.0022344520620690917 0.01652935469775183 0.9911033699583571 -0.0800001596452524 0.007117982488490587 0.03397755656169545
0.131304710296 0.007559206377506548 0.035837303172441805 0.9905028540237552 -0.08413820016624081 0.0025278487499251247 0.017341637416698277 -0.002119242682553398 -0.010940393060629753
 0.9905028540237552 -0.08413820016624081 0.007573862774808554 0.03583621568357779 -0.0021201112772597395 -0.010940317092707125 0.0024359410356701865 0.017355256479973227
 0.0025278487499251247 0.017341637416698277 -0.0021201112772597395 -0.010940317092707125 0.00755911948665537 0.03583902473722622 0.9905029463619384 -0.08413644751054324
 -0.002119242682553398 -0.010940393060629753 0.0024359410356701865 0.017355256479973227 0.9905029463619384 -0.08413644751054324 0.007574124698700421 0.035837961685712676
0.1375573155481 0.00792690400676468 0.037467301500953516 0.989984228333566 -0.08804274919698624 0.0027212765947702312 0.018140144476264386 -0.0022757791670221118 -0.011437564684069491
 0.989984228333566 -0.08804274919698624 0.007942995516451294 0.037466136500130816 -0.002276731432163004 -0.01143747734888444 0.002620569014720522 0.018155305854484643
 0.0027212765947702312 0.018140144476264386 -0.002276731432163004 -0.01143747734888444 0.007926807738000433 0.0374691031714212 0.9899843294606919 -0.08804091284148562
 -0.0022757791670221118 -0.011437564684069491 0.002620569014720522 0.018155305854484643 0.9899843294606919 -0.08804091284148562 0.00794328288022186 0.03746796426673614
0.1438099208003 0.00830748248098192 0.0390888877983419 0.9894474452639485 -0.09193759605708765 0.0029225412048724995 0.018935537356311254 -0.0024385911676510427 -0.011931931927082222
 0.9894474452639485 -0.09193759605708765 0.00832507706003926 0.039087641376585124 -0.0024396308696033454 -0.011931832195225308 0.002812647229237252 0.01895235652341788
 0.0029225412048724995 0.018935537356311254 -0.0024396308696033454 -0.011931832195225308 0.008307376283934981 0.03909076935888955 0.9894475555932868 -0.0919356759524199
 -0.0024385911676510427 -0.011931931927082222 0.002812647229237252 0.01895235652341788 0.9894475555932868 -0.0919356759524199 0.008325391068393457 0.03908955072210741
0.1500625260525 0.008700810207475365 0.0407019322171604 0.9888926402775844 -0.0958226499553638 0.003131575906468927 0.019727738212897507 -0.0026076147933689316 -0.01242342253417182
 0.9888926402775844 -0.0958226499553638 0.008719975974343964 0.04070060022514425 -0.002608745687513095 -0.012423309335418391 0.0030121112096727627 0.019746334851639766
 0.003131575906468927 0.019727738212897507 -0.002608745687513095 -0.012423309335418391 0.008700693520430933 0.04070389344673153 0.9888927602248222 -0.09582064604996642
 -0.0026076147933689316 -0.01242342253417182 0.0030121112096727627 0.019746334851639766 0.9888927602248222 -0.09582064604996642 0.00872031783585937 0.04070259095506281
0.15631513130469998 0.009106754687425958 0.04230630886468709 0.9883199494941629 -0.09969782030041943 0.0033483132563280928 0.020516670466468084 -0.0027827853832614233 -0.012911965753012015
