! Created with skrf 1.8.0 (http://scikit-rf.org).
# GHz S RI R 50.0 
!freq ReS11 ImS11 ReS12 ImS12 ReS13 ImS13
! ReS14 ImS14
! ReS21 ImS21 ReS22 ImS22 ReS23 ImS23
! ReS24 ImS24
! ReS31 ImS31 ReS32 ImS32 ReS33 ImS33
! ReS34 ImS34
! ReS41 ImS41 ReS42 ImS42 ReS43 ImS43
! ReS44 ImS44
!
0.0 0.001480332563719 0.0 0.9985196674221 0.0 5.6956741855e-05 0.0 -5.695674207538e-05 6.975189187247549e-21
 0.9985196674221 0.0 0.001480332563683 0.0 -5.695674207567e-05 6.975189187283064e-21 5.695674185195e-05 0.0
 5.6956741855e-05 0.0 -5.695674207567e-05 6.975189187283064e-21 0.00148033256515 0.0 0.9985196674235 0.0
 -5.695674207538e-05 6.975189187247549e-21 5.695674185195e-05 0.0 0.9985196674235 0.0 0.0014803325651 0.0
0.005 0.0015925252165181869 0.0012118381580727606 0.9983777581449166 -0.0031011054458816765 7.960630991645281e-05 0.0006233854883881275 -7.733758008959554e-05 -0.000392054181073124
 0.9983777581449166 -0.0031011054458816765 0.0015925415234516384 0.0012118285970286703 -7.73356833911844e-05 -0.00039205269264487374 7.951214941109554e-05 0.0006234213041254119
 7.960630991645281e-05 0.0006233854883881275 -7.73356833911844e-05 -0.00039205269264487374 0.0015925267129458381 0.001211904523991397 0.998377758504541 -0.003101038376861432
 -7.733758008959554e-05 -0.000392054181073124 7.951214941109554e-05 0.0006234213041254119 0.998377758504541 -0.003101038376861432 0.0015925407443095343 0.0012118963686017687
0.006252605252188 0.0016218952601888895 0.0015195690477387033 0.9983403819238164 -0.0038771481824004636 8.605127533830681e-05 0.000779538797021381 -8.306545128927517e-05 -0.000490576643962762
 0.9983403819238164 -0.0038771481824004636 0.0016219207513262506 0.0015195569169691354 -8.306250010008518e-05 -0.0004905748079369774 8.590415734464703e-05 0.0007795852985372462
 8.605127533830681e-05 0.000779538797021381 -8.306250010008518e-05 -0.0004905748079369774 0.001621897521718159 0.001519651991510064 0.9983403824079671 -0.003877064354634534
 -8.306545128927517e-05 -0.000490576643962762 8.590415734464703e-05 0.0007795852985372462 0.9983403824079671 -0.003877064354634534 0.0016219194549570684 0.001519641627181916
0.01250521050438 0.0017761873604476266 0.003071023306568744 0.9981427674214105 -0.00775514895688263 0.00012287448679664895 0.0015594640646667815 -0.00011542281800395073 -0.0009835604465612928
 0.9981427674214105 -0.00775514895688263 0.0017762891531012002 0.003070997225430171 -0.00011541119030224409 -0.0009835570421936923 0.0001222877900392217 0.0015595757005025274
 0.00012287448679664895 0.0015594640646667815 -0.00011541119030224409 -0.0009835570421936923 0.0017761958032195047 0.003071188864632222 0.9981427687616504 -0.007754981566511745
 -0.00011542281800395073 -0.0009835604465612928 0.0001222877900392217 0.0015595757005025274 0.9981427687616504 -0.007754981566511745 0.0017762833772232989 0.0030711664303923027
0.01875781575657 0.0019435354516207921 0.0046446289434524946 0.9979265856502517 -0.01164345081059268 0.00016750966652091717 0.002340297677922109 -0.00015412597992938684 -0.0014782539198743283
 0.9979265856502517 -0.01164345081059268 0.001943764196645609 0.004644586930504646 -0.00015410005325435942 -0.0014782492638302786 0.00016619165785381805 0.0023404966119135776
 0.00016750966652091717 0.002340297677922109 -0.00015410005325435942 -0.0014782492638302786 0.001943554010284527 0.004644876927803369 0.9979265882392333 -0.011643199942772079
 -0.00015412597992938684 -0.0014782539198743283 0.00016619165785381805 0.0023404966119135776 0.9979265882392333 -0.011643199942772079 0.001943750781980003 0.004644840618105151
0.02501042100875 0.002124257031696546 0.006238196450279816 0.9976915892395778 -0.015543948467430046 0.00022004154198309965 0.0031220756615742045 -0.0001992691487513803 -0.0019744403617559213
 0.9976915892395778 -0.015543948467430046 0.002124663285516583 0.0062381363804182655 -0.0001992233686958688 -0.0019744348254496064 0.00021770033778797544 0.0031223874621104097
 0.00022004154198309965 0.0031220756615742045 -0.0001992233686958688 -0.0019744348254496064 0.0021242896336808544 0.006238526654436118 0.9976915934642365 -0.015543614188681295
 -0.0001992691487513803 -0.0019744403617559213 0.00021770033778797544 0.0031223874621104097 0.9976915934642365 -0.015543614188681295 0.002124639066213324 0.006238474578776277
0.03126302626094 0.0023186564330780466 0.007850604401842588 0.9974375178247445 -0.01945745910458844 0.0002805554221599446 0.0039047629031120456 -0.0002509440170643341 -0.00247196908261997
 0.9974375178247445 -0.01945745910458844 0.002319290684750747 0.007850524009676129 -0.0002508728856052517 -0.002471963092926756 0.00027689871474338956 0.003905216562813215
 0.0002805554221599446 0.0039047629031120456 -0.0002508728856052517 -0.002471963092926756 0.0023187070022192813 0.007851016607562053 0.9974375240687564 -0.01945704145580905
 -0.0002509440170643341 -0.00247196908261997 0.00027689871474338956 0.003905216562813215 0.9974375240687564 -0.01945704145580905 0.002319252489069404 0.007850946794094135
0.037515631513130004 0.002527031477336916 0.009481125631992804 0.9971641048906698 -0.023384396117207475 0.00034913633718029844 0.004688296231524265 -0.00030924040774155467 -0.002970712318457618
 0.9971641048906698 -0.023384396117207475 0.0025279441660541403 0.009481022513154658 -0.0003091384772551078 -0.0029707063579110246 0.0003438712704092985 0.00468892420202348
 0.00034913633718029844 0.004688296231524265 -0.0003091384772551078 -0.0029707063579110246 0.0025271039392572017 0.0094816195892434 0.9971641135394166 -0.023383895133262576
 -0.00030924040774155467 -0.002970712318457618 0.0003438712704092985 0.00468892420202348 0.9971641135394166 -0.023383895133262576 0.0025278888205518806 0.009481529986702824
0.043768236765320004 0.002749676055177448 0.011129222191415095 0.9968710805441819 -0.027324974092460846 0.00042586863099884913 0.005472597529388886 -0.00037424651336004616 -0.0034705521143071952
 0.9968710805441819 -0.027324974092460846 0.0027509175836940417 0.011129093803250783 -0.00037410838298724896 -0.0034705467211686475 0.00041870173960762303 0.005473435760737792
 0.00042586863099884913 0.005472597529388886 -0.00037410838298724896 -0.0034705467211686475 0.0027497743340651614 0.011129797625989512 0.9968710919817437 -0.027324389794041875
 -0.00037424651336004616 -0.0034705521143071952 0.00041870173960762303 0.005473435760737792 0.9968710919817437 -0.027324389794041875 0.0027508419098712738 0.011129686105104003
0.050020842017509996 0.0029868813224495296 0.012794460602973247 0.996558172905561 -0.03127929348400369 0.0005108357242699381 0.006257579125922664 -0.00044604897904171683 -0.003971374929389536
 0.996558172905561 -0.03127929348400369 0.0029885020686227395 0.012794304264767522 -0.0004458692923925231 -0.003971370697652937 0.0005014729072186916 0.006258667107957677
 0.0005108357242699381 0.006257579125922664 -0.0004458692923925231 -0.003971370697652937 0.0029870093435972436 0.012795117201070034 0.9965581875172268 -0.031278625892469436
 -0.00044604897904171683 -0.003971374929389536 0.0005014729072186916 0.006258667107957677 0.9965581875172268 -0.031278625892469436 0.0029884028852617565 0.012794981555622222
0.055454545454549996 0.0032050694787508056 0.014255235564942754 0.9962698869786426 -0.034726899566547564 0.0005914263346189639 0.0069402311170881185 -0.000514033120795494 -0.004407316618244415
 0.9962698869786426 -0.034726899566547564 0.003207060678106624 0.014255052652859777 -0.0005138130037799934 -0.004407313921473015 0.000579915846576429 0.006941570991546901
 0.0005914263346189639 0.0069402311170881185 -0.0005138130037799934 -0.004407313921473015 0.0032052265348159535 0.01425596241663258 0.9962699046622111 -0.034726159602567135
 -0.000514033120795494 -0.004407316618244415 0.000579915846576429 0.006941570991546901 0.9962699046622111 -0.034726159602567135 0.0032069384779674364 0.01425580395521804
0.056273447269699996 0.0032389363197767003 0.014476470249381652 0.9962251089278246 -0.0352473821548972 0.0006041199423646764 0.007043146472070851 -0.0005247329258018129 -0.004473068963109515
 0.9962251089278246 -0.0352473821548972 0.003240986646980308 0.014476283142171455 -0.0005245063693629207 -0.004473066542489323 0.0005922664560992278 0.00704452727664052
 0.0006041199423646764 0.007043146472070851 -0.0005245063693629207 -0.004473066542489323 0.00323909800850289 0.014477207666124701 0.9962251270995399 -0.03524663128319169
 -0.0005247329258018129 -0.004473068963109515 0.0005922664560992278 0.00704452727664052 0.9962251270995399 -0.03524663128319169 0.003240860769226984 0.014477045613599632
0.06252605252188 0.0035061283064463417 0.01617492052497972 0.9958716149340446 -0.03922921815829884 0.0007058023853920703 0.007829199580587655 -0.0006103819331843177 -0.0049755227192726185
 0.9958716149340446 -0.03922921815829884 0.003508658573388328 0.016174699691178546 -0.000610103235221548 -0.0049755228151909785 0.0006911628511674027 0.007830919904156363
 0.0007058023853920703 0.007829199580587655 -0.000610103235221548 -0.0049755228151909785 0.0035063275878735437 0.01617573837834574 0.995871637052253 -0.03922838401655117
 -0.0006103819331843177 -0.0049755227192726185 0.0006911628511674027 0.007830919904156363 0.995871637052253 -0.03922838401655117 0.0035085028129002247 0.016175547560329788
0.06877865777407 0.00378874293917452 0.01788950718560033 0.9954974170020622 -0.04322474332326582 0.0008159628129560948 0.008615633911251298 -0.0007030780081854295 -0.005478624128631018
 0.9954974170020622 -0.04322474332326582 0.003791803509143186 0.01788924952817316 -0.0007027419379604435 -0.005478627502177418 0.000798241233089899 0.008617744117607613
 0.0008159628129560948 0.008615633911251298 -0.0007027419379604435 -0.005478627502177418 0.0037889837372351407 0.017890405060266446 0.9954974434535676 -0.043223825914254006
 -0.0007030780081854295 -0.005478624128631018 0.000798241233089899 0.008617744117607613 0.9954974434535676 -0.043223825914254006 0.003791614673619236 0.01789018304259488
0.07503126302626001 0.004087064359601258 0.019619943713420837 0.9951022412627826 -0.0472338718286085 0.0009346795436691182 0.009402340921307609 -0.0008029015386665637 -0.005982260009861104
 0.9951022412627826 -0.0472338718286085 0.004090705609581899 0.01961964599494948 -0.0008025029059339169 -0.0059822674777574095 0.0009135793250786832 0.009404895084158009
 0.0009346795436691182 0.009402340921307609 -0.0008025029059339169 -0.0059822674777574095 0.004087350598064027 0.019620921156779363 0.9951022724359192 -0.04723287115130738
 -0.0008029015386665637 -0.005982260009861104 0.0009135793250786832 0.009404895084158009 0.9951022724359192 -0.04723287115130738 0.00409048050399918 0.019620665429395157
0.08128386827845 0.004401375225110787 0.021365955564215867 0.9946858141444276 -0.05125649589856942 0.0010620293611460876 0.0101892084342842 -0.0009099312396434329 -0.00648631571600792
 0.9946858141444276 -0.05125649589856942 0.004405647554829448 0.02136561440550434 -0.0009094648942514094 -0.0064863281505658146 0.0010372533446635385 0.010192264379600021
 0.0010620293611460876 0.0101892084342842 -0.0009094648942514094 -0.0064863281505658146 0.0044017108261188 0.021367012082724755 0.9946858504281806 -0.05125541195112775
 -0.0009099312396434329 -0.00648631571600792 0.0010372533446635385 0.010192264379600021 0.9946858504281806 -0.05125541195112775 0.004405382980928993 0.021366720059146704
0.08753647353064001 0.004731956699659553 0.023127276184353604 0.9942478625800064 -0.055292489732480396 0.0011980874237846532 0.01097612090721229 -0.0010242440952623428 -0.006990674886443709
 0.9942478625800064 -0.055292489732480396 0.004736910540281819 0.023126888062966644 -0.0010237049269411506 -0.006990693215527924 0.001169337917435725 0.010979740255320078
 0.0011980874237846532 0.01097612090721229 -0.0010237049269411506 -0.006990693215527924 0.004732345584059259 0.023128411248227034 0.9942479043650242 -0.05529132250706876
 -0.0010242440952623428 -0.006990674886443709 0.001169337917435725 0.010979740255320078 0.9942479043650242 -0.05529132250706876 0.00473660329741416 0.023128080264903306
0.09378907878283 0.005079088420165609 0.024903644172755177 0.9937881141940114 -0.05934171229421749 0.0013429271790160071 0.011762959618715443 -0.0011459152949617295 -0.007495219282132712
 0.9937881141940114 -0.05934171229421749 0.005084774243480326 0.024903205420949138 -0.0011452982332091314 -0.007495244489095129 0.0013099059954434313 0.011767207825900914
 0.0013429271790160071 0.011762959618715443 -0.0011452982332091314 -0.007495244489095129 0.005079534506335329 0.024904857213805025 0.9937881618720183 -0.059340461778606954
 -0.0011459152949617295 -0.007495219282132712 0.0013099059954434313 0.011767207825900914 0.9937881618720183 -0.059340461778606954 0.005084421127996069 0.024904484529007547
0.100041684035 0.005443048441957189 0.026694801200584387 0.9933062974709249 -0.06340400934813367 0.0014966202785411452 0.01254960281423852 -0.001275018168115645 -0.007999828667911704
 0.9933062974709249 -0.06340400934813367 0.005449516768992055 0.02669430800326608 -0.0012743181821446505 -0.007999861791546103 0.0014590287753261466 0.012554549213957888
 0.0014966202785411452 0.01254960281423852 -0.0012743181821446505 -0.007999861791546103 0.005443555645927908 0.026696091608361946 0.9933063514356861 -0.06340267552910142
 -0.001275018168115645 -0.007999828667911704 0.0014590287753261466 0.012554549213957888 0.9933063514356861 -0.06340267552910142 0.005449114575280475 0.026695674400827075
0.1059090909091 0.005800137718492106 0.02838883376708959 0.9928338517018949 -0.06722778774593692 0.001648959148469273 0.013287495179992824 -0.0014029901758077742 -0.008473301235959085
 0.9928338517018949 -0.06722778774593692 0.0058073863421272045 0.028388285875074214 -0.0014022078341969914 -0.00847334278264965 0.0016068069057006609 0.013293163306836314
 0.001648959148469273 0.013287495179992824 -0.0014022078341969914 -0.00847334278264965 0.005800705833473991 0.028390196185740398 0.9928339119251256 -0.06722637573875405
 -0.0014029901758077742 -0.008473301235959085 0.0016068069057006609 0.013293163306836314 0.9928339119251256 -0.06722637573875405 0.005806935176232143 0.028389734560133953
0.1062942892872 0.005824113172312918 0.028500490437110813 0.9928021419155101 -0.06747921499408199 0.0016592364955267415 0.013335925820147003 -0.0014116241156062826 -0.008504380730267635
 0.9928021419155101 -0.06747921499408199 0.005831414582082427 0.028499938829200346 -0.001410836214363783 -0.008504422864738286 0.0016167756184580623 0.013341643663676107
 0.0016592364955267415 0.013335925820147003 -0.001410836214363783 -0.008504422864738286 0.005824685406757876 0.028501857562742636 0.9928022025619578 -0.06747779785293066
 -0.0014116241156062826 -0.008504380730267635 0.0016167756184580623 0.013341643663676107 0.9928022025619578 -0.06747779785293066 0.005830960102394593 0.02850139293002898
0.11254689453939999 0.0062225572914371 0.030320455360309924 0.9922753782021253 -0.07156715282211772 0.00183084364258148 0.01412180113764559 -0.0015558025399446099 -0.009008751019676155
 0.9922753782021253 -0.07156715282211772 0.006230742430033277 0.030319841224002633 -0.0015549217722107202 -0.009008803314459019 0.0017832139713292014 0.01412836763418056
 0.00183084364258148 0.01412180113764559 -0.0015549217722107202 -0.009008803314459019 0.006223198465346113 0.030321898512698762 0.9922754459274098 -0.07156565233811331
 -0.0015558025399446099 -0.009008751019676155 0.0017832139713292014 0.01412836763418056 0.9922754459274098 -0.07156565233811331 0.006230232454857361 0.030321383469148356
0.11879949979160001 0.006638653665795854 0.03215443882107383 0.9917257383212492 -0.0756676368193018 0.0020115074902650938 0.014907098521512478 -0.0017076207740846648 -0.009512812912764615
 0.9917257383212492 -0.0756676368193018 0.0066477732554398525 0.03215375788257264 -0.001706642228617605 -0.009512876572561552 0.0019584092863635565 0.014914594877573545
 0.0020115074902650938 0.014907098521512478 -0.001706642228617605 -0.009512876572561552 0.006639367684194663 0.03215595726906015 0.9917258135244917 -0.07566605296687154
 -0.0017076207740846648 -0.009512812912764615 0.0019584092863635565 0.014914594877573545 0.9917258135244917 -0.07566605296687154 0.006647204574013374 0.03215538874344767
0.1250521050438 0.007072673255554877 0.03400218231039003 0.9911529557205747 -0.07978047207843303 0.0022012916867015578 0.01569168504801818 -0.0018671440086569032 -0.010016437589746461
 0.9911529557205747 -0.07978047207843303 0.007082778103186287 0.034001430136521425 -0.0018660628143150227 -0.010016513874416495 0.0021424249434953396 0.015700196506300265
 0.0022012916867015578 0.01569168504801818 -0.0018660628143150227 -0.010016513874416495 0.007073464018395814 0.0340037752796949 0.9911530388029358 -0.07977880482986666
 -0.0018671440086569032 -0.010016437589746461 0.0021424249434953396 0.015700196506300265 0.9911530388029358 -0.07977880482986666 0.007082147503490581 0.03400315011253183
0.131304710296 0.0075248850147858525 0.03586342537079587 0.9905567654429701 -0.08390545536812734 0.0024002576768089603 0.016475425177583717 -0.0020344352188854235 -0.01051949402197816
 0.9905567654429701 -0.08390545536812734 0.0075360260214514165 0.03586259736502996 -0.0020332465449303012 -0.010519584246427073 0.0023353221714401753 0.016485041055000992
 0.0024002576768089603 0.016475425177583717 -0.0020332465449303012 -0.010519584246427073 0.007525756416805412 0.03586509204536177 0.9905568568083525 -0.08390370469168518
 -0.0020344352188854235 -0.01051949402197816 0.0023353221714401753 0.016485041055000992 0.9905568568083525 -0.08390370469168518 0.007535330290720336 0.03586440698586834
0.1375573155481 0.007890255063240589 0.03749537114286597 0.9900422419990255 -0.08779974615062013 0.0025831779071506765 0.017233881214768137 -0.002184347253158081 -0.010997507428430907
 0.9900422419990255 -0.08779974615062013 0.007902485864817252 0.03749447901651473 -0.0021830438658057396 -0.010997611662940087 0.0025120245913616457 0.017244585869422662
 0.0025831779071506765 0.017233881214768137 -0.0021830438658057396 -0.010997611662940087 0.007891210321706432 0.03749711090981032 0.9900423420213041 -0.08779791206488145
 -0.002184347253158081 -0.010997507428430907 0.0025120245913616457 0.017244585869422662 0.9900423420213041 -0.08779791206488145 0.007901722524047134 0.037496378698967346
0.1438099208003 0.008268431602989887 0.03911898733553286 0.9895097117659527 -0.0916844259395306 0.0027734931944331212 0.017989360996077 -0.0023402580880341013 -0.011472828151494521
 0.9895097117659527 -0.0916844259395306 0.008281803620847256 0.0391180274565797 -0.0023388347816713697 -0.011472947688228445 0.002695848868841643 0.018001235933852295
 0.0027734931944331212 0.017989360996077 -0.0023388347816713697 -0.011472947688228445 0.00826947448325523 0.03912079937994871 0.9895098208455827 -0.09168250841953615
 -0.0023402580880341013 -0.011472828151494521 0.002695848868841643 0.018001235933852295 0.9895098208455827 -0.09168250841953615 0.008280969589719838 0.03912001773591477
0.1500625260525 0.008659284962292374 0.04073414607765474 0.988959308284708 -0.09555940594804763 0.002971140005923907 0.018741790397892838 -0.002502106644171081 -0.011945387327913401
 0.988959308284708 -0.09555940594804763 0.00867384971832899 0.040733114610188643 -0.0025005582229707516 -0.011945523511106592 0.002886733017088269 0.01875492009705818
 0.002971140005923907 0.018741790397892838 -0.0025005582229707516 -0.011945523511106592 0.008660419216948205 0.04073602955043619 0.9889594268238062 -0.09555740497041786
 -0.002502106644171081 -0.011945387327913401 0.002886733017088269 0.01875492009705818 0.9889594268238062 -0.09555740497041786 0.008672941924615788 0.04073519604058045
0.15631513130469998 0.009062684593038496 0.04234072339362155 0.9883911657273334 -0.09942459755366535 0.003176054075282459 0.01949109650409082 -0.0026698311096468217 -0.012415117523377686
