! Created with skrf 1.8.0 (http://scikit-rf.org).
# GHz S RI R 50.0 
!freq ReS11 ImS11 ReS12 ImS12 ReS13 ImS13
! ReS14 ImS14
! ReS21 ImS21 ReS22 ImS22 ReS23 ImS23
! ReS24 ImS24
! ReS31 ImS31 ReS32 ImS32 ReS33 ImS33
! ReS34 ImS34
! ReS41 ImS41 ReS42 ImS42 ReS43 ImS43
! ReS44 ImS44
!
0.0 0.001344341747719 0.0 0.9986556582221 0.0 5.130359738833e-05 0.0 -5.130359723349e-05 6.2828786136738535e-21
 0.9986556582221 0.0 0.001344341747728 0.0 -5.130359723333e-05 6.282878613654259e-21 5.13035973893e-05 0.0
 5.130359738833e-05 0.0 -5.130359723333e-05 6.282878613654259e-21 0.001344341762808 0.0 0.9986556582372 0.0
 -5.130359723349e-05 6.2828786136738535e-21 5.13035973893e-05 0.0 0.9986556582372 0.0 0.001344341762822 0.0
0.005 0.0014458433860395075 0.0011041619471825114 0.9985273439674535 -0.002816461802399307 7.09559902700923e-05 0.0005410624945089279 -6.912447211831826e-05 -0.0003439293177090712
 0.9985273439674535 -0.002816461802399307 0.001445850221326462 0.0011041579322968607 -6.912180273030038e-05 -0.00034392725475081186 7.093247697207346e-05 0.0005410715868338406
 7.09559902700923e-05 0.0005410624945089279 -6.912180273030038e-05 -0.00034392725475081186 0.001445845169863181 0.0011042281424896835 0.9985273443100243 -0.0028163947345667467
 -6.912447211831826e-05 -0.0003439293177090712 7.093247697207346e-05 0.0005410715868338406 0.9985273443100243 -0.0028163947345667467 0.0014458491201927708 0.0011042258712746392
0.006252605252188 0.0014723127763782659 0.0013845484834371577 0.9984936977347838 -0.0035212878212850097 7.648059407681656e-05 0.0006766112353394407 -7.408329809456456e-05 -0.0004303592103515263
 0.9984936977347838 -0.0035212878212850097 0.0014723234610847082 0.0013845433555759775 -7.407914435448307e-05 -0.00043035666582579333 7.644385808689779e-05 0.0006766230100902671
 7.648059407681656e-05 0.0006766112353394407 -7.407914435448307e-05 -0.00043035666582579333 0.0014723154905229776 0.001384631201753874 0.998493698195657 -0.0035212040080408696
 -7.408329809456456e-05 -0.0004303592103515263 7.644385808689779e-05 0.0006766230100902671 0.998493698195657 -0.0035212040080408696 0.0014723216648195611 0.0013846282604543156
0.01250521050438 0.0016107718378114365 0.0027981760464545766 0.9983166612098312 -0.007043500010268805 0.00010768812370106537 0.0013537085058739195 -0.00010182881319967698 -0.0008628742498251591
 0.9983166612098312 -0.007043500010268805 0.0016108145034121855 0.0027981646694566053 -0.00010181244382853685 -0.0008628695319217416 0.00010754167468688601 0.0013537364524961997
 0.00010768812370106537 0.0013537085058739195 -0.00010181244382853685 -0.0008628695319217416 0.0016107821055871658 0.002798341194514638 0.9983166624762683 -0.007043332613248605
 -0.00010182881319967698 -0.0008628742498251591 0.00010754167468688601 0.0013537364524961997 0.9983166624762683 -0.007043332613248605 0.0016108067512038274 0.0027983342826331994
0.01875781575657 0.0017599898707554146 0.0042320685153939734 0.9981243509900921 -0.010575236514342464 0.00014499431411233989 0.002031737129280434 -0.00013461831592029804 -0.0012969748143332814
 0.9981243509900921 -0.010575236514342464 0.0017600857475504005 0.004232049649189352 -0.00013458181106591117 -0.0012969683573822678 0.00014466543777753833 0.0020317864518210205
 0.00014499431411233989 0.002031737129280434 -0.00013458181106591117 -0.0012969683573822678 0.0017600125303809343 0.004232315884364473 0.9981243534159433 -0.010574985634836543
 -0.00013461831592029804 -0.0012969748143332814 0.00014466543777753833 0.0020317864518210205 0.9981243534159433 -0.010574985634836543 0.0017600678965879776 0.004232303923999376
0.02501042100875 0.0019202314580755657 0.005684260935017288 0.9979165624765061 -0.014118240990966409 0.00018846817234931674 0.0027107389486658805 -0.00017252810582877023 -0.0017324903702083906
 0.9979165624765061 -0.014118240990966409 0.0019204017357712078 0.005684233226019771 -0.00017246363929086878 -0.0017324826798473176 0.0001878841834060442 0.002710815617418684
 0.00018846817234931674 0.0027107389486658805 -0.00017246363929086878 -0.0017324826798473176 0.0019202713402562944 0.005684590315710361 0.997916566413148 -0.014117906684222392
 -0.00017252810582877023 -0.0017324903702083906 0.0001878841834060442 0.002710815617418684 0.997916566413148 -0.014117906684222392 0.0019203696416903845 0.005684572181289389
0.03126302626094 0.0020917500957700983 0.007153758669626939 0.9976930795503397 -0.017673279676425797 0.00023817928078700005 0.003390696973194108 -0.00021563272792570365 -0.0021693054978111723
 0.9976930795503397 -0.017673279676425797 0.0020920159328416364 0.007153720650646179 -0.00021553255088077166 -0.002169297152038195 0.00023726744823418075 0.003390807726703637
 0.00023817928078700005 0.003390696973194108 -0.00021553255088077166 -0.002169297152038195 0.002091812025747811 0.007154169826051103 0.9976930853464729 -0.017672861977902507
 -0.00021563272792570365 -0.0021693054978111723 0.00023726744823418075 0.003390807726703637 0.9976930853464729 -0.017672861977902507 0.002091965447663526 0.00715414434429245
0.037515631513130004 0.002274793986866865 0.008639925756464086 0.9974536804957265 -0.021240752978440663 0.00029419717727854016 0.004071571173199812 -0.00026400548117007947 -0.002607324086984115
 0.9974536804957265 -0.021240752978440663 0.00227517651553886 0.00863987584619968 -0.00026386191375455954 -0.002607315736487387 0.00029288468915381614 0.004071723524713167
 0.00029419717727854016 0.004071571173199812 -0.00026386191375455954 -0.002607315736487387 0.002274882789798239 0.00864041842161383 0.9974536885025894 -0.021240251907574045
 -0.00026400548117007947 -0.002607324086984115 0.00029288468915381614 0.004071723524713167 0.9974536885025894 -0.021240251907574045 0.002275103491360114 0.008640384371630559
0.043768236765320004 0.0024696082971693155 0.010142298757681332 0.9971981403871814 -0.024820881563330004 0.00035659106565052865 0.004753309365912275 -0.0003177186093838258 -0.0030464584413798465
 0.9971981403871814 -0.024820881563330004 0.0024701286271181567 0.010142235260033097 -0.0003175240357167178 -0.003046450809680728 0.00035480501029801995 0.004753511611200333
 0.00035659106565052865 0.004753309365912275 -0.0003175240357167178 -0.003046450809680728 0.0024697287949802748 0.010142872622267497 0.9971981509547809 -0.024820297134256045
 -0.0003177186093838258 -0.0030464584413798465 0.00035480501029801995 0.004753511611200333 0.9971981509547809 -0.024820297134256045 0.0024700289115569046 0.01014282873567587
0.050020842017509996 0.0026764362016545164 0.011660509828299961 0.9969262322692344 -0.02841378322482624 0.0004254296485745347 0.005435851701460803 -0.0003768433731799394 -0.003486624783111897
 0.9969262322692344 -0.02841378322482624 0.0026771154222019243 0.011660430931652354 -0.0003765902380494476 -0.0034866186666245125 0.00042309700489127726 0.005436112927245628
 0.0004254296485745347 0.005435851701460803 -0.0003765902380494476 -0.0034866186666245125 0.002676593215838948 0.011661164544158541 0.996926245749384 -0.028413115442404727
 -0.0003768433731799394 -0.003486624783111897 0.00042309700489127726 0.005436112927245628 0.996926245749384 -0.028413115442404727 0.0026769848609736243 0.011661109505168542
0.055454545454549996 0.00286612020021573 0.012992501897139828 0.9966764657680971 -0.031546539021425464 0.0004905392363170426 0.006029604124413703 -0.00043267411857013675 -0.00386991701081084
 0.9966764657680971 -0.031546539021425464 0.002866954614580041 0.012992408056641928 -0.0004323640014859943 -0.0038699129145021312 0.00048767220028131955 0.006029924606401009
 0.0004905392363170426 0.006029604124413703 -0.0004323640014859943 -0.0038699129145021312 0.0028663128629672113 0.012993226564275165 0.9966764820657505 -0.031545798796652626
 -0.00043267411857013675 -0.00386991701081084 0.00048767220028131955 0.006029924606401009 0.9966764820657505 -0.031545798796652626 0.0028667938710535703 0.012993160728176214
0.056273447269699996 0.0028955194357663016 0.013194248954334225 0.9966377278440197 -0.0320195105828333 0.000500781008503134 0.006119132869277934 -0.000441450074648282 -0.0039277410382835415
 0.9966377278440197 -0.0320195105828333 0.002896378618288813 0.013194152730632487 -0.00044113088135715276 -0.003927737306332397 0.0004978286414033922 0.006119462961931888
 0.000500781008503134 0.006119132869277934 -0.00044113088135715276 -0.003927737306332397 0.0028957177867076677 0.013194984137653524 0.9966377445895327 -0.032018759438754985
 -0.000441450074648282 -0.0039277410382835415 0.0004978286414033922 0.006119462961931888 0.9966377445895327 -0.032018759438754985 0.002896213053647592 0.013194916583151573
0.06252605252188 0.003127098599546982 0.014743243201898687 0.996332397913858 -0.035638071771836755 0.0005827125171002495 0.006803083303497777 -0.0005116080533303987 -0.004369725625141228
 0.996332397913858 -0.035638071771836755 0.0031281587988918505 0.014743127605791275 -0.0005112153620771718 -0.004369725219972899 0.0005790671765801989 0.006803492957880769
 0.0005827125171002495 0.006803083303497777 -0.0005112153620771718 -0.004369725219972899 0.003127343105607033 0.014744058418925073 0.9963324182782739 -0.03563723725839037
 -0.0005116080533303987 -0.004369725625141228 0.0005790671765801989 0.006803492957880769 0.9963324182782739 -0.03563723725839037 0.003127954069144141 0.014743976938535098
0.06877865777407 0.003371413328353476 0.01630724432871836 0.996010012693261 -0.0392694427685839 0.0006712907581115909 0.007487629901718478 -0.0005873856681342034 -0.004812496730735695
 0.996010012693261 -0.0392694427685839 0.0033726955844611455 0.016307107196649205 -0.000586912094971537 -0.004812500667505578 0.0006668790805618498 0.007488130630103116
 0.0006712907581115909 0.007487629901718478 -0.000586912094971537 -0.004812500667505578 0.0033717088071907268 0.016308139105363703 0.9960100370323648 -0.03926852486837016
 -0.0005873856681342034 -0.004812496730735695 0.0006668790805618498 0.007488130630103116 0.9960100370323648 -0.03926852486837016 0.003372447524745898 0.016308042241494018
0.07503126302626001 0.0036287023859270327 0.017886020940325414 0.9956703420462195 -0.04291357517679508 0.0007665814583885588 0.00817269648120318 -0.0006688502701722416 -0.005255971852212056
 0.9956703420462195 -0.04291357517679508 0.003630227724990013 0.017885859989546435 -0.0006682884861802861 -0.005255981218970759 0.0007613299697952652 0.008173300622201672
 0.0007665814583885588 0.00817269648120318 -0.0006682884861802861 -0.005255981218970759 0.003629053652823884 0.017886994756529388 0.9956703707164829 -0.04291257386778057
 -0.0006688502701722416 -0.005255971852212056 0.0007613299697952652 0.008173300622201672 0.9956703707164829 -0.04291257386778057 0.0036299321662441463 0.017886881004360568
0.08128386827845 0.0038992037065262762 0.019479353262328254 0.9953131556744318 -0.046570401398124434 0.0008686494245828912 0.00885820408039581 -0.0007560681688675349 -0.005700067494956755
 0.9953131556744318 -0.046570401398124434 0.0039009931422581533 0.019479166089850383 -0.0007554108996770586 -0.005700083452620096 0.0008624845451876846 0.0088589248078656
 0.0008686494245828912 0.00885820408039581 -0.0007554108996770586 -0.005700083452620096 0.0038996155749372796 0.01948040555484965 0.9953131890344578 -0.04656931665020533
 -0.0007560681688675349 -0.005700067494956755 0.0008624845451876846 0.0088589248078656 0.9953131890344578 -0.04656931665020533 0.003900645911495855 0.01948027336230557
0.08753647353064001 0.004183154406878 0.021087029530806822 0.994938223278607 -0.050239838187066115 0.0009775584829957494 0.00954407117051959 -0.0008491045940863523 -0.006144698962943381
 0.994938223278607 -0.050239838187066115 0.004185228941693694 0.021086813612396643 -0.000848344619535244 -0.0061447227452556975 0.0009704065329001068 0.009544922502453574
 0.0009775584829957494 0.00954407117051959 -0.000848344619535244 -0.0061447227452556975 0.004183631688197467 0.02108815968962917 0.9949382616890141 -0.0502386699650383
 -0.0008491045940863523 -0.006144698962943381 0.0009704065329001068 0.009544922502453574 0.9949382616890141 -0.0502386699650383 0.004184825862027668 0.02108800745738557
0.09378907878283 0.004480790774127339 0.022708843405912702 0.9945453146977898 -0.05392178918554248 0.001093371421188169 0.01023021380545303 -0.0009480236553883254 -0.006589780213198173
 0.9945453146977898 -0.05392178918554248 0.004483171399894102 0.0227085960949584 -0.0009471538092662192 -0.006589813126696233 0.0010851586269376191 0.010231210612794117
 0.001093371421188169 0.01023021380545303 -0.0009471538092662192 -0.006589813126696233 0.00448133827698053 0.022710050771411715 0.9945453585211764 -0.05392053745137675
 -0.0009480236553883254 -0.006589780213198173 0.0010851586269376191 0.010231210612794117 0.9945453585211764 -0.05392053745137675 0.004482708290644317 0.022709876852705046
0.100041684035 0.004792348237780007 0.024344592071935234 0.9941342000353709 -0.057616146773402065 0.0012161499312850835 0.010916545736503126 -0.00105288829854329 -0.0070352237478675285
 0.9941342000353709 -0.057616146773402065 0.0047950559370513466 0.02434431059828758 -0.0010519014685773903 -0.007035267171821261 0.0012068024332274393 0.010917703751901901
 0.0012161499312850835 0.010916545736503126 -0.0010519014685773903 -0.007035267171821261 0.00479297076799084 0.024345875942163555 0.9941342496368283 -0.057614811478313335
 -0.00105288829854329 -0.0070352237478675285 0.0012068024332274393 0.010917703751901901 0.9941342496368283 -0.057614811478313335 0.004794528613442954 0.024345678642747656
0.1059090909091 0.005097581889121494 0.025892063428470825 0.9937316498439632 -0.06109408863889644 0.0013377535960739384 0.011560688844401264 -0.0011567550956212214 -0.007453475470871824
 0.9937316498439632 -0.06109408863889644 0.005100615587999169 0.02589174726631456 -0.0011556520682257031 -0.007453530076946494 0.0013272740545981247 0.011562013220336018
 0.0013377535960739384 0.011560688844401264 -0.0011556520682257031 -0.007453530076946494 0.005098279192276679 0.025893418404819575 0.9937317052018765 -0.06109267488564333
 -0.0011567550956212214 -0.007453475470871824 0.0013272740545981247 0.011562013220336018 0.9937317052018765 -0.06109267488564333 0.0051000241964048705 0.02589319758165659
0.1062942892872 0.005118061330910005 0.025994074819801417 0.993704649776614 -0.06132279343954724 0.0013459545543079855 0.011602978495102702 -0.0011637602601620924 -0.007480940540834453
 0.993704649776614 -0.06132279343954724 0.005121117077700649 0.02599375628865443 -0.001162649387998542 -0.0074809959271904865 0.0013353984146137977 0.011604314321580551
 0.0013459545543079855 0.011602978495102702 -0.001162649387998542 -0.0074809959271904865 0.0051187636909442715 0.025995434439732942 0.9937047055239709 -0.06132137453417924
 -0.0011637602601620924 -0.007480940540834453 0.0013353984146137977 0.011604314321580551 0.9937047055239709 -0.06132137453417924 0.005120521351072443 0.025995212017617845
0.11254689453939999 0.0054581636411499814 0.02765709194290592 0.9932564348987009 -0.06504160284255837 0.0014828446245612153 0.012289421464429967 -0.0012807000213228522 -0.007926839978178021
 0.9932564348987009 -0.06504160284255837 0.005461588401882516 0.02765673333350237 -0.001279458102626333 -0.007926908851488156 0.0014710058358330753 0.012290952583936577
 0.0014828446245612153 0.012289421464429967 -0.001279458102626333 -0.007926908851488156 0.0054589506295428395 0.027658526511198146 0.9932564971621244 -0.06504010026961675
 -0.0012807000213228522 -0.007926839978178021 0.0014710058358330753 0.012290952583936577 0.9932564971621244 -0.06504010026961675 0.005460920079424764 0.027658277176501937
0.11879949979160001 0.005812887754924878 0.029333443893005382 0.9927893269759732 -0.0687724406143546 0.001626878214976204 0.012975781934102908 -0.0014037667594596118 -0.008372829818104315
 0.9927893269759732 -0.0687724406143546 0.005816702489232098 0.02933304205742178 -0.0014023868440506157 -0.00837291377545079 0.0016136827092491433 0.012977526716017285
 0.001626878214976204 0.012975781934102908 -0.0014023868440506157 -0.00837291377545079 0.005813764166154529 0.029334952558957163 0.992789396128927 -0.06877085431109257
 -0.0014037667594596118 -0.008372829818104315 0.0016136827092491433 0.012977526716017285 0.992789396128927 -0.06877085431109257 0.005815957374536757 0.029334674473601764
0.1250521050438 0.006182465196421943 0.031022930600987285 0.9923030982823171 -0.07251516500224228 0.0017781120821064621 0.013661965146440873 -0.0015330182995821463 -0.008818816162165224
 0.9923030982823171 -0.07251516500224228 0.0061866908581479476 0.031022482262741975 -0.0015314934917022704 -0.008818916873063522 0.0017634857405469109 0.013663942855909259
 0.0017781120821064621 0.013661965146440873 -0.0015314934917022704 -0.008818916873063522 0.006183435820334493 0.031024512463478444 0.9923031747012229 -0.07251349490090202
 -0.0015330182995821463 -0.008818816162165224 0.0017634857405469109 0.013663942855909259 0.9923031747012229 -0.07251349490090202 0.00618586475072467 0.031024203740893125
0.131304710296 0.006567126361400875 0.03272535093489845 0.9917975218904366 -0.07626962737686066 0.0019366016117017865 0.0143478743380361 -0.001668511064497767 -0.009264703434033307
 0.9917975218904366 -0.07626962737686066 0.00657178389906793 0.03272485268766473 -0.0016668345229984877 -0.009264822640340372 0.0019204702745803388 0.014350105144201162
 0.0019366016117017865 0.0143478743380361 -0.0016668345229984877 -0.009264822640340372 0.006568195982630138 0.03272700504189068 0.9917976059553575 -0.0762678734047165
 -0.001668511064497767 -0.009264703434033307 0.0019204702745803388 0.014350105144201162 0.9917976059553575 -0.0762678734047165 0.006570872594924758 0.03272666374662408
0.1375573155481 0.0068739660173779875 0.034219207874578196 0.991365534586621 -0.07981430605415354 0.0020810452718773038 0.0150110893585641 -0.0017889643246925527 -0.009688071064312348
 0.991365534586621 -0.07981430605415354 0.006879076773191388 0.03421866673611192 -0.0017871259396786121 -0.009688208735484509 0.0020633664061005396 0.015013568576240375
 0.0020810452718773038 0.0150110893585641 -0.0017871259396786121 -0.009688208735484509 0.006875138888842411 0.03422093332536086 0.9913656266432297 -0.07981246819282889
 -0.0017889643246925527 -0.009688071064312348 0.0020633664061005396 0.015013568576240375 0.9913656266432297 -0.07981246819282889 0.006878076662359876 0.03422056794171413
0.1438099208003 0.0071914437095777954 0.03570604442492427 0.9909186575519485 -0.08335083802321075 0.0022313213240531577 0.01567206222138576 -0.0019142413279285432 -0.010109375789155151
 0.9909186575519485 -0.08335083802321075 0.007197028664101193 0.03570545773978082 -0.0019122337478335316 -0.010109533621355709 0.0022120264419763 0.01567480822101613
 0.0022313213240531577 0.01567206222138576 -0.0019122337478335316 -0.010109533621355709 0.007192724513292351 0.03570784024101016 0.9909187579775482 -0.08334891620580893
 -0.0019142413279285432 -0.010109375789155151 0.0022120264419763 0.01567480822101613 0.9909187579775482 -0.08334891620580893 0.007195935644617606 0.035707449630748914
0.1500625260525 0.0075194585351585465 0.037185761096134085 0.9904569949790748 -0.08687916040555041 0.002387384043180852 0.016330740512544524 -0.002044297597116273 -0.01052856736396013
 0.9904569949790748 -0.08687916040555041 0.00752553866328462 0.037185126088999924 -0.002042113483294482 -0.01052874712110907 0.002366404986150338 0.016333772338277288
 0.002387384043180852 0.016330740512544524 -0.002042113483294482 -0.01052874712110907 0.0075208519423467035 0.03718762626070677 0.9904571041539408 -0.08687715456152327
 -0.002044297597116273 -0.01052856736396013 0.002366404986150338 0.016333772338277288 0.9904571041539408 -0.08687715456152327 0.007524348636738516 0.037187209227420734
0.15631513130469998 0.007857909006445259 0.03865826152561102 0.9899806514447407 -0.09039921006631198 0.0025491872391506334 0.016987072603914865 -0.002179088177130308 -0.010945596521386505
