! Created with skrf 1.8.0 (http://scikit-rf.org).
# GHz S RI R 50.0 
!freq ReS11 ImS11 ReS12 ImS12 ReS13 ImS13
! ReS14 ImS14
! ReS21 ImS21 ReS22 ImS22 ReS23 ImS23
! ReS24 ImS24
! ReS31 ImS31 ReS32 ImS32 ReS33 ImS33
! ReS34 ImS34
! ReS41 ImS41 ReS42 ImS42 ReS43 ImS43
! ReS44 ImS44
!
0.0 0.001640099564315 0.0 0.9983599004328 0.0 6.32590216045e-05 0.0 -6.325902160486e-05 7.746995832558507e-21
 0.9983599004328 0.0 0.001640099564302 0.0 -6.325902160444e-05 7.746995832507071e-21 6.325902160477e-05 0.0
 6.32590216045e-05 0.0 -6.325902160444e-05 7.746995832507071e-21 0.001640099565736 0.0 0.9983599004343 0.0
 -6.325902160486e-05 7.746995832558507e-21 6.325902160477e-05 0.0 0.9983599004343 0.0 0.001640099565749 0.0
0.005 0.0017648789589784237 0.0013445842824612512 0.9982020163142482 -0.0034350368289564684 8.826004644454566e-05 0.0006785044527215188 -8.586757198125344e-05 -0.00042905428769321
 0.9982020163142482 -0.0034350368289564684 0.0017648709990885053 0.0013445889029318732 -8.586466874169283e-05 -0.00042905203800176414 8.831409939887054e-05 0.0006784837856231015
 8.826004644454566e-05 0.0006785044527215188 -8.586466874169283e-05 -0.00042905203800176414 0.0017648801982556913 0.0013445162405327012 0.9982020159461579 -0.003435103894424335
 -8.586757198125344e-05 -0.00042905428769321 8.831409939887054e-05 0.0006784837856231015 0.9982020159461579 -0.003435103894424335 0.0017648690261795965 0.0013445228146850893
0.006252605252188 0.001797693508781436 0.0016859928398350419 0.9981602260230981 -0.004294620799368652 9.542789712346058e-05 0.0008484636324540546 -9.228461125180602e-05 -0.0005368631095999095
 0.9981602260230981 -0.004294620799368652 0.0017976810666383515 0.0016859987451766521 -9.228009374341368e-05 -0.000536860335719399 9.551234855856157e-05 0.0008484368017246822
 9.542789712346058e-05 0.0008484636324540546 -9.228009374341368e-05 -0.000536860335719399 0.0017976955277332794 0.0016859077933529887 0.998160225528948 -0.004294704620914434
 -9.228461125180602e-05 -0.0005368631095999095 9.551234855856157e-05 0.0008484368017246822 0.998160225528948 -0.004294704620914434 0.001797678063491517 0.0016859161506677543
0.01250521050438 0.0019709523188652838 0.0034070565736582675 0.9979380882263224 -0.00858992896928057 0.00013666807202177965 0.0016973158956783735 -0.0001288751525647177 -0.001076254409490143
 0.9979380882263224 -0.00858992896928057 0.001970902644567027 0.003407069688611451 -0.00012885735151291146 -0.0010762492830069484 0.00013700480961039872 0.0016972514266287734
 0.00013666807202177965 0.0016973158956783735 -0.00012885735151291146 -0.0010762492830069484 0.0019709609345509183 0.0034068866781981327 0.9979380868004639 -0.00859009635995555
 -0.0001288751525647177 -0.001076254409490143 0.00013700480961039872 0.0016972514266287734 0.9979380868004639 -0.00859009635995555 0.0019708911950732213 0.003406904826357631
0.01875781575657 0.0021602725277751872 0.005152379581791719 0.9976931977378263 -0.01289635388116103 0.00018707930708152076 0.002547091221205193 -0.00017314629865425202 -0.0016174097062360815
 0.9976931977378263 -0.01289635388116103 0.0021601609207501753 0.005152401282614748 -0.0001731066048278586 -0.0016174027343465783 0.00018783566511591104 0.0025469760745770935
 0.00018707930708152076 0.002547091221205193 -0.0001731066048278586 -0.0016174027343465783 0.0021602923254551514 0.005152124843548133 0.9976931949583461 -0.012896604743311819
 -0.00017314629865425202 -0.0016174097062360815 0.00018783566511591104 0.0025469760745770935 0.9976931949583461 -0.012896604743311819 0.002160135608369321 0.0051521543813134564
0.02501042100875 0.0023660379108368336 0.006919503459448192 0.9974252533318586 -0.01721595902047964 0.0002467620818883888 0.0033978064252618385 -0.0002252097296427011 -0.002160075606299849
 0.9974252533318586 -0.01721595902047964 0.002365839728978663 0.006919535187756782 -0.0002251396380946987 -0.00216006739076822 0.00024810539629981825 0.003397625406967467
 0.0002467620818883888 0.0033978064252618385 -0.0002251396380946987 -0.00216006739076822 0.002366073468667705 0.0069191638095425344 0.9974252487708305 -0.017216293297319156
 -0.0002252097296427011 -0.002160075606299849 0.00024810539629981825 0.003397625406967467 0.9974252487708305 -0.017216293297319156 0.0023657951361763913 0.0069192064899539305
0.03126302626094 0.0025886164005983047 0.008707151435839803 0.9971339390951774 -0.02154961353826023 0.0003158169129205714 0.004249402023890893 -0.0002851737962059131 -0.00270406827785735
 0.9971339390951774 -0.02154961353826023 0.002588307046635003 0.008707194696989095 -0.00028506488868863073 -0.0027040595160344547 0.00031791467166522266 0.004249137774218356
 0.0003158169129205714 0.004249402023890893 -0.00028506488868863073 -0.0027040595160344547 0.002588672299162704 0.008706726755237388 0.9971339323265356 -0.021550031189008098
 -0.0002851737962059131 -0.00270406827785735 0.00031791467166522266 0.004249137774218356 0.9971339323265356 -0.021550031189008098 0.002588237760759933 0.008706784484287985
0.037515631513130004 0.0028283677883045545 0.010514482203736058 0.9968189324160492 -0.025897738358275614 0.0003943434586945926 0.005101788088680034 -0.00035314425924396636 -0.0032492276146269855
 0.9968189324160492 -0.025897738358275614 0.002827922700844174 0.010514538565889868 -0.0003529881953678659 -0.0032492190997253194 0.0003973633649513958 0.005101421062435414
 0.0003943434586945926 0.005101788088680034 -0.0003529881953678659 -0.0032492190997253194 0.002828448608949878 0.010513972329330108 0.9968189230121385 -0.025898239351775678
 -0.00035314425924396636 -0.0032492276146269855 0.0003973633649513958 0.005101421062435414 0.9968189230121385 -0.025898239351775678 0.0028278233101819623 0.010514047165973388
0.043768236765320004 0.0030856466913028097 0.012340862851930276 0.9964799072380323 -0.030260533171383806 0.000482440092358988 0.005954858184510883 -0.0004292245379627529 -0.0037954033132207095
 0.9964799072380323 -0.030260533171383806 0.0030850413371464065 0.012340933945500662 -0.00042901304994128083 -0.0037953959343935972 0.0004865500907276189 0.0059543666284512615
 0.000482440092358988 0.005954858184510883 -0.00042901304994128083 -0.0037953959343935972 0.003085757019467017 0.012340267577381714 0.9964798947724945 -0.030261117484875942
 -0.0004292245379627529 -0.0037954033132207095 0.0004865500907276189 0.0059543666284512615 0.9964798947724945 -0.030261117484875942 0.003084906433547198 0.01234036173407005
0.050020842017509996 0.0033608039253087015 0.014185775022777672 0.9961165357222461 -0.034638070203508266 0.0005802036298569894 0.006808495141848734 -0.0005135157926992926 -0.004342449117697398
 0.9961165357222461 -0.034638070203508266 0.0033600137926294454 0.014185862539945245 -0.00051324068198356 -0.004342443860028849 0.0005855719124864884 0.006807855071092161
 0.0005802036298569894 0.006808495141848734 -0.00051324068198356 -0.004342443860028849 0.0033609483480370505 0.01418509409621404 0.9961165197672476 -0.03463873782455401
 -0.0005135157926992926 -0.004342449117697398 0.0005855719124864884 0.006807855071092161 0.9961165197672476 -0.03463873782455401 0.0033598379692660234 0.014185209939624294
0.055454545454549996 0.0036147134088459717 0.015803758865659826 0.9957807274342412 -0.03845424936575912 0.0006730876909071617 0.0075506949114323004 -0.000593512634653989 -0.004818442503364633
 0.9957807274342412 -0.03845424936575912 0.0036137428038344127 0.015803862077526605 -0.0005931756278511612 -0.004818439963529769 0.0006796862413043946 0.007549904547022626
 0.0006730876909071617 0.0075506949114323004 -0.0005931756278511612 -0.004818439963529769 0.0036148911881786422 0.01580300327039458 0.9957807080986482 -0.03845498937569999
 -0.000593512634653989 -0.004818442503364633 0.0006796862413043946 0.007549904547022626 0.9957807080986482 -0.03845498937569999 0.003613527030292873 0.015803140002835853
0.056273447269699996 0.0036541871968532864 0.01604876884845135 0.9957284892342366 -0.03903034020712474 0.0006877291329234346 0.007662573885078806 -0.0006061169270446952 -0.0048902200118459485
 0.9957284892342366 -0.03903034020712474 0.003653187789579871 0.01604887454296686 -0.0006057700622196359 -0.004890217956309148 0.0006945241337137662 0.0076617590591512505
 0.0006877291329234346 0.007662573885078806 -0.0006057700622196359 -0.004890217956309148 0.0036543703039922234 0.016048001978655153 0.9957284693611069 -0.03903109112689534
 -0.0006061169270446952 -0.0048902200118459485 0.0006945241337137662 0.0076617590591512505 0.9957284693611069 -0.03903109112689534 0.003652965641427632 0.016048142030749918
0.06252605252188 0.0039661414673873765 0.01792943763834029 0.9953154390058822 -0.04343727770562428 0.0008051097459596453 0.008516962997455912 -0.0007071245524627412 -0.0054385706796443705
 0.9953154390058822 -0.04343727770562428 0.003964908298783399 0.017929563325523045 -0.0007066978677468831 -0.005438573003042253 0.0008135001266796177 0.008515944896317422
 0.0008051097459596453 0.008516962997455912 -0.0007066978677468831 -0.005438573003042253 0.003966367851654532 0.017928584492186928 0.995315414785129 -0.04343811192095116
 -0.0007071245524627412 -0.0054385706796443705 0.0008135001266796177 0.008515944896317422 0.995315414785129 -0.04343811192095116 0.003964634423554494 0.017928751431556953
0.06877865777407 0.004297009134749338 0.019827402778558476 0.9948770566204739 -0.04785877603100611 0.000932436553157738 0.009371525657761053 -0.0008166329295251591 -0.0059873545993679635
 0.9948770566204739 -0.04785877603100611 0.004295517722092599 0.019827550335453678 -0.0008161184238479042 -0.005987362574263236 0.0009425911839881992 0.009370273457987117
 0.000932436553157738 0.009371525657761053 -0.0008161184238479042 -0.005987362574263236 0.004297283391293019 0.0198264629825099 0.9948770276213474 -0.04785969354249455
 -0.0008166329295251591 -0.0059873545993679635 0.0009425911839881992 0.009370273457987117 0.9948770276213474 -0.04785969354249455 0.004295186719903619 0.01982665964576693
0.07503126302626001 0.004647130106543912 0.021742304169022744 0.9944130143930316 -0.0522946968297833 0.0010697984472066335 0.01022612024258747 -0.0009347338953507243 -0.006536423477823479
 0.9944130143930316 -0.0522946968297833 0.0046453559652234275 0.021742475534798848 -0.0009341236317425323 -0.006536438472455943 0.0010818863828630674 0.010224600793815208
 0.0010697984472066335 0.01022612024258747 -0.0009341236317425323 -0.006536438472455943 0.004647456832868238 0.02174127730381408 0.9944129801831922 -0.052295697646467076
 -0.0009347338953507243 -0.006536423477823479 0.0010818863828630674 0.010224600793815208 0.9944129801831922 -0.052295697646467076 0.004644962439401977 0.021741506687356513
0.08128386827845 0.005016841806555845 0.023673793856844923 0.9939229856889827 -0.05674487637925594 0.0012172820049863656 0.011080600737517767 -0.0010615167819534952 -0.007085626881743058
 0.9939229856889827 -0.05674487637925594 0.005014760444799094 0.02367399103331565 -0.0010608028872884198 -0.007085650359923314 0.001231472457446166 0.011078778539296313
 0.0012172820049863656 0.011080600737517767 -0.0010608028872884198 -0.007085650359923314 0.005017225602744491 0.02367267946478661 0.9939229458345749 -0.05674596051084211
 -0.0010615167819534952 -0.007085626881743058 0.001231472457446166 0.011078778539296313 0.9939229458345749 -0.05674596051084211 0.00501429900215369 0.023672944726674677
0.08753647353064001 0.005406479135497208 0.025621531644222196 0.9934066451999931 -0.0612091299360178 0.0013749713678915898 0.011934817025017856 -0.0011970683283118843 -0.007634811998676392
 0.9934066451999931 -0.0612091299360178 0.005404066048525167 0.025621756696789417 -0.0011962429931153095 -0.007634845519687355 0.0013914336764719168 0.011932654204072869
 0.0013749713678915898 0.011934817025017856 -0.0011962429931153095 -0.007634845519687355 0.005406924603457168 0.025620329220959793 0.9934065992652428 -0.06121029740061164
 -0.0011970683283118843 -0.007634811998676392 0.0013914336764719168 0.011932654204072869 0.9934065992652428 -0.06121029740061164 0.005403531300035924 0.025620633683073768
0.09378907878283 0.005816374400487219 0.027585181945235192 0.9928636691937053 -0.06568725484322582 0.0015429481253190578 0.012788615105702958 -0.001341472587851785 -0.00818382347107231
 0.9928636691937053 -0.06568725484322582 0.005813605064897648 0.027585437003804367 -0.0013405280663745904 -0.00818386868954918 0.0015618517243434797 0.01278607139373633
 0.0015429481253190578 0.012788615105702958 -0.0013405280663745904 -0.00818386868954918 0.005816886143577596 0.027583890945969657 0.9928636167407034 -0.06568850566054513
 -0.001341472587851785 -0.00818382347107231 0.0015618517243434797 0.01278607139373633 0.9928636167407034 -0.06568850566054513 0.005812991625952468 0.02758423809632605
0.100041684035 0.0062468572219399904 0.0295644114929653 0.9922937357448657 -0.0701790327949213 0.0017212912001619647 0.01364183726634818 -0.0014948108327256602 -0.008732503290254216
 0.9922937357448657 -0.0701790327949213 0.006243707090463593 0.029564698753230225 -0.0014937394431428907 -0.008732561956049639 0.0017428055846932305 0.013638869978299379
 0.0017212912001619647 0.01364183726634818 -0.0014937394431428907 -0.008732561956049639 0.006247439845377916 0.02956303132765121 0.9922936763332316 -0.07018036699047975
 -0.0014948108327256602 -0.008732503290254216 0.0017428055846932305 0.013638869978299379 0.9922936763332316 -0.07018036699047975 0.006243009581915304 0.02956342482296553
0.1059090909091 0.006669835018914549 0.03143558131117861 0.9917341111635212 -0.07440630057301581 0.0018981431768355255 0.01444182835030779 -0.0016468977435805674 -0.009246936328265119
 0.9917341111635212 -0.07440630057301581 0.006666305198730494 0.03143590084626514 -0.0016457003723481733 -0.009247009289113014 0.0019222616828498814 0.014438422588112579
 0.0018981431768355255 0.01444182835030779 -0.0016457003723481733 -0.009247009289113014 0.0066704883452897296 0.03143411689837575 0.9917340448194918 -0.0744077130358661
 -0.0016468977435805674 -0.009246936328265119 0.0019222616828498814 0.014438422588112579 0.9917340448194918 -0.0744077130358661 0.006665523912782052 0.03143455736204629
0.1062942892872 0.006698254424707024 0.03155888761661517 0.99169652495274 -0.07468423153820918 0.001910076736029696 0.01449432222064641 -0.0016571614555934966 -0.009280690724365109
 0.99169652495274 -0.07468423153820918 0.0066946989201080226 0.03155920934162321 -0.0016559555802532278 -0.009280764682405634 0.0019343714256917276 0.014490886233648921
 0.001910076736029696 0.01449432222064641 -0.0016559555802532278 -0.009280764682405634 0.006698912534710389 0.031557417652177795 0.9916964581400054 -0.0746856491406724
 -0.0016571614555934966 -0.009280690724365109 0.0019343714256917276 0.014490886233648921 0.9916964581400054 -0.0746856491406724 0.006693911968765469 0.0315578613207144
0.11254689453939999 0.00717088991509353 0.033568276926180675 0.9910717191500347 -0.07920260617643472 0.002109377985272071 0.015345905224974041 -0.0018285998697681518 -0.009828222278400453
 0.9910717191500347 -0.07920260617643472 0.007166904424914993 0.03356863544798152 -0.0018272519555396053 -0.009828313468530489 0.0021366224866092025 0.015341952957884868
 0.002109377985272071 0.015345905224974041 -0.0018272519555396053 -0.009828313468530489 0.0071716281186618115 0.03356671648389488 0.9910716444906177 -0.07920410721957256
 -0.0018285998697681518 -0.009828222278400453 0.0021366224866092025 0.015341952957884868 0.9910716444906177 -0.07920410721957256 0.0071660226641166395 0.033567214328449876
0.11879949979160001 0.0076650845490697245 0.03559224429951868 0.9904190031045488 -0.08373390017800911 0.0023192651983193406 0.01619641818145401 -0.002009198407625501 -0.010374931673927227
 0.9904190031045488 -0.08373390017800911 0.00766064441988738 0.0355926420211817 -0.0020077009664333087 -0.010375042130727041 0.0023496289656662513 0.016191899575056082
 0.0023192651983193406 0.01619641818145401 -0.0020077009664333087 -0.010375042130727041 0.0076659074537678545 0.035590592655820354 0.9904189201501673 -0.08373548469933516
 -0.002009198407625501 -0.010374931673927227 0.0023496289656662513 0.016191899575056082 0.9904189201501673 -0.08373548469933516 0.007659662490385252 0.03559114885701729
0.1250521050438 0.008181155992084566 0.037630452078780324 0.9897380642163969 -0.08827784618465304 0.002539805513531352 0.017045689731875674 -0.0021990262185200716 -0.010920649845176902
 0.9897380642163969 -0.08827784618465304 0.008176236523832139 0.0376308914766583 -0.002197371827708547 -0.010920781697763579 0.002573457908579062 0.01704055222980356
 0.002539805513531352 0.017045689731875674 -0.002197371827708547 -0.010920781697763579 0.008182068205686285 0.037628708464994505 0.9897379725155163 -0.08827951422511922
 -0.0021990262185200716 -0.010920649845176902 0.002573457908579062 0.01704055222980356 0.9897379725155163 -0.08827951422511922 0.008175149074669305 0.03762932738481323
0.131304710296 0.008719418572970627 0.0396825594433284 0.9890285927112908 -0.09283416665207689 0.0027710628479180426 0.017893545345183122 -0.0023981491656998874 -0.011465204948898149
 0.9890285927112908 -0.09283416665207689 0.00871399501315063 0.039683043069565105 -0.0023963304687008263 -0.011465360420757622 0.0028081730978912057 0.017887733875576104
 0.0027710628479180426 0.017893545345183122 -0.0023963304687008263 -0.011465360420757622 0.008720424702739853 0.03968072304275555 0.9890284918091289 -0.09283591825845489
 -0.0023981491656998874 -0.011465204948898149 0.0028081730978912057 0.017887733875576104 0.9890284918091289 -0.09283591825845489 0.008712796702202635 0.03968140922827011
0.1375573155481 0.009159960816289779 0.04148190225454751 0.9884105586496311 -0.09713610791438337 0.00298449579373992 0.018713777192104278 -0.0025779920428269042 -0.011982441643569989
 0.9884105586496311 -0.09713610791438337 0.009154005594147677 0.04148242009974887 -0.0025759980443897813 -0.011982621032127596 0.003025151123127708 0.018707297905877524
 0.00298449579373992 0.018713777192104278 -0.0025759980443897813 -0.011982621032127596 0.009161064728627327 0.04147997230599458 0.9884104481299035 -0.09713794307087217
 -0.0025779920428269042 -0.011982441643569989 0.003025151123127708 0.018707297905877524 0.9884104481299035 -0.09713794307087217 0.00915269174765446 0.041480717518096184
0.1438099208003 0.009616118962987216 0.043271228954607076 0.9877705869828199 -0.10142657706373967 0.0032065168129590503 0.019530331870081085 -0.002764998910884581 -0.01249626992066892
 0.9877705869828199 -0.10142657706373967 0.009609606815650517 0.043271782765786665 -0.002762821694429132 -0.012496475426901693 0.0032508714562371594 0.01952313415586311
 0.0032065168129590503 0.019530331870081085 -0.002762821694429132 -0.012496475426901693 0.009617325130934759 0.04326920462202713 0.9877704663945708 -0.10142849580563201
 -0.002764998910884581 -0.01249626992066892 0.0032508714562371594 0.01952313415586311 0.9877704663945708 -0.10142849580563201 0.009608172222702365 0.04327001263977645
0.1500625260525 0.010087724529980295 0.04505037333748152 0.9871088507307694 -0.10570545027112764 0.0034370433032812936 0.02034311492671898 -0.0029590887435178193 -0.013006599865472198
 0.9871088507307694 -0.10570545027112764 0.010080630126668136 0.04505096497473293 -0.0029567204122095416 -0.013006833779039639 0.0034852504199261226 0.020335146339407334
 0.0034370433032812936 0.02034311492671898 -0.0029567204122095416 -0.013006833779039639 0.010089037417653164 0.04504825374871495 0.9871087196206642 -0.10570745263644887
 -0.0029590887435178193 -0.013006599865472198 0.0034852504199261226 0.020335146339407334 0.9871087196206642 -0.10570745263644887 0.010079069592049838 0.045049128546381365
0.15631513130469998 0.010574607744218893 0.04681917415685617 0.9864255238984747 -0.1099726045170668 0.003675991626889281 0.021152033645718556 -0.003160179461783247 -0.013513343558729478
 0.9864255238984747 -0.1099726045170668 0.010566905684564155 0.04681980559678675 -0.003157612138796233 -0.013513608257613488 0.0037282032821977654 0.02114323992886272
