! Created with skrf 1.8.0 (http://scikit-rf.org).
# GHz S RI R 50.0 
!freq ReS11 ImS11 ReS12 ImS12 ReS13 ImS13
! ReS14 ImS14
! ReS21 ImS21 ReS22 ImS22 ReS23 ImS23
! ReS24 ImS24
! ReS31 ImS31 ReS32 ImS32 ReS33 ImS33
! ReS34 ImS34
! ReS41 ImS41 ReS42 ImS42 ReS43 ImS43
! ReS44 ImS44
!
0.0 0.001623014216713 0.0 0.9983769857803 0.0 6.296479811716e-05 0.0 -6.296479873838e-05 7.710963923391437e-21
 0.9983769857803 0.0 0.001623014216723 0.0 -6.29647987386e-05 7.71096392341838e-21 6.296479811637e-05 0.0
 6.296479811716e-05 0.0 -6.29647987386e-05 7.71096392341838e-21 0.001623014218138 0.0 0.9983769857817 0.0
 -6.296479873838e-05 7.710963923391437e-21 6.296479811637e-05 0.0 0.9983769857817 0.0 0.001623014218144 0.0
0.005 0.0017465199829227345 0.0013233143199299822 0.9982206778057426 -0.0033997256342157725 8.902694477988913e-05 0.0007194309489070088 -8.627221838221337e-05 -0.0004470457730939496
 0.9982206778057426 -0.0033997256342157725 0.0017465311566253066 0.0013233078226289083 -8.627365315469536e-05 -0.00044704692235201143 8.89672881301316e-05 0.00071945393687106
 8.902694477988913e-05 0.0007194309489070088 -8.627365315469536e-05 -0.00044704692235201143 0.0017465186493627676 0.001323247864079672 0.9982206774433318 -0.0033997926988350055
 -8.627221838221337e-05 -0.0004470457730939496 8.89672881301316e-05 0.00071945393687106 0.9982206774433318 -0.0033997926988350055 0.0017465317619542572 0.0013232401426903574
0.006252605252188 0.0017789842362299537 0.0016593579402155321 0.9981793177820067 -0.004250478626636159 9.651911074071495e-05 0.0008996201427185398 -9.289078537697781e-05 -0.0005593864904758937
 0.9981793177820067 -0.004250478626636159 0.0017790017015665966 0.0016593496101074824 -9.289301762614159e-05 -0.0005593879083532565 9.642590630412173e-05 0.0008996499559131695
 9.651911074071495e-05 0.0008996201427185398 -9.289301762614159e-05 -0.0005593879083532565 0.0017789822284257706 0.0016592748853780789 0.9981793172927824 -0.004250562445346771
 -9.289078537697781e-05 -0.0005593864904758937 9.642590630412173e-05 0.0008996499559131695 0.9981793172927824 -0.004250562445346771 0.001779002725508823 0.001659265013837219
0.01250521050438 0.0019503048776601897 0.003353522091762408 0.9979595418327547 -0.008501700576159834 0.00013972916157609482 0.0017994850272409484 -0.0001306476601567746 -0.0011214589337327381
 0.9979595418327547 -0.008501700576159834 0.0019503746036721255 0.003353503321682464 -0.00013065645264612722 -0.0011214615643878603 0.00013935758761124392 0.0017995563575426141
 0.00013972916157609482 0.0017994850272409484 -0.00013065645264612722 -0.0011214615643878603 0.0019502973937763053 0.0033533562772708313 0.9979595404214568 -0.008501867939751759
 -0.0001306476601567746 -0.0011214589337327381 0.00013935758761124392 0.0017995563575426141 0.9979595404214568 -0.008501867939751759 0.0019503792396321103 0.0033533342907160215
0.01875781575657 0.0021373663380363085 0.005071783295975049 0.997717373414877 -0.012763998780869179 0.0001926968675428407 0.002700212993576033 -0.00017635578960098147 -0.0016853612207122625
 0.997717373414877 -0.012763998780869179 0.0021375229900848294 0.005071751832207015 -0.00017637539062877042 -0.0016853648192720165 0.0001918624117922585 0.0027003399819337083
 0.0001926968675428407 0.002700212993576033 -0.00017637539062877042 -0.0016853648192720165 0.002137349930645549 0.0050715348491410135 0.9977173706719143 -0.012764249567923706
 -0.00017635578960098147 -0.0016853612207122625 0.0001918624117922585 0.0027003399819337083 0.9977173706719143 -0.012764249567923706 0.0021375338444450114 0.005071498301380995
0.02501042100875 0.0023405463277703406 0.006811707583210639 0.9974525163879578 -0.01703941855480997 0.0002555257258788675 0.003601834689951041 -0.0002301311507308343 -0.0022508180387102415
 0.9974525163879578 -0.01703941855480997 0.0023408244822282318 0.006811661035044298 -0.00023016575562093418 -0.0022508223161818355 0.0002540439573128683 0.0036020338194700835
 0.0002555257258788675 0.003601834689951041 -0.00023016575562093418 -0.0022508223161818355 0.002340517538172125 0.006811376611157667 0.9974525118991914 -0.01703975264772194
 -0.0002301311507308343 -0.0022508180387102415 0.0002540439573128683 0.0036020338194700835 0.9974525118991914 -0.01703975264772194 0.0023408441542920656 0.006811322862301417
0.03126302626094 0.0025602069064514297 0.00857203164241205 0.9971646601107044 -0.021328822101388638 0.000328319614966775 0.0045042944089398315 -0.00029208614002757113 -0.0028176335126993764
 0.9971646601107044 -0.021328822101388638 0.0025606410671473482 0.008571967483064455 -0.0002921399000013678 -0.0028176381354739818 0.00032600601013128844 0.00450458451419241
 0.000328319614966775 0.0045042944089398315 -0.0002921399000013678 -0.0028176381354739818 0.0025601622696501797 0.008571618231796753 0.997164653465122 -0.02132923938695474
 -0.00029208614002757113 -0.0028176335126993764 0.00032600601013128844 0.00450458451419241 0.997164653465122 -0.02132923938695474 0.0025606721570320843 0.008571544448795907
0.037515631513130004 0.002796702091616471 0.010351923614142704 0.9968534873276528 -0.025632627659841357 0.0004111817008302328 0.0054075021880768594 -0.00036233042234630437 -0.003385639114228414
 0.9968534873276528 -0.025632627659841357 0.002797326701381049 0.010351839180916691 -0.0003624074491611594 -0.0033856437039728165 0.0004078515687511004 0.005407904475202129
 0.0004111817008302328 0.0054075021880768594 -0.0003624074491611594 -0.0033856437039728165 0.0027966381367179453 0.010351427841461576 0.9968534781190223 -0.025633128019407505
 -0.00036233042234630437 -0.003385639114228414 0.0004078515687511004 0.005407904475202129 0.9968534781190223 -0.025633128019407505 0.002797371810850681 0.010351330997591937
0.043768236765320004 0.00305038079057336 0.01215075814781233 0.9965186773793553 -0.029951034377389916 0.0005042139263625388 0.0063113496529014325 -0.00044097122274088917 -0.003954677830232774
 0.9965186773793553 -0.029951034377389916 0.0030512302392027733 0.012150650642159828 -0.00044107559135583423 -0.00395468196388886 0.0004996823752825503 0.006311887723056404
 0.0005042139263625388 0.0063113496529014325 -0.00044107559135583423 -0.00395468196388886 0.00305029403904389 0.012150180083313113 0.9965186652059513 -0.02995161768340181
 -0.00044097122274088917 -0.003954677830232774 0.0004996823752825503 0.006311887723056404 0.9965186652059513 -0.02995161768340181 0.0030512919708569385 0.012150056957377567
0.050020842017509996 0.0033215881570815954 0.013968023448271088 0.9961599078426537 -0.03428411519070743 0.00060751669660088 0.007215716575242033 -0.0005281134292719838 -0.004524597620075925
 0.9961599078426537 -0.03428411519070743 0.0033226967888690777 0.01396788993559342 -0.0005282491796373431 -0.004524600829904014 0.0006015986231990763 0.007216416449319768
 0.00060751669660088 0.007215716575242033 -0.0005282491796373431 -0.004524600829904014 0.003321475121257073 0.013967363161759219 0.9961598923070465 -0.03428478130160395
 -0.0005281134292719838 -0.004524597620075925 0.0006015986231990763 0.007216416449319768 0.9961598923070465 -0.03428478130160395 0.0033227777444776387 0.01396721033696455
0.055454545454549996 0.0035717767506322873 0.015561904157867028 0.9958284171131828 -0.038061606409907175 0.0007057075318708921 0.008001960788897656 -0.000610826543876822 -0.0050204740195488535
 0.9958284171131828 -0.038061606409907175 0.003573138482041085 0.015561745554986944 -0.0006109928205785721 -0.005020476012008545 0.0006984340398256061 0.00800282430590886
 0.0007057075318708921 0.008001960788897656 -0.0006109928205785721 -0.005020476012008545 0.0035716380336694017 0.015561172471564508 0.995828398336941 -0.03806234435794752
 -0.000610826543876822 -0.0050204740195488535 0.0006984340398256061 0.00800282430590886 0.995828398336941 -0.03806234435794752 0.003573238256208107 0.015560990909744329
0.056273447269699996 0.003610666277335006 0.015803275637110172 0.9957768555054863 -0.038631862395242376 0.0007211886559313266 0.008120474082422703 -0.0006238596059575325 -0.005095248226139463
 0.9957768555054863 -0.038631862395242376 0.003612068397866697 0.015803113046248693 -0.0006240307441910327 -0.005095249999757027 0.0007136987482959193 0.008121364226284867
 0.0007211886559313266 0.008120474082422703 -0.0006240307441910327 -0.005095249999757027 0.0036105234606537084 0.015802533193576974 0.9957768362154747 -0.03863261116029083
 -0.0006238596059575325 -0.005095248226139463 0.0007136987482959193 0.008121364226284867 0.9957768362154747 -0.03863261116029083 0.003612171178491268 0.01580234705614649
0.06252605252188 0.00391795453014449 0.0176561136774048 0.9953691970184587 -0.04299421265467146 0.0008453265070303255 0.009025486439350942 -0.0007283099643756359 -0.005666479416595077
 0.9953691970184587 -0.04299421265467146 0.003919684412188112 0.017655918800125514 -0.0007285204635406256 -0.005666479197056036 0.0008360792562723484 0.009026597789190821
 0.0008453265070303255 0.009025486439350942 -0.0007285204635406256 -0.005666479197056036 0.003917778425608078 0.017655289143949093 0.9953691735871899 -0.04299504390775151
 -0.0007283099643756359 -0.005666479416595077 0.0008360792562723484 0.009026597789190821 0.9953691735871899 -0.04299504390775151 0.003919811616779699 0.017655065881635817
0.06877865777407 0.00424378976729723 0.01952616442062847 0.9949366093727289 -0.04737106189375682 0.0009800248561100122 0.009930612105658149 -0.0008415623079094832 -0.006238139958751782
 0.9949366093727289 -0.04737106189375682 0.004245881656926992 0.019525933910722985 -0.0008418161085769173 -0.0062381371446041415 0.0009688345746297724 0.009931978093230705
 0.0009800248561100122 0.009930612105658149 -0.0008418161085769173 -0.0062381371446041415 0.004243576857364776 0.0195252578656432 0.9949365814195994 -0.047371975454825646
 -0.0008415623079094832 -0.006238139958751782 0.0009688345746297724 0.009931978093230705 0.9949365814195994 -0.047371975454825646 0.004246035881862935 0.019524993465894896
0.07503126302626001 0.004588506387397771 0.0214130731317496 0.994478770275489 -0.05176227471872313 0.0011253760718016083 0.010835704425506031 -0.0009637119615452954 -0.006810076965566895
 0.994478770275489 -0.05176227471872313 0.004590994509630098 0.021412803504085542 -0.0009640129721684334 -0.006810070910929259 0.0011120569161732782 0.010837361003163468
 0.0011253760718016083 0.010835704425506031 -0.0009640129721684334 -0.006810070910929259 0.004588253142994862 0.02141208462202477 0.9944787374257115 -0.05176327039742289
 -0.0009637119615452954 -0.006810076965566895 0.0011120569161732782 0.010837361003163468 0.9944787374257115 -0.05176327039742289 0.004591178347395502 0.021411774870058395
0.08128386827845 0.004952436342597809 0.0233164971813719 0.9939953584617206 -0.05616769067704709 0.0012814701536653093 0.011740612082904875 -0.0010948516908090085 -0.007382135482830839
 0.9939953584617206 -0.05616769067704709 0.004955354907102862 0.023316184810626306 -0.0010952037879931762 -0.007382125497470679 0.0012658361512809004 0.011742597748274188
 0.0012814701536653093 0.011740612082904875 -0.0010952037879931762 -0.007382125497470679 0.004952139223461533 0.023315426786350846 0.9939953203479261 -0.05616876826910738
 -0.0010948516908090085 -0.007382135482830839 0.0012658361512809004 0.011742597748274188 0.9939953203479261 -0.05616876826910738 0.004955570946040272 0.023315067262980754
0.08753647353064001 0.005335909101444978 0.025236101698612352 0.9934860539669337 -0.060587128563422694 0.001448394605918668 0.012645179435025019 -0.001235071614371037 -0.007954158204779425
 0.9934860539669337 -0.060587128563422694 0.005339292308158608 0.025235742817804906 -0.0012354786429932747 -0.007954143554192616 0.001430259684728305 0.012647535255253705
 0.001448394605918668 0.012645179435025019 -0.0012354786429932747 -0.007954143554192616 0.005335564554905423 0.02523494949357203 0.9934860102288845 -0.06058828784832313
 -0.001235071614371037 -0.007954158204779425 0.001430259684728305 0.012647535255253705 0.9934860102288845 -0.06058828784832313 0.005339543130923707 0.025234535572746998
0.09378907878283 0.005739251580248249 0.027171556455825367 0.9929505383721269 -0.06502038950104899 0.0016262343156349015 0.013549246754209009 -0.0013844591111264876 -0.0085259852875233
 0.9929505383721269 -0.06502038950104899 0.0057431336250936705 0.027171147154633767 -0.0013849248843861414 -0.00852596519302508 0.0016054123365002889 0.01355201638973133
 0.0016262343156349015 0.013549246754209009 -0.0013849248843861414 -0.00852596519302508 0.005738856040851468 0.027170322519227432 0.9929504886576181 -0.06502163024533922
 -0.0013844591111264876 -0.0085259852875233 0.0016054123365002889 0.01355201638973133 0.9929504886576181 -0.06502163024533922 0.005743421807867324 0.027169849365411874
0.100041684035 0.006162788052461764 0.029122533603344526 0.9923884950305731 -0.069467259180327 0.0018150714334417267 0.014452650418973763 -0.0015430987239796695 -0.009097454220239175
 0.9923884950305731 -0.069467259180327 0.006167203132666907 0.029122069826199446 -0.00154362702340619 -0.009097427859058517 0.0017913762244914147 0.014455880146796756
 0.0018150714334417267 0.014452650418973763 -0.00154362702340619 -0.009097427859058517 0.0061623379417663215 0.029121218016580033 0.9923884389958156 -0.0694685811388417
 -0.0015430987239796695 -0.009097454220239175 0.0017913762244914147 0.014455880146796756 0.9923884389958156 -0.0694685811388417 0.006167531244401705 0.02912068058184286
0.1059090909091 0.006578884773447455 0.03096714471318604 0.9918366699498894 -0.07365234876084607 0.002002347736226985 0.015299646318260215 -0.0017004526075729567 -0.009633244291278261
 0.9918366699498894 -0.07365234876084607 0.006583831158825564 0.030966625996345438 -0.001701042992181187 -0.009633211261985939 0.001975786987431001 0.015303352233068586
 0.002002347736226985 0.015299646318260215 -0.001701042992181187 -0.009633211261985939 0.006578380186538155 0.03096575258826833 0.9918366076792067 -0.07365374669226
 -0.0017004526075729567 -0.009633244291278261 0.001975786987431001 0.015303352233068586 0.9918366076792067 -0.07365374669226 0.00658419906835948 0.03096515004978942
0.1062942892872 0.006606840041928552 0.031088705953428015 0.9917996092814557 -0.07392750955629239 0.0020149852562237006 0.01535522306713247 -0.0017110720607545731 -0.009668399741220563
 0.9917996092814557 -0.07392750955629239 0.006611822361716196 0.031088183497315104 -0.001711666636151008 -0.009668366246591797 0.0019882306493254885 0.015358961803490265
 0.0020149852562237006 0.01535522306713247 -0.001711666636151008 -0.009668366246591797 0.006606331767696943 0.03108730880643733 0.9917995465912918 -0.07392891246723537
 -0.0017110720607545731 -0.009668399741220563 0.0019882306493254885 0.015358961803490265 0.9917995465912918 -0.07392891246723537 0.006612192962650052 0.03108670182738396
0.11254689453939999 0.007071726203319563 0.0330697456922459 0.9911835686547864 -0.07840090012589299 0.002226052111283378 0.01625679372366965 -0.0018884576932178933 -0.010238653786150211
 0.9911835686547864 -0.07840090012589299 0.00707730997936156 0.03306916020435333 -0.0018891222625948844 -0.01023861224741614 0.00219605198006907 0.016261093046055615
 0.002226052111283378 0.01625679372366965 -0.0018891222625948844 -0.01023861224741614 0.007071156159552451 0.033068267080200525 0.9911834989836946 -0.07840238371517796
 -0.0018884576932178933 -0.010238653786150211 0.00219605198006907 0.016261093046055615 0.9911834989836946 -0.07840238371517796 0.007077725620309169 0.03306758507462189
0.11879949979160001 0.007557762192737137 0.03506532336423874 0.9905400630691661 -0.08288717894135238 0.00244834524178786 0.017157187915125407 -0.002075331054432009 -0.010808045457064628
 0.9905400630691661 -0.08288717894135238 0.007563981659870395 0.03506467033920196 -0.002076069303839388 -0.01080799491978727 0.0024149135414194742 0.017162102083697294
 0.00244834524178786 0.017157187915125407 -0.002076069303839388 -0.01080799491978727 0.0075571267590304895 0.035063763389278406 0.9905399861017145 -0.08288874292168097
 -0.002075331054432009 -0.010808045457064628 0.0024149135414194742 0.017162102083697294 0.9905399861017145 -0.08288874292168097 0.007564444881202157 0.03506300065242577
0.1250521050438 0.008065260531199091 0.03707510708644297 0.9898687850252934 -0.08738608340182108 0.0026819346930107746 0.018056227767471414 -0.00227176433518051 -0.011376401015154731
 0.9898687850252934 -0.08738608340182108 0.008072149947730364 0.0370743818634909 -0.002272579918541987 -0.011376340481228545 0.002644885501226537 0.01806181374575231
 0.0026819346930107746 0.018056227767471414 -0.002272579918541987 -0.011376340481228545 0.008064556072207067 0.03707346586022631 0.9898687004561718 -0.0873877274711244
 -0.00227176433518051 -0.011376401015154731 0.002644885501226537 0.01806181374575231 0.9898687004561718 -0.0873877274711244 0.008072663278014005 0.03707261646104681
0.131304710296 0.008594530460838152 0.03909876191887447 0.9891694297948037 -0.09189734089787421 0.002926887199713601 0.01895373210155343 -0.00247782637941499 -0.011943543883377929
 0.9891694297948037 -0.09189734089787421 0.008602124114276456 0.03909795967848667 -0.002478722918375894 -0.011943472311159862 0.0028860347593005777 0.018960049576355276
 0.002926887199713601 0.01895373210155343 -0.002478722918375894 -0.011943472311159862 0.008593753326377232 0.03909703956063628 0.9891693373301893 -0.09189906474224824
 -0.00247782637941499 -0.011943543883377929 0.0028860347593005777 0.018960049576355276 0.9891693373301893 -0.09189906474224824 0.008602690069436182 0.039096097337606155
0.1375573155481 0.009027305598621268 0.0408713526436398 0.988560317718685 -0.09615594520525972 0.00315342347653118 0.019823153814274092 -0.0026637859592351376 -0.012482918480562719
 0.988560317718685 -0.09615594520525972 0.009035641866435327 0.040870489303257325 -0.0026647689687568747 -0.012482835752043142 0.003108665148022371 0.019830195867693315
 0.00315342347653118 0.019823153814274092 -0.0026647689687568747 -0.012482835752043142 0.009026453000395366 0.04086954900537417 0.9885602170171168 -0.09615774854907573
 -0.0026637859592351376 -0.012482918480562719 0.003108665148022371 0.019830195867693315 0.9885602170171168 -0.09615774854907573 0.009036262173052841 0.040868529085555064
0.1438099208003 0.009475382912663645 0.04263404921247812 0.9879296168163236 -0.1004032067611225 0.00338911009272976 0.020688749098942142 -0.002857174442192795 -0.013018800761217858
 0.9879296168163236 -0.1004032067611225 0.009484496773711425 0.04263312139104633 -0.002858247838045872 -0.01301870584446606 0.003340275363847984 0.020696570661333017
 0.00338911009272976 0.020688749098942142 -0.002858247838045872 -0.01301870584446606 0.00947445133107656 0.0426321643576276 0.9879295075916745 -0.1004050892783496
 -0.002857174442192795 -0.013018800761217858 0.003340275363847984 0.020696570661333017 0.9879295075916745 -0.1004050892783496 0.009485173785687442 0.042631062039203485
0.1500625260525 0.00993859651594252 0.044386688138711966 0.9872774974484714 -0.10463900371396406 0.003633861411429112 0.021550419271721723 -0.0030579088558297333 -0.013551098098368042
 0.9872774974484714 -0.10463900371396406 0.009948523007431447 0.04438569226898781 -0.003059076545468493 -0.013550989919795711 0.003580780886419866 0.021559077278309986
 0.003633861411429112 0.021550419271721723 -0.003059076545468493 -0.013550989919795711 0.00993758242568448 0.04438472213347701 0.9872773794246824 -0.10464096506563174
 -0.0030579088558297333 -0.013551098098368042 0.003580780886419866 0.021559077278309986 0.9872773794246824 -0.10464096506563174 0.009949259056724722 0.0443835324759824
0.15631513130469998 0.010416779243150903 0.046129110833511094 0.9866041309533004 -0.10886321499296632 0.003887590726614306 0.02240806742208616 -0.003265905152622705 -0.014079719911761426
 0.9866041309533004 -0.10886321499296632 0.010427553462511056 0.04612804315869278 -0.003267171035026878 -0.014079597356349479 0.0038300961458725075 0.022417620789816094
