! Created with skrf 1.8.0 (http://scikit-rf.org).
# GHz S RI R 50.0 
!freq ReS11 ImS11 ReS12 ImS12 ReS13 ImS13
! ReS14 ImS14
! ReS21 ImS21 ReS22 ImS22 ReS23 ImS23
! ReS24 ImS24
! ReS31 ImS31 ReS32 ImS32 ReS33 ImS33
! ReS34 ImS34
! ReS41 ImS41 ReS42 ImS42 ReS43 ImS43
! ReS44 ImS44
!
0.0 0.001830943111625 0.0 0.9981690568799 0.0 7.113153513459e-05 0.0 -7.113153531224e-05 8.711100703857164e-21
 0.9981690568799 0.0 0.001830943111668 0.0 -7.113153531341e-05 8.711100704000447e-21 7.113153513582e-05 0.0
 7.113153513459e-05 0.0 -7.113153531341e-05 8.711100704000447e-21 0.001830943110225 0.0 0.9981690568784 0.0
 -7.113153531224e-05 8.711100703857164e-21 7.113153513582e-05 0.0 0.9981690568784 0.0 0.001830943110211 0.0
0.005 0.001970923196564032 0.0014963763760251821 0.9979917901651898 -0.0038343627625631815 0.00010034423838241223 0.0007870679450023981 -9.732566993946929e-05 -0.0004932689194105939
 0.9979917901651898 -0.0038343627625631815 0.0019709397841820835 0.001496366609564988 -9.732433238423176e-05 -0.0004932678369038377 0.00010024700657206097 0.0007871050133625533
 0.00010034423838241223 0.0007870679450023981 -9.732433238423176e-05 -0.0004932678369038377 0.0019709245480288365 0.0014964428107013062 0.9979917905532484 -0.003834295699922874
 -9.732566993946929e-05 -0.0004932689194105939 0.00010024700657206097 0.0007871050133625533 0.9979917905532484 -0.003834295699922874 0.0019709391939464155 0.0014964342852997875
0.006252605252188 0.002007927488658616 0.0018763184864740235 0.9979445862726398 -0.0047938439836176586 0.00010885740764836616 0.000984195022501795 -0.00010485636675752923 -0.0006172066414037962
 0.9979445862726398 -0.0047938439836176586 0.0020079534188851065 0.0018763060910699477 -0.00010485428587544553 -0.0006172053059904884 0.00010870549407105467 0.0009842431961631097
 0.00010885740764836616 0.000984195022501795 -0.00010485428587544553 -0.0006172053059904884 0.0020079295212842487 0.0018764015104875606 0.9979445867988992 -0.004793760160735904
 -0.00010485636675752923 -0.0006172066414037962 0.00010870549407105467 0.0009842431961631097 0.9979445867988992 -0.004793760160735904 0.0020079524152076846 0.0018763906800807046
0.01250521050438 0.002204424041724388 0.0037915205646062784 0.9976920556921761 -0.00958813997573623 0.00015856083469545945 0.001968591083354618 -0.00014830908044650954 -0.0012372104458279176
 0.9976920556921761 -0.00958813997573623 0.0022045275934434467 0.003791493866956756 -0.0001483008856623653 -0.0012372079712358556 0.0001579550793537598 0.0019687074931138016
 0.00015856083469545945 0.001968591083354618 -0.0001483008856623653 -0.0012372079712358556 0.00220443160339484 0.003791686198195692 0.9976920572377072 -0.009587972546572288
 -0.00014830908044650954 -0.0012372104458279176 0.0001579550793537598 0.0019687074931138016 0.9976920572377072 -0.009587972546572288 0.002204523015050068 0.0037916627907807463
0.01875781575657 0.002420922295687533 0.0057334812298206195 0.9974111086399093 -0.014394483135320898 0.00022036517753738115 0.0029537992139216838 -0.00020163551233439103 -0.0018590672715736122
 0.9974111086399093 -0.014394483135320898 0.0024211550054674914 0.005733438136841831 -0.00020161724617003113 -0.001859063896146345 0.00021900452014483057 0.0029540083801718902
 0.00022036517753738115 0.0029537992139216838 -0.00020161724617003113 -0.001859063896146345 0.002420938871843789 0.005733729100656042 0.9974111116992002 -0.014394232122309846
 -0.00020163551233439103 -0.0018590672715736122 0.00021900452014483057 0.0029540083801718902 0.9974111116992002 -0.014394232122309846 0.0024211442713781826 0.005733691251965593
0.02501042100875 0.002657893470540188 0.007699402889127524 0.9971013730643923 -0.019215123670140215 0.0002943952643574016 0.003939807585009064 -0.0002649753416399462 -0.0024824463247176483
 0.9971013730643923 -0.019215123670140215 0.0026583067891653247 0.007699341139701845 -0.0002649430971735916 -0.0024824423329729943 0.0002919786298584619 0.003940138359442361
 0.0002943952643574016 0.003939807585009064 -0.0002649430971735916 -0.0024824423329729943 0.0026579225364967317 0.007699732531040188 0.9971013781342621 -0.019214789038435823
 -0.0002649753416399462 -0.0024824463247176483 0.0002919786298584619 0.003940138359442361 0.9971013781342621 -0.019214789038435823 0.0026582873023356514 0.00769967827506939
0.03126302626094 0.0029157890395837263 0.009687805884679311 0.9967624603667826 -0.024050976318941097 0.0003807755815129481 0.004926511936612027 -0.0003384632683155303 -0.0031070997264635867
 0.9967624603667826 -0.024050976318941097 0.002916434362687145 0.0096877230523878 -0.00033841318082784854 -0.003107095449467574 0.00037700162288341907 0.004926997528004797
 0.0003807755815129481 0.004926511936612027 -0.00033841318082784854 -0.003107095449467574 0.00291583406525605 0.009688216745028223 0.9967624679534854 -0.024050557968387065
 -0.0003384632683155303 -0.0031070997264635867 0.00037700162288341907 0.004926997528004797 0.9967624679534854 -0.024050557968387065 0.0029164035129160305 0.00968814401746946
0.037515631513130004 0.0031950497879252257 0.011697695205753833 0.9963939748940015 -0.028902453590704768 0.0004796289444815326 0.005913770694516159 -0.0004222299563127761 -0.003732807441378394
 0.9963939748940015 -0.028902453590704768 0.003195978477120804 0.011697588699683147 -0.00042215819908265065 -0.0037328032567978567 0.0004741959399410157 0.005914448710355106
 0.0004796289444815326 0.005913770694516159 -0.00042215819908265065 -0.0037328032567978567 0.00319511423270012 0.0116981866191304 0.9963939855109244 -0.02890195138146106
 -0.0004222299563127761 -0.003732807441378394 0.0004741959399410157 0.005914448710355106 0.9963939855109244 -0.02890195138146106 0.0031959336350303735 0.011698093259041658
0.043768236765320004 0.0034961092781952367 0.013728306880118788 0.9959955178424725 -0.0337697193126615 0.0005910758491414617 0.00690142175714498 -0.0005164023398537893 -0.004359360541465771
 0.9959955178424725 -0.0337697193126615 0.003497372678189345 0.013728173944733127 -0.0005163051216338933 -0.0043593568735394205 0.0005836816659765137 0.006902334249894258
 0.0005910758491414617 0.00690142175714498 -0.0005163051216338933 -0.0043593568735394205 0.0034961965910627136 0.013728878074537494 0.9959955320139701 -0.03376913305819191
 -0.0005164023398537893 -0.004359360541465771 0.0005836816659765137 0.006902334249894258 0.9959955320139701 -0.03376913305819191 0.003497311195377812 0.013728761825101939
0.050020842017509996 0.0038193954323668734 0.015779003191795777 0.9955666892841806 -0.03865279335217566 0.0007152340618391034 0.007889289442109303 -0.0006211037044796231 -0.004986554317739179
 0.9955666892841806 -0.03865279335217566 0.0038210448863601303 0.015778840905994726 -0.0006209772679044502 -0.004986551637202542 0.0007055761557553547 0.007890482957218756
 0.0007152340618391034 0.007889289442109303 -0.0006209772679044502 -0.004986551637202542 0.0038195090495851676 0.015779653284012575 0.9955667075465284 -0.0386521228233906
 -0.0006211037044796231 -0.004986554317739179 0.0007055761557553547 0.007890482957218756 0.9955667075465284 -0.0386521228233906 0.0038209640934054015 0.01577951179263234
0.055454545454549996 0.004118720354067318 0.017576993128526106 0.9951690483560379 -0.04290911622006088 0.000833543636005625 0.008747808202564093 -0.000720736176418657 -0.005531966717438104
 0.9951690483560379 -0.04290911622006088 0.0041207470071172436 0.01757680283438532 -0.0007205813222806984 -0.005531965313309814 0.000821672479028754 0.008749287261155004
 0.000833543636005625 0.008747808202564093 -0.0007205813222806984 -0.005531965313309814 0.004118859609500799 0.01757771098023915 0.9951690706195163 -0.04290837223603642
 -0.000720736176418657 -0.005531966717438104 0.000821672479028754 0.008749287261155004 0.9951690706195163 -0.04290837223603642 0.00412064724728899 0.017577545567619406
0.056273447269699996 0.00416533131380016 0.017849221249346774 0.9951070893984144 -0.04355160299394426 0.0008522183163416975 0.008877187911425726 -0.0007364536660426674 -0.0056141849217396685
 0.9951070893984144 -0.04355160299394426 0.004167418177715738 0.017849026525022613 -0.0007362942865811012 -0.005614183745729661 0.0008399937524425274 0.008878713535775217
 0.0008522183163416975 0.008877187911425726 -0.0007362942865811012 -0.005614183745729661 0.004165474656578601 0.017849949241666812 0.9951071123015297 -0.043550847921634404
 -0.0007364536660426674 -0.0056141849217396685 0.0008399937524425274 0.008878713535775217 0.9951071123015297 -0.043550847921634404 0.004167315382161032 0.01784978005963342
0.06252605252188 0.004534335511956813 0.019938444730597665 0.9946163193127099 -0.048466011148966204 0.0010021400626670585 0.009864923074436241 -0.000862568099350354 -0.006242047538726109
 0.9946163193127099 -0.048466011148966204 0.0045369111682018815 0.019938214310647115 -0.00086237208462714 -0.006242048430702043 0.000987045550985715 0.009866836484653562
 0.0010021400626670585 0.009864923074436241 -0.00086237208462714 -0.006242048430702043 0.004534511983628847 0.019939249514011805 0.9946163474212035 -0.048465171220218595
 -0.000862568099350354 -0.006242047538726109 0.000987045550985715 0.009866836484653562 0.9946163474212035 -0.048465171220218595 0.004536783652138414 0.01993905009540841
0.06877865777407 0.004926822311102026 0.0220461870404431 0.9940939817333799 -0.053395833160410286 0.0011651072461002954 0.010852293739094526 -0.0009995590370157328 -0.006869935322566041
 0.9940939817333799 -0.053395833160410286 0.0049299381817297355 0.022045917496205998 -0.000999322726348003 -0.0068699388921978815 0.0011468391874178935 0.010854655249382648
 0.0011651072461002954 0.010852293739094526 -0.000999322726348003 -0.0068699388921978815 0.00492703529598066 0.022047067387495158 0.9940940156290557 -0.05339490802524962
 -0.0009995590370157328 -0.006869935322566041 0.0011468391874178935 0.010854655249382648 0.9940940156290557 -0.05339490802524962 0.004929783201296277 0.022046835087822483
0.07503126302626001 0.0053432017309984915 0.024171980643010304 0.9935396814537639 -0.0583408474461937 0.0013412241041866567 0.011839092361505422 -0.001147534550021144 -0.007497638742857631
 0.9935396814537639 -0.0583408474461937 0.005346909291020612 0.024171668371065075 -0.0011472543141191097 -0.007497645645925154 0.0013194786438074037 0.011841966970679813
 0.0013412241041866567 0.011839092361505422 -0.0011472543141191097 -0.007497645645925154 0.00534345459163012 0.02417293521033809 0.9935397217374161 -0.05833983671472058
 -0.001147534550021144 -0.007497638742857631 0.0013194786438074037 0.011841966970679813 0.9935397217374161 -0.05833983671472058 0.005346724074291215 0.02417266728433868
0.08128386827845 0.005783879485827615 0.02631536998097924 0.9929530257853081 -0.063300802566026 0.0015305909745751442 0.0128251055674943 -0.0013065986171903459 -0.008124945170790633
 0.9929530257853081 -0.063300802566026 0.005788230275601767 0.026315011199631016 -0.0013062708579497785 -0.00812495610908404 0.0015050640623614025 0.012828563005215607
 0.0015305909745751442 0.0128251055674943 -0.0013062708579497785 -0.00812495610908404 0.005784175559839146 0.02631639731275062 0.9929530730774496 -0.06329970580472666
 -0.0013065986171903459 -0.008124945170790633 0.0015050640623614025 0.012828563005215607 0.9929530730774496 -0.06329970580472666 0.005788012020670545 0.02631609091186397
0.08753647353064001 0.00624925688796704 0.028475906591766808 0.9923336249394711 -0.06827542210425849 0.0017333041107279294 0.013810114531722838 -0.0014768509865056955 -0.008751638618759832
 0.9923336249394711 -0.06827542210425849 0.006254302526974449 0.028475497336644343 -0.001476472137031982 -0.008751654339960693 0.001703691566257846 0.013814229303527588
 0.0017333041107279294 0.013810114531722838 -0.001476472137031982 -0.008751654339960693 0.006249599486548021 0.028477005112324413 0.992333679883216 -0.06827423884328143
 -0.0014768509865056955 -0.008751638618759832 0.001703691566257846 0.013814229303527588 0.992333679883216 -0.06827423884328143 0.006254048400313204 0.02847665728140237
0.09378907878283 0.006739730715785786 0.030653145624892394 0.9916810923768802 -0.07326440816435378 0.0019494555027046818 0.01479389527335207 -0.0016583870314835925 -0.009377499574683095
 0.9916810923768802 -0.07326440816435378 0.006745522914714757 0.03065268174420099 -0.0016579535559685641 -0.009377520872255319 0.001915453084937985 0.014798746704591071
 0.0019494555027046818 0.01479389527335207 -0.0016579535559685641 -0.009377520872255319 0.006740123120471643 0.030654313640238934 0.9916811556391006 -0.07326313789597491
 -0.0016583870314835925 -0.009377499574683095 0.001915453084937985 0.014798746704591071 0.9916811556391006 -0.07326313789597491 0.0067452300499594164 0.030653921313807123
0.100041684035 0.007255693054014437 0.03284664330719775 0.9909950451340367 -0.0782674439288056 0.0021791327021814465 0.015776218893905753 -0.0018512976036036992 -0.01000230490581909
 0.9909950451340367 -0.0782674439288056 0.007262283627859357 0.032846120456315464 -0.0018508059975067318 -0.010002332618888774 0.0021404361825992525 0.015781891172437428
 0.0021791327021814465 0.015776218893905753 -0.0018508059975067318 -0.010002332618888774 0.0072561385144752875 0.03284787901084901 0.9909951174074015 -0.0782660861017412
 -0.0018512976036036992 -0.01000230490581909 0.0021404361825992525 0.015781891172437428 0.9909951174074015 -0.0782660861017412 0.007261949123562097 0.03284743900868057
0.1059090909091 0.007763395494904803 0.034919399280707225 0.9903204435972603 -0.08297474326740101 0.0024070359114242413 0.01669649214759618 -0.00204274555325923 -0.010587456375866375
 0.9903204435972603 -0.08297474326740101 0.0077707824882007875 0.03491881696401876 -0.0020421962382939796 -0.010587490912923294 0.0023636578614030825 0.016703015639870852
 0.0024070359114242413 0.01669649214759618 -0.0020421962382939796 -0.010587490912923294 0.007763893666914547 0.03492069675056993 0.990320524980829 -0.08297330274469829
 -0.00204274555325923 -0.010587456375866375 0.0023636578614030825 0.016703015639870852 0.990320524980829 -0.08297330274469829 0.007770406238353593 0.034920209010709136
0.1062942892872 0.007797531113631061 0.03505595505471145 0.9902751041331854 -0.08328419558652798 0.0024224186502718862 0.01675685177943811 -0.002055668882516042 -0.01062582781016476
 0.9902751041331854 -0.08328419558652798 0.007804971994511633 0.0350553686900458 -0.0020551156725717263 -0.01062586282337661 0.0023787238898366307 0.016763433996820638
 0.0024224186502718862 0.01675685177943811 -0.0020551156725717263 -0.01062586282337661 0.007798032844455782 0.035057256518428795 0.9902751861375829 -0.08328274961540139
 -0.002055668882516042 -0.01062582781016476 0.0023787238898366307 0.016763433996820638 0.9902751861375829 -0.08328274961540139 0.00780459291272713 0.03505676554044928
0.11254689453939999 0.00836562703816961 0.03728063403761302 0.9895208944811298 -0.08831431382082176 0.0026793915083684738 0.017735555779393085 -0.002271582224435175 -0.011247837802991451
 0.9895208944811298 -0.08831431382082176 0.008373970287931189 0.03727997941002574 -0.0022709639689057048 -0.011247881046404952 0.002630394537050452 0.017743141970764497
 0.0026793915083684738 0.017735555779393085 -0.0022709639689057048 -0.011247881046404952 0.008366188216993158 0.037281999217167315 0.9895209869661785 -0.0883127790808977
 -0.002271582224435175 -0.011247837802991451 0.002630394537050452 0.017743141970764497 0.9895209869661785 -0.0883127790808977 0.00837354365260557 0.03728145383788967
0.11879949979160001 0.00896035769726909 0.03952023008145401 0.988732045759255 -0.09335743497607434 0.0029501244909065833 0.018712088369947855 -0.0024991140099063125 -0.011868100731267229
 0.988732045759255 -0.09335743497607434 0.008969655520553567 0.03951950222887869 -0.00249842729864701 -0.011868153180203022 0.0028955215904664733 0.018720777552232643
 0.0029501244909065833 0.018712088369947855 -0.00249842729864701 -0.011868153180203022 0.00896098146104225 0.03952165681361017 0.9887321495054425 -0.09335581080669676
 -0.0024991140099063125 -0.011868100731267229 0.0028955215904664733 0.018720777552232643 0.9887321495054425 -0.09335581080669676 0.008969178315506683 0.03952105347567346
0.1250521050438 0.009582094472257217 0.04177428881391721 0.9879081923066881 -0.09841318199328675 0.0032346857007058776 0.019686202807630854 -0.0027383354910803697 -0.012486378809885
 0.9879081923066881 -0.09841318199328675 0.009592399228943076 0.041773482553432675 -0.0027375769458358357 -0.012486441484804338 0.0031741734896764337 0.01969609901622546
 0.0032346857007058776 0.019686202807630854 -0.0027375769458358357 -0.012486441484804338 0.009582783915329952 0.04177577482126224 0.9879083081276925 -0.09841146769373114
 -0.0027383354910803697 -0.012486378809885 0.0031741734896764337 0.01969609901622546 0.9879083081276925 -0.09841146769373114 0.009591868396542465 0.04177510982852766
0.131304710296 0.010231203034203025 0.044042351001108815 0.9870489734988523 -0.10348116517125053 0.0035331379662416847 0.020657648277359483 -0.0029893126392429433 -0.013102430675983344
 0.9870489734988523 -0.10348116517125053 0.01024256725201836 0.04404146092027318 -0.002988478913847673 -0.013102504642313904 0.0034664134874631183 0.020668860601095268
 0.0035331379662416847 0.020657648277359483 -0.002988478913847673 -0.013102504642313904 0.010231961204946375 0.04404389388615563 0.987049102243342 -0.10347936000754737
 -0.0029893126392429433 -0.013102430675983344 0.0034664134874631183 0.020668860601095268 0.987049102243342 -0.10347936000754737 0.01024197969145361 0.04404316339593841
0.1375573155481 0.010769194193091823 0.04602912468719867 0.9862929570903527 -0.10826596782718018 0.0038110749305322327 0.021598077458115914 -0.003217724060124542 -0.013687884395613734
 0.9862929570903527 -0.10826596782718018 0.010781672947940208 0.04602816212592367 -0.0032168099928375194 -0.013687969870193346 0.0037379867352089783 0.021610600570079807
 0.0038110749305322327 0.021598077458115914 -0.0032168099928375194 -0.013687969870193346 0.010770023388733597 0.04603072262099619 0.9862930993879392 -0.10826407133136161
 -0.003217724060124542 -0.013687884395613734 0.0037379867352089783 0.021610600570079807 0.9862930993879392 -0.10826407133136161 0.010781026686350375 0.046029938794155685
0.1438099208003 0.011326385928123435 0.04800350876017377 0.9855097717450519 -0.11303667875864219 0.004100167690489467 0.022533426447599904 -0.0034551774153962905 -0.014268718572062291
 0.9855097717450519 -0.11303667875864219 0.011340032307425694 0.048002469156062065 -0.0034541793800334326 -0.014268816621879388 0.004020440708404947 0.022547361159330554
 0.004100167690489467 0.022533426447599904 -0.0034541793800334326 -0.014268816621879388 0.011327288996874314 0.04800515928600943 0.9855099284500435 -0.11303469020813105
 -0.0034551774153962905 -0.014268718572062291 0.004020440708404947 0.022547361159330554 0.9855099284500435 -0.11303469020813105 0.011339324383836231 0.0480043190933434
0.1500625260525 0.011902550664968403 0.04996528125795159 0.9846996502700958 -0.11779312084147002 0.004400295562741775 0.02346355886920455 -0.0037015562119209152 -0.014844807546092081
 0.9846996502700958 -0.11779312084147002 0.011917417915529747 0.04996415976664458 -0.0037004705915924716 -0.014844919281481623 0.004313656862814013 0.023479009655683943
 0.004400295562741775 0.02346355886920455 -0.0037004705915924716 -0.014844919281481623 0.011903530402140513 0.049966981826301334 0.9846998222661678 -0.11779103948676597
 -0.0037015562119209152 -0.014844807546092081 0.004313656862814013 0.023479009655683943 0.9846998222661678 -0.11779103948676597 0.011916645339446221 0.04996608201676784
0.15631513130469998 0.012497458838507869 0.051914226878399646 0.9838628270717396 -0.12253511894135329 0.004711336206579414 0.0243883411484093 -0.003956742322066499 -0.015416028732901698
 0.9838628270717396 -0.12253511894135329 0.012513600370254278 0.05191301836533279 -0.0039555655092109974 -0.01541615530739371 0.004617515036331996 0.024405416100824525
