! Created with skrf 1.8.0 (http://scikit-rf.org).
# GHz S RI R 50.0 
!freq ReS11 ImS11 ReS12 ImS12 ReS13 ImS13
! ReS14 ImS14
! ReS21 ImS21 ReS22 ImS22 ReS23 ImS23
! ReS24 ImS24
! ReS31 ImS31 ReS32 ImS32 ReS33 ImS33
! ReS34 ImS34
! ReS41 ImS41 ReS42 ImS42 ReS43 ImS43
! ReS44 ImS44
!
0.0 0.001617263142576 0.0 0.9983827368574 0.0 6.266321897512e-05 0.0 -6.266321888563e-05 7.674031043255677e-21
 0.9983827368574 0.0 0.001617263142572 0.0 -6.266321888561e-05 7.674031043253226e-21 6.266321897375e-05 0.0
 6.266321897512e-05 0.0 -6.266321888561e-05 7.674031043253226e-21 0.001617263126942 0.0 0.9983827368418 0.0
 -6.266321888563e-05 7.674031043255677e-21 6.266321897375e-05 0.0 0.9983827368418 0.0 0.001617263126942 0.0
0.005 0.0017402883274543971 0.0013199418121645984 0.9982270332352157 -0.003387624118644436 8.845558770322196e-05 0.0007082005293348589 -8.57051289170897e-05 -0.00044139370573093213
 0.9982270332352157 -0.003387624118644436 0.0017403192624582296 0.0013199238116142996 -8.570493168164853e-05 -0.00044139362741620763 8.826007915248297e-05 0.0007082749412926561
 8.845558770322196e-05 0.0007082005293348589 -8.570493168164853e-05 -0.00044139362741620763 0.0017402877044240541 0.001319874955621729 0.9982270328695029 -0.0033876911881315216
 -8.57051289170897e-05 -0.00044139370573093213 8.826007915248297e-05 0.0007082749412926561 0.9982270328695029 -0.0033876911881315216 0.001740319164845126 0.0013198565405364631
0.006252605252188 0.0017726175308843222 0.0016551238250692598 0.9981858422036539 -0.004235349139937576 9.58838714864943e-05 0.00088557956540269 -9.224422451321185e-05 -0.0005523126649331298
 0.9981858422036539 -0.004235349139937576 0.0017726658875441966 0.0016551009773484392 -9.224391701356596e-05 -0.0005523125699551632 9.557840779731962e-05 0.0008856762165159133
 9.58838714864943e-05 0.00088557956540269 -9.224391701356596e-05 -0.0005523125699551632 0.0017726166293089752 0.001655040276517074 0.9981858417045677 -0.004235432966825197
 -9.224422451321185e-05 -0.0005523126649331298 9.557840779731962e-05 0.0008856762165159133 0.9981858417045677 -0.004235432966825197 0.0017726658082659146 0.0016550168970621009
0.01250521050438 0.001943175140941163 0.003344926254592691 0.9979670160459857 -0.008471441216441864 0.0001387961126657055 0.0017714169674783165 -0.00012952592097449043 -0.0011072736262542032
 0.9979670160459857 -0.008471441216441864 0.0019433682241061269 0.0033448770690062994 -0.0001295247020766532 -0.00110727346925811 0.00013757798856536032 0.0017716496132982385
 0.0001387961126657055 0.0017714169674783165 -0.0001295247020766532 -0.00110727346925811 0.0019431721020010885 0.003344759549097131 0.9979670146172649 -0.008471608639806798
 -0.00012952592097449043 -0.0011072736262542032 0.00013757798856536032 0.0017716496132982385 0.9979670146172649 -0.008471608639806798 0.0019433684847338514 0.003344709156409224
0.01875781575657 0.002129323379287892 0.005058739739569858 0.9977259759459507 -0.012718572335906076 0.00019149985222577726 0.002658109905694691 -0.0001746265823253167 -0.0016640486107638672
 0.9977259759459507 -0.012718572335906076 0.0021297572365595995 0.005058660486398984 -0.00017462385433553274 -0.001664048433988277 0.0001887634591349733 0.0026585258583185444
 0.00019149985222577726 0.002658109905694691 -0.00017462385433553274 -0.001664048433988277 0.002129316966298419 0.005058490177316204 0.9977259731546335 -0.0127188233187332
 -0.0001746265823253167 -0.0016640486107638672 0.0001887634591349733 0.0026585258583185444 0.9977259731546335 -0.0127188233187332 0.0021297582697614517 0.0050584088729507875
0.02501042100875 0.002331437293569225 0.006794141107706527 0.9974624279523062 -0.016978781937221486 0.0002540971257548306 0.0035456840750425086 -0.00022766024293405774 -0.0022223686618367097
 0.9974624279523062 -0.016978781937221486 0.0023322077787623153 0.006794027851954976 -0.00022765541221207134 -0.0022223685171921526 0.00024923663527449887 0.003546338357113121
 0.0002540971257548306 0.0035456840750425086 -0.00022765541221207134 -0.0022223685171921526 0.002331426267957091 0.006793809049353714 0.9974624233598615 -0.016979116484057907
 -0.00022766024293405774 -0.0022223686618367097 0.00024923663527449887 0.003546338357113121 0.9974624233598615 -0.016979116484057907 0.0023322100298160987 0.006793692704751859
0.03126302626094 0.0025498763813193493 0.008549873535846452 0.9971760636752884 -0.02125293080621893 0.0003266905127631138 0.0044340810814027755 -0.00028873745526442106 -0.0027820421007977896
 0.9971760636752884 -0.02125293080621893 0.002551079210610639 0.008549722144535438 -0.00028872993155890477 -0.002782042049983934 0.0003190993239769347 0.004435036472727279
 0.0003266905127631138 0.0044340810814027755 -0.00028872993155890477 -0.002782042049983934 0.0025498595083834406 0.008549459379857878 0.9971760568408502 -0.02125334898635681
 -0.00028873745526442106 -0.0027820421007977896 0.0003190993239769347 0.004435036472727279 0.9971760568408502 -0.02125334898635681 0.0025510831431136355 0.008549303643198974
0.037515631513130004 0.0027849921622484872 0.010325110091159467 0.9968665681254294 -0.025541437475128815 0.0004093819729538394 0.005323209122224735 -0.00035796610496244887 -0.003342903844343937
 0.9968665681254294 -0.025541437475128815 0.00278672295310936 0.010324916236851462 -0.00035795530119952097 -0.0033429039589324442 0.00039845246969583646 0.005324536237769385
 0.0004093819729538394 0.005323209122224735 -0.00035795530119952097 -0.0033429039589324442 0.0027849682087516237 0.010324614314163955 0.9968665586008609 -0.025541939382715526
 -0.00035796610496244887 -0.003342903844343937 0.00039845246969583646 0.005324536237769385 0.9968665586008609 -0.025541939382715526 0.0027867290455567354 0.010324414613494015
0.043768236765320004 0.003037131096233882 0.012119229643814278 0.9965336229033175 -0.02984450223976718 0.0005022722986060988 0.0062129584174075245 -0.0004354516971148591 -0.003904799981347496
 0.9965336229033175 -0.02984450223976718 0.003039485398415838 0.012118988806707852 -0.0004354370292645438 -0.0039048003428424198 0.00048739573924467703 0.006214735795093866
 0.0005022722986060988 0.0062129584174075245 -0.0004354370292645438 -0.0039048003428424198 0.0030370988341711534 0.012118652783723137 0.9965336102347634 -0.029845088011178095
 -0.0004354516971148591 -0.003904799981347496 0.00048739573924467703 0.006214735795093866 0.9965336102347634 -0.029845088011178095 0.0030394941479319894 0.01211840432865925
0.050020842017509996 0.003306635933951145 0.013931724238273716 0.9961769078281888 -0.03416219971645785 0.0006054607855810018 0.007103207578680896 -0.0005212974524105223 -0.004467581416582417
 0.9961769078281888 -0.03416219971645785 0.0033097092577754604 0.013931431707237636 -0.0005212783395349423 -0.004467582116488789 0.0005860272639989221 0.007105521771079722
 0.0006054607855810018 0.007103207578680896 -0.0005212783395349423 -0.004467582116488789 0.003306594140852797 0.013931066906070167 0.996176891553154 -0.03416286951897035
 -0.0005212974524105223 -0.004467581416582417 0.0005860272639989221 0.007105521771079722 0.996176891553154 -0.03416286951897035 0.0033097211791804047 0.013930764688412754
0.055454545454549996 0.0035552109604180624 0.01552141663559776 0.9958473582994941 -0.03792629030922639 0.0007035738952924955 0.007877166345444366 -0.000602767949573423 -0.0049572600267447555
 0.9958473582994941 -0.03792629030922639 0.0035589866908254768 0.015521075206453605 -0.0006027445044912746 -0.004957261102857769 0.0006796840144868819 0.00788002363219219
 0.0007035738952924955 0.007877166345444366 -0.0006027445044912746 -0.004957261102857769 0.003555159897744015 0.015520689923363614 0.9958473385075791 -0.03792703329764218
 -0.000602767949573423 -0.0049572600267447555 0.0006796840144868819 0.00788002363219219 0.9958473385075791 -0.03792703329764218 0.0035590018017041276 0.015520336747848938
0.056273447269699996 0.0035938464018164134 0.015762153636002533 0.9957961019057513 -0.038494524229868904 0.0007190450001903591 0.007993826740585705 -0.0006156043200097841 -0.005031100758021631
 0.9957961019057513 -0.038494524229868904 0.0035977342441576767 0.01576180450871074 -0.0006155801843191189 -0.005031101897895654 0.0006944434487505489 0.007996772408289108
 0.0007190450001903591 0.007993826740585705 -0.0006155801843191189 -0.005031101897895654 0.003593793862774513 0.015761416516865533 0.9957960815524297 -0.038495278260819575
 -0.0006156043200097841 -0.005031100758021631 0.0006944434487505489 0.007996772408289108 0.9957960815524297 -0.038495278260819575 0.0035977498713201587 0.015761055310449648
0.06252605252188 0.0038990995608842445 0.01761012033594743 0.9953908839734228 -0.04284141472670691 0.0008431205924942778 0.008884679290168718 -0.000718470948588615 -0.005595210610842285
 0.9953908839734228 -0.04284141472670691 0.0039038974296378517 0.017609709518221054 -0.0007184412154767399 -0.005595212302346102 0.0008127388136979083 0.008888359295637012
 0.0008431205924942778 0.008884679290168718 -0.0007184412154767399 -0.005595212302346102 0.0038990350700568318 0.017609304187272728 0.9953908590596053 -0.04284225321592681
 -0.000718470948588615 -0.005595210610842285 0.0008127388136979083 0.008888359295637012 0.9953908590596053 -0.04284225321592681 0.003903917316753546 0.01760887854684672
0.06877865777407 0.004222729988117654 0.019475254676082448 0.9949609331742575 -0.04720276961353919 0.000977781138472651 0.009775622901177403 -0.0008299936308695512 -0.0061597625725790936
 0.9949609331742575 -0.04720276961353919 0.004228533426713442 0.01947477688051691 -0.0008299577290936461 -0.006159764937528014 0.0009410058565932394 0.0097801484025135
 0.000977781138472651 0.009775622901177403 -0.0008299577290936461 -0.006159764937528014 0.004222652350729819 0.019474360326505673 0.9949609032062467 -0.04720369282453266
 -0.0008299936308695512 -0.0061597625725790936 0.0009410058565932394 0.0097801484025135 0.9949609032062467 -0.04720369282453266 0.004228558148948231 0.019473864586028303
0.07503126302626001 0.004565069850803572 0.02135720538267604 0.9945059293274247 -0.051578456152694796 0.0011231179965736462 0.010666510196978202 -0.0009502662345404391 -0.006724606605502495
 0.9945059293274247 -0.051578456152694796 0.004571974462008313 0.021356655126342168 -0.0009502235963303057 -0.006724609775909929 0.0010793349243733619 0.010672000741149117
 0.0011231179965736462 0.010666510196978202 -0.0009502235963303057 -0.006724609775909929 0.004564977884794036 0.021356233736419063 0.9945058937989942 -0.0515794643785268
 -0.0009502662345404391 -0.006724606605502495 0.0010793349243733619 0.010672000741149117 0.9945058937989942 -0.0515794643785268 0.004572004616566424 0.021355662006449942
0.08128386827845 0.004926448915578511 0.023255633303916428 0.9940255532377739 -0.0559683166799806 0.0012792201744052678 0.011557189202699818 -0.0010793801229489219 -0.00728959062585734
 0.9940255532377739 -0.0559683166799806 0.004934550385064619 0.023255004905372263 -0.0010793301841452595 -0.007289594743971161 0.0012278140917466262 0.011563772817963437
 0.0012792201744052678 0.011557189202699818 -0.0010793301841452595 -0.007289594743971161 0.004926341453160192 0.02325458533933634 0.9940255116284963 -0.055969410244800157
 -0.0010793801229489219 -0.00728959062585734 0.0012278140917466262 0.011563772817963437 0.9940255116284963 -0.055969410244800157 0.004934586592080586 0.023253931503665712
0.08753647353064001 0.005307194512197448 0.02517020706105958 0.9935194869642987 -0.0603721729115688 0.0014461742023193806 0.0124475036635577 -0.0012174240685872743 -0.007854560233362123
 0.9935194869642987 -0.0603721729115688 0.005316588632425108 0.025169494636454192 -0.0012173662688151805 -0.00785456545170338 0.001386529044457054 0.012455316950780547
 0.0014461742023193806 0.0124475036635577 -0.0012173662688151805 -0.00785456545170338 0.00530707040204521 0.02516908383035852 0.9935194387387998 -0.06037335217105817
 -0.0012174240685872743 -0.007854560233362123 0.001386529044457054 0.012455316950780547 0.9935194387387998 -0.06037335217105817 0.005316631536145706 0.02516834154185506
0.09378907878283 0.005707631467101813 0.027100599959366693 0.9929874140623844 -0.06478982899825757 0.0016240640108765327 0.013337293284389115 -0.0013644841623379736 -0.008419358525811025
 0.9929874140623844 -0.06478982899825757 0.005718414160954698 0.027099797417782092 -0.0013644179451862512 -0.008419365007190914 0.0015555629645974001 0.013346481507221213
 0.0016240640108765327 0.013337293284389115 -0.0013644179451862512 -0.008419365007190914 0.005707489576092081 0.027099402590670472 0.9929873586688538 -0.06479109433742593
 -0.0013644841623379736 -0.008419358525811025 0.0015555629645974001 0.013346481507221213 0.9929873586688538 -0.06479109433742593 0.005718464430641968 0.027098565266276017
0.100041684035 0.006128082015192379 0.029046487717560927 0.9924290198074628 -0.0692210737684635 0.0018129708117266912 0.01422639391276503 -0.0015206437186242843 -0.008983825976965594
 0.9924290198074628 -0.0692210737684635 0.006140349359791227 0.02904558875539704 -0.0015205685318155709 -0.008983833894524344 0.0017349964186364937 0.014237111086278467
 0.0018129708117266912 0.01422639391276503 -0.0015205685318155709 -0.008983833894524344 0.006127921230020536 0.029045217412572467 0.9924289566764896 -0.0692224256039923
 -0.0015206437186242843 -0.008983825976965594 0.0017349964186364937 0.014237111086278467 0.9924289566764896 -0.0692224256039923 0.006140407690532528 0.02904427822742492
0.1059090909091 0.00654111708166727 0.03088630116342065 0.9918808083839965 -0.07339148566063722 0.0020003294950313973 0.015059944444094564 -0.0016755304552632853 -0.009513073431870073
 0.9918808083839965 -0.07339148566063722 0.006554865152935115 0.0308853057926197 -0.0016754463529116347 -0.009513082863810089 0.0019129033205949318 0.015072244323015517
 0.0020003294950313973 0.015059944444094564 -0.0016754463529116347 -0.009513082863810089 0.006540937573608459 0.030884963575288783 0.9918807374579117 -0.07339291906949746
 -0.0016755304552632853 -0.009513073431870073 0.0019129033205949318 0.015072244323015517 0.9918807374579117 -0.07339291906949746 0.006554931704916072 0.030883922376203504
0.1062942892872 0.006568865694271594 0.031007546770547883 0.9918439914055297 -0.07366568240559515 0.002012972980168658 0.015114637692044589 -0.0016859831784961908 -0.009547800351150914
 0.9918439914055297 -0.07366568240559515 0.006582713944835628 0.031006544865086843 -0.0016858984740319354 -0.009547809888372151 0.00192490724615654 0.015127046669975363
 0.002012972980168658 0.015114637692044589 -0.0016858984740319354 -0.009547809888372151 0.006568684923824947 0.031006204806320513 0.9918439199491966 -0.0736671211838806
 -0.0016859831784961908 -0.009547800351150914 0.00192490724615654 0.015127046669975363 0.9918439199491966 -0.0736671211838806 0.006582781059298484 0.031005156687026986
0.11254689453939999 0.00703029922862317 0.03298345297271968 0.9912320181957297 -0.07812341773277177 0.00222414593997271 0.016001853184480393 -0.0018605800101983896 -0.01011111665481251
 0.9912320181957297 -0.07812341773277177 0.007045824842442684 0.032982341374736615 -0.0018604852446329244 -0.010111128005529353 0.0021253704499630565 0.0160161257446988
 0.00222414593997271 0.016001853184480393 -0.0018604852446329244 -0.010111128005529353 0.007030097405702457 0.0329820407005861 0.9912319378057314 -0.07812494393063922
 -0.0018605800101983896 -0.01011111665481251 0.0021253704499630565 0.0160161257446988 0.9912319378057314 -0.07812494393063922 0.007045901491293816 0.032980876317628034
0.11879949979160001 0.007512696401437845 0.03497388059661074 0.9905927918448315 -0.08259403121020087 0.00244656204905708 0.01688786548165955 -0.002044508608558797 -0.010673607107816863
 0.9905927918448315 -0.08259403121020087 0.007529996062269474 0.03497265232200058 -0.002044403243173295 -0.010673620476204165 0.0023364580869737607 0.016904182409907646
 0.00244656204905708 0.01688786548165955 -0.002044403243173295 -0.010673620476204165 0.0075124724846549 0.03497239944337537 0.9905927018917489 -0.08259564533346472
 -0.002044508608558797 -0.010673607107816863 0.0023364580869737607 0.016904182409907646 0.9905927018917489 -0.08259564533346472 0.007530083025268649 0.03497111120246893
0.1250521050438 0.008016367920599394 0.03697850154115571 0.9899260065383743 -0.08707726373139435 0.002680290486437198 0.017772496303090104 -0.0022378401933441055 -0.011235101133743817
 0.9899260065383743 -0.08707726373139435 0.00803553856259798 0.036977149361674476 -0.002237723694269049 -0.011235116734373666 0.0025582391596389825 0.017791047474745508
 0.002680290486437198 0.017772496303090104 -0.002237723694269049 -0.011235116734373666 0.00801612089629709 0.036976953008042844 0.9899259063698951 -0.0870789663153994
 -0.0022378401933441055 -0.011235101133743817 0.0025582391596389825 0.017791047474745508 0.9899259063698951 -0.0870789663153994 0.0080356366499479 0.036975533040669015
0.131304710296 0.008541621277463659 0.03899698471087919 0.9892313591667359 -0.0915728462567588 0.0029253971400423173 0.018655564089074754 -0.002440642706618001 -0.01179542536321475
 0.9892313591667359 -0.0915728462567588 0.008562760109757055 0.0389955011438106 -0.002440514545112926 -0.011795443420996003 0.0027907795081201126 0.018676548548992113
 0.0029253971400423173 0.018655564089074754 -0.002440514545112926 -0.011795443420996003 0.008541350161978701 0.03899537037292398 0.989231248106895 -0.09157463786650719
 -0.002440642706618001 -0.01179542536321475 0.0027907795081201126 0.018676548548992113 0.989231248106895 -0.09157463786650719 0.008562870163152476 0.038993810525803696
0.1375573155481 0.00897072747534736 0.040765396864829585 0.9886266297276727 -0.0958167818905949 0.003152420155250899 0.019510773991059712 -0.0026236161004454745 -0.012328196602867995
 0.9886266297276727 -0.0958167818905949 0.008993940010846765 0.04076380649967086 -0.002623475698293206 -0.012328217153852739 0.003004928245809092 0.019534167837713272
 0.003152420155250899 0.019510773991059712 -0.002623475698293206 -0.012328217153852739 0.008970432102803638 0.04076371769202962 0.9886265072606409 -0.0958186628857329
 -0.0026236161004454745 -0.012328196602867995 0.003004928245809092 0.019534167837713272 0.9886265072606409 -0.0958186628857329 0.008994061775430717 0.04076204279733535
0.1438099208003 0.009414995221089222 0.0425239936910239 0.9880004767869192 -0.10004945978048704 0.0033886236659282113 0.02036214912421793 -0.002813896007459315 -0.012857531803784234
 0.9880004767869192 -0.10004945978048704 0.009440380313599998 0.04252229084202364 -0.0028137428340833477 -0.012857555064299099 0.003227694609800171 0.02038813501409248
 0.0033886236659282113 0.02036214912421793 -0.0028137428340833477 -0.012857555064299099 0.0094146747994876 0.04252225127689176 0.9880003422347114 -0.10005143071974397
 -0.002813896007459315 -0.012857531803784234 0.003227694609800171 0.02038813501409248 0.9880003422347114 -0.10005143071974397 0.00944051447793952 0.042520455062274316
0.1500625260525 0.009874260325750889 0.04427261364324423 0.9873530688650541 -0.10427075982093509 0.003633922245939304 0.021209589915537112 -0.003011400931510278 -0.013383340034159731
 0.9873530688650541 -0.10427075982093509 0.009901917138552917 0.04427079224345476 -0.003011234460532523 -0.013383366228707217 0.003458996715081655 0.021238357182834094
 0.003633922245939304 0.021209589915537112 -0.003011234460532523 -0.013383366228707217 0.009873914102132042 0.04427080964381113 0.987352921529397 -0.10427282128162323
 -0.003011400931510278 -0.013383340034159731 0.003458996715081655 0.021238357182834094 0.987352921529397 -0.10427282128162323 0.009902064408624124 0.04426888543654501
0.15631513130469998 0.010348357341798151 0.04601110002846591 0.9866845754406839 -0.10848056265074954 0.003888229397996402 0.02205299855839649 -0.0032160483219373145 -0.013905532368408574
 0.9866845754406839 -0.10848056265074954 0.010378385356014135 0.0460091536166808 -0.003215868031383115 -0.01390556172955715 0.0036987516617144377 0.022084743142943137
