! Created with skrf 1.8.0 (http://scikit-rf.org).
# GHz S RI R 50.0 
!freq ReS11 ImS11 ReS12 ImS12 ReS13 ImS13
! ReS14 ImS14
! ReS21 ImS21 ReS22 ImS22 ReS23 ImS23
! ReS24 ImS24
! ReS31 ImS31 ReS32 ImS32 ReS33 ImS33
! ReS34 ImS34
! ReS41 ImS41 ReS42 ImS42 ReS43 ImS43
! ReS44 ImS44
!
0.0 0.001419987050565 0.0 0.9985800129494 0.0 5.477822397025e-05 0.0 -5.477822347609e-05 6.708397604297202e-21
 0.9985800129494 0.0 0.001419987050576 0.0 -5.47782234764e-05 6.708397604335166e-21 5.47782239703e-05 0.0
 5.477822397025e-05 0.0 -5.47782234764e-05 6.708397604335166e-21 0.001419987047109 0.0 0.9985800129459 0.0
 -5.477822347609e-05 6.708397604297202e-21 5.47782239703e-05 0.0 0.9985800129459 0.0 0.001419987047111 0.0
0.005 0.001527505198961949 0.0011579050874667143 0.9984440321523615 -0.0029751508882549333 7.714193623147453e-05 0.0006275625449424197 -7.481904250254844e-05 -0.0003897778932570862
 0.9984440321523615 -0.0029751508882549333 0.0015275065088736564 0.0011579042532974444 -7.482062963531515e-05 -0.0003897790253991388 7.713608565332417e-05 0.0006275648397539566
 7.714193623147453e-05 0.0006275625449424197 -7.482062963531515e-05 -0.0003897790253991388 0.0015275051641963067 0.0011579723147913566 0.9984440324983815 -0.002975083829208396
 -7.481904250254844e-05 -0.0003897778932570862 7.713608565332417e-05 0.0006275648397539566 0.9984440324983815 -0.002975083829208396 0.0015275072351881303 0.0011579711452222884
0.006252605252188 0.001555607458048176 0.0014519685205572563 0.9984082808527417 -0.003719683239081225 8.34732235675054e-05 0.000784752565455198 -8.043440720000288e-05 -0.0004877376347319268
 0.9984082808527417 -0.003719683239081225 0.00155560950609238 0.0014519674324766794 -8.043687762067934e-05 -0.00048773902907041475 8.346408330726503e-05 0.0007847555334102872
 8.34732235675054e-05 0.000784752565455198 -8.043687762067934e-05 -0.00048773902907041475 0.0015556073317583557 0.0014520525370133668 0.9984082813211927 -0.003719599426419149
 -8.043440720000288e-05 -0.0004877376347319268 8.346408330726503e-05 0.0007847555334102872 0.9984082813211927 -0.003719599426419149 0.001555610568637995 0.0014520510435068997
0.01250521050438 0.0017029820600610649 0.002934644688676976 0.9982196218348663 -0.0074402880267799565 0.00011947587208356094 0.0015698321887324005 -0.00011206503298853328 -0.0009779261468336722
 0.9982196218348663 -0.0074402880267799565 0.0017029902466040988 0.0029346420527338337 -0.00011207477761732354 -0.00097792870743 0.00011943944482812118 0.0015698391994562223
 0.00011947587208356094 0.0015698321887324005 -0.00011207477761732354 -0.00097792870743 0.0017029810021867984 0.002934812420304568 0.998219623143477 -0.007440120640567929
 -0.00011206503298853328 -0.0009779261468336722 0.00011943944482812118 0.0015698391994562223 0.998219623143477 -0.007440120640567929 0.0017029939192548583 0.0029348091095567
0.01875781575657 0.0018624131479058343 0.004438692457335908 0.9980138153473527 -0.011170894564601103 0.00016286621108577344 0.0023558045852096476 -0.0001497638228557141 -0.0014698397775361276
 0.9980138153473527 -0.011170894564601103 0.001862431561672371 0.004438687784813045 -0.0001497855664415305 -0.0014698432326076868 0.00016278443236174544 0.0023558169240334775
 0.00016286621108577344 0.0023558045852096476 -0.0001497855664415305 -0.0014698432326076868 0.0018624103641591188 0.004438943736576481 0.998013817864848 -0.011170643719123793
 -0.0001497638228557141 -0.0014698397775361276 0.00016278443236174544 0.0023558169240334775 0.998013817864848 -0.011170643719123793 0.0018624393749513744 0.004438938249205153
0.02501042100875 0.0020341951541301188 0.005962019047570611 0.9977906327193096 -0.014913331371520053 0.00021372544716025658 0.0031427222885054558 -0.00019362167062790075 -0.0019632612327175492
 0.9977906327193096 -0.014913331371520053 0.002034227885569658 0.005962011820640135 -0.00019366008594015081 -0.001963265262210655 0.00021358027470741076 0.0031427414396513493
 0.00021372544716025658 0.0031427222885054558 -0.00019366008594015081 -0.001963265262210655 0.002034189860006115 0.005962353762454106 0.9977906368122965 -0.01491299713321951
 -0.00019362167062790075 -0.0019632612327175492 0.00021358027470741076 0.0031427414396513493 0.9977906368122965 -0.01491299713321951 0.0020342413565922267 0.005962345705308251
0.03126302626094 0.0022186102375120016 0.007503557414439001 0.9975498329293045 -0.018668392785335587 0.00027213541255970706 0.003930562989692131 -0.00024372705010770705 -0.002458043342765482
 0.9975498329293045 -0.018668392785335587 0.002218661379581917 0.007503547085850103 -0.00024378676690677028 -0.0024580475777041776 0.000271908807313101 0.003930590636470455
 0.00027213541255970706 0.003930562989692131 -0.00024378676690677028 -0.0024580475777041776 0.002218601660983509 0.007503975461796861 0.9975498389663389 -0.018667975219324288
 -0.00024372705010770705 -0.002458043342765482 0.000271908807313101 0.003930590636470455 0.9975498389663389 -0.018667975219324288 0.0022186820171399523 0.007503964407965353
0.037515631513130004 0.0024159345711684327 0.00906261936259609 0.9972911690617575 -0.022436485790037975 0.00033817776330583726 0.004719275085162068 -0.0003001666957876372 -0.002954063509963711
 0.9972911690617575 -0.022436485790037975 0.002416008220047615 0.00906260535534854 -0.0003002523053472959 -0.002954067532189735 0.0003378516805205487 0.004719313111363126
 0.00033817776330583726 0.004719275085162068 -0.0003002523053472959 -0.002954067532189735 0.002415921947876552 0.009063120657168135 0.9972911774088872 -0.022435984950808664
 -0.0003001666957876372 -0.002954063509963711 0.0003378516805205487 0.004719313111363126 0.9972911774088872 -0.022435984950808664 0.0024160375213689487 0.009063106145760863
0.043768236765320004 0.0026264407740941072 0.010638698668034179 0.9970143909054494 -0.0262178268293864 0.00041193360536011784 0.0055087915226068665 -0.000363025855834142 -0.0034512098567553652
 0.9970143909054494 -0.0262178268293864 0.0026265410293639666 0.010638680375098464 -0.00036314191361783485 -0.003451213198779342 0.00041148999009529895 0.005508842014257828
 0.00041193360536011784 0.0055087915226068665 -0.00036314191361783485 -0.003451213198779342 0.0026264233479676028 0.010639283136633105 0.9970144019273945 -0.02621724276650025
 -0.000363025855834142 -0.0034512098567553652 0.00041148999009529895 0.005508842014257828 0.9970144019273945 -0.02621724276650025 0.0026265804814953357 0.010639264672617419
0.050020842017509996 0.0028503990432771982 0.012231389726855009 0.9967192462564775 -0.03001252309151909 0.0004934832767599793 0.006299035519483468 -0.0004323883881683645 -0.003949375502541955
 0.9967192462564775 -0.03001252309151909 0.00285053000786036 0.012231366511003525 -0.000432539415425557 -0.003949377647439471 0.0004929040616749112 0.006299100766788185
 0.0004934832767599793 0.006299035519483468 -0.000432539415425557 -0.003949377647439471 0.0028503760669934737 0.01223205730463438 0.996719260317641 -0.030011855853255772
 -0.0004323883881683645 -0.003949375502541955 0.0004929040616749112 0.006299100766788185 0.996719260317641 -0.030011855853255772 0.0028505810895306815 0.012232034358588481
0.055454545454549996 0.003056158753573581 0.01362870833494558 0.996447643966682 -0.03332110585425495 0.0005707436588565722 0.00698630749640818 -0.0004980121702830843 -0.004383043006871724
 0.996447643966682 -0.03332110585425495 0.0030563197403883457 0.013628680299711522 -0.0004981972331719098 -0.004383043653170487 0.0005700319201308101 0.006986387586837226
 0.0005707436588565722 0.00698630749640818 -0.0004981972331719098 -0.004383043653170487 0.0030561303534250676 0.013629448090325458 0.9964476609640728 -0.03332036637277448
 -0.0004980121702830843 -0.004383043006871724 0.0005700319201308101 0.006986387586837226 0.9964476609640728 -0.03332036637277448 0.003056382122570757 0.013629420792412137
0.056273447269699996 0.0030880777424903733 0.013840347625583149 0.9964054816802682 -0.0338206123726699 0.0005829061942277875 0.007089923368188833 -0.0005083367906953088 -0.004448455755750123
 0.9964054816802682 -0.0338206123726699 0.0030882435228929824 0.01384031881905764 -0.0005085272755978891 -0.004448456137082669 0.0005821732985833687 0.0070900058675419896
 0.0005829061942277875 0.007089923368188833 -0.0005085272755978891 -0.004448456137082669 0.0030880484767167463 0.01384109825582548 0.9964054991437855 -0.03381986200608497
 -0.0005083367906953088 -0.004448455755750123 0.0005821732985833687 0.0070900058675419896 0.9964054991437855 -0.03381986200608497 0.003088307703974212 0.01384107026371149
0.06252605252188 0.0033397437234497776 0.015465266177148931 0.9960728430087834 -0.037642084976558604 0.0006802807338601391 0.007881365974841698 -0.0005909521959082717 -0.004948346574777086
 0.9960728430087834 -0.037642084976558604 0.0033399484297914495 0.01546523108149682 -0.0005911865941948996 -0.004948344576522098 0.0006793760636272662 0.007881468430854887
 0.0006802807338601391 0.007881365974841698 -0.0005911865941948996 -0.004948344576522098 0.0033397074369143497 0.01546609981097864 0.9960728642374551 -0.03764125152769768
 -0.0005909521959082717 -0.004948346574777086 0.0006793760636272662 0.007881468430854887 0.9960728642374551 -0.03764125152769768 0.0033400271725098855 0.015466066173800664
0.06877865777407 0.0036056625009518164 0.017105864839724132 0.995721075695424 -0.041476896733486146 0.0007856841296146834 0.00867326978059323 -0.0006803143462742285 -0.005448943649173849
 0.995721075695424 -0.041476896733486146 0.0036059102467447947 0.017105822725515623 -0.0006805970817091305 -0.005448938605670833 0.0007845895780791283 0.008673395108160058
 0.0007856841296146834 0.00867326978059323 -0.0006805970817091305 -0.005448938605670833 0.0036056184701702505 0.017106781432494254 0.9957211010510995 -0.04147598025092921
 -0.0006803143462742285 -0.005448943649173849 0.0007845895780791283 0.008673395108160058 0.9957211010510995 -0.04147598025092921 0.003606005005821806 0.017106741516068752
0.07503126302626001 0.00388609834251672 0.01876188040767314 0.9953499250861451 -0.04532497724993561 0.0008991923832305425 0.009465537343925612 -0.0007765015566928608 -0.005950141822874096
 0.9953499250861451 -0.04532497724993561 0.0038863932447327373 0.018761830514286426 -0.0007768370212867147 -0.005950133018768918 0.0008978898321552936 0.00946568867027177
 0.0008991923832305425 0.009465537343925612 -0.0007768370212867147 -0.005950133018768918 0.003886045851379498 0.018762879923898378 0.9953499549300213 -0.04532397777980517
 -0.0007765015566928608 -0.005950141822874096 0.0008978898321552936 0.00946568867027177 0.9953499549300213 -0.04532397777980517 0.003886505467742112 0.018762833058497762
0.08128386827845 0.004181314303131719 0.020433061499567272 0.9949591366406009 -0.049186235364434665 0.0010208801802827953 0.010258067729738238 -0.0008795906694436601 -0.006451834713807277
 0.9949591366406009 -0.049186235364434665 0.004181660482008553 0.020433003034952855 -0.0008799832235578587 -0.006451821384024059 0.001019351501355597 0.010258248396459356
 0.0010208801802827953 0.010258067729738238 -0.0008799832235578587 -0.006451821384024059 0.004181252642467694 0.020434143906536854 0.9949591713326608 -0.04918515295659566
 -0.0008795906694436601 -0.006451834713807277 0.001019351501355597 0.010258248396459356 0.9949591713326608 -0.04918515295659566 0.004181791609631345 0.02043408938658012
0.08753647353064001 0.00449157222561674 0.02211916472788756 0.9945484561197061 -0.05306056292489341 0.0011508208106035375 0.011050756783245564 -0.0009896570034264483 -0.006953914452064539
 0.9945484561197061 -0.05306056292489341 0.0044919738046460935 0.022119096868288 -0.0009901109757711763 -0.006953895781765986 0.0011490478671654313 0.011050970348317982
 0.0011508208106035375 0.011050756783245564 -0.0009901109757711763 -0.006953895781765986 0.004491500693473261 0.022120330001878852 0.994548496019592 -0.05305939762682344
 -0.0009896570034264483 -0.006953914452064539 0.0011490478671654313 0.011050970348317982 0.994548496019592 -0.05305939762682344 0.00449212527153337 0.02212026708554706
0.09378907878283 0.004817132715270211 0.023819951978017114 0.9941176297523466 -0.05694783746047876 0.0012890860913460586 0.011843497326333297 -0.001106774299416958 -0.007456271499009377
 0.9941176297523466 -0.05694783746047876 0.00481759382110669 0.023819873867769546 -0.0011072939869601192 -0.007456246623576902 0.0012870507404751023 0.011843747566129444
 0.0012890860913460586 0.011843497326333297 -0.0011072939869601192 -0.007456246623576902 0.004817050616612179 0.02382120009813216 0.9941176752188582 -0.05694658932321
 -0.001106774299416958 -0.007456271499009377 0.0012870507404751023 0.011843747566129444 0.9941176752188582 -0.05694658932321 0.004817767056140676 0.02382112800704362
0.100041684035 0.005158255097716365 0.025535188400038676 0.9936664043864516 -0.06084792414433335 0.0014357462922618771 0.012636179305427264 -0.0012310146620605183 -0.00795879451847969
 0.9936664043864516 -0.06084792414433335 0.005158779860038892 0.025535099151275577 -0.001231604329895244 -0.007958762523496692 0.0014334303869083305 0.01263647021669536
 0.0014357462922618771 0.012636179305427264 -0.001231604329895244 -0.007958762523496692 0.005158161743906042 0.025536519351856826 0.9936664557775093 -0.06084659321885577
 -0.0012310146620605183 -0.00795879451847969 0.0014334303869083305 0.01263647021669536 0.9936664557775093 -0.06084659321885577 0.005158976286225664 0.025536437270688554
0.1059090909091 0.005492745477144437 0.027157689572006618 0.9932241997365426 -0.06451926467926376 0.0015810675954630853 0.013379873550031333 -0.0013541421579742754 -0.008430409186066912
 0.9932241997365426 -0.06451926467926376 0.005493333732727429 0.027157589034515005 -0.001354801345296785 -0.008430369634134958 0.0015784719134216284 0.013380206460153395
 0.0015810675954630853 0.013379873550031333 -0.001354801345296785 -0.008430369634134958 0.005492640940735322 0.027159098244437716 0.9932242570118182 -0.06451785611282491
 -0.0013541421579742754 -0.008430409186066912 0.0015784719134216284 0.013380206460153395 0.9932242570118182 -0.06451785611282491 0.0054935532111071595 0.027159006013809557
0.1062942892872 0.0055151973629583104 0.027264640906428526 0.9931945276302951 -0.0647606772544879 0.001590870061514506 0.013428689908800135 -0.0013624485001477815 -0.008461370282236877
 0.9931945276302951 -0.0647606772544879 0.005515789914317783 0.027264539598816882 -0.001363112381213326 -0.008461330203492904 0.0015882554529464859 0.013429025710579677
 0.001590870061514506 0.013428689908800135 -0.001363112381213326 -0.008461330203492904 0.005515092071582562 0.02726605468151739 0.9931945853029164 -0.0647592635920866
 -0.0013624485001477815 -0.008461370282236877 0.0015882554529464859 0.013429025710579677 0.9931945853029164 -0.0647592635920866 0.00551601094971332 0.027265961757546687
0.11254689453939999 0.005888216099561162 0.029008077022045137 0.9927017479855372 -0.06868594128651247 0.001754524353285372 0.014220913656433534 -0.0015011444641649283 -0.008963883606617169
 0.9927017479855372 -0.06868594128651247 0.005888880575197456 0.02900796270258044 -0.00150188675906264 -0.008963834430110562 0.0017515928934920958 0.014221298791973317
 0.001754524353285372 0.014220913656433534 -0.00150188675906264 -0.008963834430110562 0.005888098194461163 0.029009573615976326 0.9927018122959906 -0.06868444494073556
 -0.0015011444641649283 -0.008963883606617169 0.0017515928934920958 0.014221298791973317 0.9927018122959906 -0.06868444494073556 0.0058891276328792656 0.029009468958759353
0.11879949979160001 0.006277566421317814 0.030765263982268212 0.9921878149763227 -0.07262355182241612 0.0019267743549342933 0.015012732478352109 -0.0016471693832707818 -0.009466217304520278
 0.9921878149763227 -0.07262355182241612 0.006278306959243769 0.030765135664921756 -0.00164799425991315 -0.009466157966472972 0.001923507899437556 0.015013171616993202
 0.0019267743549342933 0.015012732478352109 -0.00164799425991315 -0.009466157966472972 0.006277435232207731 0.030766843396720523 0.9921878862800447 -0.07262197284691983
 -0.0016471693832707818 -0.009466217304520278 0.001923507899437556 0.015013171616993202 0.9921878862800447 -0.07262197284691983 0.006278581447925162 0.030766726077535753
0.1250521050438 0.00668350188754135 0.032535968031248384 0.9916524792736271 -0.07657333620370994 0.002107683415150626 0.015804025780400983 -0.0018005882006787417 -0.009968252153999217
 0.9916524792736271 -0.07657333620370994 0.006684322628164756 0.03253582469674955 -0.001801499793955377 -0.009968181540887543 0.0021040638257270056 0.015804523819367058
 0.002107683415150626 0.015804025780400983 -0.001801499793955377 -0.009968181540887543 0.006683356749758738 0.03253763027167181 0.9916525579251362 -0.07657167465454082
 -0.0018005882006787417 -0.009968252153999217 0.0021040638257270056 0.015804523819367058 0.9916525579251362 -0.07657167465454082 0.0066846259524433954 0.03253749932316072
0.131304710296 0.007106274418167372 0.03431995384629852 0.9910954928171559 -0.08053511408306681 0.002297312972376739 0.016594670501563605 -0.0019614639079252446 -0.01046986687922852
 0.9910954928171559 -0.08053511408306681 0.007107179504372191 0.034319794441814475 -0.0019624663193850977 -0.010469783827819538 0.002293322119925216 0.01659523256779913
 0.002297312972376739 0.016594670501563605 -0.0019624663193850977 -0.010469783827819538 0.007106114672712227 0.034321698926425566 0.9910955791701798 -0.08053337001404742
 -0.0019614639079252446 -0.01046986687922852 0.002293322119925216 0.01659523256779913 0.9910955791701798 -0.08053337001404742 0.007107513064963991 0.03432155334206404
0.1375573155481 0.007446329976066342 0.03588314464799029 0.9906164474363038 -0.08427476826108433 0.0024709828636302576 0.017360524002047354 -0.0021051229178860567 -0.010946930137792164
 0.9906164474363038 -0.08427476826108433 0.0074473226032996465 0.03588297244515564 -0.0021062219469541186 -0.01094683460768473 0.002466609347105658 0.017361149093380667
 0.0024709828636302576 0.017360524002047354 -0.0021062219469541186 -0.01094683460768473 0.00744615400507373 0.03588497316456755 0.9906165418364019 -0.08427294175115461
 -0.0021051229178860567 -0.010946930137792164 0.002466609347105658 0.017361149093380667 0.9906165418364019 -0.08427294175115461 0.0074476887794143205 0.035884815142760366
0.1438099208003 0.007798244779370947 0.03743855393092996 0.9901207433859802 -0.08800542163549299 0.002651677101765326 0.01812361983363396 -0.0022545468555904696 -0.011421471896395334
 0.9901207433859802 -0.08800542163549299 0.007799328911823181 0.037438368226112816 -0.0022557468618837643 -0.011421362756308517 0.002646904024174257 0.018124312649390982
 0.002651677101765326 0.01812361983363396 -0.0022557468618837643 -0.011421362756308517 0.007798051758069707 0.03744046596881137 0.9901208461830711 -0.08800351274827958
 -0.0022545468555904696 -0.011421471896395334 0.002646904024174257 0.018124312649390982 0.9901208461830711 -0.08800351274827958 0.007799729277681644 0.037440294729803585
0.1500625260525 0.008161901354685624 0.038986065690457095 0.9896085018588556 -0.09172699602185903 0.002839337753866022 0.01888389095045281 -0.0024096793887467037 -0.011893428254759466
 0.9896085018588556 -0.09172699602185903 0.008163080945685217 0.03898586575061962 -0.0024109847204790346 -0.011893304328570097 0.0028341483050676524 0.01888465636304101
 0.002839337753866022 0.01888389095045281 -0.0024109847204790346 -0.011893304328570097 0.008161690452466085 0.038988061340661906 0.989608613402031 -0.09172500482348651
 -0.0024096793887467037 -0.011893428254759466 0.0028341483050676524 0.01888465636304101 0.989608613402031 -0.09172500482348651 0.00816351708415143 0.038987876067484016
0.15631513130469998 0.008537181468652254 0.04052556749569608 0.9890798445843786 -0.09543941322510213 0.0030339062475991043 0.019641271356806073 -0.002570463531697479 -0.012362736610204149
