! Created with skrf 1.8.0 (http://scikit-rf.org).
# GHz S RI R 50.0 
!freq ReS11 ImS11 ReS12 ImS12 ReS13 ImS13
! ReS14 ImS14
! ReS21 ImS21 ReS22 ImS22 ReS23 ImS23
! ReS24 ImS24
! ReS31 ImS31 ReS32 ImS32 ReS33 ImS33
! ReS34 ImS34
! ReS41 ImS41 ReS42 ImS42 ReS43 ImS43
! ReS44 ImS44
!
0.0 0.001889631327023 0.0 0.9981103686612 0.0 7.346815745536e-05 0.0 -7.346815718798e-05 8.99725435395143e-21
 0.9981103686612 0.0 0.001889631327028 0.0 -7.346815718833e-05 8.997254353994294e-21 7.346815745394e-05 0.0
 7.346815745536e-05 0.0 -7.346815718833e-05 8.997254353994294e-21 0.001889631332897 0.0 0.9981103686671 0.0
 -7.346815718798e-05 8.99725435395143e-21 7.346815745394e-05 0.0 0.9981103686671 0.0 0.001889631332884 0.0
0.005 0.0020343182799992007 0.0015446580695425301 0.9979271349430645 -0.003956970230721681 0.00010355758714069027 0.0008101725642204757 -0.00010056917382870283 -0.0005081654711844198
 0.9979271349430645 -0.003956970230721681 0.002034291802401208 0.0015446734866012587 -0.000100568589878987 -0.000508164952342979 0.00010372126155899524 0.0008101100516368207
 0.00010355758714069027 0.0008101725642204757 -0.000100568589878987 -0.000508164952342979 0.002034318554049696 0.0015445905628251263 0.9979271345545262 -0.003957037298167397
 -0.00010056917382870283 -0.0005081654711844198 0.00010372126155899524 0.0008101100516368207 0.9979271345545262 -0.003957037298167397 0.002034290760646249 0.0015446068667323038
0.006252605252188 0.0020726346524182508 0.0019368480293120373 0.9978782549427158 -0.004947121510974311 0.00011232349906986702 0.0010130861366770079 -0.0001083879235846333 -0.0006358416611258288
 0.9978782549427158 -0.004947121510974311 0.0020725932638632227 0.001936867633964175 -0.00010838701548662243 -0.0006358410201349586 0.00011257921974286385 0.0010130048995007311
 0.00011232349906986702 0.0010130861366770079 -0.00010838701548662243 -0.0006358410201349586 0.0020726351552318714 0.0019367636586285267 0.9978782544091708 -0.00494720532908039
 -0.0001083879235846333 -0.0006358416611258288 0.00011257921974286385 0.0010130048995007311 0.9978782544091708 -0.00494720532908039 0.0020725917086787775 0.001936784386971497
0.01250521050438 0.0022764889668227804 0.003913718798925966 0.9976162630870998 -0.009894599985120845 0.0001634907363013936 0.0020263727470953776 -0.00015364663592594993 -0.0012745206920000741
 0.9976162630870998 -0.009894599985120845 0.0022763237099833883 0.003913761384130134 -0.00015364306418119705 -0.0012745194932503078 0.00016451037261025055 0.00202617638392079
 0.0001634907363013936 0.0020263727470953776 -0.00015364306418119705 -0.0012745194932503078 0.002276491549765278 0.003913550268246052 0.9976162615190923 -0.00989476739360096
 -0.00015364663592594993 -0.0012745206920000741 0.00016451037261025055 0.00202617638392079 0.9976162615190923 -0.00989476739360096 0.0022763180581037196 0.003913595270804001
0.01875781575657 0.0025017135149056425 0.005918083034905505 0.9973240149768673 -0.01485438426646417 0.00022710137518425802 0.003040482133909796 -0.00020939841420263773 -0.0019150583707067265
 0.9973240149768673 -0.01485438426646417 0.0025013421875233017 0.005918152251964809 -0.00020939045900836894 -0.0019150567139540144 0.00022939158491699815 0.0030401290189980973
 0.00022710137518425802 0.003040482133909796 -0.00020939045900836894 -0.0019150567139540144 0.002501719764412105 0.005917830428280998 0.9973240118715583 -0.014854635205570245
 -0.00020939841420263773 -0.0019150583707067265 0.00022939158491699815 0.0030401290189980973 0.9973240118715583 -0.014854635205570245 0.0025013298991836035 0.005917903579945598
0.02501042100875 0.002748807448259562 0.007947036414535598 0.9970011157345157 -0.019828779064660112 0.0003032871405562555 0.00405539736331637 -0.00027579060109267324 -0.0025571046771790036
 0.9970011157345157 -0.019828779064660112 0.0027481480137500655 0.007947136163399099 -0.00027577656660130817 -0.002557102680572211 0.00030735454032567084 0.004054838350288814
 0.0003032871405562555 0.00405539736331637 -0.00027577656660130817 -0.002557102680572211 0.002748818963870487 0.007946699809739636 0.9970011105873061 -0.01982911352310702
 -0.00027579060109267324 -0.0025571046771790036 0.00030735454032567084 0.004054838350288814 0.9970011105873061 -0.01982911352310702 0.0027481265513665597 0.00794680528645113
0.03126302626094 0.003018248933320592 0.009999034124454877 0.9966471534091795 -0.024818710395215965 0.0003921788366083566 0.00507100645423493 -0.00035296507834500323 -0.003200394325809853
 0.9966471534091795 -0.024818710395215965 0.0030172194697866144 0.009999168548759539 -0.0003529432886598529 -0.0032003921260063337 0.00039853044020662486 0.0050701848309755385
 0.0003921788366083566 0.00507100645423493 -0.0003529432886598529 -0.0032003921260063337 0.0030182673290989584 0.009998613593312672 0.9966471457126507 -0.024819128409707014
 -0.00035296507834500323 -0.003200394325809853 0.00039853044020662486 0.0050701848309755385 0.9966471457126507 -0.024819128409707014 0.003017186298669687 0.00999875586779274
0.037515631513130004 0.0033105045993224937 0.012073030920788276 0.9962617089258015 -0.02982458547498806 0.0004939051511840334 0.0060871589358163095 -0.0004410592494323103 -0.0038446902897904776
 0.9962617089258015 -0.02982458547498806 0.0033090232630069807 0.012073204406141127 -0.0004410280464839076 -0.0038446880419488656 0.0005030485461433557 0.006086010352066951
 0.0004939051511840334 0.0060871589358163095 -0.0004410280464839076 -0.0038446880419488656 0.003310531503696988 0.012072526556748196 0.9962616981680067 -0.029825087102678054
 -0.0004410592494323103 -0.0038446902897904776 0.0005030485461433557 0.006086010352066951 0.9962616981680067 -0.029825087102678054 0.00330897585162084 0.012072710397379898
0.043768236765320004 0.003626033166060254 0.014168219432797745 0.9958443602124438 -0.03484655436319867 0.0006085920516478584 0.007103683075159321 -0.0005402063547174758 -0.004489766646260022
 0.9958443602124438 -0.03484655436319867 0.003624018161703737 0.014168436606371708 -0.0005401640970698118 -0.004489764523974345 0.0006210354635170759 0.007102135461802787
 0.0006085920516478584 0.007103683075159321 -0.0005401640970698118 -0.004489764523974345 0.003626070221647991 0.014167631339300005 0.995844345874388 -0.03484713969299834
 -0.0005402063547174758 -0.004489766646260022 0.0006210354635170759 0.007102135461802787 0.995844345874388 -0.03484713969299834 0.003623953981299089 0.014167861810529826
0.050020842017509996 0.003965287081791813 0.016283922034160465 0.9953946843393204 -0.03988461803605052 0.00073636239419883 0.00812039300621678 -0.000650535545311837 -0.0051354015241958225
 0.9953946843393204 -0.03988461803605052 0.003962656634467918 0.01628418776551885 -0.000650480607240642 -0.005135399719420096 0.0007526146903052533 0.008118366491528061
 0.00073636239419883 0.00812039300621678 -0.000650480607240642 -0.005135399719420096 0.003965335948006261 0.016283250328870756 0.9953946658959069 -0.03988528718424627
 -0.000650535545311837 -0.0051354015241958225 0.0007526146903052533 0.008118366491528061 0.9953946658959069 -0.03988528718424627 0.003962573162814384 0.016283532792856558
0.055454545454549996 0.004279724180650076 0.01813872358295036 0.9949773206305155 -0.04427584693739486 0.0008581169044564121 0.009003943267548352 -0.0007555933871754339 -0.005696759561416492
 0.9949773206305155 -0.04427584693739486 0.004276492480190166 0.018139035656800008 -0.0007555261208928364 -0.005696758202657639 0.0008780929734131016 0.009001429583820506
 0.0008581169044564121 0.009003943267548352 -0.0007555261208928364 -0.005696758202657639 0.004279784670626423 0.018137979328697238 0.9949772981866792 -0.044276589036238226
 -0.0007555933871754339 -0.005696759561416492 0.0008780929734131016 0.009001429583820506 0.9949772981866792 -0.044276589036238226 0.004276390200511462 0.018138311563813233
0.056273447269699996 0.004328713330191592 0.018419537771060052 0.9949122588334276 -0.04493868141192578 0.0008773356224213337 0.009137092259231563 -0.0007721718531829301 -0.005781373659874346
 0.9949122588334276 -0.04493868141192578 0.0043253856598269086 0.01841985717401564 -0.0007721026240890021 -0.005781372382845127 0.0008979062795191513 0.009134499084149152
 0.0008773356224213337 0.009137092259231563 -0.0007721026240890021 -0.005781372382845127 0.004328775682606564 0.01841878259121543 0.9949122357514819 -0.04493943451658514
 -0.0007721718531829301 -0.005781373659874346 0.0008979062795191513 0.009134499084149152 0.9949122357514819 -0.04493943451658514 0.004325280381345794 0.018419122710388133
0.06252605252188 0.00471675381813433 0.02057451321136507 0.9943966625800681 -0.050008582465372674 0.00103162751431136 0.010153575711173252 -0.0009052361052910919 -0.006427460541254885
 0.9943966625800681 -0.050008582465372674 0.004712647114825467 0.020574891646585523 -0.000905150989294549 -0.006427460020410132 0.0010570265612773735 0.010150320144676834
 0.00103162751431136 0.010153575711173252 -0.000905150989294549 -0.006427460020410132 0.004716831350028541 0.020573674709316276 0.9943966343173266 -0.050009419690358076
 -0.0009052361052910919 -0.006427460541254885 0.0010570265612773735 0.010150320144676834 0.9943966343173266 -0.050009419690358076 0.004712517522523896 0.020574078449887775
0.06877865777407 0.0051298455372788005 0.022748325065189954 0.9938474765029469 -0.0550941095812737 0.0011993499535441236 0.011169630781013885 -0.0010498448080659057 -0.007073437318533432
 0.9938474765029469 -0.0550941095812737 0.005124877936399365 0.02274876814407058 -0.001049742223610221 -0.0070734378004451166 0.0012300878967527805 0.011165609036205674
 0.0011993499535441236 0.011169630781013885 -0.001049742223610221 -0.0070734378004451166 0.0051299399599201686 0.02274740341186588 0.9938474425071726 -0.0550950311124984
 -0.0010498448080659057 -0.007073437318533432 0.0012300878967527805 0.011165609036205674 0.9938474425071726 -0.0550950311124984 0.005124721533772872 0.022747877048372587
0.07503126302626001 0.005568420590341398 0.024940469193097854 0.9932642841152163 -0.06019501253453593 0.001380610716932702 0.01218503820628764 -0.001206110012341763 -0.007719076145073544
 0.9932642841152163 -0.06019501253453593 0.005562510148789366 0.024940982782344433 -0.0012059883920293153 -0.007719077894359587 0.0014171984522408927 0.012180138357682162
 0.001380610716932702 0.01218503820628764 -0.0012059883920293153 -0.007719077894359587 0.0055685336339015585 0.02493946457077581 0.9932642438230772 -0.06019601858667852
 -0.001206110012341763 -0.007719076145073544 0.0014171984522408927 0.012180138357682162 0.9932642438230772 -0.06019601858667852 0.005562324450818541 0.024940014691475394
0.08128386827845 0.006032906131590823 0.02715045329244362 0.9926466719904385 -0.06531100980518074 0.001575513271907608 0.01319957258364563 -0.0013741391662404402 -0.00836414576659123
 0.9926466719904385 -0.06531100980518074 0.006025970803572836 0.027151043519795668 -0.001373996956543926 -0.008364149065855156 0.0016184619859225462 0.013193674485771799
 0.001575513271907608 0.01319957258364563 -0.001373996956543926 -0.008364149065855156 0.006033039545591166 0.027149365907229134 0.9926466248261999 -0.06531210060873581
 -0.0013741391662404402 -0.00836414576659123 0.0016184619859225462 0.013193674485771799 0.9926466248261999 -0.06531210060873581 0.006025753338997907 0.027149999420580398
0.08753647353064001 0.006523724250375362 0.029377791878929655 0.9919942301806204 -0.0704417936127793 0.0017841565796393125 0.014213002771225716 -0.0015540349607163116 -0.009008411260987155
 0.9919942301806204 -0.0704417936127793 0.006515681863442548 0.029378465139896878 -0.0015538706219182183 -0.00900841641073711 0.0018339776424477344 0.014205977979088456
 0.0017841565796393125 0.014213002771225716 -0.0015538706219182183 -0.00900841641073711 0.006523879805216468 0.029376621947159613 0.9919941755555327 -0.07044296942701724
 -0.0015540349607163116 -0.009008411260987155 0.0018339776424477344 0.014205977979088456 0.9919941755555327 -0.07044296942701724 0.006515430176487976 0.029377346089271915
0.09378907878283 0.007041291815910391 0.03162200269416459 0.9913065526004715 -0.07558703353987989 0.0020066349042012397 0.015225092199163077 -0.0017458951687524741 -0.009651633883054232
 0.9913065526004715 -0.07558703353987989 0.007032060046875581 0.03162276565980142 -0.0017457071747296008 -0.00965164120164488 0.0020638397546735867 0.015216803890429051
 0.0020066349042012397 0.015225092199163077 -0.0017457071747296008 -0.00965164120164488 0.007041471302269816 0.03162075044855363 0.9913064899112012 -0.0755882946462513
 -0.0017458951687524741 -0.009651633883054232 0.0020638397546735867 0.015216803890429051 0.9913064899112012 -0.0755882946462513 0.007031771698665427 0.03162157279161233
0.100041684035 0.007586020292711442 0.03388260410375156 0.9905832373866741 -0.0807463791805336 0.0022430376244159363 0.016235599124948777 -0.001949812481782103 -0.010293570977361641
 0.9905832373866741 -0.0807463791805336 0.007575516643712727 0.03388346372944253 -0.0019495993199252271 -0.01029358080091756 0.002308137648988791 0.01622590202434034
 0.0022430376244159363 0.016235599124948777 -0.0019495993199252271 -0.01029358080091756 0.00758622552326574 0.03388126979453507 0.9905831660144331 -0.08074772588059849
 -0.001949812481782103 -0.010293570977361641 0.002308137648988791 0.01622590202434034 0.9905831660144331 -0.08074772588059849 0.007575189214756018 0.033882198256384465
0.1059090909091 0.008122254352289627 0.03601841563911005 0.9898717167690959 -0.08560037890894763 0.0024776157577903165 0.01718219373803007 -0.002152211021057719 -0.010894572060853288
 0.9898717167690959 -0.08560037890894763 0.008110481971361687 0.036019372557933735 -0.0021519728782031233 -0.010894584556540434 0.002550589508089623 0.017171034915027195
 0.0024776157577903165 0.01718219373803007 -0.0021519728782031233 -0.010894584556540434 0.008122485409844586 0.036017004560824496 0.989871636671318 -0.08560180622555194
 -0.002152211021057719 -0.010894572060853288 0.002550589508089623 0.017171034915027195 0.989871636671318 -0.08560180622555194 0.008110115687348846 0.036018040122322195
0.1062942892872 0.008158315536317507 0.03615911315512519 0.989823887240745 -0.08591946214479221 0.002493449049145623 0.01724427685243301 -0.002165874343284231 -0.0109339759409702
 0.989823887240745 -0.08591946214479221 0.008146457310875557 0.036160076690618354 -0.0021656345145116673 -0.01093398862332968 0.0025669554549858603 0.017233017158264207
 0.002493449049145623 0.01724427685243301 -0.0021656345145116673 -0.01093398862332968 0.008158548346334463 0.03615769704573334 0.9898238065501652 -0.0859208947639539
 -0.002165874343284231 -0.0109339759409702 0.0025669554549858603 0.017233017158264207 0.9898238065501652 -0.0859208947639539 0.008146088402486611 0.03615873990049514
0.11254689453939999 0.008758577573470518 0.03845104411400856 0.9890281097587352 -0.09110589760120555 0.002757948235163667 0.018250873926416326 -0.002394162781209453 -0.011572598224038498
 0.9890281097587352 -0.09110589760120555 0.008745281852165866 0.03845211911444793 -0.002393894799798881 -0.011572614136684287 0.002840371918148245 0.018237889239560382
 0.002757948235163667 0.018250873926416326 -0.002393894799798881 -0.011572614136684287 0.00875883982133503 0.03844954648130825 0.9890280190967862 -0.09110741648753236
 -0.002394162781209453 -0.011572598224038498 0.002840371918148245 0.018237889239560382 0.9890280190967862 -0.09110741648753236 0.008744869088583102 0.03845071237113906
0.11879949979160001 0.009387200369452682 0.04075790733780296 0.9881955177523096 -0.09630528549886073 0.003036608807261411 0.019255134312497434 -0.0026347542398761116 -0.012209183359026134
 0.9881955177523096 -0.09630528549886073 0.009372383986108764 0.04075910167602415 -0.0026344566335068913 -0.012209202891022616 0.0031284602153315755 0.019240253567815807
 0.003036608807261411 0.019255134312497434 -0.0026344566335068913 -0.012209202891022616 0.009387493937402952 0.04075632847377647 0.9881954164468691 -0.09630689102055844
 -0.0026347542398761116 -0.012209183359026134 0.0031284602153315755 0.019240253567815807 0.9881954164468691 -0.09630689102055844 0.009371925016163352 0.040757626421770686
0.1250521050438 0.010044571587396505 0.043079208413475255 0.9873257295618041 -0.10151721154208082 0.003329498781025554 0.020256797567271115 -0.002887719411690527 -0.012843473013236194
 0.9873257295618041 -0.10151721154208082 0.010028151104880215 0.043080530293406596 -0.002887390721344348 -0.012843496571160393 0.003431287773143225 0.020239840967704918
 0.003329498781025554 0.020256797567271115 -0.002887390721344348 -0.012843496571160393 0.010044898382235094 0.04307754862362011 0.9873256169208643 -0.10151890408812746
 -0.002887719411690527 -0.012843473013236194 0.003431287773143225 0.020239840967704918 0.9873256169208643 -0.10151890408812746 0.010027643604385454 0.04307898804771901
0.131304710296 0.010731072339622059 0.045414447482901604 0.9864183693642035 -0.10674124799488909 0.003636680387944927 0.021255599004365813 -0.003153123069724723 -0.01347520505953947
 0.9864183693642035 -0.10674124799488909 0.010712964025819156 0.04541590545427179 -0.003152761849713452 -0.013475233067461134 0.00374891608891426 0.021236377957858956
 0.003636680387944927 0.021255599004365813 -0.003152761849713452 -0.013475233067461134 0.010731434293535395 0.04541270708234654 0.9864182446746186 -0.10674302797781343
 -0.003153123069724723 -0.01347520505953947 0.00374891608891426 0.021236377957858956 0.9864182446746186 -0.10674302797781343 0.010712405699384019 0.04541429781074771
0.1375573155481 0.011302324937673504 0.04745987128244021 0.9856179069477836 -0.11167347557326136 0.003922462972802519 0.022222524291596213 -0.0033951610232427834 -0.014075500448070674
 0.9856179069477836 -0.11167347557326136 0.011282437501717821 0.04746144297890389 -0.003394764912800835 -0.014075533000238066 0.004045404550745247 0.022201044119985743
 0.003922462972802519 0.022222524291596213 -0.003394764912800835 -0.014075533000238066 0.011302722825548388 0.047458050929256694 0.985617769638588 -0.11167534322631631
 -0.0033951610232427834 -0.014075500448070674 0.004045404550745247 0.022201044119985743 0.985617769638588 -0.11167534322631631 0.01128182696073627 0.047459770921587555
0.1438099208003 0.01189402015705103 0.04949211235889461 0.9847885875343833 -0.1165907552977257 0.004219673405559192 0.023184134409424788 -0.0036467587293468376 -0.014670815553051036
 0.9847885875343833 -0.1165907552977257 0.011872268333313096 0.049493804704288956 -0.003646326137801328 -0.014670853080349421 0.004353783955765618 0.023160220347469656
 0.004219673405559192 0.023184134409424788 -0.003646326137801328 -0.014670853080349421 0.011894455738384166 0.0494902124454261 0.9847884368917443 -0.11659271101800772
 -0.0036467587293468376 -0.014670815553051036 0.004353783955765618 0.023160220347469656 0.9847884368917443 -0.11659271101800772 0.011871603485873902 0.04949206983316248
0.1500625260525 0.012505910534483432 0.051510929391916344 0.9839306641434757 -0.12149289211468979 0.004528182905585195 0.02414028723683812 -0.003907788769225024 -0.015261014199753163
 0.9839306641434757 -0.12149289211468979 0.012482208742280875 0.05151274976821219 -0.003907318108040452 -0.015261057151073922 0.0046739219719552786 0.024113758118659668
 0.004528182905585195 0.02414028723683812 -0.003907318108040452 -0.015261057151073922 0.01250638557988243 0.05150895032340813 0.9839304994358238 -0.12149493631484615
 -0.003907788769225024 -0.015261014199753163 0.0046739219719552786 0.024113758118659668 0.9839304994358238 -0.12149493631484615 0.012481487534671423 0.05151095374084805
0.15631513130469998 0.013137746377992846 0.05351608829252898 0.9830443916053044 -0.12637969339288543 0.004847860914653387 0.025090843723192372 -0.004178121912048688 -0.015845963633010173
 0.9830443916053044 -0.12637969339288543 0.013112008713716906 0.053518044555168474 -0.004177611594615503 -0.015846012475307765 0.005005684425016603 0.02506151206124457
