! Created with skrf 1.8.0 (http://scikit-rf.org).
# GHz S RI R 50.0 
!freq ReS11 ImS11 ReS12 ImS12 ReS13 ImS13
! ReS14 ImS14
! ReS21 ImS21 ReS22 ImS22 ReS23 ImS23
! ReS24 ImS24
! ReS31 ImS31 ReS32 ImS32 ReS33 ImS33
! ReS34 ImS34
! ReS41 ImS41 ReS42 ImS42 ReS43 ImS43
! ReS44 ImS44
!
0.0 0.001865740506967 0.0 0.9981342594845 0.0 7.272087929612e-05 0.0 -7.272087929672e-05 8.905739206190917e-21
 0.9981342594845 0.0 0.001865740506989 0.0 -7.272087929696e-05 8.905739206220308e-21 7.272087929757e-05 0.0
 7.272087929612e-05 0.0 -7.272087929696e-05 8.905739206220308e-21 0.001865740511235 0.0 0.9981342594888 0.0
 -7.272087929672e-05 8.905739206190917e-21 7.272087929757e-05 0.0 0.9981342594888 0.0 0.001865740511237 0.0
0.005 0.0020085678315137343 0.0015212162189833106 0.9979533795946047 -0.003907249825819998 0.00010307755911168112 0.0008259499989851786 -9.996816030069788e-05 -0.0005138848446247754
 0.9979533795946047 -0.003907249825819998 0.0020085371049638192 0.001521234120274169 -9.996659480516035e-05 -0.0005138835877447266 0.00010327432770018578 0.0008258749413529424
 0.00010307755911168112 0.0008259499989851786 -9.996659480516035e-05 -0.0005138835877447266 0.0020085685275853067 0.0015211484877583226 0.9979533792051571 -0.003907316882450311
 -9.996816030069788e-05 -0.0005138848446247754 0.00010327432770018578 0.0008258749413529424 0.9979533792051571 -0.003907316882450311 0.002008535646130441 0.0015211677550252382
0.006252605252188 0.0020463696785692075 0.001907475871928641 0.9979051570579859 -0.0048849651125614305 0.00011191086219276388 0.0010328056644017794 -0.00010782435525481408 -0.0006430049662308676
 0.9979051570579859 -0.0048849651125614305 0.002046321647658036 0.0019074986166462504 -0.00010782191967530317 -0.0006430034159765205 0.00011221828968463511 0.001032708117156591
 0.00011191086219276388 0.0010328056644017794 -0.00010782191967530317 -0.0006430034159765205 0.002046370839760577 0.0019073912128022318 0.9979051565213785 -0.004885048929515093
 -0.00010782435525481408 -0.0006430049662308676 0.00011221828968463511 0.001032708117156591 0.9979051565213785 -0.004885048929515093 0.00204631943936406 0.0019074156787270364
0.01250521050438 0.002247359499063785 0.0038545480009394657 0.9976468565027757 -0.009770344741914155 0.0001634171637488799 0.0020657487649037537 -0.00015327494220528776 -0.0012889177172602769
 0.9976468565027757 -0.009770344741914155 0.0022471677136696212 0.0038545971971599264 -0.0001532653496651366 -0.0012889148480906827 0.00016464300853271725 0.0020655129518771056
 0.0001634171637488799 0.0020657487649037537 -0.0001532653496651366 -0.0012889148480906827 0.002247364726123098 0.0038543789277702234 0.9976468549356661 -0.009770512181293952
 -0.00015327494220528776 -0.0012889177172602769 0.00016464300853271725 0.0020655129518771056 0.9976468549356661 -0.009770512181293952 0.002247159470582768 0.0038544317293780716
0.01875781575657 0.002469217691365805 0.005828844137174663 0.9973589881023114 -0.014667947534287773 0.0002273711128314345 0.003099495128861458 -0.00020922727056456173 -0.0019367189332411647
 0.9973589881023114 -0.014667947534287773 0.0024687867406470478 0.005828923749208175 -0.00020920588764873488 -0.001936715027239154 0.00023012457553743082 0.003099071146706643
 0.0002273711128314345 0.003099495128861458 -0.00020920588764873488 -0.001936715027239154 0.0024692298838855055 0.005828590823863822 0.997358984993455 -0.014668198567191334
 -0.00020922727056456173 -0.0019367189332411647 0.00023012457553743082 0.003099071146706643 0.997358984993455 -0.014668198567191334 0.0024687686343395025 0.005828676163583394
0.02501042100875 0.0027124325674486565 0.007827500408106636 0.9970411658854718 -0.019580055181369054 0.0003039043030009139 0.004134038363218036 -0.0002758290977885233 -0.0025860510457624544
 0.9970411658854718 -0.019580055181369054 0.002711667221832512 0.00782761462511261 -0.0002757913499239996 -0.002586046440433862 0.0003087945861509518 0.004133367379975186
 0.0003039043030009139 0.004134038363218036 -0.0002757913499239996 -0.002586046440433862 0.002712454644563166 0.007827163045384888 0.9970411607237555 -0.01958038985791843
 -0.0002758290977885233 -0.0025860510457624544 0.0003087945861509518 0.004133367379975186 0.9970411607237555 -0.01958038985791843 0.002711635439457615 0.007827285423207351
0.03126302626094 0.0029774719016678977 0.009848996141842078 0.996692987043237 -0.024507587590639757 0.00039314749767899914 0.005169272380362141 -0.0003532226852090013 -0.00323664595487239
 0.996692987043237 -0.024507587590639757 0.002976277052622984 0.009849149371524394 -0.00035316404707750243 -0.003236641043622526 0.0004007843301153406 0.005168286581232743
 0.00039314749767899914 0.005169272380362141 -0.00035316404707750243 -0.003236641043622526 0.0029775067996629916 0.009848574945142135 0.9966929793103062 -0.02450800603204479
 -0.0003532226852090013 -0.00323664595487239 0.0004007843301153406 0.005168286581232743 0.9966929793103062 -0.02450800603204479 0.0029762277916722487 0.0098487391529147
0.037515631513130004 0.0032647922311540498 0.011892304343980678 0.9963140417136764 -0.02945095236362825 0.0004952294174337819 0.006205050906460411 -0.00044154582828575146 -0.0038882656017365166
 0.9963140417136764 -0.02945095236362825 0.0032630728467866075 0.01189250120984588 -0.00044146181882934995 -0.0038882608339245524 0.0005062232649042808 0.006203673407211718
 0.0004952294174337819 0.006205050906460411 -0.00044146181882934995 -0.0038882608339245524 0.0032648429036813806 0.011891799585951044 0.9963140308801128 -0.029451454729540024
 -0.00044154582828575146 -0.0038882656017365166 0.0005062232649042808 0.006203673407211718 0.9963140308801128 -0.029451454729540024 0.003263002315378253 0.011892010705575497
0.043768236765320004 0.003574842411715267 0.01395663320293713 0.9959039170188079 -0.034410303235097014 0.0006102761341122984 0.007241205600113793 -0.0005409321898759099 -0.004540683920206407
 0.9959039170188079 -0.034410303235097014 0.0035725035001850348 0.01395687854345818 -0.0005408183694719938 -0.004540679801115273 0.0006252382752500969 0.007239350350756489
 0.0006102761341122984 0.007241205600113793 -0.0005408183694719938 -0.004540679801115273 0.0035749118343431333 0.013956045193097311 0.9959039025448427 -0.03441088974370797
 -0.0005409321898759099 -0.004540683920206407 0.0006252382752500969 0.007239350350756489 0.9959039025448427 -0.03441088974370797 0.0035724079210752145 0.013956308596653146
0.050020842017509996 0.003908065235903156 0.016041319255333333 0.9954621991667241 -0.03938564685371147 0.000738410678708595 0.008277553554107267 -0.0006515113867332535 -0.005193679408740967
 0.9954621991667241 -0.03938564685371147 0.0039050118119337497 0.016041618124342426 -0.000651363355384617 -0.0051936764994966545 0.0007579532089191122 0.008275125238996794
 0.000738410678708595 0.008277553554107267 -0.000651363355384617 -0.0051936764994966545 0.003908156406349314 0.016040648361286502 0.9954621804980213 -0.03938631776005348
 -0.0006515113867332535 -0.005193679408740967 0.0007579532089191122 0.008275125238996794 0.9954621804980213 -0.03938631776005348 0.0039048874231245316 0.016040969712621474
0.055454545454549996 0.004216804916778862 0.017869049505449732 0.9950523543500561 -0.04372229267597125 0.0008604854439724899 0.009178178022119208 -0.0007567956209175706 -0.005761449722901071
 0.9950523543500561 -0.04372229267597125 0.00421305340138497 0.017869399165213417 -0.0007566143157287004 -0.005761448364047314 0.0008845061722605958 0.00917516701538517
 0.0008604854439724899 0.009178178022119208 -0.0007566143157287004 -0.005761448364047314 0.0042169174402574335 0.01786830691442832 0.9950523315740606 -0.04372303717360651
 -0.0007567956209175706 -0.005761449722901071 0.0008845061722605958 0.00917516701538517 0.9950523315740606 -0.04372303717360651 0.0042129009351587554 0.017868683452584827
0.056273447269699996 0.004264898227053306 0.018145774974986584 0.9949884747339081 -0.04437689514585962 0.0008797527425096101 0.009313901002240863 -0.0007734089664579336 -0.005847031504909497
 0.9949884747339081 -0.04437689514585962 0.004261035280214176 0.01814613264340233 -0.0007732223625683084 -0.005847030422380437 0.0009044885341336569 0.00931079493911007
 0.0008797527425096101 0.009313901002240863 -0.0007732223625683084 -0.005847030422380437 0.004265014167588247 0.018145021606697162 0.9949884513009486 -0.044377650757044175
 -0.0007734089664579336 -0.005847031504909497 0.0009044885341336569 0.00931079493911007 0.9949884513009486 -0.044377650757044175 0.004260878338128969 0.01814540686423339
0.06252605252188 0.004645774025307011 0.020269459960868146 0.9944823315461638 -0.049383894090039133 0.0010344184256444984 0.0103500453695017 -0.0009067463279296997 -0.006500518626181071
 0.9944823315461638 -0.049383894090039133 0.004641006489170655 0.020269881919557788 -0.0009065168275839677 -0.006500520042880938 0.001064961058612094 0.010346147408663658
 0.0010344184256444984 0.0103500453695017 -0.0009065168275839677 -0.006500520042880938 0.00464591778466402 0.020268624576554144 0.9944823027617241 -0.049384734758779525
 -0.0009067463279296997 -0.006500518626181071 0.001064961058612094 0.010346147408663658 0.9944823027617241 -0.049384734758779525 0.00464081327070927 0.02026907999728914
0.06877865777407 0.005051120550187555 0.022411863770723985 0.9939433593409632 -0.05440644085677765 0.0012025200110008856 0.011385776523685508 -0.0010516406105425097 -0.007153917019951674
 0.9939433593409632 -0.05440644085677765 0.005045353272342059 0.02241235573450561 -0.0010513639269419488 -0.007153921663928984 0.0012394836825387347 0.011380962948145824
 0.0012025200110008856 0.011385776523685508 -0.0010513639269419488 -0.007153921663928984 0.005051295205989952 0.02241094688082509 0.9939433245990541 -0.054407366976675794
 -0.0010516406105425097 -0.007153917019951674 0.0012394836825387347 0.011380962948145824 0.9939433245990541 -0.054407366976675794 0.005045120078547896 0.022411479025469062
0.07503126302626001 0.005481361032026343 0.024572495063928355 0.9933711503044219 -0.05944429465179282 0.0013841657547734186 0.01242087758637633 -0.0012082045629853416 -0.007807000065514234
 0.9933711503044219 -0.05944429465179282 0.005474498743986628 0.024573062976819184 -0.001207876446171414 -0.007807008720239702 0.0014281651729882887 0.012415015013373465
 0.0013841657547734186 0.01242087758637633 -0.001207876446171414 -0.007807008720239702 0.005481569692170561 0.024571497223698696 0.9933711089778591 -0.05944530666397257
 -0.0012082045629853416 -0.007807000065514234 0.0014281651729882887 0.012415015013373465 0.9933711089778591 -0.05944530666397257 0.005474221902126509 0.024572112963004978
0.08128386827845 0.005936913957560853 0.026750874380871013 0.9927652995273725 -0.0644971839355803 0.0015794596863451659 0.013455125498483036 -0.0013765463999632901 -0.008459537833452333
 0.9927652995273725 -0.0644971839355803 0.00592886124537782 0.026751524422516118 -0.0013761626366895088 -0.008459551337694438 0.001631109951377971 0.01344807078274875
 0.0015794596863451659 0.013455125498483036 -0.0013761626366895088 -0.008459551337694438 0.005937159762331568 0.026749796191940924 0.992765250965666 -0.06449828232609851
 -0.0013765463999632901 -0.008459537833452333 0.001631109951377971 0.01344807078274875 0.992765250965666 -0.06449828232609851 0.005928537111614731 0.026750502714317382
0.08753647353064001 0.006418192960508252 0.028946529170778206 0.9921254054109286 -0.06956481140852097 0.0017885014143982116 0.01448829143503329 -0.0015567696514543394 -0.009111296807867628
 0.9921254054109286 -0.06956481140852097 0.006408854234296169 0.02894726776420663 -0.0015563260650576214 -0.009111316055575061 0.0018484178887489505 0.014479891574205464
 0.0017885014143982116 0.01448829143503329 -0.0015563260650576214 -0.009111316055575061 0.00641847908414746 0.028945371280467997 0.9921253489384674 -0.06956599670804788
 -0.0015567696514543394 -0.009111296807867628 0.0018484178887489505 0.014479891574205464 0.9921253489384674 -0.06956599670804788 0.006408479196957821 0.02894617610077947
0.09378907878283 0.00692560667431185 0.0311589902485256 0.9914510700394211 -0.0746468575814657 0.0020113859389123815 0.015520141125685573 -0.0017489730046929162 -0.009762039715548284
 0.9914510700394211 -0.0746468575814657 0.0069148861390654235 0.03115982406905584 -0.001748465455220281 -0.009762065655715748 0.0020801841092862993 0.015510233167935558
 0.0020113859389123815 0.015520141125685573 -0.001748465455220281 -0.009762065655715748 0.006925936327114893 0.031157753354107354 0.991451004953342 -0.07464813035974927
 -0.0017489730046929162 -0.009762039715548284 0.0020801841092862993 0.015510233167935558 0.991451004953342 -0.07464813035974927 0.0069144566211745495 0.031158664323722673
0.100041684035 0.007459558555444428 0.03338778922662195 0.9907418995270102 -0.07974298338578956 0.0022482034656130545 0.01655043511794051 -0.001953250143978098 -0.01041152542525472
 0.9907418995270102 -0.07974298338578956 0.007447360180857799 0.03338872521220422 -0.0019526745282432171 -0.01041155906179265 0.002326498796959463 0.016538846072102965
 0.0022482034656130545 0.01655043511794051 -0.0019526745282432171 -0.01041155906179265 0.007459934985684839 0.03338647406808114 0.9907418250952708 -0.07974434425764014
 -0.001953250143978098 -0.01041152542525472 0.002326498796959463 0.016538846072102965 0.9907418250952708 -0.07974434425764014 0.0074468726434977015 0.03338749938628536
0.1059090909091 0.007985106618765078 0.03549372159248585 0.9900443889979494 -0.08453764472416571 0.0024831794973928303 0.017515624203250566 -0.0021560024689977588 -0.011019637247815949
 0.9900443889979494 -0.08453764472416571 0.007971433874420774 0.035494760003314106 -0.0021553592813776446 -0.011019679068402536 0.0025709465119171412 0.01750229128150561
 0.0024831794973928303 0.017515624203250566 -0.0021553592813776446 -0.011019679068402536 0.007985529934476042 0.035492333702618555 0.9900443051029046 -0.08453908886026154
 -0.0021560024689977588 -0.011019637247815949 0.0025709465119171412 0.01750229128150561 0.9900443051029046 -0.08453908886026154 0.007970888709978322 0.03549347410307763
0.1062942892872 0.008020446688540451 0.03563245658710799 0.9899975043496466 -0.08485283215891896 0.002499039224195472 0.017578928995774963 -0.0021696895869680603 -0.011059508904569209
 0.9899975043496466 -0.08485283215891896 0.008006674179206535 0.03563350195000317 -0.002169041838706025 -0.0110595512961401 0.0025874470067882072 0.017565475744289506
 0.002499039224195472 0.017578928995774963 -0.002169041838706025 -0.0110595512961401 0.008020873184372774 0.03563106394777347 0.9899974198091224 -0.08485428178205971
 -0.0021696895869680603 -0.011059508904569209 0.0025874470067882072 0.017565475744289506 0.9899974198091224 -0.08485428178205971 0.008006125124532594 0.0356322121744881
0.11254689453939999 0.008608663574719648 0.03789252023475846 0.9892174996640376 -0.08997603116430046 0.002763973288767676 0.01860537358026795 -0.002398374519849295 -0.011705741207949222
 0.9892174996640376 -0.08997603116430046 0.008593220340058789 0.03789368247452369 -0.0023976506099963203 -0.011705793467848525 0.0028631084792549236 0.01858986279488139
 0.002763973288767676 0.01860537358026795 -0.0023976506099963203 -0.011705793467848525 0.008609143465927654 0.03789105094051945 0.9892174042180346 -0.08997757023856333
 -0.002398374519849295 -0.011705741207949222 0.0028631084792549236 0.01858986279488139 0.9892174042180346 -0.08997757023856333 0.008592606314327442 0.03789233101037837
0.11879949979160001 0.009224595909003893 0.04016750438519316 0.988401505616892 -0.0951121927921662 0.0030430804005650083 0.01962951510624673 -0.0026393826318383967 -0.012349969502316276
 0.988401505616892 -0.0951121927921662 0.009207385033232228 0.0401687913032333 -0.002638578568695247 -0.012350032798284671 0.003153557457328719 0.019611743166821426
 0.0030430804005650083 0.01962951510624673 -0.002638578568695247 -0.012350032798284671 0.00922513256897274 0.04016595930446258 0.9884013984336525 -0.09511382205776467
 -0.0026393826318383967 -0.012349969502316276 0.003153557457328719 0.019611743166821426 0.9884013984336525 -0.09511382205776467 0.009206702629880464 0.04016738054236175
0.1250521050438 0.00986862434841736 0.042456928704945135 0.9875491476481779 -0.10026091552491409 0.003336429793181711 0.02065109539554378 -0.002892785949399528 -0.012991937109358061
 0.9875491476481779 -0.10026091552491409 0.009849548560729095 0.04245834842034486 -0.0028918977789890842 -0.012992012663436315 0.0034588625066150915 0.020630848312015643
 0.003336429793181711 0.02065109539554378 -0.0028918977789890842 -0.012992012663436315 0.009869221195944236 0.04245530874542429 0.9875490278582907 -0.10026263576387635
 -0.002892785949399528 -0.012991937109358061 0.0034588625066150915 0.020630848312015643 0.9875490278582907 -0.10026263576387635 0.009848794423632136 0.0424568808833667
0.131304710296 0.010541123273083153 0.04476030764466986 0.9866600567879439 -0.10542178472573968 0.003644085020041153 0.02166985201806025 -0.0031586506710403186 -0.013631383573769971
 0.9866600567879439 -0.10542178472573968 0.010520084917488076 0.04476186861168862 -0.0031576744774525246 -0.013631472662127705 0.0037790863377475436 0.0216469053557827
 0.003644085020041153 0.02166985201806025 -0.0031576744774525246 -0.013631472662127705 0.010541783774442162 0.044758613755395256 0.9866599234824998 -0.10542359675768023
 -0.0031586506710403186 -0.013631383573769971 0.0037790863377475436 0.0216469053557827 0.9866599234824998 -0.10542359675768023 0.010519255744306734 0.04476034695098063
0.1375573155481 0.011100130660599315 0.04677692375395206 0.9858762842268964 -0.11029392148990587 0.003930129581417125 0.02265669450895999 -0.003400919533354571 -0.01423937296660984
 0.9858762842268964 -0.11029392148990587 0.011077023733953351 0.04677860051750186 -0.003399849299162137 -0.014239475863300818 0.0040780079910777015 0.022631056606935426
 0.003930129581417125 0.02265669450895999 -0.003399849299162137 -0.014239475863300818 0.011100857130482185 0.046775157041375685 0.9858761367409584 -0.11029582584545933
 -0.003400919533354571 -0.01423937296660984 0.0040780079910777015 0.022631056606935426 0.9858761367409584 -0.11029582584545933 0.01107611695183365 0.04677702680888747
0.1438099208003 0.011679117782170732 0.04878063396322782 0.9850642971764028 -0.1151514064435763 0.004227622612588897 0.02363825037403249 -0.003652772782691268 -0.014842410746195887
 0.9850642971764028 -0.1151514064435763 0.011653842871220729 0.04878243323005736 -0.0036516042691006854 -0.014842528729632992 0.004388935058000987 0.023609713530176196
 0.004227622612588897 0.02363825037403249 -0.0036516042691006854 -0.014842528729632992 0.01167991354886586 0.048778795479537146 0.985064134594031 -0.11515340393274787
 -0.003652772782691268 -0.014842410746195887 0.004388935058000987 0.023609713530176196 0.985064134594031 -0.11515340393274787 0.011652855385657917 0.048780810196008675
0.1500625260525 0.01227784403866153 0.05077120359594233 0.9842243418891711 -0.11999405045906067 0.004536436684896662 0.02461437843497836 -0.003914084147067922 -0.015440361362923802
 0.9842243418891711 -0.11999405045906067 0.012250301330424273 0.05077313255576289 -0.003912813126808702 -0.01544049576340981 0.004711735828981128 0.024582727363407015
 0.004536436684896662 0.02461437843497836 -0.003912813126808702 -0.01544049576340981 0.012278712463675744 0.05076929443361621 0.9842241632604056 -0.11999614191869397
 -0.003914084147067922 -0.015440361362923802 0.004711735828981128 0.024582727363407015 0.9842241632604056 -0.11999614191869397 0.012249230107038392 0.05077146302434633
0.15631513130469998 0.012896066675240526 0.05274840501831423 0.983356666372012 -0.12482166669905954 0.004856442615793856 0.02558494052214879 -0.004184725561849759 -0.016033092645728934
 0.983356666372012 -0.12482166669905954 0.012866155947015867 0.05275047136281141 -0.004183347819313772 -0.016033244845309935 0.005046276762702047 0.025549952448192925
