! Created with skrf 1.8.0 (http://scikit-rf.org).
# GHz S RI R 50.0 
!freq ReS11 ImS11 ReS12 ImS12 ReS13 ImS13
! ReS14 ImS14
! ReS21 ImS21 ReS22 ImS22 ReS23 ImS23
! ReS24 ImS24
! ReS31 ImS31 ReS32 ImS32 ReS33 ImS33
! ReS34 ImS34
! ReS41 ImS41 ReS42 ImS42 ReS43 ImS43
! ReS44 ImS44
!
0.0 0.001600582324206 0.0 0.9983994176545 0.0 6.210569004156e-05 0.0 -6.210569008574e-05 7.6057534572339e-21
 0.9983994176545 0.0 0.001600582324199 0.0 -6.210569008607e-05 7.605753457274313e-21 6.210569004137e-05 0.0
 6.210569004156e-05 0.0 -6.210569008607e-05 7.605753457274313e-21 0.001600582327054 0.0 0.9983994176573 0.0
 -6.210569008574e-05 7.6057534572339e-21 6.210569004137e-05 0.0 0.9983994176573 0.0 0.001600582327031 0.0
0.005 0.001722330273149832 0.0013041402700160638 0.9982453491233164 -0.0033529278626514922 8.78731624531995e-05 0.000714876350326037 -8.516246267874733e-05 -0.0004433383592701296
 0.9982453491233164 -0.0033529278626514922 0.0017223289172625471 0.001304141157302215 -8.515946233057991e-05 -0.0004433361742910313 8.788308746452184e-05 0.0007148725002225033
 8.78731624531995e-05 0.000714876350326037 -8.515946233057991e-05 -0.0004433361742910313 0.0017223315777056217 0.0013042068462938371 0.9982453494807884 -0.0033528607934667064
 -8.516246267874733e-05 -0.0004433383592701296 8.788308746452184e-05 0.0007148725002225033 0.9982453494807884 -0.0033528607934667064 0.0017223283183723254 0.0013042087100885453
0.006252605252188 0.0017543146410197745 0.0016353217972182807 0.998204609206811 -0.004191973626683959 9.526101517145073e-05 0.000893924293121422 -9.170214509565223e-05 -0.0005547497728191366
 0.998204609206811 -0.004191973626683959 0.0017543125209484225 0.0016353229601041108 -9.169747535622765e-05 -0.0005547470815267528 9.527652122221182e-05 0.0008939193035091842
 9.526101517145073e-05 0.000893924293121422 -9.169747535622765e-05 -0.0005547470815267528 0.001754316615818927 0.0016354050076262407 0.998204609701822 -0.004191889804290832
 -9.170214509565223e-05 -0.0005547497728191366 9.527652122221182e-05 0.0008939193035091842 0.998204609701822 -0.004191889804290832 0.0017543115213581588 0.0016354073739620189
0.01250521050438 0.0019229991003375305 0.0033050083211966304 0.9979882856483483 -0.008384718345753467 0.00013776716359806807 0.0017880937700742391 -0.00012896779380093044 -0.001112180956963985
 0.9979882856483483 -0.008384718345753467 0.0019229906241999082 0.0033050111887464673 -0.00012894937919275592 -0.0011121760149805642 0.0001378289723159699 0.0017880818699825237
 0.00013776716359806807 0.0017880937700742391 -0.00012894937919275592 -0.0011121760149805642 0.00192300641494432 0.0033051745194130587 0.9979882870681948 -0.008384550930418082
 -0.00012896779380093044 -0.001112180956963985 0.0001378289723159699 0.0017880818699825237 0.9979882870681948 -0.008384550930418082 0.0019229860817363352 0.0033051796321578474
0.01875781575657 0.0021070157995321053 0.004998501107283754 0.9977501697940508 -0.012588430414458698 0.00018972433174784247 0.0026831324274940076 -0.00017402054508547585 -0.0016714401621670178
 0.9977501697940508 -0.012588430414458698 0.0021069967316554796 0.004998506244571809 -0.0001739794638740279 -0.001671433502385504 0.00018986311564969064 0.002683111297899421
 0.00018972433174784247 0.0026831324274940076 -0.0001739794638740279 -0.001671433502385504 0.0021070317833095384 0.004998750151631652 0.9977501725623773 -0.012588179464483228
 -0.00017402054508547585 -0.0016714401621670178 0.00018986311564969064 0.002683111297899421 0.9977501725623773 -0.012588179464483228 0.0021069861122396225 0.004998758446402025
0.02501042100875 0.002306732905594773 0.0067134039996411205 0.9974899732351612 -0.016805131834102923 0.0002512339781788036 0.0035790759858920166 -0.00022697408017409416 -0.0022322555342064875
 0.9974899732351612 -0.016805131834102923 0.0023066990084209104 0.0067134119954552676 -0.00022690151236395514 -0.002232247790468275 0.0002514803793370283 0.00357904292709384
 0.0002512339781788036 0.0035790759858920166 -0.00022690151236395514 -0.002232247790468275 0.00230676086841703 0.006713735730351632 0.9974899777822569 -0.016804797337398644
 -0.00022697408017409416 -0.0022322555342064875 0.0002514803793370283 0.00357904292709384 0.9974899777822569 -0.016804797337398644 0.0023066797917754584 0.006713747694855274
0.03126302626094 0.0025225033319675886 0.008448475664115369 0.9972073933011465 -0.021035677810185532 0.00032239788976223734 0.004475873834058835 -0.0002879386114134896 -0.002794434850588463
 0.9972073933011465 -0.021035677810185532 0.002522450364981736 0.008448487131271545 -0.0002878258215572188 -0.0027944267588263893 0.00032278254616130675 0.004475825765151951
 0.00032239788976223734 0.004475873834058835 -0.0002878258215572188 -0.0027944267588263893 0.0025225465637363576 0.008448889854697059 0.9972074000629703 -0.021035259732834002
 -0.0002879386114134896 -0.002794434850588463 0.00032278254616130675 0.004475825765151951 0.9972074000629703 -0.021035259732834002 0.0025224200404405346 0.00844890602862358
0.037515631513130004 0.0027546721962261834 0.010202900472029921 0.9969021207837091 -0.025280485808092088 0.0004033171644670971 0.005373441185575585 -0.0003570217143685852 -0.0033578133776780623
 0.9969021207837091 -0.025280485808092088 0.0027545959155815787 0.010202916047452725 -0.0003568600430097773 -0.0033578057763369953 0.0004038707196204672 0.005373374642025516
 0.0004033171644670971 0.005373441185575585 -0.0003568600430097773 -0.0033578057763369953 0.002754733962435587 0.010203396850821455 0.996902130198055 -0.025279984072490855
 -0.0003570217143685852 -0.0033578133776780623 0.0004038707196204672 0.005373374642025516 0.996902130198055 -0.025279984072490855 0.0027545519748805756 0.01020341782598911
0.043768236765320004 0.003003579693373471 0.01197606665766915 0.996573843076732 -0.029539757325513897 0.0004940917299012793 0.006271674944671699 -0.0004343286202032141 -0.003922238016242347
 0.996573843076732 -0.029539757325513897 0.0030034758517603344 0.011976087002434247 -0.00043410947896280774 -0.003922231846474548 0.0004948448354032601 0.0062715860754411846
 0.0004940917299012793 0.006271674944671699 -0.00043410947896280774 -0.003922231846474548 0.003003663238970124 0.011976644885673437 0.9965738555878263 -0.02953917183212695
 -0.0004343286202032141 -0.003922238016242347 0.0004948448354032601 0.0062715860754411846 0.9965738555878263 -0.02953917183212695 0.003003415790731011 0.011976671306390007
0.050020842017509996 0.0032695624268976983 0.013767474594090218 0.9962222457776038 -0.03381356954513271 0.0005948200507270885 0.007170460262679129 -0.000519962316536457 -0.0044875607585415376
 0.9962222457776038 -0.03381356954513271 0.0032694267728540084 0.013767500393623606 -0.0005196771850036862 -0.004487557064347716 0.0005958033647468564 0.007170344827204017
 0.0005948200507270885 0.007170460262679129 -0.0005196771850036862 -0.004487557064347716 0.0032696709746710935 0.01376813427568943 0.9962222618363279 -0.03381290016144318
 -0.000519962316536457 -0.0044875607585415376 0.0005958033647468564 0.007170344827204017 0.9962222618363279 -0.03381290016144318 0.0032693480888999382 0.013768166839132026
0.055454545454549996 0.003514835887724668 0.015338739841295112 0.9958975138814521 -0.037539450462113114 0.0006905148974171793 0.007951884226069017 -0.0006012212779936582 -0.004979459225662652
 0.9958975138814521 -0.037539450462113114 0.003514669132003702 0.015338770956744045 -0.0006008719306262757 -0.004979458610608284 0.0006917231702976949 0.00795174195505838
 0.0006905148974171793 0.007951884226069017 -0.0006008719306262757 -0.004979458610608284 0.0035149687634873097 0.015339469939247712 0.9958975333951762 -0.03753870804566422
 -0.0006012212779936582 -0.004979459225662652 0.0006917231702976949 0.00795174195505838 0.9958975333951762 -0.03753870804566422 0.0035145722321683814 0.015339508448551557
0.056273447269699996 0.003552954084304898 0.015576691813428765 0.9958470136376038 -0.03810192024498497 0.000705598917275876 0.008069673758672818 -0.0006140235642882189 -0.0050536354850408945
 0.9958470136376038 -0.03810192024498497 0.003552782362457959 0.015576723777514968 -0.0006136639881163796 -0.005053635413341285 0.0007068431009885515 0.008069527123835888
 0.000705598917275876 0.008069673758672818 -0.0006136639881163796 -0.005053635413341285 0.0035530908349353605 0.015577432489814242 0.9958470337021885 -0.03810116681161498
 -0.0006140235642882189 -0.0050536354850408945 0.0007068431009885515 0.008069527123835888 0.9958470337021885 -0.03810116681161498 0.003552682553213354 0.015577471946560067
0.06252605252188 0.00385408579399592 0.01740332825471892 0.9954478311969044 -0.04240475248499522 0.0008265232760537295 0.008969185295309474 -0.0007166108706860443 -0.005620316210570634
 0.9954478311969044 -0.04240475248499522 0.00385387374490527 0.0174033671176254 -0.0007161684604399466 -0.005620321011265842 0.0008280589882884875 0.008969002432445175
 0.0008265232760537295 0.008969185295309474 -0.0007161684604399466 -0.005620321011265842 0.003854253925452199 0.017404149402714827 0.9954478557342147 -0.04240391481651692
 -0.0007166108706860443 -0.005620316210570634 0.0008280589882884875 0.008969002432445175 0.9954478557342147 -0.04240391481651692 0.0038537503062613956 0.017404196557262382
0.06877865777407 0.004173286304790792 0.01924702151676842 0.9950243832466674 -0.04672196929321925 0.0009576860829884602 0.009868859040398931 -0.0008278204374028345 -0.0061874560498849625
 0.9950243832466674 -0.04672196929321925 0.004173029664543675 0.01924706803740546 -0.00082728686781646 -0.006187467075893746 0.0009595439738340901 0.009868634522437483
 0.0009576860829884602 0.009868859040398931 -0.00082728686781646 -0.006187467075893746 0.004173488971567743 0.0192479225507221 0.9950244127332115 -0.046721047175931535
 -0.0008278204374028345 -0.0061874560498849625 0.0009595439738340901 0.009868634522437483 0.9950244127332115 -0.046721047175931535 0.00417288008929138 0.019247978262129466
0.07503126302626001 0.004510882061773602 0.021107427517327266 0.9945763551926918 -0.051053442951476735 0.0010991781699054147 0.010768554150699473 -0.0009477460935773829 -0.006754906566537048
 0.9945763551926918 -0.051053442951476735 0.004510576562447064 0.021107482479363972 -0.000947113103251758 -0.006754925273820695 0.0011013888734621624 0.010768282149423611
 0.0010991781699054147 0.010768554150699473 -0.000947113103251758 -0.006754925273820695 0.004511122394121912 0.021108407782755242 0.9945763901149559 -0.05105243614945132
 -0.0009477460935773829 -0.006754906566537048 0.0011013888734621624 0.010768282149423611 0.9945763901149559 -0.05105243614945132 0.0045103983384775104 0.021108472965190236
0.08128386827845 0.00486719721756255 0.02298421426105225 0.9941034333564733 -0.055399021177956004 0.0012510881195544048 0.01166812523101854 -0.0010764792187114344 -0.007322517352238791
 0.9941034333564733 -0.055399021177956004 0.004866838586417373 0.022984278473142692 -0.0010757386100114848 -0.007322545299800976 0.0012536822459599682 0.011667799514468821
 0.0012510881195544048 0.01166812523101854 -0.0010757386100114848 -0.007322545299800976 0.004867478320976109 0.022985273042915453 0.9941034742127404 -0.05539792942448115
 -0.0010764792187114344 -0.007322517352238791 0.0012536822459599682 0.011667799514468821 0.9941034742127404 -0.05539792942448115 0.004866629195634548 0.022985348666484478
0.08753647353064001 0.0052425535986854585 0.02487705756381801 0.99360530523767 -0.05975853136012185 0.0014135021456388092 0.012567422660296656 -0.0012141086589277268 -0.007890135745248519
 0.99360530523767 -0.05975853136012185 0.005242137558595761 0.024877131859771993 -0.001213252298194264 -0.007890174595112197 0.0014165102725918356 0.01256703659034894
 0.0014135021456388092 0.012567422660296656 -0.001213252298194264 -0.007890174595112197 0.005242878553311062 0.02487819407600145 0.9936053525385962 -0.0597573543680275
 -0.0012141086589277268 -0.007890135745248519 0.0014165102725918356 0.01256703659034894 0.9936053525385962 -0.0597573543680275 0.005241894474997875 0.02487828116738352
0.09378907878283 0.0056372706439062606 0.026785637966449387 0.9930816597500133 -0.06413178360485632 0.001586503976930082 0.013466292835158907 -0.0013607206379989926 -0.008457606637519129
 0.9930816597500133 -0.06413178360485632 0.005636792913209766 0.02678572320547442 -0.0013597404557980084 -0.008457658154701392 0.0015899566407307217 0.013465839365262591
 0.001586503976930082 0.013466292835158907 -0.0013597404557980084 -0.008457658154701392 0.00563764250309771 0.02678685136131961 0.99308171401948 -0.06413052105669566
 -0.0013607206379989926 -0.008457606637519129 0.0015899566407307217 0.013465839365262591 0.99308171401948 -0.06413052105669566 0.005636513601233005 0.026786951004634726
0.100041684035 0.00605166531791457 0.0287096385036314 0.9925321874383244 -0.0685185729403986 0.0017701747434410743 0.014364578356330156 -0.0015163986650896938 -0.009024772345298788
 0.9925321874383244 -0.0685185729403986 0.006051121610346031 0.028709735570586835 -0.0015152866566821453 -0.009024838397743191 0.0017741024296035533 0.014364050029440691
 0.0017701747434410743 0.014364578356330156 -0.0015152866566821453 -0.009024838397743191 0.006052087108255946 0.028710927864195098 0.9925322492149997 -0.06851722449625626
 -0.0015163986650896938 -0.009024772345298788 0.0017741024296035533 0.014364050029440691 0.9925322492149997 -0.06851722449625626 0.006050803523832541 0.028711041201842768
0.1059090909091 0.006458707447044394 0.030528851743542158 0.9919928026923744 -0.07264722693048652 0.0019523034475113909 0.015206848897867014 -0.001670803376796324 -0.009556576844714072
 0.9919928026923744 -0.07264722693048652 0.006458097924632378 0.030528960737645456 -0.001669560441334692 -0.00955665832746359 0.0019567045642189525 0.015206243176249665
 0.0019523034475113909 0.015206848897867014 -0.001669560441334692 -0.00955665832746359 0.006459178819783771 0.030530211498353665 0.9919928720173431 -0.07264579754849239
 -0.001670803376796324 -0.009556576844714072 0.0019567045642189525 0.015206243176249665 0.9919928720173431 -0.07264579754849239 0.006457741125454798 0.0305303387783604
0.1062942892872 0.006486052012269839 0.030648743011364027 0.9919565806839413 -0.07291868098721156 0.0019645928646265503 0.0152621181795211 -0.0016812234396432432 -0.00959147252187441
 0.9919565806839413 -0.07291868098721156 0.006485438036799512 0.030648852817082173 -0.0016799716654907603 -0.009591555080385245 0.001969025998129848 0.015261507126270914
 0.0019645928646265503 0.0152621181795211 -0.0016799716654907603 -0.009591555080385245 0.006486526731873245 0.030650107355834535 0.9919566505217926 -0.07291724627998813
 -0.0016812234396432432 -0.00959147252187441 0.001969025998129848 0.015261507126270914 0.9919566505217926 -0.07291724627998813 0.006485078617044873 0.03065023558936976
0.11254689453939999 0.006940742431594754 0.0326026348495495 0.9913545339010158 -0.07733187722108441 0.0021698339386679367 0.016158747741045594 -0.0018552727543812402 -0.010157544102244023
 0.9913545339010158 -0.07733187722108441 0.006940053892543479 0.0326027583311223 -0.0018538733408363548 -0.010157645240378222 0.002174802873902571 0.016158045678011747
 0.0021698339386679367 0.016158747741045594 -0.0018538733408363548 -0.010157645240378222 0.006941273049467454 0.032604073129096474 0.9913546123704932 -0.07733035585871788
 -0.0018552727543812402 -0.010157544102244023 0.002174802873902571 0.016158045678011747 0.9913546123704932 -0.07733035585871788 0.0069396505665706805 0.032604217520222196
0.11879949979160001 0.0074160454716180905 0.03457099590406364 0.990725743725705 -0.08175791996469965 0.0023859706330133456 0.017054299066520645 -0.002038621396720353 -0.010722821271365153
 0.990725743725705 -0.08175791996469965 0.007415278068593632 0.03457113402522993 -0.0020370665367015423 -0.010722943165312158 0.0023915056433034907 0.01705349729486341
 0.0023859706330133456 0.017054299066520645 -0.0020370665367015423 -0.010722943165312158 0.0074166349270386135 0.034572507000418196 0.9907258314150662 -0.0817563115326149
 -0.002038621396720353 -0.010722821271365153 0.0023915056433034907 0.01705349729486341 0.9907258314150662 -0.0817563115326149 0.007414828248117943 0.03457266887196669
0.1250521050438 0.007912267089280452 0.03655350580530125 0.9900699092013528 -0.0861965571705374 0.0026130725755891507 0.017948600868060445 -0.002231341048979078 -0.011287135451094252
 0.9900699092013528 -0.0861965571705374 0.007911416516993121 0.036553659556850616 -0.002229623002752067 -0.011287280379543574 0.0026192038426747716 0.017947690272264668
 0.0026130725755891507 0.017948600868060445 -0.002229623002752067 -0.011287280379543574 0.007912918290234414 0.03655508853577573 0.9900700067171837 -0.08619486122663844
 -0.002231341048979078 -0.011287135451094252 0.0026192038426747716 0.017947690272264668 0.9900700067171837 -0.08619486122663844 0.007910917596461143 0.03655526927277323
0.131304710296 0.008429710166334278 0.0385498413054927 0.9893867319597354 -0.09064752705327755 0.0028512062469147757 0.01884147863486191 -0.0024335001879298803 -0.01185031530048072
 0.9893867319597354 -0.09064752705327755 0.008428772114956221 0.0385500117056439 -0.0024316112840039226 -0.01185048564442353 0.0028579638499234917 0.018840449681759925
 0.0028512062469147757 0.01884147863486191 -0.0024316112840039226 -0.01185048564442353 0.008430425989097686 0.038551494418754745 0.9893868399286307 -0.09064574313242144
 -0.0024335001879298803 -0.01185031530048072 0.0028579638499234917 0.018840449681759925 0.9893868399286307 -0.09064574313242144 0.008428221470075086 0.03855169546958036
0.1375573155481 0.008852231444622312 0.04029835801658998 0.9887924083602442 -0.09484910601039086 0.0030710376304504193 0.0197065347506365 -0.002615766401990827 -0.012385992866611953
 0.9887924083602442 -0.09484910601039086 0.008851202476937128 0.04029854091121379 -0.002613695590559051 -0.012386188906045403 0.003078438708954557 0.019705388767909338
 0.0030710376304504193 0.0197065347506365 -0.002613695590559051 -0.012386188906045403 0.008853016065796346 0.040300079621530406 0.9887925272729091 -0.09484723382589455
 -0.002615766401990827 -0.012385992866611953 0.003078438708954557 0.019705388767909338 0.9887925272729091 -0.09484723382589455 0.008850596419637723 0.040300298801587635
0.1438099208003 0.009289675783059732 0.042037221731660475 0.9881770591052152 -0.099039607497718 0.0032997435751632156 0.02056788599201762 -0.0028053192332729003 -0.012918269119932628
 0.9881770591052152 -0.099039607497718 0.009288551756643572 0.04203741773259486 -0.0028030583321538506 -0.012918493194447635 0.003307815726081154 0.020566614235001852
 0.0032997435751632156 0.02056788599201762 -0.0028030583321538506 -0.012918493194447635 0.009290532269603174 0.04203901043711367 0.9881771895890162 -0.09903764659020248
 -0.0028053192332729003 -0.012918269119932628 0.003307815726081154 0.020566614235001852 0.9881771895890162 -0.09903764659020248 0.00928788744155528 0.0420392489731093
0.1500625260525 0.009741882979715679 0.04376627447255932 0.987540848862165 -0.10321891472530369 0.0035372416662420277 0.021425437410420634 -0.0030020782907076646 -0.013447054080907475
 0.987540848862165 -0.10321891472530369 0.009740659761501895 0.04376648422098634 -0.0029996191422777675 -0.013447308623316017 0.0035460122381965305 0.021424030830601515
 0.0035372416662420277 0.021425437410420634 -0.0029996191422777675 -0.013447308623316017 0.009742814383573896 0.0437681288260409 0.9875409915610838 -0.10321686462114432
 -0.0030020782907076646 -0.013447054080907475 0.0035460122381965305 0.021424030830601515 0.9875409915610838 -0.10321686462114432 0.009739934311993406 0.04376838800642386
0.15631513130469998 0.010208691616173712 0.045485362999162254 0.9868839432257975 -0.10738691159067439 0.0037834484698924084 0.022279095744207156 -0.0032059621486299136 -0.013972259742711239
 0.9868839432257975 -0.10738691159067439 0.010207365082657505 0.04548558716594213 -0.0032032966204451133 -0.013972547278445963 0.003792944557511519 0.022277544994591263
