! Created with skrf 1.8.0 (http://scikit-rf.org).
# GHz S RI R 50.0 
!freq ReS11 ImS11 ReS12 ImS12 ReS13 ImS13
! ReS14 ImS14
! ReS21 ImS21 ReS22 ImS22 ReS23 ImS23
! ReS24 ImS24
! ReS31 ImS31 ReS32 ImS32 ReS33 ImS33
! ReS34 ImS34
! ReS41 ImS41 ReS42 ImS42 ReS43 ImS43
! ReS44 ImS44
!
0.0 0.001953732782192 0.0 0.9980462672177 0.0 7.604994970213e-05 0.0 -7.604994845872e-05 9.313432595529264e-21
 0.9980462672177 0.0 0.001953732782214 0.0 -7.604994845911e-05 9.313432595577025e-21 7.604994970256e-05 0.0
 7.604994970213e-05 0.0 -7.604994845911e-05 9.313432595577025e-21 0.001953732769409 0.0 0.9980462672049 0.0
 -7.604994845872e-05 9.313432595529264e-21 7.604994970256e-05 0.0 0.9980462672049 0.0 0.001953732769421 0.0
0.005 0.0021035390224198353 0.0015966983587014714 0.9978564836561767 -0.004091049974576106 0.00010745144048263933 0.0008390078852099363 -0.0001042252436861632 -0.0005261631208361983
 0.9978564836561767 -0.004091049974576106 0.0021035482995786794 0.001596692867394801 -0.0001042235572140866 -0.0005261617717724895 0.00010741244973005667 0.0008390229480717147
 0.00010745144048263933 0.0008390078852099363 -0.0001042235572140866 -0.0005261617717724895 0.002103540564812268 0.0015967646855596217 0.9978564840494685 -0.004090982924826629
 -0.0001042252436861632 -0.0005261631208361983 0.00010741244973005667 0.0008390229480717147 0.9978564840494685 -0.004090982924826629 0.002103547546996322 0.0015967606469249487
0.006252605252188 0.0021432749109246705 0.002002092382772736 0.9978057572103195 -0.005114740473303606 0.00011666623541388528 0.0010491366074231036 -0.0001123859229333704 -0.0006583569203127604
 0.9978057572103195 -0.005114740473303606 0.0021432894129070406 0.002002085364258598 -0.00011238329911132734 -0.0006583552566506857 0.00011660531943115703 0.001049156158205609
 0.00011666623541388528 0.0010491366074231036 -0.00011238329911132734 -0.0006583552566506857 0.0021432772442977407 0.002002175292335957 0.9978057577468656 -0.005114656655659812
 -0.0001123859229333704 -0.0006583569203127604 0.00011660531943115703 0.001049156158205609 0.9978057577468656 -0.005114656655659812 0.002143288157776601 0.002002170104260117
0.01250521050438 0.0023550496945912505 0.0040454557656051235 0.997533306965882 -0.01022972745886679 0.00017079658604845556 0.0020984051185499045 -0.0001597915504376974 -0.001319603368348879
 0.997533306965882 -0.01022972745886679 0.0023551076044453466 0.004045440133249718 -0.00015978121628044075 -0.001319600293689742 0.00017055376061607118 0.0020984521662430634
 0.00017079658604845556 0.0020984051185499045 -0.00015978121628044075 -0.001319600293689742 0.0023550584631032304 0.0040456212719996755 0.9975333085492745 -0.010229560095672665
 -0.0001597915504376974 -0.001319603368348879 0.00017055376061607118 0.0020984521662430634 0.9975333085492745 -0.010229560095672665 0.0023551020273559864 0.004045609475351898
0.01875781575657 0.0025896102324341336 0.006117116689985823 0.9972285141178786 -0.01535729484237908 0.00023857924024881034 0.0031484316013739616 -0.00021843052319090605 -0.00198271271656325
 0.9972285141178786 -0.01535729484237908 0.0025897403664807365 0.006117090655540904 -0.0002184074868961316 -0.001982708541602055 0.00023803398410816048 0.0031485159902305392
 0.00023857924024881034 0.0031484316013739616 -0.0002184074868961316 -0.001982708541602055 0.002589629529186977 0.006117364621799476 0.9972285172486725 -0.015357044068469015
 -0.00021843052319090605 -0.00198271271656325 0.00023803398410816048 0.0031485159902305392 0.9972285172486725 -0.015357044068469015 0.002589727396980754 0.006117344687176727
0.02501042100875 0.0028474872756781345 0.008214052488521922 0.9968909582732438 -0.02049980458044464 0.0003201534708961008 0.004199179455208871 -0.000288458927276803 -0.002647309547120725
 0.9968909582732438 -0.02049980458044464 0.0028477183955807174 0.00821401407733098 -0.0002884182606663149 -0.002647304645598157 0.0003191853699849859 0.004199312866415238
 0.0003201534708961008 0.004199179455208871 -0.0002884182606663149 -0.002647304645598157 0.0028475212003092336 0.008214382703250638 0.9968909634511343 -0.020499470506746092
 -0.000288458927276803 -0.002647309547120725 0.0003191853699849859 0.004199312866415238 0.9968909634511343 -0.020499470506746092 0.002847694965914443 0.008214352996426614
0.03126302626094 0.0031291890375542675 0.010334645487651627 0.9965202014216418 -0.025658192526517444 0.00041565754762764266 0.005250513232006045 -0.0003700267429206315 -0.003313105909702572
 0.9965202014216418 -0.025658192526517444 0.00312954986437056 0.010334592538325747 -0.0003699635710474858 -0.0033131007188639027 0.00041414619081642706 0.005250709191284891
 0.00041565754762764266 0.005250513232006045 -0.0003699635710474858 -0.0033131007188639027 0.003129241692710933 0.010335057833458422 0.9965202091402865 -0.025657775277723404
 -0.0003700267429206315 -0.003313105909702572 0.00041414619081642706 0.005250709191284891 0.9965202091402865 -0.025657775277723404 0.003129512904170008 0.010335016615740667
0.037515631513130004 0.0034352111306557233 0.012477793867726517 0.9961157984322797 -0.03083285754030748 0.0005252272831236975 0.006302257222237742 -0.00046327887228406797 -0.00397984282111167
 0.9961157984322797 -0.03083285754030748 0.0034357303532591326 0.012477724031243049 -0.0004631883682050843 -0.003979837841797008 0.0005230522223988441 0.0063025311147303
 0.0005252272831236975 0.006302257222237742 -0.0004631883682050843 -0.003979837841797008 0.003435286626449423 0.012478288199079549 0.9961158091818693 -0.030832357238574474
 -0.00046327887228406797 -0.00397984282111167 0.0005230522223988441 0.0063025311147303 0.9961158091818693 -0.030832357238574474 0.0034356767934631814 0.012478233627217328
0.043768236765320004 0.0037660403662984876 0.01464264112583095 0.9956773014151059 -0.03602393198211688 0.0006489953017058123 0.0073542133281425115 -0.0005683554631820847 -0.004647272481918585
 0.9956773014151059 -0.03602393198211688 0.003766746648029169 0.014642551864092631 -0.0005682328449057532 -0.004647268278491446 0.0006460360402119457 0.007354582415391251
 0.0006489953017058123 0.0073542133281425115 -0.0005682328449057532 -0.004647268278491446 0.003766142819475132 0.014643217287887256 0.9956773156802624 -0.036023348761954836
 -0.0005683554631820847 -0.004647272481918585 0.0006460360402119457 0.007354582415391251 0.9956773156802624 -0.036023348761954836 0.003766673420177759 0.014643147413885367
0.050020842017509996 0.004122156468832434 0.016828464272988 0.9952042620027058 -0.04123139347548296 0.000787090571671654 0.008406168448750093 -0.0006853919738476567 -0.005315150990357395
 0.9952042620027058 -0.04123139347548296 0.004123078452897848 0.016828352857137355 -0.0006852325024663913 -0.005315148190611065 0.0007832265666130188 0.008406651886371103
 0.000787090571671654 0.008406168448750093 -0.0006852325024663913 -0.005315148190611065 0.004122290003644681 0.01682912210198343 0.9952042802619329 -0.0412307274823625
 -0.0006853919738476567 -0.005315150990357395 0.0007832265666130188 0.008406651886371103 0.9952042802619329 -0.0412307274823625 0.004122982490321832 0.01682903487264139
0.055454545454549996 0.004452536050386009 0.01874454401867098 0.9947647762229505 -0.04577005051912163 0.0009188321775768635 0.00932017446599641 -0.0007969148142302814 -0.005895733030143494
 0.9947647762229505 -0.04577005051912163 0.004453668735939515 0.018744410984538617 -0.0007967195003211707 -0.005895732009276257 0.0009140840006341516 0.009320774318727994
 0.0009188321775768635 0.00932017446599641 -0.0007967195003211707 -0.005895732009276257 0.004452699953358951 0.018745272674087796 0.9947647983387878 -0.04576931272452897
 -0.0007969148142302814 -0.005895733030143494 0.0009140840006341516 0.009320774318727994 0.9947647983387878 -0.04576931272452897 0.004453550529731276 0.01874516861274499
0.056273447269699996 0.004504032904849047 0.019034618975868552 0.9946962327533256 -0.04645511973400666 0.0009396380468912125 0.00945789815926213 -0.0008145191295324106 -0.0059832347732030845
 0.9946962327533256 -0.04645511973400666 0.004505199218945025 0.0190344824844626 -0.0008143181079686597 -0.005983234068263966 0.0009347487214527669 0.00945851701479746
 0.0009396380468912125 0.00945789815926213 -0.0008143181079686597 -0.005983234068263966 0.0045042016557747125 0.019035358292919972 0.9946962554811543 -0.04645437112974232
 -0.0008145191295324106 -0.0059832347732030845 0.0009347487214527669 0.00945851701479746 0.9946962554811543 -0.04645437112974232 0.004505077460239452 0.019035251549135872
0.06252605252188 0.004912137276718004 0.0212605094223145 0.9941527681255129 -0.05169491867647687 0.0011067583697538601 0.010509168729450175 -0.0009558628175070708 -0.0066512786903892875
 0.9941527681255129 -0.05169491867647687 0.004913576537427015 0.021260344739202228 -0.0009556155897388292 -0.006651280834596235 0.001100723131159196 0.010509946000056744
 0.0011067583697538601 0.010509168729450175 -0.0009556155897388292 -0.006651280834596235 0.004912345385462302 0.021261330040238488 0.9941527957882664 -0.051694087631495085
 -0.0009558628175070708 -0.0066512786903892875 0.001100723131159196 0.010509946000056744 0.9941527957882664 -0.051694087631495085 0.004913425924310302 0.02126120151609827
0.06877865777407 0.005346931472447938 0.023505570369025463 0.9935734252153522 -0.05695054637400732 0.0012885676022206163 0.01155973839322764 -0.001109543953661944 -0.0073190349019239586
 0.9935734252153522 -0.05695054637400732 0.0053486722891951865 0.023505374180989705 -0.001109245904232701 -0.0073190407127057076 0.0012812658640537703 0.01156069902309131
 0.0012885676022206163 0.01155973839322764 -0.001109245904232701 -0.0073190407127057076 0.005347183091225977 0.023506472085103904 0.9935734582732069 -0.05694963307355701
 -0.001109543953661944 -0.0073190349019239586 0.0012812658640537703 0.01156069902309131 0.9935734582732069 -0.05694963307355701 0.005348489770702039 0.02350631940681191
0.07503126302626001 0.005808871675352445 0.025769255783472694 0.9929577643581667 -0.06222171841809152 0.0014851769806905066 0.012609358151546414 -0.0012756783248830653 -0.007986252215647777
 0.9929577643581667 -0.06222171841809152 0.005810942654072524 0.02576902457774693 -0.0012753248785923512 -0.007986262573401017 0.0014764881886802786 0.012610529048863528
 0.0014851769806905066 0.012609358151546414 -0.0012753248785923512 -0.007986262573401017 0.005809170965869614 0.025770238378301044 0.9929578032639057 -0.06222072306249161
 -0.0012756783248830653 -0.007986252215647777 0.0014764881886802786 0.012610529048863528 0.9929578032639057 -0.06222072306249161 0.005810725186877747 0.02577005906276553
0.08128386827845 0.006298408282924302 0.02805103130403393 0.9923053496469378 -0.06750811748699467 0.00169669268002729 0.013657772360249044 -0.0014543764223500007 -0.008652675664664277
 0.9923053496469378 -0.06750811748699467 0.006300838030115972 0.028050761365461096 -0.0014539630441952334 -0.008652691512615827 0.0016864963404090568 0.013659182413710105
 0.00169669268002729 0.013657772360249044 -0.0014539630441952334 -0.008652691512615827 0.006298759416829238 0.02805209454180544 0.9923053948449044 -0.06750704029017543
 -0.0014543764223500007 -0.008652675664664277 0.0016864963404090568 0.013659182413710105 0.9923053948449044 -0.06750704029017543 0.006300582579647983 0.02805188599509337
0.08753647353064001 0.006815985763820283 0.030350369051704542 0.9916157493918578 -0.07280939857734367 0.0019232155881094878 0.01470471915655073 -0.0016457432648277364 -0.009318046261039362
 0.9916157493918578 -0.07280939857734367 0.00681880288969444 0.030350056459826438 -0.0016452654599505472 -0.00931806860511645 0.0019113912981927432 0.014706399251235796
 0.0019232155881094878 0.01470471915655073 -0.0016452654599505472 -0.00931806860511645 0.006816392923066734 0.03035151268069131 0.9916158013180327 -0.07280823976546057
 -0.0016457432648277364 -0.009318046261039362 0.0019113912981927432 0.014706399251235796 0.9916158013180327 -0.07280823976546057 0.006818506432242492 0.030351272196220396
0.09378907878283 0.0073620424760328625 0.032666743942327645 0.9908885365464645 -0.07812519275331181 0.0021648410862710847 0.01574993080364356 -0.0018498782171021146 -0.009982100846727049
 0.9908885365464645 -0.07812519275331181 0.007365275598123238 0.03266638456806584 -0.0018493315308852234 -0.00998213075541447 0.002151268566592344 0.015751913836364494
 0.0021648410862710847 0.01574993080364356 -0.0018493315308852234 -0.00998213075541447 0.007362509852998653 0.03266796769220223 0.9908885956274502 -0.0781239525661469
 -0.0018498782171021146 -0.009982100846727049 0.002151268566592344 0.015751913836364494 0.9908885956274502 -0.0781239525661469 0.007364935122040797 0.03266769244863655
0.100041684035 0.00793701045367631 0.03499963100928922 0.9901232891061454 -0.08345510990323286 0.0024216588339501396 0.01679313397075642 -0.0020668748052720606 -0.01064457202450325
 0.9901232891061454 -0.08345510990323286 0.007940688200279558 0.03499922051151736 -0.0020662548235616087 -0.010644610628678696 0.0024062179625682885 0.01679545486463396
 0.0024216588339501396 0.01679313397075642 -0.0020662548235616087 -0.010644610628678696 0.007937542251510733 0.035000934588212546 0.9901233557585694 -0.0834537885960054
 -0.0020668748052720606 -0.01064457202450325 0.0024062179625682885 0.01679545486463396 0.9901233557585694 -0.0834537885960054 0.007940300707553815 0.03500062164713877
0.1059090909091 0.008503230495949653 0.03720334645700753 0.9893702223414251 -0.08846915226242635 0.0026765468984399176 0.017769994635447813 -0.002282278629916199 -0.011264548931495696
 0.9893702223414251 -0.08846915226242635 0.008507351524913108 0.03720288384486332 -0.0022815858897518365 -0.011264596779436408 0.002659243698678348 0.01777266615568498
 0.0026765468984399176 0.017769994635447813 -0.0022815858897518365 -0.011264596779436408 0.008503826578019692 0.037204724664469384 0.9893702964687042 -0.08846775507551638
 -0.002282278629916199 -0.011264548931495696 0.002659243698678348 0.01777266615568498 0.9893702964687042 -0.08846775507551638 0.008506917198967944 0.03720437356917978
0.1062942892872 0.00854131517244873 0.03734850341196411 0.9893195904877882 -0.08879874082934827 0.0026937525589344653 0.017834049983835948 -0.0022968205293056095 -0.011305188134063579
 0.9893195904877882 -0.08879874082934827 0.008545466185731434 0.037348037233768436 -0.0022961228785962897 -0.011305236626847273 0.0026763234065210356 0.017836745702270517
 0.0026937525589344653 0.017834049983835948 -0.0022961228785962897 -0.011305236626847273 0.00854191560485002 0.03734988650952497 0.9893196651181722 -0.08879733866868701
 -0.0022968205293056095 -0.011305188134063579 0.0026763234065210356 0.017836745702270517 0.9893196651181722 -0.08879733866868701 0.008545028693660276 0.03734953281277073
0.11254689453939999 0.009175375299342654 0.03971283094065318 0.9884770298972764 -0.09415565886017005 0.0029811998499277605 0.018872395042035185 -0.0025397966751679567 -0.011963673278239545
 0.9884770298972764 -0.09415565886017005 0.009180028238633894 0.039712304305416966 -0.0025390170229098886 -0.011963732914846412 0.00296166271658555 0.018875504601844773
 0.0029811998499277605 0.018872395042035185 -0.0025390170229098886 -0.011963732914846412 0.009176048591242865 0.03971429322327843 0.9884771129009114 -0.09415417612736651
 -0.0025397966751679567 -0.011963673278239545 0.00296166271658555 0.018875504601844773 0.9884771129009114 -0.09415417612736651 0.009179537781455594 0.039713895590167095
0.11879949979160001 0.009839602430195098 0.04209207887194653 0.9875952026858307 -0.09952542113198998 0.0032840719531847524 0.019907880431942228 -0.002795878126755896 -0.012619747367523745
 0.9875952026858307 -0.09952542113198998 0.009844785975110433 0.04209148677906194 -0.002795012181671406 -0.012619819465056591 0.0032623074062246107 0.01991144491571372
 0.0032840719531847524 0.019907880431942228 -0.002795012181671406 -0.012619819465056591 0.009840352817136005 0.04209361998421944 0.9875952944462386 -0.09952385812045
 -0.002795878126755896 -0.012619747367523745 0.0032623074062246107 0.01991144491571372 0.9875952944462386 -0.09952385812045 0.009844239605323475 0.042093175108312106
0.1250521050438 0.010534400817420906 0.044485707099087855 0.9866737106977645 -0.1049075696150517 0.0036024335722567363 0.02094021272417895 -0.003065133178511586 -0.013273126198373396
 0.9866737106977645 -0.1049075696150517 0.010540143670640253 0.044485044319560824 -0.0030641766909759636 -0.013273212135675465 0.0035783224850190597 0.020944275291882714
 0.0036024335722567363 0.02094021272417895 -0.0030641766909759636 -0.013273212135675465 0.010535232546265315 0.044487326660759656 0.9866738115864659 -0.10490592663204724
 -0.003065133178511586 -0.013273126198373396 0.0035783224850190597 0.020944275291882714 0.9866738115864659 -0.10490592663204724 0.010539538460950383 0.044486831106490085
0.131304710296 0.011260167091092173 0.04689316945187845 0.9857121626132254 -0.11030163197052079 0.003936342671454593 0.021969093969029 -0.0033476233488753102 -0.013923521548813256
 0.9857121626132254 -0.11030163197052079 0.011266497981556002 0.046892430523560624 -0.0033465721113147256 -0.013923622766254785 0.003909766263270479 0.021973699868655647
 0.003936342671454593 0.021969093969029 -0.0033465721113147256 -0.013923622766254785 0.011261084419511274 0.04689486706062219 0.9857122729887049 -0.11029990933302931
 -0.0033476233488753102 -0.013923521548813256 0.003909766263270479 0.021973699868655647 0.9857122729887049 -0.11029990933302931 0.011265831026329658 0.04689431725954187
0.1375573155481 0.011865990963170644 0.0490014397015439 0.9848615656321564 -0.11539441811167118 0.004248196747882134 0.022965084053329088 -0.0036057845684269968 -0.014541511859571131
 0.9848615656321564 -0.11539441811167118 0.011872939557416768 0.049000633694493166 -0.0036046321098212276 -0.014541628716104493 0.004219088679427915 0.022970233009700355
 0.004248196747882134 0.022965084053329088 -0.0036046321098212276 -0.014541628716104493 0.011866997148187937 0.04900321535575125 0.9848616858950829 -0.11539261611537789
 -0.0036057845684269968 -0.014541511859571131 0.004219088679427915 0.022970233009700355 0.9848616858950829 -0.11539261611537789 0.011872208894513793 0.04900262148488399
0.1438099208003 0.012493511000767857 0.05109563129915495 0.9839802138548399 -0.12047126614243084 0.004572511085305188 0.023955146099481513 -0.0038741078132968182 -0.015154067653163865
 0.9839802138548399 -0.12047126614243084 0.012501106168167058 0.05109475367255751 -0.0038728495799980394 -0.015154201596762194 0.004540762500464173 0.023960880218674454
 0.004572511085305188 0.023955146099481513 -0.0038728495799980394 -0.015154201596762194 0.012494610140273418 0.051097484659127494 0.9839803443518342 -0.12046938512090567
 -0.0038741078132968182 -0.015154067653163865 0.004540762500464173 0.023960880218674454 0.9839803443518342 -0.12046938512090567 0.01250030909498195 0.05109684403849133
0.1500625260525 0.013142455718606751 0.05317548157891992 0.9830683844356443 -0.12553195993602514 0.004909139859359491 0.024939119071698875 -0.004152451383610541 -0.01576103959278286
 0.9830683844356443 -0.12553195993602514 0.013150726350570205 0.05317452756397556 -0.00415108283545437 -0.01576119213041057 0.004874642829230942 0.024945481990175135
 0.004909139859359491 0.024939119071698875 -0.00415108283545437 -0.01576119213041057 0.013143651911158105 0.05317741229159744 0.9830685255011857 -0.1255300002347344
 -0.004152451383610541 -0.01576103959278286 0.004874642829230942 0.024945481990175135 0.9830685255011857 -0.1255300002347344 0.013149860197023234 0.0531767220856966
0.15631513130469998 0.01381255110478408 0.05524073583163081 0.9821263566026917 -0.13057628633039556 0.005257935175867296 0.025916845513645235 -0.004440671528310547 -0.016362282227992145
 0.9821263566026917 -0.13057628633039556 0.013821526114615732 0.05523970042887101 -0.004439188138921983 -0.016362454925347887 0.005220582717298929 0.025923882376843742
