! Created with skrf 1.8.0 (http://scikit-rf.org).
# GHz S RI R 50.0 
!freq ReS11 ImS11 ReS12 ImS12 ReS13 ImS13
! ReS14 ImS14
! ReS21 ImS21 ReS22 ImS22 ReS23 ImS23
! ReS24 ImS24
! ReS31 ImS31 ReS32 ImS32 ReS33 ImS33
! ReS34 ImS34
! ReS41 ImS41 ReS42 ImS42 ReS43 ImS43
! ReS44 ImS44
!
0.0 0.001384028956626 0.0 0.9986159710235 0.0 5.268310858359e-05 0.0 -5.268310929367e-05 6.451820116562314e-21
 0.9986159710235 0.0 0.00138402895664 0.0 -5.268310929398e-05 6.451820116600278e-21 5.26831085829e-05 0.0
 5.268310858359e-05 0.0 -5.268310929398e-05 6.451820116600278e-21 0.001384028959466 0.0 0.9986159710263 0.0
 -5.268310929367e-05 6.451820116562314e-21 5.26831085829e-05 0.0 0.9986159710263 0.0 0.001384028959465 0.0
0.005 0.0014885947773909186 0.0011407071981340952 0.9984837929551929 -0.0028991815569242765 7.227194750528396e-05 0.0005317446277307369 -7.058808375701322e-05 -0.00034233464943065733
 0.9984837929551929 -0.0028991815569242765 0.001488587731677284 0.0011407113618607584 -7.058855283556037e-05 -0.0003423350562568269 7.23279172992803e-05 0.0005317235805823537
 7.227194750528396e-05 0.0005317446277307369 -7.058855283556037e-05 -0.0003423350562568269 0.0014885939449549377 0.0011406404618136076 0.9984837926189428 -0.0028992486282107374
 -7.058808375701322e-05 -0.00034233464943065733 7.23279172992803e-05 0.0005317235805823537 0.9984837926189428 -0.0028992486282107374 0.0014885878958548775 0.0011406439591355475
0.006252605252188 0.0015158951411953505 0.001430350932886522 0.9984490933760767 -0.0036247020317924203 7.77772181432145e-05 0.0006649700392261143 -7.557788341032432e-05 -0.0004283565753949659
 0.9984490933760767 -0.0036247020317924203 0.001515884126591781 0.0014303561538963909 -7.557861297557286e-05 -0.0004283570780902527 7.786466943556753e-05 0.0006649426811388936
 7.77772181432145e-05 0.0006649700392261143 -7.557861297557286e-05 -0.0004283570780902527 0.001515893899245335 0.0014302675369444677 0.9984490929099715 -0.0036247858534688964
 -7.557788341032432e-05 -0.0004283565753949659 7.786466943556753e-05 0.0006649426811388936 0.9984490929099715 -0.0036247858534688964 0.001515884443327579 0.001430271914438682
0.01250521050438 0.0016588873887708755 0.0028905495351431447 0.9982662827406774 -0.007250284621892382 0.00010886872930522525 0.0013304999185183566 -0.0001035379751775296 -0.0008588186536242852
 0.9982662827406774 -0.007250284621892382 0.0016588433979516754 0.0028905601366433285 -0.00010354084599518279 -0.0008588195959263234 0.0001092175727291142 0.001330433987851743
 0.00010886872930522525 0.0013304999185183566 -0.00010354084599518279 -0.0008588195959263234 0.0016588829948519276 0.0028903830731644995 0.9982662814498524 -0.007250452022370374
 -0.0001035379751775296 -0.0008588186536242852 0.0001092175727291142 0.001330433987851743 0.9982662814498524 -0.007250452022370374 0.001658845241074633 0.0028903918727031246
0.01875781575657 0.00181329150575383 0.004371522939393444 0.9980673305337113 -0.010885589609398168 0.00014602770018233446 0.0019969971783666486 -0.00013664293493110288 -0.0012908492072291145
 0.9980673305337113 -0.010885589609398168 0.0018131926440336447 0.004371539105084294 -0.000136649330957066 -0.00129085051634858 0.0001468115943286743 0.0019968794890765735
 0.00014602770018233446 0.0019969971783666486 -0.000136649330957066 -0.00129085051634858 0.0018132820465634378 0.004371273621571736 0.9980673280562995 -0.010885840510548039
 -0.00013664293493110288 -0.0012908492072291145 0.0001468115943286743 0.0019968794890765735 0.9980673280562995 -0.010885840510548039 0.0018131972263259477 0.004371286881384317
0.02501042100875 0.001979386249563015 0.005871244172226675 0.9978520206112307 -0.014532405296899302 0.00018932458544622906 0.0026644941433206374 -0.00017497041397412846 -0.0017242824946924347
 0.9978520206112307 -0.014532405296899302 0.0019792106599695013 0.005871266098045255 -0.0001749817007753446 -0.0017242840866153234 0.0001907174140108868 0.002664309601095535
 0.00018932458544622906 0.0026644941433206374 -0.0001749817007753446 -0.0017242840866153234 0.0019793698077257603 0.005870912218646973 0.9978520165823711 -0.0145327396553977
 -0.00017497041397412846 -0.0017242824946924347 0.0001907174140108868 0.002664309601095535 0.9978520165823711 -0.0145327396553977 0.0019792191992390657 0.005870929959668315
0.03126302626094 0.0021574387717436315 0.007388684309318114 0.9976201248770067 -0.01819151425707564 0.00023883018672661186 0.003332968265705219 -0.00021859629518686537 -0.002159003758007553
 0.9976201248770067 -0.01819151425707564 0.0021571646214418464 0.00738871220047152 -0.0002186138230354242 -0.002159005537332936 0.000241006218455431 0.0033326998538794287
 0.00023883018672661186 0.003332968265705219 -0.0002186138230354242 -0.002159005537332936 0.002157413432242475 0.007388269953809823 0.9976201189351824 -0.018191932060889912
 -0.00021859629518686537 -0.002159003758007553 0.000241006218455431 0.0033326998538794287 0.9976201189351824 -0.018191932060889912 0.002157178348512191 0.007388292176412752
0.037515631513130004 0.0023477106519297483 0.008923183204878575 0.9973714094645326 -0.02186332254583083 0.00029461512033141304 0.004002375388471054 -0.0002675951743992515 -0.002594915957121065
 0.9973714094645326 -0.02186332254583083 0.002347316123961081 0.008923217273880152 -0.00026762027995343705 -0.0025949178170389903 0.00029774908347378657 0.004002004146113442
 0.00029461512033141304 0.004002375388471054 -0.00026762027995343705 -0.0025949178170389903 0.0023476744955701193 0.008922686710631702 0.9973714012444292 -0.0218638237989927
 -0.0002675951743992515 -0.002594915957121065 0.00029774908347378657 0.004002004146113442 0.9973714012444292 -0.0218638237989927 0.0023473362762012847 0.008922713392331381
0.043768236765320004 0.0025504602306658467 0.010474258006538057 0.9971056372157039 -0.02554805112285277 0.0003567495627037844 0.004672659858973585 -0.000322040538233267 -0.003031929649092015
 0.9971056372157039 -0.02554805112285277 0.002549923516465311 0.010474298472005823 -0.0003220745455362191 -0.0030319314714040892 0.00036101668279121585 0.004672164856537846
 0.0003567495627037844 0.004672659858973585 -0.0003220745455362191 -0.0030319314714040892 0.0025504113364403914 0.010473679662439823 0.9971056263501918 -0.025548635849558094
 -0.000322040538233267 -0.003031929649092015 0.00036101668279121585 0.004672164856537846 0.9971056263501918 -0.025548635849558094 0.0025499513403839957 0.010473710756122875
0.050020842017509996 0.0027659437004357826 0.0120415240006583 0.9968225689209028 -0.029245814939705694 0.00042530309635246277 0.005343758703298703 -0.00038200483125709167 -0.0034699588064670745
 0.9968225689209028 -0.029245814939705694 0.0027652429937293638 0.012041571086081731 -0.00038204905243177027 -0.0034699604616017657 0.0004308791147269608 0.005343117017198605
 0.00042530309635246277 0.005343758703298703 -0.00038204905243177027 -0.0034699604616017657 0.00276588014664087 0.012040864139268977 0.9968225550410036 -0.02924648316672507
 -0.00038200483125709167 -0.0034699588064670745 0.0004308791147269608 0.005343117017198605 0.9968225550410036 -0.02924648316672507 0.0027652797458834555 0.012040899571643563
0.055454545454549996 0.0029637446219114424 0.013416421086876643 0.9965623406986828 -0.032469908257767154 0.0004901447959924518 0.005927572407261878 -0.0004386531577771886 -0.0038513783352654334
 0.9965623406986828 -0.032469908257767154 0.0029628836886749087 0.013416474109960656 -0.0004387073117936039 -0.0038513797310969354 0.0004970014160627018 0.005926783063693703
 0.0004901447959924518 0.005927572407261878 -0.0004387073117936039 -0.0038513797310969354 0.002963666767205943 0.013415690673965329 0.9965623238979404 -0.03247064908774166
 -0.0004386531577771886 -0.0038513783352654334 0.0004970014160627018 0.005926783063693703 0.9965623238979404 -0.03247064908774166 0.002962929228095729 0.013415729795920314
0.056273447269699996 0.0029944156749924754 0.013624655786986944 0.9965219640381575 -0.03295666169847935 0.0005003446010818536 0.006015603669583803 -0.0004475594725479601 -0.003908918767668082
 0.9965219640381575 -0.03295666169847935 0.0029935291657729153 0.013624709719984546 -0.00044761520823375717 -0.003908920114731527 0.0005074057819153477 0.006014790356282193
 0.0005003446010818536 0.006015603669583803 -0.00044761520823375717 -0.003908920114731527 0.00299433553918461 0.013623914764525909 0.9965219467729853 -0.03295741347568797
 -0.0004475594725479601 -0.003908918767668082 0.0005074057819153477 0.006014790356282193 0.9965219467729853 -0.03295741347568797 0.0029935761129988698 0.013623954434785732
0.06252605252188 0.0032361295027198652 0.015223365905582936 0.9962035811607496 -0.03668059315955432 0.0005819421655398217 0.006688122354314679 -0.0005187748486774425 -0.004348725106091047
 0.9962035811607496 -0.03668059315955432 0.003235035371704708 0.015223426917141614 -0.0005188433883975495 -0.0043487259928988815 0.0005906652949255051 0.006687110424157834
 0.0005819421655398217 0.006688122354314679 -0.0005188433883975495 -0.0043487259928988815 0.003236030861442537 0.015222544117255925 0.9962035601356868 -0.036681428544889844
 -0.0005187748486774425 -0.004348725106091047 0.0005906652949255051 0.006687110424157834 0.9962035601356868 -0.036681428544889844 0.0032350937905025645 0.015222587895819003
0.06877865777407 0.0034913374407832677 0.01683739210603542 0.9958671783466114 -0.0404175778083741 0.0006701630121288731 0.007361238868122879 -0.0005957202906401113 -0.00478929296167639
 0.9958671783466114 -0.0404175778083741 0.0034900138538017738 0.01683746043006051 -0.0005958029130770902 -0.004789293224796069 0.0006807253919299016 0.007359999259085577
 0.0006701630121288731 0.007361238868122879 -0.0005958029130770902 -0.004789293224796069 0.003491218370930056 0.016836489981263345 0.9958671531844436 -0.0404184968731514
 -0.0005957202906401113 -0.00478929296167639 0.0006807253919299016 0.007359999259085577 0.9958671531844436 -0.0404184968731514 0.0034900850314696307 0.016836537708864174
0.07503126302626001 0.003760290747580007 0.018466489272610912 0.995512513370248 -0.04416755886896333 0.0007650734282398579 0.00803487426003694 -0.0006784640425477152 -0.005230536616256252
 0.995512513370248 -0.04416755886896333 0.003758715850113528 0.018466565145463847 -0.0006785620157011274 -0.005230536081047951 0.0007776528659208528 0.008033375811435933
 0.0007650734282398579 0.00803487426003694 -0.0006785620157011274 -0.005230536081047951 0.0037601493257526496 0.01846550727866972 0.995512483689284 -0.04416856169452867
 -0.0006784640425477152 -0.005230536616256252 0.0007776528659208528 0.008033375811435933 0.995512483689284 -0.04416856169452867 0.0037588010842474107 0.018465558765374725
0.08128386827845 0.004043239723661138 0.020110424048007787 0.9951393439253251 -0.04793045962082005 0.0008667387017600261 0.008708946800751632 -0.0007670732242087189 -0.005672369212258355
 0.9951393439253251 -0.04793045962082005 0.004041391635747027 0.02011050770829009 -0.0007671878056254119 -0.005672367692911695 0.0008815134971579478 0.0087071562270114
 0.0008667387017600261 0.008708946800751632 -0.0007671878056254119 -0.005672367692911695 0.004043074027887013 0.0201093626876631 0.9951393093401895 -0.047931546301323534
 -0.0007670732242087189 -0.005672369212258355 0.0008815134971579478 0.0087071562270114 0.9951393093401895 -0.047931546301323534 0.0040414922350922545 0.02010941771217958
0.08753647353064001 0.004340433718673084 0.021768971119593375 0.9947474277952874 -0.051706187056362776 0.000975223059736765 0.009383372178227522 -0.0008616137892641278 -0.006114702561566905
 0.9947474277952874 -0.051706187056362776 0.004338290528952425 0.021769062808105543 -0.0008617462260807941 -0.006114699861155309 0.0009923719891682331 0.009381254042743018
 0.000975223059736765 0.009383372178227522 -0.0008617462260807941 -0.006114699861155309 0.004340241828232039 0.02176783093242192 0.9947473879163506 -0.05170735769781989
 -0.0008616137892641278 -0.006114702561566905 0.0009923719891682331 0.009381254042743018 0.9947473879163506 -0.05170735769781989 0.0043384078136822195 0.02176788924150878
0.09378907878283 0.004652121115294048 0.023441910552413472 0.9943365230053144 -0.055494634494291054 0.00109058960822531 0.010058063640130378 -0.0009621504804626771 -0.00655744701018022
 0.9943365230053144 -0.055494634494291054 0.004649660876066052 0.023442010512181043 -0.0009623020095593941 -0.006557442920694753 0.0011102919066766203 0.01005558032926961
 0.00109058960822531 0.010058063640130378 -0.0009623020095593941 -0.006557442920694753 0.00465190111140148 0.023440692116802123 0.9943364774377802 -0.05549588921293631
 -0.0009621504804626771 -0.00655744701018022 0.0011102919066766203 0.01005558032926961 0.9943364774377802 -0.05549588921293631 0.004649796177627176 0.023440753424805998
0.100041684035 0.004978549295591471 0.025129025846632413 0.993906387957857 -0.05929568347179289 0.0012129002733919291 0.010732932100149464 -0.0010687467826663566 -0.0070005113416994735
 0.993906387957857 -0.05929568347179289 0.004975750017105549 0.0251291343231461 -0.001068918630718682 -0.007000505644095039 0.0012353356148538336 0.010730043797436917
 0.0012129002733919291 0.010732932100149464 -0.001068918630718682 -0.007000505644095039 0.0049782992620449155 0.02512772977966271 0.9939063363017625 -0.0592970223944386
 -0.0010687467826663566 -0.0070005113416994735 0.0012353356148538336 0.010730043797436917 0.9939063363017625 -0.0592970223944386 0.004975904678830482 0.0251277937682838
0.1059090909091 0.005298493549738676 0.026724906273076297 0.9934850473599769 -0.06287391112586904 0.0013340455343478894 0.011366304214842464 -0.0011743426608384479 -0.007416488468466689
 0.9934850473599769 -0.06287391112586904 0.005295356077141866 0.02672502296741158 -0.0011745346827059632 -0.007416481052800905 0.0013592093307274367 0.011362997672766443
 0.0013340455343478894 0.011366304214842464 -0.0011745346827059632 -0.007416481052800905 0.0052982135965960004 0.026723537952478886 0.9934849896217066 -0.06287532919071803
 -0.0011743426608384479 -0.007416488468466689 0.0013592093307274367 0.011362997672766443 0.9934849896217066 -0.06287532919071803 0.005295530138716906 0.026723604137852915
0.1062942892872 0.005319964595582129 0.026830102467213693 0.9934567815596074 -0.06310920516742843 0.0013422157434133718 0.011407886219367428 -0.0011814648738219164 -0.007443802708559503
 0.9934567815596074 -0.06310920516742843 0.0053168042404567115 0.02683021970878024 -0.0011816582573736239 -0.007443795172799747 0.0013675642196343534 0.011404550879831141
 0.0013422157434133718 0.011407886219367428 -0.0011816582573736239 -0.007443795172799747 0.005319682619307054 0.026828729423540042 0.9934567234094371 -0.06311062843303565
 -0.0011814648738219164 -0.007443802708559503 0.0013675642196343534 0.011404550879831141 0.9934567234094371 -0.06311062843303565 0.005316979617691871 0.0268287957416703
0.11254689453939999 0.0056766122502210446 0.028544926721153052 0.9929874633416711 -0.06693506148017829 0.0014785954105649682 0.012082832471710818 -0.0013003655746274077 -0.007887226582076507
 0.9929874633416711 -0.06693506148017829 0.005673068727907958 0.028545052979477122 -0.0013005817001176224 -0.007887216967178598 0.0015070375086184207 0.012079005796465854
 0.0014785954105649682 0.012082832471710818 -0.0013005817001176224 -0.007887216967178598 0.005676296421871794 0.0285434773947452 0.9929873982858538 -0.06693656923824481
 -0.0013003655746274077 -0.007887226582076507 0.0015070375086184207 0.012079005796465854 0.9929873982858538 -0.06693656923824481 0.005673266188336281 0.02854354565853924
0.11879949979160001 0.006048736330365777 0.030273284876667753 0.9924981935738654 -0.07077310586969905 0.0016220973137847743 0.012757675199788675 -0.0014255082970096502 -0.008330686715012013
 0.9924981935738654 -0.07077310586969905 0.006044787491613135 0.03027342040754658 -0.001425748360826035 -0.008330674769087856 0.0016538138920229642 0.012753310610919765
 0.0016220973137847743 0.012757675199788675 -0.001425748360826035 -0.008330674769087856 0.006048384745038341 0.030271759999787567 0.992498121194187 -0.07077469828162687
 -0.0014255082970096502 -0.008330686715012013 0.0016538138920229642 0.012753310610919765 0.992498121194187 -0.07077469828162687 0.006045008415571213 0.030271829792880043
0.1250521050438 0.006436579674348925 0.032014962472754226 0.9919887333759069 -0.07462318401005598 0.0017727780811658616 0.013432316658693511 -0.0015569509915376637 -0.008774085119333138
 0.9919887333759069 -0.07462318401005598 0.006432203305247604 0.03201510753698571 -0.0015572161800267929 -0.008774070579644412 0.001807950344298911 0.013427365274309218
 0.0017727780811658616 0.013432316658693511 -0.0015572161800267929 -0.008774070579644412 0.006436190432214437 0.03201336281911744 0.9919886532477185 -0.07462486124626737
 -0.0015569509915376637 -0.008774085119333138 0.001807950344298911 0.013427365274309218 0.9919886532477185 -0.07462486124626737 0.006432449086038604 0.03201343369298891
0.131304710296 0.006840383814816199 0.033769743761846445 0.9914588448267445 -0.07848513431399554 0.0019306928725680871 0.014106657057730728 -0.0016947500940093815 -0.00921732204901639
 0.9914588448267445 -0.07848513431399554 0.006835557631167946 0.03376989862624403 -0.0016950415834990757 -0.009217304642016772 0.0019695023456867875 0.014101067667378824
 0.0019306928725680871 0.014106657057730728 -0.0016950415834990757 -0.009217304642016772 0.0068399550214845685 0.03376807014265758 0.991458756517664 -0.07848689655805555
 -0.0016947500940093815 -0.00921732204901639 0.0019695023456867875 0.014101067667378824 0.991458756517664 -0.07848689655805555 0.006835829675068872 0.033768141617218174
0.1375573155481 0.007163721581444934 0.035310461508142474 0.9910049903629621 -0.08213175438069394 0.002074522327840604 0.014758066337298033 -0.0018175389674267304 -0.009637809458810742
 0.9910049903629621 -0.08213175438069394 0.007158421648552663 0.03531062586636362 -0.001817858632770957 -0.009637789190540754 0.002117050502267097 0.014751850319903162
 0.002074522327840604 0.014758066337298033 -0.001817858632770957 -0.009637789190540754 0.007163252061822784 0.03530871436806817 0.9910048935004244 -0.08213360172725657
 -0.0018175389674267304 -0.009637809458810742 0.002117050502267097 0.014751850319903162 0.9910048935004244 -0.08213360172725657 0.007158720537554748 0.03530878598326273
0.1438099208003 0.007498325183058306 0.03684382849787338 0.9905354157241113 -0.08576986214656881 0.002224141307594254 0.015407191374878473 -0.0019452335734907002 -0.010056160405883497
 0.9905354157241113 -0.08576986214656881 0.0074925288644392745 0.03684400277438831 -0.0019455827022734564 -0.010056137006681606 0.0022705520682846964 0.015400302324309315
 0.002224141307594254 0.015407191374878473 -0.0019455827022734564 -0.010056137006681606 0.007497813180671751 0.03684200864544326 0.9905353098777588 -0.08577179477159448
 -0.0019452335734907002 -0.010056160405883497 0.0022705520682846964 0.015400302324309315 0.9905353098777588 -0.08577179477159448 0.007492855874569398 0.03684208012012557
0.1500625260525 0.007844086798216654 0.03836973822198582 0.9900502321751464 -0.08939938878615955 0.0023795026181318694 0.01605397850463402 -0.002077787409379238 -0.010472322606333902
 0.9900502321751464 -0.08939938878615955 0.00783777138086221 0.03836992288561818 -0.002078167287975037 -0.01047229579561559 0.0024299589925040363 0.016046368331063193
 0.0023795026181318694 0.01605397850463402 -0.002078167287975037 -0.01047229579561559 0.007843530570427673 0.03836784649524211 0.9900501169087221 -0.08940140687460232
 -0.002077787409379238 -0.010472322606333902 0.0024299589925040363 0.016046368331063193 0.9900501169087221 -0.08940140687460232 0.007838127791228422 0.03836791756562268
0.15631513130469998 0.008200897962450054 0.03988808747732772 0.9895495514115673 -0.09302026530117932 0.002540558572393214 0.016698374900546233 -0.0022151534607662833 -0.010886244805909615
