! Created with skrf 1.8.0 (http://scikit-rf.org).
# GHz S RI R 50.0 
!freq ReS11 ImS11 ReS12 ImS12 ReS13 ImS13
! ReS14 ImS14
! ReS21 ImS21 ReS22 ImS22 ReS23 ImS23
! ReS24 ImS24
! ReS31 ImS31 ReS32 ImS32 ReS33 ImS33
! ReS34 ImS34
! ReS41 ImS41 ReS42 ImS42 ReS43 ImS43
! ReS44 ImS44
!
0.0 0.001596676073347 0.0 0.9984033239125 0.0 6.157421800313e-05 0.0 -6.157421808055e-05 7.540666908234664e-21
 0.9984033239125 0.0 0.001596676073337 0.0 -6.157421808069e-05 7.540666908251809e-21 6.157421800267e-05 0.0
 6.157421800313e-05 0.0 -6.157421808069e-05 7.540666908251809e-21 0.001596676073701 0.0 0.9984033239128 0.0
 -6.157421808055e-05 7.540666908234664e-21 6.157421800267e-05 0.0 0.9984033239128 0.0 0.001596676073677 0.0
0.005 0.001718034316812874 0.0013080123767534408 0.9982497845340911 -0.0033442939159176034 8.601095243412207e-05 0.0006669741691515696 -8.364067175930253e-05 -0.00042061286870800365
 0.9982497845340911 -0.0033442939159176034 0.0017180284233076306 0.0013080158398170016 -8.364181669427285e-05 -0.0004206137958379139 8.60517768469668e-05 0.0006669587754726172
 8.601095243412207e-05 0.0006669741691515696 -8.364181669427285e-05 -0.0004206137958379139 0.0017180331179727725 0.0013079458532277244 0.9982497841705266 -0.0033443609759394154
 -8.364067175930253e-05 -0.00042061286870800365 8.60517768469668e-05 0.0006669587754726172 0.9982497841705266 -0.0033443609759394154 0.001718028899089469 0.0013079482458690395
0.006252605252188 0.0017499107127113278 0.0016401452580765664 0.9982091980937152 -0.004181176986426508 9.299962542726741e-05 0.0008340442739148109 -8.98875057596899e-05 -0.0005263044349695784
 0.9982091980937152 -0.004181176986426508 0.0017499014994965215 0.001640149611136716 -8.988928700196334e-05 -0.0005263055790487123 9.306341152899925e-05 0.000834024257805517
 9.299962542726741e-05 0.0008340442739148109 -8.988928700196334e-05 -0.0005263055790487123 0.0017499089115795535 0.0016400621213786821 0.9982091975987385 -0.004181260800923756
 -8.98875057596899e-05 -0.0005263044349695784 9.306341152899925e-05 0.000834024257805517 0.9982091975987385 -0.004181260800923756 0.0017499023169366623 0.001640065124840832
0.01250521050438 0.0019179929557119112 0.0033145055568740926 0.9979937667655956 -0.008363094150940265 0.0001331171641187093 0.0016684716773307045 -0.00012542044606353005 -0.001055118854203153
 0.9979937667655956 -0.008363094150940265 0.0019179561587097996 0.0033145145057829986 -0.00012542746120794177 -0.0010551209797730276 0.0001333715836806677 0.0016684232934775305
 0.0001331171641187093 0.0016684716773307045 -0.00012542746120794177 -0.0010551209797730276 0.0019179863304309226 0.003314339607379234 0.9979937653609265 -0.008363261546007313
 -0.00012542044606353005 -0.001055118854203153 0.0001333715836806677 0.0016684232934775305 0.9979937653609265 -0.008363261546007313 0.00191796000341975 0.003314345723825157
0.01875781575657 0.0021012998221025133 0.005012562201575932 0.9977567548611085 -0.012555915791279107 0.00018202242419915172 0.0025038209881760305 -0.00016828414880220593 -0.001585690584109295
 0.9977567548611085 -0.012555915791279107 0.002101217122180077 0.005012576019753322 -0.00016829978642570107 -0.0015856934976905795 0.0001825940823513066 0.0025037342371309586
 0.00018202242419915172 0.0025038209881760305 -0.00016829978642570107 -0.0015856934976905795 0.0021012853480344555 0.005012313666580105 0.9977567521278966 -0.012556166679512037
 -0.00016828414880220593 -0.001585690584109295 0.0001825940823513066 0.0025037342371309586 0.9977567521278966 -0.012556166679512037 0.00210122620204743 0.005012322983604596
0.02501042100875 0.002300196622667504 0.006731930467775547 0.9974978761647313 -0.016761660498816975 0.00023981183045532206 0.003340116587841275 -0.00021858598963679404 -0.002117775009502581
 0.9974978761647313 -0.016761660498816975 0.0023000497259422163 0.006731949450330899 -0.00021861359572748618 -0.002117778483201518 0.00024082746163761335 0.003339979867794456
 0.00023981183045532206 0.003340116587841275 -0.00021861359572748618 -0.002117778483201518 0.00230017127349018 0.0067315995914865555 0.9974978716817167 -0.01676199482500945
 -0.00021858598963679404 -0.002117775009502581 0.00024082746163761335 0.003339979867794456 0.9974978716817167 -0.01676199482500945 0.002300066252520836 0.006731612167811461
0.03126302626094 0.002515033584195492 0.00847137651809428 0.997216830220571 -0.020981184209262337 0.00030658198206118985 0.004177307212532614 -0.00027643022587314753 -0.002651196873655618
 0.997216830220571 -0.020981184209262337 0.002514804210579961 0.00847140097978283 -0.00027647311106360667 -0.0026512006447831425 0.0003081685671512564 0.00417710730666248
 0.00030658198206118985 0.004177307212532614 -0.00027647311106360667 -0.0026512006447831425 0.002514994336627945 0.008470963559312768 0.9972168235691333 -0.020981601953141565
 -0.00027643022587314753 -0.002651196873655618 0.0003081685671512564 0.00417710730666248 0.9972168235691333 -0.020981601953141565 0.002514830405379146 0.008470979422347834
0.037515631513130004 0.00274615326986679 0.010230090835582547 0.9969133100122193 -0.025214906706016598 0.0003824287842727718 0.0050153115207426345 -0.00034191872144798217 -0.003185804723431692
 0.9969133100122193 -0.025214906706016598 0.002745823144823092 0.010230121109626273 -0.0003419801647400711 -0.0031858084943933037 0.00038471360464823964 0.005015033578511621
 0.0003824287842727718 0.0050153115207426345 -0.0003419801647400711 -0.0031858084943933037 0.002746097101222277 0.01022959608846213 0.9969133007734681 -0.02521540786186733
 -0.00034191872144798217 -0.003185804723431692 0.00038471360464823964 0.005015033578511621 0.9969133007734681 -0.02521540786186733 0.0027458612373837217 0.010229615232707866
0.043768236765320004 0.0029938934373573128 0.012007467116606815 0.9965870050801168 -0.029463032654426118 0.00046744702976415816 0.005854031964904769 -0.00041515120154688606 -0.003721457046945313
 0.9965870050801168 -0.029463032654426118 0.0029934442851946965 0.012007503554157108 -0.00041523445254358936 -0.003721460485266159 0.0004705576946658398 0.005853659481410175
 0.00046744702976415816 0.005854031964904769 -0.00041523445254358936 -0.003721460485266159 0.0029938173234153203 0.012006890916093044 0.9965869928323992 -0.02946361722631739
 -0.00041515120154688606 -0.003721457046945313 0.0004705576946658398 0.005853659481410175 0.9965869928323992 -0.02946361722631739 0.0029934965109421445 0.01200691330176465
0.050020842017509996 0.003258588358359357 0.013803010912276911 0.9962376031037997 -0.03372564288624662 0.00056173014111185 0.0066933605158698084 -0.0004962253375465645 -0.004258016560065088
 0.9962376031037997 -0.03372564288624662 0.003258001896309447 0.01380305388194969 -0.0004963336179442862 -0.004258019298402453 0.0005657946006367097 0.00669287531032124
 0.00056173014111185 0.0066933605158698084 -0.0004963336179442862 -0.004258019298402453 0.003258489275828793 0.01380235363177245 0.9962375874237799 -0.03372631089080182
 -0.0004962253375465645 -0.004258016560065088 0.0005657946006367097 0.00669287531032124 0.9962375874237799 -0.03372631089080182 0.0032580704984724283 0.01380237918367465
0.055454545454549996 0.003502643093641809 0.015377813950001587 0.9959149613087627 -0.03744174622685941 0.0006512606140930942 0.007423166622697018 -0.0005731239231921174 -0.004724934265453899
 0.9959149613087627 -0.03744174622685941 0.0035019224473331464 0.01537786290907294 -0.0005732565503523252 -0.0047249360701071 0.0006562581293505351 0.007422567375158958
 0.0006512606140930942 0.007423166622697018 -0.0005732565503523252 -0.0047249360701071 0.0035025215956027266 0.015377086543635107 0.9959149423001885 -0.0374424867586726
 -0.0005731239231921174 -0.004724934265453899 0.0006562581293505351 0.007422567375158958 0.9959149423001885 -0.0374424867586726 0.003502007108350872 0.015377114757845638
0.056273447269699996 0.0035405694953203407 0.015616294762844126 0.9958647908442698 -0.038002739192763764 0.0006653699829762971 0.0075331814775485145 -0.0005852367572133881 -0.0047953474060633975
 0.9958647908442698 -0.038002739192763764 0.0035398274275832272 0.015616344650543809 -0.0005853732617390757 -0.004795349042248141 0.0006705165325526897 0.007532563671323032
 0.0006653699829762971 0.0075331814775485145 -0.0005853732617390757 -0.004795349042248141 0.0035404444213622886 0.015615556815819893 0.9958647713063054 -0.03800349065819419
 -0.0005852367572133881 -0.0047953474060633975 0.0006705165325526897 0.007532563671323032 0.9958647713063054 -0.03800349065819419 0.0035399146567591847 0.015615585422453202
0.06252605252188 0.003840165855859365 0.01744693354797614 0.9954682547697914 -0.04229426890559744 0.0007784567092425311 0.008373373038870677 -0.0006822790163450447 -0.005333313622188555
 0.9954682547697914 -0.04229426890559744 0.0038392498685410914 0.017446990756816994 -0.000682446913522264 -0.005333313719273919 0.0007848139884759921 0.0083726010332988
 0.0007784567092425311 0.008373373038870677 -0.000682446913522264 -0.005333313719273919 0.0038400117689376453 0.017446115393975763 0.9954682309451335 -0.042295103866139556
 -0.0006822790163450447 -0.005333313622188555 0.0007848139884759921 0.0083726010332988 0.9954682309451335 -0.042295103866139556 0.003839357982455959 0.017446146906731234
0.06877865777407 0.004157704175283882 0.019294569793348863 0.9950476815118563 -0.046600139525695077 0.0009010786298613746 0.00921380819989688 -0.0007874435481520121 -0.005871778236784353
 0.9950476815118563 -0.046600139525695077 0.004156595930610495 0.019294634743858338 -0.0007876459807353031 -0.005871776323094924 0.0009087756172974408 0.00921285865397333
 0.0009010786298613746 0.00921380819989688 -0.0007876459807353031 -0.005871776323094924 0.004157518057132704 0.01929367192674432 0.9950476529702634 -0.0466010580334292
 -0.0007874435481520121 -0.005871778236784353 0.0009087756172974408 0.00921285865397333 0.9950476529702634 -0.0466010580334292 0.00415672719599479 0.01929370615928565
0.07503126302626001 0.004493508995465846 0.021158864339200563 0.9946027582235112 -0.050920227995497704 0.001033322088802019 0.010054355369210559 -0.0009008195991199828 -0.0064106027002297904
 0.9946027582235112 -0.050920227995497704 0.004492190126601018 0.021158937469527274 -0.0009010596844701834 -0.00641059826940601 0.001042488093667928 0.010053203177247262
 0.001033322088802019 0.010054355369210559 -0.0009010596844701834 -0.00641059826940601 0.0044932878291517025 0.021157887304464634 0.9946027245300639 -0.05092123010558786
 -0.0009008195991199828 -0.0064106027002297904 0.001042488093667928 0.010053203177247262 0.9946027245300639 -0.05092123010558786 0.0044923468163556675 0.021157924032312914
0.08128386827845 0.004847902676673572 0.023039490153227975 0.9941331728739082 -0.05525438683257121 0.0011752713487446142 0.010894878765560221 -0.001022494156208475 -0.006949646516929649
 0.9941331728739082 -0.05525438683257121 0.004846354782323897 0.02303957191964386 -0.0010227749865387276 -0.006949639027988934 0.0011860360004027203 0.01089349703488077
 0.0011752713487446142 0.010894878765560221 -0.0010227749865387276 -0.006949639027988934 0.004847643449588584 0.023038434539074094 0.9941331335904873 -0.055255472609496134
 -0.001022494156208475 -0.006949646516929649 0.0011860360004027203 0.01089349703488077 0.9941331335904873 -0.055255472609496134 0.004846539177783445 0.02303847349931439
0.08753647353064001 0.005221205369417772 0.024936128044681597 0.9936386145066278 -0.05960244836796151 0.0013270084810029197 0.011735238703396225 -0.0011525518671240721 -0.007488766999054837
 0.9936386145066278 -0.05960244836796151 0.00521941000863159 0.024936218922166277 -0.0011528765096702133 -0.007488755876439151 0.0013395017165838687 0.011733598732022303
 0.0013270084810029197 0.011735238703396225 -0.0011528765096702133 -0.007488755876439151 0.005220905072855781 0.024934994482702085 0.993638569191011 -0.05960361788744093
 -0.0011525518671240721 -0.007488766999054837 0.0013395017165838687 0.011733598732022303 0.993638569191011 -0.05960361788744093 0.005219624398309425 0.024935035373876244
0.09378907878283 0.0056137349540409396 0.02684846360603749 0.9931187734698742 -0.06396422776357984 0.0014886132578748013 0.012575291805060321 -0.0012910749568112057 -0.008027819099250762
 0.9931187734698742 -0.06396422776357984 0.005611673640747934 0.026848564089041564 -0.0012914464539286153 -0.008027803732882179 0.001502965308193819 0.01257336305954034
 0.0014886132578748013 0.012575291805060321 -0.0012914464539286153 -0.008027803732882179 0.00561339058473474 0.02684725277282353 0.993118721675529 -0.06396548111083748
 -0.0012910749568112057 -0.008027819099250762 0.001502965308193819 0.01257336305954034 0.993118721675529 -0.06396548111083748 0.005611920321074628 0.02684729525501876
0.100041684035 0.0060258069599986325 0.028776184969935864 0.9925733416302296 -0.06833952522082459 0.0016601630470765313 0.013414891164626653 -0.0014381431405170561 -0.008566655297695831
 0.9925733416302296 -0.06833952522082459 0.00602346115764075 0.028776295573358826 -0.0014385645097249441 -0.00856663504304415 0.0016765044213197743 0.013412641257994639
 0.0016601630470765313 0.013414891164626653 -0.0014385645097249441 -0.00856663504304415 0.00602541552021859 0.02877489759051945 0.9925732829056259 -0.06834086248761354
 -0.0014381431405170561 -0.008566655297695831 0.0016765044213197743 0.013412641257994639 0.9925732829056259 -0.06834086248761354 0.006023742432200004 0.028774941285553086
0.1059090909091 0.006430545372962561 0.030598863180042637 0.992037964171128 -0.07245738269070781 0.001830255925565138 0.014202219596263402 -0.0015839914306247011 -0.009071965914208578
 0.992037964171128 -0.07245738269070781 0.006427915699009367 0.030598983767882008 -0.0015844623217588971 -0.009071940455581603 0.001848582999283457 0.014199637188009666
 0.001830255925565138 0.014202219596263402 -0.0015844623217588971 -0.009071940455581603 0.006430107042079306 0.030597504670631756 0.9920378985278158 -0.07245879879861641
 -0.0015839914306247011 -0.009071965914208578 0.001848582999283457 0.014199637188009666 0.9920378985278158 -0.07245879879861641 0.006428231538477913 0.03059754912617893
0.1062942892872 0.006457734468530001 0.030718981130719882 0.9920020125725488 -0.07272812763183492 0.0018417327078542117 0.01425388647978584 -0.0015938335343166877 -0.009105125527120266
 0.9920020125725488 -0.07272812763183492 0.006455085584347634 0.030719102391018025 -0.0015943077682899149 -0.009105099705253743 0.0018601941768711316 0.014251281149593292
 0.0018417327078542117 0.01425388647978584 -0.0015943077682899149 -0.009105099705253743 0.006457292967296331 0.030717617975307133 0.9920019464608631 -0.07272954891996937
 -0.0015938335343166877 -0.009105125527120266 0.0018601941768711316 0.014251281149593292 0.9920019464608631 -0.07272954891996937 0.0064554037643477 0.030717662467246692
0.11254689453939999 0.006909828003292317 0.03267654066343925 0.9914044817919844 -0.07712980984017213 0.0020333944878944106 0.015092124163867815 -0.0017582205637403294 -0.009643077123903698
 0.9914044817919844 -0.07712980984017213 0.00690685738314724 0.03267667313990685 -0.001758750630298296 -0.009643045021555777 0.0020541070667630694 0.015089127250450432
 0.0020333944878944106 0.015092124163867815 -0.001758750630298296 -0.009643045021555777 0.006909333457384598 0.03267510254910761 0.9914044078310955 -0.07713131526027256
 -0.0017582205637403294 -0.009643077123903698 0.0020541070667630694 0.015089127250450432 0.9914044078310955 -0.07713131526027256 0.006907214787232189 0.03267514738484472
0.11879949979160001 0.007382395412105166 0.034648550726487023 0.9907804468798119 -0.08154433562549505 0.002235217921292495 0.015929447439372618 -0.001931375871154915 -0.010180354803934807
 0.9907804468798119 -0.08154433562549505 0.007379084334660441 0.03464869500275003 -0.0019319647132412085 -0.010180315673561993 0.0022583128504719777 0.015926020864254858
 0.002235217921292495 0.015929447439372618 -0.0019319647132412085 -0.010180315673561993 0.0073818448466101624 0.034647038519425286 0.9907803646012766 -0.08154592529505798
 -0.001931375871154915 -0.010180354803934807 0.0022583128504719777 0.015926020864254858 0.9907803646012766 -0.08154592529505798 0.007379483288685509 0.03464708320950782
0.1250521050438 0.007875741740049508 0.03663469628131079 0.990129607703556 -0.0859714584787846 0.002447269726847847 0.01676569642753254 -0.0021133682220206445 -0.010716800648889746
 0.990129607703556 -0.0859714584787846 0.007872071411146257 0.03663485296703984 -0.002114018757514163 -0.010716753708769728 0.002472878452847369 0.01676180017204739
 0.002447269726847847 0.01676569642753254 -0.002114018757514163 -0.010716753708769728 0.007875132189716283 0.03663311089307536 0.9901295166330133 -0.08597313252622071
 -0.0021133682220206445 -0.010716800648889746 0.002472878452847369 0.01676180017204739 0.9901295166330133 -0.08597313252622071 0.007872514248551418 0.036633154912786396
0.131304710296 0.008390169097532785 0.03863465946948076 0.9894516665852757 -0.09041092222794128 0.0026696137073266824 0.017600708225033464 -0.002304263410283416 -0.011252254111931433
 0.9894516665852757 -0.09041092222794128 0.008386120644694857 0.03863482920219358 -0.0023049785320376835 -0.011252198546185109 0.0026978678622771425 0.017596300309179448
 0.0026696137073266824 0.017600708225033464 -0.0023049785320376835 -0.011252198546185109 0.008389497607267784 0.03863300186020265 0.9894515662412944 -0.09041268078958785
 -0.002304263410283416 -0.011252254111931433 0.0026978678622771425 0.017596300309179448 0.9894515662412944 -0.09041268078958785 0.008386609705870775 0.038633044650745615
0.1375573155481 0.008809873618264531 0.04038815723690433 0.9888624806301319 -0.09460236897404646 0.0028745375274588365 0.01840867758381813 -0.002476318273685558 -0.011760953246576644
 0.9888624806301319 -0.09460236897404646 0.008805427414476758 0.04038833918104399 -0.0024771024119932057 -0.011760888967957843 0.002905497863855328 0.018403763280862455
 0.0028745375274588365 0.01840867758381813 -0.0024771024119932057 -0.011760888967957843 0.00880913801191826 0.040386427999367945 0.9888623705891192 -0.09460421210037151
 -0.002476318273685558 -0.011760953246576644 0.002905497863855328 0.018403763280862455 0.9888623705891192 -0.09460421210037151 0.008805964156801778 0.040386468118663844
0.1438099208003 0.009244416548599196 0.04213211296522852 0.9882524538215337 -0.09878286676630924 0.0030877171903882076 0.019213177337860588 -0.0026552379520260283 -0.012266441578946742
 0.9882524538215337 -0.09878286676630924 0.009239553517750418 0.04213230781040036 -0.0026560942402957277 -0.012266367778380902 0.0031215028067960223 0.01920771818745696
 0.0030877171903882076 0.019213177337860588 -0.0026560942402957277 -0.012266367778380902 0.00924361402591174 0.042130313053194514 0.9882523336050296 -0.09878479458440159
 -0.0026552379520260283 -0.012266441578946742 0.0031215028067960223 0.01920771818745696 0.9882523336050296 -0.09878479458440159 0.009240140131694894 0.042130350025261935
0.1500625260525 0.009693640594682175 0.0438663713355835 0.9876217478274908 -0.10295230184510709 0.0033090756776661197 0.020014119261898132 -0.0028409470606859176 -0.012768635003671053
 0.9876217478274908 -0.10295230184510709 0.009688341586302746 0.04386657982620102 -0.0028418786267539304 -0.012768550839158071 0.003345805033166593 0.020008075378644075
 0.0033090756776661197 0.020014119261898132 -0.0028418786267539304 -0.012768550839158071 0.009692768374304378 0.04386450173936127 0.9876216169513502 -0.10295431448653335
 -0.0028409470606859176 -0.012768635003671053 0.003345805033166593 0.020008075378644075 0.9876216169513502 -0.10295431448653335 0.00968898025858931 0.043864535098601325
0.15631513130469998 0.010157387294609674 0.04559078168070936 0.9869705251955426 -0.10711056106248852 0.003538535025599507 0.02081141670721008 -0.003033369255734531 -0.013267451245434402
 0.9869705251955426 -0.10711056106248852 0.010151633081712247 0.045591004618611784 -0.0030343792216960108 -0.013267355842147666 0.0035783259321389912 0.02080474679307028
