! Created with skrf 1.8.0 (http://scikit-rf.org).
# GHz S RI R 50.0 
!freq ReS11 ImS11 ReS12 ImS12 ReS13 ImS13
! ReS14 ImS14
! ReS21 ImS21 ReS22 ImS22 ReS23 ImS23
! ReS24 ImS24
! ReS31 ImS31 ReS32 ImS32 ReS33 ImS33
! ReS34 ImS34
! ReS41 ImS41 ReS42 ImS42 ReS43 ImS43
! ReS44 ImS44
!
0.0 0.00176965581139 0.0 0.9982303441886 0.0 6.856792452776e-05 0.0 -6.856792519434e-05 8.397149011342364e-21
 0.9982303441886 0.0 0.001769655811396 0.0 -6.856792519404e-05 8.397149011305625e-21 6.856792452824e-05 0.0
 6.856792452776e-05 0.0 -6.856792519404e-05 8.397149011305625e-21 0.001769655803391 0.0 0.9982303441806 0.0
 -6.856792519434e-05 8.397149011342364e-21 6.856792452824e-05 0.0 0.9982303441806 0.0 0.001769655803412 0.0
0.005 0.0019047254239958102 0.0014483670067335446 0.9980593365710513 -0.0037060489586390384 9.634583118910535e-05 0.0007477767183510892 -9.351072568614722e-05 -0.00047058532314386934
 0.9980593365710513 -0.0037060489586390384 0.0019047484402478282 0.0014483536110072427 -9.351115856090775e-05 -0.0004705857227312016 9.619733724462291e-05 0.0007478332773177679
 9.634583118910535e-05 0.0007477767183510892 -9.351115856090775e-05 -0.0004705857227312016 0.0019047244739680141 0.0014483003339571653 0.9980593361857347 -0.0037061160193087774
 -9.351072568614722e-05 -0.00047058532314386934 9.619733724462291e-05 0.0007478332773177679 0.9980593361857347 -0.0037061160193087774 0.001904748623718269 0.0014482861647879461
0.006252605252188 0.0019403697202853727 0.0018161190886425982 0.9980138877599868 -0.004633431155112442 0.00010441234059815218 0.0009350716798811611 -0.00010065125593335662 -0.000588824868249912
 0.9980138877599868 -0.004633431155112442 0.001940405698665144 0.001816102085306265 -0.00010065192899826865 -0.000588825362254989 0.00010418033462890421 0.0009351451752128785
 0.00010441234059815218 0.0009350716798811611 -0.00010065192899826865 -0.000588825362254989 0.0019403683216376356 0.0018160357607721182 0.9980138872444297 -0.004633514976206682
 -0.00010065125593335662 -0.000588824868249912 0.00010418033462890421 0.0009351451752128785 0.9980138872444297 -0.004633514976206682 0.0019404060728117195 0.0018160177765784132
0.01250521050438 0.0021292874079325693 0.003669898963913511 0.997771247734665 -0.009267395486683134 0.00015136008580659706 0.0018704130394283714 -0.00014169258034152455 -0.001180349629644474
 0.997771247734665 -0.009267395486683134 0.0021294310649751015 0.003669862346864272 -0.0001416952262563862 -0.0011803505578641626 0.00015043493402917452 0.0018705904764207807
 0.00015136008580659706 0.0018704130394283714 -0.0001416952262563862 -0.0011803505578641626 0.002129282380782007 0.00366973265497789 0.9977712462404617 -0.009267562882876546
 -0.00014169258034152455 -0.001180349629644474 0.00015043493402917452 0.0018705904764207807 0.9977712462404617 -0.009267562882876546 0.0021294331331570687 0.0036696939192859745
0.01875781575657 0.002336867572504725 0.00554963958461045 0.9975020898973479 -0.013913114832097657 0.00020952600650116652 0.0028066025050554524 -0.00019182722101640385 -0.0017736990158617072
 0.9975020898973479 -0.013913114832097657 0.002337190368235122 0.005549580541213527 -0.00019183311232354332 -0.0017737003078744523 0.00020744784574025412 0.002806920923971531
 0.00020952600650116652 0.0028066025050554524 -0.00019183311232354332 -0.0017737003078744523 0.00233685668082445 0.00554939053496496 0.9975020869563545 -0.013913365708734044
 -0.00019182722101640385 -0.0017736990158617072 0.00020744784574025412 0.002806920923971531 0.9975020869563545 -0.013913365708734044 0.002337195452295256 0.005549328033844592
0.02501042100875 0.0025635524732575844 0.007452654590000754 0.9972060656425118 -0.018572781486157052 0.00027902663752013107 0.003743636486839617 -0.0002511851647015714 -0.0023685713165396104
 0.9972060656425118 -0.018572781486157052 0.0025641257248153262 0.007452570131213735 -0.0002511955557179118 -0.002368572889894793 0.00027533552724426033 0.003744139329159715
 0.00027902663752013107 0.003743636486839617 -0.0002511955557179118 -0.002368572889894793 0.002563533485153354 0.0074523230346803665 0.9972060607928848 -0.01857311579867001
 -0.0002511851647015714 -0.0023685713165396104 0.00027533552724426033 0.003744139329159715 0.9972060607928848 -0.01857311579867001 0.002564135161812236 0.007452233534073595
0.03126302626094 0.0028097659666642934 0.009377531719002796 0.9968828103950579 -0.02324729777932739 0.0003599784810718277 0.0046814251767615155 -0.00031989204216869606 -0.002964742520441331
 0.9968828103950579 -0.02324729777932739 0.002810660892037616 0.009377418684559949 -0.0003199081720964801 -0.0029647442805394403 0.00035421400225918296 0.004682162323983306
 0.0003599784810718277 0.0046814251767615155 -0.0003199081720964801 -0.0029647442805394403 0.0028097366471604964 0.009377117916931759 0.9968828031736096 -0.023247715504439683
 -0.00031989204216869606 -0.002964742520441331 0.00035421400225918296 0.004682162323983306 0.9968828031736096 -0.023247715504439683 0.0028106760273404322 0.009376997967532252
0.037515631513130004 0.0030759221081628515 0.011323327559702754 0.9965319525889278 -0.027937081272739337 0.0004524967539896506 0.005619844056962264 -0.0003980699995406344 -0.003562014832450918
 0.9965319525889278 -0.027937081272739337 0.0030772098567342816 0.011323182620647139 -0.00039809309408835194 -0.003562016672569986 0.00044419784388583937 0.005620871893396265
 0.0004524967539896506 0.005619844056962264 -0.00039809309408835194 -0.003562016672569986 0.0030758802182503436 0.011322831807304796 0.9965319425292435 -0.027937582395369805
 -0.0003980699995406344 -0.003562014832450918 0.00044419784388583937 0.005620871893396265 0.9965319425292435 -0.027937582395369805 0.003077232043095688 0.011322677746383816
0.043768236765320004 0.0033624284545588513 0.013289322508860847 0.9961531173515425 -0.03264230973120679 0.0005566947864357653 0.0065587495840901755 -0.000485837983384145 -0.004160201022486871
 0.9961531173515425 -0.03264230973120679 0.003364180132847607 0.013289142168651433 -0.00048586925585950887 -0.004160202823826622 0.0005453996743540195 0.006560131066894953
 0.0005566947864357653 0.0065587495840901755 -0.00048586925585950887 -0.004160202823826622 0.003362371756279421 0.013288745130355068 0.9961531039881003 -0.032642894254618825
 -0.000485837983384145 -0.004160201022486871 0.0005453996743540195 0.006560131066894953 0.9961531039881003 -0.032642894254618825 0.0033642107343287934 0.013288553082395276
0.050020842017509996 0.003669687585572906 0.015274919502403748 0.9957459284125842 -0.03736302232474368 0.0006726836423915655 0.007497985673488712 -0.0005833118252006021 -0.004759117981177118
 0.9957459284125842 -0.03736302232474368 0.00367197427962118 0.015274700097189994 -0.0005833524771071554 -0.004759119612915889 0.0006579298395640119 0.007499790405425643
 0.0006726836423915655 0.007497985673488712 -0.0005833524771071554 -0.004759119612915889 0.0036696138381816256 0.015274260864545577 0.9957459112760703 -0.0373636902564146
 -0.0005833118252006021 -0.004759117981177118 0.0006579298395640119 0.007499790405425643 0.9957459112760703 -0.0373636902564146 0.00367201466793804 0.015274026740716788
0.055454545454549996 0.003953868360301689 0.017015974295279488 0.9953687497768272 -0.041478002635808184 0.0007831414158990897 0.008314350474140727 -0.0006759895020133983 -0.005280046987678312
 0.9953687497768272 -0.041478002635808184 0.003956677730329137 0.01701571783550257 -0.0006760392719941837 -0.005280048356494534 0.0007650057675965466 0.008316584765115096
 0.0007831414158990897 0.008314350474140727 -0.0006760392719941837 -0.005280048356494534 0.003953777977610174 0.01701524535834003 0.9953687289792567 -0.041478743074540386
 -0.0006759895020133983 -0.005280046987678312 0.0007650057675965466 0.008316584765115096 0.9953687289792567 -0.041478743074540386 0.003956727745259662 0.017014971182214796
0.056273447269699996 0.003998097853499615 0.017279594314413036 0.9953100092472841 -0.042099169265922054 0.0008005718452913599 0.008437386901797144 -0.0006906042288015761 -0.005358583564375207
 0.9953100092472841 -0.042099169265922054 0.004000990650695824 0.017279332012421534 -0.0006906554504583952 -0.00535858488372812 0.0007818961675669333 0.008439691204925954
 0.0008005718452913599 0.008437386901797144 -0.0006906554504583952 -0.00535858488372812 0.003998004817130531 0.017278854812268946 0.9953099878670456 -0.04209992063215086
 -0.0006906042288015761 -0.005358583564375207 0.0007818961675669333 0.008439691204925954 0.9953099878670456 -0.04209992063215086 0.004001042207227834 0.017278574309366728
0.06252605252188 0.004348053766530478 0.019302868248923574 0.994844983859137 -0.046850639061017996 0.0009404651525669917 0.009376780268863166 -0.000807824712232253 -0.005958414886328292
 0.994844983859137 -0.046850639061017996 0.004351623775846387 0.019302559049140137 -0.0008078876830801712 -0.0059584157386085804 0.000917403765087369 0.009379667258140724
 0.0009404651525669917 0.009376780268863166 -0.0008078876830801712 -0.0059584157386085804 0.004347939201865566 0.019302048317044525 0.9948449577615829 -0.04685147389628813
 -0.000807824712232253 -0.005958414886328292 0.000917403765087369 0.009379667258140724 0.9948449577615829 -0.04685147389628813 0.004351687891151979 0.019301716915383748
0.06877865777407 0.004719946162847711 0.021344291841271748 0.994350477358118 -0.05161727475975058 0.001092466357546903 0.01031598627068975 -0.000935079523501652 -0.006558427310034542
 0.994350477358118 -0.05161727475975058 0.004724264534779104 0.021343931571442022 -0.0009351554124029733 -0.0065584275287115645 0.0010645548348909547 0.010319545927184681
 0.001092466357546903 0.01031598627068975 -0.0009351554124029733 -0.0065584275287115645 0.004719807831413008 0.021343391959322035 0.9943504460662987 -0.05161819310149733
 -0.000935079523501652 -0.006558427310034542 0.0010645548348909547 0.010319545927184681 0.9943504460662987 -0.05161819310149733 0.004724342608015656 0.021343004920207298
0.07503126302626001 0.0051141622639951445 0.023403434571845176 0.9938261164249441 -0.05639888420176562 0.0012566751095256195 0.011254819587055742 -0.0010724715381438118 -0.007158433831845736
 0.9938261164249441 -0.05639888420176562 0.005119300211046661 0.02340301888553029 -0.0010725615037160228 -0.00715843323858691 0.0012234485079222997 0.011259148830164429
 0.0012566751095256195 0.011254819587055742 -0.0010725615037160228 -0.00715843323858691 0.005113997930071661 0.02340245525175378 0.9938260794586128 -0.05639988610366003
 -0.0010724715381438118 -0.007158433831845736 0.0012234485079222997 0.011259148830164429 0.9938260794586128 -0.05639988610366003 0.005119393650208249 0.023402007613925486
0.08128386827845 0.005531085651929472 0.02547987798724791 0.9932715297027775 -0.06119524686554252 0.0014331877431226368 0.012193089564812593 -0.0012201001475468732 -0.007758244679271451
 0.9932715297027775 -0.06119524686554252 0.005537114468018872 0.025479402360269385 -0.0012202053383186483 -0.007758243084001685 0.0013941806819743803 0.012198292323381283
 0.0014331877431226368 0.012193089564812593 -0.0012202053383186483 -0.007758243084001685 0.005530893082639781 0.025478819785922247 0.9932714865775085 -0.06119633238512236
 -0.0012201001475468732 -0.007758244679271451 0.0013941806819743803 0.012198292323381283 0.9932714865775085 -0.06119633238512236 0.005537224689463626 0.025478306361453158
0.08753647353064001 0.0059710961935614745 0.027573210989000462 0.9926863481415974 -0.06600611855989641 0.0016220971158243801 0.013130600556739952 -0.0013780611387706292 -0.008357667062646991
 0.9926863481415974 -0.06600611855989641 0.005978087273618987 0.02757267071509348 -0.0013781826933212972 -0.008357664263594251 0.001576843866857896 0.013136787838905387
 0.0016220971158243801 0.013130600556739952 -0.0013781826933212972 -0.008357664263594251 0.005970873160199424 0.027572074501421132 0.9926862983689018 -0.06600728776587254
 -0.0013780611387706292 -0.008357667062646991 0.001576843866857896 0.013136787838905387 0.9926862983689018 -0.06600728776587254 0.005978215702606163 0.027571489870760153
0.09378907878283 0.0064345699311112135 0.02968302644845258 0.9920702053133826 -0.07083123480051787 0.0018234924492767997 0.01406715219169508 -0.0015464465702321173 -0.008956505005054015
 0.9920702053133826 -0.07083123480051787 0.0064425947911707655 0.029682416633978293 -0.0015465856173918287 -0.008956500788794083 0.0017715270323452822 0.014074442153138196
 0.0018234924492767997 0.01406715219169508 -0.0015465856173918287 -0.008956500788794083 0.006434314209749582 0.029681812312989504 0.9920701483997244 -0.07083248776772083
 -0.0015464465702321173 -0.008956505005054015 0.0017715270323452822 0.014074442153138196 0.9920701483997244 -0.07083248776772083 0.006442742861034199 0.02968115081911695
0.100041684035 0.006921878945695499 0.031808918753834146 0.9914227377041268 -0.07567031326523545 0.0020374591748901698 0.015002539582734883 -0.0017253446432063278 -0.009554559243983475
 0.9914227377041268 -0.07567031326523545 0.006931009242763962 0.03180823431177219 -0.0017255023021792075 -0.009554553385475718 0.0019783154593841605 0.01501105759331194
 0.0020374591748901698 0.015002539582734883 -0.0017255023021792075 -0.009554553385475718 0.0069215883186646765 0.031807627650235856 0.9914226731512015 -0.07567165007696149
 -0.0017253446432063278 -0.009554559243983475 0.0019783154593841605 0.01501105759331194 0.9914226731512015 -0.07567165007696149 0.006931178395190556 0.03180688339218052
0.1059090909091 0.007401172530382436 0.033818103322443484 0.9907863474679569 -0.08022370812330036 0.0022497504381702254 0.01587905625409567 -0.0019028577121928186 -0.010114876508682443
 0.9907863474679569 -0.08022370812330036 0.0074114054764998424 0.03381734404544624 -0.001903033845766813 -0.010114868894127148 0.0021834466695226924 0.015888847164401
 0.0022497504381702254 0.01587905625409567 -0.001903033845766813 -0.010114868894127148 0.007400847136864691 0.03381674064588754 0.9907862752878698 -0.08022512369929638
 -0.0019028577121928186 -0.010114876508682443 0.0021834466695226924 0.015888847164401 0.9907862752878698 -0.08022512369929638 0.007411595731154556 0.03381591313175567
0.1062942892872 0.00743339120347049 0.03395048196753843 0.9907435849919759 -0.0805230556507977 0.002264078781954331 0.01593655350656101 -0.0019148395709558987 -0.010151627171630121
 0.9907435849919759 -0.0805230556507977 0.007443698754793167 0.033949717610630606 -0.0019150169513984206 -0.01015161943426517 0.002197290593159224 0.015946432215201086
 0.002264078781954331 0.01593655350656101 -0.0019150169513984206 -0.01015161943426517 0.007433063459655554 0.03394911461536777 0.9907435122956746 -0.08052447640056944
 -0.0019148395709558987 -0.010151627171630121 0.002197290593159224 0.015946432215201086 0.9907435122956746 -0.08052447640056944 0.007443890439621018 0.03394828144080925
0.11254689453939999 0.00796947038644194 0.03610730842937799 0.9900323903145204 -0.08538914909571486 0.002503428667765395 0.01686898055750498 -0.0021150114463196405 -0.010747502810741456
 0.9900323903145204 -0.08538914909571486 0.007981027189772762 0.036106458662321365 -0.002115209648422142 -0.010747492946379347 0.0024285298977095417 0.016880359955122694
 0.002503428667765395 0.01686898055750498 -0.002115209648422142 -0.010747492946379347 0.007969103322575338 0.036105865590809506 0.9900323089647225 -0.08539065388473809
 -0.0021150114463196405 -0.010747502810741456 0.0024285298977095417 0.016880359955122694 0.9900323089647225 -0.08539065388473809 0.007981242864815013 0.03610493708777263
0.11879949979160001 0.008530475712104161 0.03827898768014251 0.9892888005274023 -0.0902682672949141 0.0027555819896544877 0.017799603287364393 -0.0023259361079363836 -0.011341976814914289
 0.9892888005274023 -0.0902682672949141 0.008543353965655379 0.03827804679092102 -0.002326156222579729 -0.011341964563894127 0.002672106712246349 0.01781263076782871
 0.0027555819896544877 0.017799603287364393 -0.002326156222579729 -0.011341964563894127 0.008530067134158527 0.03827747016107055 0.989288710007785 -0.09026985623111497
 -0.0023259361079363836 -0.011341976814914289 0.002672106712246349 0.01781263076782871 0.989288710007785 -0.09026985623111497 0.008543595096587177 0.038276439648848914
0.1250521050438 0.009116761745795001 0.040465105626979095 0.9885124664582284 -0.09516007138506184 0.0030206075189062446 0.018728200336074193 -0.0025476850059218624 -0.01193483648833844
 0.9885124664582284 -0.09516007138506184 0.009131033868273877 0.040464067677293665 -0.00254792811472794 -0.011934821579546529 0.0029280901087947345 0.01874303075501611
 0.0030206075189062446 0.018728200336074193 -0.00254792811472794 -0.011934821579546529 0.009116309469456498 0.040463514275286494 0.9885123662456233 -0.09516174458496701
 -0.0025476850059218624 -0.01193483648833844 0.0029280901087947345 0.01874303075501611 0.9885123662456233 -0.09516174458496701 0.009131301928336092 0.04046237479436438
0.131304710296 0.009728678204614752 0.04266524387821867 0.9877030431549003 -0.10006421067335626 0.0032985694962449773 0.019654546555428275 -0.002780325067477232 -0.01252586582310377
 0.9877030431549003 -0.10006421067335626 0.009744416855029449 0.04266410269291557 -0.0027805922428497235 -0.012525847973962669 0.003196544751164908 0.019671342286820947
 0.0032985694962449773 0.019654546555428275 -0.0027805922428497235 -0.012525847973962669 0.009728180056757824 0.042663579584934656 0.9877029327191053 -0.1000659682609919
 -0.002780325067477232 -0.01252586582310377 0.003196544751164908 0.019671342286820947 0.9877029327191053 -0.1000659682609919 0.009744713325104489 0.04266232388607835
0.1375573155481 0.01023379475968357 0.04459329082462744 0.9869930299189101 -0.10469446981160198 0.0035570453758004975 0.02055104119935859 -0.0029915583262303804 -0.013087406599151356
 0.9869930299189101 -0.10469446981160198 0.010251079022582373 0.04459206385238241 -0.0029918513561421793 -0.013087385761033854 0.0034452818054008035 0.02056979133659893
 0.0035570453758004975 0.02055104119935859 -0.0029918513561421793 -0.013087385761033854 0.010233249491419487 0.044591553957071255 0.9869929087924988 -0.10469631182171142
 -0.0029915583262303804 -0.013087406599151356 0.0034452818054008035 0.02056979133659893 0.9869929087924988 -0.10469631182171142 0.010251404343550584 0.04459019930136501
0.1438099208003 0.010756903077108576 0.04650975640305819 0.986257588837248 -0.10931153017381369 0.0038259208185131705 0.02144292499846186 -0.0032111736186020297 -0.013644769190177548
 0.986257588837248 -0.10931153017381369 0.010775806909726285 0.046508438663596684 -0.0032114936907146905 -0.01364474507555735 0.0037039959407570927 0.021463779328161417
 0.0038259208185131705 0.02144292499846186 -0.0032114936907146905 -0.01364474507555735 0.010756308696784067 0.04650794782386125 0.9862574564932693 -0.10931345671817287
 -0.0032111736186020297 -0.013644769190177548 0.0037039959407570927 0.021463779328161417 0.9862574564932693 -0.10931345671817287 0.010776162383998986 0.04650648822675413
0.1500625260525 0.011297796167199252 0.048414437847894225 0.9854969317565567 -0.11391523320963065 0.004105088382138343 0.022330075352250525 -0.0034390676587878225 -0.014197840955217795
 0.9854969317565567 -0.11391523320963065 0.011318393787022459 0.04841302402034754 -0.0034394159603465873 -0.014197813264312227 0.003972582800193588 0.022353189119629233
 0.004105088382138343 0.022330075352250525 -0.0034394159603465873 -0.014197813264312227 0.011297150704179176 0.048412558449581755 0.9854967876624718 -0.1139172444052278
 -0.0034390676587878225 -0.014197840955217795 0.003972582800193588 0.022353189119629233 0.9854967876624718 -0.1139172444052278 0.011318780711788224 0.04841098754982829
0.15631513130469998 0.011856265298558346 0.05030713844661751 0.984711271897619 -0.11850542192299891 0.004394439188102198 0.023212372075218226 -0.003675135746213508 -0.014746511916706836
 0.984711271897619 -0.11850542192299891 0.01187863119055846 0.0503056228572643 -0.003675513464204685 -0.014746480337444223 0.004250936645197294 0.0232379059175235
