! Created with skrf 1.8.0 (http://scikit-rf.org).
# GHz S RI R 50.0 
!freq ReS11 ImS11 ReS12 ImS12 ReS13 ImS13
! ReS14 ImS14
! ReS21 ImS21 ReS22 ImS22 ReS23 ImS23
! ReS24 ImS24
! ReS31 ImS31 ReS32 ImS32 ReS33 ImS33
! ReS34 ImS34
! ReS41 ImS41 ReS42 ImS42 ReS43 ImS43
! ReS44 ImS44
!
0.0 0.001320600076183 0.0 0.9986793999173 0.0 5.083044907598e-05 0.0 -5.083044933146e-05 6.224934707299421e-21
 0.9986793999173 0.0 0.001320600076186 0.0 -5.083044933151e-05 6.224934707305544e-21 5.083044907627e-05 0.0
 5.083044907598e-05 0.0 -5.083044933151e-05 6.224934707305544e-21 0.001320600074498 0.0 0.9986793999156 0.0
 -5.083044933146e-05 6.224934707299421e-21 5.083044907627e-05 0.0 0.9986793999156 0.0 0.0013206000745 0.0
0.005 0.00142035435462529 0.0010757577553603492 0.9985532707921608 -0.0027673088194394777 7.163563985079778e-05 0.0005900900278588211 -6.944843599609393e-05 -0.00036525097311295097
 0.9985532707921608 -0.0027673088194394777 0.0014203573929129618 0.0010757559220677128 -6.944825179715995e-05 -0.00036525077656654985 7.16172246787963e-05 0.0005900969885971577
 7.163563985079778e-05 0.0005900900278588211 -6.944825179715995e-05 -0.00036525077656654985 0.0014203550544528794 0.0010758245575383692 0.9985532711323089 -0.0027672417576089267
 -6.944843599609393e-05 -0.00036525097311295097 7.16172246787963e-05 0.0005900969885971577 0.9985532711323089 -0.0027672417576089267 0.0014203573641672063 0.0010758232337012461
0.006252605252188 0.001446353912630721 0.001348975227073635 0.9985202137769694 -0.0034598405766600978 7.748653938060723e-05 0.0007378951343708624 -7.463165348722008e-05 -0.00045705271941054
 0.9985202137769694 -0.0034598405766600978 0.0014463586626869973 0.0013489729102561787 -7.463136729672633e-05 -0.0004570524758632304 7.745776643769874e-05 0.000737904174624695
 7.748653938060723e-05 0.0007378951343708624 -7.463136729672633e-05 -0.0004570524758632304 0.0014463549242599882 0.0013490587151877259 0.9985202142261091 -0.003459756754163497
 -7.463165348722008e-05 -0.00045705271941054 7.745776643769874e-05 0.000737904174624695 0.9985202142261091 -0.003459756754163497 0.001446358534654452 0.001349057045552789
0.01250521050438 0.0015822724321636445 0.002726636266383894 0.9983463711419599 -0.006920665493069929 0.00011054853017652398 0.0014761205442889768 -0.00010364696241302956 -0.0009164572892282961
 0.9983463711419599 -0.006920665493069929 0.0015822914090595861 0.002726631378866199 -0.00010364583986522034 -0.0009164568247605994 0.00011043376468699734 0.001476142245188871
 0.00011054853017652398 0.0014761205442889768 -0.00010364583986522034 -0.0009164568247605994 0.0015822759501133298 0.0027268028874499004 0.9983463724114398 -0.006920498071006261
 -0.00010364696241302956 -0.0009164572892282961 0.00011043376468699734 0.001476142245188871 0.9983463724114398 -0.006920498071006261 0.0015822903630945651 0.0027267994046174062
0.01875781575657 0.0017286188731773988 0.004124311862238123 0.9981576800470436 -0.01039093781272896 0.0001500869767730416 0.002215226263191341 -0.0001379589032226245 -0.0013775327659134966
 0.9981576800470436 -0.01039093781272896 0.0017286615343000558 0.004124304127200159 -0.0001379564072341671 -0.0013775321051415622 0.00014982910826658722 0.0022152648638509654
 0.0001500869767730416 0.002215226263191341 -0.0001379564072341671 -0.0013775321051415622 0.0017286263636798742 0.004124561341880023 0.9981576824818083 -0.0103906868447586
 -0.0001379589032226245 -0.0013775327659134966 0.00014982910826658722 0.0022152648638509654 0.9981576824818083 -0.0103906868447586 0.0017286587432918561 0.004124555902106685
0.02501042100875 0.0018856504404780856 0.005540070157243977 0.9979539419331998 -0.013872374380417177 0.000196173576272814 0.002955273745025333 -0.00017764774491330063 -0.0018400829293521727
 0.9979539419331998 -0.013872374380417177 0.0018857262362296206 0.005540059279173403 -0.00017764334719697409 -0.0018400820995833258 0.00019571543420469036 0.002955334080301102
 0.000196173576272814 0.002955273745025333 -0.00017764334719697409 -0.0018400820995833258 0.0018856633781554812 0.0055404021936080105 0.9979539458898938 -0.013872039859262653
 -0.00017764774491330063 -0.0018400829293521727 0.00019571543420469036 0.002955334080301102 0.9979539458898938 -0.013872039859262653 0.0018857208703452301 0.005540394656682188
0.03126302626094 0.002053613501452456 0.006972934109609753 0.997734946978217 -0.01736573037482678 0.00024888076926877443 0.0036962534520275847 -0.00022279174586725995 -0.0023039786828206246
 0.997734946978217 -0.01736573037482678 0.002053731880241635 0.006972919775057396 -0.00022278492538294024 -0.002303977714102299 0.00024816506983298315 0.003696340956258549
 0.00024888076926877443 0.0036962534520275847 -0.00022278492538294024 -0.002303977714102299 0.00205363336198459 0.006973348352738738 0.9977349528188953 -0.017365312252483934
 -0.00022279174586725995 -0.0023039786828206246 0.00024816506983298315 0.003696340956258549 0.9977349528188953 -0.017365312252483934 0.002053723099523677 0.006973338582936881
0.037515631513130004 0.002232749258169483 0.008422279654875795 0.9975004798946948 -0.020871401095264665 0.000308281013511194 0.004438128239847998 -0.00027346777511893475 -0.0027691146583267664
 0.9975004798946948 -0.020871401095264665 0.0022329196697714435 0.008422261532779916 -0.0002734580173127147 -0.0027691135834403365 0.0003072503350168445 0.004438248953277152
 0.000308281013511194 0.004438128239847998 -0.0002734580173127147 -0.0027691135834403365 0.002232777513699205 0.008422775698473538 0.9975004879836483 -0.02087089929075732
 -0.00027346777511893475 -0.0027691146583267664 0.0003072503350168445 0.004438248953277152 0.9975004879836483 -0.02087089929075732 0.0022329066189889445 0.008422763565198358
0.043768236765320004 0.0024232959437380922 0.0098876525533581 0.9972503222536284 -0.024389605056031115 0.0003744464545337301 0.005180846548874645 -0.0003297515440732293 -0.0032353960151379167
 0.9972503222536284 -0.024389605056031115 0.0024235278415205537 0.009887630295206987 -0.00032973834035880846 -0.0032353948695558565 0.000373043224977376 0.0051810071249216725
 0.0003744464545337301 0.005180846548874645 -0.00032973834035880846 -0.0032353948695558565 0.002423334065017029 0.00988822993467224 0.9972503329612347 -0.024389019454998405
 -0.0003297515440732293 -0.0032353960151379167 0.000373043224977376 0.0051810071249216725 0.9972503329612347 -0.024389019454998405 0.0024235096524510657 0.009888215313067527
0.050020842017509996 0.0026254898500900807 0.01136869270012586 0.9969842536414749 -0.027920459616461023 0.0004474487337884349 0.005924347850177457 -0.00039171770233216473 -0.003702732984361699
 0.9969842536414749 -0.027920459616461023 0.002625792693092916 0.011368665939990858 -0.0003917005496996015 -0.00370273180621412 0.0004456152249145924 0.00592455556303308
 0.0004474487337884349 0.005924347850177457 -0.0003917005496996015 -0.00370273180621412 0.0026255393044840505 0.011369350892716824 0.9969842673442426 -0.027919790077897116
 -0.00039171770233216473 -0.003702732984361699 0.0004456152249145924 0.00592455556303308 0.9969842673442426 -0.027919790077897116 0.0026257684828637036 0.011369333664009086
0.055454545454549996 0.0028108439077443588 0.0126682487397195 0.996739938123125 -0.0309991956493479 0.0005164974402920194 0.006571057122537988 -0.00045024017072539527 -0.004109652367101402
 0.996739938123125 -0.0309991956493479 0.002811216092160928 0.012668217756526453 -0.0004502191820244875 -0.004109651193647991 0.0005142430003609705 0.006571312194201257
 0.0005164974402920194 0.006571057122537988 -0.0004502191820244875 -0.004109651193647991 0.0028109043991795704 0.012668976683328328 0.9967399547394017 -0.03099845303037953
 -0.00045024017072539527 -0.004109652367101402 0.0005142430003609705 0.006571312194201257 0.9967399547394017 -0.03099845303037953 0.002811185919957119 0.012668957097600245
0.056273447269699996 0.0028395658689723733 0.012865096960839617 0.9967020523333303 -0.03146401808483006 0.0005273588583525364 0.006668565315949466 -0.0004594398718436697 -0.004171038190371157
 0.9967020523333303 -0.03146401808483006 0.0028399491239242433 0.01286506531538267 -0.00045941827264074165 -0.004171037020398326 0.0005250371836361691 0.006668828068338837
 0.0005273588583525364 0.006668565315949466 -0.00045941827264074165 -0.004171037020398326 0.0028396281191926374 0.012865835376794013 0.9967020694138122 -0.03146326443836879
 -0.0004594398718436697 -0.004171038190371157 0.0005250371836361691 0.006668828068338837 0.9967020694138122 -0.03146326443836879 0.0028399179934930434 0.012865815428792608
0.06252605252188 0.003065757787868737 0.014376598759565285 0.9964034957223005 -0.03502029007136383 0.0006142471010009073 0.007413427283168825 -0.000532990650165698 -0.004640225180703631
 0.9964034957223005 -0.03502029007136383 0.003066230930906344 0.014376561827979457 -0.0005329641118629795 -0.004640224062224617 0.0006113792160965222 0.007413753614174706
 0.0006142471010009073 0.007413427283168825 -0.0005329641118629795 -0.004640224062224617 0.0030658342919461265 0.014377416749285533 0.9964035165712644 -0.03501945211706371
 -0.000532990650165698 -0.004640225180703631 0.0006113792160965222 0.007413753614174706 0.9964035165712644 -0.03501945211706371 0.003066191965473515 0.014377393976583951
0.06877865777407 0.0033042984596044294 0.015902955891560013 0.9960883606257357 -0.03858925361768276 0.0007081829171026506 0.008158858126115939 -0.00061244159586277 -0.00511020754906487
 0.9960883606257357 -0.03858925361768276 0.003304870977668163 0.01590291325547565 -0.0006124096308908071 -0.0051102065279231435 0.0007047106220888715 0.008159257219044723
 0.0007081829171026506 0.008158858126115939 -0.0006124096308908071 -0.0051102065279231435 0.003304390668977209 0.01590385274063697 0.9960883856422277 -0.03858833112869206
 -0.00061244159586277 -0.00511020754906487 0.0007047106220888715 0.008159257219044723 0.9960883856422277 -0.03858833112869206 0.0033048232448584683 0.015903827045019976
0.07503126302626001 0.0035554198927889 0.017443942805045604 0.9957564235150506 -0.042170862859134454 0.0008092348712992499 0.008904778808749052 -0.0006978632030468823 -0.005580898380583456
 0.9957564235150506 -0.042170862859134454 0.003556101285326575 0.017443894028326 -0.0006978253286406854 -0.005580897505113846 0.0008050998143709368 0.008905260498970603
 0.0008092348712992499 0.008904778808749052 -0.0006978253286406854 -0.005580897505113846 0.0035555292515774 0.01744491773489746 0.9957564531071682 -0.04216985558064169
 -0.0006978632030468823 -0.005580898380583456 0.0008050998143709368 0.008905260498970603 0.9957564531071682 -0.04216985558064169 0.0035560438348491664 0.017444889025528338
0.08128386827845 0.003819353294890419 0.01899934545955004 0.9954074607000039 -0.0457650531124912 0.0009174705699760845 0.009651107251920877 -0.0007893248691347669 -0.006052209884482157
 0.9954074607000039 -0.0457650531124912 0.0038201530753779233 0.01899929008814673 -0.0007892806072147038 -0.006052209205467566 0.0009126142520355472 0.009651682034689859
 0.0009174705699760845 0.009651107251920877 -0.0007892806072147038 -0.006052209205467566 0.0038194812390436716 0.019000397626728692 0.9954074952863254 -0.04576396076211084
 -0.0007893248691347669 -0.006052209884482157 0.0009126142520355472 0.009651682034689859 0.9954074952863254 -0.04576396076211084 0.0038200849383717315 0.01900036582033424
0.08753647353064001 0.004096329084184332 0.02056895777416674 0.9950412484842686 -0.049371744376326035 0.0010329565980813967 0.010397758588646517 -0.0008868948570355367 -0.006524053141057733
 0.9950412484842686 -0.049371744376326035 0.0040972567818936935 0.020568895335809592 -0.0008868437341188585 -0.006524052711683015 0.0010273203782691712 0.010398437626865082
 0.0010329565980813967 0.010397758588646517 -0.0008868437341188585 -0.006524052711683015 0.004096477039645209 0.02057008627129702 0.9950412884939613 -0.04937056664280637
 -0.0008868948570355367 -0.006524053141057733 0.0010273203782691712 0.010398437626865082 0.9950412884939613 -0.04937056664280637 0.004097176969190514 0.020570051292279033
0.09378907878283 0.004386576878941564 0.022152579083816838 0.9946575633010405 -0.052990843825571315 0.0011557584579936211 0.01114464534655085 -0.0009906402543614521 -0.006996337923913006
 0.9946575633010405 -0.052990843825571315 0.004387642039975979 0.022152509087767693 -0.0009905818014136682 -0.006996337799735776 0.001149283559821961 0.011145440478508389
 0.0011557584579936211 0.01114464534655085 -0.0009905818014136682 -0.006996337799735776 0.0043867462611336125 0.02215378293540102 0.9946576091757208 -0.05298958037269691
 -0.0009906402543614521 -0.006996337923913006 0.001149283559821961 0.011145440478508389 0.9946576091757208 -0.05298958037269691 0.004387549542263664 0.02215374471602447
0.100041684035 0.004690325471508339 0.023750012272911257 0.9942561818360796 -0.05662224763144145 0.0012859405102602528 0.011891677584533397 -0.0011006269295705294 -0.0074689725705731754
 0.9942561818360796 -0.05662224763144145 0.004691537660850422 0.023749934209566958 -0.0011005606819600418 -0.007468972809474302 0.001278568028391688 0.01189260133150763
 0.0012859405102602528 0.011891677584533397 -0.0011005606819600418 -0.007468972809474302 0.004690517683670384 0.023751290440141716 0.9942562340294111 -0.05662089809301274
 -0.0011006269295705294 -0.0074689725705731754 0.001278568028391688 0.01189260133150763 0.9942562340294111 -0.05662089809301274 0.004691431447038484 0.023751248920470758
0.1059090909091 0.0049878431851335305 0.025261421948153118 0.9938632347239144 -0.0600410246596181 0.0014148710410079083 0.012592738225386563 -0.0012095716971559243 -0.007912725260929187
 0.9938632347239144 -0.0600410246596181 0.004989202062004018 0.02526133583388569 -0.0012094977163441655 -0.007912725895218771 0.0014066025898981 0.012593794666966853
 0.0014148710410079083 0.012592738225386563 -0.0012094977163441655 -0.007912725895218771 0.004988058085401813 0.02526276884705545 0.9938632932717023 -0.06003959398352656
 -0.0012095716971559243 -0.007912725260929187 0.0014066025898981 0.012593794666966853 0.9938632932717023 -0.06003959398352656 0.0049890820193862415 0.025262724182902308
0.1062942892872 0.005007802790790694 0.025361062376615 0.9938368811399908 -0.060265842316473875 0.001423565915551167 0.012638762995955503 -0.0012169194860100912 -0.007941863889116791
 0.9938368811399908 -0.060265842316473875 0.005009171593403615 0.025360975717134714 -0.001216844983413159 -0.007941864551263516 0.0014152368230595646 0.012639828569829686
 0.001423565915551167 0.012638762995955503 -0.001216844983413159 -0.007941864551263516 0.005008019223061873 0.02536241375265331 0.993836940119608 -0.06026440630078507
 -0.0012169194860100912 -0.007941863889116791 0.0014152368230595646 0.012639828569829686 0.993836940119608 -0.06026440630078507 0.0050090506100045375 0.025362368880612315
0.11254689453939999 0.005339235855569004 0.02698553550366436 0.993399438735422 -0.06392150579093514 0.0015686965768797476 0.013385806991214952 -0.001339581214671634 -0.00841491708821546
 0.993399438735422 -0.06392150579093514 0.005340770878297294 0.026985439699513204 -0.0013394980009840333 -0.008414918236026856 0.0015593517330658065 0.013387028301909494
 0.0015686965768797476 0.013385806991214952 -0.0013394980009840333 -0.008414918236026856 0.005339477883615475 0.026986958916046626 0.9933995049835235 -0.06391998287825443
 -0.001339581214671634 -0.00841491708821546 0.0015593517330658065 0.013387028301909494 0.9933995049835235 -0.06391998287825443 0.005340634048521462 0.026986910647312897
0.11879949979160001 0.005684850721458796 0.02862323799830534 0.9929436327190428 -0.0675891081529498 0.0017213930829613087 0.014132712763704067 -0.0014686740450464252 -0.008888035726424614
 0.9929436327190428 -0.0675891081529498 0.005686561594246112 0.02862313248077631 -0.0014685816683115986 -0.008888037424534454 0.0017109732413686093 0.014134104426624052
 0.0017213930829613087 0.014132712763704067 -0.0014685816683115986 -0.008888037424534454 0.005685119705317111 0.028624732207281664 0.992943706733359 -0.0675874978971085
 -0.0014686740450464252 -0.008888035726424614 0.0017109732413686093 0.014134104426624052 0.992943706733359 -0.0675874978971085 0.005686407817188647 0.028624680505180106
0.1250521050438 0.00604487242228601 0.030273975778559593 0.9924692418601225 -0.071268512315577 0.0018817146511284034 0.014879381345643495 -0.001604258495437996 -0.009361121674612536
 0.9924692418601225 -0.071268512315577 0.006046768799850109 0.03027385995817265 -0.0016041565077794188 -0.009361123989832115 0.0018701604681236415 0.014880958688906425
 0.0018817146511284034 0.014879381345643495 -0.0016041565077794188 -0.009361123989832115 0.0060451697047114 0.030275539479013795 0.992469324154418 -0.07126681424192095
 -0.001604258495437996 -0.009361121674612536 0.0018701604681236415 0.014880958688906425 0.992469324154418 -0.07126681424192095 0.006046596949158251 0.0302754843143427
0.131304710296 0.006419524906238677 0.031937553800576286 0.9919760456963285 -0.07495957451085311 0.002049719071060082 0.015625711655185236 -0.0017463936217993927 -0.009834075089841913
 0.9919760456963285 -0.07495957451085311 0.006421616469694385 0.031937427066506756 -0.0017462815793554524 -0.009834078091122916 0.00203697111470841 0.015627490726817437
 0.002049719071060082 0.015625711655185236 -0.0017462815793554524 -0.009834078091122916 0.006419851811931605 0.03193918561997611 0.9919761368020391 -0.07495778811834461
 -0.0017463936217993927 -0.009834075089841913 0.00203697111470841 0.015627490726817437 0.9919761368020391 -0.07495778811834461 0.006421425393072811 0.03193912697078664
0.1375573155481 0.006718039592529515 0.03339514077034446 0.9915548432079202 -0.07844343633944885 0.0022028421181228925 0.016348776425799256 -0.0018725344304594764 -0.010283970274480912
 0.9915548432079202 -0.07844343633944885 0.006720335476909324 0.03339500443287065 -0.0018724115184243723 -0.010283973944927749 0.0021888726742419254 0.016350753108312677
 0.0022028421181228925 0.016348776425799256 -0.0018724115184243723 -0.010283973944927749 0.00671839678840005 0.03339683977251063 0.9915549435301 -0.07844156130463158
 -0.0018725344304594764 -0.010283970274480912 0.0021888726742419254 0.016350753108312677 0.9915549435301 -0.07844156130463158 0.006720124897547827 0.033396778916746084
0.1438099208003 0.0070268653238158485 0.034845849285446144 0.9911191672379697 -0.0819193050146739 0.0023621617092938665 0.01706948988590103 -0.0020037455305705 -0.010731724771234036
 0.9911191672379697 -0.0819193050146739 0.007029375132026234 0.034845702836201954 -0.0020036112441513356 -0.010731729180253273 0.002346916961502409 0.017071678674381804
 0.0023621617092938665 0.01706948988590103 -0.0020036112441513356 -0.010731729180253273 0.007027253988665471 0.034847614068835166 0.991119277307914 -0.08191734083813886
 -0.0020037455305705 -0.010731724771234036 0.002346916961502409 0.017071678674381804 0.991119277307914 -0.08191734083813886 0.007029144017944048 0.03484755103648261
0.1500625260525 0.007345904028542489 0.03628958266679374 0.990669119171975 -0.08538711954948631 0.002527630047462246 0.01778779691221082 -0.0021399805795720974 -0.011177285861733034
 0.990669119171975 -0.08538711954948631 0.007348637378756769 0.03628942556973795 -0.0021398344133784536 -0.011177291081605294 0.0025110564649264895 0.017790212822735088
 0.002527630047462246 0.01778779691221082 -0.0021398344133784536 -0.011177291081605294 0.0073463253152255634 0.03629141177247576 0.9906692395356359 -0.08538506571393101
 -0.0021399805795720974 -0.011177285861733034 0.0025110564649264895 0.017790212822735088 0.9906692395356359 -0.08538506571393101 0.007348384682766497 0.03629134658560027
0.15631513130469998 0.007675057061406998 0.03772624729058265 0.9902048007766916 -0.08884681868921174 0.0026991988476240095 0.01850364318133183 -0.0022811927336072514 -0.011620601860367508
