! Created with skrf 1.8.0 (http://scikit-rf.org).
# GHz S RI R 50.0 
!freq ReS11 ImS11 ReS12 ImS12 ReS13 ImS13
! ReS14 ImS14
! ReS21 ImS21 ReS22 ImS22 ReS23 ImS23
! ReS24 ImS24
! ReS31 ImS31 ReS32 ImS32 ReS33 ImS33
! ReS34 ImS34
! ReS41 ImS41 ReS42 ImS42 ReS43 ImS43
! ReS44 ImS44
!
0.0 0.001903926915254 0.0 0.998096073078 0.0 7.445606406027e-05 0.0 -7.445606447222e-05 9.118238103301318e-21
 0.998096073078 0.0 0.001903926915252 0.0 -7.445606447156e-05 9.118238103220492e-21 7.445606406193e-05 0.0
 7.445606406027e-05 0.0 -7.445606447156e-05 9.118238103220492e-21 0.00190392691053 0.0 0.9980960730733 0.0
 -7.445606447222e-05 9.118238103301318e-21 7.445606406193e-05 0.0 0.9980960730733 0.0 0.001903926910573 0.0
0.005 0.002049856768197274 0.0015485744768673239 0.9979112222666935 -0.003987296651309606 0.00010621098971349093 0.0008674645244131521 -0.00010283930402632886 -0.0005359924584660016
 0.9979112222666935 -0.003987296651309606 0.0020498246521939057 0.0015485931715344722 -0.00010284333716882126 -0.000535995401100262 0.00010639952293201337 0.0008673925515788546
 0.00010621098971349093 0.0008674645244131521 -0.00010284333716882126 -0.000535995401100262 0.002049855048878379 0.00154850811151766 0.9979112218735243 -0.003987363715865627
 -0.00010283930402632886 -0.0005359924584660016 0.00010639952293201337 0.0008673925515788546 0.9979112218735243 -0.003987363715865627 0.0020498255936149444 0.0015485254164592397
0.006252605252188 0.0020885221534524285 0.0019417917048470937 0.9978618778282305 -0.004985036737054118 0.0001154838099195711 0.0010847042478970101 -0.00011104749802191572 -0.0006706696176641384
 0.9978618778282305 -0.004985036737054118 0.002088471950689968 0.0019418154344360272 -0.00011105377505665562 -0.0006706732406754108 0.00011577836951578872 0.0010846107063645402
 0.0001154838099195711 0.0010847042478970101 -0.00011105377505665562 -0.0006706732406754108 0.002088519542599478 0.0019417087517135299 0.99786187728938 -0.004985120557945938
 -0.00011104749802191572 -0.0006706696176641384 0.00011577836951578872 0.0010846107063645402 0.99786187728938 -0.004985120557945938 0.002088473497843824 0.0019417307650226472
0.01250521050438 0.0022943477979752262 0.003923960466387545 0.997597209619246 -0.009970442308054186 0.00016972147301234195 0.0021694421512758943 -0.00015866324611759912 -0.0013443624066329495
 0.997597209619246 -0.009970442308054186 0.002294147343040793 0.003924011579773978 -0.00015868799638171424 -0.0013443690341051204 0.00017089597968394948 0.0021692159238689466
 0.00016972147301234195 0.0021694421512758943 -0.00015868799638171424 -0.0013443690341051204 0.002294337960603602 0.003923794767472249 0.9975972080396739 -0.009970609717127316
 -0.00015866324611759912 -0.0013443624066329495 0.00017089597968394948 0.0021692159238689466 0.9975972080396739 -0.009970609717127316 0.00229415408495303 0.003923842638534594
0.01875781575657 0.002521932087659292 0.005933862444832255 0.9973016840338647 -0.014968258715824148 0.0002373076122040162 0.0032549288669059834 -0.00021746772309234481 -0.002019978117346252
 0.9973016840338647 -0.014968258715824148 0.0025214816612039352 0.005933944899419918 -0.00021752293303553858 -0.0020199869809577023 0.00023994569173981344 0.0032545218413479442
 0.0002373076122040162 0.0032549288669059834 -0.00021752293303553858 -0.0020199869809577023 0.0025219104358861566 0.005933614131028998 0.9973016809030414 -0.01496850965353298
 -0.00021746772309234481 -0.002019978117346252 0.00023994569173981344 0.0032545218413479442 0.9973016809030414 -0.01496850965353298 0.00252149721625249 0.005933691953848663
0.02501042100875 0.002771782492812985 0.007968560605951336 0.9969748996469816 -0.019980801373195967 0.00031838119847926765 0.0043411550758248995 -0.00028761760893363414 -0.0026971296467633646
 0.9969748996469816 -0.019980801373195967 0.0027709825664492043 0.00796867862750648 -0.0002877151243899543 -0.00269713981702311 0.0003230664288676526 0.004340510418712096
 0.00031838119847926765 0.0043411550758248995 -0.0002877151243899543 -0.00269713981702311 0.0027717444726528145 0.007968229845748931 0.9969748944580029 -0.01998113583670267
 -0.00028761760893363414 -0.0026971296467633646 0.0003230664288676526 0.004340510418712096 0.9969748944580029 -0.01998113583670267 0.002771010545587622 0.007968341934163672
0.03126302626094 0.0030443849958391783 0.010026488786437962 0.9966164378944771 -0.0250089950410821 0.00041308024378947116 0.005428003976344262 -0.0003692634734463624 -0.0033755262920139814
 0.9966164378944771 -0.0250089950410821 0.003043136168590155 0.010026646863557996 -0.000369415022240155 -0.003375536676893441 0.00042039665308139687 0.005427056080792713
 0.00041308024378947116 0.005428003976344262 -0.000369415022240155 -0.003375536676893441 0.0030443260752636998 0.01002607580945317 0.9966164301327024 -0.025009413060791127
 -0.0003692634734463624 -0.0033755262920139814 0.00042039665308139687 0.005427056080792713 0.9966164301327024 -0.025009413060791127 0.0030431801690311033 0.010026226691865998
0.037515631513130004 0.003340213665751127 0.01210658443505175 0.9962258731757153 -0.030053241051279572 0.0005215404539397777 0.006515315428907691 -0.000462550906643827 -0.004054909700085948
 0.9962258731757153 -0.030053241051279572 0.003338416617979597 0.012106787317542238 -0.0004627681095748774 -0.004054919044602854 0.0005320727168869715 0.006513989830942536
 0.0005215404539397777 0.006515315428907691 -0.0004627681095748774 -0.004054919044602854 0.0033401293394316684 0.012106089532311506 0.9962258623234221 -0.030053742691005015
 -0.000462550906643827 -0.004054909700085948 0.0005320727168869715 0.006513989830942536 0.9962258623234221 -0.030053742691005015 0.003338480232091101 0.012106283949591606
0.043768236765320004 0.0036597343313079945 0.01420802467890365 0.9958027770510591 -0.035113681193551155 0.0006438945548439255 0.0076029054838181185 -0.0005676208848693477 -0.004735034425223933
 0.9958027770510591 -0.035113681193551155 0.0036572897861735774 0.014208277378130976 -0.0005679152618655073 -0.004735041311280819 0.0006582280600253497 0.0076011187694198755
 0.0006438945548439255 0.0076029054838181185 -0.0005679152618655073 -0.004735041311280819 0.003659620118269922 0.014207448209863962 0.9958027625843827 -0.035114266543928026
 -0.0005676208848693477 -0.004735034425223933 0.0006582280600253497 0.0076011187694198755 0.9958027625843827 -0.035114266543928026 0.0036573766018149234 0.014207691115107701
0.050020842017509996 0.004003406237689373 0.016330117289957827 0.9953467204258121 -0.04019030670490621 0.0007802718560550288 0.008690574477913125 -0.0006846098659258076 -0.005415659921996624
 0.9953467204258121 -0.04019030670490621 0.00400021492679594 0.01633042508056693 -0.0006849928396680758 -0.0054156627683386825 0.000798992703961164 0.008688234186748205
 0.0007802718560550288 0.008690574477913125 -0.0006849928396680758 -0.0054156627683386825 0.004003257680496572 0.016329459686096757 0.9953467018126358 -0.04019097588029852
 -0.0006846098659258076 -0.005415659921996624 0.000798992703961164 0.008688234186748205 0.9953467018126358 -0.04019097588029852 0.00400032852829231 0.01632975624561025
0.055454545454549996 0.00432203362484312 0.018190573256331173 0.9949232926818161 -0.04461511224617454 0.0009102740343050071 0.009635691978596823 -0.0007960590889153088 -0.006007364767598595
 0.9949232926818161 -0.04461511224617454 0.004318112715449646 0.018190933413563832 -0.000796528258489095 -0.006007362692425638 0.0009332841212564656 0.009632788424391046
 0.0009102740343050071 0.009635691978596823 -0.000796528258489095 -0.006007362692425638 0.004321851621940243 0.01818984554832341 0.994923270028099 -0.04461585438165675
 -0.0007960590889153088 -0.006007364767598595 0.0009332841212564656 0.009632788424391046 0.994923270028099 -0.04461585438165675 0.004318252506888209 0.01819019309798637
0.056273447269699996 0.004371682853604064 0.018472247164817875 0.9948572748890009 -0.045283011753550546 0.0009307979205128695 0.009778111028860495 -0.0008136497620574208 -0.00609654664979011
 0.9948572748890009 -0.045283011753550546 0.004367645483723073 0.018472615587988166 -0.0008141326599200528 -0.00609654371202072 0.0009544928791675303 0.009775115557104684
 0.0009307979205128695 0.009778111028860495 -0.0008141326599200528 -0.00609654371202072 0.004371495520845992 0.018471508928167915 0.9948572515906072 -0.045283764894075915
 -0.0008136497620574208 -0.00609654664979011 0.0009544928791675303 0.009775115557104684 0.9948572515906072 -0.045283764894075915 0.004367789457103823 0.018471864523745076
0.06252605252188 0.004765012260148598 0.020633846925413302 0.994334013641297 -0.0503916228131004 0.0010955942861238242 0.010865294256635174 -0.0009548678514879746 -0.006777453961188844
 0.994334013641297 -0.0503916228131004 0.004760029482149081 0.02063428179309662 -0.0009554619067393649 -0.006777443331807727 0.001124850718621788 0.010861532760069353
 0.0010955942861238242 0.010865294256635174 -0.0009554619067393649 -0.006777443331807727 0.004764781745965783 0.020633028623772552 0.9943339851097082 -0.05039246008982351
 -0.0009548678514879746 -0.006777453961188844 0.001124850718621788 0.010861532760069353 0.9943339851097082 -0.05039246008982351 0.004760207415225424 0.020633448856155742
0.06877865777407 0.005183837307554277 0.022814379400384218 0.9937765121944752 -0.05551591616861324 0.0012747782158223835 0.011951895134027434 -0.0011083866562248672 -0.007458138873444549
 0.9937765121944752 -0.05551591616861324 0.005177809685088721 0.022814886801025686 -0.0011091030082726802 -0.007458118481948248 0.0013101839874251975 0.01194724743218135
 0.0012747782158223835 0.011951895134027434 -0.0011091030082726802 -0.007458118481948248 0.005183559230144254 0.022813481682628135 0.9937764778700763 -0.055516837768734166
 -0.0011083866562248672 -0.007458138873444549 0.0013101839874251975 0.01194724743218135 0.9937764778700763 -0.055516837768734166 0.005178025168547262 0.022813972376036884
0.07503126302626001 0.005628595631382037 0.02501332654756889 0.9931843489366792 -0.060655628995524645 0.0014684624662152817 0.013037677371041995 -0.0012743237973837267 -0.008138355318931308
 0.9931843489366792 -0.060655628995524645 0.005621423609925957 0.025013912853005457 -0.0012751734917277402 -0.008138322931934538 0.0015106058358965095 0.013032013852912794
 0.0014684624662152817 0.013037677371041995 -0.0012751734917277402 -0.008138322931934538 0.005628265636579341 0.025012350132684484 0.9931843082500321 -0.060656635133725316
 -0.0012743237973837267 -0.008138355318931308 0.0015106058358965095 0.013032013852912794 0.9931843082500321 -0.060656635133725316 0.00562168024181339 0.025012917340757553
0.08128386827845 0.0060997195868711 0.027230182096278956 0.9925571056213631 -0.06581046673372244 0.0016767550665938724 0.01412239802814054 -0.0014527918377855583 -0.008817853680281665
 0.9925571056213631 -0.06581046673372244 0.006091303463838533 0.027230853969836592 -0.0014537858255767812 -0.008817806901660001 0.001726224566587746 0.014115579559661012
 0.0016767550665938724 0.01412239802814054 -0.0014537858255767812 -0.008817806901660001 0.00609933334676684 0.027229127776328008 0.99255705798974 -0.06581155764955553
 -0.0014527918377855583 -0.008817853680281665 0.001726224566587746 0.014115579559661012 0.99255705798974 -0.06581155764955553 0.006091604849208161 0.02722977778917443
0.08753647353064001 0.006597636122564771 0.029464446469166784 0.9918943677994762 -0.0709801081974089 0.0018997591061006662 0.015205807973113689 -0.0016438981154336214 -0.009496380495539691
 0.9918943677994762 -0.0709801081974089 0.006587876016572082 0.02946521087527367 -0.0016450472526282206 -0.009496316766650924 0.001957143411101068 0.01519768580696322
 0.0018997591061006662 0.015205807973113689 -0.0016450472526282206 -0.009496316766650924 0.006597189336515942 0.029463315113454642 0.991894312626545 -0.07098128415148564
 -0.0016438981154336214 -0.009496380495539691 0.001957143411101068 0.01519768580696322 0.991894312626545 -0.07098128415148564 0.006588225770490757 0.02946405446589723
0.09378907878283 0.0071227666146501814 0.031715623190789216 0.9911957252163511 -0.07616420921447224 0.0021375725262796587 0.01628765223241625 -0.0018477445709475047 -0.010173678283204009
 0.9911957252163511 -0.07616420921447224 0.007111562435021733 0.031716487405760774 -0.0018490596173922314 -0.010173594883099222 0.0022034603140299804 0.016278067920078403
 0.0021375725262796587 0.01628765223241625 -0.0018490596173922314 -0.010173594883099222 0.007122255010538839 0.03171441574539665 0.9911956618913108 -0.07616547048914353
 -0.0018477445709475047 -0.010173678283204009 0.0022034603140299804 0.016278067920078403 0.9911956618913108 -0.07616547048914353 0.007111964184418516 0.03171525122683273
0.100041684035 0.007675526672899093 0.033983216262336406 0.9904607721851189 -0.08136240531629227 0.002390287917810881 0.017367670282432763 -0.0020644275711371248 -0.010849485441640697
 0.9904607721851189 -0.08136240531629227 0.00766277808990288 0.033984187886643535 -0.0020659191894114573 -0.01084937948735202 0.002465267722468098 0.017356455588956203
 0.002390287917810881 0.017367670282432763 -0.0020659191894114573 -0.01084937948735202 0.007674946007806819 0.03398193374604356 0.990460700081213 -0.08136375221993124
 -0.0020644275711371248 -0.010849485441640697 0.002465267722468098 0.017356455588956203 0.990460700081213 -0.08136375221993124 0.007663235475294786 0.03398287241125382
0.1059090909091 0.00821972712316681 0.03612559922517801 0.9897377157006081 -0.08625283963936838 0.002641065296745589 0.01837925502622931 -0.0022795170770011143 -0.01148206638615526
 0.9897377157006081 -0.08625283963936838 0.008205437792605155 0.03612667885506226 -0.0022811839988964096 -0.011481936501079022 0.002725111997594598 0.01836634859498217
 0.002641065296745589 0.01837925502622931 -0.0022811839988964096 -0.011481936501079022 0.008219077818964787 0.03612424725987346 0.9897376347735442 -0.08625426719475343
 -0.0022795170770011143 -0.01148206638615526 0.002725111997594598 0.01836634859498217 0.9897376347735442 -0.08625426719475343 0.008205950711021363 0.036125289415736936
0.1062942892872 0.008256325926713338 0.03626672821392556 0.9896891079413833 -0.08657431376695181 0.002657992320791803 0.01844559629523809 -0.002294037730269512 -0.011523536208711401
 0.9896891079413833 -0.08657431376695181 0.008241932340715984 0.036267815185894385 -0.0022957164843573 -0.011523404655559986 0.002742652379478455 0.018432573116790408
 0.002657992320791803 0.01844559629523809 -0.0022957164843573 -0.011523404655559986 0.008255671987118742 0.03626537172499302 0.9896890264148464 -0.08657574662730955
 -0.002294037730269512 -0.011523536208711401 0.002742652379478455 0.018432573116790408 0.9896890264148464 -0.08657574662730955 0.008242449017854555 0.03626642090666789
0.11254689453939999 0.008865567793792873 0.038565658636057897 0.9888803369850894 -0.09179953513081168 0.0029407670281696883 0.019521159360540757 -0.0025366597298733568 -0.01219556066004238
 0.9888803369850894 -0.09179953513081168 0.008849428305048724 0.03856686924698313 -0.002538536083705016 -0.012195400302039106 0.003035695121354339 0.01950613964492559
 0.0029407670281696883 0.019521159360540757 -0.002538536083705016 -0.012195400302039106 0.00886483639733305 0.038564229347648166 0.9888802453743101 -0.09180105429974873
 -0.0025366597298733568 -0.01219556066004238 0.003035695121354339 0.01950613964492559 0.9888802453743101 -0.09180105429974873 0.00885000794748323 0.03856539667008708
0.11879949979160001 0.009503649238914069 0.04087950305814785 0.9880340694135439 -0.0970376545107155 0.0032386873920796514 0.02059408368776336 -0.0027923721376571847 -0.012865284742221152
 0.9880340694135439 -0.0970376545107155 0.00948566261762511 0.040880845968906294 -0.002794456453642743 -0.012865092212411453 0.0033444706789375043 0.020576869358119587
 0.0032386873920796514 0.02059408368776336 -0.002794456453642743 -0.012865092212411453 0.009502836234682522 0.04087800222201025 0.9880339670372194 -0.0970392603604431
 -0.0027923721376571847 -0.012865284742221152 0.0033444706789375043 0.020576869358119587 0.9880339670372194 -0.0970392603604431 0.00948630891764579 0.040879295616456285
0.1250521050438 0.010170960522050016 0.04320775208400503 0.987149921244933 -0.1022882425474116 0.00355182263295493 0.021664088798865964 -0.003061247227362144 -0.013532430330291847
 0.987149921244933 -0.1022882425474116 0.010151025177796355 0.043209236343251814 -0.003063549764669628 -0.013532202101293182 0.0036690474812890337 0.021644471680661248
 0.00355182263295493 0.021664088798865964 -0.003063549764669628 -0.013532202101293182 0.010170061791827405 0.04320618102948296 0.9871498074017303 -0.10228993547148862
 -0.003061247227362144 -0.013532430330291847 0.0036690474812890337 0.021644471680661248 0.9871498074017303 -0.10228993547148862 0.010151741849103476 0.04320760875078585
0.131304710296 0.010867884940830904 0.045549890729019805 0.9862275147375368 -0.1075508562355292 0.0038802356515533617 0.022730889712955827 -0.003343350798663772 -0.014196715308815486
 0.9862275147375368 -0.1075508562355292 0.010845898892752379 0.04555152579282223 -0.003345881711617738 -0.014196447693269927 0.004009487463188327 0.022708651464363936
 0.0038802356515533617 0.022730889712955827 -0.003345881711617738 -0.014196447693269927 0.01086689639977377 0.045548250861976176 0.9862273887044141 -0.10755263664982871
 -0.003343350798663772 -0.014196715308815486 0.004009487463188327 0.022708651464363936 0.9862273887044141 -0.10755263664982871 0.01084668967182358 0.04554982150682555
0.1375573155481 0.011448607231343947 0.04759926918491128 0.9854127601643865 -0.1125186715002593 0.004186111960167751 0.02376481487535979 -0.003600733733191614 -0.01482862194648496
 0.9854127601643865 -0.1125186715002593 0.011424459887123413 0.047601031273789576 -0.0036035078418607245 -0.014828314095575501 0.0043276869823206075 0.02373996130159266
 0.004186111960167751 0.02376481487535979 -0.0036035078418607245 -0.014828314095575501 0.011447523243585087 0.04759756272599464 0.9854126213636812 -0.11252053964479766
 -0.003600733733191614 -0.01482862194648496 0.0043276869823206075 0.02373996130159266 0.9854126213636812 -0.11252053964479766 0.011425329802322493 0.04759924977415856
0.1438099208003 0.012050093950922878 0.049635168128832965 0.9845686251608948 -0.11747120330399688 0.004504225825879526 0.024793034058958063 -0.0038682869741406053 -0.015455201076076416
 0.9845686251608948 -0.11747120330399688 0.012023681510835249 0.049637065040658686 -0.0038713151220457847 -0.015454849323655593 0.004658656063063969 0.02476536288052178
 0.004504225825879526 0.024793034058958063 -0.0038713151220457847 -0.015454849323655593 0.012048910195724984 0.049633396647924335 0.9845684728689592 -0.1174731595822376
 -0.0038682869741406053 -0.015455201076076416 0.004658656063063969 0.02476536288052178 0.9845684728689592 -0.1174731595822376 0.012024634568271454 0.04963520679543641
0.1500625260525 0.012672089297718323 0.05165733903039183 0.9836953713979296 -0.12240824887299583 0.0048344381391785055 0.025815393862210403 -0.004145872916625812 -0.016076306027794113
 0.9836953713979296 -0.12240824887299583 0.012643307552472838 0.05165937910085603 -0.004149165902579365 -0.01607590656178691 0.005002251378410496 0.02578469542126385
 0.0048344381391785055 0.025815393862210403 -0.004149165902579365 -0.01607590656178691 0.012670801467467737 0.051655504165522635 0.9836952048728244 -0.12241029370077078
 -0.004145872916625812 -0.016076306027794113 0.005002251378410496 0.02578469542126385 0.9836952048728244 -0.12241029370077078 0.01264434779673588 0.051657444588485917
0.15631513130469998 0.013314335116854396 0.053665540860259056 0.9827932624791239 -0.12732960807988045 0.0051766078508481556 0.026831744225886855 -0.004433351978102727 -0.016691793869364355
 0.9827932624791239 -0.12732960807988045 0.013283079437946418 0.053667732982560314 -0.0044369205552337735 -0.01669134273285201 0.0053583275836273205 0.026797801581094426
