! Created with skrf 1.8.0 (http://scikit-rf.org).
# GHz S RI R 50.0 
!freq ReS11 ImS11 ReS12 ImS12 ReS13 ImS13
! ReS14 ImS14
! ReS21 ImS21 ReS22 ImS22 ReS23 ImS23
! ReS24 ImS24
! ReS31 ImS31 ReS32 ImS32 ReS33 ImS33
! ReS34 ImS34
! ReS41 ImS41 ReS42 ImS42 ReS43 ImS43
! ReS44 ImS44
!
0.0 0.002103683761929 0.0 0.9978963162154 0.0 8.23159527354e-05 0.0 -8.23159529129e-05 1.0080796825354722e-20
 0.9978963162154 0.0 0.002103683761923 0.0 -8.231595291274e-05 1.0080796825335127e-20 8.231595273495e-05 0.0
 8.23159527354e-05 0.0 -8.231595291274e-05 1.0080796825335127e-20 0.002103683773282 0.0 0.9978963162267 0.0
 -8.23159529129e-05 1.0080796825354722e-20 8.231595273495e-05 0.0 0.9978963162267 0.0 0.002103683773283 0.0
0.005 0.0022656004664050023 0.001714309318685003 0.9976910393605984 -0.0044046823061497 0.00011750485418886395 0.0009345943307425957 -0.00011361821833680418 -0.0005813984428082661
 0.9976910393605984 -0.0044046823061497 0.002265643989734564 0.0017142839287135913 -0.00011362168156128799 -0.0005814011326384119 0.0001172145257543868 0.0009347050935583541
 0.00011750485418886395 0.0009345943307425957 -0.00011362168156128799 -0.0005814011326384119 0.002265598122894532 0.0017142434444543512 0.9976910389587961 -0.00440474937461379
 -0.00011361821833680418 -0.0005813984428082661 0.0001172145257543868 0.0009347050935583541 0.9976910389587961 -0.00440474937461379 0.002265645539492715 0.001714215673834918
0.006252605252188 0.0023087204170565054 0.002149559295327052 0.997635915533942 -0.005506824278861251 0.00012797199977773767 0.001168635399692792 -0.00012277337977448696 -0.0007274642939130185
 0.997635915533942 -0.005506824278861251 0.0023087884524737035 0.002149527067951477 -0.0001227787684615517 -0.0007274676086052155 0.00012751840052196146 0.0011687794670507893
 0.00012797199977773767 0.001168635399692792 -0.0001227787684615517 -0.0007274676086052155 0.002308716819035053 0.0021494769693154963 0.9976359149715065 -0.005506908108752283
 -0.00012277337977448696 -0.0007274642939130185 0.00012751840052196146 0.0011687794670507893 0.9976359149715065 -0.005506908108752283 0.002308790941396109 0.002149441751873628
0.01250521050438 0.0025395191249810685 0.004343314478845833 0.9973383994156001 -0.011013622034345536 0.0001901799237923996 0.0023371586696881693 -0.00017642013625306744 -0.0014580187581788684
 0.9973383994156001 -0.011013622034345536 0.0025397908029677094 0.004343245097690642 -0.00017644136704586983 -0.0014580248526099525 0.00018837130840682593 0.0023375087097769593
 0.0001901799237923996 0.0023371586696881693 -0.00017644136704586983 -0.0014580248526099525 0.0025395053151132706 0.004343150242131678 0.9973383977301297 -0.011013789440292722
 -0.00017642013625306744 -0.0014580187581788684 0.00018837130840682593 0.0023375087097769593 0.9973383977301297 -0.011013789440292722 0.0025398013131487742 0.004343074689988998
0.01875781575657 0.002796716347852215 0.006567236169721915 0.9970033059185865 -0.016533623574151064 0.00026909882258235385 0.0035062552111953175 -0.00024344817720566573 -0.002190458410948492
 0.9970033059185865 -0.016533623574151064 0.002797326859207371 0.0065671243707637805 -0.0002434955123361092 -0.002190466616279076 0.0002650365643228643 0.00350688833197531
 0.00026909882258235385 0.0035062552111953175 -0.0002434955123361092 -0.002190466616279076 0.0027966857341642686 0.0065669903720716 0.9970033025518221 -0.01653387450354616
 -0.00024344817720566573 -0.002190458410948492 0.0002650365643228643 0.00350688833197531 0.9970033025518221 -0.01653387450354616 0.0027973509212012838 0.006566868891822719
0.02501042100875 0.0030809203427436932 0.008818012628241742 0.9966301520263179 -0.022069315277361827 0.0003648897039797974 0.004675848448606725 -0.0003240392195345191 -0.00292432589098769
 0.9966301520263179 -0.022069315277361827 0.003082004659068968 0.00881785285758867 -0.00032412279242657936 -0.002924335394514629 0.0003576753849937747 0.004676856598694126
 0.0003648897039797974 0.004675848448606725 -0.00032412279242657936 -0.002924335394514629 0.003080866343736123 0.008817685707282086 0.9966301464159549 -0.022069649723169944
 -0.0003240392195345191 -0.00292432589098769 0.0003576753849937747 0.004676856598694126 0.9966301464159549 -0.022069649723169944 0.0030820478046604304 0.008817512282064746
0.03126302626094 0.0033927127764828324 0.011093843853302933 0.996218436013522 -0.027621645598243778 0.0004777119550370945 0.005845747533723624 -0.0004183668217997146 -0.003659263706580305
 0.996218436013522 -0.027621645598243778 0.003394405747749178 0.011093630276026356 -0.0004184966574400916 -0.00365927355079519 0.00046644664825394306 0.005847237595282315
 0.0004777119550370945 0.005845747533723624 -0.0004184966574400916 -0.00365927355079519 0.003392628822860022 0.011093436353577407 0.9962184275952592 -0.027622063580873647
 -0.0004183668217997146 -0.003659263706580305 0.00046644664825394306 0.005847237595282315 0.9962184275952592 -0.027622063580873647 0.003394473516426785 0.011093204550641687
0.037515631513130004 0.003732659831858368 0.013393483826123122 0.9957676492921008 -0.0331909828407463 0.0006077213416334121 0.007015714693312951 -0.0005265976263752755 -0.004394947022366576
 0.9957676492921008 -0.0331909828407463 0.0037350962601817015 0.013393210328831782 -0.0005267836514480233 -0.004394956104800316 0.0005915053544094712 0.007017808622385304
 0.0006077213416334121 0.007015714693312951 -0.0005267836514480233 -0.004394956104800316 0.0037325393636910113 0.013392996388257503 0.9957676374952467 -0.033191484419757264
 -0.0005265976263752755 -0.004394947022366576 0.0005915053544094712 0.007017808622385304 0.9957676374952467 -0.033191484419757264 0.0037351941974820553 0.013392699360232784
0.043768236765320004 0.004101316426642558 0.015715949056255944 0.9952772813779119 -0.03877740661765338 0.0007550690101191278 0.008185485780806998 -0.0006488917269224985 -0.00513106326412061
 0.9952772813779119 -0.03877740661765338 0.004104631130795998 0.0157156092463512 -0.0006491437756012887 -0.005131070337437471 0.0007330018275379435 0.008188320761233778
 0.0007550690101191278 0.008185485780806998 -0.0006491437756012887 -0.005131070337437471 0.004101152896682279 0.015715382436508604 0.9952772656261991 -0.03877799187331716
 -0.0006488917269224985 -0.00513106326412061 0.0007330018275379435 0.008188320761233778 0.9952772656261991 -0.03877799187331716 0.0041047647911960075 0.015715012918771004
0.050020842017509996 0.004499228087489894 0.018060398203397818 0.9947468225194358 -0.04438082824003926 0.0009199008452093311 0.009354778797521099 -0.0007854027236812946 -0.005867303772030123
 0.9947468225194358 -0.04438082824003926 0.004503555961993263 0.01805998540574246 -0.0007857305409549613 -0.005867307444193799 0.0008910811800400132 0.009358507399211725
 0.0009199008452093311 0.009354778797521099 -0.0007857305409549613 -0.005867307444193799 0.004499014960974206 0.018059753266704358 0.9947468022286945 -0.04438149728143522
 -0.0007854027236812946 -0.005867303772030123 0.0008910811800400132 0.009358507399211725 0.9947468022286945 -0.04438149728143522 0.004503730909037499 0.018059303572158795
0.055454545454549996 0.004869201352926312 0.020115058842347933 0.9942528848155799 -0.049264024140034904 0.001077452972560738 0.01037031232591895 -0.000915695132257606 -0.00650698021276615
 0.9942528848155799 -0.049264024140034904 0.004874519356568991 0.02011457697120661 -0.0009160966412317855 -0.006506979686484631 0.0010420327267398285 0.010374953486002732
 0.001077452972560738 0.01037031232591895 -0.0009160966412317855 -0.006506979686484631 0.004868939830775722 0.020114346639746247 0.9942528600997276 -0.049264766098403946
 -0.000915695132257606 -0.00650698021276615 0.0010420327267398285 0.010374953486002732 0.9942528600997276 -0.049264766098403946 0.004874734709399521 0.020113820692211556
0.056273447269699996 0.004926931832309072 0.020426073004386643 0.9941757653442985 -0.05000104981640678 0.0011023569806045041 0.010523298147460274 -0.0009362776444436516 -0.006603359739207662
 0.9941757653442985 -0.05000104981640678 0.004932407905467782 0.020425580255335106 -0.000936690888248857 -0.006603358473683858 0.0010658828894391003 0.010528088485018851
 0.0011023569806045041 0.010523298147460274 -0.000936690888248857 -0.006603358473683858 0.004926662590290457 0.020425350732976008 0.9941757399225065 -0.05000180277381438
 -0.0009362776444436516 -0.006603359739207662 0.0010658828894391003 0.010528088485018851 0.9941757399225065 -0.05000180277381438 0.0049326297133705545 0.020424812744082047
0.06252605252188 0.005384956558434762 0.02281226583961293 0.9935636060169744 -0.05563779673068511 0.0013025713925944884 0.01169073700762008 -0.0011016567930124106 -0.007338920054382442
 0.9935636060169744 -0.05563779673068511 0.00539171604811753 0.022811685878696752 -0.0011021650354177772 -0.007338912170352007 0.0012575404357752938 0.011696772897417437
 0.0013025713925944884 0.01169073700762008 -0.0011021650354177772 -0.007338912170352007 0.005384624698427323 0.02281146733153168 0.9935635748621633 -0.05563863375802367
 -0.0011016567930124106 -0.007338920054382442 0.0012575404357752938 0.011696772897417437 0.9935635748621633 -0.05563863375802367 0.005391990301167197 0.02281083249015791
0.06877865777407 0.005873823158500552 0.025218300444878355 0.9929098451320811 -0.06129073699604075 0.0015206715367208246 0.012856778804399142 -0.0012816735601987423 -0.008073670058884482
 0.9929098451320811 -0.06129073699604075 0.005882001526978531 0.025217625704014337 -0.0012822862878877968 -0.008073653731506418 0.001466180970785643 0.01286425991878451
 0.0015206715367208246 0.012856778804399142 -0.0012822862878877968 -0.008073653731506418 0.0058734221971328835 0.025217426911738144 0.9929098076319254 -0.061291658274158466
 -0.0012816735601987423 -0.008073670058884482 0.001466180970785643 0.01286425991878451 0.9929098076319254 -0.061291658274158466 0.005882333821419738 0.025216686206221254
0.07503126302626001 0.006394044475829479 0.02764351970132351 0.9922139884525651 -0.06695949355340182 0.0017567780125993593 0.014021098197054247 -0.0014764542113308299 -0.00880729081771644
 0.9922139884525651 -0.06695949355340182 0.006403777485675787 0.02764274229141846 -0.0014771808258249135 -0.008807264078369015 0.001691925007285687 0.014030240214930208
 0.0017567780125993593 0.014021098197054247 -0.0014771808258249135 -0.008807264078369015 0.006393567950153882 0.02764257247690355 0.9922139439821296 -0.0669604992820834
 -0.0014764542113308299 -0.00880729081771644 0.001691925007285687 0.014030240214930208 0.9922139439821296 -0.0669604992820834 0.006404173428553288 0.02764171642689492
0.08128386827845 0.006946125158196835 0.0300872775634534 0.9914755475503133 -0.07264365245550011 0.002011004248510451 0.015183361783720142 -0.0016861176583555255 -0.009539458689429204
 0.9914755475503133 -0.07264365245550011 0.0069575489266005585 0.030086389258532138 -0.0016869674757939046 -0.009539419425997961 0.0019348861231705435 0.015194396536837353
 0.002011004248510451 0.015183361783720142 -0.0016869674757939046 -0.009539419425997961 0.006945566628716423 0.030086258102538687 0.9914754954719924 -0.07264474285557683
 -0.0016861176583555255 -0.009539458689429204 0.0019348861231705435 0.015194396536837353 0.9914754954719924 -0.07264474285557683 0.006958014137259741 0.030085276741093882
0.08753647353064001 0.00753056144385448 0.03254893352295315 0.990694040384538 -0.07834276854041552 0.0022834561967315908 0.016343228645788233 -0.0019107752251079134 -0.010269845079632597
 0.990694040384538 -0.07834276854041552 0.007543812497488681 0.032547925741618924 -0.0019117574757896428 -0.010269791036827592 0.0021951706734354903 0.016356404260229135
 0.0022834561967315908 0.016343228645788233 -0.0019117574757896428 -0.010269791036827592 0.007529914496325139 0.03254784339676538 0.9906939800461901 -0.07834394385884955
 -0.0019107752251079134 -0.010269845079632597 0.0021951706734354903 0.016356404260229135 0.9906939800461901 -0.07834394385884955 0.007544352607695674 0.03254672624991608
0.09378907878283 0.008147840900987028 0.03502784867263448 0.9898689918353919 -0.08405636953035316 0.0025742320412682086 0.017500350786849264 -0.002150530404960441 -0.010998116322094314
 0.9898689918353919 -0.08405636953035316 0.008163056231247981 0.03502671245673033 -0.002151654232762247 -0.010998045101724778 0.002472877511797946 0.017515931819282893
 0.0025742320412682086 0.017500350786849264 -0.002151654232762247 -0.010998045101724778 0.008147099149061863 0.03502668957767858 0.9898689225694538 -0.08405763003195917
 -0.002150530404960441 -0.010998116322094314 0.002472877511797946 0.017515931819282893 0.9898689225694538 -0.08405763003195917 0.008163676885181952 0.0350254256412554
0.100041684035 0.008798442135829254 0.03752338288402003 0.9889999342086544 -0.0897839590430448 0.0028834219121188524 0.0186543735090544 -0.0024054786174034387 -0.01172393364480152
 0.9889999342086544 -0.0897839590430448 0.008815759253311297 0.03752210887470905 -0.0024067530789463106 -0.011723842706188854 0.0027680977170751716 0.018672641077342827
 0.0028834219121188524 0.0186543735090544 -0.0024067530789463106 -0.011723842706188854 0.008797599223441279 0.03752215663703893 0.9889998553306402 -0.08978530501596464
 -0.0024054786174034387 -0.01172393364480152 0.0027680977170751716 0.018672641077342827 0.9889998553306402 -0.08978530501596464 0.008816466108089258 0.037520734350882205
0.1059090909091 0.009439686380854056 0.03987971878776834 0.9881439803486377 -0.09517095540932219 0.0031903841432172485 0.019734160997644527 -0.0026586160709658547 -0.012402498172328096
 0.9881439803486377 -0.09517095540932219 0.009459101377747227 0.039878306581671685 -0.0026600400446772565 -0.01240238629286453 0.0030611328588517504 0.019755220130677972
 0.0031903841432172485 0.019734160997644527 -0.0026600400446772565 -0.01240238629286453 0.009438742788472017 0.03987843128952254 0.9881438918124451 -0.09517238186676727
 -0.0026586160709658547 -0.012402498172328096 0.0030611328588517504 0.019755220130677972 0.9881438918124451 -0.09517238186676727 0.00945989427962396 0.03987684937460156
0.1062942892872 0.0094828344761953 0.040034892716639056 0.9880864077172068 -0.09552501889834766 0.0032111076072363436 0.019804935751131625 -0.002675706962775071 -0.012446953197065541
 0.9880864077172068 -0.09552501889834766 0.009502391465506183 0.04003347112747332 -0.0026771410265025927 -0.012446839857366433 0.0030809143261653557 0.019826187658979293
 0.0032111076072363436 0.019804935751131625 -0.0026771410265025927 -0.012446839857366433 0.009481884079933545 0.04003360125795751 0.9880863185248614 -0.09552645065102276
 -0.002675706962775071 -0.012446953197065541 0.0030809143261653557 0.019826187658979293 0.9880863185248614 -0.09552645065102276 0.009503190191315966 0.04003200847715805
0.11254689453939999 0.0102014776386979 0.0425617298643745 0.987127960946454 -0.10127901091488546 0.003557362320991087 0.020951670397731475 -0.002961293977503778 -0.013166826127940566
 0.987127960946454 -0.10127901091488546 0.010223413212954944 0.04256015045158561 -0.002962896522688896 -0.013166687562580198 0.0034114020723021075 0.02097622125305386
 0.003557362320991087 0.020951670397731475 -0.002962896522688896 -0.013166687562580198 0.010200413470899906 0.04256037525844011 0.987127860718503 -0.10128052877576678
 -0.002961293977503778 -0.013166826127940566 0.0034114020723021075 0.02097622125305386 0.987127860718503 -0.10128052877576678 0.010224309493624632 0.04255859922188001
0.11879949979160001 0.010954821383086264 0.04510323999157623 0.9861241513050624 -0.10704537834469496 0.0039222503784217076 0.022094204579313898 -0.0032623093913842134 -0.013883198696949666
 0.9861241513050624 -0.10704537834469496 0.010979274938739791 0.04510149202129039 -0.0032640892070069593 -0.0138830319400446 0.0037596271283314997 0.022122385905936924
 0.0039222503784217076 0.022094204579313898 -0.0032640892070069593 -0.0138830319400446 0.010953637194005002 0.04510182442494763 0.986124039299612 -0.1070469826642322
 -0.0032623093913842134 -0.013883198696949666 0.0037596271283314997 0.022122385905936924 0.986124039299612 -0.1070469826642322 0.0109802744711152 0.04509985172086307
0.1250521050438 0.011743305158749589 0.04765876185236732 0.9850745454665629 -0.11282354705239843 0.00430582697651279 0.023232159958897654 -0.0035788138866130297 -0.014595712420788456
 0.9850745454665629 -0.11282354705239843 0.011770416828929898 0.04765683406503955 -0.0035807796701138486 -0.014595514365586659 0.004125646856216503 0.02326432030146028
 0.00430582697651279 0.023232159958897654 -0.0035807796701138486 -0.014595514365586659 0.011741994739386344 0.04765728763858329 0.9850744209204998 -0.11282523819832545
 -0.0035788138866130297 -0.014595712420788456 0.004125646856216503 0.02326432030146028 0.9850744209204998 -0.11282523819832545 0.011771525323702804 0.04765510416714382
0.131304710296 0.01256735774362118 0.05022762663927865 0.9839787198007439 -0.11861292649352638 0.00470813793087397 0.024365153019978228 -0.003910858861112078 -0.015304004241544654
 0.9839787198007439 -0.11861292649352638 0.012597268452342289 0.050225507210813626 -0.003913019217132868 -0.015303771640954568 0.004509509561555757 0.02440165804159359
 0.00470813793087397 0.024365153019978228 -0.003913019217132868 -0.015303771640954568 0.0125659149286 0.05022609621620699 0.9839785819277208 -0.11861470485308181
 -0.003910858861112078 -0.015304004241544654 0.004509509561555757 0.02440165804159359 0.9839785819277208 -0.11861470485308181 0.012598491633838154 0.05022368714919734
0.1375573155481 0.013260416489642449 0.05247502901190213 0.9830033541819808 -0.12407850596673228 0.005086139396574237 0.025462506327483043 -0.004215637096412462 -0.01597727343791457
 0.9830033541819808 -0.12407850596673228 0.013293277971550225 0.052472750029806135 -0.004218005109821843 -0.015977005337527626 0.004868617272074905 0.02550336537618064
 0.005086139396574237 0.025462506327483043 -0.004218005109821843 -0.015977005337527626 0.01325883588023952 0.05247344436453551 0.9830032023479761 -0.12408037174372213
 -0.004215637096412462 -0.01597727343791457 0.004868617272074905 0.02550336537618064 0.9830032023479761 -0.12408037174372213 0.013294620528075793 0.05247083939024942
0.1438099208003 0.01397831582738532 0.054706014719888174 0.9819925313159491 -0.12952558857729538 0.005479187978967096 0.02655235646411486 -0.004532321890299115 -0.01664380453488428
 0.9819925313159491 -0.12952558857729538 0.014014271575364142 0.05470356614762251 -0.004534906837135395 -0.016643497665330277 0.005241964263021971 0.02659790991224235
 0.005479187978967096 0.02655235646411486 -0.004534906837135395 -0.016643497665330277 0.013976591453700157 0.0547043783287154 0.9819923647347888 -0.1295275421400125
 -0.004532321890299115 -0.01664380453488428 0.005241964263021971 0.02659790991224235 0.9819923647347888 -0.1295275421400125 0.014015739065860653 0.054701564389093356
0.1500625260525 0.014720719643505931 0.056920264448788116 0.9809465931359913 -0.1349539023447201 0.005887091873495826 0.027634495583546206 -0.004860729877500096 -0.017303410579478526
 0.9809465931359913 -0.1349539023447201 0.014759913911802466 0.05691763542937654 -0.004863540997816062 -0.017303061538976042 0.005629366138890447 0.027685096167657464
 0.005887091873495826 0.027634495583546206 -0.004863540997816062 -0.017303061538976042 0.014718845585100558 0.05691857888836754 0.9809464110024296 -0.1349559440740329
 -0.004860729877500096 -0.017303410579478526 0.005629366138890447 0.027685096167657464 0.9809464110024296 -0.1349559440740329 0.014761511896953653 0.05691554198474611
0.15631513130469998 0.015487288470214786 0.05911746884798196 0.9798658843844865 -0.14036317982656615 0.0063096564462691435 0.02870872084177688 -0.005200674957743865 -0.01795590990268588
 0.9798658843844865 -0.14036317982656615 0.015529866290624453 0.05911464766514982 -0.005203721454935688 -0.017955515157755366 0.006030635819815327 0.02876473348602887
