! Created with skrf 1.8.0 (http://scikit-rf.org).
# GHz S RI R 50.0 
!freq ReS11 ImS11 ReS12 ImS12 ReS13 ImS13
! ReS14 ImS14
! ReS21 ImS21 ReS22 ImS22 ReS23 ImS23
! ReS24 ImS24
! ReS31 ImS31 ReS32 ImS32 ReS33 ImS33
! ReS34 ImS34
! ReS41 ImS41 ReS42 ImS42 ReS43 ImS43
! ReS44 ImS44
!
0.0 0.001625788723069 0.0 0.9983742112712 0.0 6.310495320405e-05 0.0 -6.310495267177e-05 7.728127829982834e-21
 0.9983742112712 0.0 0.001625788723072 0.0 -6.310495267163e-05 7.72812782996569e-21 6.310495320512e-05 0.0
 6.310495320405e-05 0.0 -6.310495267163e-05 7.72812782996569e-21 0.001625788721649 0.0 0.9983742112698 0.0
 -6.310495267177e-05 7.728127829982834e-21 6.310495320512e-05 0.0 0.9983742112698 0.0 0.001625788721667 0.0
0.005 0.0017495206992153573 0.0013249763457194648 0.9982176132294598 -0.003405625133946174 8.931187137285576e-05 0.0007241782515670762 -8.652828595141312e-05 -0.0004494648013821135
 0.9982176132294598 -0.003405625133946174 0.0017495306216645825 0.0013249704730591654 -8.652840361458688e-05 -0.0004494648185412233 8.925290419305251e-05 0.0007242007190150014
 8.931187137285576e-05 0.0007241782515670762 -8.652840361458688e-05 -0.0004494648185412233 0.001749521366609748 0.0013250431777963923 0.9982176135963413 -0.0034055580756941276
 -8.652828595141312e-05 -0.0004494648013821135 8.925290419305251e-05 0.0007242007190150014 0.9982176135963413 -0.0034055580756941276 0.0017495306903287464 0.0013250377623919313
0.006252605252188 0.0017820473268240944 0.0016614443167773554 0.9981761721375898 -0.004257854185057313 9.684781499255049e-05 0.0009055547582438676 -9.31818666786477e-05 -0.0005624139134915521
 0.9981761721375898 -0.004257854185057313 0.0017820628380397759 0.001661436855318777 -9.318205033603645e-05 -0.0005624139330748107 9.675568462994592e-05 0.0009055839384975597
 9.684781499255049e-05 0.0009055547582438676 -9.318205033603645e-05 -0.0005624139330748107 0.0017820482909526672 0.0016615278484714221 0.9981761726314292 -0.004257770365959853
 -9.31818666786477e-05 -0.0005624139134915521 9.675568462994592e-05 0.0009055839384975597 0.9981761726314292 -0.004257770365959853 0.001782062865438962 0.0016615209720054656
0.01250521050438 0.0019537139779671454 0.00335775548030249 0.9979559407445603 -0.008516450852790512 0.00014032156463516507 0.0018113415915050242 -0.00013114968417480663 -0.0011275288502315115
 0.9979559407445603 -0.008516450852790512 0.0019537759255639883 0.0033577393377620525 -0.00013115041504780105 -0.0011275288678966459 0.0001399541755139936 0.0018114118158063317
 0.00014032156463516507 0.0018113415915050242 -0.00013115041504780105 -0.0011275288678966459 0.0019537172777508187 0.0033579222411047644 0.9979559421568992 -0.008516283478615858
 -0.00013114968417480663 -0.0011275288502315115 0.0001399541755139936 0.0018114118158063317 0.9979559421568992 -0.008516283478615858 0.001953775468699686 0.0033579074127103423
0.01875781575657 0.0021411802084895354 0.005078204276379779 0.9977132316128605 -0.012786140486922708 0.00019362869756954493 0.002717984772552236 -0.00017712951392854725 -0.00169447896325858
 0.9977132316128605 -0.012786140486922708 0.0021413194292955657 0.0050781781387009995 -0.0001771311535739208 -0.0016944789504767979 0.000192803411051249 0.002718110319312694
 0.00019362869756954493 0.002717984772552236 -0.0001771311535739208 -0.0016944789504767979 0.0021411872182753424 0.005078454116185842 0.9977132343621802 -0.012785889688839817
 -0.00017712951392854725 -0.00169447896325858 0.000192803411051249 0.002718110319312694 0.9977132343621802 -0.012785889688839817 0.002141317966025531 0.005078430192781555
0.02501042100875 0.002344824986599644 0.006820351532503752 0.9974477476056596 -0.01706897102878652 0.0002568732716799966 0.0036255143625271075 -0.00023123801103508562 -0.002262985630940549
 0.9974477476056596 -0.01706897102878652 0.0023450722684230335 0.006820314001715738 -0.00023124091970619053 -0.0022629855519713383 0.00025540739193100455 0.0036257118462139568
 0.0002568732716799966 0.0036255143625271075 -0.00023124091970619053 -0.0022629855519713383 0.0023448370906239695 0.006820684361102165 0.9974477521100954 -0.017068636897573833
 -0.00023123801103508562 -0.002262985630940549 0.00025540739193100455 0.0036257118462139568 0.9974477521100954 -0.017068636897573833 0.002345069272828655 0.006820650142476965
0.03126302626094 0.0025650115594616214 0.008582930811307548 0.997159177061924 -0.021365805162768776 0.0003301596979998694 0.0045338731029727335 -0.0002935881937090191 -0.002832850549033596
 0.997159177061924 -0.021365805162768776 0.0025653976583196662 0.00858288040730171 -0.00029359273056978107 -0.002832850360853627 0.00032787030446585006 0.004534161488120938
 0.0003301596979998694 0.0045338731029727335 -0.00029359273056978107 -0.002832850360853627 0.0025650301475423315 0.008583346546700406 0.9971591837341078 -0.02136538780018543
 -0.0002935881937090191 -0.002832850549033596 0.00032787030446585006 0.004534161488120938 0.9971591837341078 -0.02136538780018543 0.0025653925961122846 0.00858330077764733
0.037515631513130004 0.002802095087653643 0.010365107881028119 0.9968472017097552 -0.025677060785959542 0.0004135916409854018 0.005442969093682086 -0.00036429029536310276 -0.0034039030635478213
 0.9968472017097552 -0.025677060785959542 0.0028026507390092404 0.010365043042388286 -0.0003642968183960124 -0.003403902715786091 0.00041029551485871824 0.005443369718405957
 0.0004135916409854018 0.005442969093682086 -0.0003642968183960124 -0.003403902715786091 0.0028021215591892855 0.010365606463166751 0.9968472109607128 -0.025676560290782063
 -0.00036429029536310276 -0.0034039030635478213 0.00041029551485871824 0.005443369718405957 0.9968472109607128 -0.025676560290782063 0.0028026430727759173 0.010365547834614693
0.043768236765320004 0.0030564255856370083 0.012166255366820665 0.9965114998889961 -0.03000293628714054 0.0005072714975703224 0.006352691817617529 -0.000443452063068179 -0.0039759841588115465
 0.9965114998889961 -0.03000293628714054 0.00305718151344453 0.01216617445103832 -0.00044346092903152506 -0.003975983593679344 0.0005027850881876844 0.0063532284201810495
 0.0005072714975703224 0.006352691817617529 -0.00044346092903152506 -0.003975983593679344 0.003056461348041567 0.012166836745210562 0.9965115121259106 -0.030002352767179837
 -0.000443452063068179 -0.0039759841588115465 0.0005027850881876844 0.0063532284201810495 0.9965115121259106 -0.030002352767179837 0.0030571707014841513 0.01216676389496535
0.050020842017509996 0.0033283492783869615 0.013985859628519995 0.9961517481944137 -0.034343503598011534 0.0006113000808495747 0.007262918767137942 -0.0005311788586253559 -0.004548939847916095
 0.9961517481944137 -0.034343503598011534 0.003329336203474834 0.013985760911941607 -0.0005311904229164991 -0.004548939000165259 0.000605439493435986 0.007263617513673141
 0.0006113000808495747 0.007262918767137942 -0.0005311904229164991 -0.004548939000165259 0.00332839574745816 0.013986523765453208 0.9961517638205345 -0.03434283716657152
 -0.0005311788586253559 -0.004548939847916095 0.000605439493435986 0.007263617513673141 0.9961517638205345 -0.03434283716657152 0.0033293217011180058 0.013986435278421102
0.055454545454549996 0.0035792135918000867 0.015581792733207043 0.995819329870785 -0.03812751428833499 0.000710185442935237 0.008054241307078104 -0.0006144519989430073 -0.0050474477766029886
 0.995819329870785 -0.03812751428833499 0.0035804262122448496 0.015581677084178795 -0.0006144661956421974 -0.0050474466244228074 0.0007029810413634 0.008055104118609172
 0.000710185442935237 0.008054241307078104 -0.0006144661956421974 -0.0050474466244228074 0.0035792705229732154 0.015582528763879411 0.9958193487678351 -0.038126775905669374
 -0.0006144519989430073 -0.0050474477766029886 0.0007029810413634 0.008055104118609172 0.9958193487678351 -0.038126775905669374 0.003580408059992764 0.015582425497876272
0.056273447269699996 0.003618209289756111 0.015823475042915598 0.9957676224540046 -0.03869875384212372 0.000725776394017378 0.008173518691612 -0.0006275736712945119 -0.005122617946402866
 0.9957676224540046 -0.03869875384212372 0.003619457936643783 0.015823356720494595 -0.0006275882878279609 -0.005122616743270707 0.0007183573905210967 0.00817440820438689
 0.000725776394017378 0.008173518691612 -0.0006275882878279609 -0.005122616743270707 0.003618267891281455 0.01582422190918803 0.995767641869923 -0.038698004622048865
 -0.0006275736712945119 -0.005122617946402866 0.0007183573905210967 0.00817440820438689 0.995767641869923 -0.038698004622048865 0.0036194391984844814 0.015824116317595022
0.06252605252188 0.00392634600371403 0.017678698881376662 0.9953587983857878 -0.04306862239290453 0.0008507974470834976 0.009084353396229665 -0.000732737088048464 -0.005696866300068921
 0.9953587983857878 -0.04306862239290453 0.003927887108218962 0.017678559066107477 -0.0007327551091069488 -0.005696864661230621 0.0008416354553736293 0.009085464782053368
 0.0008507974470834976 0.009084353396229665 -0.0007327551091069488 -0.005696864661230621 0.0039264181714467935 0.01767952845924652 0.9953588219870286 -0.043067790513167496
 -0.000732737088048464 -0.005696866300068921 0.0008416354553736293 0.009085464782053368 0.9953588219870286 -0.043067790513167496 0.003927863586995349 0.017679404242385354
0.06877865777407 0.004253097243196929 0.019551156338116372 0.9949249520762702 -0.047453003786020465 0.0009864580997537475 0.009995278818691647 -0.0008467672368416024 -0.006271531740585149
 0.9949249520762702 -0.047453003786020465 0.004254961558911838 0.019550993060277796 -0.0008467890129077017 -0.006271529578117965 0.0009753682289371893 0.009996645697318455
 0.0009864580997537475 0.009995278818691647 -0.0008467890129077017 -0.006271529578117965 0.004253184420768132 0.019552068613669416 0.9949249802545399 -0.04745208938910057
 -0.0008467672368416024 -0.006271531740585149 0.0009753682289371893 0.009996645697318455 0.9949249802545399 -0.04745208938910057 0.004254932708304638 0.01955192419753357
0.07503126302626001 0.004598798343991083 0.021440491024848903 0.9944657603578178 -0.05185176117154848 0.0011328509181349007 0.010906145720137265 -0.0009697597150268513 -0.006846459432994094
 0.9944657603578178 -0.05185176117154848 0.004601016648926764 0.021440302230990332 -0.00096978559460476 -0.006846456651338841 0.0011196479784734766 0.010907804252473353
 0.0011328509181349007 0.010906145720137265 -0.00096978559460476 -0.006846456651338841 0.00459890198375659 0.02144148599523611 0.9944657934997579 -0.051850764405809206
 -0.0009697597150268513 -0.006846459432994094 0.0011196479784734766 0.010907804252473353 0.9944657934997579 -0.051850764405809206 0.004600981923367792 0.021441319751815045
0.08128386827845 0.004963782160651612 0.023346358669173558 0.9939809011234462 -0.05626473256885542 0.0012900660415379457 0.011816800150816854 -0.0011018075065162116 -0.007421492454717303
 0.9939809011234462 -0.05626473256885542 0.004966385264253694 0.02334614222086931 -0.0011018378359866391 -0.007421488950649442 0.0012745645679643842 0.011818789066956206
 0.0012900660415379457 0.011816800150816854 -0.0011018378359866391 -0.007421488950649442 0.004963903724767364 0.023347436335489566 0.9939809396108427 -0.05626365359523137
 -0.0011018075065162116 -0.007421492454717303 0.0012745645679643842 0.011818789066956206 0.9939809396108427 -0.05626365359523137 0.004966344120631949 0.023347246581915584
0.08753647353064001 0.005348379028525992 0.025268422745082304 0.9934700536001266 -0.060691735196330525 0.0014581910541570258 0.012727083785668038 -0.0012430008931575646 -0.007996471511232745
 0.9934700536001266 -0.060691735196330525 0.0053513977778512165 0.025268176417496714 -0.0012430360165356143 -0.007996467173845872 0.0014402053325332236 0.0127294444125335
 0.0014581910541570258 0.012727083785668038 -0.0012430360165356143 -0.007996467173845872 0.0053485199879483815 0.025269583116105457 0.993470097809114 -0.060690574184323935
 -0.0012430008931575646 -0.007996471511232745 0.0014402053325332236 0.0127294444125335 0.993470097809114 -0.060690574184323935 0.00535134967589934 0.025269368113424912
0.09378907878283 0.005752916693898628 0.0272063513654891 0.992932898595808 -0.06513256854645917 0.0016373108615329209 0.013636834172172298 -0.0013934273600151928 -0.00857123474622429
 0.992932898595808 -0.06513256854645917 0.0057563819805383385 0.027206072845587355 -0.001393467618817999 -0.008571229456896525 0.0016166549575389291 0.01363961046087748
 0.0016373108615329209 0.013636834172172298 -0.001393467618817999 -0.008571229456896525 0.005753078529403019 0.02720759445713058 0.9929329488969924 -0.06513132567419952
 -0.0013934273600151928 -0.00857123474622429 0.0016166549575389291 0.01363961046087748 0.9929329488969924 -0.06513132567419952 0.0057563263843179915 0.027207352408887966
0.100041684035 0.006177720222494662 0.029159815005084147 0.9923691187271294 -0.06958701663810353 0.0018275075694968996 0.01454588492090247 -0.0015531714975551474 -0.00914561761592178
 0.9923691187271294 -0.06958701663810353 0.006181662988957536 0.029159501889705043 -0.0015532172305688745 -0.009145611248315443 0.0018039953596023432 0.014549123473613257
 0.0018275075694968996 0.01454588492090247 -0.0015532172305688745 -0.009145611248315443 0.006177904423962698 0.029161140834634728 0.9923691754846307 -0.0695856920977298
 -0.0015531714975551474 -0.00914561761592178 0.0018039953596023432 0.014549123473613257 0.9923691754846307 -0.0695856920977298 0.006181599367587452 0.029160869885161186
0.1059090909091 0.006595071977875468 0.031006769406329515 0.9918155751500362 -0.07377922168500174 0.0020161319038198454 0.015398144785833952 -0.001711621471532705 -0.009684120070403361
 0.9918155751500362 -0.07377922168500174 0.006599491001754239 0.031006421558818654 -0.0017116726470526456 -0.009684112569160753 0.0019897699365326363 0.015401861893245805
 0.0020161319038198454 0.015398144785833952 -0.0017116726470526456 -0.009684112569160753 0.006595278531243465 0.031008172899518908 0.9918156382918515 -0.07377782068862958
 -0.001711621471532705 -0.009684120070403361 0.0019897699365326363 0.015401861893245805 0.9918156382918515 -0.07377782068862958 0.0065994193723958 0.031007873087094618
0.1062942892872 0.006623111891536662 0.031128484787053788 0.9917783986350939 -0.07405484971295563 0.0020288603648817775 0.015454065865766456 -0.0017223149013752652 -0.009719452800773158
 0.9917783986350939 -0.07405484971295563 0.006627563138074727 0.03112813458060899 -0.0017223664444902225 -0.009719445220819946 0.002002305568893131 0.015457815962174106
 0.0020288603648817775 0.015454065865766456 -0.0017223664444902225 -0.009719445220819946 0.006623319958679814 0.031129893380287522 0.9917784622069304 -0.07405344370302411
 -0.0017223149013752652 -0.009719452800773158 0.002002305568893131 0.015457815962174106 0.9917784622069304 -0.07405344370302411 0.006627490967005379 0.03112959161268871
0.11254689453939999 0.007089411069097585 0.03311203118876688 0.9911604251908301 -0.07853582552091792 0.002241445398223074 0.016361203191524502 -0.0019009360692102864 -0.010292570157112433
 0.9911604251908301 -0.07853582552091792 0.007094401860437385 0.03311164130077738 -0.0019009937551822955 -0.010292561223024658 0.002211661613930709 0.01636551681474558
 0.002241445398223074 0.016361203191524502 -0.0019009937551822955 -0.010292561223024658 0.007089644511063149 0.03311352257447386 0.9911604959278647 -0.07853433825147997
 -0.0019009360692102864 -0.010292570157112433 0.002211661613930709 0.01636551681474558 0.9911604959278647 -0.07853433825147997 0.007094320622209419 0.03311318800838405
0.11879949979160001 0.007576934084258885 0.035110123030955905 0.9905148876949921 -0.0830296903306438 0.0024653356674554975 0.01726711954983342 -0.002089110297066615 -0.01086479668757953
 0.9905148876949921 -0.0830296903306438 0.007582495555977836 0.03510969077324481 -0.0020891744553412873 -0.010864786249842145 0.0024321364062995727 0.017272051411874628
 0.0024653356674554975 0.01726711954983342 -0.0020891744553412873 -0.010864786249842145 0.007577194419680264 0.035111697241986595 0.990514965941013 -0.08302812202171166
 -0.002089110297066615 -0.01086479668757953 0.0024321364062995727 0.017272051411874628 0.990514965941013 -0.08302812202171166 0.007582404741448291 0.03511132783098794
0.1250521050438 0.008085994088377962 0.037122426688027954 0.9898414780720887 -0.08753617972742804 0.0027006009025087215 0.018171634161193953 -0.0022869095738416736 -0.011435956533126908
 0.9898414780720887 -0.08753617972742804 0.008092157453865335 0.037121949271639865 -0.0022869805303417107 -0.011435944434507801 0.0026637996271720262 0.018177241727721106
 0.0027006009025087215 0.018171634161193953 -0.0022869805303417107 -0.011435944434507801 0.008086282845519599 0.037124083762322166 0.9898415641632166 -0.0875345306074694
 -0.0022869095738416736 -0.011435956533126908 0.0026637996271720262 0.018177241727721106 0.9898415641632166 -0.0875345306074694 0.008092056563272278 0.03712367739098416
0.131304710296 0.008616900911488678 0.03914860546184407 0.9891398910615871 -0.09205501925637505 0.0029473074510268107 0.019074562912400544 -0.0024944024756156746 -0.012005870977023146
 0.9891398910615871 -0.09205501925637505 0.008623697468861153 0.0391480799936621 -0.0024944805525472483 -0.012005857052608244 0.002906717613835019 0.01908090642704414
 0.0029473074510268107 0.019074562912400544 -0.0024944805525472483 -0.012005857052608244 0.008617219628185407 0.039150345438597224 0.9891399853257611 -0.09205328956565881
 -0.0024944024756156746 -0.012005870977023146 0.002906717613835019 0.01908090642704414 0.9891399853257611 -0.09205328956565881 0.008623586012473155 0.03914989991934449
0.1375573155481 0.009051129244861499 0.040923254702252054 0.98852870730587 -0.09632072775218668 0.003175492085976087 0.019949294649739276 -0.0026816785096578934 -0.012547918734788607
 0.98852870730587 -0.09632072775218668 0.009058591401285449 0.04092268926336981 -0.002681763981476588 -0.012547902955400628 0.003131020214402734 0.019956367047802542
 0.003175492085976087 0.019949294649739276 -0.002681763981476588 -0.012547902955400628 0.009051478483831955 0.04092507807548022 0.9885288101000728 -0.09631891770789956
 -0.0026816785096578934 -0.012547918734788607 0.003131020214402734 0.019956367047802542 0.9885288101000728 -0.09631891770789956 0.009058469824675782 0.04092460129485815
0.1438099208003 0.009500711495896963 0.04268797299860917 0.9878958583720691 -0.10057504901783632 0.003412889301362023 0.0208201442581851 -0.0028764333717223867 -0.013086436900166944
 0.9878958583720691 -0.10057504901783632 0.009508870792881123 0.04268736535101371 -0.002876526546777895 -0.01308641910896066 0.0033643656353047778 0.020828000848438208
 0.003412889301362023 0.0208201442581851 -0.002876526546777895 -0.01308641910896066 0.009501092633662674 0.04268987988423321 0.9878959700174943 -0.10057315887060984
 -0.0028764333717223867 -0.013086436900166944 0.0033643656353047778 0.020828000848438208 0.9878959700174943 -0.10057315887060984 0.009508738792989222 0.04268937022741254
0.1500625260525 0.00996548076622716 0.044442596049820836 0.9872415157082833 -0.10481786026137818 0.003659412143767722 0.02168701122195883 -0.003078582959220024 -0.013621331714811226
 0.9872415157082833 -0.10481786026137818 0.009974368823030702 0.04444194382197177 -0.003078684141873243 -0.013621311749296773 0.0036066679864085005 0.0216957093380052
 0.003659412143767722 0.02168701122195883 -0.003078684141873243 -0.013621311749296773 0.009965895177480064 0.04444458657228337 0.9872416365183616 -0.10481589027005267
 -0.003078582959220024 -0.013621331714811226 0.0036066679864085005 0.0216957093380052 0.9872416365183616 -0.10481589027005267 0.009974226118624498 0.044444042311163286
0.15631513130469998 0.010445268865277725 0.04618696448396222 0.9865658517549692 -0.10904903949568885 0.003914972564171407 0.02254979683350915 -0.003288042073193056 -0.014152511503674076
 0.9865658517549692 -0.10904903949568885 0.01045491738109572 0.046186265167237305 -0.003288151563528993 -0.01415248919583971 0.0038578402987817246 0.02255939581209247
