! Created with skrf 1.8.0 (http://scikit-rf.org).
# GHz S RI R 50.0 
!freq ReS11 ImS11 ReS12 ImS12 ReS13 ImS13
! ReS14 ImS14
! ReS21 ImS21 ReS22 ImS22 ReS23 ImS23
! ReS24 ImS24
! ReS31 ImS31 ReS32 ImS32 ReS33 ImS33
! ReS34 ImS34
! ReS41 ImS41 ReS42 ImS42 ReS43 ImS43
! ReS44 ImS44
!
0.0 0.001246642778526 0.0 0.9987533572147 0.0 4.753808469655e-05 0.0 -4.753808419671e-05 5.8217362649098275e-21
 0.9987533572147 0.0 0.001246642778542 0.0 -4.753808419673e-05 5.821736264912278e-21 4.753808469608e-05 0.0
 4.753808469655e-05 0.0 -4.753808419673e-05 5.821736264912278e-21 0.001246642781557 0.0 0.9987533572177 0.0
 -4.753808419671e-05 5.8217362649098275e-21 4.753808469608e-05 0.0 0.9987533572177 0.0 0.00124664278157 0.0
0.005 0.0013405739881655896 0.0010212728765043818 0.998634648693075 -0.0026121893652680593 6.600289495749701e-05 0.0005185274276785261 -6.425729247047013e-05 -0.00032650278370005716
 0.998634648693075 -0.0026121893652680593 0.0013405611203679746 0.001021280329362998 -6.42578509306191e-05 -0.0003265031524956115 6.608021302126978e-05 0.0005184980232901854
 6.600289495749701e-05 0.0005185274276785261 -6.42578509306191e-05 -0.0003265031524956115 0.001340573681804972 0.0010212057597138073 0.9986346483596611 -0.002612256424614673
 -6.425729247047013e-05 -0.00032650278370005716 6.608021302126978e-05 0.0005184980232901854 0.9986346483596611 -0.002612256424614673 0.0013405607624731555 0.001021213329277015
0.006252605252188 0.00136500463409686 0.0012806333615307938 0.998603616214457 -0.003265907374661118 7.114645852859511e-05 0.0006484269786240499 -6.888168557192375e-05 -0.0004085612798350589
 0.998603616214457 -0.003265907374661118 0.001364984519962012 0.0012806428314733958 -6.8882555077365e-05 -0.000408561733505987 7.126726270130168e-05 0.0006483888323432867
 7.114645852859511e-05 0.0006484269786240499 -6.8882555077365e-05 -0.000408561733505987 0.0013650042289279243 0.0012805494593981252 0.9986036157666022 -0.0032659912005296105
 -6.888168557192375e-05 -0.0004085612798350589 7.126726270130168e-05 0.0006483888323432867 0.9986036157666022 -0.0032659912005296105 0.0013649840334754154 0.0012805590860416219
0.01250521050438 0.0014924209342259552 0.002588365906351677 0.9984408800021145 -0.006532797523155351 9.994885906014432e-05 0.0012973066028352184 -9.460420236313065e-05 -0.0008192274924676574
 0.9984408800021145 -0.006532797523155351 0.0014923406270218418 0.0025883863947830394 -9.460763517136574e-05 -0.0008192283201262493 0.00010043063596933481 0.0012972154933828515
 9.994885906014432e-05 0.0012973066028352184 -9.460763517136574e-05 -0.0008192283201262493 0.0014924198941741055 0.0025881983199857726 0.9984408787841353 -0.006532964917731892
 -9.460420236313065e-05 -0.0008192274924676574 0.00010043063596933481 0.0012972154933828515 0.9984408787841353 -0.006532964917731892 0.0014923392488976125 0.0025882192321380094
0.01875781575657 0.0016291263344634154 0.003915030572280619 0.9982649774007113 -0.009808663700570376 0.0001340061669765004 0.001947095151356446 -0.00012477537004084653 -0.001231440567839961
 0.9982649774007113 -0.009808663700570376 0.001628945897832368 0.003915063732224588 -0.0001247830342040718 -0.0012314416753718758 0.0001350885193831846 0.0019469337938649242
 0.0001340061669765004 0.001947095151356446 -0.0001247830342040718 -0.0012314416753718758 0.0016291244359596764 0.003914779351446331 0.99826497508675 -0.009808914586926126
 -0.00012477537004084653 -0.001231440567839961 0.0001350885193831846 0.0019469337938649242 0.99826497508675 -0.009808914586926126 0.001628943212839686 0.003914813320380522
0.02501042100875 0.001775350808270498 0.005258816651757957 0.9980757317601919 -0.013095137120740691 0.00017337965931090492 0.0025978470404403905 -0.00015946334298646634 -0.0016450411701556306
 0.9980757317601919 -0.013095137120740691 0.0017750303973556457 0.005258864227113802 -0.00015947688980437062 -0.0016450424474870997 0.00017530235662544956 0.0025975957911131297
 0.00017337965931090492 0.0025978470404403905 -0.00015947688980437062 -0.0016450424474870997 0.0017753478361153938 0.0052584818418830925 0.9980757280231163 -0.01309547143836823
 -0.00015946334298646634 -0.0016450411701556306 0.00017530235662544956 0.0025975957911131297 0.9980757280231163 -0.01309547143836823 0.001775025983728058 0.005258530737976362
0.03126302626094 0.001931314535268964 0.006618814341617481 0.9978729559688746 -0.016392942370756447 0.00021813112817531307 0.0032495583706366534 -0.0001987347591657549 -0.002059925208834771
 0.9978729559688746 -0.016392942370756447 0.0019308143764708594 0.006618878164326012 -0.00019875582617801918 -0.0020599265296690514 0.00022113434095387603 0.003249195215029472
 0.00021813112817531307 0.0032495583706366534 -0.00019875582617801918 -0.0020599265296690514 0.0019313102846951794 0.0066183959645671805 0.9978729504826515 -0.016393360094724817
 -0.0001987347591657549 -0.002059925208834771 0.00022113434095387603 0.003249195215029472 0.9978729504826515 -0.016393360094724817 0.0019308078085904761 0.006618461754866845
0.037515631513130004 0.0020972331250162565 0.007994447104366188 0.9976564577808809 -0.019702465001427093 0.0002683223887925749 0.0039022026034476005 -0.00024265522662733158 -0.0024760081581169553
 0.9976564577808809 -0.019702465001427093 0.00209651350339806 0.007994529093027279 -0.00024268543912312274 -0.002476009379832135 0.0002726468005039073 0.0039017031325231733
 0.0002683223887925749 0.0039022026034476005 -0.00024268543912312274 -0.002476009379832135 0.0020972274007311324 0.007993945188634922 0.9976564502192985 -0.019702966112285836
 -0.00024265522662733158 -0.0024760081581169553 0.0002726468005039073 0.0039017031325231733 0.9976564502192985 -0.019702966112285836 0.002096504351365842 0.00799402993560485
0.043768236765320004 0.0022733196411563817 0.009385298951764367 0.997426041941106 -0.023023924190327193 0.00032401505076982414 0.004555741410963749 -0.0002912895103877246 -0.0028932141980138387
 0.997426041941106 -0.023023924190327193 0.0022723408906235925 0.0093854011105808 -0.0002913304822594763 -0.00289321516157038 0.00032990191713703685 0.00455507879333969
 0.00032401505076982414 0.004555741410963749 -0.0002913304822594763 -0.00289321516157038 0.0022733122566398704 0.009384713522834702 0.9974260319774152 -0.023024508683701053
 -0.0002912895103877246 -0.0028932141980138387 0.00032990191713703685 0.00455507879333969 0.9974260319774152 -0.023024508683701053 0.0022723287201573622 0.009384819383565618
0.050020842017509996 0.0024597855490325875 0.010791043046613644 0.9971815112355326 -0.0263574440845118 0.00038527038506598344 0.005210129154020984 -0.00034470161002147815 -0.0033114717256631804
 0.9971815112355326 -0.0263574440845118 0.002458508044566426 0.010791167464680564 -0.0003447549443325954 -0.003311472255554644 0.0003929615657532152 0.0052092741066033805
 0.00038527038506598344 0.005210129154020984 -0.0003447549443325954 -0.003311472255554644 0.002459776326096675 0.010790374136096445 0.9971814985414373 -0.026358111962148875
 -0.00034470161002147815 -0.0033114717256631804 0.0003929615657532152 0.0052092741066033805 0.9971814985414373 -0.026358111962148875 0.0024584924169145954 0.010790503361723687
0.055454545454549996 0.0026304228135439756 0.012024558814664273 0.9969573894537714 -0.029264219542180635 0.00044306796063478814 0.00577946205535088 -0.000395047665769486 -0.0036757500546049995
 0.9969573894537714 -0.029264219542180635 0.002628853529018978 0.012024704338821614 -0.00039511303713235193 -0.0036757500522612337 0.00045252404554287274 0.005778414072347001
 0.00044306796063478814 0.00577946205535088 -0.00039511303713235193 -0.0036757500522612337 0.0026304118558219645 0.01202381738380566 0.9969573741203659 -0.029264959892136466
 -0.000395047665769486 -0.0036757500546049995 0.00045252404554287274 0.005778414072347001 0.9969573741203659 -0.029264959892136466 0.0026288345386767035 0.012023968815189913
0.056273447269699996 0.002656841216445403 0.01221140667610598 0.9969226670950343 -0.029703088771724114 0.0004521492323914606 0.005865315075949467 -0.0004029547890118788 -0.0037307111514662296
 0.9969226670950343 -0.029703088771724114 0.0026552253669875803 0.01221155552684839 -0.0004030220783268083 -0.0037307110556567273 0.0004618872064236547 0.005864235833764341
 0.0004521492323914606 0.005865315075949467 -0.0004030220783268083 -0.0037307110556567273 0.002656829986446125 0.012210654316703559 0.9969226513420296 -0.029703840046446505
 -0.0004029547890118788 -0.0037307111514662296 0.0004618872064236547 0.005864235833764341 0.9969226513420296 -0.029703840046446505 0.0026552058406167046 0.012210809252053501
0.06252605252188 0.0028646961926932775 0.013646151977217573 0.9966493099798304 -0.033060881499555744 0.0005247119326690419 0.006521244503862217 -0.00046611157934433223 -0.0041508636885241
 0.9966493099798304 -0.033060881499555744 0.002862702434543192 0.013646327518057166 -0.0004661944059513508 -0.004150862758408857 0.0005367398026556085 0.006519906789497903
 0.0005247119326690419 0.006521244503862217 -0.0004661944059513508 -0.004150862758408857 0.0028646827946726774 0.01364531620804593 0.9966492908370985 -0.03306171619009599
 -0.00046611157934433223 -0.0041508636885241 0.0005367398026556085 0.006519906789497903 0.9966492908370985 -0.03306171619009599 0.002862678563769865 0.013645499291413178
0.06877865777407 0.003083559369746192 0.015095064453368104 0.9963612396483392 -0.03643081610473888 0.0006030182655025392 0.007177859564797898 -0.0005342337720555488 -0.0045718606284499775
 0.9963612396483392 -0.03643081610473888 0.0030811481605488252 0.015095269025387164 -0.0005343337081182364 -0.004571858638798337 0.0006175797545537364 0.007176226557611997
 0.0006030182655025392 0.007177859564797898 -0.0005343337081182364 -0.004571858638798337 0.0030835436520784544 0.015094145318808271 0.9963612167842106 -0.03643173423680295
 -0.0005342337720555488 -0.0045718606284499775 0.0006175797545537364 0.007176226557611997 0.9963612167842106 -0.03643173423680295 0.003081119497428409 0.015094359081914126
0.07503126302626001 0.003313639074219508 0.016557945692320494 0.9960582553577382 -0.0398128642419008 0.0006871273972724382 0.007835099637202901 -0.0006073823992894551 -0.0049936328831474315
 0.9960582553577382 -0.0398128642419008 0.003310770886896805 0.016558181720272756 -0.0006075010068904842 -0.004993629592076768 0.0007044668402350632 0.007833131942485319
 0.0006871273972724382 0.007835099637202901 -0.0006075010068904842 -0.004993629592076768 0.003313620892980667 0.016556943242675003 0.9960582284380964 -0.0398138658477062
 -0.0006073823992894551 -0.0049936328831474315 0.0007044668402350632 0.007833131942485319 0.9960582284380964 -0.0398138658477062 0.0033107369802910748 0.01655719031065089
0.08128386827845 0.0035551431142541424 0.01803460852289284 0.9957401560226496 -0.043206980175314075 0.0007770978324352311 0.008492901650468957 -0.0006856177103962932 -0.00541611068007084
 0.9957401560226496 -0.043206980175314075 0.0035517784312515737 0.01803487851519621 -0.0006857565415811774 -0.005416105828994521 0.0007974601627799242 0.008490557268604756
 0.0007770978324352311 0.008492901650468957 -0.0006857565415811774 -0.005416105828994521 0.003555122334760783 0.018033522810157167 0.9957401247119471 -0.043208065297776585
 -0.0006856177103962932 -0.00541611068007084 0.0007974601627799242 0.008490557268604756 0.9957401247119471 -0.043208065297776585 0.003551738828565048 0.0180338059018154
0.08753647353064001 0.003808278799189746 0.019524873650670443 0.9954067403476087 -0.04661310409305977 0.000872987367174265 0.009151200290983779 -0.0007689991442331751 -0.0058392233525357854
 0.9954067403476087 -0.04661310409305977 0.003804378106660476 0.019525180199615074 -0.0007691597409867584 -0.005839216666136897 0.0008966181004887905 0.009148434586699491
 0.000872987367174265 0.009151200290983779 -0.0007691597409867584 -0.005839216666136897 0.003808255294794009 0.019523704736787245 0.9954067043078897 -0.046614272777559675
 -0.0007689991442331751 -0.0058392233525357854 0.0008966181004887905 0.009148434586699491 0.9954067043078897 -0.046614272777559675 0.0038043323532343646 0.019524026664887537
0.09378907878283 0.0040732529380868455 0.021028567271337353 0.9950578069408581 -0.05003116444517773 0.0009748530444208495 0.009809928151472923 -0.0008575852987653509 -0.006262899188416765
 0.9950578069408581 -0.05003116444517773 0.004068776720215521 0.021028913053420355 -0.0008577691929684516 -0.006262890374615249 0.0010019982591446212 0.0098066938232159
 0.0009748530444208495 0.009809928151472923 -0.0008577691929684516 -0.006262890374615249 0.0040732265908273255 0.021027315220926594 0.9950577658318444 -0.050032416746912174
 -0.0008575852987653509 -0.006262899188416765 0.0010019982591446212 0.0098066938232159 0.9950577658318444 -0.050032416746912174 0.004068724360323163 0.02102767889269889
0.100041684035 0.00435027182502032 0.022545519301919097 0.9946931544168092 -0.053461079665987045 0.0010827511104365656 0.010469015837567958 -0.00095143389800472 -0.006687065323370289
 0.9946931544168092 -0.053461079665987045 0.004345180558488959 0.022545907078290846 -0.0009516426113837466 -0.006687054073291596 0.001113657426156749 0.010465262887035524
 0.0010827511104365656 0.010469015837567958 -0.0009516426113837466 -0.006687054073291596 0.004350242525198249 0.022544184188294774 0.9946931078956729 -0.053462415643970286
 -0.00095143389800472 -0.006687065323370289 0.001113657426156749 0.010465262887035524 0.9946931078956729 -0.053462415643970286 0.004345121135395334 0.022544592606000648
0.1059090909091 0.004621362525896608 0.023980926869887082 0.9943364910309748 -0.05669039285421839 0.001189537758945521 0.011087763498002319 -0.0010443376129632865 -0.007085480184235189
 0.9943364910309748 -0.05669039285421839 0.004615658143381758 0.02398135664074643 -0.0010445709913553354 -0.007085466352071071 0.0012241982279161843 0.011083475973779879
 0.001189537758945521 0.011087763498002319 -0.0010445709913553354 -0.007085466352071071 0.004621330363223169 0.02397951388285912 0.9943364391167452 -0.0566918074123658
 -0.0010443376129632865 -0.007085480184235189 0.0012241982279161843 0.011083475973779879 0.9943364391167452 -0.0566918074123658 0.004615591676623319 0.023979967105776264
0.1062942892872 0.0046395412138614004 0.02407556205931941 0.9943125814900262 -0.05690275945080797 0.001196736971650635 0.011128392051884107 -0.0010506017576465956 -0.007111647658334112
 0.9943125814900262 -0.05690275945080797 0.004633795361756239 0.02407599467653305 -0.001050836801662912 -0.007111633646286531 0.001231651525273437 0.011124067753810505
 0.001196736971650635 0.011128392051884107 -0.001050836801662912 -0.007111633646286531 0.004639508860262397 0.02407414396184089 0.9943125292108747 -0.056904179170505026
 -0.0010506017576465956 -0.007111647658334112 0.001231651525273437 0.011124067753810505 0.9943125292108747 -0.056904179170505026 0.004633728418441097 0.02407460022359053
0.11254689453939999 0.0049412662847624425 0.025618529246625974 0.9939158870623277 -0.060356105727055416 0.0013168651517759767 0.011787983656445627 -0.0011551447492822479 -0.007536570800595464
 0.9939158870623277 -0.060356105727055416 0.004934826291239526 0.02561900963732284 -0.0011554076250721154 -0.0075365536840472916 0.0013560355720269378 0.011783032528516837
 0.0013168651517759767 0.011787983656445627 -0.0011554076250721154 -0.0075365536840472916 0.004941230784573258 0.025617028248729745 0.9939158286765807 -0.06035760926239966
 -0.0011551447492822479 -0.007536570800595464 0.0013560355720269378 0.011783032528516837 0.9939158286765807 -0.06035760926239966 0.004934751370573617 0.02561753554937879
0.11879949979160001 0.005255651604845705 0.02717425515675415 0.9935028703066312 -0.06382101341008398 0.001443189249479787 0.012447715724537907 -0.0012651177633295776 -0.007961758017300194
 0.9935028703066312 -0.06382101341008398 0.005248477889160892 0.027174786340714633 -0.0012654099615555577 -0.00796173743686508 0.001486863629669629 0.012442079497708397
 0.001443189249479787 0.012447715724537907 -0.0012654099615555577 -0.00796173743686508 0.005255612873729315 0.027172671349664057 0.9935028054624251 -0.06382260083981547
 -0.0012651177633295776 -0.007961758017300194 0.001486863629669629 0.012442079497708397 0.9935028054624251 -0.06382260083981547 0.005248394534600454 0.02717323298186965
0.1250521050438 0.005582901083747748 0.02874257404636804 0.9930733307475595 -0.06729737099106096 0.0015757618959071765 0.013107511581641142 -0.001380574671097663 -0.00838713120188609
 0.9930733307475595 -0.06729737099106096 0.005574954034645547 0.028743159131564777 -0.0013808976718595756 -0.008387106781301302 0.0016241887652601338 0.013101129170634452
 0.0015757618959071765 0.013107511581641142 -0.0013808976718595756 -0.008387106781301302 0.005582859045810333 0.028740907526395985 0.9930732590893937 -0.06729904240130435
 -0.001380574671097663 -0.00838713120188609 0.0016241887652601338 0.013101129170634452 0.9930732590893937 -0.06729904240130435 0.00557486179038235 0.028741526881867145
0.131304710296 0.00592321792534253 0.03032331962649391 0.9926270683388543 -0.07078506101011363 0.0017146347121531032 0.013767292841330271 -0.001501568286185865 -0.008812610847594278
 0.9926270683388543 -0.07078506101011363 0.005914457894986545 0.030323961810524835 -0.0015019235588350816 -0.00881258219372151 0.0017680630058148116 0.013760100315490542
 0.0017146347121531032 0.013767292841330271 -0.0015019235588350816 -0.00881258219372151 0.005923172513080383 0.030321570498155755 0.9926269895078842 -0.07078681649144193
 -0.001501568286185865 -0.008812610847594278 0.0017680630058148116 0.013760100315490542 0.9926269895078842 -0.07078681649144193 0.005914356306855149 0.030322251069046884
0.1375573155481 0.006192156670909893 0.03170987852343608 0.9922485557503019 -0.07407744481288189 0.0018401590918181224 0.014405654977858218 -0.0016083899779722355 -0.009216842208726483
 0.9922485557503019 -0.07407744481288189 0.0061825403884907485 0.03171056633505906 -0.0016087794985840062 -0.00921680934019309 0.0018987130561822815 0.014397671036290452
 0.0018401590918181224 0.014405654977858218 -0.0016087794985840062 -0.00921680934019309 0.006192106998475836 0.03170804722510925 0.9922484694228744 -0.07407928440287842
 -0.0016083899779722355 -0.009216842208726483 0.0018987130561822815 0.014397671036290452 0.9922484694228744 -0.07407928440287842 0.006182429756186487 0.03170877706919762
0.1438099208003 0.006470323081329866 0.033090226924537794 0.9918571707502513 -0.0773625900909522 0.0019707393977856694 0.01504211611132384 -0.00171949542130304 -0.009619300440197235
 0.9918571707502513 -0.0773625900909522 0.006459810268146691 0.033090962590471625 -0.0017199207352169216 -0.009619262979860255 0.0020346459538629407 0.01503328311726432
 0.0019707393977856694 0.01504211611132384 -0.0017199207352169216 -0.009619262979860255 0.006470268944200006 0.03308831360565716 0.9918570765692806 -0.07736451387535524
 -0.00171949542130304 -0.009619300440197235 0.0020346459538629407 0.01503328311726432 0.9918570765692806 -0.07736451387535524 0.006459690276000093 0.033089095168670625
0.1500625260525 0.006757633044555539 0.034464282007402876 0.9914530004253143 -0.08064044844150624 0.002106338072700061 0.015676634067423974 -0.0018348475006791534 -0.01001994365625933
 0.9914530004253143 -0.08064044844150624 0.0067461833583036925 0.03446506787879485 -0.0018353101491455125 -0.010019901212165267 0.0021758230728676797 0.015666892302561592
 0.002106338072700061 0.015676634067423974 -0.0018353101491455125 -0.010019901212165267 0.0067575742365774336 0.034462286822082785 0.9914528980310661 -0.08064245651210768
 -0.0018348475006791534 -0.01001994365625933 0.0021758230728676797 0.015666892302561592 0.9914528980310661 -0.08064245651210768 0.006746053701113777 0.03446312268011771
0.15631513130469998 0.00705400201078537 0.03583196363745808 0.9910361321292755 -0.0839109710161174 0.002246917209408845 0.016309167260517496 -0.0019544087301394293 -0.010418730765324284
