! Created with skrf 1.8.0 (http://scikit-rf.org).
# GHz S RI R 50.0 
!freq ReS11 ImS11 ReS12 ImS12 ReS13 ImS13
! ReS14 ImS14
! ReS21 ImS21 ReS22 ImS22 ReS23 ImS23
! ReS24 ImS24
! ReS31 ImS31 ReS32 ImS32 ReS33 ImS33
! ReS34 ImS34
! ReS41 ImS41 ReS42 ImS42 ReS43 ImS43
! ReS44 ImS44
!
0.0 0.001602350688202 0.0 0.9983976493118 0.0 6.205552952075e-05 0.0 -6.205552955984e-05 7.599610564485202e-21
 0.9983976493118 0.0 0.001602350688188 0.0 -6.205552955964e-05 7.599610564460708e-21 6.205552952102e-05 0.0
 6.205552952075e-05 0.0 -6.205552955964e-05 7.599610564460708e-21 0.001602350683318 0.0 0.9983976493069 0.0
 -6.205552955984e-05 7.599610564485202e-21 6.205552952102e-05 0.0 0.9983976493069 0.0 0.001602350683313 0.0
0.005 0.0017242200338705104 0.00130784323322203 0.9982434475224367 -0.0033564970959234445 8.740438851342025e-05 0.000700710024387208 -8.48375523921242e-05 -0.00043681269823236994
 0.9982434475224367 -0.0033564970959234445 0.0017242006459176561 0.001307854594630059 -8.484076350447969e-05 -0.00043681518112218475 8.750801330840169e-05 0.0007006704717661912
 8.740438851342025e-05 0.000700710024387208 -8.484076350447969e-05 -0.00043681518112218475 0.0017242186675025107 0.0013079113383429098 0.9982434478923214 -0.003356430034918845
 -8.48375523921242e-05 -0.00043681269823236994 8.750801330840169e-05 0.0007006704717661912 0.9982434478923214 -0.003356430034918845 0.0017242027442617497 0.0013079206040964122
0.006252605252188 0.001756239599584391 0.0016399543555426698 0.9982026729813784 -0.004196434909969316 9.46564835098673e-05 0.0008762169188057189 -9.129603167870373e-05 -0.0005465811889607391
 0.9982026729813784 -0.004196434909969316 0.0017562092924581793 0.001639968793776467 -9.130102828639863e-05 -0.0005465842504371049 9.481838622527511e-05 0.000876165566163964
 9.46564835098673e-05 0.0008762169188057189 -9.130102828639863e-05 -0.0005465842504371049 0.0017562373820703826 0.0016400394732071408 0.9982026734787197 -0.004196351098288093
 -9.129603167870373e-05 -0.0005465811889607391 9.481838622527511e-05 0.000876165566163964 0.9982026734787197 -0.004196351098288093 0.0017562124918696002 0.001640051283001908
0.01250521050438 0.001925128448842266 0.003314284828551094 0.9979861689712038 -0.008393627825213086 0.00013629984630392393 0.001752731420559462 -0.0001280815677268091 -0.0010957920346760478
 0.9979861689712038 -0.008393627825213086 0.0019250074278728054 0.003314316109726765 -0.00012810125735073367 -0.001095797694412018 0.00013694543914587954 0.0017526080274904933
 0.00013629984630392393 0.001752731420559462 -0.00012810125735073367 -0.001095797694412018 0.0019251190149437091 0.003314454852355383 0.9979861703865197 -0.008393460413204485
 -0.0001280815677268091 -0.0010957920346760478 0.00013694543914587954 0.0017526080274904933 0.9979861703865197 -0.008393460413204485 0.0019250196351313748 0.0033144807571251936
0.01875781575657 0.002109397604244824 0.005012425140304107 0.9977478597655454 -0.012601783415102574 0.00018708510395404825 0.0026301428480777003 -0.00017252841425636855 -0.0016468101528706429
 0.9977478597655454 -0.012601783415102574 0.0021091256554318667 0.005012475891471993 -0.00017257232046965278 -0.0016468178554786795 0.0001885352670636644 0.002629922541755489
 0.00018708510395404825 0.0026301428480777003 -0.00017257232046965278 -0.0016468178554786795 0.002109375968974547 0.005012679978116072 0.9977478625284235 -0.012601532482015539
 -0.00017252841425636855 -0.0016468101528706429 0.0001885352670636644 0.002629922541755489 0.9977478625284235 -0.012601532482015539 0.002109152670659079 0.005012722390615272
0.02501042100875 0.0023094155599093775 0.006731977559343096 0.9974874566021007 -0.016822925865917417 0.00024711248674106197 0.00350848509758562 -0.0002247487230161765 -0.002199371918506717
 0.9974874566021007 -0.016822925865917417 0.002308932584144207 0.006732050610275951 -0.00022482625458887203 -0.0021993810068476373 0.0002496881588292769 0.003508138963931177
 0.00024711248674106197 0.00350848509758562 -0.00022482625458887203 -0.0021993810068476373 0.002309376730772544 0.0067323171759630296 0.9974874611382396 -0.01682259141875102
 -0.0002247487230161765 -0.002199371918506717 0.0002496881588292769 0.003508138963931177 0.9974874611382396 -0.01682259141875102 0.002308980192264881 0.0067323786216795115
0.03126302626094 0.002525535570592874 0.008471700072504054 0.9972046564231811 -0.021057911673967995 0.00031648239052470967 0.004387709038965761 -0.00028485126626499614 -0.00275329015181225
 0.9972046564231811 -0.021057911673967995 0.0025247815516699764 0.008471798452647282 -0.0002849717365744543 -0.0027532998658410693 0.0003205048633245909 0.00438720410057029
 0.00031648239052470967 0.004387709038965761 -0.0002849717365744543 -0.0027532998658410693 0.002525474552588329 0.008472124449820023 0.9972046631632302 -0.02105749368720448
 -0.00028485126626499614 -0.00275329015181225 0.0003205048633245909 0.00438720410057029 0.9972046631632302 -0.02105749368720448 0.0025248555319767646 0.00847220756362613
0.037515631513130004 0.002758103115876072 0.0102307767274843 0.996899149610021 -0.02530715924031362 0.00039529447123207563 0.005267732646930371 -0.00035294224413415936 -0.003308404007194255
 0.996899149610021 -0.02530715924031362 0.002757018099220495 0.010230903665176089 -0.00035311488099594684 -0.0033084134836309773 0.0004010855182319391 0.005267031823889446
 0.00039529447123207563 0.005267732646930371 -0.00035311488099594684 -0.0033084134836309773 0.002758014908084511 0.010231285854889386 0.9968991589889244 -0.025306657665767684
 -0.00035294224413415936 -0.003308404007194255 0.0004010855182319391 0.005267031823889446 0.9968991589889244 -0.025306657665767684 0.002757124224345917 0.010231393379289147
0.043768236765320004 0.00300745877767416 0.012008595572363289 0.9965706231288641 -0.029570870859779184 0.00048364721150108013 0.0061484562452707465 -0.0004291255682506862 -0.0038645637419321235
 0.9965706231288641 -0.029570870859779184 0.003005982853866423 0.012008754494792037 -0.0004293595197305813 -0.0038645720141725812 0.0004915291454651804 0.006147518310708934
 0.00048364721150108013 0.0061484562452707465 -0.0004293595197305813 -0.0038645720141725812 0.003007338370547866 0.012009189452990787 0.9965706355850158 -0.029570285620666895
 -0.0004291255682506862 -0.0038645637419321235 0.0004915291454651804 0.006147518310708934 0.9965706355850158 -0.029570285620666895 0.003006126888285848 0.012009324236893477
0.050020842017509996 0.0032739395667131677 0.01380465690088516 0.9962187621276924 -0.0338491244027046 0.0005816376527672623 0.007029768812331094 -0.0005135029601526681 -0.004421624424266656
 0.9962187621276924 -0.0338491244027046 0.0032720128572043057 0.013804851434730236 -0.0005138072982481598 -0.004421630422381374 0.0005919333456099766 0.00702854834585884
 0.0005816376527672623 0.007029768812331094 -0.0005138072982481598 -0.004421630422381374 0.0032737819419359658 0.013805335546503731 0.9962187781051075 -0.03384845539919926
 -0.0005135029601526681 -0.004421624424266656 0.0005919333456099766 0.00702854834585884 0.9962187781051075 -0.03384845539919926 0.0032722005576643807 0.013805500544455052
0.055454545454549996 0.0035196867038286873 0.015379966657042063 0.9958937885794027 -0.037578866450385745 0.0006746954481822225 0.007796041988273124 -0.0005935614231126168 -0.004906347495420578
 0.9958937885794027 -0.037578866450385745 0.0035173196336912337 0.015380195239294263 -0.0005939342396648705 -0.0049063505681074164 0.0006873514144294172 0.0077945358135324385
 0.0006746954481822225 0.007796041988273124 -0.0005939342396648705 -0.0049063505681074164 0.0035194926530221376 0.015380718983023088 0.9958938079822021 -0.0375781245537616
 -0.0005935614231126168 -0.004906347495420578 0.0006873514144294172 0.0077945358135324385 0.9958938079822021 -0.0375781245537616 0.0035175499500509177 0.015380912719179456
0.056273447269699996 0.003557879600412819 0.015618528212979255 0.9958432508886004 -0.03814191828351966 0.0006893612011684949 0.007911551070843563 -0.0006061739659111049 -0.004979442860281776
 0.9958432508886004 -0.03814191828351966 0.003555442244868487 0.015618762185439368 -0.0006065576890052801 -0.004979445411041632 0.0007023940810580166 0.0079099984111423
 0.0006893612011684949 0.007911551070843563 -0.0006065576890052801 -0.004979445411041632 0.0035576797304732333 0.015619291645122928 0.9958432708375916 -0.03814116539215056
 -0.0006061739659111049 -0.004979442860281776 0.0007023940810580166 0.0079099984111423 0.9958432708375916 -0.03814116539215056 0.003555679360103636 0.0156194899170218
0.06252605252188 0.0038596104602534828 0.017449819451667962 0.9954437734626675 -0.042449196156777294 0.0008069114680860909 0.008793677196902468 -0.0007072359301360394 -0.005537875905848368
 0.9954437734626675 -0.042449196156777294 0.0038566026042301037 0.01745009689187685 -0.0007077079645630165 -0.005537873732787026 0.0008230055013338 0.008791738394106543
 0.0008069114680860909 0.008793677196902468 -0.0007077079645630165 -0.005537873732787026 0.0038593633059236425 0.017450667700740982 0.9954437978398462 -0.042448359231795664
 -0.0007072359301360394 -0.005537875905848368 0.0008230055013338 0.008791738394106543 0.9954437978398462 -0.042448359231795664 0.003856894872925623 0.017450902411823246
0.06877865777407 0.0041794613698039485 0.019298168245065684 0.9950200141309251 -0.04677086161268 0.000934380132189995 0.00967601584117518 -0.0008167839441655604 -0.006096779471253026
 0.9950200141309251 -0.04677086161268 0.004175823153268227 0.019298493385982482 -0.0008173531453396056 -0.006096771194730589 0.0009538597942760279 0.009673632609324795
 0.000934380132189995 0.00967601584117518 -0.0008173531453396056 -0.006096771194730589 0.004179161881222616 0.019299101348729968 0.9950200434011288 -0.0467699404883132
 -0.0008167839441655604 -0.006096779471253026 0.0009538597942760279 0.009673632609324795 0.9950200434011288 -0.0467699404883132 0.004176176304464304 0.019299375770039845
0.07503126302626001 0.004517759272784796 0.021163230549248475 0.9945716577678602 -0.05110678747722734 0.0010718568121985544 0.010558430782719142 -0.0009349107802439484 -0.006656007898462777
 0.9945716577678602 -0.05110678747722734 0.004513430818665481 0.021163607829908167 -0.0009355859332481638 -0.006655992035761071 0.001095047051080147 0.010555540452564606
 0.0010718568121985544 0.010558430782719142 -0.0009355859332481638 -0.006655992035761071 0.0045174023873968145 0.021164248554709577 0.9945716924043321 -0.051105781966053296
 -0.0009349107802439484 -0.006656007898462777 0.001095047051080147 0.010555540452564606 0.9945716924043321 -0.051105781966053296 0.004513850570127182 0.021164566063823723
0.08128386827845 0.004874828843708319 0.023044674421260434 0.9940983901432607 -0.055456821988244226 0.0012194289472695773 0.011440781371622636 -0.0010617068157460904 -0.0072154135551954135
 0.9940983901432607 -0.055456821988244226 0.004869750247031672 0.023045108489428562 -0.0010624966358195864 -0.007215388520610288 0.00124665513989766 0.011437316843920053
 0.0012194289472695773 0.011440781371622636 -0.0010624966358195864 -0.007215388520610288 0.0048744094861551315 0.023045777387395616 0.994098430628556 -0.055455731879695526
 -0.0010617068157460904 -0.0072154135551954135 0.00124665513989766 0.011437316843920053 0.994098430628556 -0.055455731879695526 0.0048702423039436804 0.023046141469708122
0.08753647353064001 0.005250992455175001 0.024942175726674537 0.9935998981830978 -0.05982079304321608 0.0013771816820611646 0.01232292284204011 -0.0011972599504394845 -0.007774846564398599
 0.9935998981830978 -0.05982079304321608 0.005245103771819603 0.024942671441904804 -0.0011981730830496003 -0.007774810669347571 0.001408769586096971 0.01231881254143455
 0.0013771816820611646 0.01232292284204011 -0.0011981730830496003 -0.007774810669347571 0.005250505536302637 0.024943363722502627 0.9935999450096031 -0.05981961810582032
 -0.0011972599504394845 -0.007774846564398599 0.001408769586096971 0.01231881254143455 0.9935999450096031 -0.05981961810582032 0.005245673825847285 0.02494377797279552
0.09378907878283 0.005646570115601185 0.0268554150655372 0.993075870205502 -0.06419851123524392 0.001545197754436431 0.013204706546333137 -0.0013416555194585187 -0.008334154618653812
 0.993075870205502 -0.06419851123524392 0.005639811351475694 0.026855977502691322 -0.001342700540314179 -0.00833410607181401 0.0015814734554994863 0.013199874376007097
 0.001545197754436431 0.013204706546333137 -0.001342700540314179 -0.00833410607181401 0.005646010531968209 0.026856688170765405 0.9930759238770327 -0.06419725121697624
 -0.0013416555194585187 -0.008334154618653812 0.0015814734554994863 0.013199874376007097 0.9930759238770327 -0.06419725121697624 0.0056404650795359905 0.026857156295213087
0.100041684035 0.006061879384648451 0.028784075524405008 0.9925259961379713 -0.06858977207019705 0.0017235573859096442 0.014085980132172141 -0.0014949762020577395 -0.008893182857850221
 0.9925259961379713 -0.06858977207019705 0.006054190484646676 0.028784709977563612 -0.0014961616169141708 -0.008893119765288995 0.0017648472412329088 0.014080345429248057
 0.0017235573859096442 0.014085980132172141 -0.0014961616169141708 -0.008893119765288995 0.006061242017897205 0.028785433828861857 0.992526057170002 -0.06858842669969441
 -0.0014949762020577395 -0.008893182857850221 0.0017648472412329088 0.014080345429248057 0.992526057170002 -0.06858842669969441 0.006054933547834857 0.028785959647499117
0.1059090909091 0.006469829409607996 0.03060766254613964 0.9919862162953363 -0.07272262755031007 0.0019004054928946443 0.014912359138883625 -0.0016470399316326 -0.009417376815268153
 0.9919862162953363 -0.07272262755031007 0.006461212992407297 0.03060836959272307 -0.0016483647647106917 -0.009417298259314285 0.001946697607852983 0.014905893876423151
 0.0019004054928946443 0.014912359138883625 -0.0016483647647106917 -0.009417298259314285 0.006469114382354131 0.030609100896206828 0.9919862847143796 -0.07272120181821962
 -0.0016470399316326 -0.009417376815268153 0.001946697607852983 0.014905893876423151 0.9919862847143796 -0.07272120181821962 0.006462045020082249 0.03060968443296616
0.1062942892872 0.0064972352731292385 0.030727840987488514 0.9919499677224114 -0.0729943576316884 0.0019123381729958878 0.014966587690217695 -0.0016573019284375904 -0.009451773782653612
 0.9919499677224114 -0.0729943576316884 0.0064885561102908645 0.030728552974346974 -0.0016586361728471747 -0.009451694147986672 0.001958968751585746 0.014960065182041425
 0.0019123381729958878 0.014966587690217695 -0.0016586361728471747 -0.009451694147986672 0.0064965149890035545 0.030729284597298734 0.9919500366429527 -0.07299292661310947
 -0.0016573019284375904 -0.009451773782653612 0.001958968751585746 0.014960065182041425 0.9919500366429527 -0.07299292661310947 0.00648939415195347 0.030729872046917097
0.11254689453939999 0.006952950130171705 0.032686394859149925 0.9913474787103617 -0.07741203784240923 0.0021116149799883482 0.01584636987211261 -0.0018287097840636803 -0.010009767204096827
 0.9913474787103617 -0.07741203784240923 0.006943220494819377 0.032687190125813115 -0.0018302012229629465 -0.010009668928658646 0.002163913000063276 0.015838869633541544
 0.0021116149799883482 0.01584636987211261 -0.0018302012229629465 -0.010009668928658646 0.006952141778181624 0.03268792388985038 0.9913475560610537 -0.07741052086317443
 -0.0018287097840636803 -0.010009767204096827 0.002163913000063276 0.015838869633541544 0.9913475560610537 -0.07741052086317443 0.006944159139721164 0.032688577027352755
0.11879949979160001 0.007429333521127478 0.03465941905767409 0.9907182250531033 -0.08184257146183624 0.00232145983237987 0.01672516399659736 -0.0020092739127468865 -0.010567000211797593
 0.9907182250531033 -0.08184257146183624 0.0074184931099271455 0.034660303583996965 -0.0020109308400617287 -0.010566881094837508 0.002379752096090589 0.016716591408229065
 0.00232145983237987 0.01672516399659736 -0.0020109308400617287 -0.010566881094837508 0.007428431934206974 0.034661033641089904 0.9907183113902654 -0.08184096818674097
 -0.0020092739127468865 -0.010567000211797593 0.002379752096090589 0.016716591408229065 0.9907183113902654 -0.08184096818674097 0.0074195379627527425 0.03466175664733986
0.1250521050438 0.007926692098203004 0.03664659323847183 0.9900619050861967 -0.08628570686236424 0.0025419418112200484 0.017602804141430468 -0.0021990654185394206 -0.011123307163035388
 0.9900619050861967 -0.08628570686236424 0.007914680503201817 0.0366475732438206 -0.002200896056579921 -0.011123164901897808 0.0026065551368625373 0.01759305984892529
 0.0025419418112200484 0.017602804141430468 -0.002200896056579921 -0.011123164901897808 0.007925692091477535 0.036648293520750344 0.9900620009811365 -0.08628401693661399
 -0.0021990654185394206 -0.011123307163035388 0.0026065551368625373 0.01759305984892529 0.9900620009811365 -0.08628401693661399 0.007915837146815461 0.036649090704825665
0.131304710296 0.008445329464129908 0.038647594167626115 0.9893782197102877 -0.09074118266335371 0.002773126947889301 0.018479121231956764 -0.0023981522667723717 -0.011678519682121935
 0.9893782197102877 -0.09074118266335371 0.008432086161866937 0.0386486761171057 -0.002400164765691485 -0.011678351872502362 0.0028443880998625984 0.018468101106508154
 0.002773126947889301 0.018479121231956764 -0.002400164765691485 -0.011678351872502362 0.008444225834813837 0.038649380310989294 0.9893783257506977 -0.09073940571180548
 -0.0023981522667723717 -0.011678519682121935 0.0028443880998625984 0.018468101106508154 0.9893783257506977 -0.09073940571180548 0.008433360156159806 0.03865025611502808
0.1375573155481 0.008868928710376122 0.04040077057423848 0.9887835414366386 -0.09494726012880558 0.0029861921991607087 0.019327823539580846 -0.0025776361522692748 -0.012206426973229505
 0.9887835414366386 -0.09494726012880558 0.008854389644873633 0.04040193901787664 -0.0025798426599954725 -0.012206233347149195 0.003064267772214483 0.019315540674464674
 0.0029861921991607087 0.019327823539580846 -0.0025798426599954725 -0.012206233347149195 0.008867717020791411 0.04040264279309248 0.988783658095849 -0.09494539592965197
 -0.0025776361522692748 -0.012206426973229505 0.003064267772214483 0.019315540674464674 0.988783658095849 -0.09494539592965197 0.00885578598452921 0.040403579871349536
0.1438099208003 0.009307503525947 0.04214429425948912 0.9881678199865302 -0.09914226701958255 0.0032078463248533967 0.020172931538026212 -0.002764291366511137 -0.012730985637539466
 0.9881678199865302 -0.09914226701958255 0.009291607503633063 0.04214555433617675 -0.0027667006490643144 -0.012730763821682804 0.0032930340849896063 0.02015929038663801
 0.0032078463248533967 0.020172931538026212 -0.0027667006490643144 -0.012730763821682804 0.009306178684201838 0.04214625270151461 0.9881679478520967 -0.099140315205859
 -0.002764291366511137 -0.012730985637539466 0.0032930340849896063 0.02015929038663801 0.9881679478520967 -0.099140315205859 0.009293131615177306 0.04214725412340935
0.1500625260525 0.009760893979980551 0.043878007188102905 0.9875312197551311 -0.10332608688392646 0.003438009261231244 0.021014353846474314 -0.002958038910294906 -0.013252107353008904
 0.9875312197551311 -0.10332608688392646 0.009743579682087354 0.043879364323576885 -0.0029606597125310216 -0.013251854878722227 0.003530605073797608 0.02099925537832325
 0.003438009261231244 0.021014353846474314 -0.0029606597125310216 -0.013251854878722227 0.009759450884898564 0.043880052009332246 0.9875313594281041 -0.10332404707443836
 -0.002958038910294906 -0.013252107353008904 0.003530605073797608 0.02099925537832325 0.9875313594281041 -0.10332404707443836 0.009745236963596837 0.0438811210464152
0.15631513130469998 0.01022893893499318 0.04560175605303585 0.9868739060545519 -0.10749860394141161 0.003676599963104285 0.021852000722400792 -0.003158798772347073 -0.013769705729929279
 0.9868739060545519 -0.10749860394141161 0.010210144913976293 0.04560321596592218 -0.003161639817512047 -0.013769420033678814 0.0037768977616564475 0.021835342461826057
