! Created with skrf 1.8.0 (http://scikit-rf.org).
# GHz S RI R 50.0 
!freq ReS11 ImS11 ReS12 ImS12 ReS13 ImS13
! ReS14 ImS14
! ReS21 ImS21 ReS22 ImS22 ReS23 ImS23
! ReS24 ImS24
! ReS31 ImS31 ReS32 ImS32 ReS33 ImS33
! ReS34 ImS34
! ReS41 ImS41 ReS42 ImS42 ReS43 ImS43
! ReS44 ImS44
!
0.0 0.001560405966915 0.0 0.9984395940131 0.0 6.031339241235e-05 0.0 -6.031339241207e-05 7.386260296315978e-21
 0.9984395940131 0.0 0.001560405966959 0.0 -6.03133924131e-05 7.386260296442117e-21 6.031339241284e-05 0.0
 6.031339241235e-05 0.0 -6.03133924131e-05 7.386260296442117e-21 0.0015604059769 0.0 0.9984395940231 0.0
 -6.031339241207e-05 7.386260296315978e-21 6.031339241284e-05 0.0 0.9984395940231 0.0 0.001560405976891 0.0
0.005 0.0016789345962084294 0.001274726630160924 0.9982896234992453 -0.003268651966187978 8.482777276387067e-05 0.0006753987079816931 -8.229217064169372e-05 -0.00042203546729863454
 0.9982896234992453 -0.003268651966187978 0.0016789494447937707 0.001274717999408825 -8.229253817969672e-05 -0.000422035810441936 8.473525657341183e-05 0.0006754339672848613
 8.482777276387067e-05 0.0006753987079816931 -8.229253817969672e-05 -0.000422035810441936 0.0016789337493378204 0.0012746599158708998 0.9982896231420824 -0.0032687190226720142
 -8.229217064169372e-05 -0.00042203546729863454 8.473525657341183e-05 0.0006754339672848613 0.9982896231420824 -0.0032687190226720142 0.0016789495865441031 0.0012746506097181163
0.006252605252188 0.0017100345086549147 0.0015984288851616213 0.9982500212397553 -0.0040866127045928805 9.184563596447584e-05 0.0008445690951562027 -8.850498006060428e-05 -0.0005280914650003891
 0.9982500212397553 -0.0040866127045928805 0.001710057719232643 0.0015984179129272047 -8.850555149178246e-05 -0.0005280918893813519 9.170108841305289e-05 0.00084461487599282
 9.184563596447584e-05 0.0008445690951562027 -8.850555149178246e-05 -0.0005280918893813519 0.0017100332505367592 0.0015983455025909373 0.998250020747507 -0.004086696525360592
 -8.850498006060428e-05 -0.0005280914650003891 9.170108841305289e-05 0.00084461487599282 0.998250020747507 -0.004086696525360592 0.001710058007449868 0.0015983336738116182
0.01250521050438 0.0018738296065819503 0.003230383960354529 0.9980400471148112 -0.008174020682240945 0.0001321660146244254 0.0016894515854313297 -0.00012379521444230826 -0.001058742501323356
 0.9980400471148112 -0.008174020682240945 0.0018739222793439873 0.0032303601660598636 -0.0001237974605287002 -0.001058743300871184 0.0001315896024609169 0.0016895615767679778
 0.0001321660146244254 0.0016894515854313297 -0.0001237974605287002 -0.001058743300871184 0.0018738251507221513 0.0032302175569412666 0.9980400457206273 -0.008174188100660756
 -0.00012379521444230826 -0.001058742501323356 0.0001315896024609169 0.0016895615767679778 0.9980400457206273 -0.008174188100660756 0.0018739240130697238 0.0032301919156410754
0.01875781575657 0.0020521528885035275 0.004885585619972057 0.9978094079094165 -0.012272169376118665 0.00018136786616241267 0.002535220272348865 -0.00016629377553118753 -0.0015911713096238478
 0.9978094079094165 -0.012272169376118665 0.0020523611141461877 0.004885547030079088 -0.00016629877622949152 -0.001591172427628109 0.00018007304432104412 0.0025354165480014276
 0.00018136786616241267 0.002535220272348865 -0.00016629877622949152 -0.001591172427628109 0.0020521432875510587 0.0048853364836739235 0.9978094051930798 -0.012272420331894143
 -0.00016629377553118753 -0.0015911713096238478 0.00018007304432104412 0.0025354165480014276 0.9978094051930798 -0.012272420331894143 0.002052365451023881 0.004885294887869207
0.02501042100875 0.0022453550324452944 0.006561708378143066 0.9975578293663082 -0.016383039061312162 0.00023954611809837333 0.0033819079441342065 -0.00021610664402349025 -0.0021251300753898287
 0.9975578293663082 -0.016383039061312162 0.002245724800942265 0.006561652910941126 -0.0002161154637759902 -0.002125131446406862 0.0002372462531400968 0.003382216095627686
 0.00023954611809837333 0.0033819079441342065 -0.0002161154637759902 -0.002125131446406862 0.002245338346120091 0.00656137682681462 0.9975578249111845 -0.01638337355309337
 -0.00021610664402349025 -0.0021251300753898287 0.0002372462531400968 0.003382216095627686 0.9975578249111845 -0.01638337355309337 0.002245732916429589 0.006561316992618031
0.03126302626094 0.0024537722094378238 0.00825755235777494 0.9972850233920018 -0.020507473331850535 0.0003067961964590895 0.004229468157291028 -0.00027333672765858546 -0.0026604441342989744
 0.9972850233920018 -0.020507473331850535 0.002454349435429519 0.008257477826606522 -0.00027335041801486144 -0.0026604456840425257 0.00030320430331067405 0.004229917313412795
 0.0003067961964590895 0.004229468157291028 -0.00027335041801486144 -0.0026604456840425257 0.0024537464956022295 0.008257138756783796 0.9972850167749697 -0.020507891400055125
 -0.00027333672765858546 -0.0026604441342989744 0.00030320430331067405 0.004229917313412795 0.9972850167749697 -0.020507891400055125 0.002454362514740912 0.008257058261322333
0.037515631513130004 0.0026777332535180285 0.009972332834076225 0.9969906954619403 -0.024645889496440584 0.00038321303429670955 0.005077823110629205 -0.00033808461276818114 -0.0031969640973744007
 0.9969906954619403 -0.024645889496440584 0.0026785637940561035 0.009972236948952622 -0.0003381042138481189 -0.0031969657427237887 0.0003780416601851205 0.005078445972049214
 0.00038321303429670955 0.005077823110629205 -0.0003381042138481189 -0.0031969657427237887 0.002677696573293498 0.0099718376088499 0.9969906862564609 -0.024646391211199277
 -0.00033808461276818114 -0.0031969640973744007 0.0003780416601851205 0.005078445972049214 0.9969906862564609 -0.024646391211199277 0.00267858303687308 0.009971733891427505
0.043768236765320004 0.0029175624414315786 0.011705464025737447 0.9966745476377388 -0.028798494716834225 0.00046889060256220984 0.005926878205947716 -0.000410448833630017 -0.003734551293394474
 0.9966745476377388 -0.028798494716834225 0.002918692109433119 0.011705344394417078 -0.00041047537493521963 -0.003734552942438003 0.0004618517742814002 0.005927711084425518
 0.00046889060256220984 0.005926878205947716 -0.00041047537493521963 -0.003734552942438003 0.002917512858639188 0.011704887660375673 0.9966745354118096 -0.02879908018001429
 -0.000410448833630017 -0.003734551293394474 0.0004618517742814002 0.005927711084425518 0.9966745354118096 -0.02879908018001429 0.002918718729636485 0.011704758022959328
0.050020842017509996 0.0031735807755195423 0.013456469740816483 0.9963362800922796 -0.03296537528996035 0.0005639216303384491 0.006776528062785824 -0.0004905259653284915 -0.004273071760480759
 0.9963362800922796 -0.03296537528996035 0.003175055352188255 0.013456323869349546 -0.0004905604663893829 -0.004273073312555897 0.000554726834774846 0.006777610922259904
 0.0005639216303384491 0.006776528062785824 -0.0004905604663893829 -0.004273073312555897 0.003173516358393968 0.013455812789165992 0.9963362644075885 -0.0329660446244654
 -0.0004905259653284915 -0.004273071760480759 0.000554726834774846 0.006777610922259904 0.9963362644075885 -0.0329660446244654 0.003175090578914518 0.013455654396475211
0.055454545454549996 0.0034094633674083058 0.014992343121968317 0.996024117815279 -0.036598122703315965 0.0006541735620841056 0.007515294796252989 -0.0005664527931292135 -0.004741717608881712
 0.996024117815279 -0.036598122703315965 0.003411274843970059 0.014992172342746858 -0.0005664950320184475 -0.004741718988182458 0.0006428704389864943 0.007516630220306663
 0.0006541735620841056 0.007515294796252989 -0.0005664950320184475 -0.004741718988182458 0.003409384494046447 0.014991616633942613 0.9960240987636203 -0.03659886504956744
 -0.0005664527931292135 -0.004741717608881712 0.0006428704389864943 0.007516630220306663 0.9960240987636203 -0.03659886504956744 0.0034113185604610846 0.01499143084252183
0.056273447269699996 0.0034461066425663517 0.015224939527895703 0.9959755920142191 -0.03714654042610767 0.000668397403650353 0.007626659476596011 -0.0005784106424358313 -0.004812393298100851
 0.9959755920142191 -0.03714654042610767 0.003447971888620039 0.015224764820764191 -0.0005784541132276718 -0.004812394643849059 0.0006567575888536265 0.007628035974987327
 0.000668397403650353 0.007626659476596011 -0.0005784541132276718 -0.004812394643849059 0.0034460254649471525 0.015224202599930146 0.9959755724261028 -0.03714729379010865
 -0.0005784106424358313 -0.004812393298100851 0.0006567575888536265 0.007628035974987327 0.9959755724261028 -0.03714729379010865 0.0034480169671598235 0.01522401247898638
0.06252605252188 0.0037354561642671835 0.01701050455456047 0.9955921822094671 -0.04134194630289703 0.0007824076075013786 0.008477153040369346 -0.0006741955361520138 -0.005352383859816741
 0.9955921822094671 -0.04134194630289703 0.003737757830514917 0.017010298314618033 -0.0006742489774514913 -0.005352384881229181 0.0007680331969168506 0.00847887057165608
 0.0007824076075013786 0.008477153040369346 -0.0006742489774514913 -0.005352384881229181 0.0037353563059872624 0.01700968833419901 0.9955921582640905 -0.041342783872300955
 -0.0006741955361520138 -0.005352383859816741 0.0007680331969168506 0.00847887057165608 0.9955921582640905 -0.041342783872300955 0.003737814022042671 0.017009463373790445
0.06877865777407 0.004041943376660188 0.018812823242857248 0.9951857495338942 -0.045551510366272675 0.0009060401895866773 0.00932788412165854 -0.0007779713096889173 -0.005892910595213162
 0.9951857495338942 -0.045551510366272675 0.004044727214177659 0.018812582670824717 -0.0007780357132835676 -0.0058929111656892625 0.0008886411060131903 0.00932999385786797
 0.0009060401895866773 0.00932788412165854 -0.0007780357132835676 -0.0058929111656892625 0.004041822925205454 0.018811928473276528 0.9951857207686027 -0.04555243234998958
 -0.0007779713096889173 -0.005892910595213162 0.0008886411060131903 0.00932999385786797 0.9951857207686027 -0.04555243234998958 0.004044795797353584 0.018811665422860353
0.07503126302626001 0.004365880310621142 0.020631572154630726 0.9947559932331208 -0.04977512038647878 0.0010393812373467293 0.010178723481988965 -0.0008898265598779126 -0.006433839254275607
 0.9947559932331208 -0.04977512038647878 0.004369192081183928 0.02063129434831169 -0.0008899029088454307 -0.006433839238664285 0.0010186669338359778 0.010181280414937346
 0.0010393812373467293 0.010178723481988965 -0.0008899029088454307 -0.006433839238664285 0.004365737363417434 0.02063059964930114 0.9947559591759693 -0.049776127015651095
 -0.0008898265598779126 -0.006433839254275607 0.0010186669338359778 0.010181280414937346 0.9947559591759693 -0.049776127015651095 0.004369274353297984 0.020630295117709464
0.08128386827845 0.004707577012246298 0.02246643992683666 0.9943026132244064 -0.054012640469012 0.0011825148635698144 0.011029537699895228 -0.0010098477492831224 -0.0069750337931473744
 0.9943026132244064 -0.054012640469012 0.004711462498154888 0.022466121879984872 -0.0010099370181162162 -0.006975033047802598 0.0011581943601649128 0.011032600682517471
 0.0011825148635698144 0.011029537699895228 -0.0010099370181162162 -0.006975033047802598 0.004707409676657709 0.02246539056735393 0.9943025733920949 -0.0540137319994665
 -0.0010098477492831224 -0.0069750337931473744 0.0011581943601649128 0.011032600682517471 0.9943025733920949 -0.0540137319994665 0.004711559775006357 0.022465041021149643
0.08753647353064001 0.005067341517744109 0.024317123089924498 0.9938253103379451 -0.0582639151881147 0.001335523097411969 0.011880189463987612 -0.0011381191321328265 -0.0075163561151291676
 0.9938253103379451 -0.0582639151881147 0.005071846532029758 0.024316761690717396 -0.001138222286918451 -0.0075163544879495335 0.0013073050221533188 0.011883821251191511
 0.001335523097411969 0.011880189463987612 -0.001138222286918451 -0.0075163544879495335 0.005067147913325335 0.024315997824644612 0.9938252642355448 -0.058265091902059044
 -0.0011381191321328265 -0.0075163561151291676 0.0013073050221533188 0.011883821251191511 0.9938252642355448 -0.058265091902059044 0.005071960149285116 0.02431559958608664
0.09378907878283 0.0054454798023642476 0.02618332306764607 0.993323786534858 -0.06252877254474667 0.0014984857787269012 0.012730537795399633 -0.0012747226758263867 -0.00805766588761439
 0.993323786534858 -0.06252877254474667 0.005450650198584999 0.026182915096931242 -0.001274840674349965 -0.00805766321809439 0.0014660784126423849 0.012734805084309679
 0.0014984857787269012 0.012730537795399633 -0.001274840674349965 -0.00805766321809439 0.005445258061801392 0.02618212291268724 0.9933237336544599 -0.06253003474985336
 -0.0012747226758263867 -0.00805766588761439 0.0014660784126423849 0.012734805084309679 0.9933237336544599 -0.06253003474985336 0.005450781512303524 0.026181672157455812
0.100041684035 0.005842295706484825 0.028064743990774365 0.9927977451070295 -0.06680702611661014 0.0016714804549958393 0.013580438213716144 -0.001419737979006628 -0.008598820421145877
 0.9927977451070295 -0.06680702611661014 0.005848177389032725 0.028064286119756688 -0.0014198717708963444 -0.008598816540419012 0.0016345917803081617 0.013585411683267292
 0.0016714804549958393 0.013580438213716144 -0.0014198717708963444 -0.008598816540419012 0.005842043977543257 0.028063470032843197 0.9927976849272212 -0.06680837414340592
 -0.001419737979006628 -0.008598820421145877 0.0016345917803081617 0.013585411683267292 0.9927976849272212 -0.06680837414340592 0.0058483277766622835 0.02806296278725804
0.1059090909091 0.00623192114381447 0.029843838639401696 0.9922815495391719 -0.07083371972985575 0.001843008577304627 0.0143774405851586 -0.0015635386163083997 -0.009106366117072853
 0.9922815495391719 -0.07083371972985575 0.006238512096483127 0.02984333081490273 -0.001563688085048764 -0.009106360938764456 0.001801648861493234 0.014383144593139443
 0.001843008577304627 0.0143774405851586 -0.001563688085048764 -0.009106360938764456 0.006231639603692466 0.029842496472426427 0.9922814820222463 -0.07083514861623223
 -0.0015635386163083997 -0.009106366117072853 0.001801648861493234 0.014383144593139443 0.9922814820222463 -0.07083514861623223 0.006238681655407977 0.02984193246693259
0.1062942892872 0.006258090848222691 0.029961091051081783 0.9922468908652184 -0.07109847667430542 0.0018545822800800596 0.014429742872696136 -0.0015732421870827949 -0.00913967458428447
 0.9922468908652184 -0.07109847667430542 0.006264729781991676 0.02996057983886196 -0.0015733927138577408 -0.009139669315165877 0.001812920031228542 0.014435497222478798
 0.0018545822800800596 0.014429742872696136 -0.0015733927138577408 -0.009139669315165877 0.006257807294755842 0.02995974444402448 0.9922468228497733 -0.07109991087969135
 -0.0015732421870827949 -0.00913967458428447 0.001812920031228542 0.014435497222478798 0.9922468228497733 -0.07109991087969135 0.00626490064308856 0.029959176582031358
0.11254689453939999 0.006693164522731623 0.03187206924409228 0.99167093031909 -0.07540291341533528 0.0020478639139453136 0.015278300671406552 -0.0017353099059247393 -0.009680080748875266
 0.99167093031909 -0.07540291341533528 0.006700606743704432 0.03187150113460131 -0.0017354781011289734 -0.009680073905904713 0.0020011356313142585 0.01528491465976592
 0.0020478639139453136 0.015278300671406552 -0.0017354781011289734 -0.009680073905904713 0.006692847326719881 0.03187065120959265 0.9916708539160946 -0.07540443418188383
 -0.0017353099059247393 -0.009680080748875266 0.0020011356313142585 0.01528491465976592 0.9916708539160946 -0.07540443418188383 0.0067007995008907025 0.031870018449317424
0.11879949979160001 0.007147813593446754 0.033797382395160405 0.9910695718499607 -0.07972011492147393 0.002251395423600998 0.016125957350796444 -0.0019060131139653593 -0.010219888755801342
 0.9910695718499607 -0.07972011492147393 0.0071561052185169045 0.03379675371384396 -0.0019061999032313768 -0.01021988014528682 0.002199308509484343 0.016133513832051787
 0.002251395423600998 0.016125957350796444 -0.0019061999032313768 -0.01021988014528682 0.0071474609561435615 0.03379589422757681 0.9910694864907835 -0.07972172265255292
 -0.0019060131139653593 -0.010219888755801342 0.002199308509484343 0.016133513832051787 0.9910694864907835 -0.07972172265255292 0.00715632131812817 0.03379519212742428
0.1250521050438 0.007622332375535149 0.03573673239486637 0.9904425258802757 -0.08404984991379894 0.002465244184664793 0.016972555578386332 -0.0020854210732761756 -0.010758945898614876
 0.9904425258802757 -0.08404984991379894 0.007631519612836482 0.03573603934489151 -0.0020856273744051853 -0.010758935318645536 0.0024075059614238883 0.01698114153917353
 0.002465244184664793 0.016972555578386332 -0.0020856273744051853 -0.010758935318645536 0.007621942519296988 0.03573517545429358 0.9904424309785573 -0.08405154504030428
 -0.0020854210732761756 -0.010758945898614876 0.0024075059614238883 0.01698114153917353 0.9904424309785573 -0.08405154504030428 0.007631760525836938 0.035734399408838324
0.131304710296 0.008117012513449517 0.03768981858377343 0.9897895050393165 -0.08839187786542514 0.002689474783645952 0.01781793502645565 -0.0022736002396781738 -0.011297096919712495
 0.9897895050393165 -0.08839187786542514 0.008127141672521647 0.037689057241870605 -0.0022738269626791353 -0.011297084160252656 0.0026257925538222286 0.017827641621145338
 0.002689474783645952 0.01781793502645565 -0.0022738269626791353 -0.011297084160252656 0.008116583682956128 0.037688194300446946 0.9897893999898941 -0.08839366084134617
 -0.0022736002396781738 -0.011297096919712495 0.0026257925538222286 0.017827641621145338 0.9897893999898941 -0.08839366084134617 0.008127408895190489 0.0376873395357162
0.1375573155481 0.008519456956282772 0.039401404384699336 0.9892229536244498 -0.0924909034147364 0.0028963782228520417 0.018636481477928665 -0.0024429193829790244 -0.011808695258769597
 0.9892229536244498 -0.0924909034147364 0.008530578810134302 0.039400588197375026 -0.0024431680512020898 -0.011808680309363748 0.002826604665526711 0.01864729567503481
 0.0028963782228520417 0.018636481477928665 -0.0024431680512020898 -0.011808680309363748 0.008518988162968323 0.039399713689126245 0.9892228379523033 -0.09249277451961221
 -0.0024429193829790244 -0.011808695258769597 0.002826604665526711 0.01864729567503481 0.9892228379523033 -0.09249277451961221 0.008530872846520631 0.03939879354507902
0.1438099208003 0.008936081466909378 0.04110380752816181 0.9886364257494376 -0.09657937305322294 0.0031116443550578943 0.0194515884575388 -0.0026190083217898404 -0.01231717459633088
 0.9886364257494376 -0.09657937305322294 0.008948243161618777 0.041102933619185884 -0.002619279944308862 -0.012317157245785372 0.003035513005579979 0.019463593725037885
 0.0031116443550578943 0.0194515884575388 -0.002619279944308862 -0.012317157245785372 0.008935571126778315 0.041102051868607804 0.9886362988488551 -0.0965813327343017
 -0.0026190083217898404 -0.01231717459633088 0.003035513005579979 0.019463593725037885 0.9886362988488551 -0.0965813327343017 0.008948565365243796 0.0411010626765513
0.1500625260525 0.009366736868730565 0.04279688089151722 0.988030074776899 -0.10065718023749957 0.0033351977631766324 0.02026316839367653 -0.002801794403524532 -0.012822453418380599
 0.988030074776899 -0.10065718023749957 0.00937998567644191 0.04279594620120833 -0.002802089989207584 -0.012822433446684902 0.003252443819369872 0.020276451237160913
 0.0033351977631766324 0.02026316839367653 -0.002802089989207584 -0.012822433446684902 0.009366183428565792 0.0427950617729351 0.9880299360263133 -0.10065922895794908
 -0.002801794403524532 -0.012822453418380599 0.003252443819369872 0.020276451237160913 0.9880299360263133 -0.10065922895794908 0.009380337414060766 0.042793999651570463
0.15631513130469998 0.009811272895943834 0.04448048178587865 0.9874040548823887 -0.10472421890586345 0.0035669621163970542 0.021071135221979582 -0.0029912040629655468 -0.013324451962372471
 0.9874040548823887 -0.10472421890586345 0.009825656218492197 0.044479483065564464 -0.00299152462054499 -0.013324429140665117 0.0034773224651877036 0.02108578515124715
