! Created with skrf 1.8.0 (http://scikit-rf.org).
# GHz S RI R 50.0 
!freq ReS11 ImS11 ReS12 ImS12 ReS13 ImS13
! ReS14 ImS14
! ReS21 ImS21 ReS22 ImS22 ReS23 ImS23
! ReS24 ImS24
! ReS31 ImS31 ReS32 ImS32 ReS33 ImS33
! ReS34 ImS34
! ReS41 ImS41 ReS42 ImS42 ReS43 ImS43
! ReS44 ImS44
!
0.0 0.001679680142957 0.0 0.9983203198457 0.0 6.534528020249e-05 0.0 -6.534527993494e-05 8.002488791171203e-21
 0.9983203198457 0.0 0.001679680142935 0.0 -6.534527993513e-05 8.002488791194472e-21 6.534528020045e-05 0.0
 6.534528020249e-05 0.0 -6.534527993513e-05 8.002488791194472e-21 0.001679680138707 0.0 0.9983203198414 0.0
 -6.534527993494e-05 8.002488791171203e-21 6.534528020045e-05 0.0 0.9983203198414 0.0 0.001679680138677 0.0
0.005 0.0018076968430138505 0.0013676298155991984 0.998158264459523 -0.003518330996792913 9.278308202124548e-05 0.0007569269485213238 -8.981735268161274e-05 -0.00046857832360119216
 0.998158264459523 -0.003518330996792913 0.0018077080651257755 0.0013676232905980284 -8.981912472333393e-05 -0.00046857972949553305 9.26998878873991e-05 0.0007569585230799333
 9.278308202124548e-05 0.0007569269485213238 -8.981912472333393e-05 -0.00046857972949553305 0.0018076953542858344 0.0013675634593668154 0.9981582640919177 -0.003518398064630772
 -8.981735268161274e-05 -0.00046857832360119216 9.26998878873991e-05 0.0007569585230799333 0.9981582640919177 -0.003518398064630772 0.001807708831570572 0.0013675555249102198
0.006252605252188 0.0018414008271821296 0.001714927375543135 0.9981153052582046 -0.00439875607375962 0.00010070725759730557 0.0009464987734448167 -9.67945339112797e-05 -0.0005863289793311217
 0.9981153052582046 -0.00439875607375962 0.0018414183695788428 0.001714919114457488 -9.679729098510114e-05 -0.0005863307134378695 0.00010057727384462117 0.0009465398090790562
 0.00010070725759730557 0.0009464987734448167 -9.679729098510114e-05 -0.0005863307134378695 0.0018413985686094709 0.0017148444500005183 0.9981153047523678 -0.004398839901038815
 -9.67945339112797e-05 -0.0005863289793311217 0.00010057727384462117 0.0009465398090790562 0.9981153047523678 -0.004398839901038815 0.0018414196371822884 0.0017148344155966011
0.01250521050438 0.002019577267753652 0.0034658085924100727 0.9978865840986403 -0.008798199030848754 0.00014660026353607465 0.0018931754647507869 -0.00013674595505260633 -0.0011754452576596807
 0.9978865840986403 -0.008798199030848754 0.0020196473157972957 0.0034657910362166974 -0.00013675681590403772 -0.0011754484697610499 0.00014608188742914287 0.0018932745239975029
 0.00014660026353607465 0.0018931754647507869 -0.00013675681590403772 -0.0011754484697610499 0.002019568799413821 0.0034656431406424703 0.9978865826300067 -0.00879836646284417
 -0.00013674595505260633 -0.0011754452576596807 0.00014608188742914287 0.0018932745239975029 0.9978865826300067 -0.00879836646284417 0.0020196529415544688 0.003465621899894324
0.01875781575657 0.002214626279224841 0.005241544735983467 0.9976338525805508 -0.013209010425517007 0.00020313373703108968 0.0028406815688360545 -0.00018532943234269108 -0.0017664287573213935
 0.9976338525805508 -0.013209010425517007 0.0022147836830136215 0.005241516819652576 -0.00018535364584162034 -0.0017664331396576624 0.00020196919483971733 0.002840859151593356
 0.00020313373703108968 0.0028406815688360545 -0.00018535364584162034 -0.0017664331396576624 0.0022146076736155006 0.005241297114522704 0.9976338497025458 -0.013209261424565714
 -0.00018532943234269108 -0.0017664287573213935 0.00020196919483971733 0.002840859151593356 0.9976338497025458 -0.013209261424565714 0.0022147967752627388 0.005241263395831294
0.02501042100875 0.0024269506604859977 0.007039602306570585 0.9973567942574967 -0.01763329262765176 0.00027041885293089743 0.0037890413724260114 -0.0002426697887942307 -0.0023589788810162104
 0.9973567942574967 -0.01763329262765176 0.002427230206421968 0.007039562948679303 -0.00024271253868755798 -0.0023589840688331087 0.00026835025231609043 0.0037893213870728694
 0.00027041885293089743 0.0037890413724260114 -0.00024271253868755798 -0.0023589840688331087 0.0024269179893731596 0.007039272935905191 0.9973567895101918 -0.01763362723303117
 -0.0002426697887942307 -0.0023589788810162104 0.00026835025231609043 0.0037893213870728694 0.9973567895101918 -0.01763362723303117 0.0024272538750221037 0.007039225385469415
0.03126302626094 0.0026569364609848765 0.008858659078643662 0.9970550776174485 -0.022071922948658652 0.0003485670521477409 0.004738186838320922 -0.0003088877657091143 -0.0029528796036377308
 0.9970550776174485 -0.022071922948658652 0.002657372894570971 0.008858607184994614 -0.0003089541815156806 -0.002952885174598334 0.0003453361570922304 0.004738596623466307
 0.0003485670521477409 0.004738186838320922 -0.0003089541815156806 -0.002952885174598334 0.0026568858066598187 0.008858248476212822 0.9970550705380401 -0.022072341244116483
 -0.0003088877657091143 -0.0029528796036377308 0.0003453361570922304 0.004738596623466307 0.9970550705380401 -0.022072341244116483 0.0026574102651535383 0.00885818566110915
0.037515631513130004 0.0029049609831127833 0.010697838994301616 0.996728364403592 -0.02652531869020519 0.00043768882905378584 0.0056880132041029876 -0.0003841009429793171 -0.003547943891133569
 0.996728364403592 -0.02652531869020519 0.0029055890258440063 0.010697773460172184 -0.0003841961055399092 -0.0035479493651855596 0.00043303696584812146 0.0056885835632485195
 0.00043768882905378584 0.0056880132041029876 -0.0003841961055399092 -0.0035479493651855596 0.002904888434687107 0.010697347777769883 0.9967283545201179 -0.02652582080150177
 -0.0003841009429793171 -0.003547943891133569 0.00043303696584812146 0.0056885835632485195 0.9967283545201179 -0.02652582080150177 0.0029056432373511867 0.010697268187353958
0.043768236765320004 0.0031713958608834748 0.0125564793009727 0.9963763130130838 -0.03099366993851309 0.0005378931580109229 0.006638395882091456 -0.0004684240547907334 -0.00414399682199287
 0.9963763130130838 -0.03099366993851309 0.003172250224052864 0.012556399012560221 -0.00046855299963138706 -0.004144001661356598 0.0005315611765628578 0.006639161122124214
 0.0005378931580109229 0.006638395882091456 -0.00046855299963138706 -0.004144001661356598 0.0031712975191622132 0.012555908185629653 0.996376299846764 -0.030994256036624226
 -0.0004684240547907334 -0.00414399682199287 0.0005315611765628578 0.006639161122124214 0.996376299846764 -0.030994256036624226 0.003172324433520951 0.012555810232116346
0.050020842017509996 0.0034566084775135763 0.014434034328914153 0.9959985802397602 -0.03547703571767005 0.0006492871404872398 0.007589197461969252 -0.0005619690944384321 -0.004740868610633914
 0.9959985802397602 -0.03547703571767005 0.003457723874698405 0.014433938164340158 -0.0005621368137584148 -0.004740872219849777 0.0006410154062871845 0.007590195433184938
 0.0006492871404872398 0.007589197461969252 -0.0005621368137584148 -0.004740872219849777 0.003456480453534483 0.014433384141180014 0.9959985633008454 -0.03547770600619804
 -0.0005619690944384321 -0.004740868610633914 0.0006410154062871845 0.007590195433184938 0.9959985633008454 -0.03547770600619804 0.0034578212568875926 0.01443326615948308
0.055454545454549996 0.003719999367798876 0.016080676843149427 0.9956491956057592 -0.03938539231969925 0.0007552608394353414 0.008415699229297753 -0.0006508368289836208 -0.0052601027710732825
 0.9956491956057592 -0.03938539231969925 0.003721369814342205 0.016080565964741746 -0.0006510422662547973 -0.00526010478291498 0.0007450921771435478 0.008416932972473208
 0.0007552608394353414 0.008415699229297753 -0.0006510422662547973 -0.00526010478291498 0.003719842400657313 0.01607995868771055 0.9956491749816172 -0.03938613597226206
 -0.0006508368289836208 -0.0052601027710732825 0.0007450921771435478 0.008416932972473208 0.9956491749816172 -0.03938613597226206 0.0037214899276869027 0.01607982188830338
0.056273447269699996 0.0037609626785351465 0.0163300282728233 0.9955948223178778 -0.03997539114222578 0.0007719757515858769 0.008540271143259556 -0.0006648453235000953 -0.0053383912066565535
 0.9955948223178778 -0.03997539114222578 0.0037623738381504985 0.016329915102649032 -0.0006650567676401414 -0.005338392932647663 0.0007615041553520487 0.00854154327983326
 0.0007719757515858769 0.008540271143259556 -0.0006650567676401414 -0.005338392932647663 0.0037608010960555136 0.016329299940643128 0.9955948011048744 -0.039976145867610106
 -0.0006648453235000953 -0.0053383912066565535 0.0007615041553520487 0.00854154327983326 0.9955948011048744 -0.039976145867610106 0.0037624975872920666 0.016329160187918138
0.06252605252188 0.004084819139116378 0.018244029230260105 0.9951646956238579 -0.04448865331797307 0.0009060616354755795 0.009491462638218729 -0.0007771592327947581 -0.005936396429968343
 0.9951646956238579 -0.04448865331797307 0.004086560815889502 0.01824389791765984 -0.000777419311179862 -0.0059363955621032 0.0008931296148574029 0.009493053998757085
 0.0009060616354755795 0.009491462638218729 -0.000777419311179862 -0.0059363955621032 0.004084620137160802 0.018243223788131202 0.9951646696229751 -0.04448949276512803
 -0.0007771592327947581 -0.005936396429968343 0.0008931296148574029 0.009493053998757085 0.9951646696229751 -0.04448949276512803 0.004086714148042248 0.018243060442847864
0.06877865777407 0.0044285355431248775 0.020175633722405825 0.9947078571951739 -0.04901669676682083 0.0010516449276404705 0.010442611311031823 -0.0008990144759908664 -0.006534714876432572
 0.9947078571951739 -0.04901669676682083 0.004430642529527412 0.020175483122905912 -0.0008993280577006376 -0.0065347106466198115 0.001035991497849975 0.010444570618857552
 0.0010516449276404705 0.010442611311031823 -0.0008993280577006376 -0.0065347106466198115 0.0044282952767612125 0.020174752314971036 0.9947078258777957 -0.04901762125616605
 -0.0008990144759908664 -0.006534714876432572 0.001035991497849975 0.010444570618857552 0.9947078258777957 -0.04901762125616605 0.004430828683454763 0.020174563475524654
0.07503126302626001 0.0047924666483979365 0.022124456896322607 0.9942239651404859 -0.05355936317744939 0.0012088230940934374 0.011393550913024518 -0.001030511785652733 -0.0071331752347221005
 0.9942239651404859 -0.05355936317744939 0.00479497378644674 0.022124285857144547 -0.0010308836999074875 -0.007133166817485708 0.0011901868848275099 0.01139593059605319
 0.0012088230940934374 0.011393550913024518 -0.0010308836999074875 -0.007133166817485708 0.004792181291221241 0.022123500776057965 0.9942239279623993 -0.05356037306768988
 -0.001030511785652733 -0.0071331752347221005 0.0011901868848275099 0.01139593059605319 0.9942239279623993 -0.05356037306768988 0.0047951960251060854 0.02212328445904161
0.08128386827845 0.005176964281624304 0.02409012600449317 0.9937126789829928 -0.058116467886332984 0.0013776907798028627 0.01234411008359161 -0.0011717488791133405 -0.007731603844866772
 0.9937126789829928 -0.058116467886332984 0.005179906474318444 0.02408993336345347 -0.0011721839154418317 -0.007731590357446931 0.0013558100774128065 0.012346966313601212
 0.0013776907798028627 0.01234411008359161 -0.0011721839154418317 -0.007731590357446931 0.005176630027409956 0.02408909653598937 0.9937126353825293 -0.05811756357063568
 -0.0011717488791133405 -0.007731603844866772 0.0013558100774128065 0.012346966313601212 0.9937126353825293 -0.05811756357063568 0.005180168086602151 0.024088850673971922
0.08753647353064001 0.005582377285859632 0.02607227590600031 0.9931736599612526 -0.06268780434552292 0.0015583396647888444 0.013294112706670864 -0.001322820355841291 -0.008329824409025681
 0.9931736599612526 -0.06268780434552292 0.005585789508239719 0.026072060490057804 -0.0013233232642593665 -0.008329804911475369 0.0015329524583707057 0.013297505437988204
 0.0015583396647888444 0.013294112706670864 -0.0013233232642593665 -0.008329804911475369 0.005581990350908438 0.026071174559063482 0.9931736093580139 -0.06268898625875934
 -0.001322820355841291 -0.008329824409025681 0.0015329524583707057 0.013297505437988204 0.9931736093580139 -0.06268898625875934 0.005586093810310971 0.026070896998054614
0.09378907878283 0.006009051435788523 0.028070545848535168 0.9926065713021555 -0.06727314731826546 0.0017508583235152089 0.014243378181500638 -0.0014838175903531513 -0.008927657795869418
 0.9926065713021555 -0.06727314731826546 0.006012968747222986 0.028070306471795058 -0.0014843930813734567 -0.008927631291155966 0.0017217023551565664 0.014247371188892143
 0.0017508583235152089 0.014243378181500638 -0.0014843930813734567 -0.008927631291155966 0.006008608061013578 0.028069374210845387 0.9926065130955944 -0.06727441592455326
 -0.0014838175903531513 -0.008927657795869418 0.0017217023551565664 0.014247371188892143 0.9926065130955944 -0.06727441592455326 0.006013319083991162 0.028069062707233045
0.100041684035 0.006457329329779293 0.030084577132885683 0.9920110784734152 -0.07187225520101864 0.0019553320887093885 0.015191721632612011 -0.0016548286207128577 -0.009524921913883298
 0.9920110784734152 -0.07187225520101864 0.006461786884897644 0.030084312594333515 -0.0016554813652456528 -0.009524887348015864 0.001922144906131789 0.015196382548318451
 0.0019553320887093885 0.015191721632612011 -0.0016554813652456528 -0.009524887348015864 0.00645682578252549 0.03008333689753302 0.9920110120409764 -0.07187361100641886
 -0.0016548286207128577 -0.009524921913883298 0.001922144906131789 0.015196382548318451 0.9920110120409764 -0.07187361100641886 0.006462186631659891 0.03008298911458792
0.1059090909091 0.006897941242061162 0.03198854737810157 0.9914261425115929 -0.07620032114410966 0.0021581551185512527 0.016080634520626653 -0.0018244871682392984 -0.010084708322939924
 0.9914261425115929 -0.07620032114410966 0.006902937826936533 0.03198825811946315 -0.0018252166198255678 -0.010084665183290943 0.0021209462476117534 0.01608598717624076
 0.0021581551185512527 0.016080634520626653 -0.0018252166198255678 -0.010084665183290943 0.006897377860256695 0.0319872444118003 0.9914260677730622 -0.07620175926734922
 -0.0018244871682392984 -0.010084708322939924 0.0021209462476117534 0.01608598717624076 0.9914260677730622 -0.07620175926734922 0.006903387037585429 0.03198686037295619
0.1062942892872 0.006927550263272186 0.03211401134793761 0.9913868494222263 -0.07648487178445888 0.0021718429164675162 0.016138954082321317 -0.0018359380345613116 -0.010121431630452154
 0.9913868494222263 -0.07648487178445888 0.006932583324237073 0.03211372042845285 -0.0018366726638764054 -0.010121387892575193 0.0021343619290538486 0.016144354432258156
 0.0021718429164675162 0.016138954082321317 -0.0018366726638764054 -0.010121387892575193 0.006926982839937987 0.032112704320942466 0.9913867741182376 -0.07648631532948559
 -0.0018359380345613116 -0.010121431630452154 0.0021343619290538486 0.016144354432258156 0.9913867741182376 -0.07648631532948559 0.006933035887812164 0.032112317824942914
0.11254689453939999 0.007420050090898503 0.03415848903337152 0.9907335548053204 -0.08111072759627337 0.002400469254234827 0.017084882597485248 -0.0020272268529362356 -0.010716998725065192
 0.9907335548053204 -0.08111072759627337 0.00742569403878093 0.03415817049254507 -0.0020280479584167906 -0.010716944647619112 0.002358431790789892 0.01709109783647668
 0.002400469254234827 0.017084882597485248 -0.0020280479584167906 -0.010716944647619112 0.007419415118983256 0.03415711713365075 0.9907334699589313 -0.08111225945588998
 -0.0020272268529362356 -0.010716998725065192 0.002358431790789892 0.01709109783647668 0.9907334699589313 -0.08111225945588998 0.007426202859330799 0.03415668938943156
0.11879949979160001 0.007935161076765595 0.036217648651237326 0.9900508682098876 -0.08574954094490055 0.0026412859092578315 0.018029310419802484 -0.002228772412747918 -0.011311431867678044
 0.9900508682098876 -0.08574954094490055 0.007941451423412661 0.03621730122354981 -0.002229684545680583 -0.011311366226531942 0.002594429278792621 0.018036419965768127
 0.0026412859092578315 0.018029310419802484 -0.002229684545680583 -0.011311366226531942 0.007934454917049584 0.036216213909599435 0.9900507731241238 -0.08575116172941977
 -0.002228772412747918 -0.011311431867678044 0.002594429278792621 0.018036419965768127 0.9900507731241238 -0.08575116172941977 0.007942019975849706 0.03621574227569704
0.1250521050438 0.00847321173760702 0.03829112577537549 0.989338466371188 -0.09040101875572472 0.0028943639192242393 0.018972037082394137 -0.002440648248323401 -0.011904536619447756
 0.989338466371188 -0.09040101875572472 0.008480184137739676 0.03829074816585451 -0.002441655919691464 -0.01190445813400638 0.002842425473155323 0.018980124349491128
 0.0028943639192242393 0.018972037082394137 -0.002441655919691464 -0.01190445813400638 0.008472430786803434 0.038289630334347985 0.9893383603208686 -0.09040272911059265
 -0.002440648248323401 -0.011904536619447756 0.002842425473155323 0.018980124349491128 0.9893383603208686 -0.09040272911059265 0.008480815933096977 0.03828911205769451
0.131304710296 0.009034526679086257 0.04037855245356943 0.9885960293848084 -0.09506485724450905 0.003159770423641692 0.019912858521440237 -0.002662923972157749 -0.012496115447181978
 0.9885960293848084 -0.09506485724450905 0.009042216942080836 0.04037814333304544 -0.002664031652331391 -0.01249602278057104 0.003102487620317753 0.01992201095207351
 0.003159770423641692 0.019912858521440237 -0.002664031652331391 -0.01249602278057104 0.009033667371821315 0.040376998566554675 0.9885959116151743 -0.09506665785096391
 -0.002662923972157749 -0.012496115447181978 0.003102487620317753 0.01992201095207351 0.9885959116151743 -0.09506665785096391 0.009042915528936081 0.040376430776511874
0.1375573155481 0.009495440989148172 0.04220632863007629 0.9879472824319407 -0.09946736620855613 0.003405845309652356 0.020824494223723622 -0.002864013921090575 -0.013058866780705239
 0.9879472824319407 -0.09946736620855613 0.009503888075701824 0.04220589595779113 -0.002865228389975433 -0.0130587597473099 0.003343091667959588 0.020834702961377103
 0.003405845309652356 0.020824494223723622 -0.002865228389975433 -0.0130587597473099 0.00949450042182278 0.042204718116809856 0.9879471523809279 -0.09946925750531475
 -0.002864013921090575 -0.013058866780705239 0.003343091667959588 0.020834702961377103 0.9879471523809279 -0.09946925750531475 0.00950465600697184 0.04220410775787849
0.1438099208003 0.009972693875559924 0.044023535614308884 0.9872754466954871 -0.10385778483451737 0.003661849745162206 0.02173187996423492 -0.0030731231551777887 -0.013617760455712467
 0.9872754466954871 -0.10385778483451737 0.00998193427749781 0.04402307847796862 -0.0030744492401302247 -0.013617637728841727 0.003593387416037869 0.021743225315098487
 0.003661849745162206 0.02173187996423492 -0.0030744492401302247 -0.013617637728841727 0.00997166865613823 0.044021870796568226 0.987275303604616 -0.10385976749435151
 -0.0030731231551777887 -0.013617760455712467 0.003593387416037869 0.021743225315098487 0.987275303604616 -0.10385976749435151 0.009982774977986494 0.04402121542870398
0.1500625260525 0.010466103016418373 0.04582999424562132 0.9865807092206736 -0.10823597635415065 0.003927686932189292 0.02263490436026726 -0.0032901582309311788 -0.01417269297806908
 0.9865807092206736 -0.10823597635415065 0.010476173387110243 0.045829511625682905 -0.00329160074791328 -0.014172553177524872 0.0038532797353503147 0.02264746954276708
 0.003927686932189292 0.02263490436026726 -0.00329160074791328 -0.014172553177524872 0.01046498979730669 0.04582827753720684 0.986580552306285 -0.10823805107334761
 -0.0032901582309311788 -0.01417269297806908 0.0038532797353503147 0.02264746954276708 0.986580552306285 -0.10823805107334761 0.010477090307209834 0.045827574552194994
0.15631513130469998 0.01097548461830098 0.047625530727876286 0.9858632582016286 -0.11260180509458984 0.004203258820763996 0.023533458103925976 -0.0035150244575981224 -0.014723563211612426
 0.9858632582016286 -0.11260180509458984 0.010986421776691022 0.047625021490681006 -0.003516588211133795 -0.014723404903876653 0.004122672273552524 0.02354732921362113
