! Created with skrf 1.8.0 (http://scikit-rf.org).
# GHz S RI R 50.0 
!freq ReS11 ImS11 ReS12 ImS12 ReS13 ImS13
! ReS14 ImS14
! ReS21 ImS21 ReS22 ImS22 ReS23 ImS23
! ReS24 ImS24
! ReS31 ImS31 ReS32 ImS32 ReS33 ImS33
! ReS34 ImS34
! ReS41 ImS41 ReS42 ImS42 ReS43 ImS43
! ReS44 ImS44
!
0.0 0.001452264062853 0.0 0.9985477359265 0.0 5.594125105694e-05 0.0 -5.594125102354e-05 6.850827400627686e-21
 0.9985477359265 0.0 0.001452264062836 0.0 -5.594125102343e-05 6.850827400614215e-21 5.594125105662e-05 0.0
 5.594125105694e-05 0.0 -5.594125102343e-05 6.850827400614215e-21 0.001452264054412 0.0 0.9985477359181 0.0
 -5.594125102354e-05 6.850827400627686e-21 5.594125105662e-05 0.0 0.9985477359181 0.0 0.001452264054401 0.0
0.005 0.0015622749053347362 0.0011867992277943644 0.9984085872284589 -0.003042518914137107 7.847877965988622e-05 0.0006250426797919525 -7.615896147303523e-05 -0.00039086684569158444
 0.9984085872284589 -0.003042518914137107 0.0015622951650121528 0.0011867873639239074 -7.615779934841524e-05 -0.00039086590972042557 7.8369523272075e-05 0.0006250844315021419
 7.847877965988622e-05 0.0006250426797919525 -7.615779934841524e-05 -0.00039086590972042557 0.0015622760741358383 0.001186865767807813 0.9984085875816985 -0.003042451859212683
 -7.615896147303523e-05 -0.00039086684569158444 7.8369523272075e-05 0.0006250844315021419 0.9984085875816985 -0.003042451859212683 0.0015622947045883843 0.001186854937929508
0.006252605252188 0.0015910511048589193 0.001488184839615651 0.9983719683633995 -0.003803904976165884 8.488461426476337e-05 0.000781606291969769 -8.183317764865792e-05 -0.0004890952170295054
 0.9983719683633995 -0.003803904976165884 0.00159108277429377 0.001488169726620641 -8.183136962429265e-05 -0.0004890940619431228 8.471391247458547e-05 0.000781660463176381
 8.488461426476337e-05 0.000781606291969769 -8.183136962429265e-05 -0.0004890940619431228 0.0015910528515956453 0.0014882680115733534 0.9983719688347563 -0.003803821157240954
 -8.183317764865792e-05 -0.0004890952170295054 8.471391247458547e-05 0.000781660463176381 0.9983719688347563 -0.003803821157240954 0.0015910819733587205 0.0014882542011769586
0.01250521050438 0.001742091335451817 0.003007708340362192 0.9981785318589748 -0.007608695380705278 0.00012144546171708836 0.0015635673996872675 -0.00011384544768459189 -0.0009806171156704132
 0.9981785318589748 -0.007608695380705278 0.0017422177927916827 0.003007675245523612 -0.00011383832635919145 -0.0009806149674190217 0.00012076478471991559 0.0015636970604269115
 0.00012144546171708836 0.0015635673996872675 -0.00011383832635919145 -0.0009806149674190217 0.0017420977540165818 0.003007874392894382 0.9981785331772989 -0.0076085280047108956
 -0.00011384544768459189 -0.0009806171156704132 0.00012076478471991559 0.0015636970604269115 0.9981785331772989 -0.0076085280047108956 0.0017422140254567137 0.0030078440192488863
0.01875781575657 0.0019056999900969413 0.004549021979800732 0.9979671964535513 -0.011423648546984147 0.0001657053620223479 0.0023464246905176185 -0.00015207359684743976 -0.0014738558867203816
 0.9979671964535513 -0.011423648546984147 0.0019059841481634345 0.004548967808611121 -0.00015205772135060082 -0.0014738529354463093 0.00016417639084823256 0.002346655183145264
 0.0001657053620223479 0.0023464246905176185 -0.00015205772135060082 -0.0014738529354463093 0.0019057140096810624 0.00454927076608597 0.9979671989968065 -0.011423397736385071
 -0.00015207359684743976 -0.0014738558867203816 0.00016417639084823256 0.002346655183145264 0.9979671989968065 -0.011423397736385071 0.0019059752539123725 0.004549220896490916
0.02501042100875 0.002082183784889716 0.006109981426879731 0.997737723549283 -0.015250628660114283 0.00021774747125328505 0.003130221452084209 -0.00019661030507523203 -0.0019685949530927954
 0.997737723549283 -0.015250628660114283 0.0020826884287944124 0.006109902877416927 -0.00019658227724335127 -0.0019685914207550025 0.00021503180385073462 0.00313058198437119
 0.00021774747125328505 0.003130221452084209 -0.00019658227724335127 -0.0019685914207550025 0.002082208330779002 0.006110312845775671 0.9977377276864553 -0.015250294497727331
 -0.00019661030507523203 -0.0019685949530927954 0.00021503180385073462 0.00313058198437119 0.9977377276864553 -0.015250294497727331 0.0020826722377394434 0.006110240383978344
0.03126302626094 0.0022718366772270836 0.007689490771110873 0.9974898618424581 -0.019090442502608395 0.00027765565034300815 0.003914928172079181 -0.000247545788472585 -0.0024646856122663603
 0.9974898618424581 -0.019090442502608395 0.002272624495369882 0.007689384336941712 -0.0002475022454755798 -0.002464681753059245 0.00027341447636100276 0.003915451836506126
 0.00027765565034300815 0.003914928172079181 -0.0002475022454755798 -0.002464681753059245 0.0022718746831836556 0.007689904710331333 0.9974898679438035 -0.01909002508821197
 -0.000247545788472585 -0.0024646856122663603 0.00027341447636100276 0.003915451836506126 0.9974898679438035 -0.01909002508821197 0.002272598839038922 0.007689806399661717
0.037515631513130004 0.002474946364213843 0.009286841178723932 0.9972233539967946 -0.022943500740219846 0.00034551357987197936 0.004700486729499979 -0.0003049684691153166 -0.002962002833851672
 0.9972233539967946 -0.022943500740219846 0.002476079968671606 0.009286703149875468 -0.0003049060797342765 -0.002961998934312023 0.0003394075312622133 0.004701210540857686
 0.00034551357987197936 0.004700486729499979 -0.0003049060797342765 -0.002961998934312023 0.0024750007692146796 0.009287337541434293 0.9972233624299117 -0.022943000163598053
 -0.0003049684691153166 -0.002962002833851672 0.0003394075312622133 0.004701210540857686 0.9972233624299117 -0.022943000163598053 0.0024760426754473408 0.009287209966383622
0.043768236765320004 0.0026917967889359654 0.010901509666523082 0.996937939328698 -0.02681001908149511 0.0004214043533207391 0.00548682382712786 -0.00036896521662072333 -0.003460431820398194
 0.996937939328698 -0.02681001908149511 0.002693338730673381 0.010901336129828588 -0.00036888067894470686 -0.003460428199441265 0.0004130934299891884 0.00548778876582102
 0.0004214043533207391 0.00548682382712786 -0.00036888067894470686 -0.003460428199441265 0.002691870535784051 0.010902088358909079 0.9969379504563229 -0.026809435434553337
 -0.00036896521662072333 -0.003460431820398194 0.0004130934299891884 0.00548778876582102 0.9969379504563229 -0.026809435434553337 0.002693287624182937 0.01090192794595319
0.050020842017509996 0.002922669308062552 0.012533075930529321 0.9966333551583785 -0.030690101380527073 0.0005054102368332019 0.006273856539773357 -0.00043962143956301073 -0.003959862455038007
 0.9966333551583785 -0.030690101380527073 0.0029246820898112796 0.012532862769423597 -0.00043951147951356906 -0.003959859463906639 0.0004945537719654023 0.006275107597540777
 0.0005054102368332019 0.006273856539773357 -0.00043951147951356906 -0.003959859463906639 0.0029227653490844596 0.012533736854330705 0.9966333693430811 -0.03068943476423524
 -0.00043962143956301073 -0.003959862455038007 0.0004945537719654023 0.006275107597540777 0.9966333693430811 -0.03068943476423524 0.0029246149944214786 0.01253353987264052
0.055454545454549996 0.0031349092009247213 0.01396440003319392 0.9963528893804217 -0.03407305282356571 0.0005850675035461461 0.006958307116179752 -0.0005064973998518905 -0.004394612248595357
 0.9963528893804217 -0.03407305282356571 0.0031373818880703233 0.013964148935874826 -0.0005063627088969372 -0.004394610115158827 0.0005717216968630079 0.0069598465094788085
 0.0005850675035461461 0.006958307116179752 -0.0005063627088969372 -0.004394610115158827 0.003135027018175657 0.013965132336716535 0.9963529065126637 -0.03407231419178957
 -0.0005064973998518905 -0.004394612248595357 0.0005717216968630079 0.0069598465094788085 0.9963529065126637 -0.03407231419178957 0.0031372991282827938 0.013964900423746237
0.056273447269699996 0.0031678432988606125 0.014181181534162757 0.996309337602422 -0.03458378038053108 0.0005976125021182492 0.0070614950368696975 -0.0005170211100173724 -0.004460186577463461
 0.996309337602422 -0.03458378038053108 0.003170389386709045 0.01418092442831054 -0.0005168824803346379 -0.004460184599725539 0.0005838691516329135 0.007063081263568918
 0.0005976125021182492 0.0070614950368696975 -0.0005168824803346379 -0.004460184599725539 0.003167964591799096 0.01418192458832983 0.9963093552020594 -0.034583030902907284
 -0.0005170211100173724 -0.004460186577463461 0.0005838691516329135 0.007063081263568918 0.9963093552020594 -0.034583030902907284 0.0031703041233635677 0.014181687149911543
0.06252605252188 0.0034275964860595006 0.01584550744884311 0.9959656220912647 -0.038491040107037085 0.0006980912957826146 0.007849644077301245 -0.0006012467543955938 -0.004961296490634399
 0.9959656220912647 -0.038491040107037085 0.0034307383202489875 0.015845201873242593 -0.0006010762339244043 -0.004961295942130325 0.0006811190432984697 0.007851618628216159
 0.0006980912957826146 0.007849644077301245 -0.0006010762339244043 -0.004961295942130325 0.0034277459969704323 0.015846332532489148 0.9959656434612194 -0.03849020787970368
 -0.0006012467543955938 -0.004961296490634399 0.0006811190432984697 0.007851618628216159 0.9959656434612194 -0.03849020787970368 0.003430632709390378 0.015846050592144008
0.06877865777407 0.0037022051201032863 0.017525760684193495 0.995601943740474 -0.042411829173935156 0.0008069255298793378 0.008638203901306596 -0.0006923794235732887 -0.005463084073580906
 0.995601943740474 -0.042411829173935156 0.003706005125180377 0.01752540190816209 -0.0006921738167496784 -0.0054630854023864145 0.0007863817030362035 0.00864062408458585
 0.0008069255298793378 0.008638203901306596 -0.0006921738167496784 -0.0054630854023864145 0.003702385822793022 0.01752666768833964 0.9956019692323741 -0.042410914319884994
 -0.0006923794235732887 -0.005463084073580906 0.0007863817030362035 0.00864062408458585 0.9956019692323741 -0.042410914319884994 0.0037058769863243498 0.01752633704332472
0.07503126302626001 0.0039919440660214234 0.01922166579455372 0.9952180376361964 -0.04634606921629075 0.0009241927834778184 0.009427070799092024 -0.0007904986521080047 -0.005965440220855762
 0.9952180376361964 -0.04634606921629075 0.003996464660959659 0.019221248880352 -0.0007902547886168986 -0.00596544390723281 0.0008997340783308814 0.009429998123126903
 0.0009241927834778184 0.009427070799092024 -0.0007902547886168986 -0.00596544390723281 0.003992158942462949 0.019222654609271264 0.9952180675978902 -0.04634507186229672
 -0.0007904986521080047 -0.005965440220855762 0.0008997340783308814 0.009429998123126903 0.9952180675978902 -0.04634507186229672 0.00399631181311275 0.019222270898662262
0.08128386827845 0.004297086835457133 0.020932959244856726 0.9948136390671105 -0.0502936604674898 0.0010499692122440272 0.01021613749058563 -0.0008956824087971083 -0.006468254474368343
 0.9948136390671105 -0.0502936604674898 0.004302390443192517 0.02093247904595364 -0.0008953971432720496 -0.006468261030708671 0.0010212517242032871 0.010219637711160082
 0.0010499692122440272 0.01021613749058563 -0.0008953971432720496 -0.006468261030708671 0.004297338876308123 0.02093402974950036 0.9948136738425389 -0.05029258075327319
 -0.0008956824087971083 -0.006468254474368343 0.0010212517242032871 0.010219637711160082 0.9948136738425389 -0.05029258075327319 0.0043022107059982545 0.02093358845324611
0.08753647353064001 0.004617905583141965 0.022659385497140277 0.9943884837240059 -0.05425448561916415 0.0011843294628004907 0.011005293389970243 -0.0010080070417563948 -0.006971414774092451
 0.9943884837240059 -0.05425448561916415 0.004624054640246357 0.022658836656268957 -0.0010076772536261622 -0.006971424744872212 0.0011510087226530082 0.01100943655709992
 0.0011843294628004907 0.011005293389970243 -0.0010076772536261622 -0.006971424744872212 0.004618197788016313 0.02266053756698823 0.9943885236530723 -0.05425332369035365
 -0.0010080070417563948 -0.006971414774092451 0.0011510087226530082 0.01100943655709992 0.9943885236530723 -0.05425332369035365 0.0046238458342438594 0.022660034004655476
0.09378907878283 0.0049546710768940275 0.02440069422209329 0.9939423078759573 -0.05822841256041946 0.0013273465898764765 0.011794424801402404 -0.0011275472198151273 -0.007474807281361175
 0.9939423078759573 -0.05822841256041946 0.004961728043218042 0.02440007116894359 -0.001127169813185326 -0.007474821243081181 0.0012890776041709418 0.011799285305719491
 0.0013273465898764765 0.011794424801402404 -0.001127169813185326 -0.007474821243081181 0.004955006454284564 0.024401927725230407 0.993942353293873 -0.058227168571051285
 -0.0011275472198151273 -0.007474807281361175 0.0012890776041709418 0.011799285305719491 0.993942353293873 -0.058227168571051285 0.004961487990191613 0.02440135705445314
0.100041684035 0.005307652649243711 0.026156638258088005 0.9934748485310158 -0.06221529637360131 0.0014790919758276733 0.012583415063499338 -0.0012543758707128823 -0.007978316257294595
 0.9934748485310158 -0.06221529637360131 0.005315680017366121 0.026155935206667803 -0.0012539477743094803 -0.00797833481841827 0.0014355292708750844 0.012589071682180004
 0.0014790919758276733 0.012583415063499338 -0.0012539477743094803 -0.00797833481841827 0.005308034217040296 0.02615795305409147 0.9934748997682048 -0.06221397048683112
 -0.0012543758707128823 -0.007978316257294595 0.0014355292708750844 0.012589071682180004 0.9934748997682048 -0.06221397048683112 0.005315406541185198 0.026157310268720792
0.1059090909091 0.005653875367821211 0.027817497410496633 0.9930165969198484 -0.06596820908596576 0.0016294892309518137 0.013323563945556949 -0.0013800832729764809 -0.008450807110723355
 0.9930165969198484 -0.06596820908596576 0.0056628702288725845 0.027816713832178933 -0.0013796048382089374 -0.008450830569711808 0.001580644341115227 0.013330043227460021
 0.0016294892309518137 0.013323563945556949 -0.0013796048382089374 -0.008450830569711808 0.005654303033553532 0.027818888356285532 0.9930166539139622 -0.06596680650293058
 -0.0013800832729764809 -0.008450807110723355 0.001580644341115227 0.013330043227460021 0.9930166539139622 -0.06596680650293058 0.005662563411701212 0.0278181731981117
0.1062942892872 0.005677118135710384 0.027926972068091395 0.9929858435865253 -0.06621498083651202 0.0016396352516583504 0.013372144664609321 -0.0013885641169463184 -0.008481823974430385
 0.9929858435865253 -0.06621498083651202 0.005686178440355123 0.027926183013787662 -0.0013880822840755497 -0.00848184777532633 0.0015904329206927765 0.013378680606746445
 0.0016396352516583504 0.013372144664609321 -0.0013880822840755497 -0.00848184777532633 0.0056775489212239445 0.027928368007890236 0.9929859009683795 -0.06621357322427043
 -0.0013885641169463184 -0.008481823974430385 0.0015904329206927765 0.013378680606746445 0.9929859009683795 -0.06621357322427043 0.00568586936746355 0.027927647935748773
0.11254689453939999 0.006063333802185437 0.029711450565723902 0.9924750319717078 -0.07022729956028831 0.0018090442186865607 0.014160491335282438 -0.0015301812100197703 -0.008985210655310528
 0.9924750319717078 -0.07022729956028831 0.006073489630274102 0.029710569281931175 -0.0015296426186444298 -0.008985240368170678 0.0017538559719968113 0.014167994286566031
 0.0018090442186865607 0.014160491335282438 -0.0015296426186444298 -0.008985240368170678 0.006063816842766332 0.029712927493567652 0.992475095818508 -0.07022581040064581
 -0.0015301812100197703 -0.008985210655310528 0.0017538559719968113 0.014167994286566031 0.992475095818508 -0.07022581040064581 0.00607314279026247 0.029712124793918333
0.11879949979160001 0.00646656426547564 0.031509828202809696 0.9919421537855145 -0.07425207687024794 0.0019873847713002078 0.014948330124934591 -0.0016792944631162897 -0.009488354430929798
 0.9919421537855145 -0.07425207687024794 0.006477878265105064 0.03150884823736135 -0.0016786961158082733 -0.009488390759719162 0.0019258639888232818 0.01495689229178133
 0.0019873847713002078 0.014948330124934591 -0.0016786961158082733 -0.009488390759719162 0.006467102608176378 0.031511385949285126 0.9919422244115261 -0.07425050635380326
 -0.0016792944631162897 -0.009488354430929798 0.0019258639888232818 0.01495689229178133 0.9919422244115261 -0.07425050635380326 0.00647749149159077 0.03151049510985503
0.1250521050438 0.006887072405782435 0.0333218582398964 0.9913869504292098 -0.07828912850878321 0.002174720820054878 0.015735533469920616 -0.001835969182562161 -0.00999113131224157
 0.9913869504292098 -0.07828912850878321 0.006899607296016574 0.03332077291099836 -0.0018353081065872385 -0.009991174992616127 0.0021065206063309405 0.015745251622740635
 0.002174720820054878 0.015735533469920616 -0.0018353081065872385 -0.009991174992616127 0.00688766910775024 0.03332349662797033 0.991387028142971 -0.0782874768320366
 -0.001835969182562161 -0.00999113131224157 0.0021065206063309405 0.015745251622740635 0.991387028142971 -0.0782874768320366 0.006899178426942881 0.033322511961762856
0.131304710296 0.007325119274394321 0.03514729217190113 0.9908091647374245 -0.08233826218820783 0.0023711142150927805 0.016521971252820306 -0.0020002685984206662 -0.010493415174645143
 0.9908091647374245 -0.08233826218820783 0.007338937855403178 0.03514609456368813 -0.0019995418459632223 -0.010493466973853302 0.002295887456473413 0.016532946768618974
 0.0023711142150927805 0.016521971252820306 -0.0019995418459632223 -0.010493466973853302 0.007325777403388616 0.035149011013711366 0.9908092498412154 -0.08233652955597685
 -0.0020002685984206662 -0.010493415174645143 0.002295887456473413 0.016532946768618974 0.9908092498412154 -0.08233652955597685 0.00733846473389939 0.03514792665525769
0.1375573155481 0.007678228689941937 0.0367473776911962 0.9903113108035702 -0.08616069164372997 0.0025515560965635405 0.01728337191936039 -0.0021472727866764267 -0.010970890656775732
 0.9903113108035702 -0.08616069164372997 0.007693397863959694 0.03674608787439161 -0.002146475876043167 -0.010970950596679973 0.0024691229087370377 0.017295585878066046
 0.0025515560965635405 0.01728337191936039 -0.002146475876043167 -0.010970950596679973 0.007678950540684569 0.03674917703753828 0.9903114036243144 -0.08615887824214083
 -0.0021472727866764267 -0.010970890656775732 0.0024691229087370377 0.017295585878066046 0.9903114036243144 -0.08615887824214083 0.007692879070414956 0.03674801363293472
0.1438099208003 0.00804368268398359 0.038339392973428796 0.989796083155229 -0.0899737993614343 0.0027393037521632004 0.018041889139336013 -0.002300168941663147 -0.011445759112495242
 0.989796083155229 -0.0899737993614343 0.008060265974992634 0.03833800583256318 -0.002299298684510999 -0.011445827946782238 0.0026493469584156935 0.01805543403982845
 0.0027393037521632004 0.018041889139336013 -0.002299298684510999 -0.011445827946782238 0.008044471201290787 0.03834127267576267 0.9897961839901649 -0.08997190540578788
 -0.002300168941663147 -0.011445759112495242 0.0026493469584156935 0.01805543403982845 0.9897961839901649 -0.08997190540578788 0.008059699494188803 0.03834002613954148
0.1500625260525 0.008421357386993095 0.03992321580310166 0.9892636094025075 -0.09377750165273444 0.002934296142706633 0.018797451768200222 -0.002458898417069236 -0.011917954173765132
 0.9892636094025075 -0.09377750165273444 0.008439418419084087 0.03992172594926726 -0.0024579516304606094 -0.011918032686416382 0.002836500297834826 0.018812423488474582
 0.002934296142706633 0.018797451768200222 -0.0024579516304606094 -0.011918032686416382 0.00842221551738749 0.039925175709346186 0.9892637185431896 -0.09377552736503358
 -0.002458898417069236 -0.011917954173765132 0.002836500297834826 0.018812423488474582 0.9892637185431896 -0.09377552736503358 0.008438802249811266 0.03992384172334227
0.15631513130469998 0.008811128108788969 0.04149872770960596 0.9887140177388206 -0.09757171490276768 0.003136471541973252 0.01954998979568139 -0.0026234018763715613 -0.012387410830713113
