! Created with skrf 1.8.0 (http://scikit-rf.org).
# GHz S RI R 50.0 
!freq ReS11 ImS11 ReS12 ImS12 ReS13 ImS13
! ReS14 ImS14
! ReS21 ImS21 ReS22 ImS22 ReS23 ImS23
! ReS24 ImS24
! ReS31 ImS31 ReS32 ImS32 ReS33 ImS33
! ReS34 ImS34
! ReS41 ImS41 ReS42 ImS42 ReS43 ImS43
! ReS44 ImS44
!
0.0 0.001144170200746 0.0 0.9988558297992 0.0 4.338235592234e-05 0.0 -4.338235517324e-05 5.3128062402381986e-21
 0.9988558297992 0.0 0.001144170200745 0.0 -4.338235517312e-05 5.312806240223503e-21 4.33823559228e-05 0.0
 4.338235592234e-05 0.0 -4.338235517312e-05 5.312806240223503e-21 0.001144170184946 0.0 0.9988558297834 0.0
 -4.338235517324e-05 5.3128062402381986e-21 4.33823559228e-05 0.0 0.9988558297834 0.0 0.001144170184952 0.0
0.005 0.0012301312380626089 0.0009379947972011697 0.9987472133223678 -0.0023978325424082727 6.007359853951002e-05 0.0004694976441148981 -5.847037216571035e-05 -0.00029633107085659635
 0.9987472133223678 -0.0023978325424082727 0.0012301390741261942 0.0009379901851529022 -5.8471861017513726e-05 -0.0002963321453355639 6.002740366661152e-05 0.00046951525460703266
 6.007359853951002e-05 0.0004694976441148981 -5.8471861017513726e-05 -0.0002963321453355639 0.0012301311593065102 0.0009380620447730929 0.9987472136442682 -0.002397765481660425
 -5.847037216571035e-05 -0.00029633107085659635 6.002740366661152e-05 0.00046951525460703266 0.9987472136442682 -0.002397765481660425 0.0012301397938331423 0.0009380570564215437
0.006252605252188 0.0012524198802005891 0.0011762130484920458 0.9987189138161104 -0.0029979158960373544 6.470286598765738e-05 0.000587119163097639 -6.261295384849043e-05 -0.0003708094750370764
 0.9987189138161104 -0.0029979158960373544 0.0012524321295283654 0.0011762071622011742 -6.261527122466154e-05 -0.0003708107991743513 6.463068994152844e-05 0.000587141994240713
 6.470286598765738e-05 0.000587119163097639 -6.261527122466154e-05 -0.0003708107991743513 0.0012524196859612499 0.0011762970943223314 0.9987189142480134 -0.002997832076710817
 -6.261295384849043e-05 -0.0003708094750370764 6.463068994152844e-05 0.000587141994240713 0.9987189142480134 -0.002997832076710817 0.0012524331827341562 0.0011762907490705337
0.01250521050438 0.0013682596263618252 0.0023773933782057903 0.9985710573977661 -0.005996834228998751 9.051453732251205e-05 0.001174693365545765 -8.54875174449735e-05 -0.0007435655024498524
 0.9985710573977661 -0.005996834228998751 0.0013683085430869514 0.002377380385764974 -8.549665782561903e-05 -0.0007435679463500024 9.022670469523729e-05 0.0011747477083027802
 9.051453732251205e-05 0.001174693365545765 -8.549665782561903e-05 -0.0007435679463500024 0.0013682582945889227 0.002377561149148429 0.9985710585605347 -0.005996666833441287
 -8.54875174449735e-05 -0.0007435655024498524 9.022670469523729e-05 0.0011747477083027802 0.9985710585605347 -0.005996666833441287 0.0013683121785721126 0.0023775473501075027
0.01875781575657 0.0014918882958834855 0.0035960560558888563 0.9984121156787256 -0.009004104367904693 0.00012086837599155685 0.0017631371301690382 -0.00011206465043175516 -0.001117773746921368
 0.9984121156787256 -0.009004104367904693 0.0014919982248259918 0.003596034666230585 -0.00011208504561460803 -0.0011177770745272556 0.00012022176162797424 0.0017632330273281945
 0.00012086837599155685 0.0017631371301690382 -0.00011208504561460803 -0.0011177770745272556 0.0014918848962709658 0.003596307376275111 0.9984121178734349 -0.009003853476697247
 -0.00011206465043175516 -0.001117773746921368 0.00012022176162797424 0.0017632330273281945 0.9984121178734349 -0.009003853476697247 0.0014920059588703844 0.003596284934431835
0.02501042100875 0.0016235015556504602 0.0048305512221571536 0.9982419397143021 -0.012021236188703504 0.0001558162227313445 0.0023525046811931952 -0.0001424018287047352 -0.0014932978411151148
 0.9982419397143021 -0.012021236188703504 0.0016236967970607653 0.0048305200796265775 -0.00014243786233184033 -0.001493301780292113 0.00015466761296888904 0.002352653469083817
 0.0001558162227313445 0.0023525046811931952 -0.00014243786233184033 -0.001493301780292113 0.0016234951634930804 0.004830885932581477 0.9982419432398817 -0.012020901847586675
 -0.0001424018287047352 -0.0014932978411151148 0.00015466761296888904 0.002352653469083817 0.9982419432398817 -0.012020901847586675 0.0016237101309423052 0.0048308535870597085
0.03126302626094 0.001763286524528773 0.006080056366862536 0.9980603712089312 -0.015048907774964867 0.0001954106140710831 0.0029427980911495076 -0.00017655534815548833 -0.0018700511956295568
 0.9980603712089312 -0.015048907774964867 0.0017635913450626097 0.006080014052306811 -0.0001766113644037833 -0.0018700554375190275 0.00019361656317823503 0.0029430124047948513
 0.0001954106140710831 0.0029427980911495076 -0.0001766113644037833 -0.0018700554375190275 0.0017632762238962711 0.006080474314777288 0.9980603763663302 -0.015048490003905419
 -0.00017655534815548833 -0.0018700511956295568 0.00019361656317823503 0.0029430124047948513 0.9980603763663302 -0.015048490003905419 0.0017636117698487592 0.00608043073428205
0.037515631513130004 0.0019114264219474964 0.007344055319276705 0.9978672472331981 -0.018087486387691688 0.00023970428632139865 0.003533999305805823 -0.0002145807379841277 -0.002247964959767826
 0.9978672472331981 -0.018087486387691688 0.001911865061241763 0.007344000350643859 -0.0002146610459694194 -0.0022479691585257865 0.0002371210468747315 0.003534293091603579
 0.00023970428632139865 0.003533999305805823 -0.0002146610459694194 -0.0022479691585257865 0.0019114113020534242 0.007344556345659043 0.997867254323154 -0.01808698519400942
 -0.0002145807379841277 -0.002247964959767826 0.0002371210468747315 0.003534293091603579 0.997867254323154 -0.01808698519400942 0.0019118940556808626 0.007344500129157936
0.043768236765320004 0.002068102362763742 0.008622179697377013 0.9976624020895264 -0.02113718697123636 0.0002887499514534292 0.004126079849160465 -0.00025653292129181016 -0.0026269783036310993
 0.9976624020895264 -0.02113718697123636 0.0020686990385453494 0.00862211053000037 -0.000256641797810849 -0.00262698207627463 0.0002852334364802431 0.004126468379842607
 0.0002887499514534292 0.004126079849160465 -0.000256641797810849 -0.00262698207627463 0.0020680815194002804 0.008622763634301247 0.9976624114144311 -0.02113660235186052
 -0.00025653292129181016 -0.0026269783036310993 0.0002852334364802431 0.004126468379842607 0.9976624114144311 -0.02113660235186052 0.002068738070685866 0.008622693311469573
0.050020842017509996 0.002233494205779274 0.009914143372874717 0.9974456682323778 -0.02419813764166401 0.00034260016770268755 0.004719004870652509 -0.00030246628769572563 -0.003007034358527479
 0.9974456682323778 -0.02419813764166401 0.0022342731174115624 0.009914058399788874 -0.0003026079788824589 -0.00300703728482335 0.0003380059289498915 0.004719504761253992
 0.00034260016770268755 0.004719004870652509 -0.0003026079788824589 -0.00300703728482335 0.0022334667399518033 0.00991481005106675 0.9974456800958365 -0.02419746957533217
 -0.00030246628769572563 -0.003007034358527479 0.0003380059289498915 0.004719504761253992 0.9974456800958365 -0.02419746957533217 0.002234323644448751 0.00991472408253594
0.055454545454549996 0.0023844421828508357 0.011047953944415137 0.997247533726557 -0.026867390989752007 0.00039334016367483556 0.0052349300769306386 -0.0003456588430861153 -0.0033381187627753665
 0.997247533726557 -0.026867390989752007 0.002385399104161812 0.011047853882339883 -0.00034583247670180587 -0.0033381205832976797 0.00038769175141044755 0.005235541290974209
 0.00039334016367483556 0.0052349300769306386 -0.00034583247670180587 -0.0033381205832976797 0.00238440823557638 0.011048692379669012 0.9972475480438251 -0.026866650383149684
 -0.0003456588430861153 -0.0033381187627753665 0.00038769175141044755 0.005235541290974209 0.9972475480438251 -0.026866650383149684 0.002385460795497666 0.011048591510888073
0.056273447269699996 0.0024077810013888186 0.011219710316530277 0.9972168767896086 -0.027270411794265655 0.0004013072577618009 0.005312735082663184 -0.00035243472011042576 -0.003388078267756637
 0.9972168767896086 -0.027270411794265655 0.00240876633340517 0.011219607868588478 -0.0003526134426656391 -0.0033880798901422997 0.00039549047428702726 0.00531336430695675
 0.0004013072577618009 0.005312735082663184 -0.0003526134426656391 -0.0033880798901422997 0.0024077460191173883 0.011220459553906888 0.9972168914967815 -0.027269660252937047
 -0.00035243472011042576 -0.003388078267756637 0.00039549047428702726 0.00531336430695675 0.9972168914967815 -0.027269660252937047 0.0024088298016399566 0.011220356331416846
0.06252605252188 0.0025911412454753856 0.012538676918221974 0.9969758578912198 -0.030354045736452468 0.0004649232448731733 0.005907227855400745 -0.00040649160480359103 -0.003770056080726242
 0.9969758578912198 -0.030354045736452468 0.0025923571705337997 0.012538555264259925 -0.0004067115467862379 -0.003770055904222746 0.0004577387179368854 0.005908005762632814
 0.0004649232448731733 0.005907227855400745 -0.0004067115467862379 -0.003770055904222746 0.0025910978570676583 0.012539508520177562 0.9969758757492483 -0.030353210684786802
 -0.00040649160480359103 -0.003770056080726242 0.0004577387179368854 0.005908005762632814 0.9969758757492483 -0.030353210684786802 0.0025924350153271663 0.012539386366737635
0.06877865777407 0.0027837530286935947 0.013870861439035228 0.9967224408959596 -0.03344904918899999 0.0005334998028373034 0.00650243784972257 -0.00046468982746661 -0.0041529141100012145
 0.9967224408959596 -0.03344904918899999 0.0027852237106150146 0.013870718785867923 -0.00046495514892517874 -0.00415291160215756 0.0005248019553096751 0.006503385181459822
 0.0005334998028373034 0.00650243784972257 -0.00046495514892517874 -0.00415291160215756 0.0027837003486797583 0.013871775207427921 0.9967224622136809 -0.03344813057528506
 -0.00046468982746661 -0.0041529141100012145 0.0005248019553096751 0.006503385181459822 0.9967224622136809 -0.03344813057528506 0.002785317356312066 0.013871632377244453
0.07503126302626001 0.0029857941258501566 0.015216097330202896 0.9964564545580602 -0.036555411921111086 0.000607088211895772 0.007098317424734642 -0.0005270817631960089 -0.004536598514492203
 0.9964564545580602 -0.036555411921111086 0.002987543722041069 0.015215931822653673 -0.0005273965965365957 -0.0045365931053170695 0.0005967310910466075 0.007099456331802677
 0.000607088211895772 0.007098317424734642 -0.0005273965965365957 -0.0045365931053170695 0.0029857312725282137 0.01521709305015581 0.9964564796468492 -0.03655440969038056
 -0.0005270817631960089 -0.004536598514492203 0.0005967310910466075 0.007099456331802677 0.9964564796468492 -0.03655440969038056 0.002987654582246826 0.015216927728660203
0.08128386827845 0.003197442044909941 0.016574228787352638 0.996177727156678 -0.03967310815104273 0.0006857393198893055 0.007694816900996051 -0.0005937192607825338 -0.004921055028035057
 0.996177727156678 -0.03967310815104273 0.0031994947091143035 0.016574038508177926 -0.0005940877110659213 -0.0049210461099415325 0.0006735766025993066 0.0076961709604332655
 0.0006857393198893055 0.007694816900996051 -0.0005940877110659213 -0.0049210461099415325 0.0031973681398744422 0.016575306234629272 0.9961777563305038 -0.03967202223755388
 -0.0005937192607825338 -0.004921055028035057 0.0006735766025993066 0.0076961709604332655 0.9961777563305038 -0.03967202223755388 0.0031996241863204286 0.01657511653834231
0.08753647353064001 0.003418874052829531 0.0179451076680273 0.9958860866026796 -0.04280209958433517 0.0007695035052193726 0.008291884750232903 -0.0006646536246205166 -0.00530622876250699
 0.9958860866026796 -0.04280209958433517 0.0034212539376580185 0.017944890637805213 -0.0006650797697174369 -0.005306215690263478 0.0007553885052343942 0.008293478982227239
 0.0007695035052193726 0.008291884750232903 -0.0006650797697174369 -0.005306215690263478 0.0034187882204064052 0.017946266606506455 0.9958861201781506 -0.042800929914025884
 -0.0006646536246205166 -0.00530622876250699 0.0007553885052343942 0.008293478982227239 0.9958861201781506 -0.042800929914025884 0.0034214034232368886 0.017946050582858825
0.09378907878283 0.0036502671830296075 0.019328591292723112 0.9955813605291295 -0.045942337569607375 0.00085843064237715 0.00888946771793029 -0.0007399355933916065 -0.005692064079165899
 0.9955813605291295 -0.045942337569607375 0.003652998442320697 0.01932834546965028 -0.0007404234841145244 -0.005692046169848789 0.0008422163192501861 0.008891328602724798
 0.00085843064237715 0.00888946771793029 -0.0007404234841145244 -0.005692046169848789 0.0036501685500736165 0.019329831475125292 0.9955813988258527 -0.04594108405922445
 -0.0007399355933916065 -0.005692064079165899 0.0008422163192501861 0.008891328602724798 0.9955813988258527 -0.04594108405922445 0.0036531693164071344 0.01932958710225772
0.100041684035 0.0038917982311851788 0.020724540831240763 0.9952633763714798 -0.049093764670159946 0.0009525700683131084 0.009487510924653766 -0.0008196153173567827 -0.006078504482405597
 0.9952633763714798 -0.049093764670159946 0.003894905022733459 0.020724264110914 -0.0008201689774775792 -0.006078481015352918 0.0009341090376971838 0.009489666419377946
 0.0009525700683131084 0.009487510924653766 -0.0008201689774775792 -0.006078481015352918 0.0038916859266347062 0.02072586199973755 0.9952634197125231 -0.04909242722664116
 -0.0008196153173567827 -0.006078504482405597 0.0009341090376971838 0.009489666419377946 0.9952634197125231 -0.04909242722664116 0.0038950986541500675 0.020725587186161635
0.1059090909091 0.004127827094919555 0.022045707670709007 0.9949527700561643 -0.052061163285653085 0.001045693901864847 0.01004907937456678 -0.0008984301331341637 -0.006441636992749154
 0.9949527700561643 -0.052061163285653085 0.004131308260394733 0.022045399986627433 -0.000899049146339937 -0.006441607621274481 0.0010249902338447373 0.010051538086478864
 0.001045693901864847 0.01004907937456678 -0.000899049146339937 -0.006441607621274481 0.004127701170382637 0.022047104590071673 0.9949528184276167 -0.05205974698845539
 -0.0008984301331341637 -0.006441636992749154 0.0010249902338447373 0.010051538086478864 0.9949528184276167 -0.05205974698845539 0.004131524482006172 0.022046799246597245
0.1062942892872 0.004143643741725056 0.022132820085378303 0.9949319614400101 -0.05225631584036382 0.001051970549326566 0.010085957934287883 -0.00090374233444693 -0.006465492547771603
 0.9949319614400101 -0.05225631584036382 0.004147150229538076 0.02213251030047746 -0.0009043657606837479 -0.0064654627645538715 0.0010311150944215927 0.010088437489716539
 0.001051970549326566 0.010085957934287883 -0.0009043657606837479 -0.0064654627645538715 0.004143516896275935 0.022134221968583008 0.9949320101517865 -0.05225489436376655
 -0.00090374233444693 -0.006465492547771603 0.0010311150944215927 0.010088437489716539 0.9949320101517865 -0.05225489436376655 0.004147367975840006 0.02213391455283048
0.11254689453939999 0.004405979988228035 0.02355329455483506 0.9945869429873366 -0.05542991932023127 0.0011566802489099434 0.01068475081076751 -0.0009923655447418038 -0.0068529698627143405
 0.9945869429873366 -0.05542991932023127 0.0044099103452472106 0.0235529494747466 -0.0009930627067335626 -0.0068529329670968435 0.0011332823329077142 0.01068758538798051
 0.0011566802489099434 0.01068475081076751 -0.0009930627067335626 -0.0068529329670968435 0.004405837733749004 0.02355477687042456 0.9945869974000554 -0.05542841370106582
 -0.0009923655447418038 -0.0068529698627143405 0.0011332823329077142 0.01068758538798051 0.9945869974000554 -0.05542841370106582 0.004410153552060891 0.02355443462057549
0.11879949979160001 0.0046789829473430624 0.02498583071261562 0.9942281482715889 -0.0586144973217072 0.0012667466957540046 0.011283830157991762 -0.0010855331841178905 -0.00724087698542171
 0.9942281482715889 -0.0586144973217072 0.004683361357753377 0.02498544804300772 -0.001086308024284088 -0.007240832143344236 0.0012406579753399126 0.0112870522449342
 0.0012667466957540046 0.011283830157991762 -0.001086308024284088 -0.007240832143344236 0.004678824416530154 0.024987393165173028 0.9942282087194658 -0.058612907443086205
 -0.0010855331841178905 -0.00724087698542171 0.0012406579753399126 0.0112870522449342 0.9942282087194658 -0.058612907443086205 0.004683631359188456 0.024987013778380137
0.1250521050438 0.004962828269656926 0.02643029542109054 0.993855404617327 -0.06180996657579903 0.0013822167517399165 0.011883135156434937 -0.0011832927973341998 -0.007629153408288342
 0.993855404617327 -0.06180996657579903 0.0049676789314655944 0.026429872803377746 -0.0011841492307838272 -0.007629099747837384 0.0013532885912730587 0.011886778784308443
 0.0013822167517399165 0.011883135156434937 -0.0011841492307838272 -0.007629099747837384 0.004962652595619392 0.026431937704526273 0.9938554714387506 -0.06180829231092063
 -0.0011832927973341998 -0.007629153408288342 0.0013532885912730587 0.011886778784308443 0.9938554714387506 -0.06180829231092063 0.004967977049676154 0.026431518806400923
0.131304710296 0.00525769124649669 0.027886555474301283 0.9934685394740451 -0.0650162387547552 0.001503136580151788 0.012482603590927196 -0.0012856912102303282 -0.00801773753148538
 0.9934685394740451 -0.0650162387547552 0.005263038374111871 0.027886090485063242 -0.0012866331246112466 -0.008017674142882973 0.0014712200666767128 0.012486704350511446
 0.001503136580151788 0.012482603590927196 -0.0012866331246112466 -0.008017674142882973 0.005257497562430527 0.027888277270064196 0.9934686130121995 -0.06501447996877142
 -0.0012856912102303282 -0.00801773753148538 0.0014712200666767128 0.012486704350511446 0.9934686130121995 -0.06501447996877142 0.005263365919197298 0.027887816414008525
0.1375573155481 0.005487699153719912 0.029164194563624183 0.9931434448578159 -0.06804289604839998 0.0016120905896707997 0.01306245026909017 -0.001375350354450932 -0.008386825620465187
 0.9931434448578159 -0.06804289604839998 0.005493567878171782 0.029163696415872114 -0.001376383225363829 -0.0083867526283724 0.001577109650842586 0.013066995481746987
 0.0016120905896707997 0.01306245026909017 -0.001376383225363829 -0.0083867526283724 0.005487485819827475 0.029165996082988293 0.9931435254144537 -0.0680410526719659
 -0.001375350354450932 -0.008386825620465187 0.001577109650842586 0.013066995481746987 0.9931435254144537 -0.0680410526719659 0.005493927006146094 0.029165501498762507
0.1438099208003 0.005725483967065302 0.030436431090369077 0.9928074780189428 -0.07106322281304236 0.00172543818643763 0.0136407082016691 -0.0014686002143380755 -0.008754469422156427
 0.9928074780189428 -0.07106322281304236 0.005731898645729545 0.03043589821170862 -0.0014697281763714613 -0.00875438595689973 0.0016872567247741264 0.013645729756506051
 0.00172543818643763 0.0136407082016691 -0.0014697281763714613 -0.00875438595689973 0.0057252499762291496 0.030438312055868912 0.9928075659354556 -0.07106129471334179
 -0.0014686002143380755 -0.008754469422156427 0.0016872567247741264 0.013645729756506051 0.9928075659354556 -0.07106129471334179 0.005732290802937871 0.030437782042862887
0.1500625260525 0.005970977452413832 0.031703198280327735 0.9924607097265985 -0.0740771842080756 0.0018431492348384133 0.014217343654064452 -0.0015654117201845611 -0.009120636496821646
 0.9924607097265985 -0.0740771842080756 0.005977962460872159 0.03170262901932141 -0.0015666389009233595 -0.009120541654406181 0.0018016317411545543 0.014222874585230106
 0.0018431492348384133 0.014217343654064452 -0.0015666389009233595 -0.009120541654406181 0.005970721788378923 0.03170515840232336 0.9924608053479019 -0.07407517124932324
 -0.0015654117201845611 -0.009120636496821646 0.0018016317411545543 0.014222874585230106 0.9924608053479019 -0.07407517124932324 0.005978389092405069 0.03170459117271122
0.15631513130469998 0.006224111067883972 0.032964431632973856 0.992103210913295 -0.07708474479630231 0.0019651933485950466 0.014792323322028275 -0.0016657555413340985 -0.009485294998503575
