! Created with skrf 1.8.0 (http://scikit-rf.org).
# GHz S RI R 50.0 
!freq ReS11 ImS11 ReS12 ImS12 ReS13 ImS13
! ReS14 ImS14
! ReS21 ImS21 ReS22 ImS22 ReS23 ImS23
! ReS24 ImS24
! ReS31 ImS31 ReS32 ImS32 ReS33 ImS33
! ReS34 ImS34
! ReS41 ImS41 ReS42 ImS42 ReS43 ImS43
! ReS44 ImS44
!
0.0 0.001820134571872 0.0 0.9981798654281 0.0 7.088392082598e-05 0.0 -7.088392058715e-05 8.680776645806843e-21
 0.9981798654281 0.0 0.00182013457186 0.0 -7.08839205873e-05 8.680776645825211e-21 7.088392082594e-05 0.0
 7.088392082598e-05 0.0 -7.08839205873e-05 8.680776645825211e-21 0.001820134564415 0.0 0.9981798654207 0.0
 -7.088392058715e-05 8.680776645806843e-21 7.088392082594e-05 0.0 0.9981798654207 0.0 0.001820134564389 0.0
0.005 0.001959316774394879 0.0014840647833133836 0.9980036267885601 -0.003811963578479058 0.00010040381852573606 0.0008054186974578346 -9.736998339689627e-05 -0.000501085347319748
 0.9980036267885601 -0.003811963578479058 0.001959289687369246 0.0014840806575530962 -9.737308448923328e-05 -0.0005010877555806113 0.00010056314174021735 0.0008053579864404645
 0.00010040381852573606 0.0008054186974578346 -9.737308448923328e-05 -0.0005010877555806113 0.0019593154226955917 0.0014841328979367289 0.9980036271742221 -0.003811896512819614
 -9.736998339689627e-05 -0.000501085347319748 0.00010056314174021735 0.0008053579864404645 0.9980036271742221 -0.003811896512819614 0.001959291797252294 0.0014841466612321977
0.006252605252188 0.0019961074059577475 0.001860898171044199 0.9979567073418925 -0.0047658428764949 0.00010897202391246863 0.0010071350755485732 -0.00010498459681199686 -0.0006269924656585857
 0.9979567073418925 -0.0047658428764949 0.001996065063122885 0.001860918305722808 -0.00010498942210080017 -0.0006269954344845483 0.0001092209486324199 0.0010070561755983172
 0.00010897202391246863 0.0010071350755485732 -0.00010498942210080017 -0.0006269954344845483 0.001996105210872262 0.001860983307293071 0.9979567078634078 -0.004765759050928895
 -0.00010498459681199686 -0.0006269924656585857 0.0001092209486324199 0.0010070561755983172 0.9979567078634078 -0.004765759050928895 0.001996068280073948 0.0018610007918896975
0.01250521050438 0.0021914528882639654 0.0037605004782929837 0.9977057591630795 -0.009532170911735338 0.00015882030771485428 0.002014434331167631 -0.00014892168497937437 -0.0012568533636211471
 0.9977057591630795 -0.009532170911735338 0.002191283799915793 0.0037605437088575277 -0.00014894069739952183 -0.0012568588405464842 0.00015981290779333213 0.0020142436833901056
 0.00015882030771485428 0.002014434331167631 -0.00014894069739952183 -0.0012568588405464842 0.002191443570445644 0.003760670495308783 0.9977057607050462 -0.009532003487782804
 -0.00014892168497937437 -0.0012568533636211471 0.00015981290779333213 0.0020142436833901056 0.9977057607050462 -0.009532003487782804 0.0021912961061584715 0.0037607082752905367
0.01875781575657 0.0024066556097574626 0.005686749142304982 0.9974266678982651 -0.014310517458086557 0.00022055437694966005 0.0030225550081152026 -0.00020284316612441928 -0.0018885964026087456
 0.9974266678982651 -0.014310517458086557 0.0024062756319286633 0.005686818701185092 -0.00020288555841298367 -0.0018886038248037277 0.00022278400448033303 0.0030222125012588632
 0.00022055437694966005 0.0030225550081152026 -0.00020288555841298367 -0.0018886038248037277 0.0024066342214904583 0.005687003933304049 0.9974266709404925 -0.014310266464394117
 -0.00020284316612441928 -0.0018885964026087456 0.00022278400448033303 0.0030222125012588632 0.9974266709404925 -0.014310266464394117 0.002406302859677368 0.005687064983132269
0.02501042100875 0.0026421821792921825 0.007636863098817683 0.9971190651859507 -0.01910312185701484 0.00029430031802305597 0.004031498860458077 -0.00026689064233391093 -0.002521881045644865
 0.9971190651859507 -0.01910312185701484 0.002641507311895919 0.007636962459445501 -0.0002669654941606651 -0.002521889739043515 0.0002982603767616933 0.004030957325733635
 0.00029430031802305597 0.004031498860458077 -0.0002669654941606651 -0.002521889739043515 0.002642143780406674 0.007637202550227306 0.9971190702263365 -0.0191027872768041
 -0.00026689064233391093 -0.002521881045644865 0.0002982603767616933 0.004030957325733635 0.9971190702263365 -0.0191027872768041 0.002641555294881768 0.007637289982205408
0.03126302626094 0.0028984796880639325 0.00960937210027646 0.996782566253365 -0.023910895322934438 0.0003801836333375647 0.005041170602011254 -0.00034120062221198425 -0.0031564542558142413
 0.996782566253365 -0.023910895322934438 0.002897426023414915 0.009609504972167211 -0.000341316918750294 -0.003156463434121349 0.00038636800549549934 0.005040375769762254
 0.0003801836333375647 0.005041170602011254 -0.000341316918750294 -0.003156463434121349 0.0028984193218225605 0.009609796120105261 0.9967825737887464 -0.023910477065645787
 -0.00034120062221198425 -0.0031564542558142413 0.00038636800549549934 0.005040375769762254 0.9967825737887464 -0.023910477065645787 0.002897500577534518 0.009609913178772146
0.037515631513130004 0.003175984657706397 0.011603287970309573 0.9964167793053305 -0.028734249638099667 0.0004783280680335245 0.006051435948031949 -0.00042590551842487196 -0.003792092519406144
 0.9964167793053305 -0.028734249638099667 0.0031744683446328025 0.011603458297400835 -0.00042607215968430554 -0.0037921012838673883 0.0004872312883143655 0.0060503263785601615
 0.0004783280680335245 0.006051435948031949 -0.00042607215968430554 -0.0037921012838673883 0.0031758973597051554 0.011603796435374984 0.996416789844748 -0.028733747592503734
 -0.00042590551842487196 -0.003792092519406144 0.0004872312883143655 0.0060503263785601615 0.996416789844748 -0.028733747592503734 0.0031745752786840665 0.01160394649472244
0.043768236765320004 0.0034751264869633774 0.013617852378185942 0.9960213094087593 -0.03357334931700375 0.0005888550279200923 0.007062139285737615 -0.0005211339778452434 -0.004428584231751103
 0.9960213094087593 -0.03357334931700375 0.0034730637011359316 0.013618064339024672 -0.0005213597840830991 -0.004428591571147679 0.0006009723483648325 0.007060646292291485
 0.0005888550279200923 0.007062139285737615 -0.0005213597840830991 -0.004428591571147679 0.003475007275784713 0.013618445163215287 0.9960213234674398 -0.03357276332256352
 -0.0005211339778452434 -0.004428584231751103 0.0006009723483648325 0.007060646292291485 0.9960213234674398 -0.03357276332256352 0.0034732088086016476 0.013618631725317985
0.050020842017509996 0.0037963290175541827 0.01565243261706319 0.9955957604989824 -0.03842821576802603 0.0007118832065193549 0.008073110986655101 -0.000627010973546252 -0.00506572244441159
 0.9955957604989824 -0.03842821576802603 0.0037936359353410486 0.01565269062587801 -0.0006273046886787459 -0.005065727235124487 0.0007277106035674194 0.008071158555547502
 0.0007118832065193549 0.008073110986655101 -0.0006273046886787459 -0.005065727235124487 0.0037961728968944294 0.01565310958102441 0.9955957786035448 -0.03842754562911927
 -0.000627010973546252 -0.00506572244441159 0.0007277106035674194 0.008071158555547502 0.9955957786035448 -0.03842754562911927 0.0037938249963819135 0.015653336275679358
0.055454545454549996 0.004093705314284744 0.017436364949987626 0.9952012102123183 -0.042659993269347156 0.0008290408782956535 0.0089517543640152 -0.0007277634946817117 -0.005619780047684883
 0.9952012102123183 -0.042659993269347156 0.004090396391922208 0.01743666674549182 -0.000728123268090994 -0.005619781623782586 0.0008484957795205967 0.008949335183954726
 0.0008290408782956535 0.0089517543640152 -0.000728123268090994 -0.005619781623782586 0.004093513046041937 0.01743711494591351 0.9952012322688772 -0.04265924981616415
 -0.0007277634946817117 -0.005619780047684883 0.0008484957795205967 0.008949335183954726 0.9952012322688772 -0.04265924981616415 0.004090628331467442 0.017437379564338096
0.056273447269699996 0.004140011309497325 0.017706470465242447 0.9951397366003503 -0.043298778377529705 0.0008475283046104396 0.00908417100987975 -0.0007436577904371695 -0.005703301328348832
 0.9951397366003503 -0.043298778377529705 0.0041366040826845765 0.017706779174189845 -0.000744028084084258 -0.005703302334471099 0.0008675624507859867 0.009081675719652075
 0.0008475283046104396 0.00908417100987975 -0.000744028084084258 -0.005703302334471099 0.0041398132645772195 0.017707231457087174 0.995139759288488 -0.04329802385854371
 -0.0007436577904371695 -0.005703301328348832 0.0008675624507859867 0.009081675719652075 0.995139759288488 -0.04329802385854371 0.004136842861367491 0.01770750204227175
0.06252605252188 0.004506588023776176 0.01977945407975621 0.9946528426597843 -0.048184902570162134 0.0009959027945386921 0.010095130903941683 -0.0008711919577506508 -0.0063411142470051265
 0.9946528426597843 -0.048184902570162134 0.004502382756380497 0.019779818382001362 -0.0008716474266837221 -0.006341110120458352 0.0010206410065024631 0.010092001844646953
 0.0009959027945386921 0.010095130903941683 -0.0008716474266837221 -0.006341110120458352 0.004506343021012447 0.019780298927725246 0.9946528704829832 -0.04818406340678426
 -0.0008711919577506508 -0.0063411142470051265 0.0010206410065024631 0.010092001844646953 0.9946528704829832 -0.04818406340678426 0.004502676999310225 0.019780617291190846
0.06877865777407 0.004896469591005034 0.021870901235238216 0.994134685171383 -0.05308640653346616 0.001157115710398436 0.011105795014820837 -0.0010097271505266944 -0.00697895263276311
 0.994134685171383 -0.05308640653346616 0.004891382315756871 0.021871326268925986 -0.0010102763193998545 -0.006978941913457654 0.0011870558800288805 0.011101933707902429
 0.001157115710398436 0.011105795014820837 -0.0010102763193998545 -0.006978941913457654 0.004896172575517148 0.021871829766074106 0.9941347186955358 -0.05308548241449797
 -0.0010097271505266944 -0.00697895263276311 0.0011870558800288805 0.011101933707902429 0.9941347186955358 -0.05308548241449797 0.004891737749881915 0.021872199927498715
0.07503126302626001 0.005310062252037258 0.023980348734783316 0.9935848726785548 -0.058003071781501575 0.0013312724537642272 0.01211596127073896 -0.001159373071692268 -0.007616605296698313
 0.9935848726785548 -0.058003071781501575 0.005304008907484257 0.023980839888002262 -0.0011600243935129216 -0.007616586412679866 0.0013669129664583893 0.012111261589981196
 0.0013312724537642272 0.01211596127073896 -0.0011600243935129216 -0.007616586412679866 0.005309708147019094 0.02398136075028314 0.9935849124862508 -0.05800206237322189
 -0.001159373071692268 -0.007616605296698313 0.0013669129664583893 0.012111261589981196 0.9935849124862508 -0.05800206237322189 0.005304431238602971 0.02398178686461348
0.08128386827845 0.005747768018439077 0.026107345346110807 0.9930030162007218 -0.0629346502046841 0.0015184746079799456 0.013125421727679144 -0.0013202353230881733 -0.008253857988178442
 0.9930030162007218 -0.0629346502046841 0.005740664426565287 0.026107908262687874 -0.0013209971793877906 -0.008253829255805844 0.001560314250837758 0.013119769821487466
 0.0015184746079799456 0.013125421727679144 -0.0013209971793877906 -0.008253829255805844 0.005747351723436596 0.026108440646443177 0.9930030628924874 -0.06293355512861637
 -0.0013202353230881733 -0.008253857988178442 0.001560314250837758 0.013119769821487466 0.9930030628924874 -0.06293355512861637 0.005741159336651753 0.026108927007986713
0.08753647353064001 0.006209984579381636 0.02825144695302749 0.9923887296112952 -0.06788086891666473 0.0017188197601185828 0.014133962962104531 -0.0014924152671775212 -0.008890493118190951
 0.9923887296112952 -0.06788086891666473 0.006201746422723955 0.028252087539359406 -0.0014932959678735358 -0.008890452742326553 0.0017673576216646473 0.014127237177300932
 0.0017188197601185828 0.014133962962104531 -0.0014932959678735358 -0.008890452742326553 0.006209500968419432 0.028252625324730603 0.992388783806685 -0.06787968776264883
 -0.0014924152671775212 -0.008890493118190951 0.0017673576216646473 0.014127237177300932 0.992388783806685 -0.06787968776264883 0.0062023195678461455 0.0282531763723118
0.09378907878283 0.006697105170498603 0.0304122130933311 0.9917416299817859 -0.07284143372729567 0.0019324013262102778 0.015141366378074823 -0.001676009884215342 -0.009526289579436024
 0.9917416299817859 -0.07284143372729567 0.006687647969654556 0.03041293752617232 -0.001677017667406335 -0.009526235653660767 0.001988136689112427 0.01513343718547451
 0.0019324013262102778 0.015141366378074823 -0.001677017667406335 -0.009526235653660767 0.006696549091253009 0.03041347431421906 0.9917416923217722 -0.07284016605002606
 -0.001676009884215342 -0.009526289579436024 0.001988136689112427 0.01513343718547451 0.9917416923217722 -0.07284016605002606 0.006688304977904636 0.030414094637183652
0.100041684035 0.007209518417494703 0.03258920443430291 0.9910613379052966 -0.07781603169153989 0.0021593083807420455 0.01614740844934922 -0.001871111624767207 -0.010161022642925269
 0.9910613379052966 -0.07781603169153989 0.007198757508528964 0.03259001916950604 -0.0018722546563327055 -0.010160953149756255 0.002222740608317803 0.016138138371200803
 0.0021593083807420455 0.01614740844934922 -0.0018722546563327055 -0.010160953149756255 0.0072088846892106135 0.032590548272958146 0.9910614090528441 -0.07781467701230768
 -0.001871111624767207 -0.010161022642925269 0.002222740608317803 0.016138138371200803 0.9910614090528441 -0.07781467701230768 0.007199503977092304 0.032591242618326605
0.1059090909091 0.007713709279583636 0.034646444545286786 0.9903924331659015 -0.08249663370412678 0.0023844313594415505 0.017090030842018603 -0.0020647377665379417 -0.010755481735255205
 0.9903924331659015 -0.08249663370412678 0.007701647793947453 0.034647350148434446 -0.002066015076377791 -0.010755395700137409 0.002455540411075978 0.017079370308024307
 0.0023844313594415505 0.017090030842018603 -0.002066015076377791 -0.010755395700137409 0.007712997948370773 0.03464786569438889 0.9903925132032094 -0.08249519691783253
 -0.0020647377665379417 -0.010755481735255205 0.002455540411075978 0.017079370308024307 0.9903925132032094 -0.08249519691783253 0.0077024832731146025 0.03464863396680716
0.1062942892872 0.0077476081587452995 0.03478198089349903 0.9903474778018382 -0.08280433302629087 0.002399625488037789 0.01715186092895545 -0.0020778082602450052 -0.010794463898758232
 0.9903474778018382 -0.08280433302629087 0.00773545867083409 0.03478289267584196 -0.0020790946333705427 -0.010794376709887097 0.002471253905434835 0.01714110446842882
 0.002399625488037789 0.01715186092895545 -0.0020790946333705427 -0.010794376709887097 0.007746891571735495 0.03478340711117748 0.9903475584444312 -0.08280289083258537
 -0.0020778082602450052 -0.010794463898758232 0.002471253905434835 0.01714110446842882 0.9903475584444312 -0.08280289083258537 0.007736300164251485 0.03478418039170419
0.11254689453939999 0.008311753254570595 0.036990100208568584 0.9895996782137565 -0.08780599259234724 0.002653432536515687 0.018154491027714173 -0.002296182731315717 -0.01142638123977829
 0.9895996782137565 -0.08780599259234724 0.008298130087317345 0.03699111608258152 -0.0022976204658513265 -0.011426274116348365 0.0027337563068425097 0.01814209460061298
 0.002653432536515687 0.018154491027714173 -0.0022976204658513265 -0.011426274116348365 0.008310948568057374 0.03699160856053598 0.9895997690644857 -0.08780446233810431
 -0.002296182731315717 -0.01142638123977829 0.0027337563068425097 0.01814209460061298 0.9895997690644857 -0.08780446233810431 0.008299072134528254 0.03699246586389246
0.11879949979160001 0.008902327384163288 0.039213116847092715 0.988817572091905 -0.09282065105043105 0.0029208045745167804 0.019155061580747392 -0.002526312995528252 -0.012056538869289294
 0.988817572091905 -0.09282065105043105 0.008887145184827312 0.03921424416900576 -0.0025279100373839123 -0.012056409462168571 0.0030103225705994403 0.019140863449467256
 0.0029208045745167804 0.019155061580747392 -0.0025279100373839123 -0.012056409462168571 0.00890142932548039 0.03921470708455846 0.988817673891209 -0.09281903215581028
 -0.002526312995528252 -0.012056538869289294 0.0030103225705994403 0.019140863449467256 0.988817673891209 -0.09281903215581028 0.008888193276989028 0.03921565368355381
0.1250521050438 0.009519698833861752 0.04145058115702386 0.9880007970750729 -0.0978479357912647 0.003201811648403061 0.02015333119968099 -0.0027682718745338326 -0.012684697335141137
 0.9880007970750729 -0.0978479357912647 0.009502871975083028 0.04145182760776545 -0.002770036094863787 -0.012684543185244871 0.0033010223202296 0.020137161409681057
 0.003201811648403061 0.02015333119968099 -0.002770036094863787 -0.012684543185244871 0.009518702096793487 0.04145225302609485 0.9880009105923977 -0.09784622764547235
 -0.0027682718745338326 -0.012684697335141137 0.0033010223202296 0.020137161409681057 0.9880009105923977 -0.09784622764547235 0.009504031562722271 0.04145329439008464
0.131304710296 0.0101642302786048 0.043702038700584686 0.987148995764691 -0.10288746169689425 0.0034965186423196984 0.021149054422418476 -0.0030221269013127024 -0.01331061357862863
 0.987148995764691 -0.10288746169689425 0.010145672836003986 0.04370341229994353 -0.0030240660958004884 -0.013310432117235132 0.003605919880834237 0.02113073474113582
 0.0034965186423196984 0.021149054422418476 -0.0030240660958004884 -0.013310432117235132 0.010163129522345275 0.04370379194592428 0.9871491218002624 -0.10288566365647972
 -0.0030221269013127024 -0.01331061357862863 0.003605919880834237 0.02113073474113582 0.9871491218002624 -0.10288566365647972 0.010146949326494379 0.04370493375323445
0.1375573155481 0.01069851934113953 0.04567341806028912 0.9863996518353157 -0.10764501315287238 0.00377022093695784 0.022113580779017587 -0.00325305630543931 -0.013905764485895948
 0.9863996518353157 -0.10764501315287238 0.01067814049716905 0.04567490068244766 -0.0032551822108560645 -0.013905555199518405 0.003890061197688819 0.022093120406091425
 0.00377022093695784 0.022113580779017587 -0.0032551822108560645 -0.013905555199518405 0.01069731018395459 0.04567525241607674 0.9863997909938874 -0.10764312481332303
 -0.00325305630543931 -0.013905764485895948 0.003890061197688819 0.022093120406091425 0.9863997909938874 -0.10764312481332303 0.010679538676906313 0.04567647457427443
0.1438099208003 0.011251877474004893 0.04763250157139648 0.9856233983538084 -0.11238858058708627 0.004054896236527531 0.02307312541627868 -0.0034931393819303794 -0.014496266628947397
 0.9856233983538084 -0.11238858058708627 0.011229590225894601 0.04763409993136649 -0.0034954603940168076 -0.014496026957249357 0.004185627691080003 0.02305035968119329
 0.004054896236527531 0.02307312541627868 -0.0034954603940168076 -0.014496026957249357 0.011250554695461134 0.04763441672973643 0.9856235514396283 -0.11238660131579875
 -0.0034931393819303794 -0.014496266628947397 0.004185627691080003 0.02305035968119329 0.9856235514396283 -0.11238660131579875 0.0112311153311478 0.047635723583699816
0.1500625260525 0.011824079714973108 0.04957906919952694 0.9848204657330408 -0.11711798884029528 0.0043504260741526555 0.024027555999699492 -0.003742259060187494 -0.01508199333267599
 0.9848204657330408 -0.11711798884029528 0.011799796768580392 0.04958079044500853 -0.003744783549329222 -0.015081720612136095 0.00449249750610257 0.024002314224985406
 0.0043504260741526555 0.024027555999699492 -0.003744783549329222 -0.015081720612136095 0.011822638071157705 0.04958106484355791 0.9848206335763326 -0.11711591798295816
 -0.003742259060187494 -0.01508199333267599 0.00449249750610257 0.024002314224985406 0.9848206335763326 -0.11711591798295816 0.011801453987373322 0.04958246107403999
0.15631513130469998 0.012414899135721958 0.051512907494006006 0.9839910859708211 -0.12183306470571006 0.004656690375648749 0.02497674293026836 -0.004000296629913001 -0.015662821009177874
 0.9839910859708211 -0.12183306470571006 0.01238853289817582 0.051514759219481614 -0.004003032940513717 -0.015662512473689934 0.00481054711966416 0.024948848505690804
