! Created with skrf 1.8.0 (http://scikit-rf.org).
# GHz S RI R 50.0 
!freq ReS11 ImS11 ReS12 ImS12 ReS13 ImS13
! ReS14 ImS14
! ReS21 ImS21 ReS22 ImS22 ReS23 ImS23
! ReS24 ImS24
! ReS31 ImS31 ReS32 ImS32 ReS33 ImS33
! ReS34 ImS34
! ReS41 ImS41 ReS42 ImS42 ReS43 ImS43
! ReS44 ImS44
!
0.0 0.001481438851419 0.0 0.9985185611258 0.0 5.713019128168e-05 0.0 -5.713019181383e-05 6.996430653948123e-21
 0.9985185611258 0.0 0.001481438851435 0.0 -5.71301918148e-05 6.996430654066914e-21 5.713019128117e-05 0.0
 5.713019128168e-05 0.0 -5.71301918148e-05 6.996430654066914e-21 0.001481438862814 0.0 0.9985185611372 0.0
 -5.713019181383e-05 6.996430653948123e-21 5.713019128117e-05 0.0 0.9985185611372 0.0 0.001481438862782 0.0
0.005 0.0015937543394561248 0.0012103959838861572 0.9983764957979143 -0.003103489170658242 8.018627044664661e-05 0.0006397951720890021 -7.784149385001075e-05 -0.00039981449899688127
 0.9983764957979143 -0.003103489170658242 0.0015937563772555267 0.0012103948025672735 -7.784499851516649e-05 -0.00039981719800208447 8.016695009041055e-05 0.0006398025988105158
 8.018627044664661e-05 0.0006397951720890021 -7.784499851516649e-05 -0.00039981719800208447 0.0015937521591703214 0.0012103300208039648 0.9983764954500384 -0.0031035562353698776
 -7.784149385001075e-05 -0.00039981449899688127 8.016695009041055e-05 0.0006398025988105158 0.9983764954500384 -0.0031035562353698776 0.0015937578643734367 0.0012103266373907917
0.006252605252188 0.0016231605147688265 0.001517771323884139 0.998339074508669 -0.0038801292641042224 8.674063369315638e-05 0.000800052634969697 -8.366521526257593e-05 -0.0005002904120904548
 0.998339074508669 -0.0038801292641042224 0.0016231636997767632 0.0015177697858761519 -8.367066878695861e-05 -0.0005002937403532022 8.671044816576494e-05 0.0008000622655644598
 8.674063369315638e-05 0.000800052634969697 -8.367066878695861e-05 -0.0005002937403532022 0.0016231571734155368 0.0015176888873206715 0.9983390740321991 -0.0038802130819684667
 -8.366521526257593e-05 -0.0005002904120904548 8.671044816576494e-05 0.0008000622655644598 0.9983390740321991 -0.0038802130819684667 0.0016231660919675999 0.0015176845895915332
0.01250521050438 0.0017776653710333177 0.003067474213705928 0.9981411989694401 -0.007761123088016972 0.00012415607801681425 0.0016004552060090939 -0.00011658034388957694 -0.0010030489353988659
 0.9981411989694401 -0.007761123088016972 0.0017776780842437608 0.0030674705290950313 -0.0001166018357402317 -0.0010030550945557192 0.000124035728252026 0.0016004782111350758
 0.00012415607801681425 0.0016004552060090939 -0.0001166018357402317 -0.0010030550945557192 0.0017776525856302143 0.0030673096427974132 0.9981411976272243 -0.0077612904840299955
 -0.00011658034388957694 -0.0010030489353988659 0.000124035728252026 0.0016004782111350758 0.9981411976272243 -0.0077612904840299955 0.0017776882028212929 0.003067300337714374
0.01875781575657 0.0019452808481570498 0.0046393630288685105 0.9979246956317497 -0.011652439578485236 0.00016946167333167802 0.0024017616412738358 -0.00015597511974360065 -0.0015075442647540294
 0.9979246956317497 -0.011652439578485236 0.0019453094065739716 0.004639356583639244 -0.00015602304775658217 -0.001507552664909095 0.00016919137518153188 0.00240180248875826
 0.00016946167333167802 0.0024017616412738358 -0.00015602304775658217 -0.001507552664909095 0.0019452525324062874 0.004639116549181432 0.9979246930365188 -0.011652690448097164
 -0.00015597511974360065 -0.0015075442647540294 0.00016919137518153188 0.00240180248875826 0.9979246930365188 -0.011652690448097164 0.0019453325758368224 0.004639101429204625
0.02501042100875 0.002126325237772484 0.006231244849430901 0.9976893164573105 -0.015555974633860206 0.00022274376534772976 0.003204014616265681 -0.0002019459660245294 -0.0020135511359157567
 0.9976893164573105 -0.015555974633860206 0.002126375938617583 0.006231235024509624 -0.00020203060433159853 -0.0020135610841060542 0.0002222637447673375 0.003204078467561183
 0.00022274376534772976 0.003204014616265681 -0.00020203060433159853 -0.0020135610841060542 0.0021262753133475154 0.006230916687665828 0.9976893122225678 -0.015556308927371434
 -0.0002019459660245294 -0.0020135511359157567 0.0002222637447673375 0.003204078467561183 0.9976893122225678 -0.015556308927371434 0.0021264174800861885 0.006230894853088371
0.03126302626094 0.0023211036417531117 0.007841995984992944 0.9974348004065438 -0.019472545402752076 0.00028408923462730246 0.004007182033044489 -0.0002545866679615163 -0.0025209138375609113
 0.9974348004065438 -0.019472545402752076 0.0023211827654974495 0.007841982156679604 -0.0002547181882230562 -0.002520924536443353 0.0002833396711801316 0.004007274745830981
 0.00028408923462730246 0.004007182033044489 -0.0002547181882230562 -0.002520924536443353 0.00232102603428661 0.007841586414156228 0.9974347941444522 -0.019472963080427248
 -0.0002545866679615163 -0.0025209138375609113 0.0002833396711801316 0.004007274745830981 0.9974347941444522 -0.019472963080427248 0.002321247998856277 0.007841556873278834
0.037515631513130004 0.00252991462528336 0.009470887446571133 0.9971608802862539 -0.023402564752258666 0.000353584648067628 0.004811202364755115 -0.0003139890745384769 -0.0030295008644702372
 0.9971608802862539 -0.023402564752258666 0.002530028437989421 0.009470868986885607 -0.0003141775567814974 -0.003029511411899632 0.00035250565008960387 0.004811330498927909
 0.000353584648067628 0.004811202364755115 -0.0003141775567814974 -0.003029511411899632 0.0025298032661403135 0.009470396781156803 0.9971608716108312 -0.02340306578967569
 -0.0003139890745384769 -0.0030295008644702372 0.00035250565008960387 0.004811330498927909 0.9971608716108312 -0.02340306578967569 0.002530122685370127 0.009470358449901345
0.043768236765320004 0.0027530528058429668 0.011117379628732353 0.9968672855345768 -0.02734624651750596 0.0004313158661339715 0.0056159984454522876 -0.0003802433492350905 -0.00353919112521045
 0.9968672855345768 -0.02734624651750596 0.0027532075607708817 0.011117355906016809 -0.00038049878827753304 -0.003539200514099226 0.00042984745937466577 0.005616169270178895
 0.0004313158661339715 0.0056159984454522876 -0.00038049878827753304 -0.003539200514099226 0.0027529016285138524 0.01111680823037165 0.9968672740584105 -0.027346830900720587
 -0.0003802433492350905 -0.00353919112521045 0.00042984745937466577 0.005616169270178895 0.9968672740584105 -0.027346830900720587 0.0027533361446462805 0.011116759931635715
0.050020842017509996 0.0029908100448712985 0.012781037489191875 0.9965537436121551 -0.031303690252066294 0.000517367805513694 0.006421483167257872 -0.00045343806571797866 -0.004049868244117866
 0.9965537436121551 -0.031303690252066294 0.00299101198460639 0.012781007868484406 -0.0004537703753816448 -0.004049875362363022 0.0005154499288908301 0.006421704668401236
 0.000517367805513694 0.006421483167257872 -0.0004537703753816448 -0.004049875362363022 0.002990612985423847 0.01278038577521817 0.9965537289462337 -0.031304357969662674
 -0.00045343806571797866 -0.004049868244117866 0.0005154499288908301 0.006421704668401236 0.9965537289462337 -0.031304357969662674 0.0029911802283386565 0.012780326238198721
0.055454545454549996 0.0032095258183473894 0.014240457082919118 0.9962648540938958 -0.034754027388568955 0.0005989721105989406 0.007121960001035381 -0.0005227505930550865 -0.004494374679375712
 0.9962648540938958 -0.034754027388568955 0.0032097738255691516 0.014240421818815421 -0.0005231576959842892 -0.004494378839637893 0.0005966147868895836 0.007122232589330826
 0.0005989721105989406 0.007121960001035381 -0.0005231576959842892 -0.004494378839637893 0.0032092839643721523 0.014239735946872872 0.9962648363403868 -0.034754767527216776
 -0.0005227505930550865 -0.004494374679375712 0.0005966147868895836 0.007122232589330826 0.9962648363403868 -0.034754767527216776 0.003209980860650368 0.014239665537950145
0.056273447269699996 0.0032434760699876215 0.014461488904723542 0.9962199808256129 -0.03527492280262634 0.000611824273551788 0.007227562271983101 -0.0005336602308818982 -0.0045614177712632415
 0.9962199808256129 -0.03527492280262634 0.0032437314277919908 0.014461452748244815 -0.0005340792466880927 -0.004561421401747438 0.0006093967794981878 0.007227843159672147
 0.000611824273551788 0.007227562271983101 -0.0005340792466880927 -0.004561421401747438 0.0032432270685194137 0.014460757339386943 0.996219962581404 -0.035275673855438096
 -0.0005336602308818982 -0.0045614177712632415 0.0006093967794981878 0.007227843159672147 0.996219962581404 -0.035275673855438096 0.0032439446580400056 0.014460685198683293
0.06252605252188 0.003511338808308139 0.016158401773229795 0.9958657228666323 -0.03925992113984428 0.0007147678358179197 0.008034135889644311 -0.0006209952736658902 -0.005073725648568774
 0.9958657228666323 -0.03925992113984428 0.00351165380976394 0.016158358440766088 -0.0006215107547787196 -0.005073724469165306 0.0007117704931687482 0.008034485605923144
 0.0007147678358179197 0.008034135889644311 -0.0006215107547787196 -0.005073724469165306 0.0035110318069655052 0.016157590876164394 0.9958657006533626 -0.039260755533187426
 -0.0006209952736658902 -0.005073725648568774 0.0007117704931687482 0.008034485605923144 0.9958657006533626 -0.039260755533187426 0.0035119173542113094 0.016157504670892494
0.06877865777407 0.003794684564533603 0.017871470367122836 0.995490695199174 -0.04325862594068791 0.0008262797034452447 0.008841099456723596 -0.0007155270125048601 -0.0055866772995665885
 0.995490695199174 -0.04325862594068791 0.003795065429131332 0.017871419216377027 -0.0007161486429903324 -0.005586669883171736 0.0008226522025961431 0.008841528183165878
 0.0008262797034452447 0.008841099456723596 -0.0007161486429903324 -0.005586669883171736 0.00379431350931584 0.017870580712731246 0.9954906686253713 -0.04325954368581443
 -0.0007155270125048601 -0.0055866772995665885 0.0008226522025961431 0.008841528183165878 0.9954906686253713 -0.04325954368581443 0.003795384618521659 0.01787047888553504
0.07503126302626001 0.0040937981086311154 0.019600406680336135 0.9950946233592793 -0.047270950180765284 0.0009464396329551451 0.009648344294257665 -0.0008173376089934816 -0.0061001570629804144
 0.9950946233592793 -0.047270950180765284 0.0040942510514563836 0.019600347067273195 -0.0008180749987176679 -0.006100141877553903 0.0009421215923840222 0.0096488629595052
 0.0009464396329551451 0.009648344294257665 -0.0008180749987176679 -0.006100141877553903 0.0040933569487145586 0.01959943889840796 0.9950945920316466 -0.04727195129509006
 -0.0008173376089934816 -0.0061001570629804144 0.0009421215923840222 0.0096488629595052 0.9950945920316466 -0.04727195129509006 0.004094631218325334 0.01959931979444118
0.08128386827845 0.004408962704425384 0.021344934663389447 0.9946772331995672 -0.051296784842456755 0.001075325830864879 0.010455758008931493 -0.0009265075152592676 -0.00661404780711212
 0.9946772331995672 -0.051296784842456755 0.004409493937636496 0.021344865942483544 -0.0009273702004354463 -0.006614023215730152 0.0010702568049594304 0.01045637829614645
 0.001075325830864879 0.010455758008931493 -0.0009273702004354463 -0.006614023215730152 0.004408445392837645 0.021343889442906713 0.9946771967227263 -0.05129786934644787
 -0.0009265075152592676 -0.00661404780711212 0.0010702568049594304 0.01045637829614645 0.9946771967227263 -0.05129786934644787 0.004409940416727031 0.02134375130873497
0.08753647353064001 0.0047404601008988086 0.02310478625417979 0.9942382510993613 -0.05533600283141675 0.001213014864605958 0.011263224758393257 -0.0010431154137667661 -0.007128230684021866
 0.9942382510993613 -0.05533600283141675 0.004741075835506299 0.023104707778587443 -0.0010441128572471045 -0.007128194944941515 0.001207134352388945 0.011263959112587067
 0.001213014864605958 0.011263224758393257 -0.0010441128572471045 -0.007128194944941515 0.004739860595051924 0.023103664337839596 0.9942382090765347 -0.05533717075496812
 -0.0010431154137667661 -0.007128230684021866 0.001207134352388945 0.011263959112587067 0.9942382090765347 -0.05533717075496812 0.004741593963898496 0.023103505320297923
0.09378907878283 0.005088570496919115 0.02487969851707108 0.9937774041520812 -0.05938846178930386 0.0013595815754216234 0.012070625458108202 -0.0011672381538183636 -0.0076425849462982915
 0.9937774041520812 -0.05938846178930386 0.0050892769443703165 0.024879609638861454 -0.0011683797452212183 -0.007642536213044816 0.0013528290301038125 0.01207148709335897
 0.0013595815754216234 0.012070625458108202 -0.0011683797452212183 -0.007642536213044816 0.005087882758639504 0.024878500710923238 0.9937773561835533 -0.05938971316288066
 -0.0011672381538183636 -0.0076425849462982915 0.0013528290301038125 0.01207148709335897 0.9937773561835533 -0.05938971316288066 0.005089872060877734 0.024878318855878778
0.100041684035 0.005453572486439427 0.026669411574986104 0.9932944203351931 -0.06345400611825533 0.001515098993306161 0.012877837931197183 -0.0012989506849764572 -0.008156987825108984
 0.9932944203351931 -0.06345400611825533 0.005454375859962129 0.026669311645190496 -0.001300245740589087 -0.008156924146565969 0.0015074138323783472 0.012878840837711198
 0.001515098993306161 0.012877837931197183 -0.001300245740589087 -0.008156924146565969 0.005452790482936824 0.02666813874089362 0.9932943660195618 -0.06345534098117563
 -0.0012989506849764572 -0.008156987825108984 0.0015074138323783472 0.012878840837711198 0.9932943660195618 -0.06345534098117563 0.00545505330593909 0.026667931991987193
0.1059090909091 0.005811697560576679 0.02836209842184295 0.9928208166130059 -0.06728084039262691 0.001669239556563661 0.013635038588905564 -0.0014295167935079016 -0.008639633372199614
 0.9928208166130059 -0.06728084039262691 0.0058125975432931805 0.028361987530197495 -0.0014309642666762098 -0.008639553801437789 0.0016606241135447934 0.013636187484847337
 0.001669239556563661 0.013635038588905564 -0.0014309642666762098 -0.008639553801437789 0.005810821617366525 0.028360756020553043 0.9928207559733075 -0.06728225364076851
 -0.0014295167935079016 -0.008639633372199614 0.0016606241135447934 0.013636187484847337 0.9928207559733075 -0.06728225364076851 0.005813357105771382 0.028360523948985396
0.1062942892872 0.0058357429903308595 0.028473667026166757 0.992789028671306 -0.06753246852534879 0.001679638253658635 0.01368473702779298 -0.0014383259873588274 -0.008671314443153019
 0.992789028671306 -0.06753246852534879 0.00583664950709373 0.02847355539482494 -0.0014397837500673234 -0.008671233763658552 0.0016709598699095284 0.013685895978756768
 0.001679638253658635 0.01368473702779298 -0.0014397837500673234 -0.008671233763658552 0.005834860694446556 0.028472320087923636 0.9927889676038876 -0.0675338869204254
 -0.0014383259873588274 -0.008671314443153019 0.0016709598699095284 0.013685895978756768 0.9927889676038876 -0.0675338869204254 0.0058374146251829835 0.028472086285308413
0.11254689453939999 0.006235357177023882 0.030292206757388668 0.9922609593791519 -0.07162367117585837 0.0018532685143953559 0.014491194723254906 -0.0015854350010599178 -0.00918543775316631
 0.9922609593791519 -0.07162367117585837 0.006236373059489718 0.030292082773559985 -0.0015870646399806807 -0.00918533791264544 0.0018435362871097372 0.01449252528161084
 0.0018532685143953559 0.014491194723254906 -0.0015870646399806807 -0.00918533791264544 0.006234368567764463 0.03029078670045735 0.9922608911529375 -0.07162517315047594
 -0.0015854350010599178 -0.00918543775316631 0.0018435362871097372 0.01449252528161084 0.9922608911529375 -0.07162517315047594 0.0062372311942483815 0.03029052357929809
0.11879949979160001 0.006652688374792321 0.03212477200477695 0.9917099440209027 -0.07572742660403542 0.0020360568740912122 0.015297080198474589 -0.0017403465532305088 -0.009699228499072463
 0.9917099440209027 -0.07572742660403542 0.006653819852514663 0.03212463501638427 -0.0017421571634298769 -0.009699107233165348 0.002025210180940288 0.01529859872340128
 0.0020360568740912122 0.015297080198474589 -0.0017421571634298769 -0.009699107233165348 0.006651587438251095 0.03212327987540744 0.9917098682255502 -0.07572901221172494
 -0.0017403465532305088 -0.009699228499072463 0.002025210180940288 0.01529859872340128 0.9917098682255502 -0.07572901221172494 0.006654776349982356 0.03212298506452332
0.1250521050438 0.00708800797760116 0.033971102625386135 0.9911357156442524 -0.07984353841850753 0.002228068290119305 0.01610225991391247 -0.0019031272847406756 -0.010212555187909282
 0.9911357156442524 -0.07984353841850753 0.007089261289091724 0.03397095197912249 -0.0019051278867161466 -0.010212410128132057 0.0022160465195390703 0.016103983567172412
 0.002228068290119305 0.01610225991391247 -0.0019051278867161466 -0.010212410128132057 0.007086788707149991 0.03396953953371383 0.9911356318662612 -0.07984520771662636
 -0.0019031272847406756 -0.010212555187909282 0.0022160465195390703 0.016103983567172412 0.9911356318662612 -0.07984520771662636 0.007090321496464797 0.03396921055399862
0.131304710296 0.007541585345172231 0.03583093649929739 0.990538008922306 -0.08397180188272717 0.0024293654978601504 0.016906597671101545 -0.002073841575129201 -0.010725284079248696
 0.990538008922306 -0.08397180188272717 0.007542966739368936 0.03583077154036643 -0.0020760411143992837 -0.010725112753142526 0.0024161080616656415 0.016908544423182157
 0.0024293654978601504 0.016906597671101545 -0.0020760411143992837 -0.010725112753142526 0.007540241742451132 0.03582930361840461 0.9905379167447026 -0.08397355493410592
 -0.002073841575129201 -0.010725284079248696 0.0024161080616656415 0.016908544423182157 0.9905379167447026 -0.08397355493410592 0.007544136005135471 0.035828937881293176
0.1375573155481 0.007908299358418686 0.037461042646740515 0.990021986769024 -0.08786893662458065 0.0026142506430734407 0.017685387205230028 -0.0022268082146651162 -0.011212714215530438
 0.990021986769024 -0.08786893662458065 0.007909816374245225 0.037460869039814354 -0.002229219937766055 -0.011212516488826586 0.002599724876712496 0.01768755386827962
 0.0026142506430734407 0.017685387205230028 -0.002229219937766055 -0.011212516488826586 0.007906825964330672 0.03745934112997908 0.9900218858114412 -0.08787077343348303
 -0.0022268082146651162 -0.011212714215530438 0.002599724876712496 0.01768755386827962 0.9900218858114412 -0.08787077343348303 0.007911099439427432 0.037458942301099016
0.1438099208003 0.008287869549691749 0.03908278439328952 0.9894879032952237 -0.09175642513812517 0.002806609074905543 0.018461183266832354 -0.0023859021119728534 -0.011697403384163288
 0.9894879032952237 -0.09175642513812517 0.008289528657753729 0.03908260195572296 -0.0023885356313139046 -0.01169717683172423 0.002790759473226267 0.018463586262583875
 0.002806609074905543 0.018461183266832354 -0.0023885356313139046 -0.01169717683172423 0.008286260473015665 0.03908101544713839 0.9894877931436555 -0.09175834575970561
 -0.0023859021119728534 -0.011697403384163288 0.002790759473226267 0.018463586262583875 0.9894877931436555 -0.09175834575970561 0.008290930762511925 0.03908058134574457
0.1500625260525 0.008680165557326555 0.040696032941252416 0.9889358927693034 -0.09563417783258167 0.0030063767001152044 0.019233911749238157 -0.0025510609879521268 -0.012179281270372459
 0.9889358927693034 -0.09563417783258167 0.008681973248380083 0.040695841470843395 -0.0025539258957960045 -0.012179023369805048 0.0029891481045401574 0.019236568092948506
 0.0030063767001152044 0.019233911749238157 -0.0025539258957960045 -0.012179023369805048 0.008678414920570388 0.040694197821015084 0.9889357730070791 -0.09563618232391005
 -0.0025510609879521268 -0.012179281270372459 0.0029891481045401574 0.019236568092948506 0.9889357730070791 -0.09563618232391005 0.008683499627062056 0.04069372616523303
0.15631513130469998 0.009085056132450635 0.042300663411404094 0.9883660901009322 -0.09950210529295726 0.0032134886903863466 0.020003499760490658 -0.0027222218166414484 -0.012658279018352274
