! Created with skrf 1.8.0 (http://scikit-rf.org).
# GHz S RI R 50.0 
!freq ReS11 ImS11 ReS12 ImS12 ReS13 ImS13
! ReS14 ImS14
! ReS21 ImS21 ReS22 ImS22 ReS23 ImS23
! ReS24 ImS24
! ReS31 ImS31 ReS32 ImS32 ReS33 ImS33
! ReS34 ImS34
! ReS41 ImS41 ReS42 ImS42 ReS43 ImS43
! ReS44 ImS44
!
0.0 0.001473519586667 0.0 0.9985264804068 0.0 5.64737383977e-05 0.0 -5.647373850827e-05 6.916038310003748e-21
 0.9985264804068 0.0 0.001473519586678 0.0 -5.647373850921e-05 6.916038310118865e-21 5.64737383977e-05 0.0
 5.64737383977e-05 0.0 -5.647373850921e-05 6.916038310118865e-21 0.001473519589961 0.0 0.9985264804101 0.0
 -5.647373850827e-05 6.916038310003748e-21 5.64737383977e-05 0.0 0.9985264804101 0.0 0.001473519589927 0.0
0.005 0.001585140227851545 0.00121017261453817 0.9983853250327525 -0.0030866338802931323 7.825851658930804e-05 0.0005946307158821434 -7.623547928154101e-05 -0.00037808807561912994
 0.9983853250327525 -0.0030866338802931323 0.0015851387658178061 0.001210173414050118 -7.623500350497679e-05 -0.0003780876581257773 7.827996381526538e-05 0.0005946226956527421
 7.825851658930804e-05 0.0005946307158821434 -7.623500350497679e-05 -0.0003780876581257773 0.00158514109440812 0.0012102393327673758 0.9983853253800036 -0.003086566811216761
 -7.623547928154101e-05 -0.00037808807561912994 7.827996381526538e-05 0.0005946226956527421 0.9983853253800036 -0.003086566811216761 0.0015851385901135778 0.0012102408315318618
0.006252605252188 0.0016143563294529974 0.0015174632987786608 0.9983481595256585 -0.0038590544431846728 8.443261351541799e-05 0.0007435939678819434 -8.178132649679117e-05 -0.00047309588552989814
 0.9983481595256585 -0.0038590544431846728 0.0016143540441525897 0.0015174642770292928 -8.17805865610169e-05 -0.00047309536961036676 8.446612467299407e-05 0.0007435835323596588
 8.443261351541799e-05 0.0007435939678819434 -8.17805865610169e-05 -0.00047309536961036676 0.0016143576168411585 0.0015175466696697281 0.9983481600009435 -0.003858970626738293
 -8.178132649679117e-05 -0.00047309588552989814 8.446612467299407e-05 0.0007435835323596588 0.9983481600009435 -0.003858970626738293 0.0016143537014436232 0.0015175485333615703
0.01250521050438 0.0017678148059255595 0.003066632562637209 0.9981517288223132 -0.007718946543021766 0.0001195781191544159 0.0014876601841698576 -0.00011306711502112422 -0.0009484955140796072
 0.9981517288223132 -0.007718946543021766 0.001767805686432898 0.003066634292332216 -0.00011306420393291893 -0.0009484945467542401 0.00011971181087438075 0.0014876349163093887
 0.0001195781191544159 0.0014876601841698576 -0.00011306420393291893 -0.0009484945467542401 0.0017678193885638648 0.0030667989841332084 0.9981517301567179 -0.007718779146474075
 -0.00011306711502112422 -0.0009484955140796072 0.00011971181087438075 0.0014876349163093887 0.9981517301567179 -0.007718779146474075 0.0017678037460836411 0.00306680260883111
0.01875781575657 0.0019342179748095545 0.004637826913967393 0.9979369525903462 -0.011589078015048455 0.0001619910840799988 0.0022326734741432933 -0.00015042414690666567 -0.0014255599862087042
 0.9979369525903462 -0.011589078015048455 0.0019341974962199953 0.004637829133166182 -0.00015041766189218857 -0.001425558642312414 0.00016229154473086115 0.002232628173834076
 0.0001619910840799988 0.0022326734741432933 -0.00015041766189218857 -0.001425558642312414 0.0019342278677357367 0.004638076174190083 0.9979369551739606 -0.01158882712732047
 -0.00015042414690666567 -0.0014255599862087042 0.00016229154473086115 0.002232628173834076 0.9979369551739606 -0.01158882712732047 0.0019341927042007226 0.004638081455799168
0.02501042100875 0.0021138799333750282 0.006228870488199583 0.9977035861115716 -0.01547133631759315 0.00021175309334191397 0.002978665568920819 -0.0001939428201314108 -0.0019040886119010116
 0.9977035861115716 -0.01547133631759315 0.0021138435868713933 0.0062288728956756585 -0.00019393137733016247 -0.0019040869781472183 0.0002122870239331773 0.002978594253363256
 0.00021175309334191397 0.002978665568920819 -0.00019393137733016247 -0.0019040869781472183 0.0021138971474013563 0.0062292023739347335 0.9977035903284949 -0.015471001990290296
 -0.0001939428201314108 -0.0019040886119010116 0.0002122870239331773 0.002978594253363256 0.9977035903284949 -0.015471001990290296 0.0021138346754863394 0.006229209201731083
0.03126302626094 0.0023071017823529283 0.007838649984655026 0.9974513717417413 -0.019366537066124262 0.0002689460943372903 0.0037256032659526823 -0.0002437112163100779 -0.002383940774267959
 0.9974513717417413 -0.019366537066124262 0.002307045070610425 0.007838652238280992 -0.00024369344756218763 -0.002383938949407108 0.0002697803718443879 0.00372549916232262
 0.0002689460943372903 0.0037256032659526823 -0.00024369344756218763 -0.002383938949407108 0.00230712833109241 0.007839064273810111 0.997451377977354 -0.01936611932072439
 -0.0002437112163100779 -0.002383940774267959 0.0002697803718443879 0.00372549916232262 0.997451377977354 -0.01936611932072439 0.0023070307645398592 0.007839072529170333
0.037515631513130004 0.0025141782283929163 0.009466444404923747 0.9971800457011649 -0.023275094233978357 0.0003336516925782 0.004473427713912148 -0.00029981569449218353 -0.0028649966443759197
 0.9971800457011649 -0.023275094233978357 0.0025140966618203303 0.009466446120416984 -0.0002997902455827343 -0.002864994739201945 0.000334853400926399 0.004473283249125109
 0.0003336516925782 0.004473427713912148 -0.0002997902455827343 -0.002864994739201945 0.0025142161272396313 0.009466940849964424 0.997180054341346 -0.023274593077967146
 -0.00029981569449218353 -0.0028649966443759197 0.000334853400926399 0.004473283249125109 0.997180054341346 -0.023274593077967146 0.00251407567738706 0.00946695040551532
0.043768236765320004 0.002735400135919446 0.01111172103619138 0.9968893408150146 -0.02719722409973571 0.00040595081929712556 0.005222066349437972 -0.00036234110287261117 -0.003347145241676602
 0.9968893408150146 -0.02719722409973571 0.002735289229328543 0.011111721786083495 -0.00036230663250317756 -0.003347143379025223 0.000407587266705573 0.005221873138917301
 0.00040595081929712556 0.005222066349437972 -0.00036230663250317756 -0.003347143379025223 0.0027354514038013173 0.011112299359990198 0.996889352248537 -0.027196639530390497
 -0.00036234110287261117 -0.003347145241676602 0.000407587266705573 0.005221873138917301 0.996889352248537 -0.027196639530390497 0.002735260276217995 0.01111231007897204
0.050020842017509996 0.002971055718320803 0.012774051157166151 0.996578987894799 -0.031133029470170676 0.0004859235272088958 0.00597143783884707 -0.00043137085771840816 -0.0038302794902558804
 0.996578987894799 -0.031133029470170676 0.0029709109876959244 0.012774050469844903 -0.0004313260368033777 -0.0038302778049483116 0.0004880622562835336 0.005971186674874802
 0.0004859235272088958 0.00597143783884707 -0.0004313260368033777 -0.0038302778049483116 0.002971122374406197 0.012774711052362565 0.9965790025108381 -0.031132361474739315
 -0.00043137085771840816 -0.0038302794902558804 0.0004880622562835336 0.005971186674874802 0.9965790025108381 -0.031132361474739315 0.0029708727658303204 0.01277472278830432
0.055454545454549996 0.003187791771649629 0.01423223046526625 0.9962931152137499 -0.0345644949356418 0.0005617155266403013 0.006623191560400008 -0.0004967058518518788 -0.004250856252564685
 0.9962931152137499 -0.0345644949356418 0.003187614004035923 0.014232228110995043 -0.0004966509657245137 -0.004250854840161225 0.0005643457930319464 0.006622881907032163
 0.0005617155266403013 0.006623191560400008 -0.0004966509657245137 -0.004250854840161225 0.003187873441817663 0.014232960979698709 0.9962931329135349 -0.03456375441760694
 -0.0004967058518518788 -0.004250856252564685 0.0005643457930319464 0.006622881907032163 0.9962931329135349 -0.03456375441760694 0.0031875666654941916 0.014232973472547577
0.056273447269699996 0.0032214311494033407 0.01445306865241415 0.9962487165444304 -0.03508254099529248 0.0005736488469160001 0.006721454486081814 -0.0005069869585476693 -0.004314293810903036
 0.9962487165444304 -0.03508254099529248 0.003221248108838078 0.014453066011231735 -0.0005069304697102043 -0.004314292449726635 0.0005763576404805924 0.006721135325823845
 0.0005736488469160001 0.006721454486081814 -0.0005069304697102043 -0.004314292449726635 0.0032215152147376694 0.014453809785663874 0.9962487347348296 -0.03508178954629938
 -0.0005069869585476693 -0.004314293810903036 0.0005763576404805924 0.006721135325823845 0.9962487347348296 -0.03508178954629938 0.003221199310414727 0.01445382238190183
0.06252605252188 0.0034868108988834624 0.01614844727286855 0.9958982556924866 -0.03904573983907623 0.0006692046696884542 0.007472023572568459 -0.0005892699746604764 -0.00479908278391438
 0.9958982556924866 -0.03904573983907623 0.003486585057179398 0.01614844211546364 -0.0005892005118476009 -0.0047990819055767735 0.0006725515536537184 0.007471625525954839
 0.0006692046696884542 0.007472023572568459 -0.0005892005118476009 -0.0047990819055767735 0.0034869143946501323 0.01614926927673633 0.9958982778509209 -0.03904490490206838
 -0.0005892699746604764 -0.00479908278391438 0.0006725515536537184 0.007471625525954839 0.9958982778509209 -0.03904490490206838 0.003486524365410569 0.016149282566226716
0.06877865777407 0.0037674779093674754 0.017859887057810806 0.9955273339704654 -0.04302257119154624 0.0007726676481717668 0.00822304814374527 -0.0006782990115958064 -0.005284540368285799
 0.9955273339704654 -0.04302257119154624 0.003767204766893753 0.017859878775291597 -0.0006782152797932473 -0.005284540143373073 0.0007767208925511914 0.008222559461202735
 0.0007726676481717668 0.00822304814374527 -0.0006782152797932473 -0.005284540143373073 0.003767602856970087 0.017860789534667958 0.9955273604933681 -0.04302165272074461
 -0.0006782990115958064 -0.005284540368285799 0.0007767208925511914 0.008222559461202735 0.9955273604933681 -0.04302165272074461 0.0037671308565576747 0.01786080333973665
0.07503126302626001 0.004063713686164305 0.019587105747000705 0.9951356800060156 -0.04701295279385579 0.0008841131050662845 0.00897442751624784 -0.0007741516680188727 -0.005770559403501182
 0.9951356800060156 -0.04701295279385579 0.004063388731749845 0.01958709368334537 -0.0007740523830372037 -0.005770560014435616 0.0008889412232932261 0.00897383557634985
 0.0008841131050662845 0.00897442751624784 -0.0007740523830372037 -0.005770560014435616 0.004063862106621555 0.019588088265305215 0.9951357112927242 -0.04701195073553449
 -0.0007741516680188727 -0.005770559403501182 0.0008889412232932261 0.00897383557634985 0.9951357112927242 -0.04701195073553449 0.004063300268943357 0.019588102397510358
0.08128386827845 0.004375798329074304 0.021329833048512575 0.9947230226628425 -0.05101678061136618 0.0010036149475074372 0.00972605761923821 -0.0008769039849647394 -0.0062570312806961995
 0.9947230226628425 -0.05101678061136618 0.00437541703666299 0.021329816500018826 -0.0008767878732465793 -0.006257032921701107 0.0010092866950633676 0.009725348916263645
 0.0010036149475074372 0.00972605761923821 -0.0008767878732465793 -0.006257032921701107 0.004375972242233442 0.021330895141332247 0.9947230591157953 -0.05101569490490303
 -0.0008769039849647394 -0.0062570312806961995 0.0010092866950633676 0.009725348916263645 0.9947230591157953 -0.05101569490490303 0.004375312678692603 0.021330909401414737
0.08753647353064001 0.004704010525473968 0.02308780668416205 0.9942890912435283 -0.055033932732853334 0.0011312455863581945 0.010477831227968878 -0.0009866303892013986 -0.0067438457251854
 0.9942890912435283 -0.055033932732853334 0.004703568350740994 0.023087784898959022 -0.0009864961876954973 -0.00674384860224394 0.001137829957901578 0.010476991359437688
 0.0011312455863581945 0.010477831227968878 -0.0009864961876954973 -0.00674384860224394 0.004704211949892245 0.02308894785282587 0.9942891332689143 -0.05503276330679539
 -0.0009866303892013986 -0.0067438457251854 0.001137829957901578 0.010476991359437688 0.9942891332689143 -0.05503276330679539 0.004703446746373754 0.023088962030666245
0.09378907878283 0.005048627519127691 0.02486076955941759 0.9938336156730894 -0.05906427214964116 0.0012670758561296167 0.011229638139483399 -0.0011034036340967326 -0.007230890640687454
 0.9938336156730894 -0.05906427214964116 0.005048119896005396 0.02486074173703382 -0.0011032500900971947 -0.0072308949715051704 0.001274642082377013 0.011228651793586524
 0.0012670758561296167 0.011229638139483399 -0.0011032500900971947 -0.0072308949715051704 0.005048858470738938 0.02486198927046717 0.9938336636807831 -0.059063018924389726
 -0.0011034036340967326 -0.007230890640687454 0.001274642082377013 0.011228651793586524 0.9938336636807831 -0.059063018924389726 0.005047979685156796 0.02486200314516381
0.100041684035 0.005409925058368381 0.0266484676935761 0.9933563266636933 -0.06310764877868383 0.0014111749376399568 0.011981365303370815 -0.0012272947368185151 -0.00771805200233282
 0.9933563266636933 -0.06310764877868383 0.005409347395965099 0.026648432984594846 -0.0012271206079303072 -0.0077180580162925245 0.0014197924813611634 0.011980216246425533
 0.0014111749376399568 0.011981365303370815 -0.0012271206079303072 -0.0077180580162925245 0.005410187550595065 0.02664976537970066 0.9933563810678901 -0.06310631166520045
 -0.0012272947368185151 -0.00771805200233282 0.0014197924813611634 0.011980216246425533 0.9933563810678901 -0.06310631166520045 0.005409187209775024 0.026649778719736596
0.1059090909091 0.005764379517724459 0.028339209459717272 0.9928883634172012 -0.06691364225762104 0.0015539771422800797 0.012686605874862084 -0.0013500886912805976 -0.008175203845320828
 0.9928883634172012 -0.06691364225762104 0.005763731929890802 0.028339167472052607 -0.0013498941247768101 -0.008175211657730264 0.001563644614270089 0.012685288534267933
 0.0015539771422800797 0.012686605874862084 -0.0013498941247768101 -0.008175211657730264 0.005764673435169558 0.028340579768322674 0.9928884242043199 -0.066912226337069
 -0.0013500886912805976 -0.008175203845320828 0.001563644614270089 0.012685288534267933 0.9928884242043199 -0.066912226337069 0.005763551746051828 0.028340592386749245
0.1062942892872 0.005788177331926924 0.028450648654835705 0.9928569558702619 -0.06716390098526831 0.0015636102812781527 0.012732896925813565 -0.00135837291379439 -0.008205213780414946
 0.9928569558702619 -0.06716390098526831 0.005787525010524281 0.028450606160657956 -0.001358176967806558 -0.008205221718547092 0.0015733488327527943 0.01273156798969467
 0.0015636102812781527 0.012732896925813565 -0.001358176967806558 -0.008205221718547092 0.005788473374342463 0.02845202371127354 0.992857017089424 -0.06716247988842922
 -0.00135837291379439 -0.008205213780414946 0.0015733488327527943 0.01273156798969467 0.992857017089424 -0.06716247988842922 0.00578734347118683 0.02845203627468581
0.11254689453939999 0.006183656893018376 0.030267060369613494 0.992335236038016 -0.07123285673640818 0.0017244475309330439 0.013484114552611117 -0.0014967055143904912 -0.008692257889292712
 0.992335236038016 -0.07123285673640818 0.00618292526088649 0.030267009142281236 -0.0014964865292318413 -0.00869226800423367 0.0017353770029945933 0.013482587622107897
 0.0017244475309330439 0.013484114552611117 -0.0014964865292318413 -0.00869226800423367 0.006183988491120707 0.03026851215882802 0.9923353044956477 -0.07123135155006054
 -0.0014967055143904912 -0.008692257889292712 0.0017353770029945933 0.013482587622107897 0.9923353044956477 -0.07123135155006054 0.006182720981778931 0.030268523693495093
0.11879949979160001 0.006596634575636127 0.032097450196857856 0.9917909011437948 -0.07531433449397046 0.001893750448492971 0.014234897141524355 -0.0016423579532825955 -0.009179064151160191
 0.9917909011437948 -0.07531433449397046 0.0065958189450611646 0.03209738923898919 -0.0016421147169431234 -0.009179076707119045 0.0019059409710814608 0.014233153141732319
 0.001893750448492971 0.014234897141524355 -0.0016421147169431234 -0.009179076707119045 0.006597003729901401 0.03209897804414771 0.9917909772686309 -0.07531274510506374
 -0.0016423579532825955 -0.009179064151160191 0.0019059409710814608 0.014233153141732319 0.9917909772686309 -0.07531274510506374 0.006595590530849899 0.03209898828815218
0.1250521050438 0.007027379404229587 0.03394156419240329 0.9912236865352138 -0.07940814392300599 0.0020715808386449716 0.014985121122881686 -0.001795393641680338 -0.009665510275887853
 0.9912236865352138 -0.07940814392300599 0.007026475048250023 0.033941492457108945 -0.001795124952193142 -0.009665525548605487 0.002085102752998039 0.014983140006565381
 0.0020715808386449716 0.014985121122881686 -0.001795124952193142 -0.009665525548605487 0.007027788109649917 0.033943167387682376 0.9912237707614167 -0.07940647020956465
 -0.001795393641680338 -0.009665510275887853 0.002085102752998039 0.014983140006565381 0.9912237707614167 -0.07940647020956465 0.007026221094447833 0.033943176069745916
0.131304710296 0.007476158497659001 0.03579914652241727 0.9906333290647374 -0.08351408645602451 0.002257998473957319 0.015734660457323295 -0.0019558739177466125 -0.010151471847997747
 0.9906333290647374 -0.08351408645602451 0.007475160645931028 0.03579906291349247 -0.001955578583167082 -0.010151490124714028 0.0022729223262891313 0.0157324211923439
 0.002257998473957319 0.015734660457323295 -0.001955578583167082 -0.010151490124714028 0.007476608742825232 0.035800824317007485 0.9906334218325153 -0.08351232829015681
 -0.0019558739177466125 -0.010151471847997747 0.0022729223262891313 0.0157324211923439 0.9906334218325153 -0.08351232829015681 0.007474879739244579 0.035800831157039456
0.1375573155481 0.007838538317740501 0.037428886360328796 0.990124304651773 -0.08739080246994353 0.0024288420380129583 0.016459429910357717 -0.002099621467864657 -0.010612890235298522
 0.990124304651773 -0.08739080246994353 0.007837440397625088 0.03742879198295342 -0.0020992975734194673 -0.010612911523922582 0.002445198209997122 0.016456936182080065
 0.0024288420380129583 0.016459429910357717 -0.0020992975734194673 -0.010612911523922582 0.007839031316259291 0.03743063840245083 0.9901244063498 -0.08738895979820656
 -0.002099621467864657 -0.010612890235298522 0.002445198209997122 0.016456936182080065 0.9901244063498 -0.08738895979820656 0.007837131991056047 0.03743064466768362
0.1438099208003 0.008213628850577259 0.039050395627354274 0.9895974762907049 -0.09125802303546107 0.0026065736520199654 0.017181414664350962 -0.002249114507530389 -0.01107173336045762
 0.9895974762907049 -0.09125802303546107 0.008212425721851184 0.03905028963967386 -0.002248760745580034 -0.011071757946296617 0.0026244257215286117 0.017178647321975906
 0.0026065736520199654 0.017181414664350962 -0.002248760745580034 -0.011071757946296617 0.008214166442324129 0.03905222118564573 0.9895975873568021 -0.09125609573546016
 -0.002249114507530389 -0.01107173336045762 0.0026244257215286117 0.017178647321975906 0.9895975873568021 -0.09125609573546016 0.00821208854684025 0.03905222680213591
0.1500625260525 0.00860130289124353 0.040663548628601026 0.9890529750336506 -0.09511566175796109 0.00279113393922733 0.017900546470253097 -0.002404295018726965 -0.011527935949215605
 0.9890529750336506 -0.09511566175796109 0.008599989354776369 0.04066343016787935 -0.0024039100825523772 -0.01152796412929602 0.0028105452156716028 0.017897485648646988
 0.00279113393922733 0.017900546470253097 -0.0024039100825523772 -0.01152796412929602 0.008601886900715342 0.04066544694410232 0.9890530959100992 -0.09511364970258829
 -0.002404295018726965 -0.011527935949215605 0.0028105452156716028 0.017897485648646988 0.9890530959100992 -0.09511364970258829 0.008599622144495112 0.040665451845379216
0.15631513130469998 0.009001432392698069 0.04226822349761484 0.9884909325319301 -0.09896363235434578 0.0029824628490524884 0.018616758204735618 -0.002565104297265347 -0.011981434068033323
 0.9884909325319301 -0.09896363235434578 0.009000003189226313 0.04226809168165032 -0.002564686881066866 -0.011981466151125764 0.003003496371944299 0.018613383329234855
