! Created with skrf 1.8.0 (http://scikit-rf.org).
# GHz S RI R 50.0 
!freq ReS11 ImS11 ReS12 ImS12 ReS13 ImS13
! ReS14 ImS14
! ReS21 ImS21 ReS22 ImS22 ReS23 ImS23
! ReS24 ImS24
! ReS31 ImS31 ReS32 ImS32 ReS33 ImS33
! ReS34 ImS34
! ReS41 ImS41 ReS42 ImS42 ReS43 ImS43
! ReS44 ImS44
!
0.0 0.001238307763535 0.0 0.9987616922278 0.0 4.734031237137e-05 0.0 -4.734031280372e-05 5.797516254571016e-21
 0.9987616922278 0.0 0.001238307763542 0.0 -4.734031280442e-05 5.797516254656741e-21 4.734031237084e-05 0.0
 4.734031237137e-05 0.0 -4.734031280442e-05 5.797516254656741e-21 0.001238307764252 0.0 0.9987616922285 0.0
 -4.734031280372e-05 5.797516254571016e-21 4.734031237084e-05 0.0 0.9987616922285 0.0 0.001238307764228 0.0
0.005 0.00133160785897372 0.00101189549519735 0.9986437586758464 -0.0025948978865954686 6.618556635123806e-05 0.0005318091707625272 -6.426220973050053e-05 -0.0003321606899067078
 0.9986437586758464 -0.0025948978865954686 0.0013316199189300846 0.0010118884884673105 -6.426274734064709e-05 -0.0003321611472224689 6.610403251571545e-05 0.0005318400777279715
 6.618556635123806e-05 0.0005318091707625272 -6.426274734064709e-05 -0.0003321611472224689 0.001331607030854698 0.0010118287634068499 0.9986437583464942 -0.0025949649462991757
 -6.426220973050053e-05 -0.0003321606899067078 6.610403251571545e-05 0.0005318400777279715 0.9986437583464942 -0.0025949649462991757 0.0013316200884694398 0.0010118210995946422
0.006252605252188 0.0013558655528709985 0.0012688873921338625 0.9986129347128649 -0.0032442905475278017 7.1458071597664e-05 0.0006650273592582009 -6.894295265693253e-05 -0.00041564504171897086
 0.9986129347128649 -0.0032442905475278017 0.001355884404613128 0.0012688785111327158 -6.894378888434193e-05 -0.00041564560671883427 7.133067930757425e-05 0.000665067471034673
 7.1458071597664e-05 0.0006650273592582009 -6.894378888434193e-05 -0.00041564560671883427 0.0013558643275664107 0.0012688039926666951 0.9986129342675678 -0.0032443743609715746
 -6.894295265693253e-05 -0.00041564504171897086 7.133067930757425e-05 0.000665067471034673 0.9986129342675678 -0.0032443743609715746 0.0013558847395243672 0.0012687942812713297
0.01250521050438 0.0014823286074369412 0.0025647301215771944 0.9984513262036754 -0.006489580578814646 0.0001011051987043117 0.0013304486879563383 -9.498058695746752e-05 -0.0008334494884902399
 0.9984513262036754 -0.006489580578814646 0.0014824038781980503 0.0025647111372278345 -9.498387842649896e-05 -0.0008334505471465377 0.0001005971086658491 0.001330544640238198
 0.0001011051987043117 0.0013304486879563383 -9.498387842649896e-05 -0.0008334505471465377 0.0014823242780856263 0.002564563611192156 0.998451324995045 -0.006489747959285559
 -9.498058695746752e-05 -0.0008334494884902399 0.0001005971086658491 0.001330544640238198 0.998451324995045 -0.006489747959285559 0.0014824057906531352 0.002564542867531988
0.01875781575657 0.001617929095795397 0.0038794122752312207 0.9982766974499715 -0.009743814490995602 0.00013634257908306583 0.0019967476458774124 -0.00012552395058868505 -0.001252824794619576
 0.9982766974499715 -0.009743814490995602 0.0016180982214009112 0.0038793819017310972 -0.0001255312852625015 -0.0012528262657049089 0.00013520101960803337 0.001996917751879919
 0.00013634257908306583 0.0019967476458774124 -0.0001255312852625015 -0.0012528262657049089 0.0016179197731245284 0.00387916280040093 0.9982766951517983 -0.009744065340332017
 -0.00012552395058868505 -0.001252824794619576 0.00013520101960803337 0.001996917751879919 0.9982766951517983 -0.009744065340332017 0.0016181029481176629 0.0038791296140267303
0.02501042100875 0.001762894565529697 0.005211135016241218 0.9980888738382857 -0.01300861398731326 0.00017723230190772594 0.0026639824086899188 -0.00016064213948238982 -0.0016736048615143449
 0.9980888738382857 -0.01300861398731326 0.0017631948989404378 0.005211091918912543 -0.00016065508478160876 -0.0016736066521898033 0.00017520426979868124 0.0026642474567567386
 0.00017723230190772594 0.0026639824086899188 -0.00016065508478160876 -0.0016736066521898033 0.001762878364227734 0.005210802708763203 0.998088870132953 -0.013008948227866869
 -0.00016064213948238982 -0.0016736048615143449 0.00017520426979868124 0.0026642474567567386 0.998088870132953 -0.013008948227866869 0.0017632036885628405 0.005210755595127335
0.03126302626094 0.001917442845202068 0.006558994859371253 0.9978876703863989 -0.016284699777430595 0.00022383728092519555 0.003332149429816942 -0.00020040266479775948 -0.0020956822118030917
 0.9978876703863989 -0.016284699777430595 0.001917911675996889 0.0065589376580153175 -0.00020042277117968333 -0.0020956842173964277 0.00022066929594519348 0.0033325326972137273
 0.00022383728092519555 0.003332149429816942 -0.00020042277117968333 -0.0020956842173964277 0.0019174178727504971 0.006558579842424943 0.9978876649539206 -0.016285117346110635
 -0.00020040266479775948 -0.0020956822118030917 0.00022066929594519348 0.0033325326972137273 0.9978876649539206 -0.016285117346110635 0.0019179257790097688 0.006558517246181351
0.037515631513130004 0.0020817872216396306 0.007922419562779637 0.9976728970148311 -0.019572455639456903 0.0002762205936440795 0.004001221239950163 -0.00024487198288310864 -0.0025189701737567977
 0.9976728970148311 -0.019572455639456903 0.002082461789198308 0.007922346833739357 -0.0002449007857238359 -0.00251897227772162 0.00027165858131119567 0.004001748519100799
 0.0002762205936440795 0.004001221239950163 -0.0002449007857238359 -0.00251897227772162 0.002081751583135979 0.007921921952031565 0.9976728895381777 -0.01957295648689266
 -0.00024487198288310864 -0.0025189701737567977 0.00027165858131119567 0.004001748519100799 0.9976728895381777 -0.01957295648689266 0.0020824824631253502 0.007921842248743835
0.043768236765320004 0.0022561384541962336 0.009300996448309602 0.9974443606575502 -0.022872100047422145 0.0003344451908010424 0.00467115792970962 -0.0002941156906987508 -0.002943391385241612
 0.9974443606575502 -0.022872100047422145 0.0022570559572198195 0.009300906726023418 -0.0002941547114339349 -0.0029433934591525496 0.00032823441949469067 0.004671857558284815
 0.0003344451908010424 0.00467115792970962 -0.0002941547114339349 -0.0029433934591525496 0.002256090248058615 0.009300416371341257 0.9974443508188469 -0.02287268411877487
 -0.0002941156906987508 -0.002943391385241612 0.00032823441949469067 0.004671857558284815 0.9974443508188469 -0.02287268411877487 0.0022570844625425935 0.009300317868672704
0.050020842017509996 0.002440705714612616 0.010694401472361606 0.9972018663014061 -0.026183757046162045 0.0003985737291428532 0.005341911897401739 -0.000348198609336968 -0.0033688730336776597
 0.9972018663014061 -0.026183757046162045 0.002441903319693018 0.01069429325065252 -0.0003482493562075114 -0.003368874937250513 0.0003904587762868989 0.0053428147900794285
 0.0003985737291428532 0.005341911897401739 -0.0003482493562075114 -0.003368874937250513 0.0024406430352667775 0.010693739058038451 0.9972018537841784 -0.026184424292073082
 -0.000348198609336968 -0.0033688730336776597 0.0003904587762868989 0.0053428147900794285 0.9972018537841784 -0.026184424292073082 0.0024419409228300924 0.010693619996599884
0.055454545454549996 0.0026095585501030227 0.011917144077153196 0.9969796432782755 -0.029071494137509014 0.0004591464537807204 0.005925440117101651 -0.0003991781193586102 -0.0037394358262014633
 0.9969796432782755 -0.029071494137509014 0.002611029737027721 0.011917018524902265 -0.00039924027167602026 -0.0037394374586268734 0.0004491687256661412 0.005926546784864775
 0.0004591464537807204 0.005925440117101651 -0.00039924027167602026 -0.0037394374586268734 0.002609481741939383 0.011916410216503501 0.9969796281774441 -0.029072233627342663
 -0.0003991781193586102 -0.0037394358262014633 0.0004491687256661412 0.005926546784864775 0.9969796281774441 -0.029072233627342663 0.002611076278669384 0.0119162718083916
0.056273447269699996 0.002635697085005552 0.012102364397775732 0.9969452175844831 -0.029507491024781788 0.0004686684605482639 0.006013430169474936 -0.00040718481603278144 -0.003795344524430274
 0.9969452175844831 -0.029507491024781788 0.0026372119342298844 0.012102236130877535 -0.0004072487846689833 -0.0037953461055478727 0.00045839319579558377 0.0060145698505087945
 0.0004686684605482639 0.006013430169474936 -0.0004072487846689833 -0.0037953461055478727 0.00263561802221324 0.012101619778228857 0.9969452020737067 -0.02950824139969267
 -0.00040718481603278144 -0.003795344524430274 0.00045839319579558377 0.0060145698505087945 0.9969452020737067 -0.02950824139969267 0.0026372599065001504 0.012101478332171404
0.06252605252188 0.00284131983705018 0.013524649645896449 0.9966742171787998 -0.0328433258103787 0.0005447911476434171 0.00668565567467109 -0.00047113765136517935 -0.004222736196739155
 0.9966742171787998 -0.0328433258103787 0.0028431890550701124 0.013524499749358083 -0.0004712163251644248 -0.004222737291471044 0.0005320987275601549 0.0066870683109156856
 0.0005447911476434171 0.00668565567467109 -0.0004712163251644248 -0.004222737291471044 0.0028412224750738037 0.01352382296637741 0.9966741983596478 -0.03284415926289052
 -0.00047113765136517935 -0.004222736196739155 0.0005320987275601549 0.0066870683109156856 0.9966741983596478 -0.03284415926289052 0.0028432486719625677 0.013523657243921534
0.06877865777407 0.003057780590207276 0.014961044892940095 0.9963886670534114 -0.03619125601825331 0.0006270029952110712 0.00735852800491281 -0.00054011971141764 -0.004650978554275666
 0.9963886670534114 -0.03619125601825331 0.0030600412907943416 0.014960871744381777 -0.0005402145618267414 -0.0046509789869195566 0.0006116358656682085 0.007360252439055037
 0.0006270029952110712 0.00735852800491281 -0.0005402145618267414 -0.0046509789869195566 0.003057663008235455 0.014960136304112292 0.9963886446123236 -0.03619217249924456
 -0.00054011971141764 -0.004650978554275666 0.0006116358656682085 0.007360252439055037 0.9963886446123236 -0.03619217249924456 0.003060113832515291 0.014959944347778293
0.07503126302626001 0.003285285404623178 0.016411353820812265 0.9960883686753769 -0.03955125424895473 0.0007153645918072187 0.008031983884546661 -0.0006141928294589028 -0.00508000178884347
 0.9960883686753769 -0.03955125424895473 0.0032879746976847237 0.016411155760425518 -0.0006143053162416658 -0.005080001371942345 0.0006970644964088248 0.008034061668442992
 0.0007153645918072187 0.008031983884546661 -0.0006143053162416658 -0.005080001371942345 0.003285145676748685 0.016410363481963803 0.9960883422995385 -0.03955225370861236
 -0.0006141928294589028 -0.00508000178884347 0.0006970644964088248 0.008034061668442992 0.9960883422995385 -0.03955225370861236 0.0032880614486486387 0.01641014326873224
0.08128386827845 0.003524039828511577 0.017875391305119014 0.9957731231654617 -0.042923275849494916 0.0008099358545687503 0.008705957502021276 -0.0006934180543092824 -0.005509735443169834
 0.9957731231654617 -0.042923275849494916 0.003527194826334307 0.017875166636121154 -0.000693549625713754 -0.005509733977554129 0.000788443847372544 0.008708432930023017
 0.0008099358545687503 0.008705957502021276 -0.000693549625713754 -0.005509733977554129 0.003523876023512881 0.017874319385662186 0.9957730925428593 -0.04292435823606883
 -0.0006934180543092824 -0.005509735443169834 0.000788443847372544 0.008708432930023017 0.9957730925428593 -0.04292435823606883 0.0035272970749729462 0.017874068826959636
0.08753647353064001 0.0037742489165164075 0.019352980084575273 0.9954427314284984 -0.0463072621945212 0.0009107759803513007 0.009380380714797642 -0.0007778556216479152 -0.005940108202130154
 0.9954427314284984 -0.0463072621945212 0.0037779067405520803 0.019352727073475077 -0.0007780077145697232 -0.005940105476944842 0.0008858324422311834 0.00938330085704361
 0.0009107759803513007 0.009380380714797642 -0.0007780077145697232 -0.005940105476944842 0.0037740590981850852 0.01935182676313161 0.9954426962481809 -0.04630842745566661
 -0.0007778556216479152 -0.005940108202130154 0.0008858324422311834 0.00938330085704361 0.9954426962481809 -0.04630842745566661 0.003778025779274866 0.01935154370459872
0.09378907878283 0.004036117230576713 0.020843948372663103 0.995096994267158 -0.04970314302728196 0.001017943396551392 0.010055183215869437 -0.0008675649249959947 -0.006371047724069896
 0.995096994267158 -0.04970314302728196 0.004040315017625856 0.020843665249331324 -0.0008677389650728937 -0.006371043516813803 0.0009892880545425103 0.010058597951432446
 0.001017943396551392 0.010055183215869437 -0.0008677389650728937 -0.006371043516813803 0.004035899457614456 0.02084271383686075 0.995096954219323 -0.049704391110474436
 -0.0008675649249959947 -0.006371047724069896 0.0009892880545425103 0.010058597951432446 0.995096954219323 -0.049704391110474436 0.004040452142649001 0.02084239605809949
0.100041684035 0.004309848824563687 0.022348128112837817 0.9947357124819963 -0.05311083815849308 0.001131495715367738 0.010730292644863698 -0.0009626044826278885 -0.006802480529282104
 0.9947357124819963 -0.05311083815849308 0.004314623733489036 0.022347813070466457 -0.0009628018843339104 -0.006802474605833031 0.001098867664335188 0.010734254694792816
 0.001131495715367738 0.010730292644863698 -0.0009628018843339104 -0.006802474605833031 0.004309601150221883 0.022346812562408544 0.9947356672574396 -0.05311216900824272
 -0.0009626044826278885 -0.006802480529282104 0.001098867664335188 0.010734254694792816 0.9947356672574396 -0.05311216900824272 0.004314780244273038 0.022346457776394626
0.1059090909091 0.004577687717830409 0.023771509347906786 0.9943823728162295 -0.05631926454913167 0.0012439100863000307 0.011364024203338107 -0.0010566881642073843 -0.007207716566023235
 0.9943823728162295 -0.05631926454913167 0.0045830380153672875 0.023771162676743493 -0.0010569087648994837 -0.007207708808867476 0.001207316236871898 0.011368550359385773
 0.0012439100863000307 0.011364024203338107 -0.0010569087648994837 -0.007207708808867476 0.0045774102093022635 0.0237701179661717 0.9943823224538635 -0.05632067301385854
 -0.0010566881642073843 -0.007207716566023235 0.001207316236871898 0.011368550359385773 0.9943823224538635 -0.05632067301385854 0.004583213902519907 0.023769726312856572
0.1062942892872 0.004595647220033419 0.023865353658892592 0.9943586869643729 -0.05653025874213866 0.0012514896883619757 0.011405634673749832 -0.0010630319032368047 -0.0072343319157801384
 0.9943586869643729 -0.05653025874213866 0.004601036438291229 0.023865004853749615 -0.001063254069970129 -0.007234324030441124 0.0012146274150430045 0.011410199633879
 0.0012514896883619757 0.011405634673749832 -0.001063254069970129 -0.007234324030441124 0.004595367692641297 0.023863957306012602 0.9943586362552301 -0.05653167230005405
 -0.0010630319032368047 -0.0072343319157801384 0.0012146274150430045 0.011410199633879 0.9943586362552301 -0.05653167230005405 0.004601213637642554 0.02386356315846488
0.11254689453939999 0.004893715373460211 0.025395460771187588 0.9939657187826383 -0.059961308237368664 0.0013779811615592349 0.012081133078220676 -0.0011689038505910611 -0.007666525891219049
 0.9939657187826383 -0.059961308237368664 0.004899756123472003 0.025395076322231886 -0.001169152174692577 -0.007666515786749194 0.0013366225702210566 0.012086359451765054
 0.0013779811615592349 0.012081133078220676 -0.001169152174692577 -0.007666515786749194 0.004893402036232093 0.025393983836886874 0.9939656622818981 -0.059962804445955205
 -0.0011689038505910611 -0.007666525891219049 0.0013366225702210566 0.012086359451765054 0.9939656622818981 -0.059962804445955205 0.004899955317442358 0.0253935479054357
0.11879949979160001 0.005204255637461263 0.02693828582324849 0.9935566092644353 -0.06340388316207761 0.0015110250312317692 0.012756709787753197 -0.0012802760064142215 -0.008098985128093735
 0.9935566092644353 -0.06340388316207761 0.005210985183640603 0.026937863811520454 -0.0012805518692589795 -0.008098972535739832 0.0014649074713323229 0.01276265901770646
 0.0015110250312317692 0.012756709787753197 -0.0012805518692589795 -0.008098972535739832 0.005203906528600876 0.026936728540105436 0.9935565466662782 -0.06340546196245164
 -0.0012802760064142215 -0.008098985128093735 0.0014649074713323229 0.01276265901770646 0.9935565466662782 -0.06340546196245164 0.005211207680976597 0.026936248333217453
0.1250521050438 0.005527469717529625 0.028493665181117386 0.9931311600761005 -0.06685787367589648 0.0016506751998703328 0.013432284932741985 -0.001397203032773412 -0.008531630923864187
 0.9931311600761005 -0.06685787367589648 0.005534925372752215 0.028493203648972478 -0.0013975078047825456 -0.008531615563404595 0.0015995354948919996 0.013439021433956316
 0.0016506751998703328 0.013432284932741985 -0.0013975078047825456 -0.008531615563404595 0.005527082870456616 0.028492027795509543 0.9931310910758571 -0.06685953500581052
 -0.001397203032773412 -0.008531630923864187 0.0015995354948919996 0.013439021433956316 0.9931310910758571 -0.06685953500581052 0.005535172484950836 0.028491500751346065
0.131304710296 0.005863558624193142 0.03006143469780932 0.9926891732991489 -0.07032316405040903 0.0017969845322154158 0.014107776879614923 -0.0015197385333417183 -0.008964383175181789
 0.9926891732991489 -0.07032316405040903 0.00587177775654176 0.030060931647970416 -0.0015200735739885147 -0.008964364754962663 0.0017405590102270298 0.014115368070548426
 0.0017969845322154158 0.014107776879614923 -0.0015200735739885147 -0.008964364754962663 0.0058631320672426785 0.030059717467516348 0.9926890975931612 -0.07032490784697054
 -0.0015197385333417183 -0.008964383175181789 0.0017405590102270298 0.014115368070548426 0.9926890975931612 -0.07032490784697054 0.0058720507974342395 0.030059140952508997
0.1375573155481 0.006128802080675372 0.03143598008581052 0.9923143924490403 -0.0735941283452143 0.0019298524023244812 0.014761736219215312 -0.0016278524568043543 -0.009375758024044663
 0.9923143924490403 -0.0735941283452143 0.00613782562670674 0.03143544498469403 -0.001628219893242892 -0.00937573658227339 0.001868013294029878 0.014770161958532695
 0.0019298524023244812 0.014761736219215312 -0.001628219893242892 -0.00937573658227339 0.006128334528321928 0.03143418301266227 0.9923143097362042 -0.07359595453361929
 -0.0016278524568043543 -0.009375758024044663 0.001868013294029878 0.014770161958532695 0.9923143097362042 -0.07359595453361929 0.006138125216555851 0.03143356633163518
0.1438099208003 0.006403123101399548 0.0328043672739958 0.9919268812648788 -0.07685791084592142 0.002068098398314748 0.015413720965893371 -0.001740308127172215 -0.00978534805103066
 0.9919268812648788 -0.07685791084592142 0.006412989077713351 0.03280379883746501 -0.0017407094414462125 -0.009785323304387129 0.0020006059486507295 0.015423041948815885
 0.002068098398314748 0.015413720965893371 -0.0017407094414462125 -0.009785323304387129 0.006402612698256554 0.03280249058789256 0.9919267912441472 -0.07685981935684388
 -0.001740308127172215 -0.00978534805103066 0.0020006059486507295 0.015423041948815885 0.9919267912441472 -0.07685981935684388 0.006413316407478091 0.03280183185301083
0.1500625260525 0.006686438524137264 0.03416651450719197 0.9915267257920112 -0.08011446387457159 0.00221168363219692 0.01606368662606052 -0.001857068186770102 -0.010193110998486467
 0.9915267257920112 -0.08011446387457159 0.006697185027793845 0.034165911364824504 -0.0018575048597030866 -0.010193082652316162 0.002138299200231798 0.016073965737545645
 0.00221168363219692 0.01606368662606052 -0.0018575048597030866 -0.010193082652316162 0.006685883418171411 0.03416455844522671 0.9915266281639908 -0.08011645463690614
 -0.001857068186770102 -0.010193110998486467 0.002138299200231798 0.016073965737545645 0.9915266281639908 -0.08011645463690614 0.006697541282427032 0.03416385565941401
0.15631513130469998 0.006978664752104993 0.03552234269475557 0.9911140123399086 -0.08336373930100643 0.0023605688548769548 0.016711589310486493 -0.001978094906664733 -0.010599005408584423
