! Created with skrf 1.8.0 (http://scikit-rf.org).
# GHz S RI R 50.0 
!freq ReS11 ImS11 ReS12 ImS12 ReS13 ImS13
! ReS14 ImS14
! ReS21 ImS21 ReS22 ImS22 ReS23 ImS23
! ReS24 ImS24
! ReS31 ImS31 ReS32 ImS32 ReS33 ImS33
! ReS34 ImS34
! ReS41 ImS41 ReS42 ImS42 ReS43 ImS43
! ReS44 ImS44
!
0.0 0.001479061315777 0.0 0.9985209386842 0.0 5.739483414848e-05 0.0 -5.739483403125e-05 7.02883997839639e-21
 0.9985209386842 0.0 0.001479061315819 0.0 -5.739483403249e-05 7.028839978548246e-21 5.739483414838e-05 0.0
 5.739483414848e-05 0.0 -5.739483403249e-05 7.028839978548246e-21 0.001479061308832 0.0 0.9985209386772 0.0
 -5.739483403125e-05 7.02883997839639e-21 5.739483414838e-05 0.0 0.9985209386772 0.0 0.001479061308806 0.0
0.005 0.001591269695506935 0.0012017265469913853 0.9983789808193985 -0.003098898895678619 8.159599579048869e-05 0.0006831959231722963 -7.895080886404602e-05 -0.00041999185289214936
 0.9983789808193985 -0.003098898895678619 0.0015912733381144902 0.0012017244293846788 -7.895328906586605e-05 -0.0004199937848873016 8.157354664395272e-05 0.0006832046162268309
 8.159599579048869e-05 0.0006831959231722963 -7.895328906586605e-05 -0.0004199937848873016 0.0015912679506497067 0.0012016603425523387 0.9983789804613525 -0.003098965953574402
 -7.895080886404602e-05 -0.00041999185289214936 8.157354664395272e-05 0.0006832046162268309 0.9983789804613525 -0.003098965953574402 0.0015912743765522104 0.0012016565283938664
0.006252605252188 0.0016206484277193909 0.0015069316836017123 0.9983415826433034 -0.003874393252707638 8.848549104116277e-05 0.0008543054511807115 -8.50201755683911e-05 -0.000525547612116875
 0.9983415826433034 -0.003874393252707638 0.0016206541212086924 0.0015069289426980742 -8.50240347741863e-05 -0.0005255499950291224 8.845041801280464e-05 0.0008543167136461806
 8.848549104116277e-05 0.0008543054511807115 -8.50240347741863e-05 -0.0005255499950291224 0.0016206457841419022 0.0015068489402563791 0.9983415821678109 -0.003874477071893457
 -8.50201755683911e-05 -0.000525547612116875 8.845041801280464e-05 0.0008543167136461806 0.9983415821678109 -0.003874477071893457 0.0016206558292554843 0.0015068440703653423
0.01250521050438 0.0017750127886920844 0.003045816100578539 0.998143799697907 -0.007749687489023047 0.00012786446782414067 0.0017088372424399537 -0.0001193675853186784 -0.0010537254447191148
 0.998143799697907 -0.007749687489023047 0.0017750355157232784 0.003045809677898314 -0.00011938279195810258 -0.0010537298604233383 0.00012772465537541684 0.0017088640464430302
 0.00012786446782414067 0.0017088372424399537 -0.00011938279195810258 -0.0010537298604233383 0.0017750027744844244 0.003045650964926907 0.9981437983426139 -0.00774985491055189
 -0.0001193675853186784 -0.0010537254447191148 0.00012772465537541684 0.0017088640464430302 0.9981437983426139 -0.00774985491055189 0.001775042889073574 0.0030456401778888725
0.01875781575657 0.0019424819840338687 0.004606911235636341 0.9979273508967091 -0.011635333952795143 0.0001756204851243938 0.002564231376817441 -0.00016054207095939625 -0.001583709991719212
 0.9979273508967091 -0.011635333952795143 0.0019425330388628287 0.004606900152802064 -0.00016057597966471438 -0.0015837160262904336 0.0001753065302347148 0.0025642788407843234
 0.0001756204851243938 0.002564231376817441 -0.00016057597966471438 -0.0015837160262904336 0.0019424598983917608 0.004606664015735687 0.9979273482682592 -0.01163558491883397
 -0.00016054207095939625 -0.001583709991719212 0.0001753065302347148 0.0025642788407843234 0.9979273482682592 -0.01163558491883397 0.0019425500462501193 0.004606646156783495
0.02501042100875 0.0021233744591909374 0.00618802381533737 0.9976919881945447 -0.015533225596683417 0.00023184374716193543 0.003420543655445932 -0.00020864511736861887 -0.0021152524608368476
 0.9976919881945447 -0.015533225596683417 0.0021234651018111005 0.006188007057534747 -0.0002087049943098711 -0.002115259629060011 0.00023128629014303385 0.003420617698432887
 0.00023184374716193543 0.003420543655445932 -0.0002087049943098711 -0.002115259629060011 0.0021233356068955096 0.006187694859091765 0.9976919838942895 -0.015533560124009438
 -0.00020864511736861887 -0.0021152524608368476 0.00023128629014303385 0.003420617698432887 0.9976919838942895 -0.015533560124009438 0.0021234957145772823 0.006187668670527913
0.03126302626094 0.002317995411478215 0.007788029184663019 0.9974374505633382 -0.019444177174809556 0.0002966251234793783 0.004277745193561538 -0.00026377529828256217 -0.002648183247669651
 0.9974374505633382 -0.019444177174809556 0.0023181368723404726 0.007788005700700259 -0.00026386833634265496 -0.002648190992105838 0.00029575478010916245 0.0042778525374252115
 0.0002966251234793783 0.004277745193561538 -0.00026386833634265496 -0.002648190992105838 0.0023179351008088605 0.007787618925514187 0.9974374441852153 -0.01944459530946684
 -0.00026377529828256217 -0.002648183247669651 0.00029575478010916245 0.0042778525374252115 0.9974374441852153 -0.01944459530946684 0.0023181850662120237 0.007787583046610853
0.037515631513130004 0.0025266434596212233 0.009406197138175134 0.9971634708603375 -0.023368599353048063 0.00037005519518627566 0.005135773900213873 -0.0003260290711766289 -0.003182360454413368
 0.9971634708603375 -0.023368599353048063 0.0025268469431320305 0.009406165840764629 -0.0003261623977443321 -0.0031823681451280564 0.00036880252654660395 0.005135922075950838
 0.00037005519518627566 0.005135773900213873 -0.0003261623977443321 -0.0031823681451280564 0.002526557009771021 0.009405706082804471 0.9971634619970757 -0.023369101183380574
 -0.0003260290711766289 -0.003182360454413368 0.00036880252654660395 0.005135922075950838 0.9971634619970757 -0.023369101183380574 0.002526916707375653 0.009405659049298437
0.043768236765320004 0.002749613226413238 0.011041986728767073 0.9968697786088482 -0.0273067038338221 0.0004522238132314239 0.005994550145211983 -0.000395501067458472 -0.003717654221313207
 0.9968697786088482 -0.0273067038338221 0.002749889913312754 0.011041946494679749 -0.00039568174906311605 -0.0037176611557774727 0.00045051931154416403 0.005994747500617683
 0.0004522238132314239 0.005994550145211983 -0.00039568174906311605 -0.0037176611557774727 0.0027494959608828865 0.011041415471740862 0.9968697668444932 -0.027307289476507533
 -0.000395501067458472 -0.003717654221313207 0.00045051931154416403 0.005994747500617683 0.9968697668444932 -0.027307289476507533 0.0027499852451711424 0.011041355715091784
0.050020842017509996 0.002987196533628073 0.012694961484348153 0.9965561013961914 -0.03125858807115471 0.0005432198384160054 0.0068539832220785935 -0.00047228420210724577 -0.0042539402638332455
 0.9965561013961914 -0.03125858807115471 0.002987557582955689 0.012694911154667636 -0.0004725192473547475 -0.004253945666923166 0.0005409939215014331 0.006854238929930748
 0.0005432198384160054 0.0068539832220785935 -0.0004725192473547475 -0.004253945666923166 0.0029870437854828285 0.012694310704116148 0.9965560863094379 -0.031259257676056654
 -0.00047228420210724577 -0.0042539402638332455 0.0005409939215014331 0.006854238929930748 0.9965560863094379 -0.031259257676056654 0.002987682493963338 0.012694236550594224
0.055454545454549996 0.003205756606500165 0.014145111799239714 0.9962670637458576 -0.03470410666319262 0.0006295352099868872 0.007601313614854429 -0.0005450195079925762 -0.004720700249663706
 0.9962670637458576 -0.03470410666319262 0.0032062000168410617 0.014145051727336128 -0.0005453074453268073 -0.004720703636057105 0.0006267996000005767 0.00760162812918462
 0.0006295352099868872 0.007601313614854429 -0.0005453074453268073 -0.004720703636057105 0.0032055692393453987 0.01414439253254426 0.9962670454233803 -0.03470484937641257
 -0.0005450195079925762 -0.004720700249663706 0.0006267996000005767 0.00760162812918462 0.9962670454233803 -0.03470484937641257 0.003206353900935438 0.014144304426055987
0.056273447269699996 0.0032396830210467066 0.014364747782658078 0.9962221656978392 -0.03522427682861263 0.0006431309582773645 0.0077139745231201455 -0.0005564697059730517 -0.004791096700443856
 0.9962221656978392 -0.03522427682861263 0.0032401395725013783 0.014364686162861474 -0.0005567660676229438 -0.004791099724431461 0.000640313969014838 0.00771429858954099
 0.0006431309582773645 0.0077139745231201455 -0.0005567660676229438 -0.004791099724431461 0.003239490132096029 0.014364018248268955 0.9962221468593545 -0.035225030572864705
 -0.0005564697059730517 -0.004791096700443856 0.000640313969014838 0.00771429858954099 0.9962221468593545 -0.035225030572864705 0.00324029808745986 0.014363927918050513
0.06252605252188 0.0035073604806840036 0.0160510119752496 0.9958676974202456 -0.03920374499035226 0.0007520435445738065 0.008574419284325771 -0.0006481471164087781 -0.0053290023137644435
 0.9958676974202456 -0.03920374499035226 0.0035079236561068356 0.016050937835343095 -0.0006485116927098458 -0.005329002038361489 0.0007485657538069127 0.0085748225572375
 0.0007520435445738065 0.008574419284325771 -0.0006485116927098458 -0.005329002038361489 0.003507122802140451 0.016050204543604982 0.9958676743916467 -0.0392045830817724
 -0.0006481471164087781 -0.0053290023137644435 0.0007485657538069127 0.0085748225572375 0.9958676743916467 -0.0392045830817724 0.003508119814345816 0.016050096149749178
0.06877865777407 0.0037905150329013318 0.017753446748762943 0.9954924222896879 -0.04319693113796439 0.0008700425313696335 0.009435207628435069 -0.0007474042458495239 -0.005867535517181404
 0.9954924222896879 -0.04319693113796439 0.003791195938064949 0.017753358823388733 -0.0007478438814934817 -0.005867530949576749 0.0008658341432679845 0.009435701805979782
 0.0008700425313696335 0.009435207628435069 -0.0007478438814934817 -0.005867530949576749 0.0037902279274630423 0.017752562364880185 0.995492394623176 -0.04319785381562397
 -0.0007474042458495239 -0.005867535517181404 0.0008658341432679845 0.009435701805979782 0.995492394623176 -0.04319785381562397 0.0037914337956096904 0.017752433912233252
0.07503126302626001 0.00408943121217402 0.019471762466916846 0.9950960661533453 -0.04720374615038013 0.0009972113068639266 0.01029622522707552 -0.0008543271353293145 -0.006406573706237344
 0.9950960661533453 -0.04720374615038013 0.004090240938739908 0.019471659455247793 -0.0008548486221410527 -0.006406563781148037 0.0009922024659986374 0.010296822865982765
 0.0009972113068639266 0.01029622522707552 -0.0008548486221410527 -0.006406563781148037 0.004089090054550576 0.019470802170861366 0.9950960333905511 -0.04720475367827283
 -0.0008543271353293145 -0.006406573706237344 0.0009922024659986374 0.010296822865982765 0.9950960333905511 -0.04720475367827283 0.004090524568487156 0.019470651554941713
0.08128386827845 0.004404391995479892 0.0212056814286466 0.9946783552269325 -0.05122407889142701 0.0011336316126635492 0.011157353745415651 -0.0009689999991207673 -0.006945992831609798
 0.9946783552269325 -0.05122407889142701 0.004405341622609591 0.02120556199446221 -0.0009696100764895351 -0.0069459764113377915 0.0011277524124883912 0.0111580682692741
 0.0011336316126635492 0.011157353745415651 -0.0009696100764895351 -0.0069459764113377915 0.004403992173605258 0.021204646350738956 0.9946783168974781 -0.0512251715639916
 -0.0009689999991207673 -0.006945992831609798 0.0011277524124883912 0.0111580682692741 0.9946783168974781 -0.0512251715639916 0.004405675115370909 0.021204471356498413
0.08753647353064001 0.0047356787911456595 0.022954933882679707 0.9942390163056243 -0.055257800145521306 0.0012793834478609 0.012018471156164424 -0.0010915051632288777 -0.00748566710691037
 0.9942390163056243 -0.055257800145521306 0.0047367793871104374 0.022954796654180935 -0.0010922105182956932 -0.007485642981418481 0.0012725639403604958 0.012019316863570698
 0.0012793834478609 0.012018471156164424 -0.0010922105182956932 -0.007485642981418481 0.004735215707594771 0.022953825244298814 0.9942389719267896 -0.05525897828738469
 -0.0010915051632288777 -0.00748566710691037 0.0012725639403604958 0.012019316863570698 0.9942389719267896 -0.05525897828738469 0.0047371668532926285 0.022953623544849904
0.09378907878283 0.005083571402603934 0.024719255185038633 0.9937777769537987 -0.059304765414965016 0.001434544977103417 0.012879451963643653 -0.0012219229985298535 -0.008025468810916661
 0.9937777769537987 -0.059304765414965016 0.005084834026703506 0.02471909875469695 -0.001222730266387724 -0.008025435697899527 0.0014267151834155048 0.01288044403614924
 0.001434544977103417 0.012879451963643653 -0.001222730266387724 -0.008025435697899527 0.005083040475952115 0.02471807430789313 0.9937777260287907 -0.0593060293722248
 -0.0012219229985298535 -0.008025468810916661 0.0014267151834155048 0.01288044403614924 0.9937777260287907 -0.0593060293722248 0.005085279596788278 0.024717843463170255
0.100041684035 0.005448347972147769 0.026498383725793186 0.9932943656764435 -0.06336481695274056 0.0015991924402607629 0.013740167379623863 -0.001360331851394804 -0.008565268142458613
 0.9932943656764435 -0.06336481695274056 0.005449783676171646 0.026498206650124177 -0.0013612476150498243 -0.008565224687430664 0.0015902823618569753 0.013741321889591583
 0.0015991924402607629 0.013740167379623863 -0.0013612476150498243 -0.008565224687430664 0.0054477446383042576 0.026497132017979475 0.9932943076940657 -0.06336616710741932
 -0.001360331851394804 -0.008565268142458613 0.0015902823618569753 0.013741321889591583 0.9932943076940657 -0.06336616710741932 0.005450291502029927 0.026496869473299926
0.1059090909091 0.005806254116017061 0.028181142424666968 0.9928203294657695 -0.0671864957173035 0.001762390120753821 0.014547498640578591 -0.0014975495723980106 -0.009071692868291606
 0.9928203294657695 -0.0671864957173035 0.005807862283576522 0.028180944630419754 -0.001498573088540664 -0.009071638412283667 0.001752402640107143 0.014548820998759402
 0.001762390120753821 0.014547498640578591 -0.001498573088540664 -0.009071638412283667 0.005805578701473247 0.028179825619429593 0.9928202643816951 -0.06718792712694001
 -0.0014975495723980106 -0.009071692868291606 0.001752402640107143 0.014548820998759402 0.9928202643816951 -0.06718792712694001 0.0058084323262204965 0.028179530900835057
0.1062942892872 0.0058302849110254545 0.0282920593504109 0.992788512081695 -0.0674377853057283 0.001773400063976353 0.014600485456429745 -0.001506807970991362 -0.00910493312272225
 0.992788512081695 -0.0674377853057283 0.005831904741073651 0.028291860149677273 -0.001507838761263828 -0.009104877899119217 0.0017633396949226145 0.014601819374684563
 0.001773400063976353 0.014600485456429745 -0.001507838761263828 -0.009104877899119217 0.005829604624616732 0.028290738319860866 0.9927884465147695 -0.06743922206281006
 -0.001506807970991362 -0.00910493312272225 0.0017633396949226145 0.014601819374684563 0.9927884465147695 -0.06743922206281006 0.005832478997270532 0.028290441404428303
0.11254689453939999 0.006229656818759934 0.03010002217551262 0.9922599470337625 -0.07152349046894142 0.0019572399743311834 0.015460271196997843 -0.0016614254348207554 -0.009644329525405997
 0.9922599470337625 -0.07152349046894142 0.006231471817034669 0.030099799333290465 -0.0016625777302727571 -0.009644261034678745 0.0019459593138832264 0.015461802400206559
 0.0019572399743311834 0.015460271196997843 -0.0016625777302727571 -0.009644261034678745 0.006228895054922413 0.03009863342319122 0.9922598733386716 -0.07152501426347557
 -0.0016614254348207554 -0.009644329525405997 0.0019459593138832264 0.015461802400206559 0.9922598733386716 -0.07152501426347557 0.00623211670141613 0.03009829934857675
0.11879949979160001 0.006646736394362576 0.03192201165368332 0.9917084028018102 -0.07562174279578265 0.002150782110252909 0.0163193866473859 -0.001824256072684392 -0.010183320829153006
 0.9917084028018102 -0.07562174279578265 0.006648757600839441 0.031921763616456746 -0.0018255362993190316 -0.010183237500903579 0.002138211176022708 0.016321133925360685
 0.002150782110252909 0.0163193866473859 -0.0018255362993190316 -0.010183237500903579 0.00664588864969409 0.03192055687646829 0.9917083204167135 -0.07562335409037493
 -0.001824256072684392 -0.010183320829153006 0.002138211176022708 0.016321133925360685 0.9917083204167135 -0.07562335409037493 0.006649477335749583 0.03192018273489798
0.1250521050438 0.00708179434023793 0.033757765840644924 0.9911336132032457 -0.07973234371161021 0.0023540941371914476 0.017177690976449576 -0.001995369389453629 -0.010721768187965075
 0.9911336132032457 -0.07973234371161021 0.007084032794461996 0.03375749101727879 -0.001996783920514721 -0.010721668380037743 0.0023401629790841933 0.017179674039123675
 0.0023540941371914476 0.017177690976449576 -0.001996783920514721 -0.010721668380037743 0.007080856134667103 0.03375624683256951 0.9911335215473168 -0.07973404299549179
 -0.001995369389453629 -0.010721768187965075 0.0023401629790841933 0.017179674039123675 0.9911335215473168 -0.07973404299549179 0.007084831627672796 0.03375582959524869
0.131304710296 0.0075350992615031585 0.03560702081027009 0.990535313744988 -0.08385508628520895 0.002567241361915419 0.018035040547391967 -0.0021748324865530585 -0.011259530414639117
 0.990535313744988 -0.08385508628520895 0.007537566003997509 0.03560671757141855 -0.002176387642151413 -0.011259412413310944 0.002551880076142546 0.018037280031607223
 0.002567241361915419 0.018035040547391967 -0.002176387642151413 -0.011259412413310944 0.007534066139923604 0.03560543946221885 0.9905352122176487 -0.08385687407466574
 -0.0021748324865530585 -0.011259530414639117 0.002551880076142546 0.018037280031607223 0.9905352122176487 -0.08385687407466574 0.007538448210116318 0.035604975977570986
0.1375573155481 0.007901781546216248 0.0372261547749018 0.9900184155372609 -0.08774630005641278 0.0027631804763183446 0.018866179920872375 -0.002335620996433468 -0.011771358506528835
 0.9900184155372609 -0.08774630005641278 0.007904489491337879 0.03722583115443035 -0.0023373261957983626 -0.011771222238387058 0.002746348926568172 0.018868672146152732
 0.0027631804763183446 0.018866179920872375 -0.0023373261957983626 -0.011771222238387058 0.00790064959589228 0.037224512750108796 0.9900183036777277 -0.08774817668401555
 -0.002335620996433468 -0.011771358506528835 0.002746348926568172 0.018868672146152732 0.9900183036777277 -0.08774817668401555 0.00790545855787487 0.03722400971744914
0.1438099208003 0.008281303040467662 0.038836887316535895 0.9894834307828497 -0.09162782230183114 0.0029670529320644213 0.019694166882144197 -0.0025028643553417227 -0.012280312763685578
 0.9894834307828497 -0.09162782230183114 0.008284263534947498 0.03883654241078106 -0.0025047264003146743 -0.012280156548538519 0.002948686665140743 0.019696930735980542
 0.0029670529320644213 0.019694166882144197 -0.0025047264003146743 -0.012280156548538519 0.008280067939179014 0.03883518657282958 0.989483307989942 -0.09162978828047659
 -0.0025028643553417227 -0.012280312763685578 0.002948686665140743 0.019696930735980542 0.989483307989942 -0.09162978828047659 0.00828532363416163 0.038834641544234494
0.1500625260525 0.008673532376986193 0.04043908864183494 0.9889304948392665 -0.09549956204321322 0.003178791089689171 0.020518923040042943 -0.0026764969132178954 -0.01278631877748876
 0.9889304948392665 -0.09549956204321322 0.008676756784481432 0.04043872149466862 -0.0026785225920687287 -0.012786140867852047 0.0031588260421019794 0.020521978095806723
 0.003178791089689171 0.020518923040042943 -0.0026785225920687287 -0.012786140867852047 0.00867218983243002 0.04043733121548686 0.9889303604940503 -0.09550161790544792
 -0.0026764969132178954 -0.01278631877748876 0.0031588260421019794 0.020521978095806723 0.9889303604940503 -0.09550161790544792 0.008677912105488293 0.04043674162776579
0.15631513130469998 0.00907833727621849 0.0420326329068109 0.9883597437314503 -0.09936142851527334 0.0033983265295942484 0.021340371279589414 -0.0028564522259823975 -0.013289303691448822
 0.9883597437314503 -0.09936142851527334 0.009081836977633212 0.04203224250870605 -0.002858648313172712 -0.013289102272859394 0.0033766990341042957 0.021343737788859757
