! Created with skrf 1.8.0 (http://scikit-rf.org).
# GHz S RI R 50.0 
!freq ReS11 ImS11 ReS12 ImS12 ReS13 ImS13
! ReS14 ImS14
! ReS21 ImS21 ReS22 ImS22 ReS23 ImS23
! ReS24 ImS24
! ReS31 ImS31 ReS32 ImS32 ReS33 ImS33
! ReS34 ImS34
! ReS41 ImS41 ReS42 ImS42 ReS43 ImS43
! ReS44 ImS44
!
0.0 0.001419101908044 0.0 0.9985808980919 0.0 5.453939601312e-05 0.0 -5.453939574682e-05 6.679149642877388e-21
 0.9985808980919 0.0 0.001419101908055 0.0 -5.453939574684e-05 6.679149642879838e-21 5.453939601346e-05 0.0
 5.453939601312e-05 0.0 -5.453939574684e-05 6.679149642879838e-21 0.001419101896674 0.0 0.9985808980806 0.0
 -5.453939574682e-05 6.679149642877388e-21 5.453939601346e-05 0.0 0.9985808980806 0.0 0.001419101896689 0.0
0.005 0.0015265103035156295 0.0011609745916636594 0.9984450774170687 -0.0029730837809303313 7.619319877152827e-05 0.0006021134010001085 -7.40712242564442e-05 -0.00037778036358913897
 0.9984450774170687 -0.0029730837809303313 0.0015265028806202305 0.0011609788502164819 -7.407354648542124e-05 -0.00037778205072072754 7.624622825572243e-05 0.0006020934118609812
 7.619319877152827e-05 0.0006021134010001085 -7.407354648542124e-05 -0.00037778205072072754 0.0015265099509394289 0.0011610420011221004 0.9984450777643485 -0.0029730167222583375
 -7.40712242564442e-05 -0.00037778036358913897 7.624622825572243e-05 0.0006020934118609812 0.9984450777643485 -0.0029730167222583375 0.001526503927055997 0.0011610455590075545
0.006252605252188 0.0015545830946081952 0.0014558000397272416 0.9984093733639231 -0.003717097429888679 8.230933489850735e-05 0.0007529401813220709 -7.953874135478199e-05 -0.00047271992797829325
 0.9984093733639231 -0.003717097429888679 0.0015545714914783752 0.0014558053848208099 -7.954235574373134e-05 -0.0004727220065010852 8.239219135233252e-05 0.0007529142045470425
 8.230933489850735e-05 0.0007529401813220709 -7.954235574373134e-05 -0.0004727220065010852 0.001554582474744316 0.0014558842829326454 0.9984093738375541 -0.0037170136179613925
 -7.953874135478199e-05 -0.00047271992797829325 8.239219135233252e-05 0.0007529142045470425 0.9984093738375541 -0.0037170136179613925 0.0015545730575604799 0.0014558887670710725
0.01250521050438 0.0017017984607895897 0.0029422500277835073 0.9982209933117553 -0.007435097268796596 0.00011701385057494317 0.0015062830875900246 -0.00011030825605305527 -0.0009477959745284448
 0.9982209933117553 -0.007435097268796596 0.0017017521366713857 0.0029422609304831887 -0.00011032251007388542 -0.0009477997992477857 0.00011734434427735906 0.0015062205267929334
 0.00011701385057494317 0.0015062830875900246 -0.00011032251007388542 -0.0009477997992477857 0.0017017954101328707 0.0029424182066076303 0.9982209946191699 -0.0074349298857859635
 -0.00011030825605305527 -0.0009477959745284448 0.00011734434427735906 0.0015062205267929334 0.9982209946191699 -0.0074349298857859635 0.0017017577971004379 0.0029424275283692117
0.01875781575657 0.0018610492562322388 0.004450026706020902 0.9980155380713285 -0.011163069764436616 0.00015873108134737334 0.002260549144249058 -0.00014693848291417086 -0.0014245557920162285
 0.9980155380713285 -0.011163069764436616 0.0018609451813749814 0.004450043398505861 -0.00014697028439175693 -0.0014245609677552334 0.00015947369093134557 0.0022604374813866472
 0.00015873108134737334 0.002260549144249058 -0.00014697028439175693 -0.0014245609677552334 0.001861041994023792 0.0044502786659647775 0.9980155405843272 -0.011162818912242734
 -0.00014693848291417086 -0.0014245557920162285 0.00015947369093134557 0.0022604374813866472 0.9980155405843272 -0.011162818912242734 0.001860957457901181 0.004450293177070138
0.02501042100875 0.002032628950760764 0.005977041015427326 0.9977927796634248 -0.01490284262549858 0.00020753992720562586 0.0030157852113412804 -0.00018951737122900326 -0.0019027960254678286
 0.9977927796634248 -0.01490284262549858 0.0020324441501739293 0.0059770637374700515 -0.0001895735505858933 -0.0019028020874313333 0.00020885931159929434 0.003015610079952605
 0.00020753992720562586 0.0030157852113412804 -0.0001895735505858933 -0.0019028020874313333 0.0020326157056959324 0.005977376639859131 0.9977927837494845 -0.014902508380697966
 -0.00018951737122900326 -0.0019027960254678286 0.00020885931159929434 0.003015610079952605 0.9977927837494845 -0.014902508380697966 0.00203246554631027 0.005977396681119315
0.03126302626094 0.0022168188102387864 0.007522228388487421 0.9975524777674734 -0.01865521069159964 0.0002635197725905533 0.00377196903295673 -0.00023813061803849028 -0.0023823779053134936
 0.9975524777674734 -0.01865521069159964 0.0022165303493408947 0.007522257384506564 -0.00023821794172609935 -0.0023823843181747222 0.000265580921832789 0.0037717142052412322
 0.0002635197725905533 0.00377196903295673 -0.00023821794172609935 -0.0023823843181747222 0.0022167978252659757 0.007522647591925339 0.9975524837957256 -0.01865479311186901
 -0.00023813061803849028 -0.0023823779053134936 0.000265580921832789 0.0037717142052412322 0.9975524837957256 -0.01865479311186901 0.0022165633577503497 0.007522673490633554
0.037515631513130004 0.0024138941674094463 0.009084902653544882 0.9972943861595335 -0.022420581970662486 0.00032674979164651856 0.0045290512443837486 -0.0002928622939340693 -0.0028631852396890523
 0.9972943861595335 -0.022420581970662486 0.0024134791420283904 0.009084938170692688 -0.00029298747117848195 -0.0028631913972040285 0.00032971809609634844 0.00452869861061855
 0.00032674979164651856 0.0045290512443837486 -0.00029298747117848195 -0.0028631913972040285 0.0024138636920511968 0.009085405369308538 0.9972943944943924 -0.022420081106850235
 -0.0002928622939340693 -0.0028631852396890523 0.00032971809609634844 0.00452869861061855 0.9972943944943924 -0.022420081106850235 0.002413526239073013 0.009085437437535204
0.043768236765320004 0.0026241268398418454 0.010664559427858248 0.997018255296422 -0.02619917417999623 0.0003973086199704937 0.0052869681541173625 -0.0003537950759630018 -0.003345111627467195
 0.997018255296422 -0.02619917417999623 0.00262356236823889 0.01066460171474533 -0.00035396476275583973 -0.003345116852299143 0.00040134990448342767 0.005286497699722864
 0.0003973086199704937 0.0052869681541173625 -0.00035396476275583973 -0.003345116852299143 0.002624085135174061 0.010665145607611748 0.9970182663027443 -0.026198590076634904
 -0.0003537950759630018 -0.003345111627467195 0.00040134990448342767 0.005286497699722864 0.9970182663027443 -0.026198590076634904 0.002623626020115631 0.010665184140790297
0.050020842017509996 0.0028477862651261157 0.012260794845768598 0.9967238336187482 -0.029991095950619988 0.000475274160920834 0.006045647014087874 -0.0004210103355649053 -0.003828055183115717
 0.9967238336187482 -0.029991095950619988 0.0028470494807076923 0.012260844151473767 -0.00042123113717177675 -0.0038280587266959817 0.0004805547005098759 0.0060450367956781485
 0.000475274160920834 0.006045647014087874 -0.00042123113717177675 -0.0038280587266959817 0.0028477316021169904 0.012261464453214029 0.9967238476606906 -0.02999042865205467
 -0.0004210103355649053 -0.003828055183115717 0.0004805547005098759 0.0060450367956781485 0.9967238476606906 -0.02999042865205467 0.0028471321429606737 0.012261509729047647
0.055454545454549996 0.0030532651542787845 0.013661168032381935 0.9964529215529279 -0.03329724796302955 0.0005491035864969486 0.006705519340663039 -0.0004845868086417644 -0.004248496175376981
 0.9964529215529279 -0.03329724796302955 0.003052360061230316 0.013661223639684158 -0.0004848573566619828 -0.004248497594585883 0.0005555964651911407 0.006704768326011084
 0.0005491035864969486 0.006705519340663039 -0.0004848573566619828 -0.004248497594585883 0.0030531978330171176 0.013661910124190582 0.9964529385281795 -0.033296508397912865
 -0.0004845868086417644 -0.004248496175376981 0.0005555964651911407 0.006704768326011084 0.9964529385281795 -0.033296508397912865 0.0030524612302793804 0.013661961470535841
0.056273447269699996 0.003085140088254196 0.013873265682008975 0.9964108683090961 -0.03379638663650582 0.0005607234479253549 0.0068050086098181885 -0.0004945881648781471 -0.004311915943042791
 0.9964108683090961 -0.03379638663650582 0.003084208133063747 0.013873322255263764 -0.0004948666374364344 -0.004311916985488064 0.0005674099724462732 0.006804234730794408
 0.0005607234479253549 0.0068050086098181885 -0.0004948666374364344 -0.004311916985488064 0.0030850707470635396 0.013874018696644397 0.9964108857501767 -0.033795636183183826
 -0.0004945881648781471 -0.004311915943042791 0.0005674099724462732 0.006804234730794408 0.9964108857501767 -0.033795636183183826 0.0030843122509497537 0.013874070974039516
0.06252605252188 0.0033364544811393523 0.015501667420396473 0.9960791057851712 -0.03761503818024374 0.0006537325363714236 0.007564968677560153 -0.0005746073700045653 -0.004796594447107129
 0.9960791057851712 -0.03761503818024374 0.0033353044994699887 0.015501731508992516 -0.000574950021639449 -0.004796592097135103 0.0006619922275897655 0.0075640052635257944
 0.0006537325363714236 0.007564968677560153 -0.000574950021639449 -0.004796592097135103 0.003336368751247662 0.015502503834463086 0.9960791269883387 -0.03761420461170918
 -0.0005746073700045653 -0.004796594447107129 0.0006619922275897655 0.0075640052635257944 0.9960791269883387 -0.03761420461170918 0.003335432508632942 0.015502563352830536
0.06877865777407 0.0036019943192705565 0.017145721183974248 0.9957282920526082 -0.04144700811923534 0.0007543764105630414 0.00832543875307492 -0.0006611454463246164 -0.0052819908909998185
 0.9957282920526082 -0.04144700811923534 0.0036006034514149223 0.01714579303434803 -0.000661558737801992 -0.0052819841858668705 0.0007643768942945607 0.00832425792715711
 0.0007543764105630414 0.00832543875307492 -0.000661558737801992 -0.0052819841858668705 0.00360189049959055 0.017146640998679647 0.9957283173812167 -0.041446091477909675
 -0.0006611454463246164 -0.0052819908909998185 0.0007643768942945607 0.00832425792715711 0.9957283173812167 -0.041446091477909675 0.0036007577789420207 0.017146707977195974
0.07503126302626001 0.0038820232718503075 0.018805165434973032 0.9953581729752015 -0.04529222782494585 0.0008627288999998798 0.009086326709073085 -0.000754278542451728 -0.00576800459273474
 0.9953581729752015 -0.04529222782494585 0.0038803686481676553 0.01880524529193002 -0.0007547688876233384 -0.005767992498189375 0.0008746382341982625 0.009084898567295706
 0.0008627288999998798 0.009086326709073085 -0.0007547688876233384 -0.005767992498189375 0.0038818996687530445 0.018806168665988315 0.9953582027906274 -0.04529122815059941
 -0.000754278542451728 -0.00576800459273474 0.0008746382341982625 0.009084898567295706 0.9953582027906274 -0.04529122815059941 0.0038805517111347664 0.018806243303137356
0.08128386827845 0.004176803837454166 0.020479750468616616 0.994968494492579 -0.04915060795114496 0.0009788626016911685 0.009847537114035246 -0.0008540814162126464 -0.006254533640727673
 0.994968494492579 -0.04915060795114496 0.004174862572080786 0.020479838575258206 -0.0008546551822217484 -0.006254515050965146 0.0009928492615866409 0.009845829700775386
 0.0009788626016911685 0.009847537114035246 -0.0008546551822217484 -0.006254515050965146 0.004176658766608879 0.020480837145652648 0.9949685291567502 -0.049149525281327426
 -0.0008540814162126464 -0.006254533640727673 0.0009928492615866409 0.009845829700775386 0.9949685291567502 -0.049149525281327426 0.004175076779915347 0.02048091961890337
0.08753647353064001 0.004486597345328313 0.0221692345917945 0.9945590028074308 -0.05302204220069843 0.0011028488055292748 0.010608971483152476 -0.0009606273858774008 -0.006741474652872903
 0.9945590028074308 -0.05302204220069843 0.00448434653047935 0.022169331189602477 -0.0009612908931956657 -0.00674144839051165 0.0011190816664340376 0.010606950766735347
 0.0011028488055292748 0.010608971483152476 -0.0009612908931956657 -0.00674144839051165 0.004486429130006488 0.022170404753887058 0.9945590426813108 -0.053020876575545633
 -0.0009606273858774008 -0.006741474652872903 0.0011190816664340376 0.010606950766735347 0.9945590426813108 -0.053020876575545633 0.004484594283996373 0.02217049521942207
0.09378907878283 0.004811663931648935 0.02387338139885296 0.9941294445493555 -0.056906409998684744 0.0012347574223906589 0.011370528458826745 -0.0010739882773318553 -0.0072287226092853
 0.9941294445493555 -0.056906409998684744 0.004809080631043909 0.02387348672799721 -0.0010747477996867869 -0.00722868742535171 0.0012534057402670143 0.011368158307348422
 0.0012347574223906589 0.011370528458826745 -0.0010747477996867869 -0.00722868742535171 0.0048114709032842625 0.0238746350973452 0.9941294899936806 -0.05690516145785161
 -0.0010739882773318553 -0.0072287226092853 0.0012534057402670143 0.011368158307348422 0.9941294899936806 -0.05690516145785161 0.004809364323568295 0.02387473369008663
0.100041684035 0.005152262498027333 0.02559195776497315 0.993679566925223 -0.060803578451613896 0.0013746569132389052 0.012132103948273128 -0.001194234368689287 -0.0077161707313454005
 0.993679566925223 -0.060803578451613896 0.005149323741111944 0.02559207206465495 -0.0011950961328694592 -0.007716125305268614 0.0013958903037934894 0.012129346105558972
 0.0013746569132389052 0.012132103948273128 -0.0011950961328694592 -0.007716125305268614 0.005152042995412249 0.025593295062559744 0.9936796183002496 -0.06080224703528678
 -0.001194234368689287 -0.0077161707313454005 0.0013958903037934894 0.012129346105558972 0.9936796183002496 -0.06080224703528678 0.005149645758341368 0.025593401896295352
0.1059090909091 0.005486233789227083 0.027217576837017688 0.9932386996939218 -0.0644721718329591 0.001513265010205266 0.01284668357437064 -0.0013133957793957257 -0.008173674407888352
 0.9932386996939218 -0.0644721718329591 0.005482940546816582 0.027217699771925896 -0.0013143591078793582 -0.008173618105829073 0.001537078781438865 0.012843525217877601
 0.001513265010205266 0.01284668357437064 -0.0013143591078793582 -0.008173618105829073 0.005485987939260601 0.02721899265085146 0.9932387569615675 -0.06447076268361071
 -0.0013133957793957257 -0.008173674407888352 0.001537078781438865 0.012843525217877601 0.9932387569615675 -0.06447076268361071 0.005483300691051462 0.027219107302809065
0.1062942892872 0.005508650656833399 0.02732473234801831 0.9932091178582251 -0.0647134038020042 0.0015226142198549706 0.012893591227775225 -0.0013214343322632627 -0.008203710397503764
 0.9932091178582251 -0.0647134038020042 0.005505333432541174 0.027324855857189426 -0.0013224045178927078 -0.008203653337125106 0.0015466026358936214 0.012890405289667235
 0.0015226142198549706 0.012893591227775225 -0.0013224045178927078 -0.008203653337125106 0.00550840302634158 0.027326153319801243 0.9932091755237864 -0.0647119895498913
 -0.0013214343322632627 -0.008203710397503764 0.0015466026358936214 0.012890405289667235 0.9932091755237864 -0.0647119895498913 0.005505696153045453 0.02732626848746685
0.11254689453939999 0.005881084667097695 0.029071474436083607 0.9927178461201461 -0.06863573254134084 0.0016786946955939382 0.013654881029314546 -0.0014556551753079287 -0.00869123108032712
 0.9927178461201461 -0.06863573254134084 0.005877365917616355 0.02907160739422221 -0.001456739914531706 -0.008691160921915062 0.0017056084031202786 0.013651224420180788
 0.0016786946955939382 0.013654881029314546 -0.001456739914531706 -0.008691160921915062 0.005880807262491805 0.02907297916835101 0.9927179104356733 -0.06863423549387204
 -0.0014556551753079287 -0.00869123108032712 0.0017056084031202786 0.013651224420180788 0.9927179104356733 -0.06863423549387204 0.005877771713032019 0.02907310274256278
0.11879949979160001 0.006269819362177769 0.030831953047553807 0.9922055014584112 -0.07257040227464047 0.0018429620369439868 0.014415861609416582 -0.0015969621790229889 -0.009178620304897803
 0.9922055014584112 -0.07257040227464047 0.006265675976571452 0.030832095695644348 -0.001598167556052148 -0.009178535513192334 0.0018729715900645896 0.014411689558964805
 0.0018429620369439868 0.014415861609416582 -0.001598167556052148 -0.009178535513192334 0.006269510544044916 0.030833541637506897 0.992205572783095 -0.07256882247330712
 -0.0015969621790229889 -0.009178620304897803 0.0018729715900645896 0.014411689558964805 0.992205572783095 -0.07256882247330712 0.006266127212079434 0.030833673671127246
0.1250521050438 0.006675108071166627 0.032605936223836854 0.9916718347195037 -0.07651724239657608 0.0020154782151963375 0.01517641880988248 -0.001745418836536137 -0.00966576361914417
 0.9916718347195037 -0.07651724239657608 0.006670516879326023 0.03260608880560843 -0.0017467508872938292 -0.009665662587400679 0.002048754429843713 0.015171684330330785
 0.0020154782151963375 0.01517641880988248 -0.0017467508872938292 -0.009665662587400679 0.006674766206955325 0.03260760878269204 0.9916719134119035 -0.07651557988090593
 -0.001745418836536137 -0.00966576361914417 0.002048754429843713 0.015171684330330785 0.9916719134119035 -0.07651557988090593 0.0066710159135280655 0.03260774930975791
0.131304710296 0.007097202535499015 0.03439319046247944 0.9911165979690103 -0.08047607463183673 0.002196303408413946 0.01593643611123286 -0.0019010867899267537 -0.0101525445752433
 0.9911165979690103 -0.08047607463183673 0.007092140301470966 0.03439335322578794 -0.0019025515015102944 -0.010152425625295195 0.0022330173350068104 0.015931089974783166
 0.002196303408413946 0.01593643611123286 -0.0019025515015102944 -0.010152425625295195 0.007096825999294557 0.03439494711144589 0.9911166843875611 -0.0804743294433453
 -0.0019010867899267537 -0.0101525445752433 0.0022330173350068104 0.015931089974783166 0.9911166843875611 -0.0804743294433453 0.007092689487041275 0.034395096148189044
0.1375573155481 0.007436606129488463 0.03596020495128642 0.9906393267979351 -0.08421334562493335 0.002361602856528808 0.016672079640257312 -0.0020400883430451567 -0.010615173324462457
 0.9906393267979351 -0.08421334562493335 0.007431046464178692 0.03596037664672539 -0.0020416942678674966 -0.010615036398817043 0.0024018330271594283 0.016666131987555538
 0.002361602856528808 0.016672079640257312 -0.0020416942678674966 -0.010615036398817043 0.007436192277471502 0.0359620464951652 0.9906394212897288 -0.0842115178310185
 -0.0020400883430451567 -0.010615173324462457 0.0024018330271594283 0.016666131987555538 0.9906394212897288 -0.0842115178310185 0.007431649196166499 0.035962201256714336
0.1438099208003 0.007787856435844185 0.03751947692098173 0.9901454589849291 -0.0879416646460067 0.0025335771740122946 0.017405100776085824 -0.0021846620698101615 -0.011075366560986906
 0.9901454589849291 -0.0879416646460067 0.007781775488413244 0.037519657880658516 -0.0021864155872274417 -0.011075210025201496 0.0025774782421084125 0.0173985069122658
 0.0025335771740122946 0.017405100776085824 -0.0021864155872274417 -0.011075210025201496 0.007787403467424689 0.03752140356779294 0.9901455619047594 -0.08793975429587303
 -0.0021846620698101615 -0.011075366560986906 0.0025774782421084125 0.0173985069122658 0.9901455619047594 -0.08793975429587303 0.007782434301179333 0.037521564002516224
0.1500625260525 0.00815083703311189 0.03907089124219947 0.9896351146192047 -0.09166095469328066 0.0027121713262803484 0.0181354365396848 -0.002334753863488152 -0.011533063028117147
 0.9896351146192047 -0.09166095469328066 0.008144210862654095 0.0390710818437824 -0.002336661337086955 -0.011532885182781297 0.002759897094246549 0.0181281501497272
 0.0027121713262803484 0.0181354365396848 -0.002336661337086955 -0.011532885182781297 0.008150343142022077 0.039072903211779315 0.9896352263213023 -0.0916589618376776
 -0.002334753863488152 -0.011533063028117147 0.002759897094246549 0.0181281501497272 0.9896352263213023 -0.0916589618376776 0.008144928297835405 0.03907306929266419
0.15631513130469998 0.008525430758958695 0.040614336325639 0.9891084143071046 -0.09537113872880786 0.0028973296820899454 0.01886302494726906 -0.0024903089977695485 -0.011988202703870583
