! Created with skrf 1.8.0 (http://scikit-rf.org).
# GHz S RI R 50.0 
!freq ReS11 ImS11 ReS12 ImS12 ReS13 ImS13
! ReS14 ImS14
! ReS21 ImS21 ReS22 ImS22 ReS23 ImS23
! ReS24 ImS24
! ReS31 ImS31 ReS32 ImS32 ReS33 ImS33
! ReS34 ImS34
! ReS41 ImS41 ReS42 ImS42 ReS43 ImS43
! ReS44 ImS44
!
0.0 0.001421527064746 0.0 0.9985784729267 0.0 5.446123675662e-05 0.0 -5.446123693443e-05 6.669577948935531e-21
 0.9985784729267 0.0 0.00142152706473 0.0 -5.446123693383e-05 6.6695779488620516e-21 5.446123675637e-05 0.0
 5.446123675662e-05 0.0 -5.446123693383e-05 6.6695779488620516e-21 0.001421527068997 0.0 0.998578472931 0.0
 -5.446123693443e-05 6.669577948935531e-21 5.446123675637e-05 0.0 0.998578472931 0.0 0.00142152706901 0.0
0.005 0.0015290864469148541 0.0011662372818521118 0.9984424724630212 -0.002977969868156755 7.559460399648527e-05 0.0005814976664380524 -7.360445506406931e-05 -0.00036828938515430835
 0.9984424724630212 -0.002977969868156755 0.0015290808566872198 0.0011662406013843087 -7.360345398859104e-05 -0.00036828869027765685 7.562263467700158e-05 0.0005814868903334165
 7.559460399648527e-05 0.0005814976664380524 -7.360345398859104e-05 -0.00036828869027765685 0.0015290869227187812 0.0011663043160100928 0.9984424728138368 -0.0029779028071606263
 -7.360445506406931e-05 -0.00036828938515430835 7.562263467700158e-05 0.0005814868903334165 0.9984424728138368 -0.0029779028071606263 0.0015290810757677738 0.00116630768295684
0.006252605252188 0.0015571993013862653 0.0014623836647981064 0.9984067218058774 -0.0037232046203370425 8.156307448687758e-05 0.0007271694465351044 -7.8960187194944e-05 -0.0004608391788920518
 0.9984067218058774 -0.0037232046203370425 0.0015571905627450994 0.0014623879192413247 -7.895862884277878e-05 -0.0004608383235490837 8.160686881099615e-05 0.0007271554769236127
 8.156307448687758e-05 0.0007271694465351044 -7.895862884277878e-05 -0.0004608383235490837 0.001557199966947373 0.0014624674544804505 0.9984067222765513 -0.0037231208005313716
 -7.8960187194944e-05 -0.0004608391788920518 8.160686881099615e-05 0.0007271554769236127 0.9984067222765513 -0.0037231208005313716 0.0015571908278105785 0.0014624717552694955
0.01250521050438 0.001704628180361872 0.002955432101839692 0.9982180995509294 -0.0074472926208751945 0.00011542619823466565 0.0014547975180867342 -0.0001090842228748811 -0.0009239557359395523
 0.9982180995509294 -0.0074472926208751945 0.0017045932811317187 0.002955441677891849 -0.00010907807406649999 -0.000923954170521651 0.00011560080578671316 0.0014547642046900114
 0.00011542619823466565 0.0014547975180867342 -0.00010907807406649999 -0.000923954170521651 0.001704630264067872 0.0029555994580618542 0.9982181008671355 -0.007447125218751022
 -0.0001090842228748811 -0.0009239557359395523 0.00011560080578671316 0.0014547642046900114 0.9982181008671355 -0.007447125218751022 0.001704593781545296 0.002955608996962968
0.01875781575657 0.001864115407992118 0.004469811626279588 0.9980123859633532 -0.011181345248142887 0.0001561271083521305 0.002183363829915997 -0.00014492134674902154 -0.0013887211459271136
 0.9980123859633532 -0.011181345248142887 0.0018640369752597266 0.0044698276727569925 -0.00014490762408447117 -0.001388719044326292 0.00015651926449266107 0.002183304787211438
 0.0001561271083521305 0.002183363829915997 -0.00014490762408447117 -0.001388719044326292 0.0018641196461518469 0.004470062459982297 0.9980123884995299 -0.011181094317886837
 -0.00014492134674902154 -0.0013887211459271136 0.00015651926449266107 0.002183304787211438 0.9980123884995299 -0.011181094317886837 0.0018640376869418637 0.00447007825293215
0.02501042100875 0.002035954882044989 0.0060034311387504175 0.997789352697128 -0.014927192823024252 0.00020374304334375208 0.0029129076192915665 -0.00018655716583985192 -0.0018549427990444147
 0.997789352697128 -0.014927192823024252 0.0020358155720731795 0.006003454882622979 -0.00018653291788124274 -0.0018549403665991632 0.00020443946895474022 0.0029128154952746924
 0.00020374304334375208 0.0029129076192915665 -0.00018653291788124274 -0.0018549403665991632 0.0020359619990795177 0.006003765337294331 0.9977893568315281 -0.014926858393555799
 -0.00018655716583985192 -0.0018549427990444147 0.00020443946895474022 0.0029128154952746924 0.9977893568315281 -0.014926858393555799 0.0020358164784998614 0.006003788474218493
0.03126302626094 0.002220428290585906 0.007555225218154662 0.9975487590440052 -0.018685631612781146 0.0002583516858965654 0.0036434037608974383 -0.00023407516066704581 -0.0023224880170064524
 0.9975487590440052 -0.018685631612781146 0.0022202107815341124 0.007555257964334723 -0.0002340374624428351 -0.0023224854909172556 0.00025943917023667337 0.003643270233799753
 0.0002583516858965654 0.0036434037608974383 -0.0002340374624428351 -0.0023224854909172556 0.0022204389967601236 0.007555642659668921 0.9975487651566696 -0.018685213673316096
 -0.00023407516066704581 -0.0023224880170064524 0.00025943917023667337 0.003643270233799753 0.9975487651566696 -0.018685213673316096 0.0022202118699441078 0.007555674303969551
0.037515631513130004 0.0024178113880102274 0.009124507287923522 0.9972903583742571 -0.02245707060640313 0.000320030499022471 0.004374801816280617 -0.00028755726005462554 -0.0027912450016899914
 0.9972903583742571 -0.02245707060640313 0.0024174983755487134 0.009124550419313596 -0.000287503210239558 -0.002791242651203672 0.00032159593667002 0.004374617586348608
 0.000320030499022471 0.004374801816280617 -0.000287503210239558 -0.002791242651203672 0.002417826377812674 0.009125007834127515 0.9972903668464768 -0.022456569113495972
 -0.00028755726005462554 -0.0027912450016899914 0.00032159593667002 0.004374617586348608 0.9972903668464768 -0.022456569113495972 0.002417499634683475 0.00912504922246546
0.043768236765320004 0.002628376418440977 0.010710772779376555 0.9970139007258032 -0.026241728285159843 0.0003888564101126124 0.0051070379166550965 -0.0003470840544774309 -0.0032611109469042163
 0.9970139007258032 -0.026241728285159843 0.002627950612746977 0.010710827757121384 -0.0003470107738656793 -0.0032611090734158774 0.0003909868181692005 0.005106792696456006
 0.0003888564101126124 0.0051070379166550965 -0.0003470107738656793 -0.0032611090734158774 0.0026283963739132067 0.010711356255081338 0.997013911943662 -0.026241143182990815
 -0.0003470840544774309 -0.0032611109469042163 0.0003909868181692005 0.005106792696456006 0.997013911943662 -0.026241143182990815 0.002627952034864785 0.010711408697503031
0.050020842017509996 0.0028523932549999126 0.012313617761888097 0.9967191341102045 -0.030039713924208376 0.00046490562443838955 0.005840039660160539 -0.00041273487419634975 -0.0037319871359436743
 0.9967191341102045 -0.030039713924208376 0.002851837378068595 0.012313686125712858 -0.00041263950462176675 -0.0037319860730866236 0.00046768814937854167 0.005839722164290211
 0.00046490562443838955 0.005840039660160539 -0.00041263950462176675 -0.0037319860730866236 0.002852418843131899 0.012314283968142018 0.99671914846352 -0.030039045131452505
 -0.00041273487419634975 -0.0037319871359436743 0.00046768814937854167 0.005839722164290211 0.99671914846352 -0.030039045131452505 0.002851838956395897 0.012314348848120276
0.055454545454549996 0.0030582034352035167 0.013719735552501505 0.9964479071979747 -0.0333511347685424 0.0005369194448851374 0.006477601320698381 -0.00047482156454063207 -0.00414193787366228
 0.9964479071979747 -0.0333511347685424 0.0030575204983642567 0.01371981686092162 -0.00047470469372161883 -0.004141937811298944 0.0005403395537059078 0.006477211066954272
 0.0005369194448851374 0.006477601320698381 -0.00047470469372161883 -0.004141937811298944 0.0030582344484903607 0.013720473470661378 0.9964479245960859 -0.03335039316339813
 -0.00047482156454063207 -0.00414193787366228 0.0005403395537059078 0.006477211066954272 0.9964479245960859 -0.03335039316339813 0.0030575222070627693 0.013720550340076835
0.056273447269699996 0.0030901299850886956 0.01393269901817011 0.996405805268188 -0.033851067449627535 0.0005482534913438397 0.006573728519026148 -0.0004845878110854354 -0.004203776530790749
 0.996405805268188 -0.033851067449627535 0.003089426768908713 0.013932782386676988 -0.0004844675148521732 -0.004203776644493873 0.0005517754095877912 0.006573326453577172
 0.0005482534913438397 0.006573728519026148 -0.0004844675148521732 -0.004203776644493873 0.0030901618581875272 0.013933447726710575 0.9964058231512732 -0.033850314864647964
 -0.0004845878110854354 -0.004203776530790749 0.0005517754095877912 0.006573326453577172 0.9964058231512732 -0.033850314864647964 0.0030894284969360353 0.01393352650145246
0.06252605252188 0.003341853231174245 0.015567712097890483 0.9960736601632656 -0.037675781318303216 0.0006389743988862994 0.007308021156762243 -0.0005627197096089172 -0.004676382453409943
 0.9960736601632656 -0.037675781318303216 0.0033409854155968125 0.015567812169002276 -0.0005625716690695511 -0.004676384141957575 0.0006433231131841513 0.007307521208708717
 0.0006389743988862994 0.007308021156762243 -0.0005625716690695511 -0.004676384141957575 0.003341892025986106 0.015568543049931636 0.9960736819752366 -0.03767494482029884
 -0.0005627197096089172 -0.004676382453409943 0.0006433231131841513 0.007307521208708717 0.9960736819752366 -0.03767494482029884 0.003340987285930132 0.015568637250641918
0.06877865777407 0.0036078283286355237 0.017218378214922985 0.9957224443351351 -0.041513813556438045 0.0007371416829595103 0.008042830218579593 -0.0006472061411492476 -0.005149707796320703
 0.9957224443351351 -0.041513813556438045 0.003606778660048626 0.017218496766359864 -0.000647027558495077 -0.005149711490406796 0.0007424047158579708 0.008042218045194272
 0.0007371416829595103 0.008042830218579593 -0.000647027558495077 -0.005149711490406796 0.0036078746672267427 0.01721929112014564 0.9957224704817057 -0.041512893006395615
 -0.0006472061411492476 -0.005149707796320703 0.0007424047158579708 0.008042218045194272 0.9957224704817057 -0.041512893006395615 0.0036067806645368656 0.017219402352329972
0.07503126302626001 0.0038883194155564437 0.01888443595834728 0.9953519031685412 -0.045365095987073924 0.000842827546215777 0.008778064828435886 -0.000738121366801777 -0.005623654529299241
 0.9953519031685412 -0.045365095987073924 0.003887070644916133 0.018884574848193003 -0.000737909463911014 -0.005623660692066622 0.000849092531337784 0.008777325046780584
 0.000842827546215777 0.008778064828435886 -0.000737909463911014 -0.005623660692066622 0.0038883739036406693 0.01888543049504537 0.9953519340616529 -0.04536409122745327
 -0.000738121366801777 -0.005623654529299241 0.000849092531337784 0.008777325046780584 0.9953519340616529 -0.04536409122745327 0.003887072772780453 0.01888556043903985
0.08128386827845 0.0041835894699607246 0.020565635760004124 0.9949617821124294 -0.04922953970392736 0.0009561029813206093 0.009513630924246242 -0.0008355382941632344 -0.00609812337082634
 0.9949617821124294 -0.04922953970392736 0.004182124351583397 0.020565796927192022 -0.0008352903126284185 -0.0060981324979059075 0.0009634576529276743 0.00951274710077189
 0.0009561029813206093 0.009513630924246242 -0.0008352903126284185 -0.0060981324979059075 0.004183652696908271 0.020566711576089972 0.9949618181709274 -0.04922845055758882
 -0.0008355382941632344 -0.00609812337082634 0.0009634576529276743 0.00951274710077189 0.9949618181709274 -0.04922845055758882 0.004182126588455635 0.020566861987473387
0.08753647353064001 0.004493900310066671 0.02226173607995452 0.9945518268648775 -0.05310703883050708 0.0010770376983277631 0.010249431490409806 -0.0009395284285961417 -0.006573013565281506
 0.9945518268648775 -0.05310703883050708 0.0044922016000885105 0.02226192154509464 -0.0009392416297265819 -0.0065730261848312025 0.0010855698795417886 0.010248386130728857
 0.0010770376983277631 0.010249431490409806 -0.0009392416297265819 -0.0065730261848312025 0.004493972848488723 0.022262892791611037 0.9945518685154812 -0.053105865102051376
 -0.0009395284285961417 -0.006573013565281506 0.0010855698795417886 0.010248386130728857 0.9945518685154812 -0.053105865102051376 0.004492203927418997 0.022263065501844214
0.09378907878283 0.004819512571911743 0.023972500675090703 0.9941217835385749 -0.056997473199755 0.0012057000540215636 0.010985366727444521 -0.001050161821147319 -0.00704822272623777
 0.9941217835385749 -0.056997473199755 0.004817563026810982 0.023972712541029242 -0.0010498334860874088 -0.00704823939895852 0.0012154976438514913 0.010984141266247976
 0.0012057000540215636 0.010985366727444521 -0.0010498334860874088 -0.00704823939895852 0.00481959497756817 0.023973737863428723 0.9941218312165112 -0.056996214678793455
 -0.001050161821147319 -0.00704822272623777 0.0012154976438514913 0.010984141266247976 0.9941218312165112 -0.056996214678793455 0.004817565421005997 0.023973934780480072
0.100041684035 0.005160685667691191 0.025697696589311148 0.9936713988092929 -0.06090071031553317 0.001342156982703386 0.011721334177907354 -0.001167507013807253 -0.007523646726754625
 0.9936713988092929 -0.06090071031553317 0.005158468042850139 0.0256979370420245 -0.0011671344436325198 -0.0075236680459203386 0.001353307942125259 0.011719908969106237
 0.001342156982703386 0.011721334177907354 -0.0011671344436325198 -0.0075236680459203386 0.00516077847808505 0.025699013808592117 0.9936714529586719 -0.06089936676849903
 -0.001167507013807253 -0.007523646726754625 0.001353307942125259 0.011719908969106237 0.9936714529586719 -0.06089936676849903 0.005158470473804686 0.02569923691759833
0.1059090909091 0.00549522280071236 0.027329529161619664 0.9932300351866591 -0.06457500073964456 0.0014773547317062181 0.012411897355638862 -0.0012837870219596821 -0.007969882767987706
 0.9932300351866591 -0.06457500073964456 0.005492737925745836 0.0273297985028499 -0.0012833705051263824 -0.00796990901594519 0.0014898557266871594 0.012410265865760283
 0.0014773547317062181 0.012411897355638862 -0.0012833705051263824 -0.00796990901594519 0.0054953258476523725 0.02733092104494068 0.9932300958213197 -0.06457357717876192
 -0.0012837870219596821 -0.007969882767987706 0.0014898557266871594 0.012410265865760283 0.9932300958213197 -0.06457357717876192 0.005492740357324445 0.02733117060732539
0.1062942892872 0.005517677731538086 0.027437092655726993 0.993200420055995 -0.06481660680604379 0.0014864739280102002 0.012457228826124727 -0.001291630982558518 -0.007999179619251031
 0.993200420055995 -0.06481660680604379 0.005515174780141059 0.02743736396509775 -0.0012912114984971242 -0.007999206210714262 0.0014990662651649586 0.01245558313319483
 0.0014864739280102002 0.012457228826124727 -0.0012912114984971242 -0.007999206210714262 0.005517781466161796 0.027438489425764583 0.9932004811305208 -0.06481517798376821
 -0.001291630982558518 -0.007999179619251031 0.0014990662651649586 0.01245558313319483 0.9932004811305208 -0.06481517798376821 0.0055151772104342 0.027438740789942438
0.11254689453939999 0.005890745555838392 0.029190458340113114 0.9927085954919744 -0.06874500953995662 0.0016387147751475357 0.013192943176754587 -0.0014225990790191147 -0.008474713580101819
 0.9927085954919744 -0.06874500953995662 0.00588794002716963 0.02919076286093938 -0.0014221300226213139 -0.008474746102304018 0.001652836529839559 0.01319105516330521
 0.0016387147751475357 0.013192943176754587 -0.0014221300226213139 -0.008474746102304018 0.0058908607153647236 0.02919193414901596 0.9927086639558172 -0.06874349517505031
 -0.0014225990790191147 -0.008474713580101819 0.001652836529839559 0.01319105516330521 0.9927086639558172 -0.06874349517505031 0.005887942411102715 0.029192215910449116
0.11879949979160001 0.00628014451855931 0.030957562839661078 0.9921956742918896 -0.07268575649132152 0.0017989417837594123 0.01392836732195027 -0.0015604749705576614 -0.008950138869124359
 0.9921956742918896 -0.07268575649132152 0.006277019156980478 0.030957903012594733 -0.0015599537039544778 -0.008950178013093004 0.0018146810111225942 0.013926214042531344
 0.0017989417837594123 0.01392836732195027 -0.0015599537039544778 -0.008950178013093004 0.006280271584484124 0.030959117144516154 0.9921957506201629 -0.07268415629756318
 -0.0015604749705576614 -0.008950138869124359 0.0018146810111225942 0.013926214042531344 0.9921957506201629 -0.07268415629756318 0.00627702143946322 0.030959431525171874
0.1250521050438 0.0066861285057542835 0.03273817437892089 0.9916614067147833 -0.07663867741165448 0.001967215520881442 0.014663388997254733 -0.0017053205794031808 -0.009425343804022813
 0.9916614067147833 -0.07663867741165448 0.00668266604913463 0.032738552731546744 -0.0017047444855085585 -0.009425390293366068 0.0019846602745715197 0.01466094638847573
 0.001967215520881442 0.014663388997254733 -0.0017047444855085585 -0.009425390293366068 0.006686267939754494 0.0327398066028413 0.9916614913943586 -0.07663699108703488
 -0.0017053205794031808 -0.009425343804022813 0.0019846602745715197 0.01466094638847573 0.9916614913943586 -0.07663699108703488 0.006682668164872313 0.03274015590555444
0.131304710296 0.00710894982782936 0.034532059631000735 0.9911055442244252 -0.08060359438099605 0.002143594794185345 0.015397893631657026 -0.0018571960208395707 -0.009900214744502566
 0.9911055442244252 -0.08060359438099605 0.007105133006360743 0.03453247877901946 -0.0018565625036539469 -0.009900269335387147 0.002162833108874169 0.015395136503538851
 0.002143594794185345 0.015397893631657026 -0.0018565625036539469 -0.009900269335387147 0.007109102071057121 0.034533769168811776 0.9911056377543827 -0.08060182160219964
 -0.0018571960208395707 -0.009900214744502566 0.002162833108874169 0.015395136503538851 0.9911056377543827 -0.08060182160219964 0.007105134878300292 0.034534155778515145
0.1375573155481 0.007448873497888184 0.036105710438582524 0.990627859315464 -0.08434695266636451 0.0023048373233016312 0.016108324993910603 -0.001992843134811267 -0.010351224223409021
 0.990627859315464 -0.08434695266636451 0.007444684851992444 0.03610616292772113 -0.0019921485808861153 -0.010351286950232689 0.0023259169890393334 0.016105258434064143
 0.0023048373233016312 0.016108324993910603 -0.0019921485808861153 -0.010351286950232689 0.007449039990727459 0.03610749629044408 0.9906279621033174 -0.08434509324290601
 -0.001992843134811267 -0.010351224223409021 0.0023259169890393334 0.016105258434064143 0.9906279621033174 -0.08434509324290601 0.0074446855640230335 0.03610791350445991
0.1438099208003 0.007800669185560554 0.03767162183069593 0.9901335588260802 -0.08808136323580958 0.0024725856360162707 0.01681618015245581 -0.002133919998606471 -0.01079984877827767
 0.9901335588260802 -0.08808136323580958 0.007796091436962562 0.03767210954616892 -0.0021331616587448037 -0.010799920376001207 0.002495587378128692 0.016812781193659213
 0.0024725856360162707 0.01681618015245581 -0.0021331616587448037 -0.010799920376001207 0.007800850521396809 0.03767348330533478 0.9901336713699607 -0.0880794168522077
 -0.002133919998606471 -0.01079984877827767 0.002495587378128692 0.016812781193659213 0.9901336713699607 -0.0880794168522077 0.007796090743336129 0.03767393288108418
0.1500625260525 0.008164220531676569 0.039229678828201234 0.9896227627340833 -0.09180674938066555 0.0026467857579652926 0.017521397110324965 -0.002280373735357985 -0.011246028698657552
 0.9896227627340833 -0.09180674938066555 0.008159236399410085 0.03923020374615759 -0.0022795488682417152 -0.011246109931349484 0.002671789815276563 0.017517641956981325
 0.0026467857579652926 0.017521397110324965 -0.0022795488682417152 -0.011246109931349484 0.008164417296063854 0.03923161520516185 0.989622885542813 -0.09180471570907435
 -0.002280373735357985 -0.011246028698657552 0.002671789815276563 0.017517641956981325 0.989622885542813 -0.09180471570907435 0.008159234033311204 0.039232098989748006
0.15631513130469998 0.008539410441861777 0.04077976999034388 0.9890955915276594 -0.09552303434634167 0.0028273831280776584 0.018223914854611965 -0.0024321508633776035 -0.01168970547481951
