! Created with skrf 1.8.0 (http://scikit-rf.org).
# GHz S RI R 50.0 
!freq ReS11 ImS11 ReS12 ImS12 ReS13 ImS13
! ReS14 ImS14
! ReS21 ImS21 ReS22 ImS22 ReS23 ImS23
! ReS24 ImS24
! ReS31 ImS31 ReS32 ImS32 ReS33 ImS33
! ReS34 ImS34
! ReS41 ImS41 ReS42 ImS42 ReS43 ImS43
! ReS44 ImS44
!
0.0 0.001332698775046 0.0 0.9986673011839 0.0 5.130633371912e-05 0.0 -5.13063337972e-05 6.2832137460726644e-21
 0.9986673011839 0.0 0.001332698775041 0.0 -5.130633379658e-05 6.283213745996737e-21 5.130633371927e-05 0.0
 5.130633371912e-05 0.0 -5.130633379658e-05 6.283213745996737e-21 0.001332698795545 0.0 0.9986673012044 0.0
 -5.13063337972e-05 6.2832137460726644e-21 5.130633371927e-05 0.0 0.9986673012044 0.0 0.001332698795573 0.0
0.005 0.0014333987622080905 0.0010859139105393414 0.9985399775080502 -0.002792539250262911 7.22628130481429e-05 0.0005940765850493617 -7.008433939997098e-05 -0.000367962815215363
 0.9985399775080502 -0.002792539250262911 0.0014333953545199373 0.0010859159029118725 -7.008625044768289e-05 -0.0003679643116962744 7.229012831875275e-05 0.0005940664262330845
 7.22628130481429e-05 0.0005940765850493617 -7.008625044768289e-05 -0.0003679643116962744 0.0014333973188130169 0.001085847535818967 0.9985399771758032 -0.002792606311239289
 -7.008433939997098e-05 -0.000367962815215363 7.229012831875275e-05 0.0005940664262330845 0.9985399771758032 -0.002792606311239289 0.0014333961386712919 0.0010858481607944352
0.006252605252188 0.0014596547896775756 0.0013617080740841224 0.9985065947062114 -0.003491383567242901 7.815476318560186e-05 0.0007428808355379904 -7.5315887871647e-05 -0.00046044529771699713
 0.9985065947062114 -0.003491383567242901 0.0014596494621251686 0.0013617105357219528 -7.531886142415404e-05 -0.000460447143982273 7.819744400994784e-05 0.0007428676162225732
 7.815476318560186e-05 0.0007428808355379904 -7.531886142415404e-05 -0.000460447143982273 0.0014596525906289267 0.0013616251164674153 0.9985065942444151 -0.0034914673890371712
 -7.5315887871647e-05 -0.00046044529771699713 7.819744400994784e-05 0.0007428676162225732 0.9985065942444151 -0.0034914673890371712 0.0014596507459202967 0.001361625861062435
0.01250521050438 0.0015969724632728173 0.002752347825477983 0.99833096555395 -0.006983744767206612 0.00011144114677595203 0.0014860986742753182 -0.00010462239990001854 -0.000923253052510929
 0.99833096555395 -0.006983744767206612 0.0015969511823079798 0.0027523524525840588 -0.00010463411640781217 -0.0009232564813290443 0.00011161144218804181 0.0014860666928641015
 0.00011144114677595203 0.0014860986742753182 -0.00010463411640781217 -0.0009232564813290443 0.0015969642521577716 0.002752182240961826 0.9983309642830923 -0.006983912168318984
 -0.00010462239990001854 -0.000923253052510929 0.00011161144218804181 0.0014860666928641015 0.9983309642830923 -0.006983912168318984 0.0015969568892662983 0.0027521833394256465
0.01875781575657 0.0017449196111603762 0.00416316750723487 0.9981402183788765 -0.010485621793750035 0.00015123730433975842 0.002230205945157373 -0.00013930976548166355 -0.001387738482255932
 0.9981402183788765 -0.010485621793750035 0.0017448717774815642 0.004163173994697123 -0.0001393358915402528 -0.0013877431865478536 0.0001516200742130786 0.0022301487333468892
 0.00015123730433975842 0.002230205945157373 -0.0001393358915402528 -0.0013877431865478536 0.0017449015782365763 0.004162919519071368 0.9981402159461747 -0.010485872706773949
 -0.00013930976548166355 -0.001387738482255932 0.0001516200742130786 0.0022301487333468892 0.9981402159461747 -0.010485872706773949 0.001744885040677624 0.004162920518691459
0.02501042100875 0.0019037578396317216 0.005592215880330521 0.9979341510543441 -0.013998745336165902 0.00019761601456385995 0.002975264406542554 -0.00017945955364234869 -0.001853703515862338
 0.9979341510543441 -0.013998745336165902 0.0019036728629744687 0.005592223905952633 -0.0001795056879792344 -0.00185370913930683 0.0001982962828250428 0.002975174596140635
 0.00019761601456385995 0.002975264406542554 -0.0001795056879792344 -0.00185370913930683 0.001903726177138401 0.005591885735152881 0.9979341471042846 -0.013999079736538193
 -0.00017945955364234869 -0.001853703515862338 0.0001982962828250428 0.002975174596140635 0.9979341471042846 -0.013999079736538193 0.001903696817609224 0.005591886116148426
0.03126302626094 0.002073737756369974 0.007038505137949887 0.9977125500515858 -0.017523875619819114 0.0002506507378124309 0.0037212645009755962 -0.00022515128332038466 -0.0023210174553127245
 0.9977125500515858 -0.017523875619819114 0.0020736050479684257 0.007038514360503317 -0.00022522296868903542 -0.0023210235916088866 0.00025171376647648236 0.0037211338161419146
 0.0002506507378124309 0.0037212645009755962 -0.00022522296868903542 -0.0023210235916088866 0.0020736886601854976 0.0070380931273665015 0.9977125442280833 -0.01752429350452345
 -0.00022515128332038466 -0.0023210174553127245 0.00025171376647648236 0.0037211338161419146 0.9977125442280833 -0.01752429350452345 0.0020736428354521893 0.007038092300799319
0.037515631513130004 0.0022551047109175258 0.008501403592524966 0.9974751963125046 -0.021061409666074848 0.00031041491682112907 0.004468168926287611 -0.0002764630529596053 -0.0027895733985031017
 0.9974751963125046 -0.021061409666074848 0.0022549136781089395 0.008501413650568562 -0.00027656578212348256 -0.0027895795911332274 0.00031194623986226656 0.00446798817242835
 0.00031041491682112907 0.004468168926287611 -0.00027656578212348256 -0.0027895795911332274 0.0022550343803002014 0.008500910051024506 0.9974751882588303 -0.021061911056232126
 -0.0002764630529596053 -0.0027895733985031017 0.00031194623986226656 0.00446798817242835 0.9974751882588303 -0.021061911056232126 0.002254968448204046 0.008500907357025307
0.043768236765320004 0.0024481010259858734 0.009980450859337965 0.9972218676141212 -0.02461156604932583 0.0003769816554936334 0.005215925887058259 -0.0003334717777609055 -0.00325927497883568
 0.9972218676141212 -0.02461156604932583 0.0024478410683770563 0.009980461370385893 -0.0003336109972315405 -0.003259280720984473 0.0003790670953530133 0.005215684938726453
 0.0003769816554936334 0.005215925887058259 -0.0003336109972315405 -0.003259280720984473 0.0024480056613277266 0.00997987616831167 0.997221856969973 -0.024612150986707507
 -0.0003334717777609055 -0.00325927497883568 0.0003790670953530133 0.005215684938726453 0.997221856969973 -0.024612150986707507 0.002447915977215189 0.009979870874602705
0.050020842017509996 0.002652967036378721 0.01147528148165155 0.996952339740709 -0.02817446121042508 0.0004504235340943736 0.005964474560400799 -0.000396253284689696 -0.0037300308905495873
 0.996952339740709 -0.02817446121042508 0.0026526275415968592 0.011475292041661683 -0.00039643439707697973 -0.0037300356250742138 0.0004531492090210771 0.005964162348799025
 0.0004504235340943736 0.005964474560400799 -0.00039643439707697973 -0.0037300356250742138 0.002652842841353448 0.011474626072164434 0.9969523261439255 -0.028175129755324147
 -0.000396253284689696 -0.0037300308905495873 0.0004531492090210771 0.005964162348799025 0.9969523261439255 -0.028175129755324147 0.0026527257547442873 0.011474617372738203
0.055454545454549996 0.0028408270176410433 0.01278691234571274 0.9967047810100245 -0.03128111190770484 0.0005198860867797731 0.006615576970132945 -0.0004555586214496745 -0.004139919187765038
 0.9967047810100245 -0.03128111190770484 0.002840409772402309 0.012786922603047231 -0.0004557804947581281 -0.004139922555078579 0.00052323831523598 0.006615193097172684
 0.0005198860867797731 0.006615576970132945 -0.0004557804947581281 -0.004139922555078579 0.0028406746855961077 0.012786187179750507 0.9967047645491584 -0.03128185317220686
 -0.0004555586214496745 -0.004139919187765038 0.00052323831523598 0.006615193097172684 0.9967047645491584 -0.03128185317220686 0.002840530814215552 0.01278617480783918
0.056273447269699996 0.0028699416337607444 0.01298558743102678 0.9966663871657265 -0.031750146895154735 0.0005308124802744253 0.0067137477771434745 -0.0004648823480394313 -0.004201752199769841
 0.9966663871657265 -0.031750146895154735 0.0028695119742149426 0.012985597613926736 -0.00046511071365987184 -0.0042017553192009085 0.0005342648063202362 0.006713352277430968
 0.0005308124802744253 0.0067137477771434745 -0.00046511071365987184 -0.0042017553192009085 0.0028697848129384525 0.012984851784550121 0.9966663702490828 -0.031750899126266545
 -0.0004648823480394313 -0.004201752199769841 0.0005342648063202362 0.006713352277430968 0.9966663702490828 -0.031750899126266545 0.0028696366648696165 0.012984838798371656
0.06252605252188 0.0030992625669827045 0.014511097499717521 0.9963637834901707 -0.03533863070154449 0.0006182196711430868 0.007463673495796465 -0.0005394326916337693 -0.004674350864396502
 0.9963637834901707 -0.03533863070154449 0.0030987320964176875 0.014511106857062719 -0.0005397136297071399 -0.004674351710947339 0.0006224853603414448 0.007463181714313595
 0.0006182196711430868 0.007463673495796465 -0.0005397136297071399 -0.004674351710947339 0.0030990693286331154 0.014510282158009062 0.996363762883412 -0.03533946670659249
 -0.0005394326916337693 -0.004674350864396502 0.0006224853603414448 0.007463181714313595 0.996363762883412 -0.03533946670659249 0.00309888644807144 0.01451026392784584
0.06877865777407 0.003341166612270624 0.01605156501830551 0.9960443017544404 -0.03893988830336571 0.0007127154504950201 0.008214175673900828 -0.0006199769738802456 -0.005147738858509615
 0.9960443017544404 -0.03893988830336571 0.003340524662462465 0.01605157307905055 -0.0006203157633127405 -0.005147736724106023 0.0007178815065278188 0.00821357363539463
 0.0007127154504950201 0.008214175673900828 -0.0006203157633127405 -0.005147736724106023 0.0033409331673436614 0.01605067056939093 0.9960442770825455 -0.03894080819380409
 -0.0006199769738802456 -0.005147738858509615 0.0007178815065278188 0.00821357363539463 0.9960442770825455 -0.03894080819380409 0.003340711868345507 0.016050646060759104
0.07503126302626001 0.003595889662829096 0.017606760054771124 0.9957077146716508 -0.0425538711943005 0.0008143692554842709 0.008965174825928394 -0.0007065867615774429 -0.00562182761238805
 0.9957077146716508 -0.0425538711943005 0.0035951255404036812 0.01760676632514903 -0.0007069886415700381 -0.005621821738689564 0.0008205229675306638 0.008964447560796063
 0.0008143692554842709 0.008965174825928394 -0.0007069886415700381 -0.005621821738689564 0.0035956122262225396 0.017605787145458563 0.9957076855546719 -0.04255487509334324
 -0.0007065867615774429 -0.00562182761238805 0.0008205229675306638 0.008964447560796063 0.9957076855546719 -0.04255487509334324 0.003595348804679834 0.017605755245612573
0.08128386827845 0.0038636667729334134 0.01917646422744349 0.9953537948175307 -0.04618051182027624 0.0009232495490416546 0.009716588391002083 -0.0007993324966183511 -0.006096527644969586
 0.9953537948175307 -0.04618051182027624 0.003862769756007417 0.019176468190934704 -0.0007998026670607967 -0.00609651722341565 0.0009304784840401239 0.009715719922567053
 0.0009232495490416546 0.009716588391002083 -0.0007998026670607967 -0.00609651722341565 0.0038633415636127955 0.019175413560702223 0.9953537608701437 -0.046181599866112144
 -0.0007993324966183511 -0.006096527644969586 0.0009304784840401239 0.009715719922567053 0.9953537608701437 -0.046181599866112144 0.003863032293968885 0.019175373077670563
0.08753647353064001 0.004144732166799109 0.020760467127726518 0.9949823147885183 -0.04981972710455117 0.0010394237563664983 0.010468330990908398 -0.0008982834571423436 -0.006571748308415603
 0.9949823147885183 -0.04981972710455117 0.004143691502012219 0.020760468245044288 -0.000898827078922555 -0.006571732480253562 0.0010478157500645696 0.010467304322815847
 0.0010394237563664983 0.010468330990908398 -0.000898827078922555 -0.006571732480253562 0.004144355408479858 0.020759339462829447 0.9949822756195575 -0.0498208994507475
 -0.0008982834571423436 -0.006571748308415603 0.0010478157500645696 0.010467304322815847 0.9949822756195575 -0.0498208994507475 0.004143996540579333 0.02075928912463853
0.09378907878283 0.004439319227711836 0.022358563744740073 0.9945930473412755 -0.05347142097333672 0.0011629582031105195 0.011220314611477327 -0.0010035077157343432 -0.0070473976118207
 0.9945930473412755 -0.05347142097333672 0.004438124126658149 0.02235856145405247 -0.001004129910891398 -0.007047375468165023 0.0011726013501278238 0.011219111715141143
 0.0011629582031105195 0.011220314611477327 -0.001004129910891398 -0.007047375468165023 0.004438887149324891 0.02235735989671473 0.9945930025531233 -0.05347267778988897
 -0.0010035077157343432 -0.0070473976118207 0.0011726013501278238 0.011219111715141143 0.9945930025531233 -0.05347267778988897 0.0044384749048298824 0.022357298350614077
0.100041684035 0.0047476604695228285 0.02397055258826533 0.9941857655186503 -0.05713548618598948 0.0012939180556923795 0.011972448740311429 -0.0011150720942453515 -0.007523382091222214
 0.9941857655186503 -0.05713548618598948 0.004746300105850245 0.023970546305355053 -0.0011157779460700553 -0.007523352673104327 0.0013049006987863575 0.011971050542478049
 0.0012939180556923795 0.011972448740311429 -0.0011157779460700553 -0.007523352673104327 0.004747169306116395 0.023969273431147107 0.9941857147066208 -0.05713682765663496
 -0.0011150720942453515 -0.007523382091222214 0.0013049006987863575 0.011971050542478049 0.9941857147066208 -0.05713682765663496 0.004746699875492694 0.023969199242917832
0.1059090909091 0.00504972162199634 0.025495690340018765 0.9937869890311003 -0.060584970235573216 0.0014236202924647868 0.01267830100547667 -0.001225588085587884 -0.00797026324655963
 0.9937869890311003 -0.060584970235573216 0.005048196293402105 0.025495679759872127 -0.0012263770289970338 -0.00797022608539802 0.0014359404681431568 0.012676701249621803
 0.0014236202924647868 0.01267830100547667 -0.0012263770289970338 -0.00797022608539802 0.00504917159501443 0.02549434136004869 0.9937869321919415 -0.06058639132556267
 -0.001225588085587884 -0.00797026324655963 0.0014359404681431568 0.012676701249621803 0.9937869321919415 -0.06058639132556267 0.005048645005504871 0.025494253931046196
0.1062942892872 0.00506998749747004 0.02559623427413336 0.9937602427650745 -0.06081180570553395 0.0014323672622650427 0.012724640472906936 -0.0012330421169657268 -0.007999606713798964
 0.9937602427650745 -0.06081180570553395 0.005068451003246089 0.025596223392758185 -0.0012338366700058855 -0.007999569012226556 0.0014447779807118834 0.012723026843362718
 0.0014323672622650427 0.012724640472906936 -0.0012338366700058855 -0.007999569012226556 0.00506943349049317 0.025594880739582476 0.9937601855173712 -0.06081323202954689
 -0.0012330421169657268 -0.007999606713798964 0.0014447779807118834 0.012723026843362718 0.9937601855173712 -0.06081323202954689 0.005068903029297702 0.025594792392967147
0.11254689453939999 0.005406530959576426 0.027235410437380654 0.9933162530370947 -0.06450025374433632 0.001578368494568047 0.013476794592311993 -0.001357481961709035 -0.008475974811419302
 0.9933162530370947 -0.06450025374433632 0.005404807422250848 0.027235394329687974 -0.0013583702217556122 -0.008475927767443766 0.0015922960920023539 0.013474944331722537
 0.001578368494568047 0.013476794592311993 -0.0013583702217556122 -0.008475927767443766 0.005405910357819558 0.027233983517703543 0.9933161889339083 -0.06450176513407133
 -0.001357481961709035 -0.008475974811419302 0.0015922960920023539 0.013474944331722537 0.9933161889339083 -0.06450176513407133 0.005405314983392858 0.027233879413961784
0.11879949979160001 0.005757520491115015 0.028887882889394832 0.9928535709080523 -0.06820069656913297 0.0017319830899349391 0.014228813637962894 -0.0014884544099306965 -0.008952388027775824
 0.9928535709080523 -0.06820069656913297 0.005755598950140465 0.028887860906421255 -0.0014894413439569076 -0.008952330532562119 0.0017475165814644271 0.01422670446579813
 0.0017319830899349391 0.014228813637962894 -0.0014894413439569076 -0.008952330532562119 0.005756829551472674 0.028886383633662135 0.9928534995211424 -0.06820229325425367
 -0.0014884544099306965 -0.008952388027775824 0.0017475165814644271 0.01422670446579813 0.9928534995211424 -0.06820229325425367 0.005756165339154498 0.028886262091142426
0.1250521050438 0.006123184653777236 0.030553452946622064 0.9923719716690188 -0.07191299313745465 0.001893270993858953 0.014980597961400523 -0.0016260207953577076 -0.00942874628158031
 0.9923719716690188 -0.07191299313745465 0.0061210540970965946 0.030553424418948122 -0.001627111331361904 -0.009428677176493705 0.001910499592644824 0.01497820650411614
 0.001893270993858953 0.014980597961400523 -0.001627111331361904 -0.009428677176493705 0.006122419641777404 0.030551882464143747 0.9923718925612339 -0.07191467536199547
 -0.0016260207953577076 -0.00942874628158031 0.001910499592644824 0.01497820650411614 0.9923718925612339 -0.07191467536199547 0.00612168262150946 0.030551741717976335
0.131304710296 0.00650375086987674 0.03223192089168089 0.9918712314286771 -0.07563699560520398 0.0020622907025347366 0.015732045773870825 -0.0017702409517892205 -0.009904947740827695
 0.9918712314286771 -0.07563699560520398 0.006501400230692989 0.03223188513014763 -0.0017714399786844608 -0.009904865817510433 0.0020813038058532358 0.015729347553171912
 0.0020622907025347366 0.015732045773870825 -0.0017714399786844608 -0.009904865817510433 0.0065029080605220144 0.03223028035350379 0.9918711441532979 -0.07563876362629846
 -0.0017702409517892205 -0.009904947740827695 0.0020813038058532358 0.015729347553171912 0.9918711441532979 -0.07563876362629846 0.006502094212905651 0.03223011855547926
0.1375573155481 0.0068073933976782516 0.03370259934048077 0.9914432070852476 -0.07915198878092328 0.0022162790774836578 0.016460055950059026 -0.0018983280543107132 -0.010357919317531791
 0.9914432070852476 -0.07915198878092328 0.0068048116113484216 0.033702559490379674 -0.0018996428493310118 -0.01035782462479628 0.0022371127666167717 0.016457057109016068
 0.0022162790774836578 0.016460055950059026 -0.0018996428493310118 -0.01035782462479628 0.00680646962906746 0.033700889737816146 0.9914431112700643 -0.07915384275070894
 -0.0018983280543107132 -0.010357919317531791 0.0022371127666167717 0.016457057109016068 0.9914431112700643 -0.07915384275070894 0.006805573679347287 0.033700709070608625
0.1438099208003 0.007121540797467736 0.03516629276095312 0.9910004512108785 -0.08265887304737438 0.0023764962465596296 0.017185703062425974 -0.0020315641643995205 -0.010808714216979553
 0.9910004512108785 -0.08265887304737438 0.007118716735857087 0.035166248545640606 -0.0020329999904565438 -0.01080860558002822 0.002399230536196616 0.017182381547860615
 0.0023764962465596296 0.017185703062425974 -0.0020329999904565438 -0.01080860558002822 0.007120532459296512 0.035164515296716735 0.9910003464108931 -0.08266081321963172
 -0.0020315641643995205 -0.010808714216979553 0.002399230536196616 0.017182381547860615 0.9910003464108931 -0.08266081321963172 0.007119550109193934 0.035164314312019614
0.1500625260525 0.0074460928528753524 0.03662290217520819 0.9905430673742577 -0.08615758553353496 0.002542893954353034 0.01790893191370076 -0.0021699020417982333 -0.011257278700239378
 0.9905430673742577 -0.08615758553353496 0.0074430153396699145 0.03662285331891459 -0.0021714641531755214 -0.011257154897498737 0.0025676084133229187 0.01790526488536988
 0.002542893954353034 0.01790893191370076 -0.0021714641531755214 -0.011257154897498737 0.007444996350318614 0.036621058100025985 0.990542953136159 -0.08615961217275979
 -0.0021699020417982333 -0.011257278700239378 0.0025676084133229187 0.01790526488536988 0.990542953136159 -0.08615961217275979 0.007443923244258482 0.036620835302964144
0.15631513130469998 0.007780948755276521 0.03807233171548922 0.9900711595396086 -0.08964806312594742 0.0027154234547031907 0.018629688118991763 -0.0023132939339298828 -0.01170356008190545
