! Created with skrf 1.8.0 (http://scikit-rf.org).
# GHz S RI R 50.0 
!freq ReS11 ImS11 ReS12 ImS12 ReS13 ImS13
! ReS14 ImS14
! ReS21 ImS21 ReS22 ImS22 ReS23 ImS23
! ReS24 ImS24
! ReS31 ImS31 ReS32 ImS32 ReS33 ImS33
! ReS34 ImS34
! ReS41 ImS41 ReS42 ImS42 ReS43 ImS43
! ReS44 ImS44
!
0.0 0.001661211562491 0.0 0.9983387884371 0.0 6.453621367348e-05 0.0 -6.453621331897e-05 7.903406707016739e-21
 0.9983387884371 0.0 0.001661211562512 0.0 -6.453621331879e-05 7.903406706994695e-21 6.453621367478e-05 0.0
 6.453621367348e-05 0.0 -6.453621331879e-05 7.903406706994695e-21 0.001661211562494 0.0 0.9983387884371 0.0
 -6.453621331897e-05 7.903406707016739e-21 6.453621367478e-05 0.0 0.9983387884371 0.0 0.001661211562522 0.0
0.005 0.0017877561416603668 0.00135373800346939 0.9981786201408727 -0.0034797075932584557 9.137050748008798e-05 0.0007406208472495929 -8.85445519150629e-05 -0.00045963852483476707
 0.9981786201408727 -0.0034797075932584557 0.0017877527798466689 0.0013537400361424664 -8.85473732966065e-05 -0.00045964071793729445 9.138045941122022e-05 0.0007406170431102437
 9.137050748008798e-05 0.0007406208472495929 -8.85473732966065e-05 -0.00045964071793729445 0.0017877549382212467 0.0013538060316775971 0.9981786205171801 -0.0034796405235766777
 -8.85445519150629e-05 -0.00045963852483476707 9.138045941122022e-05 0.0007406170431102437 0.9981786205171801 -0.0034796405235766777 0.0017877547299574113 0.0013538061421449197
0.006252605252188 0.0018210570199057139 0.001697505141184762 0.9981361872007336 -0.004350469871328928 9.909608988824286e-05 0.0009261139937307152 -9.537957322071594e-05 -0.0005751422335516177
 0.9981361872007336 -0.004350469871328928 0.001821051764124828 0.0016975077104781533 -9.538396329943823e-05 -0.0005751449377557593 9.911163863146243e-05 0.0009261090535052568
 9.909608988824286e-05 0.0009261139937307152 -9.538396329943823e-05 -0.0005751449377557593 0.0018210550503516374 0.0016975901620244988 0.99813618770117 -0.004350386051042768
 -9.537957322071594e-05 -0.0005751422335516177 9.911163863146243e-05 0.0009261090535052568 0.99813618770117 -0.004350386051042768 0.001821054725032728 0.0016975903186284035
0.01250521050438 0.001997012180494433 0.003430583946303698 0.9979104162191234 -0.008701642443875291 0.00014371298270429952 0.0018524484711844656 -0.00013446414126122512 -0.001153024409644736
 0.9979104162191234 -0.008701642443875291 0.0019969911849256005 0.0034305893879166497 -0.0001344814394286332 -0.0011530294084954524 0.00014377498276640536 0.0018524365846314303
 0.00014371298270429952 0.0018524484711844656 -0.0001344814394286332 -0.0011530294084954524 0.001997003755087846 0.003430753769937573 0.9979104176654207 -0.008701475043100154
 -0.00013446414126122512 -0.001153024409644736 0.00014377498276640536 0.0018524365846314303 0.9979104176654207 -0.008701475043100154 0.001997002459230034 0.003430754256878275
0.01875781575657 0.0021894849036454755 0.005188265699526818 0.9976611781189493 -0.013064085250788705 0.00019849379257818442 0.002779638217950779 -0.0001819160947752446 -0.001732756075200937
 0.9976611781189493 -0.013064085250788705 0.0021894377082798695 0.005188274382060741 -0.00018195466615814475 -0.0017327628755630519 0.0001986330557541047 0.002779616964947369
 0.00019849379257818442 0.002779638217950779 -0.00018195466615814475 -0.0017327628755630519 0.0021894655300810765 0.005188520278315212 0.997661180945975 -0.013063834340598329
 -0.0001819160947752446 -0.001732756075200937 0.0001986330557541047 0.002779616964947369 0.997661180945975 -0.013063834340598329 0.0021894626245428654 0.005188521245279588
0.02501042100875 0.002398869587443592 0.006968049892496316 0.9973881632138326 -0.01743988231537458 0.0002635466875906917 0.003707710073633692 -0.00023785679777535367 -0.002314047246792807
 0.9973881632138326 -0.01743988231537458 0.0023987857431240606 0.006968062246041225 -0.00023792490587178035 -0.0023140552635607303 0.0002637940246386472 0.0037076766340467674
 0.0002635466875906917 0.003707710073633692 -0.00023792490587178035 -0.0023140552635607303 0.0023988347757340884 0.0069683892160613955 0.9973881678616223 -0.01743954792906809
 -0.00023785679777535367 -0.002314047246792807 0.0002637940246386472 0.0037076766340467674 0.9973881678616223 -0.01743954792906809 0.002398829626460876 0.006968390788617624
0.03126302626094 0.0026255442687811294 0.008768633972259073 0.9970910469354438 -0.021829906378628455 0.0003389800046245231 0.004636601447768146 -0.00030240372868758995 -0.0028966899358561548
 0.9970910469354438 -0.021829906378628455 0.0026254133319115972 0.008768650488290943 -0.00030250955237465607 -0.002896698490947848 0.0003393662503861858 0.004636552599653668
 0.0003389800046245231 0.004636601447768146 -0.00030250955237465607 -0.002896698490947848 0.0026254895263677852 0.008769058066919907 0.9970910538478189 -0.021829488512167265
 -0.00030240372868758995 -0.0028966899358561548 0.0003393662503861858 0.004636552599653668 0.9970910538478189 -0.021829488512167265 0.0026254815037675045 0.008769060346119784
0.037515631513130004 0.0028698784904186646 0.010589156736704523 0.9967694980085767 -0.026234575443941435 0.00042490116273063413 0.005566214190532143 -0.00037567136103638726 -0.003480504299122642
 0.9967694980085767 -0.026234575443941435 0.0028696900204803295 0.010589177968515292 -0.00037582300333429064 -0.003480512621225871 0.00042545718555320514 0.005566146306806335
 0.00042490116273063413 0.005566214190532143 -0.00037582300333429064 -0.003480512621225871 0.002869799317335946 0.01058966564655302 0.996769507629738 -0.026234074075214175
 -0.00037567136103638726 -0.003480504299122642 0.00042545718555320514 0.005566146306806335 0.996769507629738 -0.026234074075214175 0.0028697877948540124 0.01058966870838369
0.043768236765320004 0.003132236325994774 0.012428968073478753 0.9964231817841256 -0.030654082968561192 0.0005214161386380291 0.006496430999958609 -0.0004577714736615094 -0.00406532225135975
 0.9964231817841256 -0.030654082968561192 0.0031319798838406075 0.012428994636760634 -0.00045797696682516265 -0.004065329475863278 0.0005221728427365907 0.006496340044636099
 0.0005214161386380291 0.006496430999958609 -0.00045797696682516265 -0.004065329475863278 0.003132128216541818 0.012429561863276652 0.9964231945621452 -0.03065349805477762
 -0.0004577714736615094 -0.00406532225135975 0.0005221728427365907 0.006496340044636099 0.9964231945621452 -0.03065349805477762 0.0031321125699752773 0.012429565758104855
0.050020842017509996 0.003412977779890479 0.01428753380636946 0.9960517619498396 -0.03508849294666328 0.0006286291481560086 0.007427122187940567 -0.0005488132501984587 -0.004650980722346237
 0.9960517619498396 -0.03508849294666328 0.0034126429262289312 0.014287566379931702 -0.0005490805589904933 -0.004650985891354838 0.0006296174723527874 0.007427003712211758
 0.0006286291481560086 0.007427122187940567 -0.0005490805589904933 -0.004650985891354838 0.0034128362205716385 0.01428821255869721 0.9960517783357824 -0.03508782442760687
 -0.0005488132501984587 -0.004650980722346237 0.0006296174723527874 0.007427003712211758 0.9960517783357824 -0.03508782442760687 0.0034128158265145717 0.01428821731076973
0.055454545454549996 0.0036721574168083774 0.015917552284371146 0.9957083379634526 -0.03895421913849432 0.0007305680566512183 0.008236198723019622 -0.000635275893927191 -0.005160492954754411
 0.9957083379634526 -0.03895421913849432 0.003671745942574342 0.015917590681908227 -0.00063560333993755 -0.005160495487119935 0.0007317828161561107 0.008236052394689214
 0.0007305680566512183 0.008236198723019622 -0.00063560333993755 -0.005160495487119935 0.0036719831177735923 0.01591830495215049 0.9957083578552419 -0.03895347790238716
 -0.000635275893927191 -0.005160492954754411 0.0007317828161561107 0.008236052394689214 0.9957083578552419 -0.03895347790238716 0.003671958091761334 0.015918310448174492
0.056273447269699996 0.00371245948863906 0.01616438898753819 0.9956549015484041 -0.03953778654928356 0.0007466424119496935 0.008358149016145072 -0.0006489032909033594 -0.005237318348689864
 0.9956549015484041 -0.03953778654928356 0.003712035783345542 0.016164428314062 -0.0006492403147329931 -0.005237320411055656 0.0007478933262324069 0.008357998154477603
 0.0007466424119496935 0.008358149016145072 -0.0006492403147329931 -0.005237320411055656 0.003712279959152311 0.016165152799073577 0.9956549219985217 -0.039537034351584684
 -0.0006489032909033594 -0.005237318348689864 0.0007478933262324069 0.008357998154477603 0.9956549219985217 -0.039537034351584684 0.0037122541942156534 0.016165158405961347
0.06252605252188 0.004031035089164701 0.01805911223020158 0.9952322636652112 -0.04400188772876866 0.0008755559671422896 0.009289365534805177 -0.0007581455760607305 -0.005824173668439543
 0.9952322636652112 -0.04400188772876866 0.004030512089898803 0.018059159117132396 -0.0007585601503834015 -0.005824171479829947 0.0008771004675482012 0.009289177001081398
 0.0008755559671422896 0.009289365534805177 -0.0007585601503834015 -0.005824171479829947 0.004030813060639242 0.01805996122437892 0.995232288640365 -0.04400105175365397
 -0.0007581455760607305 -0.005824173668439543 0.0008771004675482012 0.009289177001081398 0.995232288640365 -0.04400105175365397 0.004030781300027638 0.018059967656534417
0.06877865777407 0.004369055394969318 0.019971310411874207 0.9947835119301911 -0.04848067845846984 0.0010154675025095252 0.010220619683982144 -0.0008766414031848513 -0.006411384059463636
 0.9947835119301911 -0.04848067845846984 0.00436842265694976 0.019971365732321018 -0.0008771413004525514 -0.006411376382429812 0.001017336605340623 0.010220387767758346
 0.0010154675025095252 0.010220619683982144 -0.0008771413004525514 -0.006411376382429812 0.004368786330479967 0.01997224472272928 0.9947835418972328 -0.04847975859853638
 -0.0008766414031848513 -0.006411384059463636 0.001017336605340623 0.010220387767758346 0.9947835418972328 -0.04847975859853638 0.0043687479470645545 0.019972251923101314
0.07503126302626001 0.00472686846667771 0.021900608966712143 0.9943083109176645 -0.05297400839025413 0.0011664722077926147 0.011151754010781084 -0.0010044893086514253 -0.006998785068538645
 0.9943083109176645 -0.05297400839025413 0.004726115541890191 0.02190067366034948 -0.0010050822389505059 -0.006998770572593261 0.0011686969423373094 0.011151472573628078
 0.0011664722077926147 0.011151754010781084 -0.0010050822389505059 -0.006998770572593261 0.004726547820428266 0.021901628747544758 0.9943083463494675 -0.0529730045212763
 -0.0010044893086514253 -0.006998785068538645 0.0011686969423373094 0.011151472573628078 0.9943083463494675 -0.0529730045212763 0.004726502183147094 0.021901636631184634
0.08128386827845 0.005104819610431026 0.02384664544452865 0.9938063264786533 -0.057481701252417555 0.0013286626328082914 0.012082606141525185 -0.0011417849771958213 -0.0075862099923900694
 0.9938063264786533 -0.057481701252417555 0.005103936047180467 0.023846720518607836 -0.0011424785885305678 -0.007586187254105563 0.0013312740340751473 0.012082268613527947
 0.0013286626328082914 0.012082606141525185 -0.0011424785885305678 -0.007586187254105563 0.005104442827467952 0.02384775086999714 0.9938063678551334 -0.05748061323198102
 -0.0011417849771958213 -0.0075862099923900694 0.0013312740340751473 0.012082268613527947 0.9938063678551334 -0.05748061323198102 0.005104389300378243 0.02384775932367029
0.08753647353064001 0.005503251330867675 0.025809065055286694 0.9932772260318594 -0.06200355927012521 0.0015021285516768168 0.0130130091343572 -0.0012886211452838607 -0.008173489585506608
 0.9932772260318594 -0.06200355927012521 0.005502226673262338 0.025809151585681867 -0.0012894230237231181 -0.008173457088612968 0.001505157652157492 0.013012608510776673
 0.0015021285516768168 0.0130130091343572 -0.0012894230237231181 -0.008173457088612968 0.00550281384680955 0.025810256316395067 0.9932772738405006 -0.06200238694314284
 -0.0012886211452838607 -0.008173489585506608 0.001505157652157492 0.013012608510776673 0.9932772738405006 -0.06200238694314284 0.0055027517877161486 0.02581026519836124
0.09378907878283 0.00592250325204091 0.027787517490414835 0.9927206788268084 -0.06653936631690259 0.001686956831352714 0.01394279173376415 -0.0014450874987255407 -0.008760451873447206
 0.9927206788268084 -0.06653936631690259 0.005921327039428739 0.027787616622734133 -0.0014460051683861954 -0.008760408008948376 0.0016904346524572373 0.013942320571830293
 0.001686956831352714 0.01394279173376415 -0.0014460051683861954 -0.008760408008948376 0.005922000493177576 0.027788794800042982 0.9927207335632504 -0.06653810951085948
 -0.0014450874987255407 -0.008760451873447206 0.0016904346524572373 0.013942320571830293 0.9927207335632504 -0.06653810951085948 0.005921929252095853 0.02778880393984167
0.100041684035 0.0063629120153391805 0.029781654603671538 0.9921363561875142 -0.0710888902153984 0.0018832313026442538 0.014871778573457988 -0.0016112705667874836 -0.00934692202538419
 0.9921363561875142 -0.0710888902153984 0.006361573782221245 0.029781767554367893 -0.0016123114896684058 -0.009346865091686668 0.0018871888459060465 0.014871228989334429
 0.0018832313026442538 0.014871778573457988 -0.0016123114896684058 -0.009346865091686668 0.006362339397649449 0.029783018193584063 0.9921364183562523 -0.07108754874400504
 -0.0016112705667874836 -0.00934692202538419 0.0018871888459060465 0.014871228989334429 0.9921364183562523 -0.07108754874400504 0.006362258315891796 0.029783027391780428
0.1059090909091 0.006795728000484784 0.03166689606753891 0.9915624791551433 -0.07537039179213038 0.0020778961621079005 0.015742650775761813 -0.001776127210048449 -0.00989665615440475
 0.9915624791551433 -0.07537039179213038 0.006794228205382604 0.03166702315580324 -0.0017772905240895874 -0.009896585326691253 0.002082332043280713 0.01574202003510854
 0.0020778961621079005 0.015742650775761813 -0.0017772905240895874 -0.009896585326691253 0.0067950856498600895 0.031668340852286245 0.9915625487654539 -0.07536897068785425
 -0.001776127210048449 -0.00989665615440475 0.002082332043280713 0.01574202003510854 0.9915625487654539 -0.07536897068785425 0.0067949947253567716 0.03166834989802612
0.1062942892872 0.006824811160264514 0.03179112866517627 0.9915239317428728 -0.07565188447340757 0.0020910326335915963 0.015799790338632054 -0.0017872536134853623 -0.009932722275019295
 0.9915239317428728 -0.07565188447340757 0.00682330043588723 0.0317912567227053 -0.0017884251892491675 -0.00993265047805967 0.002095500871176489 0.01579915400461659
 0.0020910326335915963 0.015799790338632054 -0.0017884251892491675 -0.00993265047805967 0.00682416408996117 0.03179257878780415 0.991524001857837 -0.07565045813549023
 -0.0017872536134853623 -0.009932722275019295 0.002095500871176489 0.01579915400461659 0.991524001857837 -0.07565045813549023 0.006824072498398426 0.03179258781594296
0.11254689453939999 0.007308530992624519 0.03381559103911298 0.9908830816474624 -0.08022808960547324 0.0023104382041709303 0.01672664390660483 -0.001973116526795473 -0.010517671871104708
 0.9908830816474624 -0.08022808960547324 0.007306837300561482 0.03381573556523922 -0.001974426092400274 -0.010517583324508426 0.002315448069314421 0.01672591204843765
 0.0023104382041709303 0.01672664390660483 -0.001974426092400274 -0.010517583324508426 0.007307804865273542 0.03381712796995333 0.9908831602326589 -0.08022657818346308
 -0.001973116526795473 -0.010517671871104708 0.002315448069314421 0.01672591204843765 0.9908831602326589 -0.08022657818346308 0.007307702083272393 0.033817136570441796
0.11879949979160001 0.007814398441836241 0.035854691159174466 0.9902134847947035 -0.08481723416598584 0.0025415219822533456 0.017652152469748588 -0.0021689357066481743 -0.011101587053531137
 0.9902134847947035 -0.08481723416598584 0.007812511300006104 0.03585485359015159 -0.0021703905359726884 -0.011101479778771515 0.0025471043592937806 0.017651315864224755
 0.0025415219822533456 0.017652152469748588 -0.0021703905359726884 -0.011101479778771515 0.007813588642770876 0.03585631519288319 0.9902135723852765 -0.08481563743051536
 -0.0021689357066481743 -0.011101587053531137 0.0025471043592937806 0.017651315864224755 0.9902135723852765 -0.08481563743051536 0.007813473976437783 0.03585632307905568
0.1250521050438 0.008342736911408546 0.037908075721995414 0.989514823026378 -0.08941903557376203 0.0027843544008781507 0.018576125643932365 -0.002374783951521764 -0.011684281052385635
 0.989514823026378 -0.08941903557376203 0.008340645831591326 0.03790825756997253 -0.0023763912548667924 -0.011684152978956374 0.002790540115073852 0.018575174616617465
 0.0027843544008781507 0.018576125643932365 -0.0023763912548667924 -0.011684152978956374 0.008341838815037913 0.03790978717872805 0.9895149201687635 -0.08941735327826347
 -0.002374783951521764 -0.011684281052385635 0.002790540115073852 0.018575174616617465 0.9895149201687635 -0.08941735327826347 0.008341711556179857 0.037909794034841224
0.131304710296 0.008893866121999378 0.03997538805710137 0.9887867813365508 -0.09403320076993804 0.0030390022363380423 0.019498369573524226 -0.0025907303448047805 -0.012265564098490389
 0.9887867813365508 -0.09403320076993804 0.008891560609904734 0.039975590911453716 -0.0025924972683608423 -0.012265413064125468 0.0030458220434495774 0.01949729399677063
 0.0030390022363380423 0.019498369573524226 -0.0025924972683608423 -0.012265413064125468 0.008892875092052733 0.03997718727992968 0.9887868885894342 -0.09403143265402444
 -0.0025907303448047805 -0.012265564098490389 0.0030458220434495774 0.01949729399677063 0.9887868885894342 -0.09403143265402444 0.008892734516680328 0.03997719276132061
0.1375573155481 0.009345888899483951 0.04178592112018729 0.9881513163241731 -0.09838893145973963 0.003274625637932989 0.020391840876814366 -0.002785932598431994 -0.012818423480149947
 0.9881513163241731 -0.09838893145973963 0.009343359169748721 0.04178614432897417 -0.002787869843726586 -0.012818249191462662 0.0032820949061006352 0.02039064194122302
 0.003274625637932989 0.020391840876814366 -0.002787869843726586 -0.012818249191462662 0.009344801110210863 0.04178780841139447 0.988151434155521 -0.09838707738642387
 -0.002785932598431994 -0.012818423480149947 0.0032820949061006352 0.02039064194122302 0.988151434155521 -0.09838707738642387 0.00934464574314143 0.04178781020587943
0.1438099208003 0.009813929706561175 0.04358611438741662 0.9874932644714167 -0.10273282626555401 0.0035197490123760372 0.021281255694033222 -0.002988921725186597 -0.013367560760592484
 0.9874932644714167 -0.10273282626555401 0.009811165395875714 0.04358635942461601 -0.0029910369862201054 -0.013367361076373404 0.0035278956228988107 0.02127992411706702
 0.0035197490123760372 0.021281255694033222 -0.0029910369862201054 -0.013367361076373404 0.00981274065179924 0.04358809007792007 0.9874933934384031 -0.102730885984051
 -0.002988921725186597 -0.013367560760592484 0.0035278956228988107 0.02127992411706702 0.9874933934384031 -0.102730885984051 0.009812569624790653 0.0435880877011925
0.1500625260525 0.010297811936776646 0.04537579402398738 0.9868128071012148 -0.10706475357971518 0.003774280452301817 0.022166508604864996 -0.0031996081176417137 -0.013912876498147037
 0.9868128071012148 -0.10706475357971518 0.010294802686871572 0.04537606243090765 -0.003201909069618767 -0.013912649190791972 0.003783132041889403 0.022165034778729425
 0.003774280452301817 0.022166508604864996 -0.003201909069618767 -0.013912649190791972 0.010296517109094284 0.04537785845918927 0.9868129477712739 -0.1070627268299612
 -0.0031996081176417137 -0.013912876498147037 0.003783132041889403 0.022165034778729425 0.9868129477712739 -0.1070627268299612 0.010296329533351932 0.04537785141578523
0.15631513130469998 0.01079735758267679 0.047154791396403474 0.9861101266249878 -0.11138458277765885 0.004038126876903517 0.02304749613863922 -0.0034179009830624064 -0.014454273496341489
 0.9861101266249878 -0.11138458277765885 0.01079409304046052 0.04715508478203395 -0.003420395282127758 -0.014454016252247022 0.004047710832559381 0.023045870135606703
