! Created with skrf 1.8.0 (http://scikit-rf.org).
# GHz S RI R 50.0 
!freq ReS11 ImS11 ReS12 ImS12 ReS13 ImS13
! ReS14 ImS14
! ReS21 ImS21 ReS22 ImS22 ReS23 ImS23
! ReS24 ImS24
! ReS31 ImS31 ReS32 ImS32 ReS33 ImS33
! ReS34 ImS34
! ReS41 ImS41 ReS42 ImS42 ReS43 ImS43
! ReS44 ImS44
!
0.0 0.001279723003774 0.0 0.9987202769888 0.0 4.859536062799e-05 0.0 -4.859536072766e-05 5.9512152968539815e-21
 0.9987202769888 0.0 0.001279723003756 0.0 -4.859536072712e-05 5.951215296787851e-21 4.859536062691e-05 0.0
 4.859536062799e-05 0.0 -4.859536072712e-05 5.951215296787851e-21 0.00127972298982 0.0 0.9987202769748 0.0
 -4.859536072766e-05 5.9512152968539815e-21 4.859536062691e-05 0.0 0.9987202769748 0.0 0.001279722989832 0.0
0.005 0.0013761738578193217 0.0010533613500600602 0.9985983952364728 -0.0026811704170737185 6.672316835859533e-05 0.0004993049529785567 -6.51610470960759e-05 -0.00031980547152214836
 0.9985983952364728 -0.0026811704170737185 0.0013761546153189112 0.0010533725999035373 -6.516295434819178e-05 -0.0003198069574904945 6.683455913793316e-05 0.0004992626177693517
 6.672316835859533e-05 0.0004993049529785567 -6.516295434819178e-05 -0.0003198069574904945 0.001376173091986137 0.0010534290753623052 0.9985983955715078 -0.0026811033626532566
 -6.51610470960759e-05 -0.00031980547152214836 6.683455913793316e-05 0.0004992626177693517 0.9985983955715078 -0.0026811033626532566 0.0013761560468032719 0.001053438979749253
0.006252605252188 0.0014012831924085309 0.0013208440836314616 0.9985665037592132 -0.003352145630296486 7.177315584159705e-05 0.0006244030059563719 -6.97470649129015e-05 -0.00040017246516903395
 0.9985665037592132 -0.003352145630296486 0.0014012531127741423 0.0013208583650578425 -6.975003263496315e-05 -0.0004001742984124032 7.194719640325945e-05 0.0006243480732364793
 7.177315584159705e-05 0.0006244030059563719 -6.975003263496315e-05 -0.0004001742984124032 0.0014012819223278327 0.0013209287472199494 0.9985665042106013 -0.003352061807183389
 -6.97470649129015e-05 -0.00040017246516903395 7.194719640325945e-05 0.0006243480732364793 0.9985665042106013 -0.003352061807183389 0.0014012552782219116 0.0013209413393857345
0.01250521050438 0.0015323759801203478 0.0026694160993245646 0.9983990924397277 -0.006705233958979375 0.00010005386479000743 0.0012493479200895046 -9.527855298005162e-05 -0.0008023645010553456
 0.9983990924397277 -0.006705233958979375 0.0015322558705539479 0.002669446883052252 -9.529024741322579e-05 -0.0008023679054804708 0.00010074795930872494 0.0012492165728327704
 0.00010005386479000743 0.0012493479200895046 -9.529024741322579e-05 -0.0008023679054804708 0.001532370335138152 0.0026695852016986607 0.9983990936752164 -0.00670506655238333
 -9.527855298005162e-05 -0.0008023645010553456 0.00010074795930872494 0.0012492165728327704 0.9983990936752164 -0.00670506655238333 0.0015322639539804114 0.0026696125155725686
0.01875781575657 0.001673247367442532 0.004037337105525822 0.9982178635349527 -0.010067458847110602 0.00013349896941731746 0.0018752376101309103 -0.0001252593473088313 -0.0012060698359183807
 0.9982178635349527 -0.010067458847110602 0.0016729774753163767 0.004037386805871112 -0.00012528542549960014 -0.001206074507133179 0.00013505832687435 0.0018750047196752434
 0.00013349896941731746 0.0018752376101309103 -0.00012528542549960014 -0.001206074507133179 0.0016732342497033491 0.0040375905703151456 0.9982178658921812 -0.010067207943740579
 -0.0001252593473088313 -0.0012060698359183807 0.00013505832687435 0.0018750047196752434 0.9982178658921812 -0.010067207943740579 0.00167299522588857 0.004037634875814397
0.02501042100875 0.001824138163737434 0.0054227466057021195 0.9980226315828762 -0.013440489629400875 0.00017217003268825296 0.0025021146524820364 -0.00015975748594830466 -0.0016111392674051876
 0.9980226315828762 -0.013440489629400875 0.0018236588588102722 0.005422817809403843 -0.00015980353780202096 -0.0016111448528315139 0.00017494010944459323 0.002501751597774246
 0.00017217003268825296 0.0025021146524820364 -0.00015980353780202096 -0.0016111448528315139 0.0018241144692951502 0.005423084404940369 0.9980226353961326 -0.013440155261315515
 -0.00015975748594830466 -0.0016111392674051876 0.00017494010944459323 0.002501751597774246 0.9980226353961326 -0.013440155261315515 0.0018236900182520047 0.005423148094457153
0.03126302626094 0.0019852790046193205 0.006824707854750758 0.9978132003123351 -0.01682506576770029 0.00021612897417927775 0.003129969175187179 -0.0001988395445952839 -0.002017472901970538
 0.9978132003123351 -0.01682506576770029 0.0019845307495421514 0.006824803317207679 -0.00019891110461598503 -0.0020174790000952255 0.00022045581007021082 0.003129443824464459
 0.00021612897417927775 0.003129969175187179 -0.00019891110461598503 -0.0020174790000952255 0.0019852416284286615 0.006825129976365352 0.9978132059198495 -0.01682464794469513
 -0.0001988395445952839 -0.002017472901970538 0.00022045581007021082 0.003129443824464459 0.9978132059198495 -0.01682464794469513 0.0019845790601141435 0.006825215560874985
0.037515631513130004 0.0021568957545857466 0.008242625761187202 0.9975893681591115 -0.020221578897832146 0.0002654376429101247 0.003758770840506989 -0.00024257108398610718 -0.0024249881715118137
 0.9975893681591115 -0.020221578897832146 0.002155819086813525 0.008242748404591077 -0.00024267363735798803 -0.002424994331633873 0.0002716680210472696 0.0037580475154574485
 0.0002654376429101247 0.003758770840506989 -0.00024267363735798803 -0.002424994331633873 0.0021568415855732553 0.008243132202922469 0.9975893758994444 -0.02022107761349179
 -0.00024257108398610718 -0.0024249881715118137 0.0002716680210472696 0.0037580475154574485 0.9975893758994444 -0.02022107761349179 0.0021558882876781807 0.00824324230975024
0.043768236765320004 0.0023392115962599185 0.009676069744205767 0.9973509304660337 -0.02363024991594713 0.00032015761674110166 0.0043884785630124885 -0.0002910168178136068 -0.0028336101070944968
 0.9973509304660337 -0.02363024991594713 0.002337747114439468 0.009676222656485644 -0.00029115580405839075 -0.0028336158292258653 0.0003286391479415753 0.004387517997455952
 0.00032015761674110166 0.0043884785630124885 -0.00029115580405839075 -0.0028336158292258653 0.0023391375177933657 0.009676660514558484 0.9973509406792849 -0.023629665146774958
 -0.0002910168178136068 -0.0028336101070944968 0.0003286391479415753 0.004387517997455952 0.9973509406792849 -0.023629665146774958 0.0023378409427560897 0.009676797885703373
0.050020842017509996 0.002532448015049706 0.011124700529480646 0.9970976805782075 -0.027051202124135244 0.0003803500829385691 0.005019044519436773 -0.0003442406800302699 -0.003243267319512727
 0.9970976805782075 -0.027051202124135244 0.0025305363677089712 0.011124886963704195 -0.00034442149537603596 -0.0032432720543370585 0.00039143125040297854 0.005017803815682096
 0.0003803500829385691 0.005019044519436773 -0.00034442149537603596 -0.0032432720543370585 0.0025323509049293104 0.011125375643815565 0.9970976936071909 -0.02705053383357953
 -0.0003442406800302699 -0.003243267319512727 0.00039143125040297854 0.005017803815682096 0.9970976936071909 -0.02705053383357953 0.002530658559247716 0.011125543134734689
0.055454545454549996 0.0027094162860556658 0.012395716621464561 0.9968654079035497 -0.030034136072097522 0.00043715065773807286 0.005567681685815263 -0.00039442333933374445 -0.0036000584026904554
 0.9968654079035497 -0.030034136072097522 0.0027070678693470514 0.012395934957120743 -0.0003946448554540452 -0.0036000617950862224 0.00045077469253107977 0.005566159841210287
 0.00043715065773807286 0.005567681685815263 -0.0003946448554540452 -0.0036000617950862224 0.0027092966196105195 0.012396465052387881 0.9968654236591848 -0.030033395157950976
 -0.00039442333933374445 -0.0036000584026904554 0.00045077469253107977 0.005566159841210287 0.9968654236591848 -0.030033395157950976 0.0027072177411583778 0.01239666112449107
0.056273447269699996 0.002736825314535649 0.012588234200252166 0.9968294104717375 -0.030484497120744823 0.00044607575314632773 0.0056504161179193125 -0.00040230584822466546 -0.003653890020702283
 0.9968294104717375 -0.030484497120744823 0.002734407190696795 0.012588457574246674 -0.0004025338472601472 -0.003653893169569035 0.0004601059336024853 0.005648848701974647
 0.00044607575314632773 0.0056504161179193125 -0.0004025338472601472 -0.003653893169569035 0.0027367020436662353 0.01258899368175726 0.996829426661121 -0.03048374525842052
 -0.00040230584822466546 -0.003653890020702283 0.0004601059336024853 0.005648848701974647 0.996829426661121 -0.03048374525842052 0.0027345614786222737 0.012589194260176604
0.06252605252188 0.002952562902089334 0.014066422455053913 0.9965459111528262 -0.03393015448427991 0.0005173947964920038 0.006282537067935599 -0.0004652747438673736 -0.0040654089453901485
 0.9965459111528262 -0.03393015448427991 0.0029495790218397517 0.014066686351308791 -0.0004655552407163171 -0.004065409860297525 0.00053472426530118 0.006280592644096036
 0.0005173947964920038 0.006282537067935599 -0.0004655552407163171 -0.004065409860297525 0.0029524103350510615 0.014067266338968352 0.9965459308507939 -0.0339293189818598
 -0.0004652747438673736 -0.0040654089453901485 0.00053472426530118 0.006280592644096036 0.9965459308507939 -0.0339293189818598 0.0029497691372481305 0.014067503084239581
0.06877865777407 0.0031798794559790527 0.015559040824168875 0.9962469729421761 -0.037388163499806754 0.0005943667825564207 0.006915348025061022 -0.0005332090187267752 -0.004477754699094006
 0.9962469729421761 -0.037388163499806754 0.003176270562395097 0.015559348989981707 -0.0005335472878621356 -0.0044777526827124905 0.0006153467083703236 0.006912972530245553
 0.0005943667825564207 0.006915348025061022 -0.0005335472878621356 -0.0044777526827124905 0.003179694449876925 0.015559969146237078 0.9962469964995615 -0.03738724428279594
 -0.0005332090187267752 -0.004477754699094006 0.0006153467083703236 0.006912972530245553 0.9962469964995615 -0.03738724428279594 0.0031765002331964553 0.01556024524858198
0.07503126302626001 0.003418993016553827 0.017065881193593386 0.9959323856842907 -0.04085849057917587 0.000677050628653033 0.007548786993601665 -0.0006061695347320942 -0.004890857349768131
 0.9959323856842907 -0.04085849057917587 0.0034146998675827914 0.01706623754130613 -0.0006065708116121669 -0.004890851655441418 0.000702033059731667 0.007545922551548664
 0.000677050628653033 0.007548786993601665 -0.0006065708116121669 -0.004890851655441418 0.003418772421508627 0.017066893999322014 0.9959324134558613 -0.040857487557792026
 -0.0006061695347320942 -0.004890857349768131 0.000702033059731667 0.007545922551548664 0.9959324134558613 -0.040857487557792026 0.003414972818664697 0.017067212759498174
0.08128386827845 0.003670121033848238 0.0185867468399758 0.995601938915784 -0.044341084171725026 0.000765504551447517 0.008182789598695455 -0.0006842163374443212 -0.005304646151490073
 0.995601938915784 -0.044341084171725026 0.0036650843942307577 0.01858715544759703 -0.0006846858189011079 -0.005304635983262832 0.00079484239569482 0.008179374474212573
 0.000765504551447517 0.008182789598695455 -0.0006846858189011079 -0.005304635983262832 0.0036698616924472093 0.018587844180318808 0.995601971260572 -0.044339997245531844
 -0.0006842163374443212 -0.005304646151490073 0.00079484239569482 0.008179374474212573 0.995601971260572 -0.044339997245531844 0.0036654043470322087 0.01858820900937121
0.08753647353064001 0.003933480384011029 0.02012144898891732 0.9952554220047096 -0.047835878153540574 0.0008597860206294676 0.008817289267317322 -0.0007674086255280217 -0.005719049361001797
 0.9952554220047096 -0.047835878153540574 0.003927641017798271 0.02012191410076989 -0.0007679514701107963 -0.00571903387364073 0.0008938330209499362 0.008813257820626016
 0.0008597860206294676 0.008817289267317322 -0.0007679514701107963 -0.00571903387364073 0.003933179130862059 0.020122630922756034 0.9952554592857936 -0.04783470720912954
 -0.0007674086255280217 -0.005719049361001797 0.0008938330209499362 0.008813257820626016 0.9952554592857936 -0.04783470720912954 0.0039280116891539435 0.020123045342014867
0.09378907878283 0.004209287366907836 0.02166980435349624 0.9948926242734165 -0.05134279423826957 0.0009599517133017394 0.009452217363328979 -0.0008558047183691551 -0.006133994101935025
 0.9948926242734165 -0.05134279423826957 0.004202586029674635 0.021670330381245002 -0.0008564260465042309 -0.006133972400960149 0.000999062418713766 0.00944750000462605
 0.0009599517133017394 0.009452217363328979 -0.0008564260465042309 -0.006133972400960149 0.004208941028672979 0.021671070947759535 0.9948926668587187 -0.05134153914940981
 -0.0008558047183691551 -0.006133994101935025 0.000999062418713766 0.00944750000462605 0.9948926668587187 -0.05134153914940981 0.004203011131946597 0.021671538589024358
0.100041684035 0.004497757686983015 0.02323163333046427 0.9945133351055451 -0.05486174373232985 0.0010660574694845418 0.010087503286436476 -0.000949462021230583 -0.00654940626703208
 0.9945133351055451 -0.05486174373232985 0.004490135118000711 0.02323222485420041 -0.0009501669153260587 -0.006549377408756286 0.0011105872026156594 0.010082026430679058
 0.0010660574694845418 0.010087503286436476 -0.0009501669153260587 -0.006549377408756286 0.004497363081658077 0.02323298465711658 0.994513383367953 -0.05486040436326271
 -0.000949462021230583 -0.00654940626703208 0.0011105872026156594 0.010082026430679058 0.994513383367953 -0.05486040436326271 0.004490618357989659 0.023233509263059067
0.1059090909091 0.004780165252257998 0.02470934033104133 0.9941422261984367 -0.05817476186149409 0.0011710778586201493 0.010683912633319335 -0.0010421847805193185 -0.0069395844879124955
 0.9941422261984367 -0.05817476186149409 0.004771624287041273 0.024709997632637173 -0.0010429726809888353 -0.006939548011190666 0.0012210165947059118 0.01067765254701774
 0.0011710778586201493 0.010683912633319335 -0.0010429726809888353 -0.006939548011190666 0.004779722451963002 0.024710771243746966 0.9941422801322195 -0.05817334326891904
 -0.0010421847805193185 -0.0069395844879124955 0.0012210165947059118 0.01067765254701774 0.9941422801322195 -0.05817334326891904 0.004772165449284573 0.024711352808251964
0.1062942892872 0.004799106424382373 0.024806758641961225 0.9941173440475596 -0.05839262884680679 0.0011781582482867886 0.010723074543156394 -0.0010484369883302681 -0.006965210450245248
 0.9941173440475596 -0.05839262884680679 0.004790503339274022 0.024807420411620956 -0.0010492304928402946 -0.006965173441805213 0.0012284630702250178 0.010716760565199499
 0.0011781582482867886 0.010723074543156394 -0.0010492304928402946 -0.006965173441805213 0.004798660361609284 0.024808194781443013 0.9941173983654695 -0.05839120504907251
 -0.0010484369883302681 -0.006965210450245248 0.0012284630702250178 0.010716760565199499 0.9941173983654695 -0.05839120504907251 0.004791048418016486 0.024808780206262898
0.11254689453939999 0.005113547998184586 0.026395004288032393 0.9937044409023161 -0.06193534370069604 0.0012963080837820047 0.011358856809035534 -0.00115278508548915 -0.00738132988963949
 0.9937044409023161 -0.06193534370069604 0.005103905081157701 0.02639574122496859 -0.0011536722068954954 -0.007381283689055305 0.0013527447560187388 0.011351623999015804
 0.0012963080837820047 0.011358856809035534 -0.0011536722068954954 -0.007381283689055305 0.005113047278772588 0.026396525329512477 0.9937045016600342 -0.06193383531319888
 -0.00115278508548915 -0.00738132988963949 0.0013527447560187388 0.011351623999015804 0.9937045016600342 -0.06193383531319888 0.005104515693101822 0.02639717553977192
0.11879949979160001 0.005441296122278024 0.027996194742952396 0.9932744158183211 -0.06548977508271672 0.0014205600417055066 0.011994773972448122 -0.001262560750810614 -0.007797686430671484
 0.9932744158183211 -0.06548977508271672 0.005430554018454375 0.027997011941792164 -0.0012635464575790362 -0.007797629946884378 0.0014834859857162683 0.011986536491721907
 0.0014205600417055066 0.011994773972448122 -0.0012635464575790362 -0.007797629946884378 0.00544073753799105 0.02799780078270506 0.9932744834064381 -0.06548818193367542
 -0.001262560750810614 -0.007797686430671484 0.0014834859857162683 0.011986536491721907 0.9932744834064381 -0.06548818193367542 0.005431233850640392 0.02799851985842899
0.1250521050438 0.005782563756336387 0.02961015430149655 0.9928270593764549 -0.06905580306569656 0.0015509661755050835 0.012630748173480125 -0.0013778173550164907 -0.008214200496607135
 0.9928270593764549 -0.06905580306569656 0.005770663063954893 0.029611057032246316 -0.0013789065774601507 -0.008214132589551075 0.0016207394304887848 0.012621416010826985
 0.0015509661755050835 0.012630748173480125 -0.0013789065774601507 -0.008214132589551075 0.005781944089713146 0.02961184544430595 0.9928271341921027 -0.06905412497154574
 -0.0013778173550164907 -0.008214200496607135 0.0016207394304887848 0.012621416010826985 0.9928271341921027 -0.06905412497154574 0.00577141579581591 0.02961263758033034
0.131304710296 0.006137563053059595 0.031236706565843902 0.99236216267371 -0.07263330148272625 0.0016875774826797059 0.013266699838793493 -0.0014986071610117117 -0.008630791065012522
 0.99236216267371 -0.07263330148272625 0.006124444315744884 0.03123770027619698 -0.0014998047911902138 -0.008630710545673334 0.0017645566607644675 0.013256178767209439
 0.0016875774826797059 0.013266699838793493 -0.0014998047911902138 -0.008630710545673334 0.006136879077319635 0.03123848292565661 0.9923622451213763 -0.07263153824786371
 -0.0014986071610117117 -0.008630791065012522 0.0017645566607644675 0.013256178767209439 0.9923622451213763 -0.07263153824786371 0.006125273618122198 0.031239352433209404
0.1375573155481 0.006418980336047523 0.03266465337525448 0.9919670686000359 -0.07601104086763333 0.0018110515415784138 0.013881222775188343 -0.0016054985533769462 -0.009026119518647653
 0.9919670686000359 -0.07601104086763333 0.006404580293484539 0.03266572321517309 -0.0016068118432622444 -0.009026026455317136 0.001895414579802304 0.013869538469038769
 0.0018110515415784138 0.013881222775188343 -0.0016068118432622444 -0.009026026455317136 0.006418229464995249 0.03266651506582139 0.9919671590261029 -0.07600919238637865
 -0.0016054985533769462 -0.009026119518647653 0.001895414579802304 0.013869538469038769 0.9919671590261029 -0.07600919238637865 0.006405489296597544 0.03266744610215604
0.1438099208003 0.006710101185847213 0.034086149497999416 0.9915584736431642 -0.07938127449373361 0.0019394862983263947 0.01449383854204916 -0.0017166647738355318 -0.009419648437726667
 0.9915584736431642 -0.07938127449373361 0.006694359725674639 0.03408729962456729 -0.001718098985790728 -0.00941954167661435 0.002031559897443981 0.014480905869034765
 0.0019394862983263947 0.01449383854204916 -0.001718098985790728 -0.00941954167661435 0.0067092802952468 0.03408809662639935 0.9915585724500989 -0.07937934057517577
 -0.0017166647738355318 -0.009419648437726667 0.002031559897443981 0.014480905869034765 0.9915585724500989 -0.07937934057517577 0.006695351990496821 0.034089092191281846
0.1500625260525 0.007010836660846343 0.03550110728257982 0.9911364698108122 -0.08274395007159893 0.002072843707499032 0.015104504558893906 -0.0018320679530823647 -0.009811335281475774
 0.9911364698108122 -0.08274395007159893 0.006993693594452549 0.03550234206984922 -0.0018336283412672977 -0.009811213622755248 0.002172953007563582 0.015090235302223417
 0.002072843707499032 0.015104504558893906 -0.0018336283412672977 -0.009811213622755248 0.007009942624970433 0.03550313995948952 0.9911365774072222 -0.08274193051788999
 -0.0018320679530823647 -0.009811335281475774 0.002172953007563582 0.015090235302223417 0.9911365774072222 -0.08274193051788999 0.006994772667559551 0.035504203223321214
0.15631513130469998 0.007321097347268644 0.03690944188853567 0.9907011494037399 -0.08609901491022645 0.0022110853606748786 0.01571317886646141 -0.0019516698370067444 -0.010201138317497187
