! Created with skrf 1.8.0 (http://scikit-rf.org).
# GHz S RI R 50.0 
!freq ReS11 ImS11 ReS12 ImS12 ReS13 ImS13
! ReS14 ImS14
! ReS21 ImS21 ReS22 ImS22 ReS23 ImS23
! ReS24 ImS24
! ReS31 ImS31 ReS32 ImS32 ReS33 ImS33
! ReS34 ImS34
! ReS41 ImS41 ReS42 ImS42 ReS43 ImS43
! ReS44 ImS44
!
0.0 0.001530903307343 0.0 0.9984690966799 0.0 5.929240471722e-05 0.0 -5.929240502254e-05 7.261225402460207e-21
 0.9984690966799 0.0 0.001530903307341 0.0 -5.929240502229e-05 7.261225402429589e-21 5.929240471701e-05 0.0
 5.929240471722e-05 0.0 -5.929240502229e-05 7.261225402429589e-21 0.001530903307699 0.0 0.9984690966802 0.0
 -5.929240502254e-05 7.261225402460207e-21 5.929240471701e-05 0.0 0.9984690966802 0.0 0.001530903307709 0.0
0.005 0.001647153719328413 0.0012474817900384072 0.9983220221208433 -0.0032071933613742627 8.376961950194907e-05 0.0006828691529801522 -8.12081922948218e-05 -0.00042346015964479404
 0.9983220221208433 -0.0032071933613742627 0.0016471470867512853 0.0012474857180387016 -8.121298297779672e-05 -0.00042346382890622253 8.379800473314362e-05 0.0006828583882808875
 8.376961950194907e-05 0.0006828691529801522 -8.121298297779672e-05 -0.00042346382890622253 0.0016471516725862936 0.0012475502779715577 0.9983220224759811 -0.003207126300293728
 -8.12081922948218e-05 -0.00042346015964479404 8.379800473314362e-05 0.0006828583882808875 0.9983220224759811 -0.003207126300293728 0.0016471498411946357 0.0012475513511926877
0.006252605252188 0.0016776350785404097 0.0015642837207329057 0.9982832168829394 -0.004009779670036401 9.075067765049606e-05 0.0008539045568103593 -8.73949376631578e-05 -0.0005298799814453637
 0.9982832168829394 -0.004009779670036401 0.0016776247099572982 0.001564288670891957 -8.740239247719795e-05 -0.0005298845054730314 9.079502754877095e-05 0.0008538905714836721
 9.075067765049606e-05 0.0008539045568103593 -8.740239247719795e-05 -0.0005298845054730314 0.0016776318091495414 0.0015643693226842132 0.9982832173684996 -0.004009695853837282
 -8.73949376631578e-05 -0.0005298799814453637 9.079502754877095e-05 0.0008538905714836721 0.9982832173684996 -0.004009695853837282 0.001677628946325564 0.0015643706986112071
0.01250521050438 0.0018380511615935327 0.0031615307873244605 0.998077653501482 -0.00802039772973269 0.00013072253699736416 0.0017080871899810253 -0.0001224930390284856 -0.0010623624162831168
 0.998077653501482 -0.00802039772973269 0.0018380097508307542 0.0031615411079737215 -0.00012252241935147587 -0.0010623707787373552 0.00013089941264732627 0.0017080535172384042
 0.00013072253699736416 0.0017080871899810253 -0.00012252241935147587 -0.0010623707787373552 0.0018380375306385924 0.003161701787337188 0.9980776548692043 -0.008020230337809336
 -0.0001224930390284856 -0.0010623624162831168 0.00013089941264732627 0.0017080535172384042 0.9980776548692043 -0.008020230337809336 0.0018380260992100568 0.0031617048631098067
0.01875781575657 0.0020125006999632726 0.004781655320090846 0.9978521518308973 -0.012041621551457812 0.00017930042788585806 0.0025631538890141053 -0.0001646954000202424 -0.0015966406235619934
 0.9978521518308973 -0.012041621551457812 0.00201240763255686 0.004781671514125837 -0.00016476092167207909 -0.0015966520070759404 0.00017969780104260793 0.0025630937305580518
 0.00017930042788585806 0.0025631538890141053 -0.00016476092167207909 -0.0015966520070759404 0.002012469644366713 0.004781911707300684 0.9978521544881517 -0.012041370679056859
 -0.0001646954000202424 -0.0015966406235619934 0.00017969780104260793 0.0025630937305580518 0.9978521544881517 -0.012041370679056859 0.0020124439577599656 0.004781916769947697
0.02501042100875 0.002201322593328909 0.006422379506700287 0.9976064471850883 -0.016075399950893774 0.00023657793003698226 0.0034191487282058536 -0.00021410699690221346 -0.0021324639108531497
 0.9976064471850883 -0.016075399950893774 0.002201157285663762 0.006422402150574274 -0.0002142227068859033 -0.002132477352000199 0.00023728382576105854 0.003419054225629583
 0.00023657793003698226 0.0034191487282058536 -0.0002142227068859033 -0.002132477352000199 0.002201267048806748 0.006422721344964729 0.997606451530307 -0.016075065662694312
 -0.00021410699690221346 -0.0021324639108531497 0.00023728382576105854 0.003419054225629583 0.997606451530307 -0.016075065662694312 0.00220122143216978 0.006422728642582395
0.03126302626094 0.0024048416918838337 0.00808253060555346 0.9973402613391308 -0.02012256614931171 0.0003026490585310432 0.0042760335357784045 -0.0002708297481492883 -0.0026696579378421596
 0.9973402613391308 -0.02012256614931171 0.0024045835802555798 0.00808256034795298 -0.0002710095534293519 -0.002669672325329011 0.00030375163211308475 0.004275895764284814
 0.0003026490585310432 0.0042760335357784045 -0.0002710095534293519 -0.002669672325329011 0.002404754599770339 0.008082958037263334 0.9973402677725207 -0.020122148475491982
 -0.0002708297481492883 -0.0026696579378421596 0.00030375163211308475 0.004275895764284814 0.9973402677725207 -0.020122148475491982 0.0024046833861357804 0.008082967777567389
0.037515631513130004 0.002623375799882899 0.00976134357921178 0.997053309759052 -0.024183535079143934 0.0003776073512053045 0.0051337377277600555 -0.0003349632967384907 -0.0032080748884976366
 0.997053309759052 -0.024183535079143934 0.002623004333617253 0.009761381141067102 -0.0003352209789408762 -0.0032080889626256506 0.0003791949209385121 0.005133546685617788
 0.0003776073512053045 0.0051337377277600555 -0.0003352209789408762 -0.0032080889626256506 0.0026232501035822805 0.009761856790523108 0.9970533186808277 -0.02418303405058017
 -0.0003349632967384907 -0.0032080748884976366 0.0003791949209385121 0.005133546685617788 0.9970533186808277 -0.02418303405058017 0.0026231476301519633 0.009761869139663579
0.043768236765320004 0.0028572383704794048 0.011458248851684094 0.9967453045228923 -0.028258515557575473 0.00046154543638103553 0.005992173470998427 -0.0004066052941905536 -0.003747578311691916
 0.9967453045228923 -0.028258515557575473 0.0028567330068644545 0.011458295026411788 -0.0004069545182997664 -0.0037475906641379225 0.00046370649693339714 0.005991918067719878
 0.00046154543638103553 0.005992173470998427 -0.0004069545182997664 -0.0037475906641379225 0.0028570670152877195 0.011458848085982172 0.99674531633441 -0.028257931192918497
 -0.0004066052941905536 -0.003747578311691916 0.00046370649693339714 0.005991918067719878 0.99674531633441 -0.028257931192918497 0.0028569276201173385 0.011458863167382378
0.050020842017509996 0.003106739763915104 0.013172784586410588 0.9964159558071316 -0.03234759793771963 0.000554554773516108 0.006851241944763711 -0.0004858515037068018 -0.00428803686463753
 0.9964159558071316 -0.03234759793771963 0.003106079963952832 0.013172840240463375 -0.0004863058235876976 -0.004288045938370219 0.0005573779992777605 0.006850909988823943
 0.000554554773516108 0.006851241944763711 -0.0004863058235876976 -0.004288045938370219 0.00310651569544846 0.01317347014505638 0.996415970910046 -0.03234693024327964
 -0.0004858515037068018 -0.00428803686463753 0.0005573779992777605 0.006850909988823943 0.996415970910046 -0.03234693024327964 0.0031063337143747527 0.013173488038413162
0.055454545454549996 0.0033365038634914973 0.014676776609812764 0.996112182401255 -0.03591259984703433 0.0006428196891708926 0.007598229600628547 -0.0005609673844220379 -0.004758386969657624
 0.996112182401255 -0.03591259984703433 0.0033356931736094955 0.014676841262653671 -0.0005615239595900519 -0.004758391814088166 0.0006462905085690709 0.007597820352615053
 0.0006428196891708926 0.007598229600628547 -0.0005615239595900519 -0.004758391814088166 0.003336228256264459 0.014677537468603782 0.9961122006911137 -0.035911859740641705
 -0.0005609673844220379 -0.004758386969657624 0.0006462905085690709 0.007597820352615053 0.9961122006911137 -0.035911859740641705 0.0033360046627359443 0.014677557835609579
0.056273447269699996 0.0033721878870018435 0.014904553657763176 0.9960649727579228 -0.036450797067662466 0.0006567254689652943 0.0077108364112513485 -0.0005727958235904629 -0.004829321250333475
 0.9960649727579228 -0.036450797067662466 0.0033713531118047734 0.014904619731384433 -0.000573368685670285 -0.004829325339605513 0.0006602997113269101 0.007710414597642513
 0.0006567254689652943 0.0077108364112513485 -0.000573368685670285 -0.004829325339605513 0.0033719040505911673 0.014905325892253416 0.9960649915546179 -0.036450046045934575
 -0.0005727958235904629 -0.004829321250333475 0.0006602997113269101 0.007710414597642513 0.9960649915546179 -0.036450046045934575 0.0033716738142047205 0.014905346632489378
0.06252605252188 0.0036538885369320276 0.016653199974247662 0.9956920640706562 -0.04056807590068523 0.0007681461282062013 0.008570843910616965 -0.0006675302710443667 -0.005371302534148969
 0.9956920640706562 -0.04056807590068523 0.00365285824447725 0.01665327748228107 -0.0006682350168126162 -0.005371299784499168 0.0007725604086666523 0.008570317808396767
 0.0007681461282062013 0.008570843910616965 -0.0006682350168126162 -0.005371299784499168 0.0036535378783197 0.016654059285839132 0.9956920869647947 -0.0405672415514169
 -0.0006675302710443667 -0.005371302534148969 0.0007725604086666523 0.008570317808396767 0.9956920869647947 -0.0405672415514169 0.003653253708739242 0.016654082862299587
0.06877865777407 0.003952145581161669 0.01841839436272963 0.9952969384087709 -0.04469935954812545 0.0008889037290894346 0.009431146270498944 -0.0007701449423899091 -0.00591385114998891
 0.9952969384087709 -0.04469935954812545 0.003950899222980622 0.018418484395647028 -0.0007709948100469313 -0.005913839558291776 0.0008942472293390215 0.009430500310422908
 0.0008889037290894346 0.009431146270498944 -0.0007709948100469313 -0.005913839558291776 0.00395172104674649 0.01841934121248093 0.9952969658060786 -0.044698441859100345
 -0.0007701449423899091 -0.00591385114998891 0.0008942472293390215 0.009430500310422908 0.9952969658060786 -0.044698441859100345 0.003951377254454925 0.018419367568074604
0.07503126302626001 0.004267261040890566 0.02019982563381916 0.9948793047298758 -0.04884454415534279 0.0010190835067212516 0.010291620752037716 -0.0008807279592397887 -0.006456836274396935
 0.9948793047298758 -0.04884454415534279 0.004265778059049102 0.02019992935880023 -0.0008817360847550458 -0.006456813688909491 0.0010254455568391462 0.01029083821435094
 0.0010190835067212516 0.010291620752037716 -0.0008817360847550458 -0.006456813688909491 0.00426675557538804 0.020200860532315543 0.9948793370366202 -0.04884354311334642
 -0.0008807279592397887 -0.006456836274396935 0.0010254455568391462 0.01029083821435094 0.9948793370366202 -0.04884354311334642 0.004266346456135018 0.020200889562880978
0.08128386827845 0.004599535110242413 0.021997194627833196 0.9944388725520951 -0.053003502802080396 0.0011587688463554882 0.011152140484782639 -0.000999365405066804 -0.007000125416436019
 0.9944388725520951 -0.053003502802080396 0.00459779493483539 0.021997313289965986 -0.0010005448228617357 -0.007000089536874986 0.0011662389109336408 0.01115120348712543
 0.0011587688463554882 0.011152140484782639 -0.0010005448228617357 -0.007000089536874986 0.004598941659409975 0.02199831814141775 0.9944389101772104 -0.0530024183874729
 -0.000999365405066804 -0.007000125416436019 0.0011662389109336408 0.01115120348712543 0.9944389101772104 -0.0530024183874729 0.004598461491024039 0.0219983496950989
0.08753647353064001 0.004949266140551313 0.02381021009783894 0.9939753521878893 -0.05717608957053767 0.0013080411807941414 0.012012574770827504 -0.0011261412553503875 -0.007543584143090717
 0.9939753521878893 -0.05717608957053767 0.00494724818669527 0.023810345021488575 -0.0011275048986058617 -0.0075435325207268795 0.0013167088438567904 0.012011464256478538
 0.0013080411807941414 0.012012574770827504 -0.0011275048986058617 -0.0075435325207268795 0.004948577649760008 0.023811422848785225 0.9939753955418659 -0.05717492175779447
 -0.0011261412553503875 -0.007543584143090717 0.0013167088438567904 0.012011464256478538 0.9939753955418659 -0.05717492175779447 0.004948020688596754 0.02381145672562157
0.09378907878283 0.005316750592058921 0.025638585776355347 0.9934884549491737 -0.06136214243534162 0.0014669798908827434 0.012872789311447738 -0.001261137303285508 -0.008087075887332231
 0.9934884549491737 -0.06136214243534162 0.005314434257211743 0.02563873836659625 -0.0012626980039481752 -0.008087005925103547 0.0014769348395847347 0.012871485037677977
 0.0014669798908827434 0.012872789311447738 -0.0012626980039481752 -0.008087005925103547 0.005315960006799081 0.025639888443248677 0.9934885044448382 -0.06136089119358197
 -0.001261137303285508 -0.008087075887332231 0.0014769348395847347 0.012871485037677977 0.9934885044448382 -0.06136089119358197 0.00531532048480133 0.025639924394732918
0.100041684035 0.005702282967976842 0.027482038221465964 0.9929778933379886 -0.06556148537974428 0.0016356622083432614 0.01373264637653274 -0.0014044330817934469 -0.008630461818367576
 0.9929778933379886 -0.06556148537974428 0.005699647629003595 0.027482209965691916 -0.001406203570417869 -0.008630370771015732 0.0016469942156128606 0.01373112690333193
 0.0016356622083432614 0.01373264637653274 -0.001406203570417869 -0.008630370771015732 0.005701383233684569 0.027483431538251488 0.9929779493906935 -0.06556015067445513
 -0.0014044330817934469 -0.008630461818367576 0.0016469942156128606 0.01373112690333193 0.9929779493906935 -0.06556015067445513 0.005700655354764662 0.02748346926712823
0.1059090909091 0.006080739153274891 0.029225383551482458 0.9924770080321897 -0.069514042830015 0.0018028812029355727 0.014539080334445455 -0.0015465182788735586 -0.009140149907845762
 0.9924770080321897 -0.069514042830015 0.006077785685898936 0.029225574697276224 -0.0015484971189789114 -0.009140036445666196 0.0018155871413978641 0.014537338343693168
 0.0018028812029355727 0.014539080334445455 -0.0015484971189789114 -0.009140036445666196 0.006079730578776358 0.02922686265191131 0.9924770706180066 -0.06951262976764341
 -0.0015465182788735586 -0.009140149907845762 0.0018155871413978641 0.014537338343693168 0.9924770706180066 -0.06951262976764341 0.00607891448658668 0.029226901734824357
0.1062942892872 0.006106155732406569 0.029340285201405865 0.9924433812249921 -0.06977392997911991 0.0018141631197111407 0.014592004943368611 -0.0015561057833455324 -0.00917360074800356
 0.9924433812249921 -0.06977392997911991 0.006103180743298992 0.029340477671013904 -0.001558098688803086 -0.009173485722213005 0.001826962025931846 0.014590247622367396
 0.0018141631197111407 0.014592004943368611 -0.001558098688803086 -0.009173485722213005 0.0061051397951749735 0.02934176995896417 0.9924434442525409 -0.06977251177139306
 -0.0015561057833455324 -0.00917360074800356 0.001826962025931846 0.014590247622367396 0.9924434442525409 -0.06977251177139306 0.006104317731638207 0.029341809119125907
0.11254689453939999 0.0065286592178537125 0.031213044455400914 0.991884634019407 -0.07399927661435157 0.002002555271873007 0.01545072080555157 -0.0017162301772019088 -0.009716349072114487
 0.991884634019407 -0.07399927661435157 0.006525323906980908 0.03121325930759686 -0.0017184580261523045 -0.009716207026700082 0.0020169109658697408 0.015448701769363672
 0.002002555271873007 0.01545072080555157 -0.0017184580261523045 -0.009716207026700082 0.006527520024406134 0.03121462150481159 0.9918847044426223 -0.07399777485844314
 -0.0017162301772019088 -0.009716349072114487 0.0020169109658697408 0.015448701769363672 0.9918847044426223 -0.07399777485844314 0.006526597913848348 0.031214661701242364
0.11879949979160001 0.0069700815233174 0.0331000327444671 0.9913013688330279 -0.07823731540135584 0.002200908877803141 0.016308646670021194 -0.001884878525689953 -0.010258560729715488
 0.9913013688330279 -0.07823731540135584 0.006966365190768144 0.03310027172423247 -0.0018873537420086835 -0.010258388475817237 0.0022169112770816855 0.0163063408217616
 0.002200908877803141 0.016308646670021194 -0.0018873537420086835 -0.010258388475817237 0.006968812021405548 0.033101702994056716 0.9913014470759763 -0.07823573004853152
 -0.001884878525689953 -0.010258560729715488 0.0022169112770816855 0.0163063408217616 0.9913014470759763 -0.07823573004853152 0.006967783962811067 0.03310174378299581
0.1250521050438 0.0074307084056207656 0.035000965086596905 0.9906933046406512 -0.08248782694294911 0.002409291623424959 0.01716563224023693 -0.0020621204988583034 -0.01080008718132353
 0.9906933046406512 -0.08248782694294911 0.00742659032066642 0.03500123002879678 -0.002064855402894109 -0.010799881382620688 0.0024270306535520026 0.017163013243545452
 0.002409291623424959 0.01716563224023693 -0.002064855402894109 -0.010799881382620688 0.007429301543871395 0.03500272950603895 0.9906933911302785 -0.08248615793816508
 -0.0020621204988583034 -0.01080008718132353 0.0024270306535520026 0.017163013243545452 0.9906933911302785 -0.08248615793816508 0.007428161594342807 0.03500277039524087
0.131304710296 0.007910823164541933 0.03691555416234407 0.9900601624356241 -0.08675058291655059 0.0026277685745508725 0.018021524292788305 -0.0022480230884479773 -0.011340777399836565
 0.9900601624356241 -0.08675058291655059 0.007906282563119113 0.03691584699388095 -0.002251029896298634 -0.011340534572797057 0.0026473341480980606 0.01801856456203035
 0.0026277685745508725 0.018021524292788305 -0.002251029896298634 -0.011340534572797057 0.007909271893289277 0.03691741378113583 0.9900602576027628 -0.08674883020090386
 -0.0022480230884479773 -0.011340777399836565 0.0026473341480980606 0.01801856456203035 0.9900602576027628 -0.08674883020090386 0.007908014064279968 0.036917454230259
0.1375573155481 0.008300782055209358 0.03859269345293891 0.9895116328306396 -0.09077441290698232 0.0028288011334609135 0.018850726912422216 -0.0024150265436347247 -0.011855069505931622
 0.9895116328306396 -0.09077441290698232 0.008295798009229286 0.0385930130533358 -0.0024183233142000553 -0.011854789380864534 0.0028502360957633646 0.018847430932836334
 0.0028288011334609135 0.018850726912422216 -0.0024183233142000553 -0.011854789380864534 0.00829907985603847 0.038594649510374016 0.9895117370682073 -0.09077257648207575
 -0.0024150265436347247 -0.011855069505931622 0.0028502360957633646 0.018847430932836334 0.9895117370682073 -0.09077257648207575 0.00829769700240943 0.038594685620590874
0.1438099208003 0.008704456633374508 0.04026093146024222 0.9889438143269175 -0.09478799828593018 0.0030379548449815798 0.019676614680997562 -0.002588717500573782 -0.012366316454947558
 0.9889438143269175 -0.09478799828593018 0.00869900833161952 0.04026127965424572 -0.0025923173523730247 -0.012365995608514115 0.0030613405882082747 0.019672957290457958
 0.0030379548449815798 0.019676614680997562 -0.0025923173523730247 -0.012365995608514115 0.008702596553947978 0.04026298503768468 0.9889439280626094 -0.09478607810123042
 -0.002588717500573782 -0.012366316454947558 0.0030613405882082747 0.019672957290457958 0.9889439280626094 -0.09478607810123042 0.00870108244668508 0.04026301606193896
0.1500625260525 0.009121704246308768 0.04192012728628333 0.9883568537794047 -0.0987912381261624 0.003255157523243686 0.020499104237477354 -0.0027690254409542835 -0.012874438847443164
 0.9883568537794047 -0.0987912381261624 0.009115770849922935 0.04192050599267554 -0.002772941462904863 -0.012874073718975297 0.003280574881188167 0.02049505937322217
 0.003255157523243686 0.020499104237477354 -0.002772941462904863 -0.012874073718975297 0.009119679341557831 0.04192227951067013 0.9883569774431262 -0.09878923412907588
 -0.0027690254409542835 -0.012874438847443164 0.003280574881188167 0.02049505937322217 0.9883569774431262 -0.09878923412907588 0.009118027701716637 0.04192230468989156
0.15631513130469998 0.009552381217013739 0.043570144288753075 0.9877508988044676 -0.10278403188512558 0.003480336124145022 0.021318113635148028 -0.002955878970490413 -0.013379358974469813
 0.9877508988044676 -0.10278403188512558 0.009545941858887633 0.04357055552181617 -0.002960124221391284 -0.013378945866605362 0.0035078653626121952 0.021313654344993504
