! Created with skrf 1.8.0 (http://scikit-rf.org).
# GHz S RI R 50.0 
!freq ReS11 ImS11 ReS12 ImS12 ReS13 ImS13
! ReS14 ImS14
! ReS21 ImS21 ReS22 ImS22 ReS23 ImS23
! ReS24 ImS24
! ReS31 ImS31 ReS32 ImS32 ReS33 ImS33
! ReS34 ImS34
! ReS41 ImS41 ReS42 ImS42 ReS43 ImS43
! ReS44 ImS44
!
0.0 0.001484565854338 0.0 0.9985154341146 0.0 5.701620709899e-05 0.0 -5.701620765384e-05 6.982471620279598e-21
 0.9985154341146 0.0 0.001484565854337 0.0 -5.701620765367e-05 6.982471620258778e-21 5.701620709828e-05 0.0
 5.701620709899e-05 0.0 -5.701620765367e-05 6.982471620258778e-21 0.001484565869871 0.0 0.9985154341301 0.0
 -5.701620765384e-05 6.982471620279598e-21 5.701620709828e-05 0.0 0.9985154341301 0.0 0.001484565869884 0.0
0.005 0.0015970698414587785 0.001217362437199683 0.9983731413330653 -0.0031098417949637944 7.935829939048135e-05 0.0006115835103955694 -7.719094578439618e-05 -0.0003868148047575118
 0.9983731413330653 -0.0031098417949637944 0.0015970805329488216 0.0012173561454728971 -7.719140920783485e-05 -0.00038681509215124593 7.929829842649792e-05 0.0006116064221239817
 7.935829939048135e-05 0.0006115835103955694 -7.719140920783485e-05 -0.00038681509215124593 0.0015970703110376294 0.0012174293730712715 0.9983731416874412 -0.0031097747376624663
 -7.719094578439618e-05 -0.0003868148047575118 7.929829842649792e-05 0.0006116064221239817 0.9983731416874412 -0.0031097747376624663 0.0015970807669085884 0.0012174233201025328
0.006252605252188 0.0016265250625401523 0.0015264861005190682 0.9983356613232467 -0.00388806939656203 8.570980095677112e-05 0.0007647866746283668 -8.28593197066465e-05 -0.00048401761765963383
 0.9983356613232467 -0.00388806939656203 0.0016265417754344196 0.0015264780825274753 -8.286004137381593e-05 -0.00048401797058614856 8.561605557639077e-05 0.0007648164076720016
 8.570980095677112e-05 0.0007647866746283668 -8.286004137381593e-05 -0.00048401797058614856 0.0016265257187697635 0.0015265697570515473 0.9983356617988728 -0.0038879855798613226
 -8.28593197066465e-05 -0.00048401761765963383 8.561605557639077e-05 0.0007648164076720016 0.9983356617988728 -0.0038879855798613226 0.0016265420624908852 0.0015265620501357143
0.01250521050438 0.0017812858434336143 0.003084921538855794 0.9981374820585748 -0.007776977292208235 0.00012196782745956074 0.001530000772606862 -0.00011487213622659453 -0.0009703970192926871
 0.9981374820585748 -0.007776977292208235 0.0017813525837210734 0.003084903946675303 -0.00011487498699383127 -0.0009703976552328404 0.00012159401181780734 0.001530072015364901
 0.00012196782745956074 0.001530000772606862 -0.00011487498699383127 -0.0009703976552328404 0.0017812879204857771 0.003085088515829092 0.9981374834088395 -0.007776809894497052
 -0.00011487213622659453 -0.0009703970192926871 0.00012159401181780734 0.001530072015364901 0.9981374834088395 -0.007776809894497052 0.0017813531710679158 0.0030850716777023977
0.01875781575657 0.0019491762044482165 0.004665547696189353 0.9979206570288037 -0.011676195955306076 0.0001658730071598533 0.0022961409901460037 -0.00015315064794032773 -0.0014584672163649223
 0.9979206570288037 -0.011676195955306076 0.0019493261846716585 0.004665518846614209 -0.00015315701468136638 -0.001458468049994416 0.0001650333177209311 0.0022962677746076166
 0.0001658730071598533 0.0022961409901460037 -0.00015315701468136638 -0.001458468049994416 0.0019491804535793705 0.004665797774072701 0.9979206596345327 -0.011675945053492238
 -0.00015315064794032773 -0.0014584672163649223 0.0001650333177209311 0.0022962677746076166 0.9979206596345327 -0.011675945053492238 0.001949327055625889 0.004665770268526008
0.02501042100875 0.0021305149887878762 0.0062661692756071944 0.9976849377111573 -0.015587624849496481 0.000217509271500417 0.0030632401510411046 -0.00019778800878234596 -0.0019480180714893912
 0.9976849377111573 -0.015587624849496481 0.002130781360203798 0.006266127368200912 -0.0001977992648366026 -0.0019480190008478893 0.0002160178627923313 0.003063438678422785
 0.000217509271500417 0.0030632401510411046 -0.0001977992648366026 -0.0019480190008478893 0.002130522176920053 0.006266502235611122 0.9976849419655475 -0.015587290477186624
 -0.00019778800878234596 -0.0019480180714893912 0.0002160178627923313 0.003063438678422785 0.9976849419655475 -0.015587290477186624 0.0021307824984603666 0.006266462424608329
0.03126302626094 0.002325607842527295 0.00788566176907625 0.9974300625437582 -0.019512083137800403 0.0002769610527266076 0.003831262810053875 -0.0002488749196039674 -0.002438902657186344
 0.9974300625437582 -0.019512083137800403 0.002326023711734804 0.007885604887600936 -0.00024889242718931123 -0.0024389035634760003 0.0002746318643419069 0.0038315514614081056
 0.0002769610527266076 0.003831262810053875 -0.00024889242718931123 -0.0024389035634760003 0.002325618739497758 0.007886077369745958 0.9974300688402422 -0.019511665308260772
 -0.0002488749196039674 -0.002438902657186344 0.0002746318643419069 0.0038315514614081056 0.9974300688402422 -0.019511665308260772 0.002326025088207511 0.007886023515301216
0.037515631513130004 0.0025347538927751115 0.009523295904562076 0.9971557637939562 -0.02344998517507929 0.00034431247265006806 0.0046001465620692196 -0.0003065002602566936 -0.0029309959410168513
 0.9971557637939562 -0.02344998517507929 0.0025353523314304532 0.00952322201753094 -0.0003065253714789461 -0.0029309966884913607 0.00034095915220804434 0.0046005459187434
 0.00034431247265006806 0.0046001465620692196 -0.0003065253714789461 -0.0029309966884913607 0.002534769269071466 0.009523793884929584 0.9971557725255302 -0.02344948387776937
 -0.0003065002602566936 -0.0029309959410168513 0.00034095915220804434 0.0046005459187434 0.9971557725255302 -0.02344948387776937 0.0025353539035336474 0.009523724149916014
0.043768236765320004 0.002758248323923861 0.011178532087386488 0.9968617703289546 -0.02740154599763826 0.0004196469659785095 0.005369814597957626 -0.00037075131247971566 -0.003424182225855091
 0.9968617703289546 -0.02740154599763826 0.0027590623769858155 0.011178439048199209 -0.00037078536998462176 -0.0034241826617487005 0.00041508283361875675 0.005370347465144889
 0.0004196469659785095 0.005369814597957626 -0.00037078536998462176 -0.0034241826617487005 0.0027582689540873646 0.011179112161548113 0.9968617818923958 -0.02740096120326501
 -0.00037075131247971566 -0.003424182225855091 0.00041508283361875675 0.005370347465144889 0.9968617818923958 -0.02740096120326501 0.002759064092226021 0.011179024610073033
0.050020842017509996 0.002996383584986475 0.01285093544622894 0.9965478090196016 -0.031366866206009696 0.0005030470503845621 0.006140180896091519 -0.0004417138443748755 -0.003918349956649433
 0.9965478090196016 -0.031366866206009696 0.002997446276954645 0.012850820993104002 -0.00044175818168376286 -0.0039183499111160305 0.0004970850847718938 0.006140872327572455
 0.0005030470503845621 0.006140180896091519 -0.00044175818168376286 -0.0039183499111160305 0.0029964102444111104 0.012851597299718463 0.9965478238137226 -0.031366197869757674
 -0.0004417138443748755 -0.003918349956649433 0.0004970850847718938 0.006140872327572455 0.9965478238137226 -0.031366197869757674 0.0029974480705144686 0.012851489897398547
0.055454545454549996 0.0032154460204303 0.014317956563541644 0.9962585377755983 -0.03482404688437939 0.0005821377765944044 0.006810147774222638 -0.0005088984646210814 -0.0043485083369655
 0.9962585377755983 -0.03482404688437939 0.003216751595656983 0.0143178215744809 -0.0005089528114271788 -0.004348507721812318 0.0005748089017285652 0.006810999114963639
 0.0005821377765944044 0.006810147774222638 -0.0005089528114271788 -0.004348507721812318 0.003215478549941439 0.014318689204624762 0.9962585557035463 -0.034823305902642876
 -0.0005088984646210814 -0.0043485083369655 0.0005748089017285652 0.006810999114963639 0.9962585557035463 -0.034823305902642876 0.0032167533955439753 0.014318562822574434
0.056273447269699996 0.003249450007479371 0.014540134123005068 0.9962136055587928 -0.03534597360466862 0.000594594165837706 0.006911152761310382 -0.0005194721277730062 -0.004413389182366655
 0.9962136055587928 -0.03534597360466862 0.003250794348252506 0.014539995878644777 -0.0005195280694615411 -0.004413388468424337 0.0005870470037211497 0.006912030084689945
 0.000594594165837706 0.006911152761310382 -0.0005195280694615411 -0.004413388468424337 0.0032494834724114906 0.014540877407834395 0.9962136239854661 -0.03534522167094206
 -0.0005194721277730062 -0.004413389182366655 0.0005870470037211497 0.006912030084689945 0.9962136239854661 -0.03534522167094206 0.0032507961435488735 0.014540748021686813
0.06252605252188 0.0035177361409197494 0.01624579634836623 0.995858885001123 -0.03933884605804985 0.0006943685467362224 0.007682632227232439 -0.0006041089236505156 -0.004909190157641865
 0.995858885001123 -0.03933884605804985 0.0035193951310670923 0.01624563181950979 -0.0006041777854449633 -0.004909188571125102 0.0006850484908910845 0.007683725069324823
 0.0006943685467362224 0.007682632227232439 -0.0006041777854449633 -0.004909188571125102 0.003517777188114954 0.016246620691213916 0.9958589074662283 -0.0393380104519292
 -0.0006041089236505156 -0.004909190157641865 0.0006850484908910845 0.007683725069324823 0.9958589074662283 -0.0393380104519292 0.003519396840028436 0.01624646708950388
0.06877865777407 0.0038015289329243747 0.01796761677711074 0.9954833721502675 -0.04334542508968968 0.0008024491126910053 0.008454516890792558 -0.0006957054482357491 -0.005405642515531307
 0.9954833721502675 -0.04334542508968968 0.0038035355687276212 0.017967423353949324 -0.0006957885370052301 -0.0054056398350512645 0.000791168146286807 0.008455857202995421
 0.0008024491126910053 0.008454516890792558 -0.0006957885370052301 -0.0054056398350512645 0.0038015783385275588 0.01796852176709828 0.9954833990637167 -0.04334450572885607
 -0.0006957054482357491 -0.005405642515531307 0.000791168146286807 0.008455857202995421 0.9954833990637167 -0.04334450572885607 0.003803537091424581 0.01796834161896063
0.07503126302626001 0.004101113816805156 0.019705307812794136 0.995086791857682 -0.04736562449541546 0.0009189133701638443 0.009226700444848529 -0.0007943413276134091 -0.005902634745774094
 0.995086791857682 -0.04736562449541546 0.004103501095216056 0.019705082768097758 -0.0007944399413720339 -0.005902630732675815 0.0009054831755857356 0.009228322528344624
 0.0009189133701638443 0.009226700444848529 -0.0007944399413720339 -0.005902630732675815 0.004101172355528279 0.019706293012320263 0.995086823634093 -0.04736462127912559
 -0.0007943413276134091 -0.005902634745774094 0.0009054831755857356 0.009228322528344624 0.995086823634093 -0.04736462127912559 0.004103502319323855 0.019706083887122847
0.08128386827845 0.004416774741271215 0.0214585938451073 0.9946688692671503 -0.05139933604770874 0.0010438373208372382 0.009999073033036023 -0.0009000945445845041 -0.006400053854530763
 0.9946688692671503 -0.05139933604770874 0.004419575664515066 0.021458334333333797 -0.0009002099723544342 -0.006400048252862557 0.0010280693021787897 0.010001013563775746
 0.0010438373208372382 0.009999073033036023 -0.0009002099723544342 -0.006400048252862557 0.004416843185494089 0.021459658780859692 0.994668906325724 -0.0513982488654991
 -0.0009000945445845041 -0.006400053854530763 0.0010280693021787897 0.010001013563775746 0.994668906325724 -0.0513982488654991 0.0044195764656357744 0.02145941814753167
0.08753647353064001 0.004748794162322719 0.02322720726498028 0.9942293300236787 -0.055446433426409904 0.0011772953740300583 0.010771521504500219 -0.0010130413803422517 -0.006897785128174899
 0.9942293300236787 -0.055446433426409904 0.00475204174272964 0.023226910321070587 -0.0010131749020890024 -0.006897777664655469 0.0011590006825227984 0.010773819557842743
 0.0011772953740300583 0.010771521504500219 -0.0010131749020890024 -0.006897777664655469 0.00474887328143822 0.023228351432085927 0.9942293727895241 -0.0554452621538395
 -0.0010130413803422517 -0.006897785128174899 0.0011590006825227984 0.010773819557842743 0.9942293727895241 -0.0554452621538395 0.004752041983950894 0.023228076658146177
0.09378907878283 0.005097453008438538 0.0250108856098645 0.9937679004607682 -0.05950677502364154 0.001319360262321979 0.011543929592774334 -0.0011332563519087814 -0.007395711976878477
 0.9937679004607682 -0.05950677502364154 0.0051011802731650005 0.025010548147948758 -0.0011334092384098031 -0.007395702360877731 0.0012983498243251687 0.01154662666779411
 0.001319360262321979 0.011543929592774334 -0.0011334092384098031 -0.007395702360877731 0.00509754356808712 0.025012108470136688 0.9937679493648696 -0.059505519523758536
 -0.0011332563519087814 -0.007395711976878477 0.0012983498243251687 0.01154662666779411 0.9937679493648696 -0.059505519523758536 0.005101179804968775 0.025011796820589988
0.100041684035 0.005463030626931895 0.02680936947644624 0.9932843077700771 -0.06358020598583308 0.0014701029590604364 0.012316178057088964 -0.0012608121469199728 -0.007893715820036569
 0.9932843077700771 -0.06358020598583308 0.0054672706222600445 0.026808988288346183 -0.0012609856595789373 -0.00789370374355561 0.001446187505771099 0.012319318100470218
 0.0014701029590604364 0.012316178057088964 -0.0012609856595789373 -0.00789370374355561 0.005463133387823658 0.026810670459456985 0.9932843632498993 -0.06357886610806944
 -0.0012608121469199728 -0.007893715820036569 0.001446187505771099 0.012319318100470218 0.9932843632498993 -0.06357886610806944 0.0054672692823878625 0.026810319095486604
0.1059090909091 0.005821721278407249 0.0285102915299393 0.9928101080787722 -0.06741444530624809 0.0016195129696219975 0.013040597424657727 -0.0013872492150218275 -0.008361002186484633
 0.9928101080787722 -0.06741444530624809 0.0058264724937240305 0.028509866281202275 -0.001387443221922618 -0.00836098750549253 0.0015926991839684836 0.013044195316817043
 0.0016195129696219975 0.013040597424657727 -0.001387443221922618 -0.00836098750549253 0.0058218361760527014 0.02851166527250844 0.9928101701333387 -0.06741302610241817
 -0.0013872492150218275 -0.008361002186484633 0.0015926991839684836 0.013044195316817043 0.9928101701333387 -0.06741302610241817 0.005826470176770769 0.028511273965044222
0.1062942892872 0.00584580471570177 0.02862240095120176 0.9927782801609986 -0.06766655974282304 0.00162959259656596 0.013088144791792966 -0.001395779556307624 -0.00839167600772403
 0.9927782801609986 -0.06766655974282304 0.005850590512036607 0.02862197270473412 -0.0013959749470355434 -0.008391661145374617 0.001602582695964317 0.013091774221298362
 0.00162959259656596 0.013088144791792966 -0.0013959749470355434 -0.008391661145374617 0.005845920433124517 0.028623779450827416 0.9927783426609164 -0.06766513532629252
 -0.001395779556307624 -0.00839167600772403 0.001602582695964317 0.013091774221298362 0.9927783426609164 -0.06766513532629252 0.0058505881251433925 0.028623385428249295
0.11254689453939999 0.006246051244749339 0.03044972240830789 0.9922495470125143 -0.0717656591744301 0.0017978963858930879 0.013859704915898968 -0.0015382274049144315 -0.008889469766497878
 0.9922495470125143 -0.0717656591744301 0.0062514159410920955 0.030449243645410688 -0.0015384459158994856 -0.00888945177550665 0.0017676024762605291 0.013863872643245272
 0.0017978963858930879 0.013859704915898968 -0.0015384459158994856 -0.00888945177550665 0.0062461806674429824 0.030451177787541618 0.9922496169845626 -0.07176415004309356
 -0.0015382274049144315 -0.008889469766497878 0.0017676024762605291 0.013863872643245272 0.9922496169845626 -0.07176415004309356 0.0062514123187839615 0.030450738055110324
0.11879949979160001 0.006664044369563849 0.032291075576660534 0.9916978390193473 -0.07587731751331024 0.00197507953691927 0.014630730849288169 -0.0016882224810545524 -0.009386972162873522
 0.9916978390193473 -0.07587731751331024 0.0066700210979601495 0.0322905427113028 -0.0016884653445975865 -0.009386950683067436 0.001941311961489425 0.014635488302706706
 0.00197507953691927 0.014630730849288169 -0.0016884653445975865 -0.009386950683067436 0.006664188238685375 0.032292607164217245 0.9916979169233548 -0.07587572347925471
 -0.0016882224810545524 -0.009386972162873522 0.001941311961489425 0.014635488302706706 0.9916979169233548 -0.07587572347925471 0.006670016038286996 0.03229211856169254
0.1250521050438 0.007100056336250842 0.0341462008020937 0.9911228883335406 -0.08000133905761138 0.002161205178910018 0.015401092377900145 -0.0018458294646192658 -0.00988405608251091
 0.9911228883335406 -0.08000133905761138 0.007106678266620982 0.03414561011799392 -0.0018460979029098583 -0.009884030736331074 0.0021237742223645423 0.015406493523953962
 0.002161205178910018 0.015401092377900145 -0.0018460979029098583 -0.009884030736331074 0.007100215384643509 0.03414780789213212 0.9911229746376328 -0.07999965992140216
 -0.0018458294646192658 -0.00988405608251091 0.0021237742223645423 0.015406493523953962 0.9911229746376328 -0.07999965992140216 0.00710667155396685 0.034147267148136
0.131304710296 0.007554357382890624 0.03601483645581384 0.9905244287035537 -0.0841375197431567 0.002356334281398618 0.016170656714409284 -0.0020111108546113942 -0.010380592218472316
 0.9905244287035537 -0.0841375197431567 0.0075616577276361755 0.036014184103961774 -0.002011406079531093 -0.010380562610977582 0.002315050207420521 0.01617675807931967
 0.002356334281398618 0.016170656714409284 -0.002011406079531093 -0.010380562610977582 0.007554532334151882 0.03601651830916702 0.9905245238850868 -0.08413575529261648
 -0.0020111108546113942 -0.010380592218472316 0.002315050207420521 0.01617675807931967 0.9905245238850868 -0.08413575529261648 0.007561649132569123 0.036015922038749995
0.1375573155481 0.00792151711494226 0.03765377353211003 0.9900079323045441 -0.088042605538665 0.0025355951386460416 0.01691508822470371 -0.002159245062281016 -0.010852226777852556
 0.9900079323045441 -0.088042605538665 0.007929530494624864 0.0376530700245188 -0.002159568666895741 -0.010852192874419598 0.0024903606763227774 0.016921879987392495
 0.0025355951386460416 0.01691508822470371 -0.002159568666895741 -0.010852192874419598 0.007921707847773737 0.03765552993526311 0.9900080367703364 -0.08804075566325686
 -0.002159245062281016 -0.010852226777852556 0.0024903606763227774 0.016921879987392495 0.9900080367703364 -0.08804075566325686 0.007929520756881065 0.03765488822602267
0.1438099208003 0.008301557152526746 0.039284355644554535 0.989473351110177 -0.09193805560462608 0.0027220967974075916 0.01765660196626288 -0.002313303059182984 -0.011321199382304813
 0.989473351110177 -0.09193805560462608 0.008310317021257285 0.0392835980784532 -0.002313656309362792 -0.01132116080004967 0.002672738897689324 0.017664135746183265
 0.0027220967974075916 0.01765660196626288 -0.002313656309362792 -0.01132116080004967 0.008301764224060941 0.03928618588205199 0.989473465335717 -0.09193612009995158
 -0.002313303059182984 -0.011321199382304813 0.002672738897689324 0.017664135746183265 0.989473465335717 -0.09193612009995158 0.008310306067933346 0.03928549620890439
0.1500625260525 0.008694347391439221 0.040906454352265344 0.9889208190865327 -0.09582378087174075 0.0029157768693925568 0.018395125636600257 -0.002473224551084844 -0.011787442155019184
 0.9889208190865327 -0.09582378087174075 0.008703887246139266 0.040905639671647516 -0.0024736087074826683 -0.011787398496134553 0.0028621235361887855 0.01840345492328529
 0.0029157768693925568 0.018395125636600257 -0.0024736087074826683 -0.011787398496134553 0.008694571339973887 0.0409083576833556 0.9889209435545706 -0.09582175952463662
 -0.002473224551084844 -0.011787442155019184 0.0028621235361887855 0.01840345492328529 0.9889209435545706 -0.09582175952463662 0.008703875002448604 0.040907617379293916
0.15631513130469998 0.009099756851799862 0.04251994512071773 0.9883504708280053 -0.09969969243290291 0.003116572249883279 0.019130588123803964 -0.0026389485235538833 -0.012250888622310373
