! Created with skrf 1.8.0 (http://scikit-rf.org).
# GHz S RI R 50.0 
!freq ReS11 ImS11 ReS12 ImS12 ReS13 ImS13
! ReS14 ImS14
! ReS21 ImS21 ReS22 ImS22 ReS23 ImS23
! ReS24 ImS24
! ReS31 ImS31 ReS32 ImS32 ReS33 ImS33
! ReS34 ImS34
! ReS41 ImS41 ReS42 ImS42 ReS43 ImS43
! ReS44 ImS44
!
0.0 0.001845774616413 0.0 0.9981542253836 0.0 7.164019104317e-05 0.0 -7.164019095577e-05 8.773393054428888e-21
 0.9981542253836 0.0 0.001845774616447 0.0 -7.164019095582e-05 8.773393054435013e-21 7.164019104605e-05 0.0
 7.164019104317e-05 0.0 -7.164019095582e-05 8.773393054435013e-21 0.001845774602205 0.0 0.9981542253694 0.0
 -7.164019095577e-05 8.773393054428888e-21 7.164019104605e-05 0.0 0.9981542253694 0.0 0.001845774602239 0.0
0.005 0.0019869166248837012 0.0015100971173709116 0.9979754830951415 -0.0038652782379992624 0.00010084019939506803 0.0007827880842309861 -9.785529534248696e-05 -0.0004923014962697307
 0.9979754830951415 -0.0038652782379992624 0.0019869377981306547 0.0015100846856624301 -9.785587184693726e-05 -0.0004923018512680856 0.00010071920550451562 0.000782834377015792
 0.00010084019939506803 0.0007827880842309861 -9.785587184693726e-05 -0.0004923018512680856 0.0019869171517960414 0.0015101640260757282 0.9979754834769681 -0.003865211178900011
 -9.785529534248696e-05 -0.0004923014962697307 0.00010071920550451562 0.000782834377015792 0.9979754834769681 -0.003865211178900011 0.0019869380306906594 0.0015101518927288068
0.006252605252188 0.002024241845665201 0.0018935134299493885 0.9979278668650008 -0.004832492423033933 0.00010935806626036581 0.0009788467644138833 -0.00010539597260736244 -0.0006159930230981803
 0.9979278668650008 -0.004832492423033933 0.002024274943385094 0.0018934975919378783 -0.00010539687039286769 -0.0006159934586617646 0.00010916902918658808 0.0009789069003352422
 0.00010935806626036581 0.0009788467644138833 -0.00010539687039286769 -0.0006159934586617646 0.002024242593278828 0.001893597045060508 0.9979278673851631 -0.004832408610484384
 -0.00010539597260736244 -0.0006159930230981803 0.00010916902918658808 0.0009789069003352422 0.9979278673851631 -0.004832408610484384 0.002024275229648315 0.0018935815961391672
0.01250521050438 0.0022225220215653534 0.0038261849577267745 0.9976730201863392 -0.009665406224263838 0.00015913234676734252 0.0019579170400334015 -0.00014892708124787343 -0.001234759023547773
 0.9976730201863392 -0.009665406224263838 0.0022226541863803 0.0038261502427194365 -0.0001489306275379417 -0.0012347598024096784 0.00015837862406169875 0.001958062125252831
 0.00015913234676734252 0.0019579170400334015 -0.0001489306275379417 -0.0012347598024096784 0.002222524474645152 0.003826351849507911 0.9976730217239275 -0.009665238830087406
 -0.00014892708124787343 -0.001234759023547773 0.00015837862406169875 0.001958062125252831 0.9976730217239275 -0.009665238830087406 0.002222654778685069 0.003826318081591133
0.01875781575657 0.0024411118812987073 0.005785790641889194 0.9973893236240389 -0.014510424660794774 0.00022108701855685402 0.0029378050355322424 -0.00020237995334055267 -0.0018553673266895135
 0.9973893236240389 -0.014510424660794774 0.0024414088756143817 0.005785733732497319 -0.00020238787285692378 -0.0018553683321860081 0.00021939413875490707 0.002938065474569903
 0.00022108701855685402 0.0029378050355322424 -0.00020238787285692378 -0.0018553683321860081 0.002441116984370181 0.005786040568116247 0.9973893266554956 -0.014510173784252005
 -0.00020237995334055267 -0.0018553673266895135 0.00021939413875490707 0.002938065474569903 0.9973893266554956 -0.014510173784252005 0.002441409759958142 0.005785985356746707
0.02501042100875 0.0026804894211484697 0.007769507331491785 0.9970763995809798 -0.0193698122800439 0.0002953475853170309 0.003918493906470591 -0.000265894843076387 -0.0024774887200216876
 0.9970763995809798 -0.0193698122800439 0.00268101688530172 0.007769424651376374 -0.00026590884314723153 -0.0024774898095990573 0.0002923411398369513 0.003918905528522516
 0.0002953475853170309 0.003918493906470591 -0.00026590884314723153 -0.0024774898095990573 0.0026804981340473205 0.0077698400628913875 0.9970764045923234 -0.01936947797158396
 -0.000265894843076387 -0.0024774887200216876 0.0002923411398369513 0.003918905528522516 0.9970764045923234 -0.01936947797158396 0.0026810180439256715 0.007769760049078047
0.03126302626094 0.0029411126065404442 0.00977584008267053 0.9967338537684268 -0.024244487511163815 0.0003820391812768965 0.0048998760176395635 -0.0003396070037035255 -0.0031008751670762768
 0.9967338537684268 -0.024244487511163815 0.002941936095908065 0.009775727799178137 -0.0003396287770159061 -0.003100876172057974 0.0003773444965561163 0.004900480106889412
 0.0003820391812768965 0.0048998760176395635 -0.0003396287770159061 -0.003100876172057974 0.0029411258904006063 0.009776255384338968 0.9967338612420511 -0.024244069790625673
 -0.0003396070037035255 -0.0031008751670762768 0.0003773444965561163 0.004900480106889412 0.9967338612420511 -0.024244069790625673 0.002941937493845645 0.009776146977598514
0.037515631513130004 0.0032234285231854927 0.011803782299721616 0.9963612848025969 -0.0291348624758646 0.00048128523593379607 0.005881806987146526 -0.0004236476147451179 -0.0037253058081647035
 0.9963612848025969 -0.0291348624758646 0.003224613533940807 0.011803636324238344 -0.00042367884069672944 -0.003725306533596589 0.00047452724030333797 0.005882650333599017
 0.00048128523593379607 0.005881806987146526 -0.00042367884069672944 -0.003725306533596589 0.0032234473464774183 0.011804279905993899 0.9963612952239138 -0.029134361356917365
 -0.0004236476147451179 -0.0037253058081647035 0.00047452724030333797 0.005882650333599017 0.9963612952239138 -0.029134361356917365 0.003224615125103148 0.011804139285495509
0.043768236765320004 0.0035278768868787012 0.013852560119374536 0.9959582881632538 -0.0340410985433321 0.0005932068152793481 0.006864122167659728 -0.0005181440861588389 -0.0043505705314219895
 0.9959582881632538 -0.0340410985433321 0.0035294888763384566 0.01385237610699095 -0.0005181864314137437 -0.004350570756009326 0.0005840099896666532 0.006865257124207265
 0.0005932068152793481 0.006864122167659728 -0.0005181864314137437 -0.004350570756009326 0.003527902222656056 0.01385313974198927 0.9959583020196981 -0.034040514025126825
 -0.0005181440861588389 -0.0043505705314219895 0.0005840099896666532 0.006865257124207265 0.9959583020196981 -0.034040514025126825 0.003529490602110246 0.013852962856373508
0.050020842017509996 0.0038548916391275634 0.01592152681757872 0.9955244582450173 -0.03896321186358644 0.0007179222102281674 0.007846643446613514 -0.0006232201322778478 -0.004976463232693374
 0.9955244582450173 -0.03896321186358644 0.003856996044067232 0.015921300165704404 -0.0006232752511102481 -0.004976462708708208 0.0007059105834561034 0.007848127988377833
 0.0007179222102281674 0.007846643446613514 -0.0006232752511102481 -0.004976462708708208 0.0038549244638194737 0.015922188142891182 0.9955244760257174 -0.03896254393297177
 -0.0006232201322778478 -0.004976463232693374 0.0007059105834561034 0.007848127988377833 0.9955244760257174 -0.03896254393297177 0.0038569978325844628 0.01592197070951375
0.055454545454549996 0.004157737303485283 0.01773547228569165 0.9951220916026348 -0.043253513512059895 0.0008367833682207989 0.008700505631668704 -0.0007232195984521334 -0.005520733444841008
 0.9951220916026348 -0.043253513512059895 0.004160322771947292 0.0177352046393598 -0.0007232871518732873 -0.0055207320485595075 0.00082201992457558 0.008702345468190632
 0.0008367833682207989 0.008700505631668704 -0.0007232871518732873 -0.0055207320485595075 0.004157777431612354 0.017736204334433344 0.9951221131923567 -0.0432527730773558
 -0.0007232195984521334 -0.005520733444841008 0.00082201992457558 0.008702345468190632 0.9951221131923567 -0.0432527730773558 0.0041603245463378855 0.01773594800502923
0.056273447269699996 0.004204901736395518 0.01801011095609215 0.995059389608552 -0.04390112516661635 0.0008555466284823498 0.00882918261745184 -0.0007389957489114405 -0.005602778513173656
 0.995059389608552 -0.04390112516661635 0.004207563990072195 0.018009836802517616 -0.000739065283350985 -0.005602776966391024 0.0008403437993422211 0.00883108040187328
 0.0008555466284823498 0.00882918261745184 -0.000739065283350985 -0.005602776966391024 0.004204943029528483 0.018010853642280483 0.9950594118047139 -0.04390037380065211
 -0.0007389957489114405 -0.005602778513173656 0.0008403437993422211 0.00883108040187328 0.9950594118047139 -0.04390037380065211 0.004207565756295419 0.018010591145698352
0.06252605252188 0.0045783315354071446 0.020117787919171414 0.9945626778337162 -0.048854696180223096 0.0010061919403449029 0.009811543242378817 -0.0008655871384081482 -0.006229309895229159
 0.9945626778337162 -0.048854696180223096 0.004581617083662811 0.020117461139497 -0.0008656727181912301 -0.006229307024873955 0.0009874211184478477 0.009813923669217824
 0.0010061919403449029 0.009811543242378817 -0.0008656727181912301 -0.006229307024873955 0.004578382279380133 0.02011861159509357 0.99456270494003 -0.04885386134687105
 -0.0008655871384081482 -0.006229309895229159 0.0009874211184478477 0.009813923669217824 0.99456270494003 -0.04885386134687105 0.004581618730160556 0.020118299284908082
0.06877865777407 0.004975600961831237 0.022244062931354065 0.9940339201622767 -0.053823734576872666 0.0011699664545328807 0.010793521785589733 -0.0010031066059213978 -0.006855848777956638
 0.9940339201622767 -0.053823734576872666 0.004979575279018537 0.02224367813576257 -0.001003209848445532 -0.006855844256650368 0.0011472505137209538 0.01079646005648376
 0.0011699664545328807 0.010793521785589733 -0.001003209848445532 -0.006855844256650368 0.004975662140841297 0.022244967199054583 0.9940339526763836 -0.05382281623218763
 -0.0010031066059213978 -0.006855848777956638 0.0011472505137209538 0.01079646005648376 0.9940339526763836 -0.05382281623218763 0.004979576695080719 0.022244600087134407
0.07503126302626001 0.005397125549284705 0.024388460307113 0.9934727160160278 -0.058808012700159895 0.0013469747124103672 0.011774908350858818 -0.0011516624371567985 -0.007482183799177923
 0.9934727160160278 -0.058808012700159895 0.005401854153260411 0.024388011836499083 -0.0011517849472586134 -0.007482177272897513 0.0013199362541819145 0.011778485527956536
 0.0013469747124103672 0.011774908350858818 -0.0011517849472586134 -0.007482177272897513 0.0053971981483583314 0.02438944473730127 0.9934727544394418 -0.058807010792546306
 -0.0011516624371567985 -0.007482183799177923 0.0013199362541819145 0.011778485527956536 0.9934727544394418 -0.058807010792546306 0.005401855215103142 0.02438901759435543
0.08128386827845 0.005843316391598427 0.026550516321281664 0.9928786674348165 -0.0638072726826968 0.0015373172924421372 0.012755487193939137 -0.001311358765742266 -0.00810810043359309
 0.9928786674348165 -0.0638072726826968 0.005848864859352002 0.026549998242744968 -0.0013115021355126887 -0.00810809152164139 0.0015055787172580676 0.012759790257593115
 0.0015373172924421372 0.012755487193939137 -0.0013115021355126887 -0.00810809152164139 0.005843401396639567 0.026551580452874434 0.9928787122734 -0.06380618715301686
 -0.001311358765742266 -0.00810810043359309 0.0015055787172580676 0.012759790257593115 0.9928787122734 -0.06380618715301686 0.0058488654305768415 0.0265510878042151
0.08753647353064001 0.00631458004545365 0.028729774281457864 0.9922513794684831 -0.0688212313747457 0.001741090623723693 0.013735037100136484 -0.0014822954316179315 -0.008733380737246992
 0.9922513794684831 -0.0688212313747457 0.006321014028199541 0.028729180383010446 -0.0014824612401278933 -0.008733369032216933 0.0017042742086658671 0.01374015900530547
 0.001741090623723693 0.013735037100136484 -0.0014824612401278933 -0.008733369032216933 0.006314678441845776 0.02873091762281738 0.9922514312330277 -0.06882006215487924
 -0.0014822954316179315 -0.008733380737246992 0.0017042742086658671 0.01374015900530547 0.9922514312330277 -0.06882006215487924 0.006321013959265325 0.028730353743660796
0.09378907878283 0.006811318391575494 0.03092578101773807 0.9915904605330107 -0.07384958386891653 0.001958386803870346 0.014713331675332187 -0.0016645678352272498 -0.00935780319012483
 0.9915904605330107 -0.07384958386891653 0.006818703630032324 0.03092510480251898 -0.0016647576482927797 -0.0093577882578905 0.0019161147855884947 0.014719371406633722
 0.001958386803870346 0.014713331675332187 -0.0016647576482927797 -0.0093577882578905 0.00681143116344128 0.030927003048159016 0.991590519738771 -0.07384833088006433
 -0.0016645678352272498 -0.00935780319012483 0.0019161147855884947 0.014719371406633722 0.991590519738771 -0.07384833088006433 0.0068187027577828845 0.030926361958069658
0.100041684035 0.007333928470230157 0.03313808434014219 0.9908955227440116 -0.078892006071056 0.0021892934213381134 0.0156901395819552 -0.0018582667875864582 -0.009981142605695522
 0.9908955227440116 -0.078892006071056 0.007342330809361478 0.03313731901975683 -0.0018584821573618393 -0.009981123985414125 0.0021411880839850234 0.015697202207213126
 0.0021892934213381134 0.0156901395819552 -0.0018584821573618393 -0.009981123985414125 0.007334056599639643 0.033139384504198156 0.990895589912217 -0.07889066922921797
 -0.0018582667875864582 -0.009981142605695522 0.0021411880839850234 0.015697202207213126 0.990895589912217 -0.07889066922921797 0.007342328957631552 0.03313865996080166
0.1059090909091 0.00784822192735348 0.03522851430928785 0.9902121155643154 -0.08363627690774027 0.0024184272475572953 0.01660520785610438 -0.00205050176429492 -0.010564891670320667
 0.9902121155643154 -0.08363627690774027 0.007857638699042534 0.03522765893302444 -0.002050742515574503 -0.01056486914625266 0.0023645045535283745 0.016613331381420356
 0.0024184272475572953 0.01660520785610438 -0.002050742515574503 -0.01056486914625266 0.007848365359068887 0.03522988726126173 0.9902121906836991 -0.08363486129370784
 -0.00205050176429492 -0.010564891670320667 0.0023645045535283745 0.016613331381420356 0.9902121906836991 -0.08363486129370784 0.00785763575613093 0.03522907848899542
0.1062942892872 0.007882802295539953 0.03536623112404618 0.9901661822342935 -0.08394815665730919 0.0024338933809792576 0.01666522474297582 -0.0020634783580868615 -0.010603170084526848
 0.9901661822342935 -0.08394815665730919 0.007892287699784064 0.03536536961120577 -0.0020637208227814305 -0.010603147288631097 0.002379577148048551 0.01667342146517642
 0.0024338933809792576 0.01666522474297582 -0.0020637208227814305 -0.010603147288631097 0.007882946761887017 0.03536760883710176 0.990166257891961 -0.08394673586760511
 -0.0020634783580868615 -0.010603170084526848 0.002379577148048551 0.01667342146517642 0.990166257891961 -0.08394673586760511 0.00789228467906671 0.03536679432912981
0.11254689453939999 0.00845832665606657 0.03760976587499264 0.9894020594598011 -0.08901767856640964 0.0026922647321624147 0.01763834651971478 -0.002280283720668462 -0.011223653006282482
 0.9894020594598011 -0.08901767856640964 0.00846896122463749 0.03760880077543308 -0.002280554804266663 -0.011223625520470626 0.0026313602623263964 0.01764779472720849
 0.0026922647321624147 0.01763834651971478 -0.002280554804266663 -0.011223625520470626 0.00845848843498304 0.0376112205175452 0.9894021441401861 -0.08901617372865925
 -0.002280283720668462 -0.011223653006282482 0.0026313602623263964 0.01764779472720849 0.9894021441401861 -0.08901617372865925 0.008468956831740735 0.03761030925704181
0.11879949979160001 0.009060882902954957 0.03986822961670303 0.9886027794960955 -0.09410020018368649 0.002964480499368808 0.01860925987633214 -0.0025087589994529087 -0.011842355047457615
 0.9886027794960955 -0.09410020018368649 0.009072732884419036 0.039867153220343635 -0.002509060211198708 -0.011842322330782626 0.0028966107856421026 0.01862008319126158
 0.002964480499368808 0.01860925987633214 -0.002509060211198708 -0.011842322330782626 0.009061062965672302 0.03986976054147836 0.9886028737396125 -0.09409861118523401
 -0.0025087589994529087 -0.011842355047457615 0.0028966107856421026 0.01862008319126158 0.9886028737396125 -0.09409861118523401 0.009072726902753655 0.03986874545530932
0.1250521050438 0.009690846728992729 0.04214115904211335 0.987767972329019 -0.09919533627725216 0.003250608515027011 0.019577715534652877 -0.0027489751139100813 -0.012459036221373468
 0.987767972329019 -0.09919533627725216 0.009703978536757812 0.04213996331336559 -0.00274930794801472 -0.012458997706194502 0.0031753969870020856 0.019590043859407543
 0.003250608515027011 0.019577715534652877 -0.00274930794801472 -0.012458997706194502 0.009691046041536172 0.042142765564794536 0.987768076683006 -0.0991936630021999
 -0.0027489751139100813 -0.012459036221373468 0.0031753969870020856 0.019590043859407543 0.987768076683006 -0.0991936630021999 0.00970397073596138 0.04214163928525482
0.131304710296 0.010348587941283289 0.04442808583499008 0.986897273139129 -0.10430268877916607 0.0035507112546710614 0.020543460125153196 -0.0030009976242091623 -0.01307345293446442
 0.986897273139129 -0.10430268877916607 0.010363068167923475 0.04442676240240194 -0.003001363559425552 -0.013073408026572931 0.0034677818839517326 0.020557429686889374
 0.0035507112546710614 0.020543460125153196 -0.003001363559425552 -0.013073408026572931 0.010348807463032392 0.044429767241399014 0.9868973881588965 -0.10430093110126806
 -0.0030009976242091623 -0.01307345293446442 0.0034677818839517326 0.020557429686889374 0.9868973881588965 -0.10430093110126806 0.010363058303987205 0.04442852209605077
0.1375573155481 0.010894131928297328 0.04643172792093896 0.9861307365147945 -0.1091248525424705 0.0038303358911068574 0.021478131535426447 -0.0032304734095935654 -0.013657205559550639
 0.9861307365147945 -0.1091248525424705 0.01091003115610374 0.04643029613263933 -0.0032308744173221464 -0.013657154126126565 0.0037394941180316295 0.021493736818849127
 0.0038303358911068574 0.021478131535426447 -0.0032308744173221464 -0.013657154126126565 0.01089437157392826 0.046433484158770834 0.9861308626881988 -0.10912301042899401
 -0.0032304734095935654 -0.013657205559550639 0.0037394941180316295 0.021493736818849127 0.9861308626881988 -0.10912301042899401 0.010910020154756846 0.04643213903404983
0.1438099208003 0.011459159168510754 0.04842280315713981 0.9853366274406481 -0.11393273416097058 0.004121182113329831 0.02240768164289589 -0.003469026521408552 -0.014236300249678726
 0.9853366274406481 -0.11393273416097058 0.01147654478336046 0.048421256254629105 -0.0034694641474617652 -0.014236241706480616 0.00402208535920103 0.022425048777722396
 0.004121182113329831 0.02240768164289589 -0.0034694641474617652 -0.014236241706480616 0.011459419701693735 0.0484246335595123 0.9853367653189629 -0.11393080750002572
 -0.003469026521408552 -0.014236300249678726 0.00402208535920103 0.022425048777722396 0.9853367653189629 -0.11393080750002572 0.011476532593032695 0.04842318228544756
0.1500625260525 0.012043437707523908 0.05040108532540132 0.9845151830536022 -0.11872615265974533 0.00442312791047677 0.023331972832917252 -0.0037165392420458227 -0.01481061030825273
 0.9845151830536022 -0.11872615265974533 0.012062377274021817 0.05039941615574432 -0.0037170150235350335 -0.01481054404810885 0.004315436188438449 0.02335123256017228
 0.00442312791047677 0.023331972832917252 -0.0037170150235350335 -0.01481054404810885 0.012043719874120113 0.050402989204000104 0.9845153331943766 -0.1187241413340767
 -0.0037165392420458227 -0.01481061030825273 0.004315436188438449 0.02335123256017228 0.9845153331943766 -0.1187241413340767 0.012062363843741658 0.05040142523539108
0.15631513130469998 0.012646733550888016 0.05236635498754099 0.9836666421288963 -0.123504929139454 0.004736049594913126 0.02425087033949685 -0.003972892200386913 -0.015380012151790513
 0.9836666421288963 -0.123504929139454 0.012667294816905985 0.05236455599360561 -0.003973407665408286 -0.015379937544883378 0.0046194255573361225 0.02427215795433373
