! Created with skrf 1.8.0 (http://scikit-rf.org).
# GHz S RI R 50.0 
!freq ReS11 ImS11 ReS12 ImS12 ReS13 ImS13
! ReS14 ImS14
! ReS21 ImS21 ReS22 ImS22 ReS23 ImS23
! ReS24 ImS24
! ReS31 ImS31 ReS32 ImS32 ReS33 ImS33
! ReS34 ImS34
! ReS41 ImS41 ReS42 ImS42 ReS43 ImS43
! ReS44 ImS44
!
0.0 0.001920966873245 0.0 0.9980790331268 0.0 7.447817356968e-05 0.0 -7.447817371828e-05 9.120945705043213e-21
 0.9980790331268 0.0 0.001920966873213 0.0 -7.447817371893e-05 9.120945705122815e-21 7.447817356777e-05 0.0
 7.447817356968e-05 0.0 -7.447817371893e-05 9.120945705122815e-21 0.001920966859052 0.0 0.9980790331126 0.0
 -7.447817371828e-05 9.120945705043213e-21 7.447817356777e-05 0.0 0.9980790331126 0.0 0.001920966858987 0.0
0.005 0.002068082710903893 0.0015747861541581306 0.9978926955271646 -0.004022281017733217 0.00010443153025509723 0.000793127850098706 -0.00010146203153548647 -0.0005023950086920736
 0.9978926955271646 -0.004022281017733217 0.0020681023548445535 0.0015747746147270834 -0.00010146139529671231 -0.0005023944517230749 0.00010432194553167227 0.0007931697848514063
 0.00010443153025509723 0.000793127850098706 -0.00010146139529671231 -0.0005023944517230749 0.0020680837819880738 0.001574852759530348 0.9978926959134922 -0.004022213951482758
 -0.00010146203153548647 -0.0005023950086920736 0.00010432194553167227 0.0007931697848514063 0.9978926959134922 -0.004022213951482758 0.002068102053589148 0.0015748421412506417
0.006252605252188 0.0021070665291055397 0.001974600224644589 0.9978429464792297 -0.0050287677493747575 0.00011320310597021319 0.0009917810551733767 -0.00010925381686572923 -0.0006286130022574484
 0.9978429464792297 -0.0050287677493747575 0.0021070972362309116 0.001974585532637195 -0.00010925282738036747 -0.0006286123143343025 0.00011303189486001727 0.0009918355428939166
 0.00011320310597021319 0.0009917810551733767 -0.00010925282738036747 -0.0006286123143343025 0.0021070681315290348 0.0019746834610369565 0.9978429470109541 -0.005028683928569778
 -0.00010925381686572923 -0.0006286130022574484 0.00011303189486001727 0.0009918355428939166 0.9978429470109541 -0.005028683928569778 0.0021070966923658722 0.0019746699359398058
0.01250521050438 0.002314612101088835 0.003989789636129314 0.9975760640991749 -0.010057817195257841 0.00016463585818779245 0.0019838082476556157 -0.00015439208763003883 -0.0012599832507593904
 0.9975760640991749 -0.010057817195257841 0.002314734720209018 0.003989757510279699 -0.000154388195015106 -0.0012599819665598032 0.00016395322313427323 0.0019839399085919865
 0.00016463585818779245 0.0019838082476556157 -0.000154388195015106 -0.0012599819665598032 0.00231461795686939 0.003989955754700474 0.9975760656715651 -0.01005764981107915
 -0.00015439208763003883 -0.0012599832507593904 0.00016395322313427323 0.0019839399085919865 0.9975760656715651 -0.01005764981107915 0.0023147319882326593 0.003989926136534443
0.01875781575657 0.0025441384438484103 0.006032831704892853 0.9972779966886469 -0.01509928109020403 0.0002289070504546636 0.002976645613990324 -0.0002100467449717765 -0.0018931763989742964
 0.9972779966886469 -0.01509928109020403 0.0025444139867796135 0.006032779115717524 -0.00021003807402414745 -0.00189317462907887 0.0002273738702431561 0.002976882394139312
 0.0002289070504546636 0.002976645613990324 -0.00021003807402414745 -0.00189317462907887 0.0025441511966289403 0.006033080476576133 0.9972779998021888 -0.01509903023631012
 -0.0002100467449717765 -0.0018931763989742964 0.0002273738702431561 0.002976882394139312 0.9972779998021888 -0.01509903023631012 0.0025444074089470917 0.006033031966317201
0.02501042100875 0.0027961592900503296 0.008100768530086181 0.9969483375747363 -0.020155493531513476 0.0003061484860964442 0.003970255531612298 -0.0002763648101909174 -0.0025278492255204053
 0.9969483375747363 -0.020155493531513476 0.0027966486555118498 0.00810069217872249 -0.0002763495114628219 -0.0025278471014587986 0.000303425732414165 0.003970630487646266
 0.0003061484860964442 0.003970255531612298 -0.0002763495114628219 -0.0025278471014587986 0.0027961815832220696 0.00810109972245514 0.996948342726847 -0.020155159266722678
 -0.0002763648101909174 -0.0025278492255204053 0.000303425732414165 0.003970630487646266 0.996948342726847 -0.020155159266722678 0.002796636563965946 0.008101029306990701
0.03126302626094 0.003071166708165817 0.01019202322878397 0.9965866627086573 -0.025227387593532984 0.000396491176363523 0.0049645105472237066 -0.0003534878223832049 -0.0031637378118977307
 0.9965866627086573 -0.025227387593532984 0.0030719307158476334 0.010191919549171242 -0.00035346406789480897 -0.003163735486291624 0.00039223962694319106 0.0049650618745772385
 0.000396491176363523 0.0049645105472237066 -0.00035346406789480897 -0.003163735486291624 0.003071201192253864 0.01019243658023399 0.9965866704009577 -0.025226969967049886
 -0.0003534878223832049 -0.0031637378118977307 0.00039223962694319106 0.0049650618745772385 0.9965866704009577 -0.025226969967049886 0.003071911439301041 0.010192341035245345
0.037515631513130004 0.003369640789980355 0.01230552620700714 0.9961925408693496 -0.03031536901704777 0.0005000639726739344 0.005959246550280039 -0.00044155276206427356 -0.003800604433524688
 0.9961925408693496 -0.03031536901704777 0.003370740203785478 0.012305391366145885 -0.0004415187430085534 -0.0038006020800780077 0.0004939441008848605 0.005960017629762355
 0.0005000639726739344 0.005959246550280039 -0.0004415187430085534 -0.0038006020800780077 0.0033696901144183184 0.01230602143467861 0.9961925516003757 -0.030314868060035183
 -0.00044155276206427356 -0.003800604433524688 0.0004939441008848605 0.005960017629762355 0.9961925516003757 -0.030314868060035183 0.003370712060132055 0.01230589732548351
0.043768236765320004 0.003692053357296134 0.01444044930202735 0.995765537889201 -0.03541958201459471 0.0006169928815878267 0.006954278981988547 -0.0005406923412240995 -0.004438221423261243
 0.995765537889201 -0.03541958201459471 0.003693548904495852 0.014440279198992472 -0.0005406462666428958 -0.0044382192367088446 0.0006086648218429078 0.006955318431814639
 0.0006169928815878267 0.006954278981988547 -0.0005406462666428958 -0.0044382192367088446 0.0036921201747410473 0.014441026092295039 0.9957655521592554 -0.035418997749110774
 -0.0005406923412240995 -0.004438221423261243 0.0006086648218429078 0.006955318431814639 0.9957655521592554 -0.035418997749110774 0.003693510205396541 0.014440869773635909
0.050020842017509996 0.004038869638857362 0.016596095922175102 0.9953052188568655 -0.04054001907987602 0.0007474006274042826 0.007949409547132169 -0.0006510350614062639 -0.0050763645412103976
 0.9953052188568655 -0.04054001907987602 0.004040822026164396 0.016595886186511716 -0.0006509751572448131 -0.005076362737249934 0.0007365241811472424 0.007950771276846921
 0.0007474006274042826 0.007949409547132169 -0.0006509751572448131 -0.005076362737249934 0.004038956604138148 0.016596753920947314 0.995305237167505 -0.04053935152795126
 -0.0006510350614062639 -0.0050763645412103976 0.0007365241811472424 0.007950771276846921 0.995305237167505 -0.04053935152795126 0.004040771077213138 0.016596561536099504
0.055454545454549996 0.0043604392729870885 0.01848576612686706 0.9948777936273333 -0.04500293001997884 0.0008717679761885533 0.00881412598455863 -0.0007561211567010329 -0.0056311835574653505
 0.9948777936273333 -0.04500293001997884 0.004362837965452104 0.018485518188814335 -0.0007560478060861695 -0.005631182277386975 0.0008584003864307946 0.008815815716825057
 0.0008717679761885533 0.00881412598455863 -0.0007560478060861695 -0.005631182277386975 0.004360545903058474 0.018486494389750432 0.9948778158568341 -0.04500219009665872
 -0.0007561211567010329 -0.0056311835574653505 0.0008584003864307946 0.008815815716825057 0.9948778158568341 -0.04500219009665872 0.004362774989151861 0.018486267364772654
0.056273447269699996 0.004410549091209092 0.018771847113672628 0.9948111494705977 -0.045676574877548975 0.0008914063198641104 0.008944429531615283 -0.000772705172339049 -0.005714809749374751
 0.9948111494705977 -0.045676574877548975 0.0044130190206139565 0.018771593103044906 -0.0007726296807765531 -0.005714808564592039 0.0008776409865436246 0.008946172796442203
 0.0008914063198641104 0.008944429531615283 -0.0007726296807765531 -0.005714808564592039 0.004410658858624374 0.018772585939618686 0.9948111723235123 -0.04567582404745916
 -0.000772705172339049 -0.005714809749374751 0.0008776409865436246 0.008946172796442203 0.9948111723235123 -0.04567582404745916 0.004412954119900479 0.01877235341885384
0.06252605252188 0.004807545788797109 0.020967131962990687 0.9942828969672783 -0.050829075808420845 0.0010491251779341268 0.00993912165287477 -0.0009058225769868435 -0.006353331464934597
 0.9942828969672783 -0.050829075808420845 0.004810593971491808 0.020966828760269618 -0.0009057297560083382 -0.006353331156749251 0.0010321302022161015 0.009941311107754551
 0.0010491251779341268 0.00993912165287477 -0.0009057297560083382 -0.006353331156749251 0.004807681013151675 0.020967951193329712 0.9942829248658199 -0.050828241708313834
 -0.0009058225769868435 -0.006353331464934597 0.0010321302022161015 0.009941311107754551 0.9942829248658199 -0.050828241708313834 0.004810513411455791 0.02096767425161764
0.06877865777407 0.005230308583922993 0.023181409931331592 0.9937200308286163 -0.05599729765477599 0.0012206682825434511 0.0109332611880065 -0.0010505027081088153 -0.0069917015480401
 0.9937200308286163 -0.05599729765477599 0.00523399575495568 0.023181052340901436 -0.0010503908311505414 -0.006991702394623903 0.0012001027139266526 0.010935966940884351
 0.0012206682825434511 0.0109332611880065 -0.0010503908311505414 -0.006991702394623903 0.005230471919593497 0.023182309108187218 0.9937200642779197 -0.055996380285776935
 -0.0010505027081088153 -0.0069917015480401 0.0012001027139266526 0.010935966940884351 0.9937200642779197 -0.055996380285776935 0.005233897822626873 0.023181983242397272
0.07503126302626001 0.005679281127707281 0.025414159694100377 0.9931221233529398 -0.06118097673463246 0.0014061423490857217 0.011926616711930153 -0.0012068563857521217 -0.007629688692193527
 0.9931221233529398 -0.06118097673463246 0.005683668059372478 0.025413742237733412 -0.0012067237413914197 -0.007629690992422543 0.0013816651103449598 0.011929914376032715
 0.0014061423490857217 0.011926616711930153 -0.0012067237413914197 -0.007629690992422543 0.0056794752268273215 0.025415138321257205 0.9931221628595185 -0.061179976093696894
 -0.0012068563857521217 -0.007629688692193527 0.0013816651103449598 0.011929914376032715 0.9931221628595185 -0.061179976093696894 0.005683551036266301 0.025414758806537964
0.08128386827845 0.006154901801523011 0.02766487172015281 0.9924887501443201 -0.06637981733099865 0.0016056495107066252 0.012918950621263836 -0.0013749896640394867 -0.00826705804211114
 0.9924887501443201 -0.06637981733099865 0.006160049316892196 0.027664388632080702 -0.0013748345558224626 -0.008267062115498425 0.0015769194735701184 0.012922921366090015
 0.0016056495107066252 0.012918950621263836 -0.0013748345558224626 -0.008267062115498425 0.006155129314212299 0.02766592926464926 0.9924887962170242 -0.06637873340867709
 -0.0013749896640394867 -0.00826705804211114 0.0015769194735701184 0.012922921366090015 0.9924887962170242 -0.06637873340867709 0.006159911480236335 0.027665491150296498
0.08753647353064001 0.006657603590869223 0.02993304316388791 0.9918194905483277 -0.07159349682349772 0.0018192871103096292 0.013910019519494967 -0.001555003669681322 -0.008903570963609015
 0.9918194905483277 -0.07159349682349772 0.006663572577531291 0.029932488385219804 -0.0015548244159544883 -0.008903577150251044 0.001785963177265073 0.013914750120410392
 0.0018192871103096292 0.013910019519494967 -0.0015548244159544883 -0.008903577150251044 0.006657867163897438 0.02993417905194638 0.9918195436984274 -0.071592329607681
 -0.001555003669681322 -0.008903570963609015 0.001785963177265073 0.013914750120410392 0.9918195436984274 -0.071592329607681 0.00666341220042716 0.029933677156399625
0.09378907878283 0.007187813919874195 0.03221817423425312 0.9911139280537321 -0.07682166935923436 0.0020471474979176785 0.014899574524382345 -0.0017469944359478674 -0.009538984905092428
 0.9911139280537321 -0.07682166935923436 0.007194665343269855 0.03221754140674641 -0.0017467893697275616 -0.00953899356562046 0.0020088886890436567 0.014905157410603059
 0.0020471474979176785 0.014899574524382345 -0.0017467893697275616 -0.00953899356562046 0.007188116195700611 0.032219387851624474 0.991113988794849 -0.07682041883438216
 -0.0017469944359478674 -0.009538984905092428 0.0020088886890436567 0.014905157410603059 0.991113988794849 -0.07682041883438216 0.00719448069514227 0.03221881675688565
0.100041684035 0.007745954455186085 0.034519765545759605 0.9903716506670897 -0.08206396855821745 0.0022893178328596037 0.015887361519773508 -0.001951052733030453 -0.010173053328451628
 0.9903716506670897 -0.08206396855821745 0.0077537493716155525 0.03451904800486673 -0.0019508202018885925 -0.010173064843970637 0.002245783377061117 0.015893894820675717
 0.0022893178328596037 0.015887361519773508 -0.0019508202018885925 -0.010173064843970637 0.007746298070980667 0.03452105623917627 0.9903717195157415 -0.08206263470345114
 -0.001951052733030453 -0.010173053328451628 0.002245783377061117 0.015893894820675717 0.9903717195157415 -0.08206263470345114 0.0077535387189104545 0.03452041028442546
0.1059090909091 0.008295482742728462 0.036694089078428666 0.9896413475564303 -0.08699581578052958 0.0025296566622068405 0.016812456095465753 -0.002153591178012757 -0.010766612425092288
 0.9896413475564303 -0.08699581578052958 0.00830421865007862 0.03669328570211202 -0.002153331384048233 -0.010766626984544902 0.0024808619132375477 0.016819975624106802
 0.0025296566622068405 0.016812456095465753 -0.002153331384048233 -0.010766626984544902 0.00829586754472834 0.03669545146915467 0.9896414244856159 -0.0869944037069596
 -0.002153591178012757 -0.010766612425092288 0.0024808619132375477 0.016819975624106802 0.9896414244856159 -0.0869944037069596 0.008303982015791137 0.036694729895250966
0.1062942892872 0.00833244088974033 0.03683731615751655 0.9895922512714463 -0.08732000954768997 0.002545879889243032 0.01687312137529906 -0.0021672638966266735 -0.010805525686315844
 0.9895922512714463 -0.08732000954768997 0.008341240459842069 0.03683650692473465 -0.002167002262665917 -0.010805540458385686 0.0024967293192961963 0.01688070896492225
 0.002545879889243032 0.01687312137529906 -0.002167002262665917 -0.010805540458385686 0.008332828476603112 0.03683868323330205 0.989592328747278 -0.08731859233789858
 -0.0021672638966266735 -0.010805525686315844 0.0024967293192961963 0.01688070896492225 0.989592328747278 -0.08731859233789858 0.00834100206642326 0.03683795650781098
0.11254689453939999 0.008947682710091888 0.039170322086327404 0.9887753279707772 -0.09258939053979608 0.002816909865217009 0.017856590144445586 -0.00239570765484887 -0.011436147435267547
 0.9887753279707772 -0.09258939053979608 0.008957548211901667 0.03916941386077139 -0.0023954152946382835 -0.011436165885812156 0.0027618031165543996 0.017865341684014466
 0.002816909865217009 0.017856590144445586 -0.0023954152946382835 -0.011436165885812156 0.008948116892001359 0.03917176481023426 0.9887754145968819 -0.09258788994543364
 -0.00239570765484887 -0.011436147435267547 0.0027618031165543996 0.017865341684014466 0.9887754145968819 -0.09258788994543364 0.008957280339594958 0.039170951145454595
0.11879949979160001 0.009592082952206904 0.041518275175628554 0.9879204844264095 -0.09787169407119267 0.0031024781944520717 0.018837499249604466 -0.002636457955672289 -0.012064660076441887
 0.9879204844264095 -0.09787169407119267 0.009603075794229773 0.0415172603249336 -0.0026361332601724853 -0.012064682647751308 0.0030410757070927236 0.018847530228109748
 0.0031024781944520717 0.018837499249604466 -0.0026361332601724853 -0.012064682647751308 0.009592566344625126 0.04151979276984409 0.9879205807293626 -0.097870110061049
 -0.002636457955672289 -0.012064660076441887 0.0030410757070927236 0.018847530228109748 0.9879205807293626 -0.097870110061049 0.009602776703406734 0.04151888573074698
0.1250521050438 0.010266037947194636 0.043880662217122425 0.9870273301843827 -0.10316648800814812 0.0034026493610681404 0.019815575658640637 -0.002889582793914133 -0.01269080121938292
 0.9870273301843827 -0.10316648800814812 0.01027821968123932 0.043879532767466145 -0.0028892241685161838 -0.012690828374044958 0.003334612184485857 0.019827007431220452
 0.0034026493610681404 0.019815575658640637 -0.0028892241685161838 -0.012690828374044958 0.01026657315676236 0.043882253866242504 0.9870274366948462 -0.1031648205430564
 -0.002889582793914133 -0.01269080121938292 0.003334612184485857 0.019827007431220452 0.9870274366948462 -0.1031648205430564 0.010277887631527767 0.043881246741903766
0.131304710296 0.010969937060712089 0.04625696428013596 0.9860954809978255 -0.10847332636214586 0.00371748171727494 0.020790542057994035 -0.0031551440395009575 -0.013314304663804472
 0.9860954809978255 -0.10847332636214586 0.010983369394801828 0.04625571190558041 -0.003154749903968139 -0.013314336884701686 0.0036424716181679088 0.020803501882177406
 0.00371748171727494 0.020790542057994035 -0.003154749903968139 -0.013314336884701686 0.010970526683395303 0.04625862912389393 0.986095598250457 -0.10847157540205268
 -0.0031551440395009575 -0.013314304663804472 0.0036424716181679088 0.020803501882177406 0.986095598250457 -0.10847157540205268 0.010983002645348348 0.04625751491716262
0.1375573155481 0.01155621233536947 0.04833937724536988 0.9852725951704272 -0.11348425853294943 0.004011300997053854 0.021733594868741088 -0.003397558693657445 -0.01390633687967018
 0.9852725951704272 -0.11348425853294943 0.011570960471775233 0.048338018214576194 -0.0033971264894330825 -0.013906374284248946 0.003929143398780063 0.0217480803029742
 0.004011300997053854 0.021733594868741088 -0.0033971264894330825 -0.013906374284248946 0.011556857974436466 0.04834111497716925 0.9852727236505966 -0.1134824241127505
 -0.003397558693657445 -0.01390633687967018 0.003929143398780063 0.0217480803029742 0.9852727236505966 -0.1134824241127505 0.011570558369642832 0.04833991032160486
0.1438099208003 0.012163480711024093 0.0504082390730348 0.984419993318749 -0.1184798323341757 0.004316869059690203 0.022671103742924508 -0.0036495207048095166 -0.014493317658108212
 0.984419993318749 -0.1184798323341757 0.012179607039470451 0.05040676641774105 -0.003649048696824422 -0.014493360737384687 0.004227256191070364 0.02268723283354949
 0.004316869059690203 0.022671103742924508 -0.003649048696824422 -0.014493360737384687 0.012164184770647648 0.050410048875182877 0.9844201335556801 -0.11847791442672538
 -0.0036495207048095166 -0.014493317658108212 0.004227256191070364 0.02268723283354949 0.9844201335556801 -0.11847791442672538 0.012179168041563465 0.050408748058726395
0.1500625260525 0.012791484871126748 0.05246329994744419 0.9835379381717934 -0.12345984434646716 0.004634051022756155 0.023602918483203183 -0.003910899850095006 -0.015075109064184555
 0.9835379381717934 -0.12345984434646716 0.012809051932844574 0.05246170629927966 -0.0039103863055266344 -0.015075158329895415 0.004536677663170355 0.02362081356719717
 0.004634051022756155 0.023602918483203183 -0.0039103863055266344 -0.015075158329895415 0.012792249734182262 0.052465180972430955 0.9835380906973736 -0.1234578429248635
 -0.003910899850095006 -0.015075109064184555 0.004536677663170355 0.02362081356719717 0.9835380906973736 -0.1234578429248635 0.01280857450916007 0.052463777927980695
0.15631513130469998 0.013439965159153158 0.05450431757426023 0.9826266943590555 -0.12842409377209074 0.0049627101042103595 0.024528892157198876 -0.00418156404198582 -0.015651576683302533
 0.9826266943590555 -0.12842409377209074 0.013459035650700668 0.054502595155339534 -0.004181007230390862 -0.015651632667937364 0.004857273632884434 0.024548679804173208
