! Created with skrf 1.8.0 (http://scikit-rf.org).
# GHz S RI R 50.0 
!freq ReS11 ImS11 ReS12 ImS12 ReS13 ImS13
! ReS14 ImS14
! ReS21 ImS21 ReS22 ImS22 ReS23 ImS23
! ReS24 ImS24
! ReS31 ImS31 ReS32 ImS32 ReS33 ImS33
! ReS34 ImS34
! ReS41 ImS41 ReS42 ImS42 ReS43 ImS43
! ReS44 ImS44
!
0.0 0.001778371799696 0.0 0.9982216281946 0.0 6.93376777346e-05 0.0 -6.933767737961e-05 8.491416466325122e-21
 0.9982216281946 0.0 0.001778371799689 0.0 -6.933767737928e-05 8.49141646628471e-21 6.933767773475e-05 0.0
 6.93376777346e-05 0.0 -6.933767737928e-05 8.49141646628471e-21 0.001778371802519 0.0 0.9982216281975 0.0
 -6.933767737961e-05 8.491416466325122e-21 6.933767773475e-05 0.0 0.9982216281975 0.0 0.001778371802525 0.0
0.005 0.001914246401101477 0.001447626094619685 0.9980495795436853 -0.0037247191475669895 9.859625976963694e-05 0.0008033880087810437 -9.54735183039795e-05 -0.0004972279140598343
 0.9980495795436853 -0.0037247191475669895 0.001914238648943633 0.0014476306278011575 -9.547725992702311e-05 -0.0004972308033180075 9.863980319596994e-05 0.0008033715357206224
 9.859625976963694e-05 0.0008033880087810437 -9.547725992702311e-05 -0.0004972308033180075 0.0019142440192017602 0.0014475602377644805 0.9980495791619075 -0.0037247862094429386
 -9.54735183039795e-05 -0.0004972279140598343 9.863980319596994e-05 0.0008033715357206224 0.9980495791619075 -0.0037247862094429386 0.0019142402653398725 0.00144756235583578
0.006252605252188 0.0019501200190866126 0.0018152244488371769 0.9980038309537503 -0.004656774759593987 0.00010708510344625346 0.0010045904249508966 -0.00010297177959529019 -0.000622171874000927
 0.9980038309537503 -0.004656774759593987 0.0019501079004617939 0.0018152301538760243 -0.00010297760167902788 -0.000622175435646555 0.00010715313678134091 0.001004569001191252
 0.00010708510344625346 0.0010045904249508966 -0.00010297760167902788 -0.000622175435646555 0.0019501163806810047 0.0018151421403375268 0.9980038304424443 -0.004656858577389151
 -0.00010297177959529019 -0.000622171874000927 0.00010715313678134091 0.001004569001191252 0.9980038304424443 -0.004656858577389151 0.0019501105130926763 0.00181514481637574
0.01250521050438 0.0021403504368917516 0.0036683583328264956 0.9977594594020572 -0.009314108169097798 0.0001564521612525239 0.0020093093340114924 -0.00014615515765412917 -0.0012472332790101565
 0.9977594594020572 -0.009314108169097798 0.002140302039019399 0.00366837013657944 -0.0001461780995016153 -0.001247239848962629 0.00015672349323736843 0.00200925743350244
 0.0001564521612525239 0.0020093093340114924 -0.0001461780995016153 -0.001247239848962629 0.0021403364472088525 0.00366819401771321 0.9977594579060436 -0.009314275539049817
 -0.00014615515765412917 -0.0012472332790101565 0.00015672349323736843 0.00200925743350244 0.9977594579060436 -0.009314275539049817 0.0021403130219773132 0.0036681996237232753
0.01875781575657 0.0023495274189448165 0.005547626306506082 0.9974881752533309 -0.01398328299057105 0.00021756065462771184 0.0030148346926855973 -0.00019903227326223332 -0.0018741916084598872
 0.9974881752533309 -0.01398328299057105 0.0023494186501166296 0.0055476446661541995 -0.0001990834298846377 -0.0018742005129008489 0.00021817024571851865 0.0030147413162046614
 0.00021756065462771184 0.0030148346926855973 -0.0001990834298846377 -0.0018742005129008489 0.0023494963946183466 0.005547380172471971 0.9974881723178671 -0.013983533787042887
 -0.00019903227326223332 -0.0018741916084598872 0.00021817024571851865 0.0030147413162046614 0.9974881723178671 -0.013983533787042887 0.0023494437634573448 0.0055473889082273235
0.02501042100875 0.002578098558000386 0.007450320372394741 0.9971896256818362 -0.018666498400823395 0.0002905335444900143 0.00402117796692881 -0.00026174146860450986 -0.002502711568195695
 0.9971896256818362 -0.018666498400823395 0.0025779053604451443 0.007450345797470239 -0.0002618317997480228 -0.0025027220017856907 0.0002916164457593564 0.004021030218212066
 0.0002905335444900143 0.00402117796692881 -0.0002618317997480228 -0.0025027220017856907 0.002578043816568456 0.0074499926008317965 0.9971896208510734 -0.018666832527689463
 -0.00026174146860450986 -0.002502711568195695 0.0002916164457593564 0.004021030218212066 0.9971896208510734 -0.018666832527689463 0.002577950354425365 0.007450004606403252
0.03126302626094 0.0028264927370389805 0.009375014086574837 0.9968634418340191 -0.023364655773436206 0.0003754935750616887 0.005028252176750395 -0.00033441621073453885 -0.003132547213794704
 0.9968634418340191 -0.023364655773436206 0.002826191070637644 0.009375047137239571 -0.00033455656321846434 -0.003132558238427952 0.00037718504994040683 0.005028035247800812
 0.0003754935750616887 0.005028252176750395 -0.00033455656321846434 -0.003132558238427952 0.0028264075943737208 0.009374604894094947 0.9968634346520333 -0.02336507312307787
 -0.00033441621073453885 -0.003132547213794704 0.00037718504994040683 0.005028035247800812 0.9968634346520333 -0.02336507312307787 0.0028262616888361236 0.009374620247447455
0.037515631513130004 0.003095128815146398 0.011320752513888319 0.996509247915648 -0.028078168671022582 0.0004725620167882225 0.006035930942097043 -0.000417186102673453 -0.0037634829514958477
 0.996509247915648 -0.028078168671022582 0.003094694646699278 0.011320793800321383 -0.0004173872217385504 -0.0037634934959987986 0.00047499759518665447 0.006035628091751863
 0.0004725620167882225 0.006035930942097043 -0.0004173872217385504 -0.0037634934959987986 0.003095006589947396 0.01132026213080686 0.9965092379329918 -0.02807866914665313
 -0.000417186102673453 -0.0037634829514958477 0.00047499759518665447 0.006035628091751863 0.9965092379329918 -0.02807866914665313 0.003094796632108981 0.011320280845911215
0.043768236765320004 0.0033844189600919727 0.013286805704279613 0.9961266649259374 -0.03280720930568509 0.0005818580582872886 0.007044066453639563 -0.0005101772213298647 -0.004395315611873552
 0.9961266649259374 -0.03280720930568509 0.0033838282537062615 0.013286855886733662 -0.0005104497571108361 -0.004395324471950425 0.0005851735617621504 0.007043658983968669
 0.0005818580582872886 0.007044066453639563 -0.0005104497571108361 -0.004395324471950425 0.0033842529681752244 0.013286234398080474 0.9961266516951935 -0.03280779279885098
 -0.0005101772213298647 -0.004395315611873552 0.0005851735617621504 0.007043658983968669 0.9961266516951935 -0.03280779279885098 0.003383967344970782 0.013286256423355056
0.050020842017509996 0.00369477017196786 0.015272566834951198 0.9957153125863306 -0.03755181033399107 0.0007034984245930862 0.008052496906541941 -0.0006135122186847779 -0.005027847064787608
 0.9957153125863306 -0.03755181033399107 0.0036939988811476557 0.015272626624045755 -0.0006138667303384225 -0.005027852903054321 0.000707829976159902 0.008051964138304935
 0.0007034984245930862 0.008052496906541941 -0.0006138667303384225 -0.005027852903054321 0.003694553727341812 0.0152719149075464 0.9957152956648436 -0.0375524767283394
 -0.0006135122186847779 -0.005027847064787608 0.000707829976159902 0.008051964138304935 0.9957152956648436 -0.0375524767283394 0.003694180813732714 0.015271940124534079
0.055454545454549996 0.003981891718499844 0.017013842917125627 0.9953341752684864 -0.04168760678733567 0.0008193212844870824 0.008928959584961316 -0.0007118066395077974 -0.005577950804158795
 0.9953341752684864 -0.04168760678733567 0.003980943951282756 0.0170139116714306 -0.0007122408973072559 -0.005577952826967424 0.0008246465955586476 0.008928299576840042
 0.0008193212844870824 0.008928959584961316 -0.0007122408973072559 -0.005577952826967424 0.0039816259960203755 0.01701312119878752 0.9953341547821968 -0.041688345126032304
 -0.0007118066395077974 -0.005577950804158795 0.0008246465955586476 0.008928299576840042 0.9953341547821968 -0.041688345126032304 0.00398116776817862 0.017013149040537925
0.056273447269699996 0.004026585042015213 0.017277502221044107 0.9952748105097505 -0.04231191478825861 0.0008375970941380912 0.009061050167150746 -0.0007273103186419051 -0.005660880608128466
 0.9952748105097505 -0.04231191478825861 0.004025609101461879 0.017277572378488537 -0.0007277572769294308 -0.005660881954209284 0.0008430811184487638 0.009060369414839831
 0.0008375970941380912 0.009061050167150746 -0.0007277572769294308 -0.005660881954209284 0.004026311454736223 0.017276770006490246 0.9952747894577068 -0.04231266396283979
 -0.0007273103186419051 -0.005660880608128466 0.0008430811184487638 0.009060369414839831 0.9952747894577068 -0.04231266396283979 0.004025839605718038 0.01727679822880077
0.06252605252188 0.004380262129823306 0.01930112382991366 0.9948047789930085 -0.04708740351159658 0.0009842650662291357 0.010069545795438612 -0.0008516872589441598 -0.006294219008859453
 0.9948047789930085 -0.04708740351159658 0.004379057448156526 0.01930120516938041 -0.0008522370479309572 -0.006294214259493466 0.0009910382839037116 0.010068692342092423
 0.0009842650662291357 0.010069545795438612 -0.0008522370479309572 -0.006294214259493466 0.0043799247068687965 0.0193003117029246 0.9948047533756578 -0.04708823533354465
 -0.0008516872589441598 -0.006294219008859453 0.0009910382839037116 0.010068692342092423 0.9948047533756578 -0.04708823533354465 0.004379342249985067 0.01930034267527529
0.06877865777407 0.004756196136505163 0.02134297291789964 0.9943048396111102 -0.051878111479180776 0.001143610156047797 0.01107779627228962 -0.0009867552029261544 -0.006927663347944857
 0.9943048396111102 -0.051878111479180776 0.004754738588899548 0.021343066306216248 -0.0009874181210068973 -0.0069276507671219385 0.0011518095733827663 0.011076743344280654
 0.001143610156047797 0.01107779627228962 -0.0009874181210068973 -0.0069276507671219385 0.0047557881804970595 0.021342081292655725 0.9943048089980684 -0.05187902580602353
 -0.0009867552029261544 -0.006927663347944857 0.0011518095733827663 0.011076743344280654 0.9943048089980684 -0.05187902580602353 0.004755083407834009 0.02134211469033264
0.07503126302626001 0.005154777952679116 0.023402609653535845 0.9937746156912012 -0.056683838142953386 0.0013157368062827871 0.012085607792411449 -0.0011326226322321677 -0.007561012308965464
 0.9937746156912012 -0.056683838142953386 0.0051530433733554095 0.023402716012127203 -0.0011334088926556701 -0.007560990028073959 0.0013254997016047196 0.012084326534265472
 0.0013157368062827871 0.012085607792411449 -0.0011334088926556701 -0.007560990028073959 0.00515429276243886 0.02340163898137835 0.9937745796575445 -0.05668483482608589
 -0.0011326226322321677 -0.007561012308965464 0.0013254997016047196 0.012084326534265472 0.9937745796575445 -0.05668483482608589 0.0051534539229740545 0.023401674409758072
0.08128386827845 0.00557639462930509 0.02547960623006183 0.9932137327141999 -0.061504354297188535 0.0015007459089300215 0.013092780807240625 -0.0012893942275046238 -0.008194061726431291
 0.9932137327141999 -0.061504354297188535 0.005574358804374674 0.025479726536618685 -0.0012903139586164052 -0.008194027744428083 0.0015122098163990164 0.013091240256584568
 0.0015007459089300215 0.013092780807240625 -0.0012903139586164052 -0.008194027744428083 0.005575825498773515 0.02547855700877456 0.9932136908400876 -0.061505433173884204
 -0.0012893942275046238 -0.008194061726431291 0.0015122098163990164 0.013091240256584568 0.9932136908400876 -0.061505433173884204 0.0055748407902364685 0.02547859400320659
0.08753647353064001 0.006021429297526298 0.02757354210949296 0.9926218186701171 -0.06633940682395578 0.0016987346338254608 0.01409911042018589 -0.0014571707410517022 -0.008826604291785153
 0.9926218186701171 -0.06633940682395578 0.00601906795788324 0.027573677399850765 -0.001458233986255877 -0.008826556475370968 0.0017120373251793774 0.01409727748277392
 0.0016987346338254608 0.01409911042018589 -0.001458233986255877 -0.008826556475370968 0.006020769515888601 0.02757241487526476 0.9926217705410791 -0.06634056772644807
 -0.0014571707410517022 -0.008826604291785153 0.0017120373251793774 0.01409727748277392 0.9926217705410791 -0.06634056772644807 0.00601962707676424 0.02757245290114756
0.09378907878283 0.0064902610509403194 0.029684000635655343 0.9919985043798158 -0.07118872208062384 0.0019097962623023104 0.015104386689365066 -0.0016360488636033314 -0.00945842936210953
 0.9919985043798158 -0.07118872208062384 0.006487549864922283 0.029684152006062014 -0.0016372655811212544 -0.009458365445942562 0.0019250757266587215 0.01510222611443173
 0.0019097962623023104 0.015104386689365066 -0.0016372655811212544 -0.009458365445942562 0.006489503903123491 0.02968279597360248 0.9919984495880286 -0.07118996482701154
 -0.0016360488636033314 -0.00945842936210953 0.0019250757266587215 0.01510222611443173 0.9919984495880286 -0.07118996482701154 0.00648819180427641 0.02968283442676614
0.100041684035 0.006983264804489201 0.031810566566410486 0.9913434237978926 -0.07605200838044396 0.0021340200241605598 0.01610839486605091 -0.0018261210872121477 -0.010089322843739049
 0.9913434237978926 -0.07605200838044396 0.006980179370452039 0.03181073517593601 -0.001827501149602804 -0.010089240430658685 0.002151414446312208 0.016105869221800004
 0.0021340200241605598 0.01610839486605091 -0.001827501149602804 -0.010089240430658685 0.006982403570217154 0.031809285104488515 0.9913433619420204 -0.0760533327820839
 -0.0018261210872121477 -0.010089322843739049 0.002151414446312208 0.016105869221800004 0.9913433619420204 -0.0760533327820839 0.006980909806947704 0.03180932331177694
0.1059090909091 0.0074682108699284325 0.0338204023767579 0.9906994859895547 -0.08062811923951231 0.002356476847836528 0.017049201396236252 -0.0020147432057561537 -0.010680308390624477
 0.9906994859895547 -0.08062811923951231 0.007464751982285259 0.033820588275910925 -0.002016285452231295 -0.010680206322750855 0.002375981765118633 0.01704629716523884
 0.002356476847836528 0.017049201396236252 -0.002016285452231295 -0.010680206322750855 0.007467245845608816 0.03381904946029977 0.9906994171455586 -0.08062952008465428
 -0.0020147432057561537 -0.010680308390624477 0.002375981765118633 0.01704629716523884 0.9906994171455586 -0.08062952008465428 0.007465570616138259 0.0338190867640313
0.1062942892872 0.007500811132411722 0.03395282422174646 0.9906562142982706 -0.08092895786946687 0.002371490937586745 0.0171109155959815 -0.002027475565090674 -0.010719067123642016
 0.9906562142982706 -0.08092895786946687 0.00749732697163792 0.03395301129506288 -0.002029028758773741 -0.010718963684908966 0.002391138674879328 0.017107985245391324
 0.002371490937586745 0.0171109155959815 -0.002029028758773741 -0.010718963684908966 0.007499839087078662 0.03395146663565916 0.9906561449835395 -0.0809303637272096
 -0.002027475565090674 -0.010719067123642016 0.002391138674879328 0.017107985245391324 0.9906561449835395 -0.0809303637272096 0.007498151569996381 0.033951503855906895
0.11254689453939999 0.008043266093173438 0.036110356091454326 0.989936516948737 -0.08581924795631822 0.0026222896505689246 0.01811172509333063 -0.002240195970336786 -0.011347441039079476
 0.989936516948737 -0.08581924795631822 0.008039358642225384 0.0361105629218025 -0.0022419319948075223 -0.011347313914657672 0.002644329208704794 0.018108348170224685
 0.0026222896505689246 0.01811172509333063 -0.0022419319948075223 -0.011347313914657672 0.008042176507023845 0.03610892310571249 0.9899364397877446 -0.08582073506096793
 -0.002240195970336786 -0.011347441039079476 0.002644329208704794 0.018108348170224685 0.9899364397877446 -0.08582073506096793 0.008040283054346826 0.03610895853086065
0.11879949979160001 0.008610991042884302 0.038282741753506974 0.9891839767788871 -0.09072254244439436 0.0028864922853725807 0.01911059529796779 -0.0024643613524303353 -0.011974219874928544
 0.9891839767788871 -0.09072254244439436 0.00860663564646917 0.03828296970607149 -0.0024662898196312227 -0.01197406627375641 0.0029110622927294746 0.019106727683499115
 0.0028864922853725807 0.01911059529796779 -0.0024662898196312227 -0.01197406627375641 0.008609777181664249 0.03828123414062693 0.9891838913918641 -0.09072411057874019
 -0.0024643613524303353 -0.011974219874928544 0.0029110622927294746 0.019106727683499115 0.9891838913918641 -0.09072411057874019 0.008607665509732906 0.03828126689732776
0.1250521050438 0.00920434243962156 0.04046955703894789 0.9883982430398207 -0.09563849243056226 0.0031641702837772946 0.020107294020025798 -0.002700045993889502 -0.012599175385021734
 0.9883982430398207 -0.09563849243056226 0.009199514343092723 0.040469807554389864 -0.0027021764272994937 -0.012598992385336143 0.003191409465077701 0.020102889319374095
 0.0031641702837772946 0.020107294020025798 -0.0027021764272994937 -0.012598992385336143 0.009202997564901774 0.04046797562348024 0.9883981490550899 -0.09564014136678785
 -0.002700045993889502 -0.012599175385021734 0.003191409465077701 0.020102889319374095 0.9883981490550899 -0.09564014136678785 0.009200655279765478 0.04046800477484034
0.131304710296 0.00982367164249514 0.04267037337452646 0.9875789694608205 -0.10056673703957479 0.0034553902547872525 0.021101585078950397 -0.002947319266491988 -0.013222075830138645
 0.9875789694608205 -0.10056673703957479 0.009818345984257064 0.04267064797298603 -0.0029496611001442793 -0.013221860379847877 0.0034854374034862952 0.021096594598568864
 0.0034553902547872525 0.021101585078950397 -0.0029496611001442793 -0.013221860379847877 0.009822189011006913 0.04266871903249831 0.9875788665150596 -0.10056846654130694
 -0.002947319266491988 -0.013222075830138645 0.0034854374034862952 0.021096594598568864 0.9875788665150596 -0.10056846654130694 0.009819603599686862 0.04266874358017809
0.1375573155481 0.010335713413622907 0.044596956659051744 0.9868594955127216 -0.10521892054112779 0.003725913017488228 0.022065093881805997 -0.0031719131161409564 -0.013814605865826458
 0.9868594955127216 -0.10521892054112779 0.01032986443259332 0.04459725411923391 -0.003174480482897182 -0.01381435740735881 0.0037588339152505976 0.022059520637461232
 0.003725913017488228 0.022065093881805997 -0.003174480482897182 -0.01381435740735881 0.010334087017068084 0.04459523015182121 0.9868593832172833 -0.1052207303807661
 -0.0031719131161409564 -0.013814605865826458 0.0037588339152505976 0.022059520637461232 0.9868593832172833 -0.1052207303807661 0.010331243631254748 0.04459524655544528
0.1438099208003 0.010865989734759678 0.04651175514393796 0.9861142491290251 -0.10985767823603196 0.004007313373044277 0.023023775557513025 -0.0034054316076060024 -0.01440268362017622
 0.9861142491290251 -0.10985767823603196 0.010859592310989588 0.04651207698957925 -0.003408234658298544 -0.014402399118408522 0.004043233754209184 0.02301757462724451
 0.004007313373044277 0.023023775557513025 -0.003408234658298544 -0.014402399118408522 0.010864212951221282 0.04650995733579453 0.9861141271292634 -0.10985956816378074
 -0.0034054316076060024 -0.01440268362017622 0.004043233754209184 0.02301757462724451 0.9861141271292634 -0.10985956816378074 0.010861098548387137 0.04650996455029067
0.1500625260525 0.011414288364288264 0.0484145609647034 0.9853434477674905 -0.1144828462927812 0.004299477930595931 0.023977502143901586 -0.0036477638372198274 -0.014986188065958639
 0.9853434477674905 -0.1144828462927812 0.011407317277037065 0.048414908822477495 -0.003650812693158902 -0.014985864363481443 0.004338522760222187 0.023970626934612126
 0.004299477930595931 0.023977502143901586 -0.003650812693158902 -0.014985864363481443 0.011412354574641457 0.04841269275452174 0.985343315716647 -0.11448481605059088
 -0.0036477638372198274 -0.014986188065958639 0.004338522760222187 0.023970626934612126 0.985343315716647 -0.11448481605059088 0.011408955984196589 0.04841268973275285
0.15631513130469998 0.011980395238907086 0.0503051724751564 0.9845473103432347 -0.11909426257349397 0.004602291779784909 0.02492614823997159 -0.0038987973674240715 -0.015565001064298702
 0.9845473103432347 -0.11909426257349397 0.01197282516432911 0.05030554807835769 -0.0039021021198742596 -0.015564634882052083 0.004644585242921717 0.024918550503353905
