! Created with skrf 1.8.0 (http://scikit-rf.org).
# GHz S RI R 50.0 
!freq ReS11 ImS11 ReS12 ImS12 ReS13 ImS13
! ReS14 ImS14
! ReS21 ImS21 ReS22 ImS22 ReS23 ImS23
! ReS24 ImS24
! ReS31 ImS31 ReS32 ImS32 ReS33 ImS33
! ReS34 ImS34
! ReS41 ImS41 ReS42 ImS42 ReS43 ImS43
! ReS44 ImS44
!
0.0 0.001361148825668 0.0 0.9986388511516 0.0 5.22309141813e-05 0.0 -5.223091480334e-05 6.3964422630448435e-21
 0.9986388511516 0.0 0.001361148825642 0.0 -5.223091480272e-05 6.396442262968915e-21 5.223091418134e-05 0.0
 5.22309141813e-05 0.0 -5.223091480272e-05 6.396442262968915e-21 0.001361148832763 0.0 0.9986388511587 0.0
 -5.223091480334e-05 6.3964422630448435e-21 5.223091418134e-05 0.0 0.9986388511587 0.0 0.001361148832768 0.0
0.005 0.0014640315911659183 0.0011131984610842126 0.9985087826529739 -0.0028518856401152674 7.292121440742422e-05 0.0005794628063816205 -7.091695097569818e-05 -0.00036309622137650137
 0.9985087826529739 -0.0028518856401152674 0.0014640116493492142 0.0011132101257102555 -7.091977812741228e-05 -0.0003630984060902808 7.303588955110965e-05 0.0005794192226886154
 7.292121440742422e-05 0.0005794628063816205 -7.091977812741228e-05 -0.0003630984060902808 0.0014640304256904773 0.0011132664331328353 0.9985087830050046 -0.0028518185804633158
 -7.091695097569818e-05 -0.00036309622137650137 7.303588955110965e-05 0.0005794192226886154 0.9985087830050046 -0.0028518185804633158 0.0014640135142805326 0.0011132762693470812
0.006252605252188 0.0014908794733749207 0.001395899623544173 0.9984746534511716 -0.003565576528536856 7.873230099970455e-05 0.0007246176436647426 -7.612778318623032e-05 -0.0004543487472962733
 0.9984746534511716 -0.003565576528536856 0.0014908483003009854 0.001395914418507687 -7.613218241617661e-05 -0.00045435144194759796 7.891147254820624e-05 0.0007245610746417882
 7.873230099970455e-05 0.0007246176436647426 -7.613218241617661e-05 -0.00045435144194759796 0.0014908775554236203 0.0013959845954272406 0.9984746539058273 -0.003565492698706084
 -7.612778318623032e-05 -0.0004543487472962733 7.891147254820624e-05 0.0007245610746417882 0.9984746539058273 -0.003565492698706084 0.0014908511201611777 0.0013959970981059244
0.01250521050438 0.0016314251572601285 0.002821269959971494 0.9982949431212488 -0.007132093368530559 0.00011153056714610365 0.0014496476450632399 -0.00010534493218104198 -0.0009109924285498113
 0.9982949431212488 -0.007132093368530559 0.0016313006786565897 0.0028213017147817 -0.00010536226892823229 -0.0009109974240912967 0.00011224511621042509 0.0014495121425515736
 0.00011153056714610365 0.0014496476450632399 -0.00010536226892823229 -0.0009109974240912967 0.0016314169574238682 0.0028214396586742755 0.9982949444016861 -0.0071319259688755075
 -0.00010534493218104198 -0.0009109924285498113 0.00011224511621042509 0.0014495121425515736 0.9982949444016861 -0.0071319259688755075 0.0016313114067690654 0.002821466738004826
0.01875781575657 0.00178306400397293 0.004267175833119826 0.9980995171930926 -0.010708260934043905 0.0001506984449528904 0.0021756000455846122 -0.00013996629226846718 -0.0013692862253075913
 0.9980995171930926 -0.010708260934043905 0.0017827842878428972 0.004267226891548877 -0.00014000495434083677 -0.0013692930604966322 0.0001523037332648811 0.002175359272133291
 0.0001506984449528904 0.0021756000455846122 -0.00014000495434083677 -0.0013692930604966322 0.0017830451464182042 0.004267430212698845 0.9980995196518005 -0.010708010030827168
 -0.00013996629226846718 -0.0013692862253075913 0.0001523037332648811 0.002175359272133291 0.9980995196518005 -0.010708010030827168 0.0017828079808894354 0.004267474049349474
0.02501042100875 0.00194606746655389 0.005731622341907063 0.9978881654953407 -0.014295841984054806 0.00019630906314624288 0.002902526893114264 -0.00018007351793818325 -0.0018290391848783017
 0.9978881654953407 -0.014295841984054806 0.0019455707019156287 0.0057316952040432885 -0.00018014179390336035 -0.0018290473223960017 0.00019916068390765301 0.002902150694483132
 0.00019630906314624288 0.002902526893114264 -0.00018014179390336035 -0.0018290473223960017 0.0019460335833843894 0.005731961377829004 0.9978881694928619 -0.014295507625106582
 -0.00018007351793818325 -0.0018290391848783017 0.00019916068390765301 0.002902150694483132 0.9978881694928619 -0.014295507625106582 0.0019456124173627529 0.005732024241030011
0.03126302626094 0.0021206956512982112 0.007213597698370882 0.9976606661570552 -0.017895608742450404 0.0002484359887935588 0.0036304135407284194 -0.00022574623220212447 -0.0022901230088254155
 0.9976606661570552 -0.017895608742450404 0.0021199201161424723 0.0072136950164165365 -0.00022585232865219307 -0.0022901318341672404 0.00025289010648991565 0.003629867924780183
 0.0002484359887935588 0.0036304135407284194 -0.00022585232865219307 -0.0022901318341672404 0.0021206423684127732 0.007214021415236614 0.9976606720503641 -0.01789519092924151
 -0.00022574623220212447 -0.0022901230088254155 0.00025289010648991565 0.003629867924780183 0.9976606720503641 -0.01789519092924151 0.0021199849023409234 0.007214105658516039
0.037515631513130004 0.0023072032111260132 0.008712453450928963 0.9974167916464894 -0.021507962619000925 0.00030715262574028374 0.0043592192927664215 -0.0002770626257650012 -0.002752431408507253
 0.9974167916464894 -0.021507962619000925 0.0023060872519347114 0.00871257802728092 -0.00027721467621254756 -0.002752440229618899 0.0003135661344267075 0.004358466390267051
 0.00030715262574028374 0.0043592192927664215 -0.00027721467621254756 -0.002752440229618899 0.002307126154449713 0.008712961877941294 0.9974167997972148 -0.02150746135130849
 -0.0002770626257650012 -0.002752431408507253 0.0003135661344267075 0.004358466390267051 0.9974167997972148 -0.02150746135130849 0.0023061801560575424 0.00871306993665303
0.043768236765320004 0.002505841640945403 0.010227715836842318 0.9971563112111669 -0.025133122795087007 0.000372531937307398 0.005088889764782451 -0.0003340996764110988 -0.0032158677392696683
 0.9971563112111669 -0.025133122795087007 0.0025043236572008273 0.010227870623018604 -0.00033430574658842245 -0.0032158757864068697 0.0003812625414510757 0.005087887784575533
 0.000372531937307398 0.005088889764782451 -0.00033430574658842245 -0.0032158757864068697 0.0025057364330260796 0.010228309029677298 0.9971563219829348 -0.025132538049316245
 -0.0003340996764110988 -0.0032158677392696683 0.0003812625414510757 0.005087887784575533 0.9971563219829348 -0.025132538049316245 0.0025044497231332978 0.010228443418973832
0.050020842017509996 0.0027168603442700658 0.011759007852128557 0.9968789920877573 -0.028771204089900825 0.0004446462803746768 0.005819361988872136 -0.0003969332364569736 -0.0036803398882874687
 0.9968789920877573 -0.028771204089900825 0.0027148787752280584 0.011759195948179497 -0.0003972013277863451 -0.0036803463139470876 0.00045605253483111926 0.005818065170672639
 0.0004446462803746768 0.005819361988872136 -0.0003972013277863451 -0.0036803463139470876 0.0027167226024210514 0.011759685879612165 0.996879005845793 -0.028770535832617516
 -0.0003969332364569736 -0.0036803398882874687 0.00045605253483111926 0.005818065170672639 0.996879005845793 -0.028770535832617516 0.0027150430421002568 0.011759849193042148
0.055454545454549996 0.002910488828024958 0.013102516604658245 0.9966241365256723 -0.031943339541655257 0.0005128411526351995 0.0064547620998912794 -0.00045630306490733414 -0.004084751484869168
 0.9966241365256723 -0.031943339541655257 0.00290805441684518 0.013102736280745526 -0.00045663150450854083 -0.004084755752721327 0.0005268644907789917 0.006453168776636035
 0.0005128411526351995 0.0064547620998912794 -0.00045663150450854083 -0.004084755752721327 0.002910319250177301 0.013103268430727547 0.9966241531772227 -0.03194259866722967
 -0.00045630306490733414 -0.004084751484869168 0.0005268644907789917 0.006453168776636035 0.9966241531772227 -0.03194259866722967 0.0029082559704365885 0.013103459046304297
0.056273447269699996 0.0029405071897696403 0.013306010970136933 0.9965846002057037 -0.032422255178331916 0.0005235672883437785 0.006550566910086395 -0.00046563806150226166 -0.004145757772132324
 0.9965846002057037 -0.032422255178331916 0.0029380005030755474 0.0133062356243457 -0.0004659761134971737 -0.004145761651019837 0.0005380086135160878 0.006548925476173638
 0.0005235672883437785 0.006550566910086395 -0.0004659761134971737 -0.004145761651019837 0.0029403325264355704 0.013306773923916148 0.996584617317518 -0.03242150335694653
 -0.00046563806150226166 -0.004145757772132324 0.0005380086135160878 0.006548925476173638 0.996584617317518 -0.03242150335694653 0.0029382080056340933 0.013306968832153926
0.06252605252188 0.0031770288189594217 0.014868444126491541 0.9962729006431905 -0.036086279543368405 0.0006093657786948289 0.007282430760329235 -0.0005402878086248376 -0.004612031958445987
 0.9962729006431905 -0.036086279543368405 0.003173935499440795 0.01486870873557111 -0.0005407037004804739 -0.0046120322874681815 0.0006272024596911647 0.007280390866694485
 0.0006093657786948289 0.007282430760329235 -0.0005407037004804739 -0.0046120322874681815 0.0031768128417547364 0.014869292109522975 0.9962729214796662 -0.03608544409795133
 -0.0005402878086248376 -0.004612031958445987 0.0006272024596911647 0.007280390866694485 0.9962729214796662 -0.03608544409795133 0.00317419126851668 0.014869521359523788
0.06877865777407 0.0034266708185949637 0.016446051155070713 0.9959436579506149 -0.03976324797953523 0.0007021116728773878 0.008014875881604117 -0.0006209550183967163 -0.005079072840263485
 0.9959436579506149 -0.03976324797953523 0.0034229293580130557 0.016446359264466505 -0.000621456570187803 -0.005079068538532475 0.0007237048471801782 0.008012379568887016
 0.0007021116728773878 0.008014875881604117 -0.000621456570187803 -0.005079068538532475 0.0034264091297055562 0.01644698428949558 0.9959436828861479 -0.039762328835197
 -0.0006209550183967163 -0.005079072840263485 0.0007237048471801782 0.008012379568887016 0.9959436828861479 -0.039762328835197 0.003423238419551692 0.01644725070383967
0.07503126302626001 0.0036896778107528036 0.018038592852115346 0.9955966363946775 -0.043453106469912135 0.000801873926615237 0.008747821233742601 -0.0007077110835808793 -0.0055467901280824485
 0.9955966363946775 -0.043453106469912135 0.003685226697740877 0.018038948156694577 -0.0007083060570690518 -0.005546780036930565 0.00082758556337541 0.008744806378171719
 0.000801873926615237 0.008747821233742601 -0.0007083060570690518 -0.005546780036930565 0.0036893660066398912 0.018039611276204955 0.9955966658072708 -0.043452103540292546
 -0.0007077110835808793 -0.0055467901280824485 0.00082758556337541 0.008744806378171719 0.9955966658072708 -0.043452103540292546 0.003685594072467277 0.018039917752757626
0.08128386827845 0.003966293494878903 0.01964584167322278 0.9952316001564941 -0.04715578143297619 0.0009087204615444288 0.009481182751724632 -0.0008006262142250067 -0.006015092494767741
 0.9952316001564941 -0.04715578143297619 0.003961071205259463 0.019646248018232674 -0.0008013223134456612 -0.006015075377764924 0.0009389133342874218 0.009477583016200006
 0.0009087204615444288 0.009481182751724632 -0.0008013223134456612 -0.006015075377764924 0.003965927165964158 0.01964694554260857 0.9952316344281928 -0.047154694619397135
 -0.0008006262142250067 -0.006015092494767741 0.0009389133342874218 0.009477583016200006 0.9952316344281928 -0.047154694619397135 0.003961501907770645 0.019647295054392513
0.08753647353064001 0.0042567606546449355 0.021267578077360506 0.9948483134975699 -0.05087118332488735 0.0010227181025387298 0.010214873574261117 -0.0008997693950778861 -0.006483887351741476
 0.9948483134975699 -0.05087118332488735 0.004250705641624046 0.02126803945958601 -0.0009005742667048254 -0.006483861894726168 0.0010577557567660063 0.010210618359665209
 0.0010227181025387298 0.010214873574261117 -0.0009005742667048254 -0.006483861894726168 0.004256335385383877 0.02126876756300372 0.9948483530150455 -0.050870012518741174
 -0.0008997693950778861 -0.006483887351741476 0.0010577557567660063 0.010210618359665209 0.9948483530150455 -0.050870012518741174 0.0042512046801757445 0.021269163158430218
0.09378907878283 0.00456132114405265 0.02290358790163645 0.9944465409067567 -0.054599209213993444 0.0011439325154008937 0.010948804224559718 -0.0010052083412314039 -0.006953080675664542
 0.9944465409067567 -0.054599209213993444 0.00455437182820995 0.022904108471040886 -0.0010061295747578432 -0.006953045486786267 0.001184179231549168 0.01094381862140545
 0.0011439325154008937 0.010948804224559718 -0.0010061295747578432 -0.006953045486786267 0.004560832512398234 0.022904863193976232 0.9944465860615863 -0.054597954292979214
 -0.0010052083412314039 -0.006953080675664542 0.001184179231549168 0.01094381862140545 0.9944465860615863 -0.054597954292979214 0.004554944203947218 0.02290530799736733
0.100041684035 0.004880215854715724 0.0245536604524622 0.9940260472323166 -0.05833974464170381 0.0012724281460966885 0.011682882736327 -0.001117009450352736 -0.007422576892641207
 0.9940260472323166 -0.05833974464170381 0.0048723106149040395 0.024554244513858042 -0.0011180545782190016 -0.007422530502404889 0.0013182488991627548 0.011677087476811293
 0.0012724281460966885 0.011682882736327 -0.0011180545782190016 -0.007422530502404889 0.0048796594325154 0.024555021759677578 0.9940260984217799 -0.058338405472069726
 -0.001117009450352736 -0.007422576892641207 0.0013182488991627548 0.011677087476811293 0.9940260984217799 -0.058338405472069726 0.004872961321440962 0.024555518971960833
0.1059090909091 0.00519271523732886 0.02611468251476207 0.9936142228517925 -0.06186110685198436 0.0013996861392534933 0.012371788018633813 -0.0012277671971464466 -0.007863338202265537
 0.9936142228517925 -0.06186110685198436 0.0051838568745382636 0.026115330211717996 -0.001228935386541016 -0.007863279895132934 0.0014510700556714562 0.012365156965224522
 0.0013996861392534933 0.012371788018633813 -0.001228935386541016 -0.007863279895132934 0.005192091167300796 0.026116124741968515 0.9936142800699357 -0.06185968849339585
 -0.0012277671971464466 -0.007863338202265537 0.0014510700556714562 0.012365156965224522 0.9936142800699357 -0.06185968849339585 0.005184585619930805 0.026116674114902805
0.1062942892872 0.005213684673610645 0.026217587051178357 0.9935865978056385 -0.06209266503228668 0.0014082681612134355 0.012417014751973772 -0.0012352377527797855 -0.007892278793116153
 0.9935865978056385 -0.06209266503228668 0.005204761836964913 0.026218239066440933 -0.0012364142503623902 -0.007892219654434953 0.001460028576922147 0.012410326162463452
 0.0014082681612134355 0.012417014751973772 -0.0012364142503623902 -0.007892219654434953 0.005213056025712787 0.026219034598879365 0.9935866554320733 -0.06209124146946468
 -0.0012352377527797855 -0.007892278793116153 0.001460028576922147 0.012410326162463452 0.9935866554320733 -0.06209124146946468 0.005205495858977428 0.026219587498746873
0.11254689453939999 0.005561966429341269 0.02789515993295008 0.9931279585559742 -0.06585783675232233 0.0015515143882197753 0.013151103602883157 -0.001359956860455094 -0.008362087467581993
 0.9931279585559742 -0.06585783675232233 0.005551964261457145 0.02789588452342623 -0.0013612721459384536 -0.008362013955846528 0.0016095806964108133 0.013143433556973698
 0.0015515143882197753 0.013151103602883157 -0.0013612721459384536 -0.008362013955846528 0.0055612611140539074 0.027896693964778358 0.9931280230285644 -0.06585632864097969
 -0.001359956860455094 -0.008362087467581993 0.0016095806964108133 0.013143433556973698 0.9931280230285644 -0.06585632864097969 0.005552786574809152 0.027897305910055667
0.11879949979160001 0.005925298832419812 0.02958617138178233 0.9926498961226776 -0.06963511793782237 0.001702227256470909 0.01388505037301489 -0.0014912289140749753 -0.008831902262090458
 0.9926498961226776 -0.06963511793782237 0.005914155527833957 0.029586973331033245 -0.0014926903483387529 -0.008831812675241727 0.001766966241898804 0.01387630624504589
 0.001702227256470909 0.01388505037301489 -0.0014926903483387529 -0.008831812675241727 0.005924512400978297 0.029587792159796948 0.9926499678564479 -0.06963352511173371
 -0.0014912289140749753 -0.008831902262090458 0.001766966241898804 0.01387630624504589 0.9926499678564479 -0.06963352511173371 0.005915071097958414 0.029588466589217446
0.1250521050438 0.006303918409403826 0.03129041304476019 0.9921521779619972 -0.07342435914524886 0.0018604657380713267 0.014618753953000562 -0.0016291145294822474 -0.009301620746265147
 0.9921521779619972 -0.07342435914524886 0.006291572081609022 0.031291297301677116 -0.0016307294158376146 -0.00930151330488067 0.001932244688907017 0.01460883857229282
 0.0018604657380713267 0.014618753953000562 -0.0016307294158376146 -0.00930151330488067 0.0063030464061288064 0.03129212085459784 0.9921522573794396 -0.07342268142281591
 -0.0016291145294822474 -0.009301620746265147 0.001932244688907017 0.01460883857229282 0.9921522573794396 -0.07342268142281591 0.006292585863437333 0.031292861289795665
0.131304710296 0.0066980604321726185 0.03300767539418644 0.9916345724526434 -0.07722540385848652 0.0020262872890873082 0.015352111088011877 -0.0017736727428923236 -0.00977113869076124
 0.9916345724526434 -0.07722540385848652 0.006684449103947688 0.03300864707638725 -0.001775448326830552 -0.009771011538149832 0.002105473943105097 0.015340922693667944
 0.0020262872890873082 0.015352111088011877 -0.001775448326830552 -0.009771011538149832 0.006697098394315658 0.03300947053700995 0.9916346599835184 -0.07722364105125659
 -0.0017736727428923236 -0.00977113869076124 0.002105473943105097 0.015340922693667944 0.9916346599835184 -0.07722364105125659 0.006685566040620838 0.03301028058502507
0.1375573155481 0.0070133780833603054 0.034513341696528844 0.9911914611588908 -0.08081359252764075 0.0021771717561149995 0.01606197838269006 -0.0019022918197358978 -0.010217386019116441
 0.9911914611588908 -0.08081359252764075 0.006998436008680387 0.03451438627231863 -0.0019042388099752845 -0.01021723917773522 0.0022639480184471804 0.016049540549048703
 0.0021771717561149995 0.01606197838269006 -0.0019042388099752845 -0.01021723917773522 0.00701232216330883 0.03451522455856623 0.9911915571728117 -0.08081174453507176
 -0.0019022918197358978 -0.010217386019116441 0.0022639480184471804 0.016049540549048703 0.9911915571728117 -0.08081174453507176 0.006999660533366935 0.0345160881610487
0.1438099208003 0.007339648060632722 0.03601179888388269 0.990733045769772 -0.0843934228303391 0.002334138520732665 0.016769471107274808 -0.002036069050085247 -0.010661415672442477
 0.990733045769772 -0.0843934228303391 0.007323312572340377 0.0360129202609346 -0.002038195233084534 -0.010661247333373416 0.00242883913462394 0.01675569152804389
 0.002334138520732665 0.016769471107274808 -0.002038195233084534 -0.010661247333373416 0.007338493896920103 0.03601376977260668 0.9907331506948007 -0.08439148946995526
 -0.002036069050085247 -0.010661415672442477 0.00242883913462394 0.01675569152804389 0.9907331506948007 -0.08439148946995526 0.007324649519887077 0.03601468928053464
0.1500625260525 0.007676765444155913 0.03750294330405896 0.9902594346945559 -0.08796482797458446 0.002497138665145158 0.017474533538896185 -0.002174955986265447 -0.011103172763903034
 0.9902594346945559 -0.08796482797458446 0.00765897376715136 0.03750414560709107 -0.002177269134890579 -0.01110298104586905 0.0026000966404148215 0.017459316557532245
 0.002497138665145158 0.017474533538896185 -0.002177269134890579 -0.01110298104586905 0.007675508675413321 0.03750500254267039 0.9902595489644908 -0.08796280905369845
 -0.002174955986265447 -0.011103172763903034 0.0026000966404148215 0.017459316557532245 0.9902595489644908 -0.08796280905369845 0.007660427955378713 0.03750598046124027
0.15631513130469998 0.00802462468422768 0.03898667454132261 0.9897707367686055 -0.09152774097639459 0.0026661227599407158 0.018177110804970493 -0.002318903644187192 -0.011542603491898543
