! Created with skrf 1.8.0 (http://scikit-rf.org).
# GHz S RI R 50.0 
!freq ReS11 ImS11 ReS12 ImS12 ReS13 ImS13
! ReS14 ImS14
! ReS21 ImS21 ReS22 ImS22 ReS23 ImS23
! ReS24 ImS24
! ReS31 ImS31 ReS32 ImS32 ReS33 ImS33
! ReS34 ImS34
! ReS41 ImS41 ReS42 ImS42 ReS43 ImS43
! ReS44 ImS44
!
0.0 0.001534815197172 0.0 0.9984651847744 0.0 5.960082183373e-05 0.0 -5.960082094531e-05 7.298995459722842e-21
 0.9984651847744 0.0 0.001534815197164 0.0 -5.960082094529e-05 7.298995459720393e-21 5.96008218333e-05 0.0
 5.960082183373e-05 0.0 -5.960082094529e-05 7.298995459720393e-21 0.001534815211366 0.0 0.9984651847886 0.0
 -5.960082094531e-05 7.298995459722842e-21 5.96008218333e-05 0.0 0.9984651847886 0.0 0.001534815211364 0.0
0.005 0.00165139635043826 0.001247926817495137 0.9983176636629228 -0.003215468120078257 8.471368123486646e-05 0.0007032043413363479 -8.195318944940964e-05 -0.00043327859744194964
 0.9983176636629228 -0.003215468120078257 0.0016514135594857095 0.0012479168183378798 -8.195190489753774e-05 -0.0004332777003925251 8.460926501248505e-05 0.0007032440968304505
 8.471368123486646e-05 0.0007032043413363479 -8.195190489753774e-05 -0.0004332777003925251 0.0016513962064131644 0.0012478596794198741 0.9983176632919041 -0.003215535187276336
 -8.195318944940964e-05 -0.00043327859744194964 8.460926501248505e-05 0.0007032440968304505 0.9983176632919041 -0.003215535187276336 0.0016514129676621317 0.0012478498281267006
0.006252605252188 0.0016819654858944788 0.0015648540758798955 0.9982787322944267 -0.004020125732187371 9.190092557558824e-05 0.0008793238653907934 -8.826943721244467e-05 -0.0005421693225478584
 0.9982787322944267 -0.004020125732187371 0.0016819923864172738 0.0015648413841760048 -8.826743762767826e-05 -0.0005421682183646164 9.173778472274081e-05 0.0008793754858142206
 9.190092557558824e-05 0.0008793238653907934 -8.826743762767826e-05 -0.0005421682183646164 0.0016819653597242921 0.0015647701742983057 0.9982787318136614 -0.004020209555281131
 -8.826943721244467e-05 -0.0005421693225478584 9.173778472274081e-05 0.0008793754858142206 0.9982787318136614 -0.004020209555281131 0.0016819915611703009 0.001564757653116917
0.01250521050438 0.0018428502298297803 0.0031627799926706047 0.9980724533517104 -0.008041100900592055 0.00013318368685115626 0.001758858983419364 -0.00012413567074974304 -0.0010870136492070988
 0.9980724533517104 -0.008041100900592055 0.0018429576381770124 0.0031627526759201753 -0.00012412778174706083 -0.0010870116296743432 0.000132533111953698 0.0017589829953954235
 0.00013318368685115626 0.001758858983419364 -0.00012412778174706083 -0.0010870116296743432 0.0018428502601565465 0.003162612555515723 0.9980724519719028 -0.008041268302144328
 -0.00012413567074974304 -0.0010870136492070988 0.000132533111953698 0.0017589829953954235 0.9980724519719028 -0.008041268302144328 0.0018429548937385287 0.0031625854354633905
0.01875781575657 0.0020178208974685106 0.004783660370699095 0.9978460916772489 -0.012072720114890896 0.00018354319471166017 0.0026392448597872837 -0.00016731112175761767 -0.0016336845981145887
 0.9978460916772489 -0.012072720114890896 0.002018062237604204 0.0047836163737579275 -0.0001672935166290884 -0.001633681891412843 0.0001820817326459435 0.002639466081482271
 0.00018354319471166017 0.0026392448597872837 -0.0001672935166290884 -0.001633681891412843 0.0020178213754516398 0.004783409629272085 0.9978460889965137 -0.012072971035202927
 -0.00016731112175761767 -0.0016336845981145887 0.0001820817326459435 0.002639466081482271 0.9978460889965137 -0.012072971035202927 0.002018056514678792 0.00478336570908933
0.02501042100875 0.0022072185396305455 0.006425209002479334 0.9975993809204513 -0.016116936182256476 0.00024307542423118977 0.0035205285413475976 -0.0002179035126414999 -0.0021819202299343753
 0.9975993809204513 -0.016116936182256476 0.0022076471233978593 0.006425146167480347 -0.00021787240639581943 -0.002181917107236452 0.00024047948978630641 0.0035208756972102463
 0.00024307542423118977 0.0035205285413475976 -0.00021787240639581943 -0.002181917107236452 0.002207219746111422 0.006424875201765855 0.9975993765314829 -0.01611727059909198
 -0.0002179035126414999 -0.0021819202299343753 0.00024047948978630641 0.0035208756972102463 0.9975993765314829 -0.01611727059909198 0.0022076373740992326 0.006424812174186205
0.03126302626094 0.0024113700463145 0.008086247991426945 0.9973320411611883 -0.02017458294651744 0.0003118770307978045 0.0044026703931929045 -0.0002760173842551025 -0.0027315392108742697
 0.9973320411611883 -0.02017458294651744 0.002412039103626187 0.008086164061712751 -0.00027596902646126264 -0.0027315359868583505 0.00030782260636849824 0.004403176136581438
 0.0003118770307978045 0.0044026703931929045 -0.00027596902646126264 -0.0027315359868583505 0.002411372253303627 0.008085831398682315 0.9973320346507734 -0.020175000866938908
 -0.0002760173842551025 -0.0027315392108742697 0.00030782260636849824 0.004403176136581438 0.9973320346507734 -0.020175000866938908 0.0024120242918103992 0.00808574685397707
0.037515631513130004 0.002630595169679674 0.009766008297657308 0.9970437861564806 -0.024246074683534926 0.0003900442802274243 0.005285596650240842 -0.0003417549168256362 -0.0032823882586034895
 0.9970437861564806 -0.024246074683534926 0.002631557869366679 0.009765900919796731 -0.0003416855881270495 -0.003282385291688478 0.0003842067812676549 0.005286297602869446
 0.0003900442802274243 0.005285596650240842 -0.0003416855881270495 -0.003282385291688478 0.0026305986484028167 0.009765509208330112 0.9970437771115258 -0.024246576138324993
 -0.0003417549168256362 -0.0032823882586034895 0.0003842067812676549 0.005286297602869446 0.9970437771115258 -0.024246576138324993 0.002631536977033088 0.009765400636087357
0.043768236765320004 0.0028652092481077788 0.011463916876225973 0.9967343262917042 -0.028331618894957153 0.000477672550246478 0.006169215404858456 -0.00041521622638710567 -0.0038343261561464433
 0.9967343262917042 -0.028331618894957153 0.002866518714725766 0.011463783601051105 -0.0004151222364335605 -0.003834323848600929 0.0004697267620178798 0.006170152201465962
 0.000477672550246478 0.006169215404858456 -0.0004151222364335605 -0.003834323848600929 0.002865214266394046 0.011463335610624008 0.9967343142953609 -0.028332203942187485
 -0.00041521622638710567 -0.0038343261561464433 0.0004697267620178798 0.006170152201465962 0.9967343142953609 -0.028332203942187485 0.0028664907389623745 0.01146320040069654
0.050020842017509996 0.0031155244634090756 0.013179508702849353 0.9964033700691547 -0.032431304212496515 0.000574856036648406 0.0070534232054356855 -0.0004964994719793299 -0.0043872171579590795
 0.9964033700691547 -0.032431304212496515 0.0031172337915140107 0.013179346986252725 -0.0004963771582210903 -0.004387215956014039 0.0005644760880959748 0.007054640540613353
 0.000574856036648406 0.0070534232054356855 -0.0004963771582210903 -0.004387215956014039 0.0031155312869945596 0.013178845613088953 0.9964033547000205 -0.03243197293096802
 -0.0004964994719793299 -0.0043872171579590795 0.0005644760880959748 0.007054640540613353 0.9964033547000205 -0.03243197293096802 0.0031171977446768227 0.013178681056173817
0.055454545454549996 0.0033460477765411482 0.014684458993971281 0.9960980742555816 -0.03600555070558822 0.0006671435494444022 0.007822218340054471 -0.0005735642297403186 -0.0048683665126450565
 0.9960980742555816 -0.03600555070558822 0.0033481477026070603 0.014684270421178043 -0.0005734143482748961 -0.004868366668088991 0.0006543830826147316 0.007823718958191367
 0.0006671435494444022 0.007822218340054471 -0.0005734143482748961 -0.004868366668088991 0.0033460563841512343 0.014683725114929597 0.9960980556098958 -0.036006292209338944
 -0.0005735642297403186 -0.0048683665126450565 0.0006543830826147316 0.007823718958191367 0.9960980556098958 -0.036006292209338944 0.0033481038523056764 0.014683532777371883
0.056273447269699996 0.0033818504861844083 0.014912383594258517 0.9960506249883457 -0.036545143509252954 0.0006816875438192011 0.007938108308236989 -0.0005857008836334158 -0.004940927746446028
 0.9960506249883457 -0.036545143509252954 0.0033840127539153378 0.014912190797353071 -0.0005855466105063526 -0.004940928140362099 0.0006685469047693331 0.007939654984131891
 0.0006816875438192011 0.007938108308236989 -0.0005855466105063526 -0.004940928140362099 0.0033818593799536975 0.014911639073778397 0.9960506058207178 -0.03654589598907407
 -0.0005857008836334158 -0.004940927746446028 0.0006685469047693331 0.007939654984131891 0.9960506058207178 -0.03654589598907407 0.003383967664615783 0.014911442361531427
0.06252605252188 0.0036644948210271633 0.016662182485233906 0.9956757981312903 -0.04067309755705349 0.0007982583239556599 0.008823152449543447 -0.0006829147441006541 -0.005495324872211125
 0.9956757981312903 -0.04067309755705349 0.0036671631031750403 0.016661955874150064 -0.0006827249026295347 -0.005495327396349559 0.0007820298168714095 0.008825081423951772
 0.0007982583239556599 0.008823152449543447 -0.0006827249026295347 -0.005495327396349559 0.0036645060495464087 0.016661356954912415 0.9956757747333554 -0.040673933913800434
 -0.0006829147441006541 -0.005495324872211125 0.0007820298168714095 0.008825081423951772 0.9956757747333554 -0.040673933913800434 0.0036671080155833203 0.01666112517968622
0.06877865777407 0.003963762985127564 0.018428573262352654 0.995278596583341 -0.04481508913095722 0.0009246579372065355 0.009708431921312877 -0.0007882333498489904 -0.006050274895245013
 0.995278596583341 -0.04481508913095722 0.0039669903650339285 0.018428310007750266 -0.000788004357281663 -0.006050280128123713 0.00090501375981437 0.009710800355758975
 0.0009246579372065355 0.009708431921312877 -0.000788004357281663 -0.006050280128123713 0.003963776814030743 0.01842766718199167 0.9952785685175243 -0.044816009494339656
 -0.0007882333498489904 -0.006050274895245013 0.00090501375981437 0.009710800355758975 0.9952785685175243 -0.044816009494339656 0.003966924340549909 0.018427397336163633
0.07503126302626001 0.004279958589476933 0.020211241804834492 0.9948587277622418 -0.0489710119111729 0.001060974128174886 0.010593818249251553 -0.0009017469552346342 -0.006605642928344896
 0.9948587277622418 -0.0489710119111729 0.004283798171918702 0.020210938980874754 -0.0009014752550583789 -0.006605651492683754 0.0010375858840532288 0.01059668755688812
 0.001060974128174886 0.010593818249251553 -0.0009014752550583789 -0.006605651492683754 0.004279975286895025 0.020210255666256633 0.9948586945845871 -0.04897201643204422
 -0.0009017469552346342 -0.006605642928344896 0.0010375858840532288 0.01059668755688812 0.9948586945845871 -0.04897201643204422 0.004283720289049125 0.020209944641326954
0.08128386827845 0.004613383361153974 0.022009886010894424 0.9944158996908186 -0.05314073640430292 0.0012072927113095213 0.011479178649934509 -0.001023543707363327 -0.007161292406395145
 0.9944158996908186 -0.05314073640430292 0.004617888283994741 0.02200954059402682 -0.001023225769220085 -0.007161304969163172 0.0011798314465125092 0.011482614543102985
 0.0012072927113095213 0.011479178649934509 -0.001023225769220085 -0.007161304969163172 0.004613403198003561 0.022008820344448576 0.9944158609498376 -0.05314182524827989
 -0.001023543707363327 -0.007161292406395145 0.0011798314465125092 0.011482614543102985 0.9944158609498376 -0.05314182524827989 0.004617797638769799 0.022008464929606147
0.08753647353064001 0.004964337121596482 0.023824211678442023 0.9939498212298163 -0.05732411401552531 0.0013636974609515407 0.012364376355937888 -0.0011537095750064905 -0.007717084792673514
 0.9939498212298163 -0.05732411401552531 0.0049695605682572785 0.023823820545576312 -0.001153341894836019 -0.007717102065114403 0.0013318337059632034 0.012368448893245905
 0.0013636974609515407 0.012364376355937888 -0.001153341894836019 -0.007717102065114403 0.004964360372735551 0.023823067047826656 0.9939497764660058 -0.0573252873681466
 -0.0011537095750064905 -0.007717084792673514 0.0013318337059632034 0.012368448893245905 0.9939497764660058 -0.0573252873681466 0.004969456274480092 0.023822663928200975
0.09378907878283 0.00533311773916225 0.02565392955402894 0.9934602022881571 -0.06152097995797159 0.0015302700067885535 0.013249270852525223 -0.0012923282715804497 -0.008272879378856537
 0.9934602022881571 -0.06152097995797159 0.005339112950405747 0.025653489480492783 -0.0012919073717549384 -0.00827290211651293 0.0014936738223694933 0.013254054485383297
 0.0015302700067885535 0.013249270852525223 -0.0012919073717549384 -0.00827290211651293 0.00533314468463004 0.025652706560726768 0.9934601510332917 -0.061522238020365064
 -0.0012923282715804497 -0.008272879378856537 0.0014936738223694933 0.013254054485383297 0.9934601510332917 -0.061522238020365064 0.005338994140525341 0.025652252315270824
0.100041684035 0.005720021060068427 0.027498753178554606 0.99294675401516 -0.06573115537128296 0.0017070897307551681 0.014133718057184138 -0.001439481175443631 -0.00882853314753273
 0.99294675401516 -0.06573115537128296 0.00572684134649843 0.027498260835474474 -0.0014390036050074483 -0.008828562150264736 0.0016654307576632525 0.01413929167574294
 0.0017070897307551681 0.014133718057184138 -0.0014390036050074483 -0.008828562150264736 0.005720051986116569 0.027497452458085818 0.9929466957919478 -0.06573249836379791
 -0.001439481175443631 -0.00882853314753273 0.0016654307576632525 0.01413929167574294 0.9929466957919478 -0.06573249836379791 0.005726707171928385 0.027496943556994245
0.1059090909091 0.006099832881125701 0.029243408855526506 0.9924430086971306 -0.06969389298099808 0.0018824046351493713 0.01496313979386096 -0.0015854007055307096 -0.009349697692102902
 0.9924430086971306 -0.06969389298099808 0.006107475971238078 0.02924286434009276 -0.001584866841129472 -0.00934973334088775 0.0018356939859704728 0.014969530473634285
 0.0018824046351493713 0.01496313979386096 -0.001584866841129472 -0.00934973334088775 0.006099867809207017 0.02924203580945595 0.992442943491524 -0.06969531588415731
 -0.0015854007055307096 -0.009349697692102902 0.0018356939859704728 0.014969530473634285 0.992442943491524 -0.06969531588415731 0.0061073266239573265 0.02924147231002675
0.1062942892872 0.006125340825697124 0.02935839726729903 0.9924091889823174 -0.06995444891173276 0.0018942336664574514 0.015017570465695388 -0.0015952472470740534 -0.009383900673678842
 0.9924091889823174 -0.06995444891173276 0.006133039579747998 0.02935784921869416 -0.0015947095820095885 -0.00938393678566649 0.0018471811781875735 0.015024017444038602
 0.0018942336664574514 0.015017570465695388 -0.0015947095820095885 -0.00938393678566649 0.0061253760256172116 0.029357019493566994 0.9924091233029364 -0.06995587706956746
 -0.0015952472470740534 -0.009383900673678842 0.0018471811781875735 0.015024017444038602 0.9924091233029364 -0.06995587706956746 0.006132889211166623 0.02935645229528497
0.11254689453939999 0.006549368577078582 0.031232576473343893 0.9918472213546788 -0.07419065796520187 0.002091776399766237 0.015900677269040757 -0.0017597029443130303 -0.009938834060987221
 0.9918472213546788 -0.07419065796520187 0.006557999285083535 0.031231969172704568 -0.0017591017877944925 -0.009938878170720146 0.002038999358130161 0.01590808550961137
 0.002091776399766237 0.015900677269040757 -0.0017591017877944925 -0.009938878170720146 0.0065494083525591395 0.031231122354574585 0.991847147721188 -0.07419217154232244
 -0.0017597029443130303 -0.009938834060987221 0.002038999358130161 0.01590808550961137 0.991847147721188 -0.07419217154232244 0.0065578319135718224 0.031230493102467827
0.11879949979160001 0.006992393550942346 0.03312100442735391 0.9912605670584127 -0.07843956959033502 0.002299789970279393 0.01678288445373224 -0.0019329221359621932 -0.010493182900374003
 0.9912605670584127 -0.07843956959033502 0.0070020098059722854 0.033120334213696645 -0.0019322541187811386 -0.010493235940651834 0.0022409570837249333 0.016791346431015586
 0.002299789970279393 0.01678288445373224 -0.0019322541187811386 -0.010493235940651834 0.0069924382130667154 0.0331194747073852 0.9912604849611947 -0.07844116885802652
 -0.0019329221359621932 -0.010493182900374003 0.0022409570837249333 0.016791346431015586 0.9912604849611947 -0.07844116885802652 0.0070018246430540755 0.03311877952579227
0.1250521050438 0.0074547025696507585 0.0350233929795871 0.990648943942251 -0.08270096126586848 0.002518343773670887 0.017664034892345713 -0.002114976014469359 -0.011046794244340566
 0.990648943942251 -0.08270096126586848 0.007465358083433119 0.03502265607322566 -0.002114237795320849 -0.011046857192224388 0.002453123557682171 0.017673647695570047
 0.002518343773670887 0.017664034892345713 -0.002114237795320849 -0.011046857192224388 0.007454752439775175 0.03502178843926084 0.9906488528595992 -0.08270264651110532
 -0.002114976014469359 -0.011046794244340566 0.002453123557682171 0.017673647695570047 0.9906488528595992 -0.08270264651110532 0.007465154361691836 0.03502102332930573
0.131304710296 0.007936579923592504 0.03693945160062882 0.9900120719369099 -0.0869746014862237 0.0027475044649136345 0.01854396842178434 -0.0023059330069752112 -0.011599512599383653
 0.9900120719369099 -0.0869746014862237 0.007948328539276432 0.03693864409825433 -0.0023051212728652723 -0.011599586476164218 0.0026755653049446793 0.018554833796750617
 0.0027475044649136345 0.01854396842178434 -0.0023051212728652723 -0.011599586476164218 0.007936635334695904 0.03693777305694131 0.9900119713344462 -0.08697637301231469
 -0.0023059330069752112 -0.011599512599383653 0.0026755653049446793 0.018554833796750617 0.9900119713344462 -0.08697637301231469 0.007948105513016328 0.03693693389164827
0.1375573155481 0.008328030491450011 0.03861715693913484 0.9894599912158074 -0.0910084121230552 0.0029589315182994053 0.019396876667626673 -0.002477542716815971 -0.012125493450553984
 0.9894599912158074 -0.0910084121230552 0.008340930914469412 0.03861629300386047 -0.002476652817132782 -0.01212557835061787 0.002880107693050725 0.019408978951086547
 0.0029589315182994053 0.019396876667626673 -0.002476652817132782 -0.01212557835061787 0.008328092698080753 0.03861540455739861 0.9894598806536969 -0.09101027010671438
 -0.002477542716815971 -0.012125493450553984 0.002880107693050725 0.019408978951086547 0.9894598806536969 -0.09101027010671438 0.008340686748731634 0.03861450638600328
0.1438099208003 0.008733237759100784 0.04028589420073162 0.9888884898398311 -0.0950319025000158 0.0031789220577902615 0.02024632905147497 -0.002656031983629671 -0.012648349343717407
 0.9888884898398311 -0.0950319025000158 0.008747344770926256 0.04028497100425009 -0.0026550604047894904 -0.012648446264911859 0.003092911741643034 0.02025976128736641
 0.0031789220577902615 0.02024632905147497 -0.0026550604047894904 -0.012648446264911859 0.008733307277833672 0.0402840687697141 0.9888883687846306 -0.09503384723932852
 -0.002656031983629671 -0.012648349343717407 0.003092911741643034 0.02025976128736641 0.9888883687846306 -0.09503384723932852 0.008747078553477198 0.04028310865581969
0.1500625260525 0.009152057373022764 0.04194552095257304 0.9882977162877867 -0.09904497004691074 0.00340740075978887 0.021092237930356535 -0.0028413282892862618 -0.013167998428577462
 0.9882977162877867 -0.09904497004691074 0.009167425912246502 0.04194453547761857 -0.002840271528660562 -0.013168108408361422 0.0033139039220117725 0.02110709655592601
 0.00340740075978887 0.021092237930356535 -0.002840271528660562 -0.013168108408361422 0.009152134742562885 0.04194362329083135 0.9882975841951899 -0.09904700185011851
 -0.0028413282892862618 -0.013167998428577462 0.0033139039220117725 0.02110709655592601 0.9882975841951899 -0.09904700185011851 0.009167136738707823 0.04194259810916474
0.15631513130469998 0.009584343929589616 0.04359589906614461 0.9876878198218132 -0.10304751261238962 0.0036442914013991453 0.021934517137695436 -0.0030333582122066887 -0.013684360598487558
