! Created with skrf 1.8.0 (http://scikit-rf.org).
# GHz S RI R 50.0 
!freq ReS11 ImS11 ReS12 ImS12 ReS13 ImS13
! ReS14 ImS14
! ReS21 ImS21 ReS22 ImS22 ReS23 ImS23
! ReS24 ImS24
! ReS31 ImS31 ReS32 ImS32 ReS33 ImS33
! ReS34 ImS34
! ReS41 ImS41 ReS42 ImS42 ReS43 ImS43
! ReS44 ImS44
!
0.0 0.001420212179488 0.0 0.9985797878205 0.0 5.47955929954e-05 0.0 -5.479559311656e-05 6.710524771757595e-21
 0.9985797878205 0.0 0.001420212179552 0.0 -5.479559311835e-05 6.7105247719768064e-21 5.479559299529e-05 0.0
 5.47955929954e-05 0.0 -5.479559311835e-05 6.7105247719768064e-21 0.001420212156168 0.0 0.9985797877971 0.0
 -5.479559311656e-05 6.710524771757595e-21 5.479559299529e-05 0.0 0.9985797877971 0.0 0.001420212156134 0.0
0.005 0.0015277576682911885 0.0011579291487729818 0.9984437816578431 -0.002975630585928805 7.71391330501177e-05 0.0006287066832573584 -7.486038263063713e-05 -0.000390321002051995
 0.9984437816578431 -0.002975630585928805 0.0015277432658071834 0.0011579374725109834 -7.486158662000182e-05 -0.00039032184587516386 7.723596736164671e-05 0.0006286699922029347
 7.71391330501177e-05 0.0006287066832573584 -7.486158662000182e-05 -0.00039032184587516386 0.0015277577979615653 0.0011579962698782058 0.9984437820034645 -0.0029755635372734897
 -7.486038263063713e-05 -0.000390321002051995 7.723596736164671e-05 0.0006286699922029347 0.9984437820034645 -0.0029755635372734897 0.0015277438250163654 0.001158004447899825
0.006252605252188 0.0015558696796081637 0.0014519993074285174 0.9984080232500998 -0.0037202830299517607 8.345070677887079e-05 0.0007861837916247521 -8.048280156926553e-05 -0.0004884174362762212
 0.9984080232500998 -0.0037202830299517607 0.0015558471661867503 0.0014520098328843457 -8.048467573066225e-05 -0.0004884184751846935 8.360200428898765e-05 0.0007861361414660208
 8.345070677887079e-05 0.0007861837916247521 -8.048467573066225e-05 -0.0004884184751846935 0.0015558698100988384 0.0014520832151136316 0.9984080237178447 -0.0037201992056542445
 -8.048280156926553e-05 -0.0004884174362762212 8.360200428898765e-05 0.0007861361414660208 0.9984080237178447 -0.0037201992056542445 0.0015558479673160174 0.0014520935716429782
0.01250521050438 0.0017033104057821754 0.002934711623665123 0.9982193242714968 -0.007441488316419782 0.00011926754934988972 0.0015727021684305727 -0.00011215500080139087 -0.000979289939996034
 0.9982193242714968 -0.007441488316419782 0.0017032205175004026 0.0029347338750787765 -0.00011216239491563643 -0.0009792918439231067 0.00011987096882617432 0.0015725877125948079
 0.00011926754934988972 0.0015727021684305727 -0.00011216239491563643 -0.0009792918439231067 0.001703310379222214 0.002934879098525184 0.9982193255842923 -0.0074413209324391836
 -0.00011215500080139087 -0.000979289939996034 0.00011987096882617432 0.0015725877125948079 0.9982193255842923 -0.0074413209324391836 0.0017032231529224993 0.0029349011447551455
0.01875781575657 0.0018628366787999486 0.004438799051707428 0.998013470248269 -0.011172697706626402 0.00016232668022355206 0.002360124965222021 -0.0001499060782580602 -0.0014718895689895422
 0.998013470248269 -0.011172697706626402 0.00186263471370117 0.004438834295183817 -0.0001499225790694548 -0.0014718921302069234 0.00016368238837251046 0.002359921056281504
 0.00016232668022355206 0.002360124965222021 -0.0001499225790694548 -0.0014718921302069234 0.0018628362073182785 0.004439049934861673 0.9980134727723013 -0.011172446835919558
 -0.0001499060782580602 -0.0014718895689895422 0.00016368238837251046 0.002359921056281504 0.9980134727723013 -0.011172446835919558 0.0018626401921513758 0.0044390850699232215
0.02501042100875 0.0020347429962542848 0.005962168316648627 0.9977902324095831 -0.014915740013921541 0.0002127093516307032 0.0031485070777046435 -0.00019382709430182363 -0.001965998531007436
 0.9977902324095831 -0.014915740013921541 0.0020343843511852235 0.005962217865423255 -0.00019385624967778673 -0.0019660015045056198 0.00021511775657288414 0.0031481877002002456
 0.0002127093516307032 0.0031485070777046435 -0.00019385624967778673 -0.0019660015045056198 0.0020347418076629583 0.005962502446329438 0.9977902365184907 -0.01491540572141328
 -0.00019382709430182363 -0.001965998531007436 0.00021511775657288414 0.0031481877002002456 0.9977902365184907 -0.01491540572141328 0.0020343936771587056 0.005962552118282696
0.03126302626094 0.0022193115966219 0.007503752067661805 0.9975493696351606 -0.0186714096760923 0.00027049730152008404 0.003937828334716528 -0.00024400668365059602 -0.0024614693901637047
 0.9975493696351606 -0.0186714096760923 0.002218751741336501 0.007503817277727974 -0.0002440520093206862 -0.002461472493169181 0.0002742593368704076 0.003937364083715431
 0.00027049730152008404 0.003937828334716528 -0.0002440520093206862 -0.002461472493169181 0.002219309424041218 0.007504169288136182 0.9975493756999495 -0.01867099200943547
 -0.00024400668365059602 -0.0024614693901637047 0.0002742593368704076 0.003937364083715431 0.9975493756999495 -0.01867099200943547 0.0022187659061083517 0.007504234989891442
0.037515631513130004 0.0024168187368124546 0.009062861854514558 0.9972906349041304 -0.022440113720837568 0.00033577202438281263 0.00472803919560034 -0.00030053174385483405 -0.0029581793730693
 0.9972906349041304 -0.022440113720837568 0.00241601319607005 0.009062944122013123 -0.00030059672674284064 -0.002958182284832214 0.00034118928152915366 0.004727397240367131
 0.00033577202438281263 0.00472803919560034 -0.00030059672674284064 -0.002958182284832214 0.0024168153195951833 0.009063362022501537 0.9972906432956996 -0.022439612703748182
 -0.00030053174385483405 -0.0029581793730693 0.00034118928152915366 0.004727397240367131 0.9972906432956996 -0.022439612703748182 0.002416033180038479 0.009063445289383512
0.043768236765320004 0.0026275371255943918 0.010638991244119442 0.9970137778985615 -0.026222068584158816 0.0004086144354109495 0.005519074648647464 -0.0003634876846973001 -0.003456016467176848
 0.9970137778985615 -0.026222068584158816 0.0026264414647113542 0.010639092003486651 -0.00036357578486668725 -0.0034560188288527607 0.00041598923098522787 0.005518218691624792
 0.0004086144354109495 0.005519074648647464 -0.00036357578486668725 -0.0034560188288527607 0.0026275322091126687 0.010639574209523358 0.997013788987937 -0.026221484235463517
 -0.0003634876846973001 -0.003456016467176848 0.00041598923098522787 0.005518218691624792 0.997013788987937 -0.026221484235463517 0.002626468238237929 0.010639676617540948
0.050020842017509996 0.0028517370551591707 0.012231734437004161 0.9967185463064722 -0.030017381426990328 0.00048910466730271 0.006310859948172855 -0.00043295852779855757 -0.003954873680009856
 0.9967185463064722 -0.030017381426990328 0.0028503068675303366 0.01223185515957105 -0.0004330731796643132 -0.003954875094566171 0.0004987400763629752 0.006309750181980829
 0.00048910466730271 0.006310859948172855 -0.0004330731796643132 -0.003954875094566171 0.0028517303911817413 0.01223240004243244 0.9967185604659213 -0.03001671376094668
 -0.00043295852779855757 -0.003954873680009856 0.0004987400763629752 0.006309750181980829 0.9967185604659213 -0.03001671376094668 0.0028503413920843643 0.012232523206911022
0.055454545454549996 0.0030577307910893167 0.0136290998679265 0.9964468618033951 -0.033326502226120866 0.0005653256265805019 0.006999491051193835 -0.0004986859264172866 -0.004389142765120147
 0.9964468618033951 -0.033326502226120866 0.003055973838893303 0.013629239161896959 -0.0004988264223189517 -0.004389143004462152 0.0005771723100197002 0.006998125629705688
 0.0005653256265805019 0.006999491051193835 -0.0004988264223189517 -0.004389143004462152 0.0030577224102372336 0.01362983715947162 0.9964468789328328 -0.03332576215968986
 -0.0004986859264172866 -0.004389142765120147 0.0005771723100197002 0.006998125629705688 0.9964468789328328 -0.03332576215968986 0.0030560158723863576 0.013629979703616386
0.056273447269699996 0.003089686990419712 0.013840746329207301 0.99640468658512 -0.03382609000700818 0.0005773219294949517 0.007103313430795571 -0.0005090269351481744 -0.004454646220537747
 0.99640468658512 -0.03382609000700818 0.0030878778856864926 0.013840888522158486 -0.0005091715482284622 -0.004454646252697847 0.0005895217981790676 0.007101906494257754
 0.0005773219294949517 0.007103313430795571 -0.0005091715482284622 -0.004454646252697847 0.003089678335121339 0.013841494413234812 0.9964047041865763 -0.033825339029777586
 -0.0005090269351481744 -0.004454646220537747 0.0005895217981790676 0.007101906494257754 0.9964047041865763 -0.033825339029777586 0.003087921112781725 0.013841639987871086
0.06252605252188 0.003341653888742881 0.015465720554734991 0.9960719444569226 -0.03764818457137453 0.0006733443946040138 0.007896348059881939 -0.0005917742052853885 -0.004955229954601341
 0.9960719444569226 -0.03764818457137453 0.00333942148153865 0.015465885760349414 -0.0005919521646584903 -0.004955228130777185 0.0006884133391295001 0.007894596993581375
 0.0006733443946040138 0.007896348059881939 -0.0005919521646584903 -0.004955228130777185 0.003341643003087078 0.015466550949821302 0.9960719658737611 -0.03764735028302363
 -0.0005917742052853885 -0.004955229954601341 0.0006884133391295001 0.007894596993581375 0.9960719658737611 -0.03764735028302363 0.003339474354014444 0.015466720625914634
0.06877865777407 0.0036079033749129466 0.01710637638559579 0.9957200652647633 -0.0414836208943323 0.0007772491031249577 0.008689872346914701 -0.0006812802474651705 -0.005456520486011643
 0.9957200652647633 -0.0414836208943323 0.0036052032744530228 0.0171065661807456 -0.0006814949141277552 -0.005456516294253147 0.0007954924993600343 0.0086877265485358
 0.0007772491031249577 0.008689872346914701 -0.0006814949141277552 -0.005456516294253147 0.0036078900244537193 0.017107288915752798 0.9957200908712287 -0.0414827032909606
 -0.0006812802474651705 -0.005456520486011643 0.0007954924993600343 0.0086877265485358 0.9957200908712287 -0.0414827032909606 0.0036052667264444326 0.017107484421803987
0.07503126302626001 0.003888699831005203 0.018762450442373173 0.9953487942436194 -0.04533232850696305 0.0008891118760690499 0.00948379093924383 -0.000777623545391155 -0.005958412574173896
 0.9953487942436194 -0.04533232850696305 0.0038854876296986517 0.018762666438458444 -0.0007778782563014611 -0.0059584054641341555 0.0009108358418156461 0.009481196118897332
 0.0008891118760690499 0.00948379093924383 -0.0007778782563014611 -0.0059584054641341555 0.0038886837850498025 0.01876344492311362 0.9953488244157068 -0.045331327580638854
 -0.000777623545391155 -0.005958412574173896 0.0009108358418156461 0.009481196118897332 0.9953488244157068 -0.045331327580638854 0.00388556258726355 0.01876366802462387
0.08128386827845 0.004184306431523683 0.02043369115658184 0.9949578767420358 -0.049194216178455416 0.0010090072347032786 0.010278005006151133 -0.0008808811112755994 -0.006460799756515482
 0.9949578767420358 -0.049194216178455416 0.004180537694628354 0.02043393499959614 -0.0008811791794418904 -0.006460789139414641 0.001034518606647428 0.01027490314180281
 0.0010090072347032786 0.010278005006151133 -0.0008811791794418904 -0.006460789139414641 0.004184287462396281 0.020434767397931538 0.9949579118564227 -0.04919313191407778
 -0.0008808811112755994 -0.006460799756515482 0.001034518606647428 0.01027490314180281 0.9949579118564227 -0.04919313191407778 0.00418062507540019 0.02043501989752151
0.08753647353064001 0.004494985143165125 0.022119854963523006 0.9945470584095215 -0.05306917567006643 0.0011370083224984818 0.011072412519660657 -0.000991128435967036 -0.00696357407945349
 0.9945470584095215 -0.05306917567006643 0.004490615398062771 0.022120128334482486 -0.0009914731503899486 -0.0069635593280569655 0.0011666146287016238 0.0110687418127125
 0.0011370083224984818 0.011072412519660657 -0.0009914731503899486 -0.0069635593280569655 0.004494963026083658 0.022121012765845872 0.9945470988447765 -0.05306800804941233
 -0.000991128435967036 -0.00696357407945349 0.0011666146287016238 0.0110687418127125 0.9945470988447765 -0.05306800804941233 0.004490716111837233 0.02212129650362858
0.09378907878283 0.004820996699611046 0.02382070355979286 0.9941160853631884 -0.05695708442816842 0.0012731868310124645 0.011866908444539954 -0.0011084394334534074 -0.007466625923576536
 0.9941160853631884 -0.05695708442816842 0.0048159814251246755 0.023821008175485176 -0.0011088340590220927 -0.007466606372171687 0.001307196259684568 0.01186260327569195
 0.0012731868310124645 0.011866908444539954 -0.0011088340590220927 -0.007466606372171687 0.004820971211951157 0.023821942713945016 0.9941161314995425 -0.05695583342970249
 -0.0011084394334534074 -0.007466625923576536 0.001307196259684568 0.01186260327569195 0.9941161314995425 -0.05695583342970249 0.004816096373881886 0.023822259568234704
0.100041684035 0.005162600558887108 0.025536001908688592 0.9936647043390902 -0.060857807533220266 0.00141761292615145 0.01266138489226212 -0.001232886383452915 -0.007969843868364536
 0.9936647043390902 -0.060857807533220266 0.005156895174665639 0.02553633952263475 -0.0012333341607691569 -0.007969818812748834 0.0014563342913914072 0.01265637577765822
 0.00141761292615145 0.01266138489226212 -0.0012333341607691569 -0.007969818812748834 0.0051625714799847225 0.0255373221998727 0.993664756558746 -0.06085647312803332
 -0.001232886383452915 -0.007969843868364536 0.0014563342913914072 0.01265637577765822 0.993664756558746 -0.06085647312803332 0.005157025253093115 0.02553767408811204
0.1059090909091 0.005497570532867809 0.027158561549847166 0.993222345354223 -0.06452974719615051 0.0015607036881258082 0.013406800547620152 -0.0013562196164970258 -0.008442110692419551
 0.993222345354223 -0.06452974719615051 0.005491176946081299 0.027158931757940714 -0.0013567201966048538 -0.008442079796939185 0.001604128093919755 0.013401064179137574
 0.0015607036881258082 0.013406800547620152 -0.0013567201966048538 -0.008442079796939185 0.005497537884200616 0.027159957774281398 0.9932224036316747 -0.06452833449462242
 -0.0013562196164970258 -0.008442110692419551 0.001604128093919755 0.013401064179137574 0.9932224036316747 -0.06452833449462242 0.0054913220288746005 0.02716034431808489
0.1062942892872 0.005520054848067524 0.027265516731634014 0.9931926628335359 -0.0647711991665398 0.0015703551759284735 0.013455731232920168 -0.0013645398713428149 -0.008473114602645666
 0.9931926628335359 -0.0647711991665398 0.0055136147034174675 0.02726588913552644 -0.001365044016545695 -0.008473083300132894 0.0016140978805155469 0.013449944780723913
 0.0015703551759284735 0.013455731232920168 -0.001365044016545695 -0.008473083300132894 0.005520021958321161 0.027266917934870787 0.9931927215205966 -0.06476978132290216
 -0.0013645398713428149 -0.008473114602645666 0.0016140978805155469 0.013449944780723913 0.9931927215205966 -0.06476978132290216 0.005513760798575028 0.02726730681495263
0.11254689453939999 0.005893616297160762 0.029009015358807545 0.9926997092366638 -0.06869710372216599 0.001731480478853223 0.014249834188951456 -0.0015034687260429556 -0.00897632285696323
 0.9926997092366638 -0.06869710372216599 0.0058863966604441225 0.02900942438413617 -0.001504032430557111 -0.008976284526383351 0.0017805544749509403 0.014243193056251595
 0.001731480478853223 0.014249834188951456 -0.001504032430557111 -0.008976284526383351 0.005893579378019409 0.02901049723881634 0.9926997747777845 -0.06869560240556837
 -0.0015034687260429556 -0.00897632285696323 0.0017805544749509403 0.014243193056251595 0.9926997747777845 -0.06869560240556837 0.005886559652521181 0.029010925110643133
0.11879949979160001 0.006283540165645972 0.030766264827422556 0.9921855929611662 -0.0726353566753155 0.0019010539926891585 0.015043577912753164 -0.0016497399568486434 -0.009479351355881748
 0.9921855929611662 -0.0726353566753155 0.006275496213034076 0.030766712347522134 -0.0016503663870932998 -0.009479305177605429 0.00195576973999008 0.015036000762955656
 0.0019010539926891585 0.015043577912753164 -0.0016503663870932998 -0.009479305177605429 0.006283498998482123 0.03076782714115457 0.9921856657449919 -0.0726337718458918
 -0.0016497399568486434 -0.009479351355881748 0.00195576973999008 0.015036000762955656 0.9921856657449919 -0.0726337718458918 0.006275676975119134 0.030768296048531256
0.1250521050438 0.006690080162824533 0.03253703117559522 0.9916500645667178 -0.07658578525957216 0.00207913906356936 0.015836844050463515 -0.0018034186886301945 -0.009982080787982068
 0.9916500645667178 -0.07658578525957216 0.006681166967191854 0.032537519107989965 -0.0018041109857573154 -0.009982025903940003 0.0021398074857689755 0.01582824551123842
 0.00207913906356936 0.015836844050463515 -0.0018041109857573154 -0.009982025903940003 0.006690034528859302 0.03253867367235047 0.9916501449848883 -0.07658411687198168
 -0.0018034186886301945 -0.009982080787982068 0.0021398074857689755 0.01582824551123842 0.9916501449848883 -0.07658411687198168 0.006681366365691465 0.03253918570527687
0.131304710296 0.007113488362708708 0.03432107887396378 0.9910928758824064 -0.08054820901102895 0.00226579715523296 0.016629511800696495 -0.0019645680965353347 -0.010484389785039808
 0.9910928758824064 -0.08054820901102895 0.007103660882458044 0.03432160918313053 -0.001965329376084537 -0.010484325298763905 0.002332729594336771 0.016619802422381407
 0.00226579715523296 0.016629511800696495 -0.001965329376084537 -0.010484325298763905 0.007113438042542775 0.03432280129430212 0.9910929643291692 -0.0805464570154461
 -0.0019645680965353347 -0.010484389785039808 0.002332729594336771 0.016619802422381407 0.9910929643291692 -0.0805464570154461 0.007103879777265191 0.03432335859157355
0.1375573155481 0.007454193352726443 0.03588428667038905 0.990613638248389 -0.08428845848292567 0.002436393306040892 0.017397362816206366 -0.0021084764483548465 -0.010962128885913571
 0.990613638248389 -0.08428845848292567 0.0074434016165250425 0.03588485029482597 -0.0021093110737961866 -0.010962054763392114 0.0025097399368941295 0.017386560763068014
 0.002436393306040892 0.017397362816206366 -0.0021093110737961866 -0.010962054763392114 0.007454137219036442 0.03588608931444793 0.9906137350869527 -0.08428662288620636
 -0.0021084764483548465 -0.010962128885913571 0.0025097399368941295 0.017386560763068014 0.9906137350869527 -0.08428662288620636 0.007443641831752806 0.03588668196377964
0.1438099208003 0.007806787067244751 0.03743970835964943 0.990117734455841 -0.08801970425197027 0.0026138785095596953 0.01816250064831009 -0.0022581608342030265 -0.011437344578349986
 0.990117734455841 -0.08801970425197027 0.007794985080256231 0.037440306700202416 -0.002259072109233002 -0.011437259948696724 0.0026939221180614543 0.018150524583134032
 0.0026138785095596953 0.01816250064831009 -0.002259072109233002 -0.011437259948696724 0.0078067247348913085 0.03744159102121255 0.990117840077426 -0.08801778501383227
 -0.0022581608342030265 -0.011437344578349986 0.0026939221180614543 0.018150524583134032 0.990117840077426 -0.08801778501383227 0.007795247642588154 0.03744222048860345
0.1500625260525 0.008171152047778454 0.03898722777127942 0.9896052857362122 -0.09174186808708223 0.0027981956305018194 0.018924859934892554 -0.002413564899329532 -0.011909972908110307
 0.9896052857362122 -0.09174186808708223 0.008158293667745883 0.03898786234281701 -0.0024145561181708845 -0.011909876866060142 0.0028852175312403102 0.018911625551863553
 0.0027981956305018194 0.018924859934892554 -0.0024145561181708845 -0.011909876866060142 0.008171083120093235 0.038989190242119165 0.9896054005344241 -0.09173986516219124
 -0.002413564899329532 -0.011909972908110307 0.0028852175312403102 0.018911625551863553 0.9896054005344241 -0.09173986516219124 0.008158579609666953 0.03898985810542274
0.15631513130469998 0.008547170077573957 0.04052673230907197 0.9890764138573969 -0.0954548717448189 0.0029892869064432437 0.019684376348092666 -0.002574631636334126 -0.012379951218020857
 0.9890764138573969 -0.0954548717448189 0.008533209010498222 0.04052740474554973 -0.0025757060836722207 -0.012379842824172925 0.0030835669240489943 0.019669796400393687
