! Created with skrf 1.8.0 (http://scikit-rf.org).
# GHz S RI R 50.0 
!freq ReS11 ImS11 ReS12 ImS12 ReS13 ImS13
! ReS14 ImS14
! ReS21 ImS21 ReS22 ImS22 ReS23 ImS23
! ReS24 ImS24
! ReS31 ImS31 ReS32 ImS32 ReS33 ImS33
! ReS34 ImS34
! ReS41 ImS41 ReS42 ImS42 ReS43 ImS43
! ReS44 ImS44
!
0.0 0.001446994502081 0.0 0.9985530054908 0.0 5.589089301459e-05 0.0 -5.589089261419e-05 6.844660274145624e-21
 0.9985530054908 0.0 0.001446994502078 0.0 -5.589089261465e-05 6.844660274201957e-21 5.589089301364e-05 0.0
 5.589089301459e-05 0.0 -5.589089261465e-05 6.844660274201957e-21 0.001446994505646 0.0 0.9985530054943 0.0
 -5.589089261419e-05 6.844660274145624e-21 5.589089301364e-05 0.0 0.9985530054943 0.0 0.001446994505621 0.0
0.005 0.0015566310018078101 0.0011794756699766208 0.9984143245519272 -0.0030316686250549526 7.885488622493693e-05 0.0006426670047784177 -7.642006877407731e-05 -0.00039875700849417207
 0.9984143245519272 -0.0030316686250549526 0.0015566442225363895 0.0011794678986014986 -7.641965224930662e-05 -0.0003987566319775346 7.876829662180572e-05 0.0006426998044725389
 7.885488622493693e-05 0.0006426670047784177 -7.641965224930662e-05 -0.0003987566319775346 0.0015566318494571658 0.0011795423977063598 0.9984143249112625 -0.0030316015617257875
 -7.642006877407731e-05 -0.00039875700849417207 7.876829662180572e-05 0.0006426998044725389 0.9984143249112625 -0.0030316015617257875 0.0015566440866344108 0.0011795352907523178
0.006252605252188 0.0015853072275828243 0.0014790160020713016 0.9983778314762628 -0.0037903412870583866 8.538066665828508e-05 0.0008036370797604728 -8.218352947664629e-05 -0.0004989725856378902
 0.9983778314762628 -0.0037903412870583866 0.0015853278949187778 0.0014790061723530307 -8.218288177279923e-05 -0.0004989721201518396 8.524537577203078e-05 0.0008036796829507895
 8.538066665828508e-05 0.0008036370797604728 -8.218288177279923e-05 -0.0004989721201518396 0.0015853084605110192 0.0014790993978404886 0.9983778319455985 -0.003790257462972803
 -8.218352947664629e-05 -0.0004989725856378902 8.524537577203078e-05 0.0008036796829507895 0.9983778319455985 -0.003790257462972803 0.0015853275895466716 0.0014790904097669775
0.01250521050438 0.0017358105965610412 0.002989294048892721 0.9981850749277303 -0.007581587564729619 0.0001226193762392322 0.0016075772800063423 -0.00011470925648689555 -0.0010004400812805743
 0.9981850749277303 -0.007581587564729619 0.001735893134087903 0.0029892732348329233 -0.00011470670935137963 -0.0010004392059816069 0.00012207979205205587 0.0016076796975843177
 0.0001226193762392322 0.0016075772800063423 -0.00011470670935137963 -0.0010004392059816069 0.001735814981809172 0.0029894604843666702 0.9981850762598368 -0.007581420157723851
 -0.00011470925648689555 -0.0010004400812805743 0.00012207979205205587 0.0016076796975843177 0.9981850762598368 -0.007581420157723851 0.001735891362926776 0.0029894414748893924
0.01875781575657 0.0018988181379105092 0.004521315513058979 0.9979745071470619 -0.011382987140167538 0.00016768993022081482 0.0024123982242382647 -0.00015356551684304217 -0.0015036539279602956
 0.9979745071470619 -0.011382987140167538 0.0018990036273266106 0.004521282482988023 -0.00015355984409027632 -0.0015036527067411334 0.000166477636579323 0.0024125808417368353
 0.00016768993022081482 0.0024123982242382647 -0.00015355984409027632 -0.0015036527067411334 0.001898827579003705 0.004521564744739679 0.9979745097214564 -0.01138273620888958
 -0.00015356551684304217 -0.0015036539279602956 0.000166477636579323 0.0024125808417368353 0.9979745097214564 -0.01138273620888958 0.0018989992071298137 0.004521534634626569
0.02501042100875 0.002074634938512918 0.0060729428695565635 0.9977458908582916 -0.015196398311466623 0.00022067681320473334 0.003218149957966578 -0.00019884674553424114 -0.0020083881943699445
 0.9977458908582916 -0.015196398311466623 0.00207496439561452 0.0060728963319778935 -0.00019883673798320125 -0.0020083867007386447 0.00021852318443445993 0.003218436225492572
 0.00022067681320473334 0.003218149957966578 -0.00019883673798320125 -0.0020083867007386447 0.0020746513453401387 0.0060732746250481235 0.9977458950620627 -0.015196063873767656
 -0.00019884674553424114 -0.0020083881943699445 0.00021852318443445993 0.003218436225492572 0.9977458950620627 -0.015196063873767656 0.0020749561395666497 0.006073232305487743
0.03126302626094 0.0022635533875438327 0.007643083691964403 0.997498976146495 -0.019022625345790103 0.0002816652338023013 0.004024805515558897 -0.00025064481508556914 -0.002514488956065322
 0.997498976146495 -0.019022625345790103 0.002264067785362838 0.007643022299283581 -0.00025062927764091995 -0.0025144872732679245 0.0002783011878241595 0.004025221966897454
 0.0002816652338023013 0.004024805515558897 -0.00025062927764091995 -0.0025144872732679245 0.002263578668705888 0.007643497666131407 0.9974989823678899 -0.01902220738216233
 -0.00025064481508556914 -0.002514488956065322 0.0002783011878241595 0.004025221966897454 0.9974989823678899 -0.01902220738216233 0.002264054494583745 0.007643442002789328
0.037515631513130004 0.0024658596335173514 0.009231031453162458 0.9972335070915862 -0.02286207762139016 0.00035074022479520225 0.004832307724279272 -0.00030904973953219177 -0.0030218274827826055
 0.9972335070915862 -0.02286207762139016 0.002466599918168424 0.009230953803633833 -0.0003090274896522367 -0.0030218257038197994 0.00034589611163260366 0.004832884009177489
 0.00035074022479520225 0.004832307724279272 -0.0003090274896522367 -0.0030218257038197994 0.0024658956973004163 0.009231527290936794 0.9972335157220262 -0.022861576091699174
 -0.00030904973953219177 -0.0030218274827826055 0.00034589611163260366 0.004832884009177489 0.9972335157220262 -0.022861576091699174 0.002466580382510701 0.009231457126320761
0.043768236765320004 0.0026818360816861274 0.010836264902980357 0.9969492244448326 -0.02671497018419889 0.0004279862239114915 0.005640583446318725 -0.00037414993559607696 -0.0035302859906168487
 0.9969492244448326 -0.02671497018419889 0.0026828431846291916 0.01083616954199834 -0.00037411980230307284 -0.003530284218216345 0.00042139177220913915 0.005641352366739952
 0.0004279862239114915 0.005640583446318725 -0.00037411980230307284 -0.003530284218216345 0.002681884835326832 0.01083684220293443 0.9969492358794204 -0.026714385023684707
 -0.00037414993559607696 -0.0035302859906168487 0.00042139177220913915 0.005641352366739952 0.9969492358794204 -0.026714385023684707 0.0026828161822551938 0.010836756358093282
0.050020842017509996 0.0029117625588761468 0.012458365161396466 0.996645866976444 -0.030581406587027224 0.000513486828964688 0.006449549454392179 -0.00044603232163021336 -0.004039751762736397
 0.996645866976444 -0.030581406587027224 0.0029130774079195974 0.012458250582306587 -0.0004459931448940152 -0.004039750109311762 0.0005048711231531093 0.006450547002473018
 0.000513486828964688 0.006449549454392179 -0.0004459931448940152 -0.004039750109311762 0.0029118259083917614 0.012459023477591303 0.9966458816150793 -0.030580737703882498
 -0.00044603232163021336 -0.004039751762736397 0.0005048711231531093 0.006450547002473018 0.9966458816150793 -0.030580737703882498 0.002913041705100552 0.012458920753483538
0.055454545454549996 0.003123120601325063 0.013881438827409682 0.996366545266158 -0.03395248294810956 0.0005945573649182552 0.007153055939947423 -0.0005140746609199717 -0.004483225107293484
 0.996366545266158 -0.03395248294810956 0.0031247361340043297 0.013881306283537847 -0.000514026691221383 -0.0044832236560533555 0.0005839646076770511 0.007154283909122363
 0.0005945573649182552 0.007153055939947423 -0.000514026691221383 -0.0044832236560533555 0.003123198180437763 0.013882167145246508 0.9963665630175065 -0.033951741218786025
 -0.0005140746609199717 -0.004483225107293484 0.0005839646076770511 0.007154283909122363 0.9963665630175065 -0.033951741218786025 0.003124691857643263 0.013882048763862731
0.056273447269699996 0.0031559169159750024 0.014096975022945348 0.9963231722636979 -0.034461419517914336 0.000607324628660944 0.007259115315669728 -0.0005247823453775013 -0.004550114264368354
 0.9963231722636979 -0.034461419517914336 0.003157580445155399 0.014096839667501495 -0.0005247329756518061 -0.004550112851983784 0.0005964161045804698 0.007260380712360417
 0.000607324628660944 0.007259115315669728 -0.0005247329756518061 -0.004550112851983784 0.003155996764271601 0.014097713854090206 0.996323190511086 -0.0344606668037276
 -0.0005247823453775013 -0.004550114264368354 0.0005964161045804698 0.007260380712360417 0.996323190511086 -0.0344606668037276 0.0031575347946389207 0.014097593032500601
0.06252605252188 0.003414575354259853 0.01575177658916189 0.9959808772072828 -0.03835499310234946 0.0007095810698735958 0.00806918497921344 -0.0006104839766800256 -0.005061263557151591
 0.9959808772072828 -0.03835499310234946 0.0034166285133355083 0.015751618847757262 -0.0006104232745468782 -0.005061262517468918 0.0006961075227277548 0.008070760713238315
 0.0007095810698735958 0.00806918497921344 -0.0006104232745468782 -0.005061262517468918 0.003414673601090052 0.01575259538471713 0.9959808994736897 -0.03835415642552806
 -0.0006104839766800256 -0.005061263557151591 0.0006961075227277548 0.008070760713238315 0.9959808994736897 -0.03835415642552806 0.0034165716546835927 0.015752455229005237
0.06877865777407 0.003688012601595988 0.017422477928372943 0.9956187183995554 -0.0422620761808129 0.0008203363458627969 0.008879657717957018 -0.0007032196794829192 -0.005573089362153492
 0.9956187183995554 -0.0422620761808129 0.0036904963651810947 0.017422296139960772 -0.0007031465153733013 -0.005573088836393793 0.0008040249467482421 0.008881589584773865
 0.0008203363458627969 0.008879657717957018 -0.0007031465153733013 -0.005573088836393793 0.0036881311424971945 0.01742337608183147 0.9956187451019403 -0.04226115539295349
 -0.0007032196794829192 -0.005573089362153492 0.0008040249467482421 0.008881589584773865 0.9956187451019403 -0.04226115539295349 0.0036904270241181173 0.01742321533733484
0.07503126302626001 0.003976502002239333 0.019108804609109332 0.9952364324103713 -0.04618259071577146 0.0009396692972292703 0.009690428730971873 -0.0008030703706179613 -0.006085480465950532
 0.9952364324103713 -0.04618259071577146 0.00397945737886302 0.019108597060789462 -0.0008029836245963311 -0.006085480604847676 0.0009202466161390431 0.009692765871617338
 0.0009396692972292703 0.009690428730971873 -0.0008029836245963311 -0.006085480604847676 0.003976642727188809 0.019109781466252914 0.9952364639724911 -0.04618158564297918
 -0.0008030703706179613 -0.006085480465950532 0.0009202466161390431 0.009692765871617338 0.9952364639724911 -0.04618158564297918 0.003979374266355132 0.019109598860380654
0.08128386827845 0.004280315547994128 0.020810494091910225 0.9948337560179528 -0.05011643734374231 0.0010676573199209487 0.01050138954844279 -0.0009101153707507227 -0.0065983243275608405
 0.9948337560179528 -0.05011643734374231 0.004283783589057924 0.020810259018373033 -0.000910013932372343 -0.006598325291314773 0.0010448493537653749 0.010504184488134371
 0.0010676573199209487 0.01050138954844279 -0.000910013932372343 -0.006598325291314773 0.004280480341126969 0.02081154893696976 0.9948337928713245 -0.050115347800102
 -0.0009101153707507227 -0.0065983243275608405 0.0010448493537653749 0.010504184488134371 0.9948337928713245 -0.050115347800102 0.004283685401200349 0.020811343179117748
0.08753647353064001 0.0045997238748378706 0.02252729181630243 0.9944104264067877 -0.05406349923597976 0.0012043762786741279 0.011312428309641583 -0.0010244323490569297 -0.007111506816067588
 0.9944104264067877 -0.05406349923597976 0.00460374568331847 0.02252702739881918 -0.0010243151171902812 -0.007111508774301696 0.0011779084833303608 0.011315736996052166
 0.0012043762786741279 0.011312428309641583 -0.0010243151171902812 -0.007111508774301696 0.004599914612773075 0.02252842388495519 0.9944104689913389 -0.05406232501025423
 -0.0010244323490569297 -0.007111506816067588 0.0011779084833303608 0.011315736996052166 0.9944104689913389 -0.05406232501025423 0.004603631100373112 0.02252819366604245
0.09378907878283 0.00493499623247989 0.02425894843604531 0.9939661813435531 -0.058023644814828586 0.0013499004227534687 0.01212342997019413 -0.001146097264466849 -0.007624912022791965
 0.9939661813435531 -0.058023644814828586 0.004939612972028934 0.02425865280131638 -0.0011459631471644432 -0.007624915154514127 0.0013194977486930678 0.01212731181129397
 0.0013499004227534687 0.01212342997019413 -0.0011459631471644432 -0.007624915154514127 0.004935214783888926 0.024260156905729132 0.9939662301084163 -0.05802238567987645
 -0.001146097264466849 -0.007624912022791965 0.0013194977486930678 0.01212731181129397 0.9939662301084163 -0.05802238567987645 0.004939480658564274 0.024259900897465082
0.100041684035 0.00528640043733067 0.02600521777175326 0.993500759337567 -0.06199672975697953 0.0015043023049857783 0.012934276455435639 -0.0012751843028660822 -0.008138422131239728
 0.993500759337567 -0.06199672975697953 0.005291653341011214 0.02600488899042793 -0.0012750322172947518 -0.008138426624795298 0.001469689235551744 0.012938794356948249
 0.0015043023049857783 0.012934276455435639 -0.0012750322172947518 -0.008138426624795298 0.0052866486614081285 0.026006501765866382 0.9935008147414481 -0.0619953854653568
 -0.0012751843028660822 -0.008138422131239728 0.001469689235551744 0.012938794356948249 0.9935008147414481 -0.0619953854653568 0.005291501944629051 0.026006218619776287
0.1059090909091 0.005631065006897911 0.027656978577594516 0.9930445178020856 -0.06573667834332239 0.001657329369996726 0.013694921017104353 -0.0014031336081958715 -0.008620285605387523
 0.9930445178020856 -0.06573667834332239 0.005636952453927672 0.027656616885414834 -0.0014029636845016475 -0.008620291556455528 0.0016185143316337686 0.013700096154070146
 0.001657329369996726 0.013694921017104353 -0.0014029636845016475 -0.008620291556455528 0.005631342757277337 0.027658332599679196 0.9930445798626617 -0.06573525389610697
 -0.0014031336081958715 -0.008620285605387523 0.0016185143316337686 0.013700096154070146 0.9930445798626617 -0.06573525389610697 0.005636781904943589 0.02765802274199327
0.1062942892872 0.005654202810063042 0.02776585527822685 0.9930138997896301 -0.06598259848642081 0.001667652701218115 0.013744846780668764 -0.001411765812790293 -0.00865191732432556
 0.9930138997896301 -0.06598259848642081 0.0056601331894278635 0.027765491363045038 -0.0014115946851210057 -0.008651923377353175 0.0016285532936131043 0.013750067182949079
 0.001667652701218115 0.013744846780668764 -0.0014115946851210057 -0.008651923377353175 0.00565448255565079 0.027767213867484177 0.993013962301987 -0.06598116876874051
 -0.001411765812790293 -0.00865191732432556 0.0016285532936131043 0.013750067182949079 0.993013962301987 -0.06598116876874051 0.0056599613405326704 0.027766902213526682
0.11254689453939999 0.006038668104146222 0.029540616881987114 0.9925053431349907 -0.06998108530162188 0.001840020531528483 0.014555017149895634 -0.0015559122384998228 -0.009165275717112254
 0.9925053431349907 -0.06998108530162188 0.006045317358148346 0.029540215785708004 -0.001555721003827126 -0.009165283536506237 0.0017961584601612957 0.014561010064270142
 0.001840020531528483 0.014555017149895634 -0.001555721003827126 -0.009165283536506237 0.006038981208505121 0.029542049079023865 0.992505413236059 -0.06997956987185268
 -0.0015559122384998228 -0.009165275717112254 0.0017961584601612957 0.014561010064270142 0.992505413236059 -0.06997956987185268 0.006045123669365411 0.02954170752398165
0.11879949979160001 0.006440059425850547 0.03132925805696631 0.9919748309791838 -0.0739920152694077 0.0020214727817532093 0.015364661035525536 -0.0017076920521320927 -0.009678373312937734
 0.9919748309791838 -0.0739920152694077 0.0064474690500474835 0.03132881766992894 -0.0017074796544425236 -0.009678383114805412 0.001972571383392853 0.015371500080038441
 0.0020214727817532093 0.015364661035525536 -0.0017074796544425236 -0.009678383114805412 0.006440407713741352 0.03133076281833183 0.9919749091613541 -0.0739904138227527
 -0.0017076920521320927 -0.009678373312937734 0.001972571383392853 0.015371500080038441 0.9919749091613541 -0.0739904138227527 0.0064472521156070045 0.031330389943828446
0.1250521050438 0.00685863814788988 0.03313153311324867 0.9914221062310885 -0.07801520491053476 0.0022120744256233188 0.01617364924973124 -0.0018671716843541384 -0.010191083972151375
 0.9914221062310885 -0.07801520491053476 0.006866849743391369 0.0331310512606433 -0.001866937076415737 -0.010191095981774588 0.0021578567467066506 0.01618141168427029
 0.0022120744256233188 0.01617364924973124 -0.001866937076415737 -0.010191095981774588 0.006859023430213017 0.03313310933989454 0.9914221929994059 -0.07801351712288722
 -0.0018671716843541384 -0.010191083972151375 0.0021578567467066506 0.01618141168427029 0.9914221929994059 -0.07801351712288722 0.006866608138654058 0.03313270370009907
0.131304710296 0.00729466381747167 0.03494719461290023 0.9908469132329554 -0.08205046276340344 0.002411888347364098 0.016981850005900148 -0.002034415454118609 -0.010703279395235599
 0.9908469132329554 -0.08205046276340344 0.007303719100380287 0.03494666905157834 -0.0020341575974839998 -0.010703293847024273 0.0023520771929342447 0.016990616766553338
 0.002411888347364098 0.016981850005900148 -0.0020341575974839998 -0.010703293847024273 0.007295087890440481 0.03494884115025065 0.9908470091059002 -0.08204868829121757
 -0.002034415454118609 -0.010703279395235599 0.0023520771929342447 0.016990616766553338 0.9908470091059002 -0.08204868829121757 0.007303451381198041 0.034948401269207056
0.1375573155481 0.007646154500483636 0.03653796656957153 0.9903512726938947 -0.0858594706223996 0.002595418832519349 0.01776478195740625 -0.002184005208506044 -0.011190446767493426
 0.9903512726938947 -0.0858594706223996 0.0076560969527575615 0.03653740495577995 -0.002183722405871668 -0.011190463657991298 0.002529881850758305 0.017774537376215246
 0.002595418832519349 0.01776478195740625 -0.002183722405871668 -0.011190463657991298 0.007646618430451415 0.03653968268970703 0.9903513780912382 -0.08585760925951856
 -0.002184005208506044 -0.011190446767493426 0.002529881850758305 0.017774537376215246 0.9903513780912382 -0.08585760925951856 0.007655802576748126 0.03653921634005893
0.1438099208003 0.008009924987621214 0.03812069251520376 0.989838345666158 -0.08965918350722375 0.0027863828381841024 0.018544790749967306 -0.0023395972340180455 -0.011674968032271152
 0.989838345666158 -0.08965918350722375 0.008020796716893408 0.03812009311489497 -0.002339288340992951 -0.011674987594160979 0.002714868679496533 0.018555608455619207
 0.0027863828381841024 0.018544790749967306 -0.002339288340992951 -0.011674987594160979 0.008010430417454072 0.03812247705332013 0.9898384611055833 -0.08965723491540273
 -0.0023395972340180455 -0.011674968032271152 0.002714868679496533 0.018555608455619207 0.9898384611055833 -0.08965723491540273 0.008020474375051843 0.03812198321846503
0.1500625260525 0.008385851910327579 0.03969525066420543 0.9893082592755245 -0.09344951797461334 0.002984718442261286 0.01932180433413538 -0.0025011319231286367 -0.012156775599421243
 0.9893082592755245 -0.09344951797461334 0.008397695135870643 0.03969461162390738 -0.002500795795884762 -0.012156798074925309 0.002906977208409783 0.019333760620745214
 0.002984718442261286 0.01932180433413538 -0.002500795795884762 -0.012156798074925309 0.008386400459624875 0.03969710240981217 0.9893083852861572 -0.09344748180304503
 -0.0025011319231286367 -0.012156775599421243 0.002906977208409783 0.019333760620745214 0.9893083852861572 -0.09344748180304503 0.008397343510957606 0.03969657998029129
0.15631513130469998 0.008773811078901302 0.04126152296500697 0.988761141234291 -0.0972303906553201 0.003190363025796503 0.020095751804633036 -0.0026685489657945743 -0.012635803264059574
