! Created with skrf 1.8.0 (http://scikit-rf.org).
# GHz S RI R 50.0 
!freq ReS11 ImS11 ReS12 ImS12 ReS13 ImS13
! ReS14 ImS14
! ReS21 ImS21 ReS22 ImS22 ReS23 ImS23
! ReS24 ImS24
! ReS31 ImS31 ReS32 ImS32 ReS33 ImS33
! ReS34 ImS34
! ReS41 ImS41 ReS42 ImS42 ReS43 ImS43
! ReS44 ImS44
!
0.0 0.001339903872633 0.0 0.998660096122 0.0 5.136197805214e-05 0.0 -5.136197745242e-05 6.290028128498468e-21
 0.998660096122 0.0 0.001339903872632 0.0 -5.136197745231e-05 6.290028128484997e-21 5.136197805161e-05 0.0
 5.136197805214e-05 0.0 -5.136197745231e-05 6.290028128484997e-21 0.001339903875284 0.0 0.9986600961246 0.0
 -5.136197745242e-05 6.290028128498468e-21 5.136197805161e-05 0.0 0.9986600961246 0.0 0.001339903875298 0.0
0.005 0.0014411079637286562 0.0010961798885258311 0.9985321402159484 -0.0028073627966190675 7.172946603492264e-05 0.0005683310199982411 -6.968671634451281e-05 -0.00035640620200055314
 0.9985321402159484 -0.0028073627966190675 0.001441119337590725 0.0010961732958602412 -6.968574430107346e-05 -0.0003564055269231409 7.16625817083975e-05 0.0005683564855557498
 7.172946603492264e-05 0.0005683310199982411 -6.968574430107346e-05 -0.0003564055269231409 0.001441107756917386 0.0010961127997878655 0.9985321398741016 -0.0028074298585380603
 -6.968671634451281e-05 -0.00035640620200055314 7.16625817083975e-05 0.0005683564855557498 0.9985321398741016 -0.0028074298585380603 0.0014411188653993866 0.0010961062649371914
0.006252605252188 0.0014674970721537737 0.0013745601101108052 0.9984985884566621 -0.0035099141216589857 7.746587183198426e-05 0.0007106974751726493 -7.47896460288953e-05 -0.0004459779822582158
 0.9984985884566621 -0.0035099141216589857 0.0014675148510753843 0.0013745517335376617 -7.478813286039351e-05 -0.0004459771511474601 7.736137041809993e-05 0.0007107305182651095
 7.746587183198426e-05 0.0007106974751726493 -7.478813286039351e-05 -0.0004459771511474601 0.001467496828791587 0.0013744762630661994 0.9984985880025083 -0.003509997943322711
 -7.47896460288953e-05 -0.0004459779822582158 7.736137041809993e-05 0.0007107305182651095 0.9984985880025083 -0.003509997943322711 0.0014675141936890278 0.0013744679465785884
0.01250521050438 0.00160552066132436 0.002778154534768859 0.9983220519979511 -0.00702077886331918 0.00010992694085477059 0.0014217985807615508 -0.00010336277726040467 -0.0008942172380898045
 0.9983220519979511 -0.00702077886331918 0.001605591644672476 0.002778136414102808 -0.00010335680664517326 -0.000894215714915443 0.00010951019638260607 0.0014218776242326757
 0.00010992694085477059 0.0014217985807615508 -0.00010335680664517326 -0.000894215714915443 0.0016055202246470688 0.002777987178709824 0.998322050725374 -0.007020946264292561
 -0.00010336277726040467 -0.0008942172380898045 0.00010951019638260607 0.0014218776242326757 0.998322050725374 -0.007020946264292561 0.0016055895695400153 0.0027779690552595516
0.01875781575657 0.001754244589547669 0.004201991129114612 0.9981302898304909 -0.010541171845617068 0.00014881505699018897 0.0021338013681763356 -0.0001371625532790934 -0.0013440889259205904
 0.9981302898304909 -0.010541171845617068 0.0017544040756185947 0.004201961799677218 -0.0001371492279879518 -0.0013440868755943917 0.00014787884277280545 0.0021339416530888593
 0.00014881505699018897 0.0021338013681763356 -0.0001371492279879518 -0.0013440868755943917 0.001754244024320723 0.0042017404682524375 0.9981302873971595 -0.01054142275298005
 -0.0001371625532790934 -0.0013440889259205904 0.00014787884277280545 0.0021339416530888593 0.9981302873971595 -0.01054142275298005 0.001754399858685233 0.004201710947690991
0.02501042100875 0.0019139324958205113 0.005644109594904327 0.9979230981939082 -0.014072831781274626 0.0001942013254745507 0.002846756115366612 -0.0001762680460234578 -0.001795408168646789
 0.9979230981939082 -0.014072831781274626 0.0019142157013358016 0.005644067506892988 -0.00017624449964851417 -0.0017954057847226795 0.00019253829747393312 0.0028469750726874557
 0.0001942013254745507 0.002846756115366612 -0.00017624449964851417 -0.0017954057847226795 0.0019139318445846542 0.005643775835906735 0.9979230942406352 -0.014073166156008413
 -0.0001762680460234578 -0.001795408168646789 0.00019253829747393312 0.0028469750726874557 0.9979230942406352 -0.014073166156008413 0.0019142086149746274 0.005643733239265156
0.03126302626094 0.0020848369337240374 0.007103517503660154 0.9977002618396302 -0.017616522424238685 0.0002461575746289517 0.0035606479041193563 -0.000220756414196937 -0.0022480514267282
 0.9977002618396302 -0.017616522424238685 0.0020852790118215557 0.007103461024593321 -0.00022071980572367774 -0.0022480489318194054 0.00024356007062091862 0.0035609651661187183
 0.0002461575746289517 0.0035606479041193563 -0.00022071980572367774 -0.0022480489318194054 0.002084836241698781 0.0071031008543756755 0.9977002560138536 -0.017616940262882515
 -0.000220756414196937 -0.0022480514267282 0.00024356007062091862 0.0035609651661187183 0.9977002560138536 -0.017616940262882515 0.0020852683487086283 0.007103043415956592
0.037515631513130004 0.002267205172944945 0.008579580174969022 0.9974615599615513 -0.021172642638557383 0.0003047556387327809 0.004275436363885799 -0.00027070347474830795 -0.002701916741459985
 0.9974615599615513 -0.021172642638557383 0.0022678412251725373 0.008579507590863702 -0.0002706509858347442 -0.002701914387416645 0.0003010155841835275 0.004275873786294097
 0.0003047556387327809 0.004275436363885799 -0.0002706509858347442 -0.002701914387416645 0.0022672044782312915 0.008579080870244553 0.9974615519066564 -0.021173143947715797
 -0.00027070347474830795 -0.002701916741459985 0.0003010155841835275 0.004275873786294097 0.9974615519066564 -0.021173143947715797 0.0022678262875239683 0.008579006738628376
0.043768236765320004 0.0024612814341559565 0.010071835017532046 0.9972067685615996 -0.02474141199740129 0.0003700670309824734 0.00499106775687942 -0.0003261839148285247 -0.0031569116389247713
 0.9972067685615996 -0.02474141199740129 0.0024621465189366984 0.010071744533755686 -0.0003261127481529665 -0.003156909706946714 0.000364975890133414 0.0049916494444062305
 0.0003700670309824734 0.00499106775687942 -0.0003261127481529665 -0.003156909706946714 0.0024612807705582233 0.010071253304295345 0.9972067579185263 -0.024741996808922345
 -0.0003261839148285247 -0.0031569116389247713 0.000364975890133414 0.0049916494444062305 0.9972067579185263 -0.024741996808922345 0.0024621266212575474 0.010071160542916336
0.050020842017509996 0.0026673079377424478 0.011579914784816812 0.9969356616329601 -0.02832294746530199 0.0004421627525038109 0.0057074799636573975 -0.00038727137712875494 -0.0036129481347861704
 0.9969356616329601 -0.02832294746530199 0.002668437078551338 0.011579804526539565 -0.0003871787554683875 -0.003612946935501112 0.0004355115035174018 0.00570823229691513
 0.0004421627525038109 0.0057074799636573975 -0.0003871787554683875 -0.003612946935501112 0.002667307336729887 0.011579250933559911 0.9969356480410079 -0.028323615825067375
 -0.00038727137712875494 -0.0036129481347861704 0.0004355115035174018 0.00570823229691513 0.9969356480410079 -0.028323615825067375 0.0026684115483431117 0.011579137521143418
0.055454545454549996 0.0028562432944900526 0.01290309212082897 0.996686634760499 -0.03144581951827438 0.0005103804860088452 0.006330645264092285 -0.00044496825141420105 -0.004010036796169258
 0.996686634760499 -0.03144581951827438 0.0028576303289924183 0.012902963093356035 -0.00044485474435039936 -0.0040100365088022675 0.0005022033190494527 0.006331569106291186
 0.0005103804860088452 0.006330645264092285 -0.00044485474435039936 -0.0040100365088022675 0.0028562427712201226 0.012902357130322093 0.9966866183107121 -0.031446560529139654
 -0.00044496825141420105 -0.004010036796169258 0.0005022033190494527 0.006331569106291186 0.9966866183107121 -0.031446560529139654 0.002857599367483023 0.01290222406435788
0.056273447269699996 0.00288552545208407 0.013103509913705198 0.9966480118441535 -0.031917300997351954 0.0005211131621170467 0.006424604930345998 -0.0004540384881530641 -0.00406994027901482
 0.9966480118441535 -0.031917300997351954 0.002886953643794901 0.013103377926321824 -0.0004539216536629239 -0.004069940152560846 0.0005126922867454452 0.00642555659345938
 0.0005211131621170467 0.006424604930345998 -0.0004539216536629239 -0.004069940152560846 0.002885524942021944 0.013102764221942495 0.9966479949395419 -0.03191805296208357
 -0.0004540384881530641 -0.00406994027901482 0.0005126922867454452 0.00642555659345938 0.9966479949395419 -0.03191805296208357 0.002886921820860444 0.01310262805267445
0.06252605252188 0.0031161735971260264 0.014642347824617106 0.9963435909819832 -0.03552448017787766 0.00060698787602617 0.007142370007901225 -0.0005265568577767599 -0.0045278028104314355
 0.9963435909819832 -0.03552448017787766 0.0031179358122422796 0.014642192073898535 -0.0005264130715820661 -0.004527804126507585 0.0005965873585487837 0.007143552016466015
 0.00060698787602617 0.007142370007901225 -0.0005264130715820661 -0.004527804126507585 0.0031161732044039502 0.01464152061202889 0.9963435703976785 -0.03552531582027094
 -0.0005265568577767599 -0.0045278028104314355 0.0005965873585487837 0.007143552016466015 0.9963435703976785 -0.03552531582027094 0.0031178970492890075 0.014641359495634486
0.06877865777407 0.003359491013456437 0.016196180568697503 0.996022170262629 -0.03914446051354578 0.0006998556841576026 0.007860698752032156 -0.0006048970621406643 -0.004986450352608337
 0.996022170262629 -0.03914446051354578 0.003361622208306121 0.016195998940836433 -0.0006047236040735612 -0.004986453510540383 0.0006872650171215919 0.00786214448121138
 0.0006998556841576026 0.007860698752032156 -0.0006047236040735612 -0.004986453510540383 0.0033594907626125457 0.016195272180292555 0.9960221456275998 -0.03914537991929861
 -0.0006048970621406643 -0.004986450352608337 0.0006872650171215919 0.00786214448121138 0.9960221456275998 -0.03914537991929861 0.0033615758705833605 0.016195083841905128
0.07503126302626001 0.003615715455304041 0.01776477700075917 0.9956835205686605 -0.04277719320269596 0.0007997844762047942 0.008579511428927333 -0.0006891286165539497 -0.005445796906151976
 0.9956835205686605 -0.04277719320269596 0.00361825057569859 0.01776456730221439 -0.0006889227849818714 -0.005445802334940153 0.0007847926710072625 0.008581256641570141
 0.0007997844762047942 0.008579511428927333 -0.0006889227849818714 -0.005445802334940153 0.0036157153699419233 0.017763787806683837 0.9956834915076466 -0.0427781964708732
 -0.0006891286165539497 -0.005445796906151976 0.0007847926710072625 0.008581256641570141 0.9956834915076466 -0.0427781964708732 0.003618196041700059 0.017763569886638172
0.08128386827845 0.003885083832274006 0.01934791756888203 0.9953274126376015 -0.04642261029005399 0.0009068411737549303 0.009298725352597605 -0.0007793199415850754 -0.005905755511680528
 0.9953274126376015 -0.04642261029005399 0.0038880578191643066 0.01934767752614421 -0.0007790790533501086 -0.005905763670053277 0.0008892367750225018 0.009300808227303298
 0.0009068411737549303 0.009298725352597605 -0.0007790790533501086 -0.005905763670053277 0.003885083935651488 0.019346847965118767 0.9953273787708168 -0.04642369753257531
 -0.0007793199415850754 -0.005905755511680528 0.0008892367750225018 0.009300808227303298 0.9953273787708168 -0.04642369753257531 0.0038879944807515016 0.019346598018578555
0.08753647353064001 0.00416783222044671 0.020945390709579657 0.9949536172230624 -0.05008062821842396 0.0010210916662785608 0.010018255116928583 -0.0008755383244647412 -0.006366238020494283
 0.9949536172230624 -0.05008062821842396 0.004171280015816122 0.020945117968680527 -0.0008752597148775063 -0.006366249396941995 0.0010006627693174563 0.010020716276001481
 0.0010210916662785608 0.010018255116928583 -0.0008752597148775063 -0.006366249396941995 0.004167832536397437 0.020944241119064913 0.9949535781661258 -0.05008179955919315
 -0.0008755383244647412 -0.006366238020494283 0.0010006627693174563 0.010020716276001481 0.9949535781661258 -0.05008179955919315 0.004171207278682711 0.020943956615408803
0.09378907878283 0.004464195849806897 0.022556990273221156 0.9945619052335268 -0.05375115035263218 0.00114260074964354 0.010738012765791834 -0.000977849877120613 -0.006827154929672175
 0.9945619052335268 -0.05375115035263218 0.0044681524019996805 0.02255668239920302 -0.000977530900008107 -0.0068271700424889096 0.0011191350203686855 0.010740895303051006
 0.00114260074964354 0.010738012765791834 -0.000977530900008107 -0.0068271700424889096 0.004464196403186134 0.02255576114247668 0.9945618605963777 -0.053752405930928664
 -0.000977849877120613 -0.006827154929672175 0.0011191350203686855 0.010740895303051006 0.9945618605963777 -0.053752405930928664 0.004468069685822761 0.022555439464729994
0.100041684035 0.0047744090773164495 0.024182513630982727 0.9941520478601018 -0.057434068824714836 0.0012714320662248967 0.011457907917208479 -0.0010863194916933933 -0.007288415265777186
 0.9941520478601018 -0.057434068824714836 0.004778909346828142 0.02418216810713082 -0.0010859575194669536 -0.007288434663095058 0.0012447167632621372 0.011461257425542493
 0.0012714320662248967 0.011457907917208479 -0.0010859575194669536 -0.007288434663095058 0.0047744098943368314 0.024181205434190483 0.9941519972468724 -0.05743540879130941
 -0.0010863194916933933 -0.007288415265777186 0.0012447167632621372 0.011461257425542493 0.9941519972468724 -0.05743540879130941 0.004778816085315582 0.02418084387811184
0.1059090909091 0.005078315307464791 0.025720379777546504 0.9937507336879902 -0.06090126678055552 0.001399041710986153 0.012133495663757704 -0.0011937641040732127 -0.007721489108036179
 0.9937507336879902 -0.06090126678055552 0.005083357610024524 0.025719996560728355 -0.0011933594124164542 -0.0077215130510255876 0.0013690832001010673 0.012137327091327378
 0.001399041710986153 0.012133495663757704 -0.0011933594124164542 -0.0077215130510255876 0.005078316398081317 0.02571899784157617 0.9937506771014498 -0.0609026860839928
 -0.0011937641040732127 -0.007721489108036179 0.0013690832001010673 0.012137327091327378 0.9937506771014498 -0.0609026860839928 0.005083253950919372 0.025718596325808602
0.1062942892872 0.005098705345593899 0.02582176025145653 0.9937238166920602 -0.061129265912313595 0.0014076480461049261 0.012177847859574176 -0.0012010107940467521 -0.007749926499066929
 0.9937238166920602 -0.061129265912313595 0.0051037843107935915 0.02582137447834035 -0.0012006032178550447 -0.007749950758880289 0.0013774700447563393 0.012181712458289518
 0.0014076480461049261 0.012177847859574176 -0.0012006032178550447 -0.007749950758880289 0.005098706455067836 0.02582037349075751 0.9937237597007937 -0.061130690429211744
 -0.0012010107940467521 -0.007749926499066929 0.0013774700447563393 0.012181712458289518 0.9937237597007937 -0.061130690429211744 0.0051036799523046725 0.02581996926382413
0.11254689453939999 0.005437317135469578 0.027474530616072326 0.9932769838281222 -0.06483661508116689 0.0015513098491583245 0.012897737626983407 -0.0013219860956601604 -0.008211594481421064
 0.9932769838281222 -0.06483661508116689 0.005443009797841424 0.027474101910505123 -0.0013215303254881336 -0.00821162421161262 0.0015174556668991403 0.012902167988923578
 0.0015513098491583245 0.012897737626983407 -0.0013215303254881336 -0.00821162421161262 0.005437318568958197 0.027473065818302802 0.993276920049859 -0.06483812432499692
 -0.0013219860956601604 -0.008211594481421064 0.0015174556668991403 0.012902167988923578 0.993276920049859 -0.06483812432499692 0.005442893805595401 0.027472616038584335
0.11879949979160001 0.005790475909189394 0.029140625362610632 0.9928113219815453 -0.06855598180280087 0.0017024773073646261 0.013617480062171151 -0.0014493063442577875 -0.008673323399455035
 0.9928113219815453 -0.06855598180280087 0.005796817299467728 0.029140150956358586 -0.0014487998091409998 -0.008673359237811632 0.0016647331309677662 0.013622529440454792
 0.0017024773073646261 0.013617480062171151 -0.0014487998091409998 -0.008673359237811632 0.005790477702079368 0.029139083082857727 0.9928112510004211 -0.0685575759612571
 -0.0014493063442577875 -0.008673323399455035 0.0016647331309677662 0.013622529440454792 0.9928112510004211 -0.0685575759612571 0.005796689151903307 0.02913858477764337
0.1250521050438 0.006158412049573025 0.030819844619060312 0.9923266045825188 -0.07228722418496156 0.0018612088676251862 0.014336975867363825 -0.0015830310733552617 -0.009135015742592165
 0.9923266045825188 -0.07228722418496156 0.006165437233219076 0.030819321657380643 -0.0015824712215614406 -0.009135058356808322 0.0018193605815469028 0.01434270012188645
 0.0018612088676251862 0.014336975867363825 -0.0015824712215614406 -0.009135058356808322 0.006158414241564523 0.030818225437809342 0.9923265259750581 -0.07228890345970256
 -0.0015830310733552617 -0.009135015742592165 0.0018193605815469028 0.01434270012188645 0.9923265259750581 -0.07228890345970256 0.00616529642426431 0.030817675542100197
0.131304710296 0.006541354793407895 0.032511987457226624 0.99182260587757 -0.07603019348568361 0.0020275615346010425 0.015056123650044927 -0.0017232183509828189 -0.009596572279183906
 0.99182260587757 -0.07603019348568361 0.006549098876435145 0.03251141299724279 -0.0017226026502189095 -0.00959662236687622 0.0019813947506536083 0.015062581273564902
 0.0020275615346010425 0.015056123650044927 -0.0017226026502189095 -0.00959662236687622 0.006541357429169103 0.03251029198331609 0.9918225192123724 -0.07603195808936303
 -0.0017232183509828189 -0.009596572279183906 0.0019813947506536083 0.015062581273564902 0.9918225192123724 -0.07603195808936303 0.0065489449158191 0.032509687338110625
0.1375573155481 0.006846816879883323 0.033995740476522325 0.9913918428845906 -0.079563552824297 0.002179408708662264 0.0157521832995287 -0.0018477987426864496 -0.010035228573635735
 0.9913918428845906 -0.079563552824297 0.0068553183639386735 0.03399512452070667 -0.0018471236783686425 -0.010035286134258041 0.002128815650910352 0.015759360152942152
 0.002179408708662264 0.0157521832995287 -0.0018471236783686425 -0.010035286134258041 0.006846820820575419 0.033993968781285314 0.9913917477947388 -0.07956540287526673
 -0.0018477987426864496 -0.010035228573635735 0.002128815650910352 0.015759360152942152 0.9913917477947388 -0.07956540287526673 0.006855149830930582 0.033993320099613075
0.1438099208003 0.007162854856372193 0.03547247924154663 0.9909462413127094 -0.08308877003632154 0.0023374001329969606 0.016445898946347442 -0.001977377290393203 -0.010471755918198893
 0.9909462413127094 -0.08308877003632154 0.00717214944779558 0.03547181968291438 -0.001976640180941145 -0.010471821626563127 0.002282185326681395 0.016453848055645422
 0.0023374001329969606 0.016445898946347442 -0.001976640180941145 -0.010471821626563127 0.007162860301894752 0.03547063190609666 0.9909461373683436 -0.08309070574296275
 -0.001977377290393203 -0.010471755918198893 0.002282185326681395 0.016453848055645422 0.9909461373683436 -0.08309070574296275 0.007171965706132298 0.035469936960120234
0.1500625260525 0.00748936783743566 0.03694210431773522 0.9904859053415433 -0.08660578200521897 0.00250148799852889 0.017137215310193646 -0.00211190788509208 -0.010906102033868796
 0.9904859053415433 -0.08660578200521897 0.00749949130766475 0.03694139892911076 -0.0021111060556240407 -0.010906176591545627 0.002441456949843863 0.017145991627868375
 0.00250148799852889 0.017137215310193646 -0.0021111060556240407 -0.010906176591545627 0.007489375002238468 0.03694018194511666 0.9904857921061172 -0.08660780358379158
 -0.00211190788509208 -0.010906102033868796 0.002441456949843863 0.017145991627868375 0.9904857921061172 -0.08660780358379158 0.007499291725283168 0.03693943838508055
0.15631513130469998 0.007826254344768468 0.038404519402658335 0.9900109395435843 -0.09011452536536776 0.0026716240051572276 0.017826077926944135 -0.0022513439175577197 -0.011338215664627572
