! Created with skrf 1.8.0 (http://scikit-rf.org).
# GHz S RI R 50.0 
!freq ReS11 ImS11 ReS12 ImS12 ReS13 ImS13
! ReS14 ImS14
! ReS21 ImS21 ReS22 ImS22 ReS23 ImS23
! ReS24 ImS24
! ReS31 ImS31 ReS32 ImS32 ReS33 ImS33
! ReS34 ImS34
! ReS41 ImS41 ReS42 ImS42 ReS43 ImS43
! ReS44 ImS44
!
0.0 0.001623648385573 0.0 0.9983763516059 0.0 6.280158407408e-05 0.0 -6.280158407324e-05 7.690975891667677e-21
 0.9983763516059 0.0 0.001623648385584 0.0 -6.280158407418e-05 7.690975891782793e-21 6.280158407334e-05 0.0
 6.280158407408e-05 0.0 -6.280158407418e-05 7.690975891782793e-21 0.001623648378499 0.0 0.9983763515988 0.0
 -6.280158407324e-05 7.690975891667677e-21 6.280158407334e-05 0.0 0.9983763515988 0.0 0.001623648378464 0.0
0.005 0.0017471648110451855 0.0013273553348757156 0.9982200489922007 -0.003400851242405225 8.822824446668093e-05 0.000696433645841512 -8.56529039655403e-05 -0.0004363115199435348
 0.9982200489922007 -0.003400851242405225 0.0017471701678213871 0.0013273522432585279 -8.565139245610811e-05 -0.0004363104529676898 8.820386360997238e-05 0.0006964430453771529
 8.822824446668093e-05 0.000696433645841512 -8.565139245610811e-05 -0.0004363104529676898 0.0017471647470932356 0.0013272881582992657 0.9982200486190155 -0.003400918306654654
 -8.56529039655403e-05 -0.0004363115199435348 8.820386360997238e-05 0.0006964430453771529 0.9982200486190155 -0.003400918306654654 0.0017471694952216881 0.0013272853009538344
0.006252605252188 0.0017796318149739226 0.0016644087543017953 0.9981786939997396 -0.004251884461984352 9.55275006317774e-05 0.000870872930165595 -9.213755306528383e-05 -0.0005459500471049947
 0.9981786939997396 -0.004251884461984352 0.0017796401878870818 0.0016644048077391572 -9.213520029338237e-05 -0.0005459487337117048 9.548940932473968e-05 0.0008708851202465398
 9.55275006317774e-05 0.000870872930165595 -9.213520029338237e-05 -0.0005459487337117048 0.0017796317965989889 0.0016643248115491638 0.9981786934983146 -0.004251968276566489
 -9.213755306528383e-05 -0.0005459500471049947 9.548940932473968e-05 0.0008708851202465398 0.9981786934983146 -0.004251968276566489 0.0017796392190837901 0.0016643211425724053
0.01250521050438 0.0019509664904464495 0.003363599883253371 0.9979589653582015 -0.008504493796462682 0.00013757194186967835 0.001742060693899766 -0.00012910682607617712 -0.0010945021625031425
 0.9979589653582015 -0.008504493796462682 0.0019509999134620906 0.0033635911529035396 -0.000129097544966886 -0.0010944997607719546 0.000137420087713426 0.0017420898568971158
 0.00013757194186967835 0.001742060693899766 -0.000129097544966886 -0.0010944997607719546 0.001950966985459525 0.003363432363409171 0.9979589639291835 -0.008504661212879476
 -0.00012910682607617712 -0.0010945021625031425 0.000137420087713426 0.0017420898568971158 0.9979589639291835 -0.008504661212879476 0.001950996631488765 0.0033634240359029085
0.01875781575657 0.0021380422175355375 0.005086866501368886 0.9977168814119856 -0.012768160834305665 0.0001890348329744958 0.0026141390955062662 -0.00017382646880639147 -0.0016448491170716084
 0.9977168814119856 -0.012768160834305665 0.002138117300150991 0.0050868520709918125 -0.00017380575918315205 -0.0016448459011389833 0.00018869381914126437 0.0026141910085546918
 0.0001890348329744958 0.0026141390955062662 -0.00017380575918315205 -0.0016448459011389833 0.0021380437414617592 0.005086615690262406 0.9977168786197477 -0.012768411795127317
 -0.00017382646880639147 -0.0016448491170716084 0.00018869381914126437 0.0026141910085546918 0.9977168786197477 -0.012768411795127317 0.0021381103732039915 0.0050866016384344065
0.02501042100875 0.0023412363397214615 0.0068317759384535276 0.9974521462390795 -0.017044931813707188 0.0002500173561426346 0.0034871325550533353 -0.00022640941643787434 -0.0021967283087633337
 0.9974521462390795 -0.017044931813707188 0.0023413696447142536 0.006831754817152879 -0.00022637282810231658 -0.002196724606117643 0.0002494118320824889 0.0034872139498454764
 0.0002500173561426346 0.0034871325550533353 -0.00022637282810231658 -0.002196724606117643 0.0023412394045813187 0.006831442144630769 0.9974521416468654 -0.017045266315392594
 -0.00022640941643787434 -0.0021967283087633337 0.0002494118320824889 0.0034872139498454764 0.9974521416468654 -0.017045266315392594 0.0023413577612478283 0.006831421228968492
0.03126302626094 0.0025609105994541057 0.008597066053970622 0.9971644494155036 -0.021335670040882743 0.0003206209431796843 0.004360984373126498 -0.00028696519605947944 -0.0027499515074404057
 0.9971644494155036 -0.021335670040882743 0.0025611186507810014 0.008597037176676843 -0.00028690832042447135 -0.002749947699522538 0.0003196755387997758 0.0043611029387026524
 0.0003206209431796843 0.004360984373126498 -0.00028690832042447135 -0.002749947699522538 0.002560915714662538 0.008596649606572415 0.9971644425832851 -0.0213360881364271
 -0.00028696519605947944 -0.0027499515074404057 0.0003196755387997758 0.0043611029387026524 0.9971644425832851 -0.0213360881364271 0.002561100518386186 0.008596620613870077
0.037515631513130004 0.002797418731194313 0.010381906129752786 0.9968534738840383 -0.025640794935687456 0.00040094627596226016 0.005235605607351463 -0.0003556007110167192 -0.00330435599026437
 0.9968534738840383 -0.025640794935687456 0.0027977180193304294 0.010381868357175925 -0.000355519176972948 -0.003304352512689773 0.0003995855764813687 0.005235769997182972
 0.00040094627596226016 0.005235605607351463 -0.000355519176972948 -0.003304352512689773 0.0027974264053267674 0.010381407411932903 0.9968534643676474 -0.025641296701549153
 -0.0003556007110167192 -0.00330435599026437 0.0003995855764813687 0.005235769997182972 0.9968534643676474 -0.025641296701549153 0.0027976923649973354 0.010381369055089884
0.043768236765320004 0.0030511093953048203 0.012185671962014874 0.99651889916564 -0.029960506867958574 0.0004910928120750129 0.006110889922243462 -0.0004324205116701482 -0.0038597897039444012
 0.99651889916564 -0.029960506867958574 0.003051516380718751 0.0121856240804877 -0.0004323099832346167 -0.0038597870466380163 0.0004892413496294158 0.006111109762528166
 0.0004910928120750129 0.006110889922243462 -0.0004323099832346167 -0.0038597870466380163 0.0030511201364010797 0.0121850914046232 0.9965188865144643 -0.029961092410719047
 -0.0004324205116701482 -0.0038597897039444012 0.0004892413496294158 0.006111109762528166 0.9965188865144643 -0.029961092410719047 0.0030514819500064663 0.012185042322367301
0.050020842017509996 0.0033223275307464857 0.014007852906001329 0.9961604029935572 -0.03429488003986355 0.0005911584917265941 0.00698671973866682 -0.0005175268867673074 -0.004416105130244168
 0.9961604029935572 -0.03429488003986355 0.003322858647143869 0.014007793627094716 -0.0005173830616592301 -0.004416103837522308 0.0005887407466468161 0.006987005637006676
 0.0005911584917265941 0.00698671973866682 -0.0005173830616592301 -0.004416103837522308 0.003322341847509721 0.014007190985736122 0.9961603867492694 -0.03429554949833359
 -0.0005175268867673074 -0.004416105130244168 0.0005887407466468161 0.006987005637006676 0.9961603867492694 -0.03429554949833359 0.003322814204485667 0.014007129742181592
0.055454545454549996 0.00357252436944026 0.015605993654127239 0.9958291808979385 -0.03807348491794999 0.000686248925858646 0.007748187866500114 -0.0005982943681995552 -0.004900162770298637
 0.9958291808979385 -0.03807348491794999 0.003573176687028442 0.015605923365853177 -0.0005981181388403106 -0.0049001631477884385 0.0006832776977578893 0.0077485405547768685
 0.000686248925858646 0.007748187866500114 -0.0005981181388403106 -0.0049001631477884385 0.0035725422098836245 0.015605261454526212 0.9958291611535586 -0.038074227434964754
 -0.0005982943681995552 -0.004900162770298637 0.0006832776977578893 0.0077485405547768685 0.9958291611535586 -0.038074227434964754 0.0035731225567424375 0.015605188418035371
0.056273447269699996 0.0036114150420099604 0.015848006253819585 0.9957776622856841 -0.038643908037075354 0.0007012395264919918 0.007862969248599362 -0.0006110198730441372 -0.004973156290323461
 0.9957776622856841 -0.038643908037075354 0.0036120866991743174 0.015847934213973142 -0.0006108384818365232 -0.004973156960963723 0.000698179934252112 0.00786333280277941
 0.0007012395264919918 0.007862969248599362 -0.0006108384818365232 -0.004973156960963723 0.0036114334471775704 0.01584726349758023 0.9957776419830744 -0.03864466157821686
 -0.0006110198730441372 -0.004973156290323461 0.000698179934252112 0.00786333280277941 0.9957776419830744 -0.03864466157821686 0.0036120310302858085 0.015847188581761096
0.06252605252188 0.003918711160224251 0.017705732152630875 0.9953703537962137 -0.04300752884379986 0.000821430228383651 0.008739506083263134 -0.0007129972237412374 -0.005530797100681051
 0.9953703537962137 -0.04300752884379986 0.0039195397462936585 0.01770564591259147 -0.0007127740293919221 -0.005530800387965268 0.0008176531898761591 0.008739959889908954
 0.000821430228383651 0.008739506083263134 -0.0007127740293919221 -0.005530800387965268 0.003918734170834092 0.01770490914066057 0.9953703289606709 -0.04300836665967478
 -0.0007129972237412374 -0.005530797100681051 0.0008176531898761591 0.008739959889908954 0.9953703289606709 -0.04300836665967478 0.003919471657380161 0.0177048189660288
0.06877865777407 0.00424455262404798 0.019580658658764696 0.9949381545907701 -0.047385639726835675 0.0009518228614378406 0.00961619230908754 -0.000823554352878123 -0.006088880406595035
 0.9949381545907701 -0.047385639726835675 0.004245554507784751 0.019580556702887383 -0.0008232851504485383 -0.0060888870183565934 0.00094725275635285 0.009616749972150946
 0.0009518228614378406 0.00961619230908754 -0.0008232851504485383 -0.0060888870183565934 0.004244580763036947 0.019579756020246943 0.9949381247377695 -0.04738656203911783
 -0.000823554352878123 -0.006088880406595035 0.00094725275635285 0.009616749972150946 0.9949381247377695 -0.04738656203911783 0.004245472826714381 0.01957964892398679
0.07503126302626001 0.004589273753792348 0.021472432256937204 0.9944807424196391 -0.05177810666019516 0.0010925075065418245 0.010492885068241278 -0.0009427842651606211 -0.0066472573767719645
 0.9944807424196391 -0.05177810666019516 0.004590465286659932 0.021472312992549817 -0.0009424648817311442 -0.006647268075421868 0.001087068708568619 0.010493561207228956
 0.0010925075065418245 0.010492885068241278 -0.0009424648817311442 -0.006647268075421868 0.004589307551964515 0.02147145067120612 0.9944807070537219 -0.0517791137190771
 -0.0009427842651606211 -0.0066472573767719645 0.001087068708568619 0.010493561207228956 0.9944807070537219 -0.0517791137190771 0.004590368864253439 0.021471324913496886
0.08128386827845 0.004953206460504143 0.023380711556432517 0.9939977960302826 -0.05618477057930712 0.0012435719345385875 0.011369437013435697 -0.0010707774759988347 -0.007205777109713742
 0.9939977960302826 -0.05618477057930712 0.004954603979104035 0.02338057331289408 -0.0010704037708156608 -0.0072057927122530655 0.0012371888283496347 0.011370247271334235
 0.0012435719345385875 0.011369437013435697 -0.0010704037708156608 -0.0072057927122530655 0.004953246457718508 0.02337965175780678 0.9939977546438686 -0.05618586265860164
 -0.0010707774759988347 -0.007205777109713742 0.0012371888283496347 0.011370247271334235 0.9939977546438686 -0.05618586265860164 0.0049544916889064745 0.023379505521078387
0.08753647353064001 0.005336680208087067 0.025305162943651552 0.9934889954361996 -0.060605451685498316 0.0014051014843763773 0.012245696616766156 -0.001207621925515725 -0.007764286372218988
 0.9934889954361996 -0.060605451685498316 0.005338300035802978 0.025305003971426824 -0.0012071897900796126 -0.007764307750250653 0.0013976984837396286 0.012246657667666317
 0.0014051014843763773 0.012245696616766156 -0.0012071897900796126 -0.007764307750250653 0.00533672695520917 0.025304025716213503 0.9934889475087976 -0.060606629087747874
 -0.001207621925515725 -0.007764286372218988 0.0013976984837396286 0.012246657667666317 0.9934889475087976 -0.060606629087747874 0.005338170776002508 0.02530385710422515
0.09378907878283 0.00574002194704257 0.02724545746600749 0.9929540221626045 -0.06503995252616514 0.0015771789451695729 0.01312150839906372 -0.0013534028871737516 -0.008322629423866638
 0.9929540221626045 -0.06503995252616514 0.005741880396143215 0.027245275935663744 -0.001352908245541619 -0.008322657503581054 0.0015686805123528956 0.013122637955395984
 0.0015771789451695729 0.01312150839906372 -0.001352908245541619 -0.008322657503581054 0.005740076007205832 0.02724424364572925 0.9929539671591797 -0.06504121558040597
 -0.0013534028871737516 -0.008322629423866638 0.0015686805123528956 0.013122637955395984 0.9929539671591797 -0.06504121558040597 0.005741733089709609 0.027244050682607317
0.100041684035 0.006163556024305927 0.029201268560882815 0.9923925594702806 -0.06948806023740485 0.001759884440612627 0.013996713108865085 -0.0015082028733694136 -0.008880647898392359
 0.9923925594702806 -0.06948806023740485 0.006165669397870152 0.029201062561824205 -0.0015076416824576682 -0.008880683660549216 0.0017502151065510606 0.013998029928268438
 0.001759884440612627 0.013996713108865085 -0.0015076416824576682 -0.008880683660549216 0.0061636179749207124 0.029199979037688138 0.9923924968410793 -0.06948940929680729
 -0.0015082028733694136 -0.008880647898392359 0.0017502151065510606 0.013998029928268438 0.9923924968410793 -0.06948940929680729 0.00616550299393712 0.029199759666845407
0.1059090909091 0.00657964909326926 0.031050411692758663 0.9918413140116058 -0.07367431117333398 0.0019410691847407335 0.014817302734394801 -0.001661739939104092 -0.00940385040683833
 0.9918413140116058 -0.07367431117333398 0.006582016507374042 0.031050180921403873 -0.0016611126511957817 -0.009403894318736054 0.0019302325257354843 0.014818813276928886
 0.0019410691847407335 0.014817302734394801 -0.0016611126511957817 -0.009403894318736054 0.006579718987377146 0.031049051982329948 0.9918412437119165 -0.07367574128756982
 -0.001661739939104092 -0.00940385040683833 0.0019302325257354843 0.014818813276928886 0.9918412437119165 -0.07367574128756982 0.006581831250714448 0.031048805887256857
0.1062942892872 0.006607604077516493 0.031172270348992837 0.9918042925693215 -0.07394954822979183 0.001953295314983683 0.014871147869170754 -0.0016721015383337659 -0.009438180724057511
 0.9918042925693215 -0.07394954822979183 0.006609988671319643 0.03117203788826516 -0.0016714697882873255 -0.009438225203963093 0.0019423797006551547 0.014872671760924841
 0.001953295314983683 0.014871147869170754 -0.0016714697882873255 -0.009438225203963093 0.006607674511686252 0.031170906061757143 0.9918042217482025 -0.07395098367651506
 -0.0016721015383337659 -0.009438180724057511 0.0019423797006551547 0.014872671760924841 0.9918042217482025 -0.07395098367651506 0.006609802145932252 0.031170658144710112
0.11254689453939999 0.007072484916788738 0.03315813633432641 0.9911889088220402 -0.07842417747563751 0.0021574860206977726 0.01574464629668025 -0.0018451755792061515 -0.009995064078359785
 0.9911889088220402 -0.07842417747563751 0.007075157021057033 0.033157875335184724 -0.0018444692938088356 -0.009995118365815743 0.002145248858993559 0.01574639812774713
 0.0021574860206977726 0.01574464629668025 -0.0018444692938088356 -0.009995118365815743 0.007072564444983537 0.03315669827298064 0.9911888292253802 -0.07842569971819284
 -0.0018451755792061515 -0.009995064078359785 0.002145248858993559 0.01574639812774713 0.9911888292253802 -0.07842569971819284 0.0070749493782072854 0.03315641958809827
0.11879949979160001 0.007558514396674265 0.03515853839279905 0.9905460979404287 -0.08291169751564108 0.002372528006898521 0.01661703860983505 -0.0020274986355048896 -0.010551131361037974
 0.9905460979404287 -0.08291169751564108 0.0075614902980400646 0.03515824669318842 -0.0020267138727143646 -0.010551196600249528 0.002358894165173682 0.016619040310425836
 0.002372528006898521 0.01661703860983505 -0.0020267138727143646 -0.010551196600249528 0.007558603648234339 0.035157027601569794 0.9905460089658663 -0.08291330698522563
 -0.0020274986355048896 -0.010551131361037974 0.002358894165173682 0.016619040310425836 0.9905460089658663 -0.08291330698522563 0.007561260570090825 0.035156715842748744
0.1250521050438 0.008066005279519924 0.037173145987075024 0.9898755521770858 -0.08741184724764994 0.0025984896087577172 0.017488151725567187 -0.002219141187820506 -0.011106213185361431
 0.9898755521770858 -0.08741184724764994 0.008069301262581848 0.03717282133802291 -0.002218274040124105 -0.011106290574938204 0.0025833841122407403 0.017490426294213022
 0.0025984896087577172 0.017488151725567187 -0.002218274040124105 -0.011106290574938204 0.008066104904716887 0.03717156355940848 0.9898754532029155 -0.08741354440274475
 -0.002219141187820506 -0.011106213185361431 0.0025833841122407403 0.017490426294213022 0.9898754532029155 -0.08741354440274475 0.00806904851231812 0.03717121633453386
0.131304710296 0.008595267094307142 0.039201625533181975 0.9891769665149674 -0.0919243555723956 0.0028354359378066542 0.018357809345988935 -0.0024201704553857206 -0.011660137386848363
 0.9891769665149674 -0.0919243555723956 0.008598899443440678 0.03920126559702869 -0.002419217050447955 -0.011660228179639189 0.0028187839935256524 0.018360380854209508
 0.0028354359378066542 0.018357809345988935 -0.002419217050447955 -0.011660228179639189 0.008595377765716708 0.039199972613205784 0.9891768568986378 -0.09192614089665323
 -0.0024201704553857206 -0.011660137386848363 0.0028187839935256524 0.018360380854209508 0.9891768568986378 -0.09192614089665323 0.008598622764004006 0.0391995874426544
0.1375573155481 0.009027961224817095 0.040979343232007054 0.9885687342140446 -0.09618451221255456 0.0030543580252344778 0.01919972462444918 -0.0026016013022086347 -0.012186626593785445
 0.9885687342140446 -0.09618451221255456 0.00903194840527782 0.04097895377700291 -0.002600556152691407 -0.01218673095759873 0.0030361186086419814 0.019202590083211374
 0.0030543580252344778 0.01919972462444918 -0.002600556152691407 -0.01218673095759873 0.009028084562705478 0.04097762021796647 0.9885686134541132 -0.09618638600469241
 -0.0026016013022086347 -0.012186626593785445 0.0030361186086419814 0.019202590083211374 0.9885686134541132 -0.09618638600469241 0.009031645697307604 0.04097720394606496
0.1438099208003 0.009475965187231815 0.042747193964110856 0.9879389421296692 -0.10043335799618251 0.0032821091940645687 0.020037914818859488 -0.002790271664983252 -0.012709701118914335
 0.9879389421296692 -0.10043335799618251 0.009480323842885196 0.04274677318254745 -0.002789130657925609 -0.01270982028408761 0.0032622138663217057 0.020041096334956085
 0.0032821091940645687 0.020037914818859488 -0.002789130657925609 -0.01270982028408761 0.009476102068687984 0.04274540198344367 0.9879388095825736 -0.10043532073214667
 -0.002790271664983252 -0.012709701118914335 0.0032622138663217057 0.020041096334956085 0.9879388095825736 -0.10043532073214667 0.009479994027500672 0.042744952794380654
0.1500625260525 0.009939113848014344 0.04450501493626564 0.987287759865666 -0.10467077195643888 0.0035186060688448683 0.020872284074946287 -0.0029861005581288437 -0.013229270732566877
 0.987287759865666 -0.10467077195643888 0.009943860641352045 0.04450456092379038 -0.0029848595947537487 -0.013229405978250596 0.00349698695618531 0.020875804536379168
 0.0035186060688448683 0.020872284074946287 -0.0029848595947537487 -0.013229405978250596 0.009939265183398176 0.044503155156842944 0.9872876148699846 -0.10467282413028126
 -0.0029861005581288437 -0.013229270732566877 0.00349698695618531 0.020875804536379168 0.9872876148699846 -0.10467282413028126 0.009943502655135572 0.04450267114368957
0.15631513130469998 0.010417240811780063 0.04625264822778925 0.9866153579879632 -0.1088966338852985 0.003763764231492308 0.021702738271176355 -0.0031890059482989528 -0.01374524719636855
