! Created with skrf 1.8.0 (http://scikit-rf.org).
# GHz S RI R 50.0 
!freq ReS11 ImS11 ReS12 ImS12 ReS13 ImS13
! ReS14 ImS14
! ReS21 ImS21 ReS22 ImS22 ReS23 ImS23
! ReS24 ImS24
! ReS31 ImS31 ReS32 ImS32 ReS33 ImS33
! ReS34 ImS34
! ReS41 ImS41 ReS42 ImS42 ReS43 ImS43
! ReS44 ImS44
!
0.0 0.001724602249119 0.0 0.9982753977388 0.0 6.649609459387e-05 0.0 -6.649609441582e-05 8.143422918213416e-21
 0.9982753977388 0.0 0.001724602249085 0.0 -6.649609441571e-05 8.143422918199944e-21 6.64960945929e-05 0.0
 6.649609459387e-05 0.0 -6.649609441571e-05 8.143422918199944e-21 0.001724602253386 0.0 0.9982753977431 0.0
 -6.649609441582e-05 8.143422918213416e-21 6.64960945929e-05 0.0 0.9982753977431 0.0 0.001724602253358 0.0
0.005 0.0018560479089936598 0.0014164975705269706 0.9981090464442016 -0.0036115677398088114 9.247360068892069e-05 0.0006958567353011521 -9.005830811536956e-05 -0.00044309350432196557
 0.9981090464442016 -0.0036115677398088114 0.0018560375787494026 0.0014165035477449058 -9.005752954573503e-05 -0.000443092849470937 9.253506320299913e-05 0.000695833214172732
 9.247360068892069e-05 0.0006958567353011521 -9.005752954573503e-05 -0.000443092849470937 0.0018560482487563795 0.0014164300464028017 0.9981090460762426 -0.003611634801314067
 -9.005830811536956e-05 -0.00044309350432196557 9.253506320299913e-05 0.000695833214172732 0.9981090460762426 -0.003611634801314067 0.0018560365077930996 0.001416436952180081
0.006252605252188 0.0018906958384882022 0.0017761413468356936 0.9980649027395637 -0.004515312640981799 9.995828394638285e-05 0.000870166119741094 -9.677702308820202e-05 -0.0005544213018068805
 0.9980649027395637 -0.004515312640981799 0.0018906796912907405 0.0017761489711908523 -9.6775812029363e-05 -0.0005544204933409506 0.00010005431150196446 0.0008701355790620017
 9.995828394638285e-05 0.000870166119741094 -9.6775812029363e-05 -0.0005544204933409506 0.0018906964308412011 0.0017760569502929598 0.9980649022249816 -0.004515396454331191
 -9.677702308820202e-05 -0.0005544213018068805 0.00010005431150196446 0.0008701355790620017 0.9980649022249816 -0.004515396454331191 0.00189067807742151 0.001776065748702989
0.01250521050438 0.0020741004877509787 0.0035890022824509806 0.997829614454352 -0.009031195276709888 0.0001432157146327097 0.0017407432445161737 -0.0001352531158507817 -0.0011113862725883699
 0.997829614454352 -0.009031195276709888 0.0020740360229288555 0.0035890190835305164 -0.0001352483487798453 -0.001111384766731874 0.0001435986002741546 0.0017406697656575075
 0.0001432157146327097 0.0017407432445161737 -0.0001352483487798453 -0.001111384766731874 0.0020741034433171914 0.003588833678151083 0.9978296129802015 -0.00903136266873242
 -0.0001352531158507817 -0.0011113862725883699 0.0001435986002741546 0.0017406697656575075 0.9978296129802015 -0.00903136266873242 0.0020740301532602124 0.003588852977896704
0.01875781575657 0.0022752519101946794 0.0054272004681598755 0.9975692151043405 -0.01355859051569576 0.00019637591442796788 0.0026122482454711458 -0.00018204869835703464 -0.001670118909111821
 0.9975692151043405 -0.01355859051569576 0.002275107074202169 0.005427228126961138 -0.0001820380755685691 -0.001670116838790111 0.00019723590612272216 0.0026121167662126223
 0.00019637591442796788 0.0026122482454711458 -0.0001820380755685691 -0.001670116838790111 0.0022752589987198014 0.005426947691663755 0.9975692122189069 -0.013558841409145204
 -0.00018204869835703464 -0.001670118909111821 0.00019723590612272216 0.0026121167662126223 0.9975692122189069 -0.013558841409145204 0.0022750943014258652 0.005426979375312151
0.02501042100875 0.002494570839011765 0.007288132518437804 0.9972833733848924 -0.018099647404279294 0.00025954697235492307 0.0034846820737394132 -0.00023728360606599627 -0.002230351439454746
 0.9972833733848924 -0.018099647404279294 0.0024943136533520714 0.007288172835272983 -0.00023726485805439766 -0.0022303489618889978 0.00026107431057513356 0.0034844749534777984
 0.00025954697235492307 0.0034846820737394132 -0.00023726485805439766 -0.0022303489618889978 0.0024945838364176767 0.007287795584154193 0.9972833686342611 -0.0180999817482314
 -0.00023728360606599627 -0.002230351439454746 0.00026107431057513356 0.0034844749534777984 0.9972833686342611 -0.0180999817482314 0.0024942913277763365 0.007287841703029504
0.03126302626094 0.002732460615651261 0.0091704363571617 0.9969717424321252 -0.02265525904604166 0.0003328367456465003 0.004357969273255359 -0.0003010739399054412 -0.002791884905407122
 0.9969717424321252 -0.02265525904604166 0.0027320591592654452 0.00917049125007868 -0.00030104482232892754 -0.0027918822023369817 0.0003352218377179328 0.004357666278775863
 0.0003328367456465003 0.004357969273255359 -0.00030104482232892754 -0.0027918822023369817 0.0027324813071675997 0.009170015255067583 0.9969717353614548 -0.022655676819204836
 -0.0003010739399054412 -0.002791884905407122 0.0003352218377179328 0.004357666278775863 0.9969717353614548 -0.022655676819204836 0.0027320246306521603 0.009170078028138044
0.037515631513130004 0.0029893154652654635 0.01107320694788702 0.996633968442611 -0.027225846809128627 0.0004163519263745157 0.005232003641440564 -0.0003735328185332102 -0.0033545435334476725
 0.996633968442611 -0.027225846809128627 0.002988737862120327 0.011073278451928244 -0.00037349110956037303 -0.0033545408111520215 0.0004197854218670435 0.005231581922151114
 0.0004163519263745157 0.005232003641440564 -0.00037349110956037303 -0.0033545408111520215 0.00298934564774622 0.01107270164594345 0.996633958598217 -0.027226348017247645
 -0.0003735328185332102 -0.0033545435334476725 0.0004197854218670435 0.005231581922151114 0.996633958598217 -0.027226348017247645 0.0029886884821020586 0.011072783459761251
0.043768236765320004 0.0032655236774073618 0.01299575763215174 0.9962696942000504 -0.03181159891458051 0.0005101975797231576 0.006106662120846397 -0.0004547706297245224 -0.0039181608699702
 0.9962696942000504 -0.03181159891458051 0.003264738087066875 0.012995847899141691 -0.0004547141284562208 -0.0039181583592420195 0.0005148704033988821 0.0061060961807492
 0.0005101975797231576 0.006106662120846397 -0.0004547141284562208 -0.0039181583592420195 0.0032655651561238736 0.012995168091582455 0.9962696811252023 -0.031812183575113666
 -0.0004547706297245224 -0.0039181608699702 0.0005148704033988821 0.0061060961807492 0.9962696811252023 -0.031812183575113666 0.0032646712062317793 0.012995271500665073
0.050020842017509996 0.0035614690675120943 0.014937521493940578 0.9958785608842041 -0.03641256899761201 0.0006144768506776035 0.006981810544725518 -0.0005448951014111883 -0.004482574064947751
 0.9958785608842041 -0.03641256899761201 0.003560443676744586 0.014937632792479826 -0.0005448216268533101 -0.004482572021033771 0.0006205802130040355 0.006981072213057454
 0.0006144768506776035 0.006981810544725518 -0.0005448216268533101 -0.004482572021033771 0.003561523657968828 0.014936847671316384 0.9958785441201263 -0.036413237137456256
 -0.0005448951014111883 -0.004482574064947751 0.0006205802130040355 0.006981072213057454 0.9958785441201263 -0.036413237137456256 0.003560356646777219 0.01493697539889763
0.055454545454549996 0.0038349788554527518 0.016640190441927435 0.99551656224975 -0.040423286558985715 0.0007136505727206037 0.007742628482427075 -0.0006305147156209874 -0.0049735867288361055
 0.99551656224975 -0.040423286558985715 0.003833719249842778 0.016640321950849055 -0.0006304247344841615 -0.004973585316841819 0.0007211526221918627 0.00774171535932014
 0.0007136505727206037 0.007742628482427075 -0.0006304247344841615 -0.004973585316841819 0.00383504632135394 0.016639443332587642 0.9955165419035391 -0.04042402727804198
 -0.0006305147156209874 -0.0049735867288361055 0.0007211526221918627 0.00774171535932014 0.9955165419035391 -0.04042402727804198 0.0038336125585102096 0.01663959453713782
0.056273447269699996 0.003877531711406637 0.016898002968575795 0.9954602091588975 -0.041028724427820316 0.0007292907442261603 0.007857306465562137 -0.0006440112928261884 -0.005047621077380199
 0.9954602091588975 -0.041028724427820316 0.0038762347263901044 0.01689813768436551 -0.000643918683221682 -0.005047619779926922 0.0007370161379633399 0.007856364866909268
 0.0007292907442261603 0.007857306465562137 -0.000643918683221682 -0.005047619779926922 0.003877601237975167 0.016897244809699934 0.9954601882428004 -0.04102947608917211
 -0.0006440112928261884 -0.005047621077380199 0.0007370161379633399 0.007856364866909268 0.9954601882428004 -0.04102947608917211 0.0038761248989356745 0.016897399748809973
0.06252605252188 0.00421408831994848 0.018876751218725164 0.9950142799043457 -0.04565997286773298 0.000854737942760717 0.008733000717253914 -0.0007522215439410013 -0.00561313915305007
 0.9950142799043457 -0.04565997286773298 0.004212487958834893 0.018876911855092306 -0.0007521076561649601 -0.0056131389060382715 0.0008642771307115289 0.008731822241535141
 0.000854737942760717 0.008733000717253914 -0.0007521076561649601 -0.0056131389060382715 0.004214174616872155 0.01887590866135097 0.9950142543704311 -0.04566080810521693
 -0.0007522215439410013 -0.00561313915305007 0.0008642771307115289 0.008731822241535141 0.9950142543704311 -0.04566080810521693 0.00421235268798637 0.018876093876043974
0.06877865777407 0.00457151241849137 0.020873344281188685 0.9945404147603945 -0.05030617806738119 0.0009909146436955134 0.00960873835721587 -0.0008696254014947812 -0.006178963929031556
 0.9945404147603945 -0.05030617806738119 0.004569576904414139 0.020873533459854397 -0.0008694881107976213 -0.006178965060713456 0.0010024596398106613 0.009607286629680127
 0.0009909146436955134 0.00960873835721587 -0.0008694881107976213 -0.006178965060713456 0.004571617330221988 0.020872417258406363 0.994540384138668 -0.05030709694445035
 -0.0008696254014947812 -0.006178963929031556 0.0010024596398106613 0.009607286629680127 0.994540384138668 -0.05030709694445035 0.0045694135468715286 0.020872635985267503
0.07503126302626001 0.004950174410179177 0.02288737901518087 0.9940382565571173 -0.05496716986515254 0.0011379144092823943 0.010484359274162287 -0.0009963195303597503 -0.006744928879557108
 0.9940382565571173 -0.05496716986515254 0.004947871964169501 0.02288759947737138 -0.0009961567300241412 -0.006744931742398855 0.0011516574550063249 0.010482595125647164
 0.0011379144092823943 0.010484359274162287 -0.0009961567300241412 -0.006744931742398855 0.0049502997909117 0.022886367448907364 0.9940382203732464 -0.05496817246030086
 -0.0009963195303597503 -0.006744928879557108 0.0011516574550063249 0.010482595125647164 0.9940382203732464 -0.05496817246030086 0.004947677880158118 0.022886623098821054
0.08128386827845 0.005350441564855384 0.024918464416768666 0.9935074496773451 -0.05964275083077068 0.0012958280238499656 0.011359698605138793 -0.0011323976153398956 -0.007310864960170859
 0.9935074496773451 -0.05964275083077068 0.005347740399183878 0.02491871902438689 -0.001132207216552648 -0.007310869930780698 0.0013119615606313644 0.011357580042603645
 0.0012958280238499656 0.011359698605138793 -0.001132207216552648 -0.007310869930780698 0.005350589279034294 0.02491736822305157 0.9935074074520769 -0.05964383723198821
 -0.0011323976153398956 -0.007310864960170859 0.0013119615606313644 0.011357580042603645 0.9935074074520769 -0.05964383723198821 0.005347512953352635 0.024917664383170973
0.08753647353064001 0.005772677959804379 0.026966217006691544 0.992947640374743 -0.06433270084370797 0.001464743356062616 0.012234587035922614 -0.001277950256514442 -0.007876600376148409
 0.992947640374743 -0.06433270084370797 0.005769546270396092 0.026966508744080953 -0.0012777301881594825 -0.00787660785522309 0.00148345999462316 0.012232069213400495
 0.001464743356062616 0.012234587035922614 -0.0012777301881594825 -0.00787660785522309 0.00577284988143102 0.026965036094870668 0.9929475916227573 -0.06433387114903028
 -0.001277950256514442 -0.007876600376148409 0.00148345999462316 0.012232069213400495 0.9929475916227573 -0.06433387114903028 0.005769282832551078 0.026965376530946876
0.09378907878283 0.006217244384542494 0.029030257539467943 0.9923584770606919 -0.0690367803597569 0.001644745224416518 0.013108851028103805 -0.0014330648597479516 -0.008441960432263583
 0.9923584770606919 -0.0690367803597569 0.0062136503448361625 0.029030589515026836 -0.0014328130683815105 -0.008441970844516667 0.0016662377116184023 0.013105886218077402
 0.001644745224416518 0.013108851028103805 -0.0014328130683815105 -0.008441970844516667 0.006217442398255345 0.029028991810423992 0.9923584212911816 -0.06903803467870952
 -0.0014330648597479516 -0.008441960432263583 0.0016662377116184023 0.013105886218077402 0.9923584212911816 -0.06903803467870952 0.0062133482913709496 0.029029380469209994
0.100041684035 0.006684498224734944 0.03111020859458215 0.9917396105740257 -0.0737547328049152 0.001835915265030071 0.013982313001923813 -0.0015978255243227664 -0.00900676743497456
 0.9917396105740257 -0.0737547328049152 0.006680409978157368 0.03111058404302719 -0.001597539974054298 -0.00900678122907709 0.0018603764482315501 0.013978850567217592
 0.001835915265030071 0.013982313001923813 -0.001597539974054298 -0.00900678122907709 0.006684724225053945 0.031108857941433036 0.9917395472898207 -0.07375607125751563
 -0.0015978255243227664 -0.00900676743497456 0.0018603764482315501 0.013978850567217592 0.9917395472898207 -0.07375607125751563 0.0066800666928019045 0.031109298953555853
0.1059090909091 0.007143915599804025 0.03307615632611228 0.9911315466293679 -0.07819440611714473 0.0020255352157385774 0.014801073391591918 -0.0017612808325144262 -0.009536114938435324
 0.9911315466293679 -0.07819440611714473 0.007139334587124879 0.03307657562573479 -0.0017609617671697226 -0.009536132335384747 0.0020529576544803703 0.014797095318881253
 0.0020255352157385774 0.014801073391591918 -0.0017609617671697226 -0.009536132335384747 0.007144169594923337 0.033074725875745295 0.9911314758348923 -0.07819582363920675
 -0.0017612808325144262 -0.009536114938435324 0.0020529576544803703 0.014797095318881253 0.9911314758348923 -0.07819582363920675 0.007138950237871195 0.03307521993910591
0.1062942892872 0.007174793324210662 0.03320569277957948 0.9910906944341712 -0.07848628636773451 0.0020383318013054703 0.014854791484252134 -0.0017723129276977687 -0.009570840637711122
 0.9910906944341712 -0.07848628636773451 0.007170178977952395 0.03320611506426497 -0.0017719916002617048 -0.009570858286219269 0.0020659545909429743 0.014850777850525939
 0.0020383318013054703 0.014854791484252134 -0.0017719916002617048 -0.009570858286219269 0.007175049215990663 0.03320425708640284 0.991090623130837 -0.07848770908535231
 -0.0017723129276977687 -0.009570840637711122 0.0020659545909429743 0.014850777850525939 0.991090623130837 -0.07848770908535231 0.007169791852546778 0.03320475476936265
0.11254689453939999 0.007688479836044307 0.03531633135126243 0.9904113850848874 -0.08323115538350567 0.002252069715044947 0.01572610124089169 -0.0019566042088425446 -0.010133996210501312
 0.9904113850848874 -0.08323115538350567 0.007683307453562143 0.0353168039669081 -0.0019562451034723536 -0.010134018209803504 0.002283047045256526 0.01572147986969108
 0.002252069715044947 0.01572610124089169 -0.0019562451034723536 -0.010134018209803504 0.007688767534577017 0.03531481049544689 0.9904113052507032 -0.08323266250613805
 -0.0019566042088425446 -0.010133996210501312 0.002283047045256526 0.01572147986969108 0.9904113052507032 -0.08323266250613805 0.007682873889665452 0.035315369356983484
0.11879949979160001 0.008225904061584457 0.03744174316708344 0.9897013421310098 -0.08798904139901594 0.0024772003184721386 0.016596053390720913 -0.002150772850365716 -0.010696047236229866
 0.9897013421310098 -0.08798904139901594 0.008220141655865895 0.03744226974279239 -0.00215037398392102 -0.010696074106476763 0.0025117251061963185 0.016590764753194362
 0.0024772003184721386 0.016596053390720913 -0.00215037398392102 -0.010696074106476763 0.008226225492370651 0.0374401370158225 0.9897012532463849 -0.08799063307848438
 -0.002150772850365716 -0.010696047236229866 0.0025117251061963185 0.016590764753194362 0.9897012532463849 -0.08799063307848438 0.008219659065398333 0.03744076175748916
0.1250521050438 0.008787408281162418 0.039581543851279585 0.988960228569375 -0.09275963403342313 0.0027137912277248478 0.017464455515764747 -0.0023548885596948194 -0.011256803719944457
 0.988960228569375 -0.09275963403342313 0.008781023807709919 0.03958212815382013 -0.0023544479665889473 -0.01125683600496582 0.002752056330192592 0.017458437067060933
 0.0027137912277248478 0.017464455515764747 -0.0023544479665889473 -0.01125683600496582 0.00878776538008383 0.03957985226229042 0.9889601301062911 -0.09276131043220841
 -0.0023548885596948194 -0.011256803719944457 0.002752056330192592 0.017458437067060933 0.9889601301062911 -0.09276131043220841 0.008780489614257344 0.039580547783392483
0.131304710296 0.009373330578088073 0.041735345140159946 0.9881877110158125 -0.0975426116710256 0.0029619062370091253 0.018331111762245715 -0.0025690171500853992 -0.011816072615863128
 0.9881877110158125 -0.0975426116710256 0.009366291928138981 0.04173599107758041 -0.002568532882436944 -0.01181611088313703 0.003004104407943774 0.018324297916653673
 0.0029619062370091253 0.018331111762245715 -0.002568532882436944 -0.01181611088313703 0.009373725291311755 0.04173356796169929 0.988187602436831 -0.09754437296170795
 -0.0025690171500853992 -0.011816072615863128 0.003004104407943774 0.018324297916653673 0.988187602436831 -0.09754437296170795 0.009365703567738665 0.041734339363511376
0.1375573155481 0.009855631048745348 0.04362423931432558 0.9875118977053338 -0.10205895676882389 0.003191518532185687 0.01916911928350317 -0.0027630933822434 -0.0123470118890056
 0.9875118977053338 -0.10205895676882389 0.009847902842462355 0.04362493624155019 -0.002762562373500596 -0.012347056232180789 0.003237750173738911 0.019161515022370793
 0.003191518532185687 0.01916911928350317 -0.002762562373500596 -0.012347056232180789 0.009856064329410507 0.043622376699737786 0.9875117785458821 -0.10206080302124444
 -0.0027630933822434 -0.0123470118890056 0.003237750173738911 0.019161515022370793 0.9875117785458821 -0.10206080302124444 0.009847258613338546 0.04362321375534395
0.1438099208003 0.010355106323859565 0.045502155104112534 0.9868119457518035 -0.10656277648268149 0.0034303509198574246 0.020003072646727845 -0.0029648756659112403 -0.01287417327023688
 0.9868119457518035 -0.10656277648268149 0.010346655856353418 0.04550290604245293 -0.0029642957925241228 -0.012874224258111383 0.0034807919803826674 0.019994617427186008
 0.0034303509198574246 0.020003072646727845 -0.0029642957925241228 -0.012874224258111383 0.01035557995296695 0.04550020694055485 0.9868118154772796 -0.10656470785795205
 -0.0029648756659112403 -0.01287417327023688 0.0034807919803826674 0.019994617427186008 0.9868118154772796 -0.10656470785795205 0.010345953367510527 0.0455011138131867
0.1500625260525 0.010871564908123089 0.04736890382428325 0.986088051401845 -0.11105392628868652 0.003678310023524316 0.020832866341734556 -0.0031742722344155084 -0.013397456099029656
 0.986088051401845 -0.11105392628868652 0.010862359392480998 0.04736971196964145 -0.003173641376474638 -0.01339751432375171 0.003733135291628389 0.020823497392342512
 0.003678310023524316 0.020832866341734556 -0.003173641376474638 -0.01339751432375171 0.010872080664817417 0.04736686999374213 0.9860879094704054 -0.1110559429546278
 -0.0031742722344155084 -0.013397456099029656 0.003733135291628389 0.020823497392342512 0.9860879094704054 -0.1110559429546278 0.010861596274694426 0.04736785106424789
0.15631513130469998 0.011404813760929937 0.04922430239025449 0.9853404121032019 -0.11553226289049431 0.003935301258369842 0.021658396911016925 -0.0033911900941464906 -0.013916762028675768
 0.9853404121032019 -0.11553226289049431 0.011394820325859626 0.049225171117180805 -0.003390506135393648 -0.013916828105765937 0.003994684343687826 0.02164804925607047
