! Created with skrf 1.8.0 (http://scikit-rf.org).
# GHz S RI R 50.0 
!freq ReS11 ImS11 ReS12 ImS12 ReS13 ImS13
! ReS14 ImS14
! ReS21 ImS21 ReS22 ImS22 ReS23 ImS23
! ReS24 ImS24
! ReS31 ImS31 ReS32 ImS32 ReS33 ImS33
! ReS34 ImS34
! ReS41 ImS41 ReS42 ImS42 ReS43 ImS43
! ReS44 ImS44
!
0.0 0.001864721969134 0.0 0.9981352780138 0.0 7.275497226304e-05 0.0 -7.27549722627e-05 8.909914390357002e-21
 0.9981352780138 0.0 0.001864721969145 0.0 -7.275497226242e-05 8.909914390322713e-21 7.275497226214e-05 0.0
 7.275497226304e-05 0.0 -7.275497226242e-05 8.909914390322713e-21 0.001864721966295 0.0 0.998135278011 0.0
 -7.27549722627e-05 8.909914390357002e-21 7.275497226214e-05 0.0 0.998135278011 0.0 0.001864721966314 0.0
0.005 0.0020074821926804876 0.0015189860556464596 0.9979544731627673 -0.0039052002684724224 0.0001033656802342336 0.0008347533179358412 -0.00010017615880363807 -0.0005179408856904917
 0.9979544731627673 -0.0039052002684724224 0.002007457619288249 0.0015190003849948315 -0.00010017275152436007 -0.0005179382452614057 0.00010352784288962537 0.0008346914312699213
 0.0001033656802342336 0.0008347533179358412 -0.00010017275152436007 -0.0005179382452614057 0.0020074836809717903 0.0015189178550712886 0.997954472777639 -0.0039052673298939217
 -0.00010017615880363807 -0.0005179408856904917 0.00010352784288962537 0.0008346914312699213 0.997954472777639 -0.0039052673298939217 0.002007455362247696 0.001518934461371105
0.006252605252188 0.0020452650301462606 0.0019046860141997807 0.9979062700579959 -0.004882403363011816 0.00011227985716196463 0.0010438095628379496 -0.00010808450879609842 -0.0006480820516914396
 0.9979062700579959 -0.004882403363011816 0.0020452266177701673 0.0019047042385619238 -0.00010807920704853463 -0.000648078796951867 0.00011253321665127498 0.0010437291375881264
 0.00011227985716196463 0.0010438095628379496 -0.00010807920704853463 -0.000648078796951867 0.0020452674315046206 0.0019046007635494253 0.9979062695304866 -0.004882487183607085
 -0.00010808450879609842 -0.0006480820516914396 0.00011253321665127498 0.0010437291375881264 0.9979062695304866 -0.004882487183607085 0.0020452231635940134 0.001904621845702738
0.01250521050438 0.002246146777219075 0.0038489625971010444 0.9976480704350401 -0.00976522946218786 0.00016429322618149785 0.0020877249582775138 -0.00015384747531561717 -0.0012991027593530812
 0.9976480704350401 -0.00976522946218786 0.002245993397881439 0.003849002184603421 -0.00015382658522108085 -0.001299096759495459 0.00016530346658948168 0.0020875305834204085
 0.00016429322618149785 0.0020877249582775138 -0.00015382658522108085 -0.001299096759495459 0.0022461569351749145 0.00384879227161137 0.997648068890743 -0.009765396845265322
 -0.00015384747531561717 -0.0012991027593530812 0.00016530346658948168 0.0020875305834204085 0.997648068890743 -0.009765396845265322 0.0022459801612373658 0.003848837729427684
0.01875781575657 0.002467874734559101 0.005820461809923265 0.9973603096344607 -0.014660282125665629 0.00022892708771100355 0.003132427547440536 -0.0002101997353550402 -0.00195202335756247
 0.9973603096344607 -0.014660282125665629 0.0024675300836240806 0.005820526085579315 -0.00021015315611528528 -0.0019520152376143525 0.0002311962346209926 0.0031320781361665272
 0.00022892708771100355 0.003132427547440536 -0.00021015315611528528 -0.0019520152376143525 0.0024678979927188704 0.005820206373858784 0.99736030658414 -0.014660532961574997
 -0.0002101997353550402 -0.00195202335756247 0.0002311962346209926 0.0031320781361665272 0.99736030658414 -0.014660532961574997 0.0024675007479505445 0.005820279804457902
0.02501042100875 0.0027109369935954994 0.007816320568655173 0.9970426019102168 -0.01956984174276254 0.0003063139192530029 0.004177912306236006 -0.00027729019265105366 -0.002606480934515833
 0.9970426019102168 -0.01956984174276254 0.002710324912330734 0.007816413018431449 -0.0002772079478085253 -0.0026064714448962435 0.0003103439769859794 0.004177359422649679
 0.0003063139192530029 0.004177912306236006 -0.0002772079478085253 -0.0026064714448962435 0.0027109786987815545 0.007815979883559424 0.9970425968717934 -0.019570175964152482
 -0.00027729019265105366 -0.002606480934515833 0.0003103439769859794 0.004177359422649679 0.9970425968717934 -0.019570175964152482 0.002710273172558252 0.007816085157554489
0.03126302626094 0.002975801102067432 0.00983501847061751 0.9966945447033458 -0.024494827434926317 0.0003965854387886556 0.005224072451575265 -0.00035526217760597725 -0.0032622040251372247
 0.9966945447033458 -0.024494827434926317 0.0029748455290142624 0.009835142736274725 -0.00035513439467698197 -0.003262194042750023 0.00040287881974494864 0.005223260267262422
 0.0003965854387886556 0.005224072451575265 -0.00035513439467698197 -0.003262194042750023 0.00297586659707593 0.00983459234098262 0.9966945371924966 -0.024495244970981937
 -0.00035526217760597725 -0.0032622040251372247 0.00040287881974494864 0.005223260267262422 0.9966945371924966 -0.024495244970981937 0.0029747650797865752 0.009834733597928106
0.037515631513130004 0.003262923350876993 0.011875528630574467 0.996315728412785 -0.029435646176078724 0.0004998713330954685 0.0062707602238919425 -0.00044425450373386966 -0.003918951907746079
 0.996315728412785 -0.029435646176078724 0.003261548286590777 0.011875688507246109 -0.0004440714040505323 -0.003918942436218029 0.0005089310277646334 0.006269625447824651
 0.0004998713330954685 0.0062707602238919425 -0.0004440714040505323 -0.003918942436218029 0.003263017979233292 0.011875016782136325 0.9963157179466315 -0.029436146973786333
 -0.00044425450373386966 -0.003918951907746079 0.0005089310277646334 0.006269625447824651 0.9963157179466315 -0.029436146973786333 0.0032614328245816372 0.011875198429481903
0.043768236765320004 0.003572752335611778 0.01393705924103839 0.9959057404375015 -0.03439245117801209 0.0006162986314922975 0.00731780537757478 -0.0005444018056876253 -0.004576496183969923
 0.9959057404375015 -0.03439245117801209 0.0035708818126150774 0.013937258676283254 -0.0005441536984097439 -0.00457648835366883 0.0006286282676793414 0.007316277177987487
 0.0006162986314922975 0.00731780537757478 -0.0005441536984097439 -0.00457648835366883 0.0035728814418501268 0.013936461340904472 0.9959057265349793 -0.03439303518148648
 -0.0005444018056876253 -0.004576496183969923 0.0006286282676793414 0.007316277177987487 0.9959057265349793 -0.03439303518148648 0.0035707250366896694 0.01393668805444945
0.050020842017509996 0.00390573057368305 0.01601894680104912 0.9954641672777691 -0.0393652486087622 0.0007459912994085602 0.008365022856752034 -0.0006558346306298745 -0.005234613177215473
 0.9954641672777691 -0.0393652486087622 0.003903288629137276 0.01601918989487125 -0.0006555119091727163 -0.005234608245154109 0.0007620951413670718 0.008363022780236807
 0.0007459912994085602 0.008365022856752034 -0.0006555119091727163 -0.005234608245154109 0.003905899502230094 0.01601826244449581 0.9954641494581269 -0.03936591577179283
 -0.0006558346306298745 -0.005234613177215473 0.0007620951413670718 0.008363022780236807 0.9954641494581269 -0.03936591577179283 0.0039030842384391033 0.016018539170352057
0.055454545454549996 0.004214238480048798 0.01784424481892542 0.9950544549162349 -0.0436996811165207 0.000869565009787837 0.009275074463371915 -0.0007619366586461159 -0.0058068290012926035
 0.9950544549162349 -0.0436996811165207 0.004211238245820812 0.017844529302335578 -0.0007615413571363813 -0.005806827707028527 0.0008893587424710724 0.009272594616897108
 0.000869565009787837 0.009275074463371915 -0.0007615413571363813 -0.005806827707028527 0.004214446355706395 0.017843484955971094 0.9950544333026464 -0.043700420505889195
 -0.0007619366586461159 -0.0058068290012926035 0.0008893587424710724 0.009272594616897108 0.9950544333026464 -0.043700420505889195 0.004210987360145593 0.017843809372842134
0.056273447269699996 0.004262295297029951 0.01812060370730251 0.9949905958174355 -0.04435394995556294 0.0008890699325813808 0.009412216564785499 -0.0007786794149923382 -0.005893080245442857
 0.9949905958174355 -0.04435394995556294 0.0042592059467844254 0.018120894713322847 -0.0007782725546764654 -0.005893079595186238 0.0009094528446113993 0.009409658454578975
 0.0008890699325813808 0.009412216564785499 -0.0007782725546764654 -0.005893079595186238 0.004262509392321692 0.01811983243048372 0.9949905736005954 -0.04435470022824133
 -0.0007786794149923382 -0.005893080245442857 0.0009094528446113993 0.009409658454578975 0.9949905736005954 -0.04435470022824133 0.004258947641426518 0.018120164387780965
0.06252605252188 0.004642878837951253 0.02024148946459077 0.9944846142043418 -0.04935840077793768 0.0010456514993299618 0.010459181469982889 -0.000913058405924898 -0.006551673767518115
 0.9944846142043418 -0.04935840077793768 0.00463906605140627 0.020241832792106697 -0.0009125579625625808 -0.006551678909036086 0.001070818884492132 0.010455971384534284
 0.0010456514993299618 0.010459181469982889 -0.0009125579625625808 -0.006551678909036086 0.004643143444351094 0.020240630739719087 0.9944845871113374 -0.04935923411082437
 -0.000913058405924898 -0.006551673767518115 0.001070818884492132 0.010455971384534284 0.9944845871113374 -0.04935923411082437 0.004638747532581009 0.020241023424472447
0.06877865777407 0.0050479087929769725 0.022381093527971112 0.9939458125154418 -0.054378397840438075 0.001215849110999801 0.011505704875645152 -0.0010590895491492036 -0.007210167976096442
 0.9939458125154418 -0.054378397840438075 0.0050432964682005635 0.02238149374500064 -0.0010584861581574012 -0.007210180545617564 0.0012463068327730662 0.011501741008020072
 0.001215849110999801 0.011505704875645152 -0.0010584861581574012 -0.007210180545617564 0.00504822925335362 0.022380146760017403 0.993945780067341 -0.05437931418724829
 -0.0010590895491492036 -0.007210167976096442 0.0012463068327730662 0.011501741008020072 0.993945780067341 -0.05437931418724829 0.0050429114377149266 0.022380605949936225
0.07503126302626001 0.005477808051356341 0.02453892444079076 0.9933737832908388 -0.05941369996197896 0.0013997718078797843 0.012551567253286528 -0.0012168863582562035 -0.007868334238780611
 0.9933737832908388 -0.05941369996197896 0.005472319990591127 0.024539386278094873 -0.0012161707342594216 -0.007868355998612464 0.0014360260982791086 0.01254673985192213
 0.0013997718078797843 0.012551567253286528 -0.0012161707342594216 -0.007868355998612464 0.00547818970795583 0.024537888973876845 0.9933737450097012 -0.05941469927232395
 -0.0012168863582562035 -0.007868334238780611 0.0014360260982791086 0.01254673985192213 0.9933737450097012 -0.05941469927232395 0.005471862152271908 0.024538420734267798
0.08128386827845 0.005932994742056659 0.026714502627515943 0.9927681219920687 -0.06446403522332265 0.0015975243567300109 0.013596542815717682 -0.0013865577698701846 -0.008525940611470023
 0.9927681219920687 -0.06446403522332265 0.005926554627343599 0.026715030983661833 -0.0013857207065716545 -0.008525973449826234 0.0016400817142953087 0.013590734106703022
 0.0015975243567300109 0.013596542815717682 -0.0013857207065716545 -0.008525973449826234 0.005933442934880142 0.026713377737742287 0.9927680774003802 -0.0644651174494712
 -0.0013865577698701846 -0.008525940611470023 0.0016400817142953087 0.013590734106703022 0.9927680774003802 -0.0644651174494712 0.00592601768655717 0.026713988428182116
0.08753647353064001 0.006413882123828094 0.028907355416125973 0.992128427407538 -0.06952910595920264 0.0018092070543396532 0.014640399941498319 -0.0015682079917454029 -0.009182751552660252
 0.992128427407538 -0.06952910595920264 0.006406413492230912 0.02890795536357402 -0.001567240362066285 -0.009182797483443812 0.0018585741330527786 0.014633484052710801
 0.0018092070543396532 0.014640399941498319 -0.001567240362066285 -0.009182797483443812 0.006414402190496768 0.028906140316268567 0.9921283760283485 -0.06953027105043702
 -0.0015682079917454029 -0.009182751552660252 0.0018585741330527786 0.014633484052710801 0.9921283760283485 -0.06953027105043702 0.006405791156700672 0.028906836598664415
0.09378907878283 0.006920878437138484 0.031117013507092763 0.9914543020251839 -0.07460859231808081 0.002034915536534398 0.015682901503575836 -0.001761936344412257 -0.009838527746289833
 0.9914543020251839 -0.07460859231808081 0.00691230465632739 0.031117690299388257 -0.0017608291007806102 -0.009838588908886293 0.0020915990277152975 0.015674744390845007
 0.002034915536534398 0.015682901503575836 -0.0017608291007806102 -0.009838588908886293 0.006921475711655431 0.031115707339801384 0.9914542433818908 -0.07460984022703672
 -0.001761936344412257 -0.009838527746289833 0.0020915990277152975 0.015674744390845007 0.9914542433818908 -0.07460984022703672 0.0069115906364013765 0.03111649618719137
0.100041684035 0.007454386728088684 0.03334300839342164 0.9907453523803058 -0.07970215488580114 0.0022747405910890145 0.016723805133745342 -0.001967837099123531 -0.010493026001624982
 0.9907453523803058 -0.07970215488580114 0.007444630971714836 0.0333437674734348 -0.001966581273961459 -0.0104931046606533 0.0023392470986398754 0.016714264509251578
 0.0022747405910890145 0.016723805133745342 -0.001966581273961459 -0.0104931046606533 0.007455066540985558 0.033341610236002434 0.9907452859968353 -0.07970348556289794
 -0.001967837099123531 -0.010493026001624982 0.0023392470986398754 0.016714264509251578 0.9907452859968353 -0.07970348556289794 0.007443818981206902 0.033342498942692464
0.1059090909091 0.007979494328000821 0.03544630831249844 0.990048059395501 -0.08449440748234674 0.0025127062927691396 0.017698909185137963 -0.0021722031867374625 -0.011105820850039914
 0.990048059395501 -0.08449440748234674 0.00796855934591197 0.03544714973788434 -0.0021707998494666265 -0.011105918098583004 0.0025850144300024786 0.017687933468101713
 0.0025127062927691396 0.017698909185137963 -0.0021707998494666265 -0.011105918098583004 0.007980256438056589 0.0354448229330212 0.9900479853160923 -0.08449581578265866
 -0.0021722031867374625 -0.011105820850039914 0.0025850144300024786 0.017687933468101713 0.9900479853160923 -0.08449581578265866 0.007967649706698617 0.03544581227700727
0.1062942892872 0.00801480465239018 0.035584870445280775 0.9900011893866422 -0.0848094366600977 0.0025287679733302973 0.017762863448446964 -0.0021859993134090085 -0.011145999205104264
 0.9900011893866422 -0.0848094366600977 0.008003789875526728 0.035585717454580196 -0.002184586019761288 -0.011146097750139658 0.002601603883635366 0.017751788711431214
 0.0025287679733302973 0.017762863448446964 -0.002184586019761288 -0.011146097750139658 0.008015572329163587 0.03558337930800421 0.9900011147873062 -0.08481085005462748
 -0.0021859993134090085 -0.011145999205104264 0.002601603883635366 0.017751788711431214 0.9900011147873062 -0.08481085005462748 0.008002873632211227 0.035584375500600125
0.11254689453939999 0.008602524264300684 0.03784212746146465 0.98922142865603 -0.08993006457365604 0.0027970782247767703 0.018799824250513318 -0.0024165066650769325 -0.011797196309354123
 0.98922142865603 -0.08993006457365604 0.00859017317857815 0.03784306825095761 -0.002414927097250753 -0.011797317254699848 0.0028787495711681825 0.01878705642057818
 0.0027970782247767703 0.018799824250513318 -0.002414927097250753 -0.011797317254699848 0.008603385125231233 0.037840542284907346 0.9892213453654827 -0.0899315606357147
 -0.0024165066650769325 -0.011797196309354123 0.0028787495711681825 0.01878705642057818 0.9892213453654827 -0.0899315606357147 0.008589146404793087 0.03784165393476001
0.11879949979160001 0.009217931793236732 0.04011430355573104 0.9884056908077911 -0.09506365069869649 0.003079746494042668 0.019834430711821102 -0.0026594372853964935 -0.01244636235512566
 0.9884056908077911 -0.09506365069869649 0.009204166842390862 0.04011534419730084 -0.002657682719780139 -0.012446508339429561 0.003170758816810432 0.019819802364817403
 0.003079746494042668 0.019834430711821102 -0.002657682719780139 -0.012446508339429561 0.00921889115219542 0.040112623211736344 0.9884055983510676 -0.09506522937765906
 -0.0026594372853964935 -0.01244636235512566 0.003170758816810432 0.019819802364817403 0.9884055983510676 -0.09506522937765906 0.009203023265911048 0.040113858648268795
0.1250521050438 0.009861407412479166 0.04240091830290636 0.9875536017720657 -0.10020979320780442 0.003376842360260311 0.02086642154375103 -0.0029148635922511845 -0.013093238518742643
 0.9875536017720657 -0.10020979320780442 0.009846150747141803 0.04240206510246902 -0.0029129253881581695 -0.013093412304725289 0.003477700562120425 0.020849756750518342
 0.003376842360260311 0.02086642154375103 -0.0029129253881581695 -0.013093412304725289 0.009862470576056796 0.04239914159470982 0.9875534996743877 -0.10021145445154292
 -0.0029148635922511845 -0.013093238518742643 0.003477700562120425 0.020849756750518342 0.9875534996743877 -0.10021145445154292 0.009844884101860164 0.042400509520137866
0.131304710296 0.010533324999589512 0.044701486070921996 0.9866647930865471 -0.10536807716567992 0.003688429658745505 0.02189553116804359 -0.003182852123711073 -0.01373756217311618
 0.9866647930865471 -0.10536807716567992 0.010516498453246462 0.044702745582543967 -0.003180721724378672 -0.013737766647182336 0.003799637856505251 0.021876645436002456
 0.003688429658745505 0.02189553116804359 -0.003180721724378672 -0.013737766647182336 0.01053449726653505 0.04469961172918318 0.986664680873321 -0.10536982092382038
 -0.003182852123711073 -0.01373756217311618 0.003799637856505251 0.021876645436002456 0.986664680873321 -0.10536982092382038 0.010515102479748246 0.0447011212344571
0.1375573155481 0.011091826363672402 0.0467152836833545 0.9858812113765242 -0.11023762015802153 0.003978275146875921 0.02289260203675448 -0.0034270575832496494 -0.014350311060029724
 0.9858812113765242 -0.11023762015802153 0.011073344740132062 0.046716633361770066 -0.0034247221045419357 -0.01435054684515981 0.004100087806123841 0.022871502468572794
 0.003978275146875921 0.02289260203675448 -0.0034247221045419357 -0.01435054684515981 0.011093112219363222 0.046713310564734906 0.9858810885968066 -0.11023944633023888
 -0.0034270575832496494 -0.014350311060029724 0.004100087806123841 0.022871502468572794 0.9858810885968066 -0.11023944633023888 0.011071813942931311 0.04671494128238193
0.1438099208003 0.011670281898813289 0.048716173417331664 0.9850694253844858 -0.11509250569979042 0.004279728271778298 0.023884323243714714 -0.003680927103866756 -0.014958070357356221
 0.9850694253844858 -0.11509250569979042 0.011650065559299911 0.04871761826122097 -0.003678377331485256 -0.014958340335080953 0.004412603453932789 0.023860839138677852
 0.004279728271778298 0.023884323243714714 -0.003678377331485256 -0.014958340335080953 0.011671686484537164 0.048714100221349685 0.9850692915702718 -0.1150944142197261
 -0.003680927103866756 -0.014958070357356221 0.004412603453932789 0.023860839138677852 0.9850692915702718 -0.1150944142197261 0.01164839382150249 0.04871585972048724
0.1500625260525 0.012268450793062734 0.05070392058337523 0.984229681584361 -0.11993254443228524 0.0045926601773799616 0.024870551647397245 -0.003944333373622357 -0.015560703328241542
 0.984229681584361 -0.11993254443228524 0.0122464197678127 0.05070546596945059 -0.003941560121948125 -0.015561010496440347 0.004737052342222204 0.024844506092734423
 0.0045926601773799616 0.024870551647397245 -0.003941560121948125 -0.015561010496440347 0.01226997923253534 0.050701745954030465 0.9842295362689919 -0.11993453523311179
 -0.003944333373622357 -0.015560703328241542 0.004737052342222204 0.024844506092734423 0.9842295362689919 -0.11993453523311179 0.012244600986754168 0.0507036422859468
0.15631513130469998 0.01288609007148173 0.05267829754205686 0.9833622282115527 -0.12475754930084425 0.004916940231868245 0.025851147146798058 -0.004217147271405215 -0.016158076645629568
 0.9833622282115527 -0.12475754930084425 0.01286216405267562 0.052679949240885766 -0.004214141384267444 -0.016158424117942792 0.005073300170551737 0.02582235709810698
