! Created with skrf 1.8.0 (http://scikit-rf.org).
# GHz S RI R 50.0 
!freq ReS11 ImS11 ReS12 ImS12 ReS13 ImS13
! ReS14 ImS14
! ReS21 ImS21 ReS22 ImS22 ReS23 ImS23
! ReS24 ImS24
! ReS31 ImS31 ReS32 ImS32 ReS33 ImS33
! ReS34 ImS34
! ReS41 ImS41 ReS42 ImS42 ReS43 ImS43
! ReS44 ImS44
!
0.0 0.001725881854116 0.0 0.9982741181451 0.0 6.67510193283e-05 0.0 -6.675101949497e-05 8.174642236433758e-21
 0.9982741181451 0.0 0.001725881854118 0.0 -6.675101949476e-05 8.17464223640804e-21 6.675101932833e-05 0.0
 6.67510193283e-05 0.0 -6.675101949476e-05 8.17464223640804e-21 0.001725881854461 0.0 0.9982741181455 0.0
 -6.675101949497e-05 8.174642236433758e-21 6.675101932833e-05 0.0 0.9982741181455 0.0 0.001725881854479 0.0
0.005 0.0018574622575042627 0.0014136788883665763 0.9981075627205044 -0.003614526926829902 9.350682074463418e-05 0.0007214977737322853 -9.08406172593947e-05 -0.00045520698781879984
 0.9981075627205044 -0.003614526926829902 0.0018574752680800151 0.0014136712103445138 -9.084435366818107e-05 -0.00045520972287668834 9.342752799568359e-05 0.0007215281350944144
 9.350682074463418e-05 0.0007214977737322853 -9.084435366818107e-05 -0.00045520972287668834 0.001857461386595799 0.001413746598844755 0.9981075630945487 -0.00361445986790404
 -9.08406172593947e-05 -0.00045520698781879984 9.342752799568359e-05 0.0007215281350944144 0.9981075630945487 -0.00361445986790404 0.0018574768850415915 0.0014137376173117928
0.006252605252188 0.0018921447932481255 0.0017726246161695958 0.9980633583792033 -0.004519013545416984 0.00010124316023192717 0.0009022171534190101 -9.771584476350479e-05 -0.0005695836506992602
 0.9980633583792033 -0.004519013545416984 0.0018921651313292898 0.0017726148009595429 -9.772165994605597e-05 -0.0005695870191550648 0.00010111927539918389 0.0009022565737828077
 0.00010124316023192717 0.0009022171534190101 -9.772165994605597e-05 -0.0005695870191550648 0.0018921433591723659 0.001772709242514543 0.998063358890728 -0.004518929723674655
 -9.771584476350479e-05 -0.0005695836506992602 0.00010111927539918389 0.0009022565737828077 0.998063358890728 -0.004518929723674655 0.001892167585165186 0.0017726978167623036
0.01250521050438 0.002075727970210255 0.003582034860484557 0.9978277102161096 -0.00903861404721126 0.00014609676112990126 0.0018047556183874583 -0.0001371210156157229 -0.0011418014182697316
 0.9978277102161096 -0.00903861404721126 0.00207580918746558 0.003582013024740982 -0.00013714394503015794 -0.001141807596040735 0.00014560280921794866 0.001804850442579346
 0.00014609676112990126 0.0018047556183874583 -0.00013714394503015794 -0.001141807596040735 0.0020757216831916786 0.003582203758348922 0.9978277116873809 -0.009038446666066914
 -0.0001371210156157229 -0.0011418014182697316 0.00014560280921794866 0.001804850442579346 0.9978277116873809 -0.009038446666066914 0.0020758184025094595 0.003582178872388706
0.01875781575657 0.002277068549378505 0.005416832376349386 0.9975668549507489 -0.01356975617586325 0.0002014212405031397 0.0027081750301991337 -0.00018509482543740925 -0.001715822600207201
 0.9975668549507489 -0.01356975617586325 0.0022772510646085604 0.0054167961526876765 -0.0001851459750321159 -0.0017158309030050293 0.00020031180288003343 0.00270834468023745
 0.0002014212405031397 0.0027081750301991337 -0.0001851459750321159 -0.0017158309030050293 0.002277054017080425 0.005417085389276708 0.997566857831153 -0.013569505317862546
 -0.00018509482543740925 -0.001715822600207201 0.00020031180288003343 0.00270834468023745 0.997566857831153 -0.013569505317862546 0.0022772713208623167 0.00541704479461623
0.02501042100875 0.0024965885806088836 0.007274408952185605 0.9972804603406177 -0.018114589733734324 0.0002673273965196398 0.003612479311020053 -0.00024176072059179973 -0.0022913643805419033
 0.9972804603406177 -0.018114589733734324 0.0024969127397579814 0.007274355821251983 -0.00024185106770075048 -0.002291373988228756 0.0002653570763070348 0.003612746534987429
 0.0002673273965196398 0.003612479311020053 -0.00024185106770075048 -0.002291373988228756 0.002496562429504237 0.00727474595321299 0.9972804650797427 -0.01811425546788653
 -0.00024176072059179973 -0.0022913643805419033 0.0002653570763070348 0.003612746534987429 0.9972804650797427 -0.01811425546788653 0.0024969482961754515 0.007274687202288189
0.03126302626094 0.0027346926165354732 0.009153399213697856 0.9969681785852104 -0.022674006948203543 0.00034392604248791037 0.0045175901911335406 -0.00030723818708334723 -0.0028682182849847364
 0.9969681785852104 -0.022674006948203543 0.0027351987138900698 0.009153326505840555 -0.0003073786017531501 -0.0028682282402153125 0.0003408492402024367 0.004517981081127645
 0.00034392604248791037 0.0045175901911335406 -0.0003073786017531501 -0.0028682282402153125 0.00273465148832661 0.009153820110480444 0.9969681856319897 -0.022673589324426563
 -0.00030723818708334723 -0.0028682182849847364 0.0003408492402024367 0.004517981081127645 0.9969681856319897 -0.022673589324426563 0.0027352538091639646 0.009153740558817593
0.037515631513130004 0.0029917760104224427 0.011052895344106308 0.996629654967642 -0.027248427691724513 0.0004313268938153604 0.005423396399386493 -0.00038164356756478784 -0.0034462010116146245
 0.996629654967642 -0.027248427691724513 0.0029925043029107013 0.011052800239868068 -0.0003818448230500014 -0.0034462102193762133 0.0004268977112308794 0.005423940423036035
 0.0004313268938153604 0.005423396399386493 -0.0003818448230500014 -0.0034462102193762133 0.002991716559983948 0.011053400078193438 0.9966296647702302 -0.027247926741450004
 -0.00038164356756478784 -0.0034462010116146245 0.0004268977112308794 0.005423940423036035 0.9966296647702302 -0.027247926741450004 0.002992583157009664 0.011053296884727734
0.043768236765320004 0.0032682281062033597 0.012972208161179251 0.9962645313919778 -0.03183803833367999 0.000529638024092654 0.006329768643110649 -0.00046509034115256516 -0.0040251394760398036
 0.9962645313919778 -0.03183803833367999 0.0032692188250177407 0.0129720876914381 -0.00046536311997026603 -0.004025146703449385 0.0005236102227194254 0.0063304986793667585
 0.000529638024092654 0.006329768643110649 -0.00046536311997026603 -0.004025146703449385 0.0032681470015445938 0.012972796689054775 0.996264544398869 -0.03183745408889562
 -0.00046509034115256516 -0.0040251394760398036 0.0005236102227194254 0.0063304986793667585 0.996264544398869 -0.03183745408889562 0.00326932564087845 0.01297266681590429
0.050020842017509996 0.003564433703667481 0.014910768334399548 0.9958724481994167 -0.03644289045145488 0.0006389655295888572 0.00723656579686845 -0.0005576892042480659 -0.004604864652653803
 0.9958724481994167 -0.03644289045145488 0.0035657270644389566 0.014910619380081624 -0.0005580441018592407 -0.004604868528850517 0.0006310925184214369 0.0072375181734385015
 0.0006389655295888572 0.00723656579686845 -0.0005580441018592407 -0.004604868528850517 0.003564327624517124 0.014911440639611171 0.9958724648589398 -0.03644222293255286
 -0.0005576892042480659 -0.004604864652653803 0.0006310925184214369 0.0072375181734385015 0.9958724648589398 -0.03644222293255286 0.0035658660277363046 0.014911280851386918
0.055454545454549996 0.0038381835885674073 0.016610679097492982 0.9955095418222706 -0.04045699899713279 0.0007430018198207832 0.00802482883451727 -0.0006456769167084792 -0.00510917185308635
 0.9955095418222706 -0.04045699899713279 0.003839772609176405 0.016610502739306445 -0.0006461117168458566 -0.0051091715964741505 0.0007333247336487215 0.008026006641220938
 0.0007430018198207832 0.00802482883451727 -0.0006461117168458566 -0.0051091715964741505 0.003838053118537689 0.016611424208609116 0.9955095620207812 -0.040456259124994155
 -0.0006456769167084792 -0.00510917185308635 0.0007333247336487215 0.008026006641220938 0.9955095620207812 -0.040456259124994155 0.0038399428970981395 0.0166112356414349
0.056273447269699996 0.0038807737935906295 0.01686807793001931 0.9954530452609287 -0.0410629492167993 0.0007594132821392961 0.008143637945864184 -0.0006595480659908231 -0.00518520856713094
 0.9954530452609287 -0.0410629492167993 0.003882410005617984 0.016867897221589167 -0.000659995592937428 -0.005185207583230291 0.0007494481232666289 0.008144852477292753
 0.0007594132821392961 0.008143637945864184 -0.000659995592937428 -0.005185207583230291 0.003880639431477079 0.016868834014380916 0.9954530660222349 -0.041062198441570864
 -0.0006595480659908231 -0.00518520856713094 0.0007494481232666289 0.008144852477292753 0.9954530660222349 -0.041062198441570864 0.003882585286817981 0.01686864087698429
0.06252605252188 0.004217625933890522 0.018843683768368254 0.99500596271522 -0.04569811997596776 0.0008910827266925243 0.009050828074194044 -0.0007707719996284141 -0.005766002650759363
 0.99500596271522 -0.04569811997596776 0.00421964520948021 0.018843467884828775 -0.0007713225829570876 -0.005765995159818592 0.0008787781525223259 0.009052348100106697
 0.0008910827266925243 0.009050828074194044 -0.0007713225829570876 -0.005765995159818592 0.0042174599915113745 0.018844523652675596 0.9950059880285942 -0.04569728595894394
 -0.0007707719996284141 -0.005766002650759363 0.0008787781525223259 0.009052348100106697 0.9950059880285942 -0.04569728595894394 0.004219860963320211 0.01884429353183713
0.06877865777407 0.00457536442795769 0.02083716153925772 0.994530841514779 -0.05034826407838052 0.0010340727049151176 0.009957973078958586 -0.0008914631675749458 -0.0063470767760473185
 0.994530841514779 -0.05034826407838052 0.004577806990467277 0.020836906907127077 -0.0008921271514434337 -0.006347060993081735 0.0010191811436695473 0.009959845502211876
 0.0010340727049151176 0.009957973078958586 -0.0008921271514434337 -0.006347060993081735 0.004575163617738243 0.020838085268068126 0.9945308718306526 -0.05034734682633747
 -0.0008914631675749458 -0.0063470767760473185 0.0010191811436695473 0.009959845502211876 0.9945308718306526 -0.05034734682633747 0.004578067356033585 0.02083781432760348
0.07503126302626001 0.004954360385520494 0.022848105744775728 0.9940273238593754 -0.055013208886231214 0.0011884792926147554 0.010864904426471457 -0.0010217207314874278 -0.006928258657810961
 0.9940273238593754 -0.055013208886231214 0.004957266478770071 0.02284780863639512 -0.0010225083774820275 -0.006928232659808565 0.0011707529004042457 0.01086717975096192
 0.0011884792926147554 0.010864904426471457 -0.0010225083774820275 -0.006928232659808565 0.004954121430469145 0.022849113379835775 0.9940273596299244 -0.05501220840486509
 -0.0010217207314874278 -0.006928258657810961 0.0011707529004042457 0.01086717975096192 0.9940273596299244 -0.05501220840486509 0.004957575580472543 0.022848797579322504
0.08128386827845 0.005354981710993611 0.024876123011035627 0.9934950535616005 -0.059692754423314474 0.0013543956474672408 0.011771448599473783 -0.001161640751546783 -0.007509373471142455
 0.9934950535616005 -0.059692754423314474 0.005358391606978121 0.02487577954284298 -0.0011625622385258458 -0.007509335197124827 0.0013335863450549626 0.011774180967510007
 0.0013543956474672408 0.011771448599473783 -0.0011625622385258458 -0.007509335197124827 0.005354701343524866 0.024877214636374587 0.9934950952400746 -0.05969167071234794
 -0.001161640751546783 -0.007509373471142455 0.0013335863450549626 0.011774180967510007 0.9934950952400746 -0.05969167071234794 0.005358753554479784 0.024876849728741608
0.08753647353064001 0.005777593041779624 0.026920827468464328 0.9929336763672454 -0.06438667796452856 0.0015319118621273666 0.01267742742132903 -0.0013113160791439617 -0.008090243600420367
 0.9929336763672454 -0.06438667796452856 0.005781547049422853 0.026920433598831083 -0.0013123815028709138 -0.008090190851525332 0.0015077713759955379 0.012680674650470404
 0.0015319118621273666 0.01267742742132903 -0.0013123815028709138 -0.008090190851525332 0.0057772680032418195 0.026922003185210864 0.9929337244085371 -0.06438551102325304
 -0.0013113160791439617 -0.008090243600420367 0.0015077713759955379 0.012680674650470404 0.9929337244085371 -0.06438551102325304 0.0057819659378610085 0.02692158471375525
0.09378907878283 0.006222555652375301 0.028981837455131505 0.9923428402456874 -0.06909473731198307 0.001721114821991269 0.013582658302051165 -0.0014708362444410307 -0.008670688474931543
 0.9923428402456874 -0.06909473731198307 0.006227094125963278 0.028981388981743815 -0.001472055617049701 -0.008670618914511987 0.001693394728567473 0.013586481921321584
 0.001721114821991269 0.013582658302051165 -0.001472055617049701 -0.008670618914511987 0.0062221826927115085 0.028983097384570413 0.9923428951063579 -0.06909348713628354
 -0.0014708362444410307 -0.008670688474931543 0.001693394728567473 0.013586481921321584 0.9923428951063579 -0.06909348713628354 0.006227574035878569 0.028982620679757497
0.100041684035 0.006690227334536562 0.031058773111710975 0.9917221956611645 -0.07381667318906823 0.0019220880655280172 0.01448695443248498 -0.0016402873406268076 -0.009250524464820708
 0.9917221956611645 -0.07381667318906823 0.006695390682298769 0.03105826566874541 -0.0016416705898992339 -0.009250435618577151 0.0018905398385731206 0.01449141971782754
 0.0019220880655280172 0.01448695443248498 -0.0016416705898992339 -0.009250435618577151 0.006689803212110325 0.031060117397994184 0.991722257799489 -0.07381533976911032
 -0.0016402873406268076 -0.009250524464820708 0.0018905398385731206 0.01449141971782754 0.991722257799489 -0.07381533976911032 0.006695935679812824 0.031059577573785288
0.1059090909091 0.007150056798736213 0.03302190279396726 0.991112367127536 -0.07826008535935619 0.0021214564404056983 0.015334520324389577 -0.0018084048661326502 -0.009793918951903026
 0.991112367127536 -0.07826008535935619 0.007155843330654332 0.03302133589512954 -0.0018099508495217204 -0.00979380963514603 0.002086089836494789 0.015339650481318537
 0.0021214564404056983 0.015334520324389577 -0.0018099508495217204 -0.00979380963514603 0.007149581724035134 0.033023326388438974 0.9911124365138316 -0.07825867381288731
 -0.0018084048661326502 -0.009793918951903026 0.002086089836494789 0.015339650481318537 0.9911124365138316 -0.07825867381288731 0.007156453091493787 0.033022722693101914
0.1062942892872 0.00718096225940267 0.03315125458198681 0.9910713958283565 -0.07855221103944382 0.0021349116472412374 0.015390124946475826 -0.001819751905528745 -0.009829564817757474
 0.9910713958283565 -0.07855221103944382 0.00718679095165255 0.03315068363685186 -0.0018213088739761187 -0.009829454073914713 0.002099286707594711 0.01539530095551624
 0.0021349116472412374 0.015390124946475826 -0.0018213088739761187 -0.009829454073914713 0.007180483740307146 0.03315268338874868 0.9910714657048574 -0.07855079436329958
 -0.001819751905528745 -0.009829564817757474 0.002099286707594711 0.01539530095551624 0.9910714657048574 -0.07855079436329958 0.007187405088796155 0.03315207533848883
0.11254689453939999 0.007695110825218301 0.03525890064103935 0.9903900969589667 -0.08330106240869882 0.00235966200220484 0.016291975059027523 -0.002009308801226444 -0.010407619628519644
 0.9903900969589667 -0.08330106240869882 0.007701645403134473 0.035258261490735805 -0.0020110492451519083 -0.010407484238020008 0.0023197117700537004 0.016297934664957606
 0.00235966200220484 0.016291975059027523 -0.0020110492451519083 -0.010407484238020008 0.007694574683019125 0.0352604141522551 0.9903901750360059 -0.0832995624617812
 -0.002009308801226444 -0.010407619628519644 0.0023197117700537004 0.016297934664957606 0.9903901750360059 -0.0832995624617812 0.007702332717364338 0.035259732544365555
0.11879949979160001 0.008233019494748244 0.037381327637513596 0.989677958499858 -0.08806292602287163 0.002596411811958866 0.017192306192402963 -0.002209033092814088 -0.010984495829670421
 0.989677958499858 -0.08806292602287163 0.008240300578907662 0.03738061540458026 -0.0022109666812315477 -0.01098433290636139 0.002551887761267499 0.017199126116945997
 0.002596411811958866 0.017192306192402963 -0.0022109666812315477 -0.01098433290636139 0.008232422510348565 0.03738292605853468 0.989678045242557 -0.08806134278726753
 -0.002209033092814088 -0.010984495829670421 0.002551887761267499 0.017199126116945997 0.989678045242557 -0.08806134278726753 0.008241065093686833 0.037382165331550365
0.1250521050438 0.008795030624419874 0.03951814866715761 0.9889346433663407 -0.09283748864659 0.0028452298721738487 0.018090916091068 -0.0024189959260133725 -0.011559997202382306
 0.9889346433663407 -0.09283748864659 0.008803098923154066 0.03951735829527653 -0.0024211322394719265 -0.011559803723348446 0.0027958835867312793 0.018098676936633834
 0.0028452298721738487 0.018090916091068 -0.0024211322394719265 -0.011559803723348446 0.00879436958545849 0.03951983222590999 0.9889347392423319 -0.09283582210018271
 -0.0024189959260133725 -0.011559997202382306 0.0027958835867312793 0.018098676936633834 0.9889347392423319 -0.09283582210018271 0.008803944647432947 0.03951898658327905
0.131304710296 0.00938148228642416 0.04166897292175618 0.9881598181713265 -0.09762442577727189 0.0031061809610115135 0.018987598930415652 -0.0026392644045884653 -0.012133924402971175
 0.9881598181713265 -0.09762442577727189 0.009390378604339744 0.041668099170925926 -0.002641612933857714 -0.012133697208797077 0.003051764192816082 0.01899638521108722
 0.0031061809610115135 0.018987598930415652 -0.002641612933857714 -0.012133697208797077 0.009380753986895718 0.041670741866530046 0.9881599236509779 -0.0976226758964038
 -0.0026392644045884653 -0.012133924402971175 0.003051764192816082 0.01899638521108722 0.9881599236509779 -0.0976226758964038 0.00939130953312095 0.041669805270828246
0.1375573155481 0.009864219214486849 0.04355426631116416 0.9874817041392184 -0.10214410969555691 0.003348266354232408 0.019855232722820415 -0.0028389046478899563 -0.01267913585660414
 0.9874817041392184 -0.10214410969555691 0.009873986446918054 0.04355332453273027 -0.002841479168096991 -0.012678874398622952 0.003288649238265471 0.0198650379145284
 0.003348266354232408 0.019855232722820415 -0.002841479168096991 -0.012678874398622952 0.009863419173127273 0.04355612183152641 0.9874818196558062 -0.10214227651365676
 -0.0028389046478899563 -0.01267913585660414 0.003288649238265471 0.0198650379145284 0.9874818196558062 -0.10214227651365676 0.009875007922794698 0.0435551070648978
0.1438099208003 0.010364127615075509 0.045428529944882945 0.9867793708847622 -0.10665120414427814 0.0036000966239389306 0.02071861296933748 -0.0030464787063575844 -0.013220459646426357
 0.9867793708847622 -0.10665120414427814 0.010374806966638986 0.0454275162300871 -0.0030492893510456415 -0.013220160799911881 0.0035350525031739573 0.020729515074084423
 0.0036000966239389306 0.02071861296933748 -0.0030492893510456415 -0.013220160799911881 0.010363252404303672 0.04543047240751113 0.9867794969040294 -0.10664928764810262
 -0.0030464787063575844 -0.013220459646426357 0.0035350525031739573 0.020729515074084423 0.9867794969040294 -0.10664928764810262 0.010375923210504784 0.04542937453598925
0.1500625260525 0.010881014371120146 0.047291574013166235 0.986053016264285 -0.11114556303956717 0.0038615739068749004 0.021577627908199486 -0.0032618918124590604 -0.013757791732733607
 0.986053016264285 -0.11114556303956717 0.010892647139137714 0.047290484231231195 -0.0032649486806583263 -0.013757452248113986 0.003790877644402125 0.02158970779305352
 0.0038615739068749004 0.021577627908199486 -0.0032649486806583263 -0.013757452248113986 0.010880060554550992 0.04729360380546181 0.986053153254034 -0.11114356321486098
 -0.0032618918124590604 -0.013757791732733607 0.003790877644402125 0.02158970779305352 0.986053153254034 -0.11114356321486098 0.010893862375063974 0.04729241762275576
0.15631513130469998 0.011414684791238219 0.04914321436078221 0.9853028393626664 -0.11562704156917768 0.004132599062817356 0.022432167927499296 -0.003485047924916614 -0.014291030477759026
 0.9853028393626664 -0.11562704156917768 0.011427312368683811 0.04914204415390793 -0.003488361080501589 -0.014290646981379567 0.004056027067793592 0.02244550929247992
