! Created with skrf 1.8.0 (http://scikit-rf.org).
# GHz S RI R 50.0 
!freq ReS11 ImS11 ReS12 ImS12 ReS13 ImS13
! ReS14 ImS14
! ReS21 ImS21 ReS22 ImS22 ReS23 ImS23
! ReS24 ImS24
! ReS31 ImS31 ReS32 ImS32 ReS33 ImS33
! ReS34 ImS34
! ReS41 ImS41 ReS42 ImS42 ReS43 ImS43
! ReS44 ImS44
!
0.0 0.001700847987057 0.0 0.9982991519959 0.0 6.58625874451e-05 0.0 -6.586258717857e-05 8.065840657179925e-21
 0.9982991519959 0.0 0.001700847987073 0.0 -6.586258717875e-05 8.065840657201969e-21 6.58625874451e-05 0.0
 6.58625874451e-05 0.0 -6.586258717875e-05 8.065840657201969e-21 0.001700847995596 0.0 0.9982991520044 0.0
 -6.586258717857e-05 8.065840657179925e-21 6.58625874451e-05 0.0 0.9982991520044 0.0 0.001700847995608 0.0
0.005 0.0018304641955045598 0.0013910629390288505 0.9981350830720985 -0.0035623064752468014 9.25784699532662e-05 0.0007250487144974951 -8.984499211283041e-05 -0.0004551246733919974
 0.9981350830720985 -0.0035623064752468014 0.0018304828569398106 0.0013910519793765748 -8.984549274507324e-05 -0.0004551249775183133 9.246687186392544e-05 0.0007250912806431342
 9.25784699532662e-05 0.0007250487144974951 -8.984549274507324e-05 -0.0004551249775183133 0.0018304647088784598 0.0013911298495751408 0.9981350834372145 -0.0035622394200901146
 -8.984499211283041e-05 -0.0004551246733919974 9.246687186392544e-05 0.0007250912806431342 0.9981350834372145 -0.0035622394200901146 0.001830483072409049 0.001391119179987758
0.006252605252188 0.0018646053520747713 0.0017442795796790856 0.9980915696896122 -0.004453730306667308 0.00010029869313366016 0.0009066523933331727 -9.668268788104175e-05 -0.0005694850850143954
 0.9980915696896122 -0.004453730306667308 0.0018646345237305388 0.001744265642411775 -9.668346753682801e-05 -0.0005694854581649713 0.00010012433319662932 0.0009067076823786236
 0.00010029869313366016 0.0009066523933331727 -9.668346753682801e-05 -0.0005694854581649713 0.0018646060908958642 0.0017443632061680645 0.9980915701961106 -0.004453646492245197
 -9.668268788104175e-05 -0.0005694850850143954 0.00010012433319662932 0.0009067076823786236 0.9980915701961106 -0.004453646492245197 0.0018646347958634166 0.0017443496461022861
0.01250521050438 0.00204518611988261 0.0035248712088450027 0.9978597816456277 -0.008908090624875799 0.00014503454217127586 0.0018135923362813606 -0.00013583591978105105 -0.0011416315890766583
 0.9978597816456277 -0.008908090624875799 0.0020453026111532245 0.003524840924160567 -0.00013583900004615734 -0.0011416322568287044 0.0001443392724673368 0.001813725521803171
 0.00014503454217127586 0.0018135923362813606 -0.00013583900004615734 -0.0011416322568287044 0.002045188515261904 0.0035250381375978657 0.9978597831049416 -0.008907923245427092
 -0.00013583591978105105 -0.0011416315890766583 0.0001443392724673368 0.001813725521803171 0.9978597831049416 -0.008907923245427092 0.002045303125421957 0.003525008761292602
0.01875781575657 0.002243015969895673 0.005330543412472293 0.9976034775704543 -0.01337388542919578 0.00020017805368410083 0.0027214009670294003 -0.0001834492034096762 -0.0017155941696520719
 0.9976034775704543 -0.01337388542919578 0.002243277749697856 0.005330494168964375 -0.0001834560830453392 -0.001715595033873364 0.00019861629599028167 0.0027216394297253314
 0.00020017805368410083 0.0027214009670294003 -0.0001834560830453392 -0.001715595033873364 0.0022430209390626008 0.005330793463131722 0.9976034804195432 -0.013373634581572424
 -0.0001834492034096762 -0.0017155941696520719 0.00019861629599028167 0.0027216394297253314 0.9976034804195432 -0.013373634581572424 0.0022432784574802364 0.005330745833963942
0.02501042100875 0.002458506085487148 0.0071587302982874775 0.9973223340756037 -0.017853239452725895 0.0002658387861005811 0.0036300895755301053 -0.00023964470983399032 -0.002291089726629896
 0.9973223340756037 -0.017853239452725895 0.0024589710193959487 0.007158659302095406 -0.00023965687296291797 -0.0022910906682943096 0.00026306489928483814 0.00363046532008142
 0.0002658387861005811 0.0036300895755301053 -0.00023965687296291797 -0.0022910906682943096 0.002458514562082504 0.007159063295228996 0.9973223387594998 -0.017852905219863324
 -0.00023964470983399032 -0.002291089726629896 0.00026306489928483814 0.00363046532008142 0.9973223387594998 -0.017852905219863324 0.0024589718705587045 0.007158994815610166
0.03126302626094 0.0026920506082868103 0.009008091346062386 0.9970160124739333 -0.022347037884949145 0.0003421264817296252 0.004539585316569006 -0.00030454072738184357 -0.0028679116436872015
 0.9970160124739333 -0.022347037884949145 0.0026927764911401694 0.009007995624182216 -0.00030455964588383354 -0.002867912522662043 0.0003377944474064215 0.004540134999260789
 0.0003421264817296252 0.004539585316569006 -0.00030455964588383354 -0.002867912522662043 0.002692063528691336 0.009008507135575447 0.9970160194319494 -0.022346620318269433
 -0.00030454072738184357 -0.0028679116436872015 0.0003377944474064215 0.004540134999260789 0.9970160194319494 -0.022346620318269433 0.002692777420801975 0.009008415050605411
0.037515631513130004 0.0029440347632262716 0.010877737304624345 0.9966841672292951 -0.026855700415050088 0.00042914991427337406 0.005449781692388912 -0.00037825249806510704 -0.003445879321517098
 0.9966841672292951 -0.026855700415050088 0.002945079341240303 0.010877613706132008 -0.00037827963264497577 -0.003445879976440708 0.00042291320040541256 0.005450546667221542
 0.00042914991427337406 0.005449781692388912 -0.00037827963264497577 -0.003445879976440708 0.0029440530720067776 0.010878235721227937 0.9966841769012329 -0.02685519956784848
 -0.00037825249806510704 -0.003445879321517098 0.00042291320040541256 0.005450546667221542 0.9966841769012329 -0.02685519956784848 0.0029450802763710594 0.010878117120311597
0.043768236765320004 0.00321483798476947 0.012766994615956513 0.9963264494123442 -0.031379416737008836 0.0005270163410218433 0.00636055389740934 -0.00046089249801899916 -0.0040248228539583
 0.9963264494123442 -0.031379416737008836 0.0032162589736213043 0.012766839812393663 -0.0004609292988478786 -0.0040248231021488955 0.0005185278419125117 0.006361580267985089
 0.0005270163410218433 0.00636055389740934 -0.0004609292988478786 -0.0040248231021488955 0.003214862633037081 0.012767575493393137 0.9963264622366049 -0.03137883265300582
 -0.00046089249801899916 -0.0040248228539583 0.0005185278419125117 0.006361580267985089 0.9963264622366049 -0.03137883265300582 0.003216259831388163 0.01276742731111707
0.050020842017509996 0.0035048353607475525 0.014675308066067629 0.9959425084782114 -0.03591824382668822 0.0006358311597949375 0.007271765181851955 -0.0005525705289419536 -0.004604576690112656
 0.9959425084782114 -0.03591824382668822 0.003506690461493952 0.014675118551153379 -0.0005526184359219004 -0.0046045763275022866 0.0006247431765454338 0.00727310385547332
 0.0006358311597949375 0.007271765181851955 -0.0005526184359219004 -0.0046045763275022866 0.003504867306554244 0.01467597122881505 0.9959425248929341 -0.03591757654816963
 -0.0005525705289419536 -0.004604576690112656 0.0006247431765454338 0.00727310385547332 0.9959425248929341 -0.03591757654816963 0.0035066911507197094 0.014675790244997551
0.055454545454549996 0.0037727284490914996 0.016348788545075446 0.995587283112268 -0.03987487372637777 0.0007393662474092049 0.008063879102402102 -0.0006396647692181927 -0.005108930826254219
 0.995587283112268 -0.03987487372637777 0.003775007665906631 0.016348565878808792 -0.0006397234892918813 -0.005108929750454202 0.0007257364023651904 0.008065534292061197
 0.0007393662474092049 0.008063879102402102 -0.0006397234892918813 -0.005108929750454202 0.0037727675194664237 0.016349523065284602 0.9955873030023821 -0.03987413418349447
 -0.0006396647692181927 -0.005108930826254219 0.0007257364023651904 0.008065534292061197 0.9955873030023821 -0.03987413418349447 0.0037750081277463745 0.016349310840380927
0.056273447269699996 0.0038143983524487127 0.016602193001271123 0.9955319933258413 -0.040472153656649884 0.0007556976647565102 0.00818326996047377 -0.0006533937162767463 -0.005184976556959416
 0.9955319933258413 -0.040472153656649884 0.0038167452658651423 0.016601965090224182 -0.0006534541592037027 -0.0051849753580312154 0.000741661910167491 0.008184976703272373
 0.0007556976647565102 0.00818326996047377 -0.0006534541592037027 -0.0051849753580312154 0.003814438560236061 0.016602938262743172 0.9955320137684085 -0.04047140322591353
 -0.0006533937162767463 -0.005184976556959416 0.000741661910167491 0.008184976703272373 0.9955320137684085 -0.04047140322591353 0.0038167456867114783 0.016602721102195832
0.06252605252188 0.004143895168408466 0.01854720906179766 0.9950945530168789 -0.045041059399007446 0.0008867168449845622 0.009094915547211301 -0.0007634664664038346 -0.005765857762443727
 0.9950945530168789 -0.045041059399007446 0.004146791609425844 0.018546938890047965 -0.0007635408649647734 -0.005765855480171298 0.0008693844651656497 0.009097051039498934
 0.0008867168449845622 0.009094915547211301 -0.0007635408649647734 -0.005765855480171298 0.004143944609394495 0.018548036229349557 0.9950945779248893 -0.045040225852989155
 -0.0007634664664038346 -0.005765857762443727 0.0008693844651656497 0.009097051039498934 0.9950945779248893 -0.045040225852989155 0.0041467916545905766 0.018547779360874938
0.06877865777407 0.004493690943832777 0.020509944532579722 0.9946298373046533 -0.04962483101747779 0.0010289872108261242 0.010006543191289187 -0.0008828903967457889 -0.0063470542038575675
 0.9946298373046533 -0.04962483101747779 0.004497194654880662 0.020509628054027423 -0.0008829801605031895 -0.006347050569653906 0.0010080088179844542 0.010009173082829784
 0.0010289872108261242 0.010006543191289187 -0.0008829801605031895 -0.006347050569653906 0.004493750595288386 0.020510853399554857 0.9946298671149616 -0.04962391439533841
 -0.0008828903967457889 -0.0063470542038575675 0.0010080088179844542 0.010009173082829784 0.9946298671149616 -0.04962391439533841 0.0044971942092484115 0.020510553134703763
0.07503126302626001 0.004864147804403467 0.02249000641857641 0.9941374970524672 -0.054223305142309025 0.001182604635151113 0.010917988745656557 -0.001011764250295536 -0.006928397751033401
 0.9941374970524672 -0.054223305142309025 0.004868316568813247 0.022489639403489213 -0.0010118707785305018 -0.0069283924747111 0.001157630349481866 0.010921183710576826
 0.001182604635151113 0.010917988745656557 -0.0010118707785305018 -0.0069283924747111 0.004864218649479657 0.022490996768676014 0.9941375322019154 -0.05422230548071625
 -0.001011764250295536 -0.006928397751033401 0.001157630349481866 0.010921183710576826 0.9941375322019154 -0.05422230548071625 0.004868315510242855 0.022490649259894805
0.08128386827845 0.005255624859719053 0.0244870138483596 0.9936171845867088 -0.05883629162511864 0.0013476622041770894 0.011829083122651973 -0.0011501838001333135 -0.0075097178498101415
 0.9936171845867088 -0.05883629162511864 0.005260516515164469 0.024486591880600383 -0.0011503084817443138 -0.007509710619531345 0.0013183417023658684 0.01183291891385584
 0.0013476622041770894 0.011829083122651973 -0.0011503084817443138 -0.007509710619531345 0.005255707887187804 0.02448808545375204 0.993617225511891 -0.05883520895978821
 -0.0011501838001333135 -0.0075097178498101415 0.0013183417023658684 0.01183291891385584 0.993617225511891 -0.05883520895978821 0.005260514714444943 0.024487686692035764
0.08753647353064001 0.005668478147079503 0.026500593525214958 0.9930685540045725 -0.06346357805443466 0.0015242500747463515 0.012739652624155223 -0.0012982417466267037 -0.008090841258679935
 0.9930685540045725 -0.06346357805443466 0.005674150598767289 0.02650011199911888 -0.0012983859599201833 -0.008090831740935611 0.0014902326443111064 0.012744210126949313
 0.0015242500747463515 0.012739652624155223 -0.0012983859599201833 -0.008090831740935611 0.005668574351154953 0.026501746145908247 0.9930686011418396 -0.06346241242044491
 -0.0012982417466267037 -0.008090841258679935 0.0014902326443111064 0.012744210126949313 0.9930686011418396 -0.06346241242044491 0.00567414792024682 0.02650129195796008
0.09378907878283 0.006103060543705898 0.02853037647213475 0.9924912614540388 -0.06810493298648651 0.0017124553359404411 0.01364951918720065 -0.0014560276098527674 -0.008671591877810797
 0.9924912614540388 -0.06810493298648651 0.006109571777321648 0.028529830588822393 -0.0014561927222796608 -0.008671579717395888 0.0016733899339932492 0.01365488447230905
 0.0017124553359404411 0.01364951918720065 -0.0014561927222796608 -0.008671579717395888 0.006103170923296444 0.028531609855133807 0.9924913152397802 -0.06810368441878552
 -0.0014560276098527674 -0.008671591877810797 0.0016733899339932492 0.01365488447230905 0.9924913152397802 -0.06810368441878552 0.006109568079270842 0.02853109590001579
0.100041684035 0.0065597216530196905 0.03057599566021474 0.9918849653928405 -0.07276010830181953 0.0019123618733962427 0.01455850057935238 -0.0016236276184066654 -0.009251790636569513
 0.9918849653928405 -0.07276010830181953 0.006567129748477655 0.030575380423362154 -0.0016238149864381975 -0.009251775456552034 0.001867897189783497 0.014564764954863484
 0.0019123618733962427 0.01455850057935238 -0.0016238149864381975 -0.009251775456552034 0.006559847212235904 0.030577309538261904 0.9918850262637202 -0.07275877683615298
 -0.0016236276184066654 -0.009251790636569513 0.001867897189783497 0.014564764954863484 0.9918850262637202 -0.07275877683615298 0.006567124883360703 0.0305767313035188
0.1059090909091 0.0070086384546106705 0.03250966839584798 0.9912893404720197 -0.07714083197432689 0.002110666934936743 0.015410512305206151 -0.0017899021315431062 -0.009795581538506294
 0.9912893404720197 -0.07714083197432689 0.007016941078120596 0.03250898335388655 -0.0017901116077119745 -0.00979556316274048 0.002060815905758506 0.01541770813572734
 0.002110666934936743 0.015410512305206151 -0.0017901116077119745 -0.00979556316274048 0.0070087791751193475 0.032511057556856494 0.9912894083885263 -0.07713942274794966
 -0.0017899021315431062 -0.009795581538506294 0.002060815905758506 0.01541770813572734 0.9912894083885263 -0.07713942274794966 0.00701693497866075 0.03251041474174187
0.1062942892872 0.00703880767536445 0.032637084227005106 0.9912493268349826 -0.07742884098149604 0.0021240502363510864 0.01546641056113016 -0.0018011245955945993 -0.009831255422094213
 0.9912493268349826 -0.07742884098149604 0.007047170819704422 0.03263639443807243 -0.001801335564353419 -0.009831236823819096 0.0020738347601558555 0.015473670623614788
 0.0021240502363510864 0.01546641056113016 -0.001801335564353419 -0.009831236823819096 0.007038949422281602 0.03263847832062148 0.9912493952275081 -0.07742742665201599
 -0.0018011245955945993 -0.009831255422094213 0.0020738347601558555 0.015473670623614788 0.9912493952275081 -0.07742742665201599 0.0070471646344430336 0.032637831117760814
0.11254689453939999 0.007540661263371707 0.03471327412752086 0.990584009586117 -0.08211085446054625 0.0023475975060759766 0.016373059020577653 -0.001988597843666852 -0.010409801044276494
 0.990584009586117 -0.08211085446054625 0.007550037764419554 0.03471250438047891 -0.00198883374678139 -0.010409778607354672 0.0022912795955008012 0.016381416705061214
 0.0023475975060759766 0.016373059020577653 -0.00198883374678139 -0.010409778607354672 0.0075408202104421855 0.03471474814405156 0.9905840859369103 -0.08210935730051278
 -0.001988597843666852 -0.010409801044276494 0.0022912795955008012 0.016381416705061214 0.9905840859369103 -0.08210935730051278 0.007550030100692711 0.03471402710361499
0.11879949979160001 0.008065621368274704 0.03680419508652751 0.9898886804718449 -0.086805859690372 0.0025830771661177723 0.01727825209808841 -0.002186123026783036 -0.010987239219008819
 0.9898886804718449 -0.086805859690372 0.008076069667663686 0.036803339761959326 -0.002186385185966647 -0.010987212501314179 0.0025203051211890645 0.017287814726912928
 0.0025830771661177723 0.01727825209808841 -0.002186385185966647 -0.010987212501314179 0.008065798531354832 0.036805748717649286 0.9898887652176678 -0.08680427973428458
 -0.002186123026783036 -0.010987239219008819 0.0025203051211890645 0.017287814726912928 0.9898887652176678 -0.08680427973428458 0.008076060362626479 0.03680494878348653
0.1250521050438 0.008614023076858067 0.038909473780841065 0.9891630095610621 -0.09151355598138025 0.002830558973339874 0.018181792297053374 -0.002393772053185871 -0.011563378574260205
 0.9891630095610621 -0.09151355598138025 0.008625601763882313 0.03890852703944594 -0.002394061778074287 -0.011563347111946027 0.00276098111140871 0.018192672627577438
 0.002830558973339874 0.018181792297053374 -0.002394061778074287 -0.011563347111946027 0.008614219475235671 0.03891110670395372 0.9891631031388392 -0.09151189326333184
 -0.002393772053185871 -0.011563378574260205 0.00276098111140871 0.018192672627577438 0.9891631031388392 -0.09151189326333184 0.008625590649725512 0.03891022262713412
0.131304710296 0.009186197442448226 0.04102873319217995 0.9884066703851689 -0.09623363168596247 0.0030901088306695317 0.019083478590751775 -0.0026116129565950667 -0.012138024668824217
 0.9884066703851689 -0.09623363168596247 0.00919896526719257 0.041027688967714505 -0.002611931544296616 -0.012137987976383885 0.003013373564456251 0.019095794861761786
 0.0030901088306695317 0.019083478590751775 -0.002611931544296616 -0.012137987976383885 0.009186414098488653 0.041030445072516644 0.9884067732323263 -0.0962318862371876
 -0.0026116129565950667 -0.012138024668824217 0.003013373564456251 0.019095794861761786 0.9884067732323263 -0.0962318862371876 0.009198952172600798 0.04102947140439594
0.1375573155481 0.009656420001852357 0.042885905882409 0.9877454502177329 -0.10068993193437828 0.0033308573695039322 0.019956297010352456 -0.0028088713937554416 -0.012684127007368703
 0.9877454502177329 -0.10068993193437828 0.009670438955505291 0.04288477995434998 -0.0028092205499351485 -0.012684084999501138 0.003246786724608183 0.01997003886896539
 0.0033308573695039322 0.019956297010352456 -0.0028092205499351485 -0.012684084999501138 0.009656656934524986 0.04288769695001255 0.9877455627497077 -0.100688103831359
 -0.0028088713937554416 -0.012684127007368703 0.003246786724608183 0.01997003886896539 0.9877455627497077 -0.100688103831359 0.009670424757725041 0.042886649045368735
0.1438099208003 0.01014334241567448 0.044732326660870084 0.9870606555650381 -0.1051339481598698 0.0035813132094032482 0.02082494100893567 -0.0030139824005702026 -0.013226426343208397
 0.9870606555650381 -0.1051339481598698 0.01015867191185013 0.04473111423600361 -0.0030143634784477497 -0.013226378545253385 0.003489587051793104 0.020840217380973105
 0.0035813132094032482 0.02082494100893567 -0.0030143634784477497 -0.013226378545253385 0.010143600471844375 0.04473419664139449 0.987060778214007 -0.10513203744587128
 -0.0030139824005702026 -0.013226426343208397 0.003489587051793104 0.020840217380973105 0.987060778214007 -0.10513203744587128 0.010158656624487323 0.04473307022567826
0.1500625260525 0.01064677827881044 0.04656781219199662 0.9863524774495845 -0.10956554026237904 0.0038413810237101125 0.021689301241746606 -0.0032268538927067826 -0.013764821023642048
 0.9863524774495845 -0.10956554026237904 0.010663477891704989 0.04656650819234424 -0.0032272682386093954 -0.01376476694235784 0.0037416813058007412 0.021706225054309726
 0.0038413810237101125 0.021689301241746606 -0.0032272682386093954 -0.01376476694235784 0.01064705829703925 0.046569760801797554 0.9863526106473779 -0.10956354698331057
 -0.0032268538927067826 -0.013764821023642048 0.0037416813058007412 0.021706225054309726 0.9863526106473779 -0.10956354698331057 0.010663461537134303 0.04656855133254627
0.15631513130469998 0.011166539684308209 0.04839218460684129 0.9856211080597974 -0.11398456928875868 0.004110964256968876 0.022549270427352417 -0.003447392559563348 -0.014299211713185003
 0.9856211080597974 -0.11398456928875868 0.011184669152825148 0.048390783662319886 -0.003447841512746673 -0.014299150836919268 0.004002975051768796 0.022567958565409284
