! Created with skrf 1.8.0 (http://scikit-rf.org).
# GHz S RI R 50.0 
!freq ReS11 ImS11 ReS12 ImS12 ReS13 ImS13
! ReS14 ImS14
! ReS21 ImS21 ReS22 ImS22 ReS23 ImS23
! ReS24 ImS24
! ReS31 ImS31 ReS32 ImS32 ReS33 ImS33
! ReS34 ImS34
! ReS41 ImS41 ReS42 ImS42 ReS43 ImS43
! ReS44 ImS44
!
0.0 0.001434984267484 0.0 0.9985650157325 0.0 5.54284721542e-05 0.0 -5.542847178816e-05 6.78803005569995e-21
 0.9985650157325 0.0 0.001434984267495 0.0 -5.542847178834e-05 6.788030055721995e-21 5.542847215501e-05 0.0
 5.54284721542e-05 0.0 -5.542847178834e-05 6.788030055721995e-21 0.001434984265553 0.0 0.9985650157305 0.0
 -5.542847178816e-05 6.78803005569995e-21 5.542847215501e-05 0.0 0.9985650157305 0.0 0.001434984265552 0.0
0.005 0.0015436755044202324 0.001169352135941287 0.9984275247877874 -0.0030065026305064087 7.830397869319602e-05 0.000639916827710673 -7.581796752831765e-05 -0.0003966355148550019
 0.9984275247877874 -0.0030065026305064087 0.0015437043317476017 0.0011693353441109215 -7.582090562196775e-05 -0.00039663778780512217 7.810806566443238e-05 0.0006399912224363071
 7.830397869319602e-05 0.000639916827710673 -7.582090562196775e-05 -0.00039663778780512217 0.0015436735940382216 0.0011692860178193186 0.9984275244519999 -0.003006569707476356
 -7.581796752831765e-05 -0.0003966355148550019 7.810806566443238e-05 0.0006399912224363071 0.9984275244519999 -0.003006569707476356 0.0015437055804862442 0.001169267318018783
0.006252605252188 0.0015720926632099214 0.0014663246263725955 0.9983913582394571 -0.003758879252634091 8.481492937083698e-05 0.0008001964989299961 -8.153767733734538e-05 -0.0004963190961468436
 0.9983913582394571 -0.003758879252634091 0.0015721377255051125 0.0014663033219351103 -8.154224915348158e-05 -0.000496321899416096 8.450882956338966e-05 0.0008002930946379292
 8.481492937083698e-05 0.0008001964989299961 -8.154224915348158e-05 -0.000496321899416096 0.001572089726633212 0.0014662420199156676 0.9983913577645007 -0.0037589630659326653
 -8.153767733734538e-05 -0.0004963190961468436 8.450882956338966e-05 0.0008002930946379292 0.9983913577645007 -0.0037589630659326653 0.001572139728022777 0.0014662183232294949
0.01250521050438 0.001721167605866107 0.002963672042046493 0.9982004032866264 -0.007518674439701657 0.00012202275515303615 0.0016006815574945558 -0.00011379208662297451 -0.0009951287225754691
 0.9982004032866264 -0.007518674439701657 0.0017213475389831032 0.0029636262978657113 -0.00011381010292443422 -0.0009951339157992962 0.00012080199583666615 0.0016009134169695533
 0.00012202275515303615 0.0016006815574945558 -0.00011381010292443422 -0.0009951339157992962 0.0017211564435790846 0.0029635071605787957 0.9982004019550548 -0.007518841860980907
 -0.00011379208662297451 -0.0009951287225754691 0.00012080199583666615 0.0016009134169695533 0.9982004019550548 -0.007518841860980907 0.0017213561091374216 0.002963456534000226
0.01875781575657 0.001882517816179113 0.004482603908253856 0.9979919257384909 -0.011288559733295693 0.00016713338670074583 0.0024020323802104353 -0.00015228805896611825 -0.0014956821313801172
 0.9979919257384909 -0.011288559733295693 0.0018829221300364725 0.00448253044003223 -0.00015232823536735716 -0.001495689227190515 0.0001643908334365485 0.0024024453020251957
 0.00016713338670074583 0.0024020323802104353 -0.00015232823536735716 -0.001495689227190515 0.0018824931548681951 0.0044823570563435 0.997991923167123 -0.011288810700027813
 -0.00015228805896611825 -0.0014956821313801172 0.0001643908334365485 0.0024024453020251957 0.997991923167123 -0.011288810700027813 0.001882941828493212 0.004482276040413758
0.02501042100875 0.0020564437893523754 0.0060210022905358394 0.9977656920900932 -0.01507038019449123 0.00022023035880406816 0.0032042988280610862 -0.00019711896587551063 -0.0019977551476829296
 0.9977656920900932 -0.01507038019449123 0.002057161812829242 0.006020897698204064 -0.00019718991420275995 -0.0019977635757560566 0.0002153584770177631 0.0032049454827734795
 0.00022023035880406816 0.0032042988280610862 -0.00019718991420275995 -0.0019977635757560566 0.002056400360697895 0.006020673822781917 0.9977656878883001 -0.015070714707962967
 -0.00019711896587551063 -0.0019977551476829296 0.0002153584770177631 0.0032049454827734795 0.9977656878883001 -0.015070714707962967 0.0020571971982237362 0.006020558769620075
0.03126302626094 0.0022432334861171785 0.007577785844706916 0.9975214563244147 -0.0188649355675332 0.00028139811377116266 0.00400745379542174 -0.00024837564732165137 -0.0025011956476286117
 0.9975214563244147 -0.0188649355675332 0.002244354416994668 0.007577646620370539 -0.0002484858934283089 -0.002501204753570973 0.00027378839528745735 0.004008393766807249
 0.00028139811377116266 0.00400745379542174 -0.0002484858934283089 -0.002501204753570973 0.0022431660344292203 0.007577376176845537 0.9975214501026236 -0.01886535368219122
 -0.00024837564732165137 -0.0025011956476286117 0.00027378839528745735 0.004008393766807249 0.9975214501026236 -0.01886535368219122 0.0022444100586015846 0.007577223257794947
0.037515631513130004 0.002443168724147424 0.009152255989521178 0.9972589664712496 -0.022672634051177438 0.0003507210190053056 0.004811440008559879 -0.00030614711981043734 -0.003005876741263382
 0.9972589664712496 -0.022672634051177438 0.0024447816637156337 0.00915207852206869 -0.0003063051128114449 -0.0030058857862573446 0.0003397637178412865 0.004812739865591146
 0.0003507210190053056 0.004811440008559879 -0.0003063051128114449 -0.0030058857862573446 0.002443071999603902 0.009151765624982228 0.9972589578331957 -0.022673135848748877
 -0.00030614711981043734 -0.003005876741263382 0.0003397637178412865 0.004812739865591146 0.9972589578331957 -0.022673135848748877 0.0024448621362091836 0.009151570834571325
0.043768236765320004 0.0026565276460706624 0.010743897974707707 0.9969779672470241 -0.02649369116602779 0.00042828291671717286 0.00561618425508268 -0.000370520837311436 -0.0035116825336455678
 0.9969779672470241 -0.02649369116602779 0.002658721626797018 0.010743678553225276 -0.00037073495506226815 -0.0035116906943266544 0.0004133669167590915 0.005617917633480392
 0.00042828291671717286 0.00561618425508268 -0.00037073495506226815 -0.0035116906943266544 0.0026563964076179885 0.010743327506204797 0.9969779557915677 -0.026494276754735202
 -0.000370520837311436 -0.0035116825336455678 0.0004133669167590915 0.005617917633480392 0.9969779557915677 -0.026494276754735202 0.0026588315143289635 0.010743086664545872
0.050020842017509996 0.002883585873591251 0.012352298645759437 0.9966782013849639 -0.030328211922814978 0.0005141668630385494 0.006421603257436163 -0.0004415827914162718 -0.004018502245696149
 0.9966782013849639 -0.030328211922814978 0.0028864498830819593 0.012352033462111509 -0.00044186134397695666 -0.004018508614100513 0.0004946796153802087 0.006423850945257867
 0.0005141668630385494 0.006421603257436163 -0.00044186134397695666 -0.004018508614100513 0.0028834148884278117 0.01235164874975123 0.9966781867043233 -0.030328881443792807
 -0.0004415827914162718 -0.004018502245696149 0.0004946796153802087 0.006423850945257867 0.9966781867043233 -0.030328881443792807 0.0028865937799007215 0.01235135750404377
0.055454545454549996 0.0030922444743989334 0.013763383259556328 0.9964022542397892 -0.033671489113346526 0.0005956249177989424 0.007122014655294012 -0.0005088351581713373 -0.004459683028482287
 0.9964022542397892 -0.033671489113346526 0.0030957630100416408 0.013763075140422139 -0.0005091764045144813 -0.004459687036256521 0.0005716665242585209 0.007124780524024798
 0.0005956249177989424 0.007122014655294012 -0.0005091764045144813 -0.004459687036256521 0.0030920347059756733 0.013762664953637226 0.996402236419602 -0.033672231714184014
 -0.0005088351581713373 -0.004459683028482287 0.0005716665242585209 0.007124780524024798 0.996402236419602 -0.033672231714184014 0.0030959402019532334 0.013762326236593542
0.056273447269699996 0.003124617103496346 0.013977106082831274 0.9963594104114658 -0.034176231117278216 0.0006084549482044511 0.007227606559181233 -0.0005194175419163492 -0.0045262273253970225
 0.9963594104114658 -0.034176231117278216 0.0031282401069388844 0.013976791233535074 -0.0005197687739729175 -0.004526230908956045 0.0005837824508268605 0.007230456584288277
 0.0006084549482044511 0.007227606559181233 -0.0005197687739729175 -0.004526230908956045 0.0031244011484068885 0.01397637752019767 0.9963593920905512 -0.034176984744699615
 -0.0005194175419163492 -0.0045262273253970225 0.0005837824508268605 0.007230456584288277 0.9963593920905512 -0.034176984744699615 0.003128422618838605 0.01397603134551956
0.06252605252188 0.003379893430801515 0.015618007419334895 0.9960213351526626 -0.03803773544693195 0.0007112281588753644 0.008034098105406473 -0.0006041082108254216 -0.005034749867943187
 0.9960213351526626 -0.03803773544693195 0.0033843643925715802 0.015617638906848547 -0.0006045403033256397 -0.0050347495894940975 0.0006807549639237225 0.00803764582382802
 0.0007112281588753644 0.008034098105406473 -0.0006045403033256397 -0.0050347495894940975 0.0033796272931414795 0.015617201048875025 0.9960213127685997 -0.03803857337528506
 -0.0006041082108254216 -0.005034749867943187 0.0006807549639237225 0.00803764582382802 0.9960213127685997 -0.03803857337528506 0.0033845901379714258 0.015616795248328576
0.06877865777407 0.0036496855271610645 0.017274715604351534 0.9956637160994568 -0.04191267668648649 0.0008225662632154766 0.008840977189043218 -0.0006957364560306645 -0.005543961673254923
 0.9956637160994568 -0.04191267668648649 0.003655093431471664 0.017274289337846416 -0.0006962575273302755 -0.005543956371066359 0.0007856755036008997 0.008845325373616144
 0.0008225662632154766 0.008840977189043218 -0.0006962575273302755 -0.005543956371066359 0.0036493640055445978 0.017273832367713814 0.9956636892200524 -0.04191359914652679
 -0.0006957364560306645 -0.005543961673254923 0.0007856755036008997 0.008845325373616144 0.9956636892200524 -0.04191359914652679 0.003655367042187604 0.01727336207197476
0.07503126302626001 0.003934262728387005 0.018946961021893697 0.995286293685308 -0.045800980009459 0.0009425477095779606 0.009648139051358771 -0.0007943824319135998 -0.006053753652649608
 0.995286293685308 -0.045800980009459 0.0039406966000212484 0.018946472817389565 -0.0007950005385231092 -0.006053742080464762 0.0008986211405577797 0.009653397980309819
 0.0009425477095779606 0.009648139051358771 -0.0007950005385231092 -0.006053742080464762 0.003933880634144234 0.01894600195740223 0.9952862618687381 -0.04580198725513306
 -0.0007943824319135998 -0.006053753652649608 0.0008986211405577797 0.009653397980309819 0.9952862618687381 -0.04580198725513306 0.003941022722714013 0.018945462123659315
0.08128386827845 0.004233893068616195 0.02063448590527847 0.9948888085134447 -0.04970254951806903 0.0010712495334694282 0.010455475283389908 -0.0009001247422333575 -0.00656401543808975
 0.9948888085134447 -0.04970254951806903 0.004241441993081014 0.020633931485204524 -0.0009008478793472907 -0.006563996265174119 0.0010196675850217033 0.010461762828592567
 0.0010712495334694282 0.010455475283389908 -0.0009008478793472907 -0.006563996265174119 0.004233445226000465 0.020633452144712124 0.9948887713062473 -0.049703641830411385
 -0.0009001247422333575 -0.00656401543808975 0.0010196675850217033 0.010461762828592567 0.9948887713062473 -0.049703641830411385 0.0042418252892372265 0.020632837555112627
0.08753647353064001 0.004548843277331343 0.022337040480135444 0.9944710015504856 -0.053617272048001985 0.001208747270292105 0.011262874106793806 -0.001013040386569812 -0.007074635115638522
 0.9944710015504856 -0.053617272048001985 0.004557596421479146 0.022336415472355906 -0.001013876488397743 -0.007074606926831131 0.0011488891087955387 0.011270315821540955
 0.001208747270292105 0.011262874106793806 -0.001013876488397743 -0.007074606926831131 0.004548324525985833 0.02233593324779154 0.9944709584879978 -0.05361844973674087
 -0.001013040386569812 -0.007074635115638522 0.0011488891087955387 0.011270315821540955 0.9944709584879978 -0.05361844973674087 0.004558041569307176 0.02233523850719884
0.09378907878283 0.004879378752027552 0.024054380207122084 0.9940326142983388 -0.05754501987729402 0.001355114871158004 0.012070220578591934 -0.0011332047032570427 -0.0075854990386998965
 0.9940326142983388 -0.05754501987729402 0.004889425384472986 0.024053680143271847 -0.0011341616431295022 -0.007585460334490862 0.001286358468706674 0.012078949784706753
 0.001355114871158004 0.012070220578591934 -0.0011341616431295022 -0.007585460334490862 0.004878783947346632 0.0240532008204039 0.9940325649026809 -0.057546283281020016
 -0.0011332047032570427 -0.0075854990386998965 0.001286358468706674 0.012078949784706753 0.9940325649026809 -0.057546283281020016 0.004889937079324367 0.02405242035354742
0.100041684035 0.005225763512175373 0.02578626375497078 0.9935733889501142 -0.061485652709112056 0.0015104246217490867 0.01287739674402434 -0.0012606913086418113 -0.008096491697090693
 0.9935733889501142 -0.061485652709112056 0.005237193023758008 0.025785484068263257 -0.001261776899050198 -0.00809644089369873 0.0014321468317503013 0.012887554618131267
 0.0015104246217490867 0.01287739674402434 -0.001261776899050198 -0.00809644089369873 0.005225087527379372 0.025785013628874642 0.9935733327300237 -0.061487002191258515
 -0.0012606913086418113 -0.008096491697090693 0.0014321468317503013 0.012887554618131267 0.9935733327300237 -0.061487002191258515 0.005237775979482052 0.025784141676888066
0.1059090909091 0.005565457547664231 0.027424466737922558 0.9931232737325232 -0.06519510270990163 0.0016643619963681675 0.013634583461338055 -0.001387047517889733 -0.008576016579546283
 0.9931232737325232 -0.06519510270990163 0.005578266171774315 0.02742360808989609 -0.0013882608842761784 -0.008575952906931607 0.0015765817240353786 0.013646217459466533
 0.0016643619963681675 0.013634583461338055 -0.0013882608842761784 -0.008575952906931607 0.005564700737681985 0.027423151602622382 0.9931232106481597 -0.06519653332234167
 -0.001387047517889733 -0.008576016579546283 0.0015765817240353786 0.013646217459466533 0.9931232106481597 -0.06519653332234167 0.005578920302277229 0.027422188396816313
0.1062942892872 0.00558826014027017 0.027532451487939594 0.9930930685368832 -0.06543901914416055 0.0016747470624617936 0.013684281756954937 -0.001395572034292901 -0.008607495622389586
 0.9930930685368832 -0.06543901914416055 0.005601162064884218 0.02753158751020054 -0.001396794026789154 -0.008607431051851534 0.0015863237009625724 0.013696017415930807
 0.0016747470624617936 0.013684281756954937 -0.001396794026789154 -0.008607431051851534 0.005587497867076127 0.02753113213257772 0.9930930049860575 -0.06544045509605577
 -0.001395572034292901 -0.008607495622389586 0.0015863237009625724 0.013696017415930807 0.9930930049860575 -0.06544045509605577 0.005601821014252836 0.027530162748931716
0.11254689453939999 0.005967129712315943 0.029292704295463757 0.9925913970653252 -0.06940495781534343 0.0018481509097756444 0.014490751976349787 -0.001537916862291724 -0.00911839132131465
 0.9925913970653252 -0.06940495781534343 0.005981593747889774 0.029291751253609513 -0.0015392829473580556 -0.009118311231583399 0.0017489568417528765 0.014504222561753375
 0.0018481509097756444 0.014490751976349787 -0.0015392829473580556 -0.009118311231583399 0.005966276062827744 0.029291317317267144 0.9925913256617565 -0.0694064806555583
 -0.001537916862291724 -0.00911839132131465 0.0017489568417528765 0.014504222561753375 0.9925913256617565 -0.0694064806555583 0.005982333443585431 0.029290244362949774
0.11879949979160001 0.006362631720649847 0.031066782693480934 0.9920681196512954 -0.07338329825538492 0.0020307029785254045 0.01529668104679384 -0.0016877938589623014 -0.009629057229181746
 0.9920681196512954 -0.07338329825538492 0.0063787477502010225 0.031065735705246574 -0.0016893116656964797 -0.0096289597842489 0.00192011220882615 0.015312051808147665
 0.0020307029785254045 0.01529668104679384 -0.0016893116656964797 -0.0096289597842489 0.006361681628656431 0.03106532979582186 0.992068039856487 -0.07338490842944269
 -0.0016877938589623014 -0.009629057229181746 0.00192011220882615 0.015312051808147665 0.992068039856487 -0.07338490842944269 0.006379572966082027 0.031064146933878982
0.1250521050438 0.0067750239904515045 0.032854446103860666 0.9915229826491444 -0.07737386159080642 0.0022224681048939386 0.01610193996802991 -0.00184526910735211 -0.01013936967851966
 0.9915229826491444 -0.07737386159080642 0.00679288210302482 0.03285330017291177 -0.0018469462031911223 -0.010139252958534028 0.0020998538731315445 0.01611938434499903
 0.0022224681048939386 0.01610193996802991 -0.0018469462031911223 -0.010139252958534028 0.006773972412805441 0.032852929087772695 0.9915228939066189 -0.07737555957094466
 -0.00184526910735211 -0.01013936967851966 0.0020998538731315445 0.01611938434499903 0.9915228939066189 -0.07737555957094466 0.0067937976346869365 0.0328516297771604
0.131304710296 0.007204562590486088 0.03465545228834616 0.9909557337779649 -0.0813764610865504 0.0024235090696129754 0.016906397156198495 -0.0020104066388136476 -0.01064920288028961
 0.9909557337779649 -0.0813764610865504 0.007224253103212072 0.034654202298516 -0.0020122505292000524 -0.010649064881712666 0.0022882439490848235 0.01692609685945803
 0.0024235090696129754 0.016906397156198495 -0.0020122505292000524 -0.010649064881712666 0.0072034045088266024 0.03465387305197712 0.9909556355124888 -0.08137824737250546
 -0.0020104066388136476 -0.01064920288028961 0.0022882439490848235 0.01692609685945803 0.9909556355124888 -0.08137824737250546 0.007225263768733442 0.03465245054065188
0.1375573155481 0.007550347422237889 0.036233312285763354 0.9904673078750401 -0.08515457719065773 0.0026084506633217448 0.017685748116748223 -0.002157993974186 -0.011134158790772952
 0.9904673078750401 -0.08515457719065773 0.0075719685045980995 0.03623198237173585 -0.002160015785658759 -0.01113399946333615 0.0024602271271982933 0.017707667382738507
 0.0026084506633217448 0.017685748116748223 -0.002160015785658759 -0.01113399946333615 0.007549078303554418 0.03623167257674103 0.9904671996434635 -0.08515645209812604
 -0.002157993974186 -0.011134158790772952 0.0024602271271982933 0.017707667382738507 0.9904671996434635 -0.08515645209812604 0.0075730784098383104 0.036230149395178164
0.1438099208003 0.007908193330715607 0.037803239889577296 0.9899618691215541 -0.08892352408663756 0.0028008969440965923 0.018462174930972595 -0.0023115044674093892 -0.011616513122916564
 0.9899618691215541 -0.08892352408663756 0.007931836826818531 0.03780182668377701 -0.002313712268496558 -0.011616330507051728 0.002639144473980824 0.01848647914366687
 0.0028008969440965923 0.018462174930972595 -0.002313712268496558 -0.011616330507051728 0.007906808279120665 0.03780154168252217 0.9899617503483354 -0.0889254881082107
 -0.0023115044674093892 -0.011616513122916564 0.002639144473980824 0.01848647914366687 0.9899617503483354 -0.0889254881082107 0.007933050695016501 0.03779991278393267
0.1500625260525 0.008277979355097663 0.039365115841187466 0.9894395421076407 -0.09268322054379748 0.0030007863549399057 0.019235605190996385 -0.00247087968618342 -0.012096199600618507
 0.9894395421076407 -0.09268322054379748 0.008303737375930135 0.03936361572591784 -0.002473281529578512 -0.012095991658399505 0.0028249375089517436 0.019262465761027445
 0.0030007863549399057 0.019235605190996385 -0.002473281529578512 -0.012095991658399505 0.008276473504004634 0.039363361188072016 0.989439412201096 -0.09268527419332377
 -0.00247087968618342 -0.012096199600618507 0.0028249375089517436 0.019262465761027445 0.989439412201096 -0.09268527419332377 0.008305059944304147 0.039361621207130666
0.15631513130469998 0.008659583734840643 0.040918824547773416 0.9889004519892467 -0.09643358537447934 0.0032080566495483126 0.020005967617290798 -0.0026360605135900272 -0.012573153301169926
