! Created with skrf 1.8.0 (http://scikit-rf.org).
# GHz S RI R 50.0 
!freq ReS11 ImS11 ReS12 ImS12 ReS13 ImS13
! ReS14 ImS14
! ReS21 ImS21 ReS22 ImS22 ReS23 ImS23
! ReS24 ImS24
! ReS31 ImS31 ReS32 ImS32 ReS33 ImS33
! ReS34 ImS34
! ReS41 ImS41 ReS42 ImS42 ReS43 ImS43
! ReS44 ImS44
!
0.0 0.001265511881177 0.0 0.9987344881188 0.0 4.864447877607e-05 0.0 -4.864447788203e-05 5.957230413442226e-21
 0.9987344881188 0.0 0.001265511881143 0.0 -4.864447788122e-05 5.9572304133430295e-21 4.864447877466e-05 0.0
 4.864447877607e-05 0.0 -4.864447788122e-05 5.9572304133430295e-21 0.001265511869259 0.0 0.9987344881069 0.0
 -4.864447788203e-05 5.957230413442226e-21 4.864447877466e-05 0.0 0.9987344881069 0.0 0.00126551186927 0.0
0.005 0.0013609715204157317 0.001030228554141092 0.9986137972686475 -0.002652032172689498 6.864730142543864e-05 0.0005696120556734064 -6.648581981941171e-05 -0.00035179730785672925
 0.9986137972686475 -0.002652032172689498 0.0013609891832826434 0.001030218291092465 -6.648663925077666e-05 -0.00035179798049592457 6.853196416495153e-05 0.0005696558395609855
 6.864730142543864e-05 0.0005696120556734064 -6.648663925077666e-05 -0.00035179798049592457 0.0013609705610027761 0.0010301618923417434 0.9986137969358384 -0.002652099238033527
 -6.648581981941171e-05 -0.00035179730785672925 6.853196416495153e-05 0.0005696558395609855 0.9986137969358384 -0.002652099238033527 0.0013609894787422723 0.0010301508229348638
0.006252605252188 0.0013858105968093167 0.001291891771253961 0.9985822210020717 -0.003315721790770379 7.426433177765001e-05 0.0007122873099547671 -7.143464978747923e-05 -0.0004402210810102291
 0.9985822210020717 -0.003315721790770379 0.0013858382068538404 0.0012918787461837261 -7.14359245800595e-05 -0.0004402219115625781 7.408412444407647e-05 0.0007123441280561312
 7.426433177765001e-05 0.0007122873099547671 -7.14359245800595e-05 -0.0004402219115625781 0.0013858091705223178 0.0012918084655446 0.9985822205555656 -0.0033158056057826495
 -7.143464978747923e-05 -0.0004402210810102291 7.408412444407647e-05 0.0007123441280561312 0.9985822205555656 -0.0033158056057826495 0.0013858387427500265 0.0012917944237197559
0.01250521050438 0.0015154216795315008 0.002611342189128439 0.9984164852492221 -0.006632454808398251 0.00010595968007312244 0.0014248944012996896 -9.903899405799755e-05 -0.0008827375388321886
 0.9984164852492221 -0.006632454808398251 0.0015155319215963805 0.002611314182978009 -9.904401407154434e-05 -0.0008827390895472428 0.00010524097099393393 0.001425030292042841
 0.00010595968007312244 0.0014248944012996896 -9.904401407154434e-05 -0.0008827390895472428 0.001515416533805462 0.002611175867673333 0.9984164840208919 -0.00663262220535039
 -9.903899405799755e-05 -0.0008827375388321886 0.00010524097099393393 0.001425030292042841 0.9984164840208919 -0.00663262220535039 0.0015155346229248458 0.002611145729993978
0.01875781575657 0.0016545878279185247 0.003950047137635564 0.99823710391969 -0.009958318668901804 0.00014379575315972792 0.0021383613240016134 -0.0001315342007131823 -0.0013268919821788593
 0.99823710391969 -0.009958318668901804 0.0016548355356305526 0.003950002101687515 -0.00013154539057906345 -0.0013268941263812042 0.0001421810483879149 0.0021386022711871637
 0.00014379575315972792 0.0021383613240016134 -0.00013154539057906345 -0.0013268941263812042 0.001654576675208641 0.003949797987693323 0.9982371015796881 -0.009958569541220418
 -0.0001315342007131823 -0.0013268919821788593 0.0001421810483879149 0.0021386022711871637 0.9982371015796881 -0.009958569541220418 0.0016548420386577494 0.0039497495760574194
0.02501042100875 0.0018035466607249466 0.005306162530750817 0.9980438943318918 -0.013294966922275775 0.00018783933682781467 0.0028527527242997717 -0.00016899496619916942 -0.0017724990715095575
 0.9980438943318918 -0.013294966922275775 0.0018039865497903357 0.005306098343534937 -0.00016901472028056836 -0.0017725016636250424 0.0001849708579703184 0.002853128283482061
 0.00018783933682781467 0.0028527527242997717 -0.00016901472028056836 -0.0017725016636250424 0.0018035272115197864 0.005305830715341167 0.9980438905501291 -0.013295301210844613
 -0.00016899496619916942 -0.0017724990715095575 0.0001849708579703184 0.002853128283482061 0.9980438905501291 -0.013295301210844613 0.0018039984949296461 0.0053057617488834865
0.03126302626094 0.0019625256812726786 0.00667875975088122 0.9978366631306337 -0.016643131591103994 0.00023815814790589633 0.003568064303295913 -0.00021149417661636816 -0.0022194389700131473
 0.9978366631306337 -0.016643131591103994 0.0019632123785807225 0.006678674222805601 -0.00021152486436882767 -0.002219441845257974 0.00023367748561109615 0.0035686076211005934
 0.00023815814790589633 0.003568064303295913 -0.00021152486436882767 -0.002219441845257974 0.001962495642955673 0.006678345435416175 0.9978366575759902 -0.016643549257812203
 -0.00021149417661636816 -0.0022194389700131473 0.00023367748561109615 0.0035686076211005934 0.9978366575759902 -0.016643549257812203 0.001963231410099619 0.006678253535050486
0.037515631513130004 0.0021317476284393577 0.008067248772475015 0.9976152117408879 -0.02000319999956987 0.00029482008132437426 0.004284265029154484 -0.0002591034940502931 -0.0026676151129532894
 0.9976152117408879 -0.02000319999956987 0.002132735690903055 0.008067139648451667 -0.0002591474627521344 -0.002667618087232752 0.00028836803091642816 0.004285012880459706
 0.00029482008132437426 0.004284265029154484 -0.0002591474627521344 -0.002667618087232752 0.0021317047065941615 0.008066752135570327 0.9976152040829366 -0.020003701016806163
 -0.0002591034940502931 -0.0026676151129532894 0.00028836803091642816 0.004285012880459706 0.9976152040829366 -0.020003701016806163 0.002132763459030293 0.008066634826279543
0.043768236765320004 0.0023114325540199614 0.009471202600672059 0.9973793385519774 -0.023375390280840378 0.0003578928682681997 0.005001309978966058 -0.00031189358240260817 -0.0031169413519278434
 0.9973793385519774 -0.023375390280840378 0.0023127764832623406 0.00947106756217803 -0.00031195315887088716 -0.0031169442218273494 0.0003491093429413295 0.005002302809606875
 0.0003578928682681997 0.005001309978966058 -0.00031195315887088716 -0.0031169442218273494 0.0023113744528653387 0.009470623841476579 0.9973793284611444 -0.023375974624487417
 -0.00031189358240260817 -0.0031169413519278434 0.0003491093429413295 0.005002302809606875 0.9973793284611444 -0.023375974624487417 0.002312814644554566 0.009470478553912781
0.050020842017509996 0.002501798797009978 0.01089028473204178 0.9971288400010666 -0.02675982386043011 0.0004274438815267448 0.00571914564910419 -0.0003699342029349068 -0.003567336632380588
 0.9971288400010666 -0.02675982386043011 0.00250355305198535 0.01089012139869131 -0.00037001169465204244 -0.0035673391751553543 0.00041596786654970124 0.005720427621004148
 0.0004274438815267448 0.00571914564910419 -0.00037001169465204244 -0.0035673391751553543 0.0025017232171550023 0.010889624066869339 0.9971288271459383 -0.026760491513632325
 -0.0003699342029349068 -0.003567336632380588 0.00041596786654970124 0.005720427621004148 0.9971288271459383 -0.026760491513632325 0.002503603267088921 0.010889448138520426
0.055454545454549996 0.002676076027894181 0.012135576431206607 0.9968991124797059 -0.029710990199548846 0.0004931988944379748 0.006343562668295673 -0.0004246908615697793 -0.003959550929437713
 0.9968991124797059 -0.029710990199548846 0.0026782310711026165 0.012135386528522193 -0.0004247857817218798 -0.003959552992039922 0.00047908909935527946 0.006345134698460956
 0.0004931988944379748 0.006343562668295673 -0.0004247857817218798 -0.003959552992039922 0.0026759833900169014 0.012134844775678366 0.9968990969534833 -0.02971173024398875
 -0.0004246908615697793 -0.003959550929437713 0.00047908909935527946 0.006345134698460956 0.9968990969534833 -0.02971173024398875 0.0026782931147620146 0.012134639985500318
0.056273447269699996 0.002703063490208387 0.012324213543825641 0.9968635111907759 -0.030156561010805244 0.0005035400098639617 0.0064377125372666036 -0.0004332942477152089 -0.004018722400982412
 0.9968635111907759 -0.030156561010805244 0.0027052824985474085 0.012324019474642987 -0.0004333919436103532 -0.004018724374579016 0.0004890095413099723 0.006439331574666249
 0.0005035400098639617 0.0064377125372666036 -0.0004333919436103532 -0.004018724374579016 0.0027029681305201507 0.012323471204463789 0.9968634952400106 -0.030157311965910188
 -0.0004332942477152089 -0.004018722400982412 0.0004890095413099723 0.006439331574666249 0.9968634952400106 -0.030157311965910188 0.002705346434042668 0.012323261880428267
0.06252605252188 0.0029154428491831824 0.013772742702730684 0.9965831462923324 -0.033565620386863546 0.0005862475587329102 0.007156946577238673 -0.0005020417496319297 -0.004471021161810434
 0.9965831462923324 -0.033565620386863546 0.0029181810177319203 0.013772515397241222 -0.0005021619206723996 -0.004471022304882828 0.000568299718345474 0.007158954413564059
 0.0005862475587329102 0.007156946577238673 -0.0005021619206723996 -0.004471022304882828 0.0029153254067832905 0.01377191894633493 0.996583126914428 -0.033566454636005244
 -0.0005020417496319297 -0.004471021161810434 0.000568299718345474 0.007158954413564059 0.996583126914428 -0.033566454636005244 0.002918260345797244 0.013771673379927227
0.06877865777407 0.00313915233327182 0.015235649512094593 0.996287538822728 -0.03698699062439056 0.0006756321728282076 0.007876779985950147 -0.0005762438717942869 -0.004924155621948677
 0.996287538822728 -0.03698699062439056 0.003142464058602951 0.01523538641103124 -0.0005763887714286939 -0.004924155653878281 0.0006539030941332539 0.007879232210921966
 0.0006756321728282076 0.007876779985950147 -0.0005763887714286939 -0.004924155653878281 0.003139010503380082 0.015234744609647638 0.9962875156852689 -0.0369879081712788
 -0.0005762438717942869 -0.004924155621948677 0.0006539030941332539 0.007879232210921966 0.9962875156852689 -0.0369879081712788 0.003142560456666937 0.015234459862675572
0.07503126302626001 0.0033744067377251942 0.01671272749127022 0.9959764818551945 -0.04042063770740732 0.0007717587676534922 0.008597141793795275 -0.0006559668882087323 -0.005378048155569324
 0.9959764818551945 -0.04042063770740732 0.0033783464158985903 0.01671242597713086 -0.0006561387527005193 -0.005378046776486582 0.0007458836504072052 0.008600097900649048
 0.0007717587676534922 0.008597141793795275 -0.0006561387527005193 -0.005378046776486582 0.0033742382134670794 0.01671174174107366 0.9959764546244062 -0.040421638554267544
 -0.0006559668882087323 -0.005378048155569324 0.0007458836504072052 0.008600097900649048 0.9959764546244062 -0.040421638554267544 0.0033784615659791513 0.01671141478390516
0.08128386827845 0.003621420239171873 0.01820378146197247 0.9956497681850668 -0.04386650983055093 0.0008746914680248278 0.00931795820580146 -0.0007412761573021591 -0.005832620439035519
 0.9956497681850668 -0.04386650983055093 0.0036260422758212056 0.018203438859308356 -0.0007414772059854039 -0.005832617329843628 0.0008443045990810721 0.009321481638462244
 0.0008746914680248278 0.00931795820580146 -0.0007414772059854039 -0.005832617329843628 0.0036212227127293754 0.018202715181626437 0.9956497365264612 -0.043867593986401505
 -0.0007412761573021591 -0.005832620439035519 0.0008443045990810721 0.009321481638462244 0.9956497365264612 -0.043867593986401505 0.003626177865444001 0.01820234289299354
0.08753647353064001 0.0038804064117977863 0.019708624135536278 0.9953071904687006 -0.04732454076191001 0.0009844935501526794 0.010039152845769424 -0.0008322360914201093 -0.006287793204979141
 0.9953071904687006 -0.04732454076191001 0.003885765231786113 0.01970823771103985 -0.0008324685268908438 -0.006287788027381422 0.0009492283294843374 0.010043311045872137
 0.0009844935501526794 0.010039152845769424 -0.0008324685268908438 -0.006287788027381422 0.003880177574406033 0.019707477666519282 0.9953071540469658 -0.04732570823843486
 -0.0008322360914201093 -0.006287793204979141 0.0009492283294843374 0.010043311045872137 0.9953071540469658 -0.04732570823843486 0.003885922953645299 0.01970705683313599
0.09378907878283 0.004151578224466504 0.021227073677199646 0.9949485413455518 -0.050794652231327356 0.0011012273873985858 0.010760646934519596 -0.0009289101221041778 -0.006743486064275962
 0.9949485413455518 -0.050794652231327356 0.0041577282817208 0.021226640639447486 -0.0009291761303813996 -0.0067434784608016675 0.0010607163581718014 0.01076551138825232
 0.0011012273873985858 0.010760646934519596 -0.0009291761303813996 -0.0067434784608016675 0.004151315766408599 0.021225847384354287 0.9949484998237708 -0.050795903043588116
 -0.0009289101221041778 -0.006743486064275962 0.0010607163581718014 0.01076551138825232 0.9949484998237708 -0.050795903043588116 0.004157909833176649 0.021225374700200743
0.100041684035 0.004435148021283515 0.02275895192282265 0.9945736135455384 -0.05427675566787221 0.0012249543971769624 0.011482359415099924 -0.0010313606632966035 -0.007199617383177458
 0.9945736135455384 -0.05427675566787221 0.004442143808841217 0.022758469421830217 -0.001031662413962105 -0.007199606977203981 0.0011788292796899107 0.011488005699714927
 0.0012249543971769624 0.011482359415099924 -0.001031662413962105 -0.007199606977203981 0.004434849632531576 0.022757646191876556 0.9945735665855743 -0.054278089837229565
 -0.0010313606632966035 -0.007199617383177458 0.0011788292796899107 0.011488005699714927 0.9945735665855743 -0.054278089837229565 0.004442350892029319 0.02275711825728608
0.1059090909091 0.004712712610332091 0.024208513767650708 0.9942067938270897 -0.05755516019190166 0.0013474731116358402 0.012159734544801803 -0.0011328079738094233 -0.007627973122872592
 0.9942067938270897 -0.05755516019190166 0.004720551630148945 0.0242079822058241 -0.0011331452235257009 -0.007627959727484356 0.0012957441207820896 0.01216618691638537
 0.0013474731116358402 0.012159734544801803 -0.0011331452235257009 -0.007627959727484356 0.004712378403501222 0.024207133867401517 0.994206741455099 -0.0575565726027894
 -0.0011328079738094233 -0.007627973122872592 0.0012957441207820896 0.01216618691638537 0.994206741455099 -0.0575565726027894 0.004720784224598321 0.02420655090970054
0.1062942892872 0.004731327492599429 0.02430408302266122 0.9941821999889167 -0.057770753512780396 0.0013557349890424909 0.012204207057783857 -0.0011396490729666954 -0.007656104182743306
 0.9941821999889167 -0.057770753512780396 0.004739223552138363 0.024303548149161597 -0.0011399887192094043 -0.007656090578528618 0.0013036267174731412 0.012210714887874563
 0.0013557349890424909 0.012204207057783857 -0.0011399887192094043 -0.007656090578528618 0.004730990863084756 0.024302698266088156 0.9941821472511418 -0.05777217106130568
 -0.0011396490729666954 -0.007656104182743306 0.0013036267174731412 0.012210714887874563 0.9941821472511418 -0.05777217106130568 0.004739457874082677 0.024302111586546268
0.11254689453939999 0.005040327637513583 0.025862292423486692 0.9937740938797387 -0.061276540196276236 0.0014936285141640153 0.012926104532350527 -0.0012538356122606352 -0.008112862073301967
 0.9937740938797387 -0.061276540196276236 0.005049178569710691 0.025861702207903788 -0.0012542152909893153 -0.00811284485601043 0.0014351672762252924 0.012933557805643673
 0.0014936285141640153 0.012926104532350527 -0.0012542152909893153 -0.00811284485601043 0.005039950457383999 0.025860829076841823 0.9937740350228762 -0.06127804115068876
 -0.0012538356122606352 -0.008112862073301967 0.0014351672762252924 0.012933557805643673 0.9937740350228762 -0.06127804115068876 0.005049441841771839 0.02586018006154706
0.11879949979160001 0.00536235872036904 0.02743340605635006 0.9933490887955306 -0.06479400291100275 0.0016386932149261653 0.01364796447237894 -0.0013739794040429519 -0.008569805199054988
 0.9933490887955306 -0.06479400291100275 0.005372219194694742 0.02743275746754017 -0.0013744012359041841 -0.00856978393479025 0.0015735084938490196 0.013656451315194473
 0.0016386932149261653 0.01364796447237894 -0.0013744012359041841 -0.00856978393479025 0.005361938680463658 0.027431864577595 0.9933490234765117 -0.06479558730375062
 -0.0013739794040429519 -0.008569805199054988 0.0015735084938490196 0.013656451315194473 0.9933490234765117 -0.06479558730375062 0.005372513132763339 0.027431149537698776
0.1250521050438 0.0056976302216414434 0.029017249698510376 0.9929069787724845 -0.06832302221407846 0.0017909861747130438 0.014369697525140227 -0.0015001383903622265 -0.009026846199531077
 0.9929069787724845 -0.06832302221407846 0.005708554986462732 0.02901653964214279 -0.00150060447977029 -0.009026820435358598 0.001718706793562232 0.014379310337343972
 0.0017909861747130438 0.014369697525140227 -0.00150060447977029 -0.009026820435358598 0.005697165013567547 0.029015630572779186 0.9929069066463749 -0.06832469007878084
 -0.0015001383903622265 -0.009026846199531077 0.001718706793562232 0.014379310337343972 0.9929069066463749 -0.06832469007878084 0.005708881310534223 0.029014845719374075
0.131304710296 0.006046350784407001 0.03061364846532181 0.9924475583892881 -0.0718634725015042 0.0019505632684780922 0.015091212394696168 -0.0016323692885246086 -0.009483896180145512
 0.9924475583892881 -0.0718634725015042 0.0060583946774712604 0.03061287378199156 -0.0016328817236876496 -0.009483865444130327 0.0018708174364522282 0.015102047894156465
 0.0019505632684780922 0.015091212394696168 -0.0016328817236876496 -0.009483865444130327 0.006045838101419428 0.030611952203257423 0.9924474791092225 -0.07186522387495645
 -0.0016323692885246086 -0.009483896180145512 0.0018708174364522282 0.015102047894156465 0.9924474791092225 -0.07186522387495645 0.006058755111851547 0.03061109364500374
0.1375573155481 0.006322510336238756 0.03201228072491977 0.9920568619911044 -0.07520502029295373 0.002095919642430278 0.015790326011294188 -0.0017492646347213698 -0.009918720464751016
 0.9920568619911044 -0.07520502029295373 0.006335733093037981 0.03201145680217837 -0.0017498266074251472 -0.00991868480397895 0.002008524917051967 0.015802356727304557
 0.002095919642430278 0.015790326011294188 -0.0017498266074251472 -0.00991868480397895 0.006321948531189617 0.03201050758621706 0.9920567752344056 -0.07520685517291761
 -0.0017492646347213698 -0.009918720464751016 0.002008524917051967 0.015802356727304557 0.9920567752344056 -0.07520685517291761 0.006336128656784393 0.03200959039837989
0.1438099208003 0.006608144013299684 0.03340450247576695 0.9916528406511855 -0.07853910058257485 0.0022471710389088285 0.016487268332455406 -0.0018708621745009782 -0.010351600149127133
 0.9916528406511855 -0.07853910058257485 0.006622601370933402 0.033403627357105635 -0.0018714759485690415 -0.010351559105406262 0.0021517890533109376 0.016500581487975136
 0.0022471710389088285 0.016487268332455406 -0.0018714759485690415 -0.010351559105406262 0.006607530900508014 0.033402652959458594 0.9916527460733299 -0.07854101899906858
 -0.0018708621745009782 -0.010351600149127133 0.0021517890533109376 0.016500581487975136 0.9916527460733299 -0.07854101899906858 0.00662303366575071 0.033401674479402385
0.1500625260525 0.00690316343737458 0.03479022674965815 0.9912355857644402 -0.08186566090079203 0.002404274190813435 0.01718198932854252 -0.001997120588732046 -0.010782488259129105
 0.9912355857644402 -0.08186566090079203 0.006918911254490545 0.03478929834697585 -0.00199778842578921 -0.010782441355825767 0.0023005682016951816 0.017196675295700063
 0.002404274190813435 0.01718198932854252 -0.00199778842578921 -0.010782441355825767 0.006902496840125513 0.03478830136982107 0.9912354830194121 -0.08186766288889746
 -0.001997120588732046 -0.010782488259129105 0.0023005682016951816 0.017196675295700063 0.9912354830194121 -0.08186766288889746 0.006919381877376321 0.03478725877673198
0.15631513130469998 0.007207479743060393 0.03616936937678663 0.9908051890340309 -0.08518464839596122 0.0025671854128205955 0.017874439657431053 -0.0021279981322871334 -0.011211338723815089
