! Created with skrf 1.8.0 (http://scikit-rf.org).
# GHz S RI R 50.0 
!freq ReS11 ImS11 ReS12 ImS12 ReS13 ImS13
! ReS14 ImS14
! ReS21 ImS21 ReS22 ImS22 ReS23 ImS23
! ReS24 ImS24
! ReS31 ImS31 ReS32 ImS32 ReS33 ImS33
! ReS34 ImS34
! ReS41 ImS41 ReS42 ImS42 ReS43 ImS43
! ReS44 ImS44
!
0.0 0.001045241512314 0.0 0.9989547584876 0.0 3.914833287964e-05 0.0 -3.914833390106e-05 4.794288180388494e-21
 0.9989547584876 0.0 0.001045241512332 0.0 -3.914833390162e-05 4.794288180457075e-21 3.914833288025e-05 0.0
 3.914833287964e-05 0.0 -3.914833390162e-05 4.794288180457075e-21 0.001045241507185 0.0 0.9989547584824 0.0
 -3.914833390106e-05 4.794288180388494e-21 3.914833288025e-05 0.0 0.9989547584824 0.0 0.001045241507168 0.0
0.005 0.0011235143976873927 0.000861799563794675 0.9988559060481516 -0.002190500647475 5.335374342480642e-05 0.00039490397015378207 -5.216050720098263e-05 -0.00025438886666061196
 0.9988559060481516 -0.002190500647475 0.0011235084312920633 0.0008618029960941355 -5.216152460344036e-05 -0.00025438959317420506 5.338592645357072e-05 0.0003948917158995368
 5.335374342480642e-05 0.00039490397015378207 -5.216152460344036e-05 -0.00025438959317420506 0.0011235138711968382 0.0008617325857733926 0.9988559057385713 -0.0021905677140307616
 -5.216050720098263e-05 -0.00025438886666061196 5.338592645357072e-05 0.0003948917158995368 0.9988559057385713 -0.0021905677140307616 0.0011235083401195164 0.000861735841975876
0.006252605252188 0.0011437525214192598 0.0010806525978541942 0.9988302371794641 -0.002738703399168239 5.724774612862124e-05 0.0004938559340765152 -5.570318645183522e-05 -0.0003183221061864979
 0.9988302371794641 -0.002738703399168239 0.0011437431953382866 0.0010806569630468792 -5.570477009349621e-05 -0.00031832300145941724 5.729803009353203e-05 0.0004938400505414194
 5.724774612862124e-05 0.0004938559340765152 -5.570477009349621e-05 -0.00031832300145941724 0.001143751754908338 0.0010805688830803305 0.99883023675173 -0.0027387872202007963
 -5.570318645183522e-05 -0.0003183221061864979 5.729803009353203e-05 0.0004938400505414194 0.99883023675173 -0.0027387872202007963 0.0011437431086917845 0.001080573038028586
0.01250521050438 0.001248598388975 0.002184149437357535 0.9986966278503575 -0.00547838548993463 7.871120510346123e-05 0.0009882466196371486 -7.509973534988621e-05 -0.0006383205622127264
 0.9986966278503575 -0.00547838548993463 0.0012485611574762573 0.002184158924146933 -7.510598258984359e-05 -0.0006383222147686016 7.891174233393635e-05 0.0009882088770570374
 7.871120510346123e-05 0.0009882466196371486 -7.510598258984359e-05 -0.0006383222147686016 0.0012485959351453883 0.0021839822168461644 0.9986966267422986 -0.005478552883258852
 -7.509973534988621e-05 -0.0006383205622127264 7.891174233393635e-05 0.0009882088770570374 0.9986966267422986 -0.005478552883258852 0.0012485614059709147 0.0021839913803266553
0.01875781575657 0.0013599454022704966 0.0033036682289263766 0.998553809557504 -0.00822576525905324 0.00010357980900840159 0.0014834948793538793 -9.738398688104557e-05 -0.0009596166370188555
 0.998553809557504 -0.00822576525905324 0.0013598617556859487 0.0033036836508921973 -9.73979279413819e-05 -0.0009596188890317243 0.00010403033535620352 0.0014834284282614623
 0.00010357980900840159 0.0014834948793538793 -9.73979279413819e-05 -0.0009596188890317243 0.0013599403258004628 0.0033034175576994547 0.9985538074912894 -0.008226016140788736
 -9.738398688104557e-05 -0.0009596166370188555 0.00010403033535620352 0.0014834284282614623 0.9985538074912894 -0.008226016140788736 0.0013598627266552794 0.0033034326368291842
0.02501042100875 0.0014779578969490153 0.004437713245299233 0.9984016584551969 -0.010982231789762723 0.00013189482978276043 0.001979645912476442 -0.00012260135789270848 -0.0012821075054103065
 0.9984016584551969 -0.010982231789762723 0.0014778093715118257 0.004437735467237949 -0.00012262599069416306 -0.001282110176232632 0.00013269515797089982 0.0019795430775800906
 0.00013189482978276043 0.001979645912476442 -0.00012262599069416306 -0.001282110176232632 0.001477949276519618 0.0044373791696341765 0.9984016551574677 -0.010982566095099738
 -0.00012260135789270848 -0.0012821075054103065 0.00013269515797089982 0.0019795430775800906 0.9984016551574677 -0.010982566095099738 0.0014778114496418714 0.004437401120311734
0.03126302626094 0.0016027928096676123 0.005585544366114447 0.9982400424186112 -0.013748415192293948 0.0001636979999647338 0.002476704807809671 -0.00015079646612169392 -0.0016057287545680182
 0.9982400424186112 -0.013748415192293948 0.0016025609791130379 0.005585574302894572 -0.00015083476223303315 -0.0016057316402723215 0.0001649481212022747 0.002476557084927085
 0.0001636979999647338 0.002476704807809671 -0.00015083476223303315 -0.0016057316402723215 0.0016027797363695187 0.005585126911479356 0.998240037619143 -0.013748832887461229
 -0.00015079646612169392 -0.0016057287545680182 0.0001649481212022747 0.002476557084927085 0.998240037619143 -0.013748832887461229 0.0016025645455172036 0.0055851567376436
0.037515631513130004 0.001734603773222054 0.006746701424161074 0.9980688251888575 -0.016524662224212696 0.00019903120287680396 0.0029746612159423052 -0.00018201343595083893 -0.0019304297048057942
 0.9980688251888575 -0.016524662224212696 0.0017342702431597853 0.006746740040349618 -0.00018206834357232445 -0.0019304325779993022 0.00020083133701200327 0.0029744592638694272
 0.00019903120287680396 0.0029746612159423052 -0.00018206834357232445 -0.0019304325779993022 0.001734585346277473 0.006746200624088434 0.9980688186170081 -0.016525163277685283
 -0.00018201343595083893 -0.0019304297048057942 0.00020083133701200327 0.0029744592638694272 0.9980688186170081 -0.016525163277685283 0.0017342756723780883 0.006746239377407198
0.043768236765320004 0.0018735426958627227 0.0079208595302453 0.9978878680033173 -0.01931118092879047 0.00023793633822421627 0.003473496841239096 -0.00021629601258329908 -0.0022561659078042446
 0.9978878680033173 -0.01931118092879047 0.0018730891005628648 0.00792090783970585 -0.00021637045842240026 -0.002256168517508456 0.0002403869621144034 0.0034732304719931792
 0.00023793633822421627 0.003473496841239096 -0.00021637045842240026 -0.002256168517508456 0.001873518023069926 0.007920275411342508 0.9978878593879583 -0.01931176532626801
 -0.00021629601258329908 -0.0022561659078042446 0.0002403869621144034 0.0034732304719931792 0.9978878593879583 -0.01931176532626801 0.0018730967610952178 0.007920324191016577
0.050020842017509996 0.002019760511983359 0.009107769226452176 0.9976970303955931 -0.02210810044335148 0.00028045524160497223 0.003973188539044691 -0.00025368761643073046 -0.0025828960389189643
 0.9976970303955931 -0.02210810044335148 0.0020191685111986845 0.009107828292206657 -0.0002537845068720744 -0.002582898110494815 0.0002836571059677889 0.003972846707451766
 0.00028045524160497223 0.003973188539044691 -0.0002537845068720744 -0.002582898110494815 0.002019728709675665 0.00910710182316566 0.9976970194654072 -0.022108768173074535
 -0.00025368761643073046 -0.0025828960389189643 0.0002836571059677889 0.003972846707451766 0.9976970194654072 -0.022108768173074535 0.002019178766088692 0.009107161775796147
0.055454545454549996 0.0021528563598774047 0.01014942679549781 0.9975230525767713 -0.02454721766579484 0.0003203726841750672 0.004408110498010038 -0.00028874045812941706 -0.002867610743515555
 0.9975230525767713 -0.02454721766579484 0.002152129204014863 0.010149496110170898 -0.0002888591987842793 -0.0028676121059736707 0.00032430944138962174 0.004407693443473542
 0.0003203726841750672 0.004408110498010038 -0.0002888591987842793 -0.0028676121059736707 0.002152817650384547 0.01014868704466275 0.9975230394142001 -0.024547957811236417
 -0.00028874045812941706 -0.002867610743515555 0.00032430944138962174 0.004407693443473542 0.9975230394142001 -0.024547957811236417 0.002152142004036484 0.010148757674879034
0.056273447269699996 0.0021734075760026475 0.010307227150063892 0.9974961706411551 -0.024915500296390013 0.00032662963343726764 0.004473709823292968 -0.00029423136504165266 -0.0029105803790764957
 0.9974961706411551 -0.024915500296390013 0.002172658852650408 0.010307298084141046 -0.00029435358696950373 -0.002910581614155978 0.0003306837727708958 0.004473280616205717
 0.00032662963343726764 0.004473709823292968 -0.00029435358696950373 -0.002910581614155978 0.002173367768696908 0.010306476499025139 0.9974961571243367 -0.02491625135491391
 -0.00029423136504165266 -0.0029105803790764957 0.0003306837727708958 0.004473280616205717 0.9974961571243367 -0.02491625135491391 0.002172672059569304 0.010306548818536434
0.06252605252188 0.0023346338913063985 0.011519059886267384 0.9972851460377334 -0.027733426515897365 0.0003765010793452279 0.004975031703959009 -0.0003379700815559601 -0.003239179967043921
 0.9972851460377334 -0.027733426515897365 0.0023337101495147436 0.0115191438495818 -0.00033812050296641344 -0.003239180043471712 0.0003815088176371421 0.004974502329285732
 0.0003765010793452279 0.004975031703959009 -0.00033812050296641344 -0.003239180043471712 0.002334585211617719 0.011518226032412078 0.9972851296618443 -0.027734260901965464
 -0.0003379700815559601 -0.003239179967043921 0.0003815088176371421 0.004974502329285732 0.9972851296618443 -0.027734260901965464 0.002333726660654181 0.0115183119600486
0.06877865777407 0.0025035892461151765 0.012743114356322452 0.9970638130947891 -0.030561901202285784 0.0004301109587436562 0.00547712317175293 -0.00038494629397505475 -0.0035686561048397223
 0.9970638130947891 -0.030561901202285784 0.0025024722092206768 0.012743212558608389 -0.00038512776436655543 -0.0035686546766144395 0.0004361739117628967 0.005476479947369205
 0.0004301109587436562 0.00547712317175293 -0.00038512776436655543 -0.0035686546766144395 0.0025035308351158193 0.012742197346798994 0.997063793586928 -0.030562818923060495
 -0.00038494629397505475 -0.0035686561048397223 0.0004361739117628967 0.005476479947369205 0.997063793586928 -0.030562818923060495 0.0025024923721073894 0.012742298171039551
0.07503126302626001 0.002680423296431207 0.013979251708296775 0.996832027670253 -0.033400928598925066 0.00048750043710642525 0.005979951513320108 -0.00043520222937927554 -0.0038989700331166412
 0.996832027670253 -0.033400928598925066 0.0026790947052399328 0.013979365408105168 -0.0004354175800720612 -0.0038989667303486785 0.0004947205127239456 0.005979179855892777
 0.00048750043710642525 0.005979951513320108 -0.0004354175800720612 -0.0038989667303486785 0.0026803543032315725 0.013978251599172037 0.9968320047564705 -0.03340192966328821
 -0.00043520222937927554 -0.0038989700331166412 0.0004947205127239456 0.005979179855892777 0.9968320047564705 -0.03340192966328821 0.002679118862486679 0.013978368655797624
0.08128386827845 0.0028652856172357386 0.015227343264463183 0.996589645076984 -0.0362504991066544 0.0005487104410343601 0.006483482513586177 -0.0004887798047391946 -0.004230082719909007
 0.996589645076984 -0.0362504991066544 0.002863727228284605 0.015227473769111809 -0.0004890318490685373 -0.004230077148767877 0.0005571898376571225 0.006482566927365878
 0.0005487104410343601 0.006483482513586177 -0.0004890318490685373 -0.004230077148767877 0.0028652051987934414 0.015226260115664999 0.9965896184824627 -0.03625158353038996
 -0.0004887798047391946 -0.004230082719909007 0.0005571898376571225 0.006482566927365878 0.9965896184824627 -0.03625158353038996 0.0028637557177414886 0.015226394787791347
0.08753647353064001 0.0030583257294735508 0.016487267709395945 0.996336520165871 -0.039110592057865 0.0006137816349181665 0.006987680594376192 -0.0005457206151987298 -0.004561954713695457
 0.996336520165871 -0.039110592057865 0.0030565193134408355 0.016487416375046676 -0.0005460121486737718 -0.004561946456369959 0.0006236228386750539 0.006986604659970004
 0.0006137816349181665 0.006987680594376192 -0.0005460121486737718 -0.004561946456369959 0.0030582330508523753 0.01648610158963258 0.9963364896148281 -0.03911175985881834
 -0.0005457206151987298 -0.004561954713695457 0.0006236228386750539 0.006986604659970004 0.9963364896148281 -0.03911175985881834 0.0030565524685791656 0.016486255307770207
0.09378907878283 0.003259693114672938 0.017758909083692518 0.9960725073986453 -0.041981177685750055 0.0006827543986019149 0.0074925089170284715 -0.000606065920742371 -0.004894546033078382
 0.9960725073986453 -0.041981177685750055 0.003257620454744246 0.01775907731536439 -0.0006063997211467743 -0.004894534647732902 0.0006940601793965829 0.007491255280158014
 0.0006827543986019149 0.0074925089170284715 -0.0006063997211467743 -0.004894534647732902 0.0032595873491385826 0.017757660066238568 0.9960724726141226 -0.04198242888803826
 -0.000606065920742371 -0.004894546033078382 0.0006940601793965829 0.007491255280158014 0.9960724726141226 -0.04198242888803826 0.0032576586048598693 0.01775783430838659
0.100041684035 0.0034695372179216174 0.019042155310507198 0.9957974609083907 -0.044862218561134086 0.0007556688058171542 0.007997929450657807 -0.0006698566314244614 -0.005227816091453691
 0.9957974609083907 -0.044862218561134086 0.003467180108275632 0.01904234456221154 -0.0006702354588314157 -0.005227801112195119 0.0007685422124889317 0.007996479810934204
 0.0007556688058171542 0.007997929450657807 -0.0006702354588314157 -0.005227801112195119 0.003469417546607381 0.019040823477016446 0.9957974216122388 -0.044863553191490095
 -0.0006698566314244614 -0.005227816091453691 0.0007685422124889317 0.007996479810934204 0.9957974216122388 -0.044863553191490095 0.003467223578728547 0.019041019768778873
0.1059090909091 0.003674296222446151 0.020256802876665522 0.9955291937240865 -0.047575239654207756 0.0008277115345373502 0.008472716748665173 -0.0007328871269824364 -0.005541135261035095
 0.9955291937240865 -0.047575239654207756 0.0036716556373124457 0.020257013219584438 -0.0007333107019875891 -0.005541116464080169 0.0008421499570746332 0.00847106568442297
 0.0008277115345373502 0.008472716748665173 -0.0007333107019875891 -0.005541116464080169 0.003674162764497174 0.020255393408482893 0.9955291499401335 -0.047576652601976396
 -0.0007328871269824364 -0.005541135261035095 0.0008421499570746332 0.00847106568442297 0.9955291499401335 -0.047576652601976396 0.003671704392710031 0.020255611821558352
0.1062942892872 0.0036880074434712273 0.020336897087033675 0.9955112345553628 -0.04775367066517686 0.0008325646028252059 0.008503903026826104 -0.0007371332917465104 -0.005561723635964134
 0.9955112345553628 -0.04775367066517686 0.0036853476876357225 0.020337108861877902 -0.0007375598885787335 -0.005561704572801475 0.0008471089574768356 0.008502238126544338
 0.0008325646028252059 0.008503903026826104 -0.0007375598885787335 -0.005561704572801475 0.0036878730555693234 0.020335482524619076 0.9955111904680626 -0.047755088755903674
 -0.0007371332917465104 -0.005561723635964134 0.0008471089574768356 0.008502238126544338 0.9955111904680626 -0.047755088755903674 0.0036853967998050634 0.020335702439385935
0.11254689453939999 0.0039152531444806606 0.02164302702973207 0.9952136819776641 -0.05065548420907793 0.0009134811875455204 0.009010389379221303 -0.000807936063956133 -0.005896226702137135
 0.9952136819776641 -0.05065548420907793 0.00391227255406525 0.02164326288006258 -0.0008084131549634337 -0.005896203040952321 0.0009298000792733489 0.009008488992177857
 0.0009134811875455204 0.009010389379221303 -0.0008084131549634337 -0.005896203040952321 0.003915103237297159 0.021641529833780145 0.9952136328182973 -0.05065698579526105
 -0.000807936063956133 -0.005896226702137135 0.0009298000792733489 0.009008488992177857 0.9952136328182973 -0.05065698579526105 0.003912327625655611 0.021641774992916724
0.11879949979160001 0.004151423608570521 0.022960439013761505 0.9949046566382145 -0.05356760426019102 0.0009984575884914918 0.009517347175471211 -0.0008823047109677491 -0.00623128257712663
 0.9949046566382145 -0.05356760426019102 0.004148104001226793 0.022960700541404984 -0.0008828350031413706 -0.0062312537796469745 0.0010166548665697095 0.009515190095817791
 0.0009984575884914918 0.009517347175471211 -0.0008828350031413706 -0.0062312537796469745 0.004151257387187201 0.02295885928732476 0.9949046021240842 -0.053569189380444596
 -0.0008823047109677491 -0.00623128257712663 0.0010166548665697095 0.009515190095817791 0.9949046021240842 -0.053569189380444596 0.004148165346648971 0.02295913136034429
0.1250521050438 0.004396668039509832 0.02428902764433532 0.9945840118694558 -0.0564899712372379 0.0010875324442057742 0.010024734040490492 -0.0009602785782673048 -0.006566847772171714
 0.9945840118694558 -0.0564899712372379 0.00439299123789392 0.02428931650075533 -0.000960864760852493 -0.0065668132759414384 0.0011077122105583996 0.010022298071642193
 0.0010875324442057742 0.010024734040490492 -0.000960864760852493 -0.0065668132759414384 0.0043964847173525515 0.024287365495952933 0.9945839517165176 -0.05649163993586707
 -0.0009602785782673048 -0.006566847772171714 0.0011077122105583996 0.010022298071642193 0.9945839517165176 -0.05649163993586707 0.004393059168319292 0.024287666200786193
0.131304710296 0.00465113553624006 0.025628687830805442 0.9942516009168308 -0.059422521303400616 0.0011807439822559495 0.010532506575800269 -0.001041896575657718 -0.006902877999890966
 0.9942516009168308 -0.059422521303400616 0.00464708336624551 0.025629005717413833 -0.0010425413200360254 -0.00690283721825139 0.0012030105836362865 0.01052976851936587
 0.0011807439822559495 0.010532506575800269 -0.0010425413200360254 -0.00690283721825139 0.00465093433456502 0.025626943377421357 0.9942515348389874 -0.059424273627574166
 -0.001041896575657718 -0.006902877999890966 0.0012030105836362865 0.01052976851936587 0.9942515348389874 -0.059424273627574166 0.004647158189693709 0.02562727448073029
0.1375573155481 0.004846924540332041 0.026805310058742073 0.9939753413550038 -0.06219114241785548 0.0012636673437824491 0.011022843503918417 -0.0011127088688100296 -0.007221571870132383
 0.9939753413550038 -0.06219114241785548 0.004842477112650928 0.026805651424451463 -0.0011134158994469975 -0.007221524925106184 0.0012880737052304767 0.011019813186640954
 0.0012636673437824491 0.011022843503918417 -0.0011134158994469975 -0.007221524925106184 0.004846703948894465 0.026803483779745643 0.9939752690868946 -0.0621929783786041
 -0.0011127088688100296 -0.007221571870132383 0.0012880737052304767 0.011019813186640954 0.9939752690868946 -0.0621929783786041 0.004842559830934012 0.026803839011039707
0.1438099208003 0.0050492377806641365 0.027977259946321394 0.9936900215312575 -0.06495426348084403 0.0013499054047223145 0.011511981573917144 -0.0011863399802690526 -0.007539148384515443
 0.9936900215312575 -0.06495426348084403 0.0050443766444904555 0.027977625981016784 -0.0011871121328535686 -0.007539094719930049 0.00137654688844596 0.011508638359852401
 0.0013499054047223145 0.011511981573917144 -0.0011871121328535686 -0.007539094719930049 0.005048996899477513 0.027975352002085282 0.9936899427887955 -0.06495618312330105
 -0.0011863399802690526 -0.007539148384515443 0.00137654688844596 0.011508638359852401 0.9936899427887955 -0.06495618312330105 0.0050444676870700445 0.027975732533055346
0.1500625260525 0.005258020720347867 0.029144484327040972 0.9933956981311811 -0.06771186102380682 0.0014394364371988209 0.011999897671624578 -0.0012627685294758098 -0.007855584327639494
 0.9933956981311811 -0.06771186102380682 0.00525272741266969 0.029144876279201072 -0.0012636086354287073 -0.00785552336546985 0.0014684080355656993 0.011996220188469114
 0.0014394364371988209 0.011999897671624578 -0.0012636086354287073 -0.00785552336546985 0.0052577586482828766 0.029142494886095344 0.99339561262865 -0.06771386439442358
 -0.0012627685294758098 -0.007855584327639494 0.0014684080355656993 0.011996220188469114 0.99339561262865 -0.06771386439442358 0.005252827214288787 0.02914290194403344
0.15631513130469998 0.005473218619199003 0.03030693195399093 0.9930924279235247 -0.0704639108778322 0.001532238559276719 0.012486568957518398 -0.0013419729693239773 -0.008170856899445734
