! Created with skrf 1.8.0 (http://scikit-rf.org).
# GHz S RI R 50.0 
!freq ReS11 ImS11 ReS12 ImS12 ReS13 ImS13
! ReS14 ImS14
! ReS21 ImS21 ReS22 ImS22 ReS23 ImS23
! ReS24 ImS24
! ReS31 ImS31 ReS32 ImS32 ReS33 ImS33
! ReS34 ImS34
! ReS41 ImS41 ReS42 ImS42 ReS43 ImS43
! ReS44 ImS44
!
0.0 0.001447254144386 0.0 0.99855274585 0.0 5.615250228883e-05 0.0 -5.615250211143e-05 6.876698197487774e-21
 0.99855274585 0.0 0.001447254144368 0.0 -5.615250211068e-05 6.876698197395926e-21 5.615250228855e-05 0.0
 5.615250228883e-05 0.0 -5.615250211068e-05 6.876698197395926e-21 0.001447254137254 0.0 0.9985527458429 0.0
 -5.615250211143e-05 6.876698197487774e-21 5.615250228855e-05 0.0 0.9985527458429 0.0 0.001447254137273 0.0
0.005 0.0015569701718632367 0.0011749954454589946 0.99841394842691 -0.0030324782344608526 7.992599238088976e-05 0.0006737743920241426 -7.729748424532647e-05 -0.0004133527787613932
 0.99841394842691 -0.0030324782344608526 0.0015569777727817578 0.0011749909349106215 -7.729917366267793e-05 -0.0004133539838256791 7.987742305115874e-05 0.0006737928844188174
 7.992599238088976e-05 0.0006737743920241426 -7.729917366267793e-05 -0.0004133539838256791 0.0015569701141370565 0.0011750626857550438 0.9984139487879682 -0.0030324111814276685
 -7.729748424532647e-05 -0.0004133527787613932 7.987742305115874e-05 0.0006737928844188174 0.9984139487879682 -0.0030324111814276685 0.001556978550418466 0.0011750577996981575
0.006252605252188 0.0015856702828635314 0.001473419662322609 0.9983774188121948 -0.0037913553277209855 8.668320281865377e-05 0.00084252338045415 -8.323960340574447e-05 -0.0005172427286885458
 0.9983774188121948 -0.0037913553277209855 0.001585682165070354 0.0014734139207816495 -8.324223303951829e-05 -0.0005172442128005116 8.660731737573869e-05 0.0008425473850693489
 8.668320281865377e-05 0.00084252338045415 -8.324223303951829e-05 -0.0005172442128005116 0.001585670101302998 0.0014735037044139659 0.9983774192847843 -0.003791271511960959
 -8.323960340574447e-05 -0.0005172427286885458 8.660731737573869e-05 0.0008425473850693489 0.9983774192847843 -0.003791271511960959 0.0015856832884134787 0.0014734975077548029
0.01250521050438 0.0017363169203197942 0.002978154797056883 0.998184435456518 -0.007583639616543228 0.00012524994543961838 0.0016852679678848817 -0.0001168048635169586 -0.0010370964867611934
 0.998184435456518 -0.007583639616543228 0.0017363643769049096 0.0029781422793542073 -0.00011681523609341401 -0.0010370992115286165 0.00012494732364209498 0.00168532553040203
 0.00012524994543961838 0.0016852679678848817 -0.00011681523609341401 -0.0010370992115286165 0.0017363156431984307 0.002978322565550139 0.998184436783889 -0.007583472220113814
 -0.0001168048635169586 -0.0010370964867611934 0.00012494732364209498 0.00168532553040203 0.998184436783889 -0.007583472220113814 0.0017363682935854605 0.0029783092781482676
0.01875781575657 0.0018995084818746464 0.004504676430859055 0.9979735664537274 -0.011386108249230411 0.00017193841664664362 0.002528870034454179 -0.00015694979249872052 -0.0015587474960546152
 0.9979735664537274 -0.011386108249230411 0.0018996151404559172 0.0045046560500007285 -0.0001569729371022353 -0.0015587511707546018 0.00017125858981437213 0.002528972488145972
 0.00017193841664664362 0.002528870034454179 -0.0001569729371022353 -0.0015587511707546018 0.001899505204524457 0.004504927729777805 0.9979735690139966 -0.01138585738035787
 -0.00015694979249872052 -0.0015587474960546152 0.00017125858981437213 0.002528972488145972 0.9979735690139966 -0.01138585738035787 0.0018996235004730953 0.004504906398298824
0.02501042100875 0.0020755508958069154 0.0060508435906922765 0.9977445739020528 -0.015200619629738942 0.00022683590023146123 0.0033733895335067267 -0.00020377257822738875 -0.002081953123372833
 0.9977445739020528 -0.015200619629738942 0.0020757403483532217 0.006050814214981504 -0.00020381346839354458 -0.002081957405150984 0.00022562832783596496 0.0033735499249987967
 0.00022683590023146123 0.0033733895335067267 -0.00020381346839354458 -0.002081957405150984 0.00207554472609454 0.006051178271213326 0.9977445780761703 -0.01520028534116482
 -0.00020377257822738875 -0.002081953123372833 0.00022562832783596496 0.0033735499249987967 0.9977445780761703 -0.01520028534116482 0.00207575479115955 0.006051147892814161
0.03126302626094 0.0022647373366309863 0.007615561385801031 0.9974972072589062 -0.0190279770726711 0.0002900304423992803 0.004218802394486643 -0.00025736863987103924 -0.002606549556488106
 0.9974972072589062 -0.0190279770726711 0.0022650331520047908 0.007615521840329438 -0.0002574322031828551 -0.002606554049683736 0.00028814437042213285 0.004219035493212419
 0.0002900304423992803 0.004218802394486643 -0.0002574322031828551 -0.002606554049683736 0.002264727388680653 0.007615979304974914 0.9974972134251484 -0.019027559402591675
 -0.00025736863987103924 -0.002606549556488106 0.00028814437042213285 0.004219035493212419 0.9974972134251484 -0.019027559402591675 0.0022650553022317637 0.007615938829150783
0.037515631513130004 0.0024673546919252304 0.009198121142140622 0.9972312099886811 -0.02286858861178535 0.0003616098996372319 0.0050650516823273735 -0.0003178314106051322 -0.003132400639280163
 0.9972312099886811 -0.02286858861178535 0.0024677804238939696 0.009198070209690804 -0.0003179225334361853 -0.0031324048951500583 0.00035889429653988717 0.005065373997747679
 0.0003616098996372319 0.0050650516823273735 -0.0003179225334361853 -0.0031324048951500583 0.00246734008735354 0.009198622157067944 0.9972312185257618 -0.022868087589576643
 -0.0003178314106051322 -0.003132400639280163 0.00035889429653988717 0.005065373997747679 0.9972312185257618 -0.022868087589576643 0.0024678118947669947 0.009198570486575793
0.043768236765320004 0.002683686067381551 0.010797999600852308 0.9969463222512747 -0.026722667736739994 0.0004416615055940585 0.00591206315323158 -0.00038525262098712326 -0.0036593823115232535
 0.9969463222512747 -0.026722667736739994 0.002684265261122354 0.01079793602240779 -0.00038537615132674746 -0.0036593858280860314 0.0004379650309607601 0.0059124929544752056
 0.0004416615055940585 0.00591206315323158 -0.00038537615132674746 -0.0036593858280860314 0.0026836659354766163 0.010798583568952512 0.99694633353887 -0.02672208338240149
 -0.00038525262098712326 -0.0036593823115232535 0.0004379650309607601 0.0059124929544752056 0.99694633353887 -0.02672208338240149 0.0026843076555825587 0.010798519560402502
0.050020842017509996 0.0029140119515057355 0.012414775939455737 0.9966422822531362 -0.030590316305122347 0.0005302716146807015 0.006759751678901148 -0.0004597224110209297 -0.004187376182044742
 0.9966422822531362 -0.030590316305122347 0.002914768149369464 0.012414698414499272 -0.00045988316018743587 -0.004187378403986199 0.0005254426055091559 0.006760309015349407
 0.0005302716146807015 0.006759751678901148 -0.00045988316018743587 -0.004187378403986199 0.0029139854272717852 0.01241544271809035 0.9966422966709677 -0.03058964862963262
 -0.0004597224110209297 -0.004187376182044742 0.0005254426055091559 0.006760309015349407 0.9966422966709677 -0.03058964862963262 0.0029148230594935954 0.012415365182147182
0.055454545454549996 0.0031257536972638263 0.013833246707015622 0.9963623040980437 -0.033962465473290654 0.0006142933111166092 0.0074968965863657 -0.0005302320614136571 -0.004646950858595127
 0.9963623040980437 -0.033962465473290654 0.003126682837824622 0.013833155973914015 -0.0005304290346087222 -0.004646951462999721 0.0006083566731700499 0.007497582435811681
 0.0006142933111166092 0.0074968965863657 -0.0005304290346087222 -0.004646951462999721 0.003125720920416867 0.013833985329663661 0.9963623215458717 -0.03396172539595245
 -0.0005302320614136571 -0.004646950858595127 0.0006083566731700499 0.007497582435811681 0.9963623215458717 -0.03396172539595245 0.003126749910172033 0.01383389503657783
0.056273447269699996 0.003158610816766911 0.014048091038857074 0.9963188270373832 -0.03447156520932121 0.0006275255249515127 0.007608024401945503 -0.0005413293644725718 -0.004716266373175282
 0.9963188270373832 -0.03447156520932121 0.0031595675632255815 0.014047998225634978 -0.0005415321082364936 -0.004716266691759757 0.0006214119924910308 0.007608731124310381
 0.0006275255249515127 0.007608024401945503 -0.0005415321082364936 -0.004716266691759757 0.0031585770416395955 0.014048840478958081 0.9963188449668813 -0.034470814220850465
 -0.0005413293644725718 -0.004716266373175282 0.0006214119924910308 0.007608731124310381 0.9963188449668813 -0.034470814220850465 0.0031596365717363674 0.014048748180519875
0.06252605252188 0.003417759448634885 0.015697625087189016 0.9959756930059497 -0.038366396708690895 0.0007335073405474907 0.00845678246432681 -0.000630160503665466 -0.005245937795155968
 0.9959756930059497 -0.038366396708690895 0.00341894029523795 0.01569751560267376 -0.000630409982893341 -0.005245935548169734 0.0007259569740140085 0.008457662245857952
 0.0007335073405474907 0.00845678246432681 -0.000630409982893341 -0.005245935548169734 0.0034177175678573564 0.015698457040929585 0.9959757148282178 -0.038365562404964776
 -0.000630160503665466 -0.005245937795155968 0.0007259569740140085 0.008457662245857952 0.9959757148282178 -0.038365562404964776 0.0034190249743143294 0.015698348698992642
0.06877865777407 0.0036917331187123494 0.017363084229066097 0.9956126162887059 -0.04227475771903555 0.0008482998560031348 0.009305922043012931 -0.0007263012615723374 -0.00577627511658996
 0.9956126162887059 -0.04227475771903555 0.003693161628879911 0.017362956648929246 -0.0007266021827408624 -0.005776269588282172 0.0008391600311538106 0.009307000400777003
 0.0008482998560031348 0.009305922043012931 -0.0007266021827408624 -0.005776269588282172 0.0036916822829354216 0.017363998542285635 0.9956126423868947 -0.04227384009469661
 -0.0007263012615723374 -0.00577627511658996 0.0008391600311538106 0.009307000400777003 0.9956126423868947 -0.04227384009469661 0.0036932635420096225 0.01736387282976841
0.07503126302626001 0.003980805673786681 0.019044192108064024 0.9952293330312817 -0.046196568211929925 0.0009719844523691205 0.010155335008343942 -0.0008298354410295764 -0.006307162115694117
 0.9952293330312817 -0.046196568211929925 0.003982505427392675 0.019044044966401472 -0.0008301924764079012 -0.006307152536740555 0.0009611022440402119 0.010156639324415254
 0.0009719844523691205 0.010155335008343942 -0.0008301924764079012 -0.006307152536740555 0.003980745036964964 0.019045188623062724 0.9952293637892822 -0.04619556725579777
 -0.0008298354410295764 -0.006307162115694117 0.0009611022440402119 0.010156639324415254 0.9952293637892822 -0.04619556725579777 0.003982626128457664 0.019045044166385132
0.08128386827845 0.00428524956680473 0.020740684224893096 0.9948255796290576 -0.050131726802157606 0.001104641002859015 0.011004909360660377 -0.0009408451636117453 -0.006838481257017253
 0.9948255796290576 -0.050131726802157606 0.004287244164712955 0.020740516013835034 -0.0009412629513144078 -0.006838466804486229 0.0010918631998530453 0.011006468903156843
 0.001104641002859015 0.011004909360660377 -0.0009412629513144078 -0.006838466804486229 0.004285178286649023 0.020741762777758122 0.9948256154326742 -0.05013064249987981
 -0.0009408451636117453 -0.006838481257017253 0.0010918631998530453 0.011006468903156843 0.9948256154326742 -0.05013064249987981 0.004287385199470385 0.020741598156255273
0.08753647353064001 0.004605335851142595 0.022452304052051078 0.9944010929261841 -0.054080114582426675 0.001246347781928868 0.011854529541688913 -0.0010594108134217336 -0.007370113397187281
 0.9944010929261841 -0.054080114582426675 0.004607648919834213 0.022452113221249976 -0.0010598939574273623 -0.007370093194517407 0.0012315209046065787 0.011856375485699091
 0.001246347781928868 0.011854529541688913 -0.0010598939574273623 -0.007370093194517407 0.0046052530879274215 0.022453464474321817 0.9944011341625951 -0.05407894691470715
 -0.0010594108134217336 -0.007370113397187281 0.0012315209046065787 0.011856375485699091 0.9944011341625951 -0.05407894691470715 0.004607811825153927 0.022453278219590665
0.09378907878283 0.0049413341496345855 0.024178800245109097 0.9939556103938413 -0.058041597865622616 0.0013971813787195652 0.012704076655606593 -0.0011856109757263594 -0.007901937585006994
 0.9939556103938413 -0.058041597865622616 0.004943989345997515 0.02417858520104763 -0.0011861640457271059 -0.007901910701999118 0.001380151698331523 0.0127062421038401
 0.0013971813787195652 0.012704076655606593 -0.0011861640457271059 -0.007901910701999118 0.004941239065985355 0.0241800423647917 0.9939556574522377 -0.05804034680736068
 -0.0011856109757263594 -0.007901937585006994 0.001380151698331523 0.0127062421038401 0.9939556574522377 -0.05804034680736068 0.004944175650646638 0.02417983295969623
0.100041684035 0.0052935126055066156 0.025919924606030115 0.9934888702918694 -0.06201603017937865 0.0015572166122618338 0.013553428639117703 -0.0013195223725062245 -0.00843383091667957
 0.9934888702918694 -0.06201603017937865 0.005296533621037147 0.02591968371121299 -0.0013201499036885713 -0.008433796369496992 0.0015378301721101536 0.013555948642313553
 0.0015572166122618338 0.013553428639117703 -0.0013201499036885713 -0.008433796369496992 0.00529340436553676 0.02592124824506773 0.9934889235634079 -0.062014695702084545
 -0.0013195223725062245 -0.00843383091667957 0.0015378301721101536 0.013555948642313553 0.9934889235634079 -0.062014695702084545 0.005296744845812325 0.02592101412276546
0.1059090909091 0.005638947914574467 0.027566869635102714 0.9930313183541915 -0.06575724997680923 0.0017158265143055486 0.014350166523531362 -0.0014522639476031306 -0.008932907996606934
 0.9930313183541915 -0.06575724997680923 0.005642333794992859 0.027566602952696147 -0.0014529654464813572 -0.008932865314843053 0.0016940882995748355 0.014353052870218914
 0.0017158265143055486 0.014350166523531362 -0.0014529654464813572 -0.008932865314843053 0.005638826569805895 0.027568269605267686 0.9930313778139309 -0.06575583718953779
 -0.0014522639476031306 -0.008932907996606934 0.0016940882995748355 0.014353052870218914 0.9930313778139309 -0.06575583718953779 0.0056425697809404035 0.027568010818060158
0.1062942892872 0.005662137818819214 0.027675430549694763 0.993000611820149 -0.06600325376197026 0.0017265264486601773 0.014402460391674404 -0.0014612197952870627 -0.008965668435023373
 0.993000611820149 -0.06600325376197026 0.005665548384624594 0.027675162121582376 -0.001461926288111071 -0.008965625186195527 0.0017046290862760417 0.014405371968767946
 0.0017265264486601773 0.014402460391674404 -0.001461926288111071 -0.008965625186195527 0.00566201558796305 0.02767683552493343 0.9930006716982731 -0.0660018358328966
 -0.0014612197952870627 -0.008965668435023373 0.0017046290862760417 0.014405371968767946 0.9930006716982731 -0.0660018358328966 0.0056657860425988705 0.027676575067583562
0.11254689453939999 0.006047474773991578 0.029445071932359224 0.9924905752625525 -0.07000310070085874 0.0019051819187971342 0.015251043883113564 -0.0016107760361527615 -0.009497323055714404
 0.9924905752625525 -0.07000310070085874 0.00605129866524877 0.029444774242269125 -0.0016115659560171 -0.00949727001417454 0.0018806192898182053 0.0152543860410069
 0.0019051819187971342 0.015251043883113564 -0.0016115659560171 -0.00949727001417454 0.006047337718048106 0.029446558056763286 0.9924906421430512 -0.07000159928184065
 -0.0016107760361527615 -0.009497323055714404 0.0018806192898182053 0.0152543860410069 0.9924906421430512 -0.07000159928184065 0.006051564261906002 0.02944626959407105
0.11879949979160001 0.006449786757617466 0.031228602140268156 0.9919585021246432 -0.07401539381603296 0.0020932520371940177 0.016099048240556583 -0.0017682618170163495 -0.010028665518577295
 0.9919585021246432 -0.07401539381603296 0.006454047798321016 0.03122827341201983 -0.0017691395939358977 -0.010028601539684169 0.002065869640203655 0.01610286199366972
 0.0020932520371940177 0.016099048240556583 -0.0017691395939358977 -0.010028601539684169 0.006449634042509375 0.03123016922099762 0.9919585764059001 -0.07401380886545929
 -0.0017682618170163495 -0.010028665518577295 0.002065869640203655 0.01610286199366972 0.9919585764059001 -0.07401380886545929 0.0064543428317447825 0.031229851028665222
0.1250521050438 0.006869335271440476 0.03302577336623773 0.9914041352686791 -0.07803994736035283 0.0022908037212637632 0.016946339825545487 -0.0019337457177338434 -0.010559564353253512
 0.9914041352686791 -0.07803994736035283 0.006874057339023948 0.03302541177463982 -0.001934715745921226 -0.010559488238846969 0.002260446923770115 0.016950668214904752
 0.0022908037212637632 0.016946339825545487 -0.001934715745921226 -0.010559488238846969 0.006869166062232892 0.03302742120565377 0.9914042173518034 -0.07803827883231253
 -0.0019337457177338434 -0.010559564353253512 0.002260446923770115 0.016950668214904752 0.9914042173518034 -0.07803827883231253 0.0068743833001590334 0.03302707150348437
0.131304710296 0.00730637993846844 0.03483633604010065 0.990827219044754 -0.0820765675712561 0.00249790171108909 0.01779278230019693 -0.002107294103045466 -0.011089885860431015
 0.990827219044754 -0.0820765675712561 0.007311586968777259 0.034835939709214836 -0.0021083607405395417 -0.011089796358875099 0.0024644157763719266 0.017797670412206663
 0.00249790171108909 0.01779278230019693 -0.0021083607405395417 -0.011089796358875099 0.007306193399498033 0.03483806443661491 0.9908273093339317 -0.08207481541465271
 -0.002107294103045466 -0.011089885860431015 0.0024644157763719266 0.017797670412206663 0.9908273093339317 -0.08207481541465271 0.007311945341798924 0.03483768138657783
0.1375573155481 0.007658941744283036 0.03642144995606844 0.9903297719819261 -0.08588637089667243 0.002688107043736402 0.018613458731835238 -0.002262511229339604 -0.011594704048993746
 0.9903297719819261 -0.08588637089667243 0.007664658319384076 0.036421026586513895 -0.0022636806468494617 -0.011594601105325552 0.002651414663107569 0.01861889784933076
 0.002688107043736402 0.018613458731835238 -0.0022636806468494617 -0.011594601105325552 0.007658736079154653 0.03642325932966724 0.9903298708479547 -0.08588453511531248
 -0.002262511229339604 -0.011594704048993746 0.002651414663107569 0.01861889784933076 0.9903298708479547 -0.08588453511531248 0.007665051610393658 0.03642284951781287
0.1438099208003 0.008023815000310828 0.03799847300226773 0.9898149751451459 -0.08968682733476444 0.0028860204037279044 0.019431113994193075 -0.002423965578320108 -0.012096779763885398
 0.9898149751451459 -0.08968682733476444 0.0080300651978945 0.03799802135482875 -0.002425242408491152 -0.012096662159991122 0.0028459806939710925 0.01943714517578259
 0.0028860204037279044 0.019431113994193075 -0.002425242408491152 -0.012096662159991122 0.0080235891969737 0.03800036321443796 0.9898150829893246 -0.0896849078841299
 -0.002423965578320108 -0.012096779763885398 0.0028459806939710925 0.01943714517578259 0.9898150829893246 -0.0896849078841299 0.008030495068100687 0.03799992531332354
0.1500625260525 0.00840087527742312 0.039567282253416367 0.9892829568119345 -0.09347785210842419 0.0030915776279387902 0.020245673569030995 -0.0025915950863489 -0.012596042474468725
 0.9892829568119345 -0.09347785210842419 0.008407683226897111 0.039566801011880294 -0.0025929839490887066 -0.012595908944098653 0.003048050504929695 0.020252339363848
 0.0030915776279387902 0.020245673569030995 -0.0025929839490887066 -0.012595908944098653 0.008400628311228432 0.03956925316106935 0.9892830740375546 -0.09347584894460968
 -0.0025915950863489 -0.012596042474468725 0.003048050504929695 0.020252339363848 0.9892830740375546 -0.09347584894460968 0.008408151343570695 0.039568785757068375
0.15631513130469998 0.008789997305022241 0.041127758543782394 0.9887338458671987 -0.09725936055038777 0.0033047138288959063 0.021057064120251014 -0.0027653369529969593 -0.01309242310332659
 0.9887338458671987 -0.09725936055038777 0.008797387189148992 0.04112724631252049 -0.002766842455182306 -0.013092272332353733 0.0032575600195281227 0.02106440855250095
