! Created with skrf 1.8.0 (http://scikit-rf.org).
# GHz S RI R 50.0 
!freq ReS11 ImS11 ReS12 ImS12 ReS13 ImS13
! ReS14 ImS14
! ReS21 ImS21 ReS22 ImS22 ReS23 ImS23
! ReS24 ImS24
! ReS31 ImS31 ReS32 ImS32 ReS33 ImS33
! ReS34 ImS34
! ReS41 ImS41 ReS42 ImS42 ReS43 ImS43
! ReS44 ImS44
!
0.0 0.001566242108972 0.0 0.998433757891 0.0 6.076740305868e-05 0.0 -6.076740261404e-05 7.441860510378259e-21
 0.998433757891 0.0 0.001566242108997 0.0 -6.076740261488e-05 7.441860510481129e-21 6.076740305844e-05 0.0
 6.076740305868e-05 0.0 -6.076740261488e-05 7.441860510481129e-21 0.001566242097629 0.0 0.9984337578796 0.0
 -6.076740261404e-05 7.441860510378259e-21 6.076740305844e-05 0.0 0.9984337578796 0.0 0.001566242097607 0.0
0.005 0.0016853035359086534 0.0012753796455008141 0.9982831221001772 -0.0032810903127952415 8.596795642324151e-05 0.0007050768856020755 -8.337941305113678e-05 -0.00043632646234256263
 0.9982831221001772 -0.0032810903127952415 0.0016852720935138146 0.001275397943615818 -8.338027249833998e-05 -0.00043632703924472143 8.616559695512566e-05 0.0007050016950041179
 8.596795642324151e-05 0.0007050768856020755 -8.338027249833998e-05 -0.00043632703924472143 0.001685303139122861 0.0012753125548176547 0.9982831217353776 -0.003281157369168709
 -8.337941305113678e-05 -0.00043632646234256263 8.616559695512566e-05 0.0007050016950041179 0.9982831217353776 -0.003281157369168709 0.0016852717643245307 0.001275330924690928
0.006252605252188 0.001716557061677698 0.0015992656087711428 0.9982433318020932 -0.004102164450867998 9.315141805280273e-05 0.0008816716581920502 -8.977931917416093e-05 -0.0005459789009856984
 0.9982433318020932 -0.004102164450867998 0.0017165079116459776 0.0015992888258340458 -8.978065719854705e-05 -0.0005459796105100493 9.346021372936518e-05 0.0008815740074757409
 9.315141805280273e-05 0.0008816716581920502 -8.978065719854705e-05 -0.0005459796105100493 0.0017165565204434892 0.0015991817429218077 0.99824333131025 -0.0041022482684373975
 -8.977931917416093e-05 -0.0005459789009856984 9.346021372936518e-05 0.0008815740074757409 0.99824333131025 -0.0041022482684373975 0.0017165074752308299 0.0015992050636621485
0.01250521050438 0.0018812408234914345 0.0032322138380456063 0.9980322900450813 -0.008205139228236876 0.00013426303391165332 0.0017636063673619024 -0.00012617582535764187 -0.0010946225875355922
 0.9980322900450813 -0.008205139228236876 0.0018810445712418016 0.0032322637260676947 -0.00012618110652073107 -0.0010946238782420842 0.00013549446738638545 0.0017633715240471593
 0.00013426303391165332 0.0017636063673619024 -0.00012618110652073107 -0.0010946238782420842 0.001881239245278698 0.003232046299526068 0.9980322886541441 -0.008205306625112476
 -0.00012617582535764187 -0.0010946225875355922 0.00013549446738638545 0.0017633715240471593 0.9980322886541441 -0.008205306625112476 0.0018810433948344915 0.003232096538409796
0.01875781575657 0.0020606581019175646 0.004888517722640532 0.9978003665048863 -0.012318910354253325 0.0001841998665157716 0.002646434111279355 -0.00017007106961449526 -0.0016450883141967021
 0.9978003665048863 -0.012318910354253325 0.002060217121620995 0.0048885979526759726 -0.00017008285803310187 -0.001645090029689722 0.0001869662124098021 0.0026460147215764665
 0.0001841998665157716 0.002646434111279355 -0.00017008285803310187 -0.001645090029689722 0.002060654996076263 0.004888266572539825 0.997800363799159 -0.012319161245944335
 -0.00017007106961449526 -0.0016450883141967021 0.0001869662124098021 0.0026460147215764665 0.997800363799159 -0.012319161245944335 0.0020602148859201583 0.004888347554534326
0.02501042100875 0.002255162566171375 0.006565839000599787 0.997547284452696 -0.01644546393368174 0.0002430599437956172 0.0035302001438340595 -0.00022157517566172101 -0.0021971115750804735
 0.997547284452696 -0.01644546393368174 0.0022543794281798006 0.006565953425596142 -0.00022159600837249758 -0.0021971135285782897 0.0002479737423316308 0.0035295413034929445
 0.0002430599437956172 0.0035302001438340595 -0.00022159600837249758 -0.0021971135285782897 0.0022551574583889087 0.0065655042847159156 0.997547280020011 -0.016445798272469846
 -0.00022157517566172101 -0.0021971115750804735 0.0002479737423316308 0.0035295413034929445 0.997547280020011 -0.016445798272469846 0.002254375811714994 0.006565620027772344
0.03126302626094 0.0024650932519611774 0.00826296986714351 0.9972727532559794 -0.020585644357398895 0.00031094144100197047 0.004414864085361401 -0.0002807949688384206 -0.0027505071829644137
 0.9972727532559794 -0.020585644357398895 0.002463870666034133 0.008263122514301799 -0.00028082736033552605 -0.0027505091569176407 0.00031861606261819055 0.0044139032942688275
 0.00031094144100197047 0.004414864085361401 -0.00028082736033552605 -0.0027505091569176407 0.0024650856795552494 0.008262551625073205 0.9972727466830327 -0.020586062123166958
 -0.0002807949688384206 -0.0027505071829644137 0.00031861606261819055 0.0044139032942688275 0.9972727466830327 -0.020586062123166958 0.0024638653417883368 0.008262706333023395
0.037515631513130004 0.0026907817826859557 0.009979119386607612 0.9969764758540368 -0.024739867828037398 0.0003879418439921959 0.005300351777003615 -0.00034783479523292014 -0.0033051174391881617
 0.9969764758540368 -0.024739867828037398 0.0026890225589134525 0.009979314453615128 -0.00034788123968032737 -0.003305119185136369 0.00039899174112828696 0.005299018862091108
 0.0003879418439921959 0.005300351777003615 -0.00034788123968032737 -0.003305119185136369 0.002690771295351616 0.00997861766173211 0.9969764667267427 -0.02474036901839177
 -0.00034783479523292014 -0.0033051174391881617 0.00039899174112828696 0.005299018862091108 0.9969764667267427 -0.02474036901839177 0.0026890151963262685 0.009978815720668202
0.043768236765320004 0.0029325551574535735 0.011713696378404994 0.9966581517956514 -0.02890833940376384 0.0004741575451916079 0.0061865710577999776 -0.0004227968166278935 -0.003860796368509161
 0.9966581517956514 -0.02890833940376384 0.0029301621744475116 0.01171393823117309 -0.0004228597890794964 -0.003860797606988035 0.0004891983698283939 0.006184788086170133
 0.0004741575451916079 0.0061865710577999776 -0.0004228597890794964 -0.003860797606988035 0.0029325413158731 0.011713111215897848 0.9966581396980037 -0.02890892403610414
 -0.0004227968166278935 -0.003860796368509161 0.0004891983698283939 0.006184788086170133 0.9966581396980037 -0.02890892403610414 0.002930152439135513 0.011713357192075015
0.050020842017509996 0.00319073703838565 0.013466219643279764 0.9963174787781213 -0.03309114270046385 0.0005696835966756976 0.00707341828083528 -0.0005057811143928108 -0.004417403214089015
 0.9963174787781213 -0.03309114270046385 0.003187613215646135 0.01346651281454913 -0.0005058630715368626 -0.004417403634553387 0.0005893322469738551 0.007071099468796726
 0.0005696835966756976 0.00707341828083528 -0.0005058630715368626 -0.004417403634553387 0.003190719414457154 0.013465551111536916 0.9963174632919124 -0.033091810790587955
 -0.0005057811143928108 -0.004417403214089015 0.0005893322469738551 0.007071099468796726 0.9963174632919124 -0.033091810790587955 0.0031876007705181134 0.0134658497502286
0.055454545454549996 0.0034286799859312668 0.015003466374868667 0.996003038017203 -0.036737770826728286 0.0006603324543551578 0.00784453859763978 -0.0005844882346588501 -0.004901757251666572
 0.996003038017203 -0.036737770826728286 0.003424842211962441 0.015003807953917715 -0.0005845886712332397 -0.004901756684871137 0.000684487412392388 0.007841678290204112
 0.0006603324543551578 0.00784453859763978 -0.0005845886712332397 -0.004901756684871137 0.003428658735688109 0.015002725446356177 0.9960030192444441 -0.03673851147586272
 -0.0005844882346588501 -0.004901757251666572 0.000684487412392388 0.007841678290204112 0.9960030192444441 -0.03673851147586272 0.003424827136497151 0.015003073842918024
0.056273447269699996 0.003465648412629185 0.015236273948101047 0.995954153563252 -0.037288283837106806 0.0006746135294413829 0.007960781514414325 -0.0005968857112218957 -0.004974799249672681
 0.995954153563252 -0.037288283837106806 0.003461696684221209 0.015236623137092837 -0.0005969890917728009 -0.00497479851044251 0.0006994881532292325 0.007957833134855923
 0.0006746135294413829 0.007960781514414325 -0.0005969890917728009 -0.00497479851044251 0.003465626589031276 0.01523552211345042 0.9959541342675035 -0.037289035424649716
 -0.0005968857112218957 -0.004974799249672681 0.0006994881532292325 0.007957833134855923 0.9959541342675035 -0.037289035424649716 0.0034616811900517364 0.015235878338666966
0.06252605252188 0.003757607939560473 0.01702348578807085 0.9955678725823996 -0.04149971560717758 0.0007890392062218117 0.00884854230321993 -0.0006962065498552941 -0.005532846035508646
 0.9955678725823996 -0.04149971560717758 0.00375273122935145 0.017023895860735334 -0.0006963337748046896 -0.0055328437637090985 0.0008197591760844557 0.008844862592310236
 0.0007890392062218117 0.00884854230321993 -0.0006963337748046896 -0.0055328437637090985 0.0037575815107274853 0.01702265073328411 0.9955678490537965 -0.04150055073705321
 -0.0006962065498552941 -0.005532846035508646 0.0008197591760844557 0.008844862592310236 0.9955678490537965 -0.04150055073705321 0.0037527123464868935 0.01702306964824632
0.06877865777407 0.004066932131862525 0.018827508961210396 0.9951583323793295 -0.04572535184190275 0.0009130506925158117 0.009736576724786977 -0.0008038374475670023 -0.006091404383257092
 0.9951583323793295 -0.04572535184190275 0.00406103332947629 0.018827984951338462 -0.0008039909202434715 -0.00609140017479721 0.0009502365608273894 0.009732055788670447
 0.0009130506925158117 0.009736576724786977 -0.0008039909202434715 -0.00609140017479721 0.004066900702303304 0.018826590780266474 0.9951583041906509 -0.04572627056970662
 -0.0008038374475670023 -0.006091404383257092 0.0009502365608273894 0.009732055788670447 0.9951583041906509 -0.04572627056970662 0.004061010717225801 0.01882707766855528
0.07503126302626001 0.004393935433248715 0.020648015421771963 0.9947252299530416 -0.04996507649964621 0.0010467361384462073 0.010624756060307435 -0.0009198700355568189 -0.006650333711398904
 0.9947252299530416 -0.04996507649964621 0.004386917369860226 0.020648562532852105 -0.0009200521415808854 -0.006650327130931191 0.001091009577251327 0.010619275782187548
 0.0010467361384462073 0.010624756060307435 -0.0009200521415808854 -0.006650327130931191 0.004393898619050439 0.02064701421698023 0.9947251966740082 -0.04996607889453541
 -0.0009198700355568189 -0.006650333711398904 0.001091009577251327 0.010619275782187548 0.9947251966740082 -0.04996607889453541 0.00438689068903482 0.020647574544496606
0.08128386827845 0.004738930235880385 0.02248468917906869 0.9942682630445145 -0.05421874971518709 0.0011901816667426969 0.011512947253105773 -0.0010443936889101293 -0.007209491618055404
 0.9942682630445145 -0.05421874971518709 0.004730695660903401 0.02248531278683035 -0.0010446067961495543 -0.007209482198945843 0.0012421653957482418 0.011506381201034624
 0.0011901816667426969 0.011512947253105773 -0.0010446067961495543 -0.007209482198945843 0.004738887663483071 0.022483605066663075 0.9942682242405302 -0.05421983585437999
 -0.0010443936889101293 -0.007209491618055404 0.0012421653957482418 0.011506381201034624 0.9942682242405302 -0.05421983585437999 0.0047306645732119595 0.022484244484291642
0.08753647353064001 0.0051022268538437054 0.024337222105030677 0.9937871303828804 -0.05848621194602759 0.0013434712653508137 0.012401013226543299 -0.0011774954493397498 -0.0077687335997180685
 0.9937871303828804 -0.05848621194602759 0.0050926784106611785 0.024337927760927462 -0.0011777419077032669 -0.0077687208440469155 0.0014037889704352118 0.012393226562096562
 0.0013434712653508137 0.012401013226543299 -0.0011777419077032669 -0.0077687208440469155 0.005102178160459688 0.024336055214270673 0.9937870856147181 -0.05848738191566911
 -0.0011774954493397498 -0.0077687335997180685 0.0014037889704352118 0.012393226562096562 0.9937870856147181 -0.05848738191566911 0.0050926425803705455 0.024336779561314803
0.09378907878283 0.00548413346860287 0.026205310925472444 0.9932815319073383 -0.06276728694109458 0.0015066866826138035 0.01328881312095132 -0.0013192599432088974 -0.008327912856556876
 0.9932815319073383 -0.06276728694109458 0.0054731736714546675 0.026206104360791283 -0.0013195420845029488 -0.008327896235099391 0.0015759629262616457 0.013279662508976416
 0.0015066866826138035 0.01328881312095132 -0.0013195420845029488 -0.008327896235099391 0.005484078302133338 0.02620406139613331 0.9932814807311 -0.06276854083883857
 -0.0013192599432088974 -0.008327912856556876 0.0015759629262616457 0.013279662508976416 0.9932814807311 -0.06276854083883857 0.005473132765885058 0.02620487670455174
0.100041684035 0.005884956053137984 0.028088655014879445 0.9927511689709886 -0.06706178391219407 0.0016799073240828589 0.014176202475876365 -0.0014697692961811231 -0.008886880158036613
 0.9927511689709886 -0.06706178391219407 0.005872487262853244 0.028089542145787492 -0.0014700894338440774 -0.00888685911026929 0.0017587674490852196 0.014165535995508934
 0.0016799073240828589 0.014176202475876365 -0.0014700894338440774 -0.00888685911026929 0.005884894072041078 0.028087323000631655 0.9927511109373084 -0.06706312184385185
 -0.0014697692961811231 -0.008886880158036613 0.0017587674490852196 0.014165535995508934 0.9927511109373084 -0.06706312184385185 0.005872440953409161 0.028088235500074103
0.1059090909091 0.0062785599435705546 0.029869581283642685 0.9922306919801823 -0.07110373967149294 0.001851624753608152 0.015008418167624282 -0.001619030599100252 -0.009411083767903066
 0.9922306919801823 -0.07110373967149294 0.006264586164126926 0.02987056188847486 -0.001619388479776309 -0.009411058028854653 0.0019400476820802509 0.014996183310084997
 0.001851624753608152 0.015008418167624282 -0.001619388479776309 -0.009411058028854653 0.006278491266847253 0.029868172014632124 0.9922306270979873 -0.07110515656708163
 -0.001619030599100252 -0.009411083767903066 0.0019400476820802509 0.014996183310084997 0.9922306270979873 -0.07110515656708163 0.006264534489647622 0.02986918156457824
0.1062942892872 0.006304998280454036 0.029986954755110706 0.9921957445327548 -0.07136949914820452 0.0018632101507700166 0.015063033374496524 -0.0016291030451721237 -0.009445483752328045
 0.9921957445327548 -0.07136949914820452 0.006290922680824035 0.029987941688549923 -0.0016294634740157937 -0.00944545768644331 0.0019522801776452883 0.015050690431493867
 0.0018632101507700166 0.015063033374496524 -0.0016294634740157937 -0.00944545768644331 0.006304929154212062 0.029985540418982857 0.9921956791868116 -0.07137092123223306
 -0.0016291030451721237 -0.009445483752328045 0.0019522801776452883 0.015050690431493867 0.9921956791868116 -0.07137092123223306 0.006290870644249202 0.02998655654265596
0.11254689453939999 0.006744561421750887 0.03189991026561134 0.9916149633410569 -0.07569021726447048 0.0020566695784707436 0.015949154563428658 -0.0017973380480053763 -0.010003569306306418
 0.9916149633410569 -0.07569021726447048 0.006728780995012273 0.03190100330608279 -0.0017977410439060319 -0.01000353759923292 0.002156576097467736 0.01593496580403864
 0.0020566695784707436 0.015949154563428658 -0.0017977410439060319 -0.01000353759923292 0.006744484829958331 0.031898413786554496 0.9916148902217243 -0.07569172362544752
 -0.0017973380480053763 -0.010003569306306418 0.002156576097467736 0.01593496580403864 0.9916148902217243 -0.07569172362544752 0.006728722913704063 0.03189954017793982
0.11879949979160001 0.007203944232789064 0.03382722043403155 0.9910085321103504 -0.08002371215889052 0.002260357377317889 0.016834411554302493 -0.0019745483917787024 -0.010560979869881136
 0.9910085321103504 -0.08002371215889052 0.00718636073600451 0.03382842609116215 -0.001974996211403704 -0.010560941867317134 0.002371727435830305 0.016818198780720005
 0.002260357377317889 0.016834411554302493 -0.001974996211403704 -0.010560941867317134 0.007203859865980268 0.03382564200257468 0.9910084507502221 -0.08002530293178202
 -0.0019745483917787024 -0.010560979869881136 0.002371727435830305 0.016818198780720005 0.9910084507502221 -0.08002530293178202 0.00718629629925688 0.033826885523095804
0.1250521050438 0.007683442835633191 0.03576858214226446 0.9903761596943585 -0.08436974777974597 0.0024743425724921145 0.017718646715960105 -0.002160805299892565 -0.011117555856022294
 0.9903761596943585 -0.08436974777974597 0.007663957775802569 0.03576990713949831 -0.0021613001803726466 -0.011117510872457572 0.0025978035574478176 0.01770022280352328
 0.0024743425724921145 0.017718646715960105 -0.0021613001803726466 -0.011117510872457572 0.007683350395033429 0.0357669219598868 0.990376069618983 -0.08437142311053991
 -0.002160805299892565 -0.011117555856022294 0.0025978035574478176 0.01770022280352328 0.990376069618983 -0.08437142311053991 0.007663886680829658 0.035768289697351185
0.131304710296 0.008183350592568778 0.03772368965612095 0.9897175572544613 -0.08872807873722648 0.002698691344783092 0.0186016993562888 -0.00235617703840621 -0.011673135037479772
 0.9897175572544613 -0.08872807873722648 0.008161865202611312 0.03772514094015858 -0.0023567211969245383 -0.011673082356287657 0.002834870861290317 0.018580868172398575
 0.002698691344783092 0.0186016993562888 -0.0023567211969245383 -0.011673082356287657 0.008183249789839695 0.037721947939473345 0.9897174579822033 -0.08872983877864446
 -0.00235617703840621 -0.011673135037479772 0.002834870861290317 0.018580868172398575 0.9897174579822033 -0.08872983877864446 0.008161787155229664 0.03772344721754002
0.1375573155481 0.008590750761134842 0.03943599494874585 0.9891456959888743 -0.09284207139852861 0.002904910210663215 0.01945738483549983 -0.0025320178776334283 -0.012201666435763961
 0.9891456959888743 -0.09284207139852861 0.008567157873272618 0.03943754754877194 -0.0025326143668919876 -0.012201605978545959 0.003054119783612893 0.019434173955562795
 0.002904910210663215 0.01945738483549983 -0.0025326143668919876 -0.012201605978545959 0.00859064026598205 0.03943417235911958 0.9891455870994443 -0.09284391621901551
 -0.0025320178776334283 -0.012201666435763961 0.003054119783612893 0.019434173955562795 0.9891455870994443 -0.09284391621901551 0.008567073508355732 0.03943577755531517
0.1438099208003 0.009012521356457146 0.041139011733282244 0.988553662090741 -0.09694539301203693 0.0031194393777376557 0.020309622018889754 -0.0027148968350884637 -0.01272695584195078
 0.988553662090741 -0.09694539301203693 0.008986720537030415 0.04114067076774547 -0.0027155479943070508 -0.012726886909459754 0.003282249830956312 0.020283851854213896
 0.0031194393777376557 0.020309622018889754 -0.0027155479943070508 -0.012726886909459754 0.00901240070574492 0.041137108550550715 0.9885535431049172 -0.09694732275931758
 -0.0027148968350884637 -0.01272695584195078 0.003282249830956312 0.020283851854213896 0.9885535431049172 -0.09694732275931758 0.008986629741528137 0.04113882505467492
0.1500625260525 0.009448510935096665 0.04283259020755724 0.9879416114811379 -0.10103793452614944 0.003342202637520623 0.021158324236157412 -0.0029047380184661436 -0.013248917985531756
 0.9879416114811379 -0.10103793452614944 0.009420401438631765 0.042834361146710416 -0.0029054461778778547 -0.013248839851092927 0.00351918135095837 0.021129808637418417
 0.003342202637520623 0.021158324236157412 -0.0029054461778778547 -0.013248839851092927 0.009448379663145453 0.042830606727518226 0.9879414819138475 -0.10103994935081585
 -0.0029047380184661436 -0.013248917985531756 0.00351918135095837 0.021129808637418417 0.9879414819138475 -0.10103994935081585 0.009420304119234064 0.042832440286541734
0.15631513130469998 0.00989856693480535 0.04451658506911416 0.9873097009285604 -0.1051195874231182 0.003573122861522867 0.022003406342881133 -0.0031014645748426582 -0.01376746943857222
 0.9873097009285604 -0.1051195874231182 0.009868047695410472 0.04451847374753742 -0.003102232055514852 -0.013767381348349171 0.0037648337186265337 0.02197195266899243
