! Created with skrf 1.8.0 (http://scikit-rf.org).
# GHz S RI R 50.0 
!freq ReS11 ImS11 ReS12 ImS12 ReS13 ImS13
! ReS14 ImS14
! ReS21 ImS21 ReS22 ImS22 ReS23 ImS23
! ReS24 ImS24
! ReS31 ImS31 ReS32 ImS32 ReS33 ImS33
! ReS34 ImS34
! ReS41 ImS41 ReS42 ImS42 ReS43 ImS43
! ReS44 ImS44
!
0.0 0.00158136276816 0.0 0.9984186372034 0.0 6.06732478635e-05 0.0 -6.06732473566e-05 7.43032981691358e-21
 0.9984186372034 0.0 0.001581362768138 0.0 -6.06732473564e-05 7.430329816889087e-21 6.067324785978e-05 0.0
 6.06732478635e-05 0.0 -6.06732473564e-05 7.430329816889087e-21 0.001581362782372 0.0 0.9984186372176 0.0
 -6.06732473566e-05 7.43032981691358e-21 6.067324785978e-05 0.0 0.9984186372176 0.0 0.001581362782362 0.0
0.005 0.0017014571161038624 0.0013007716707446534 0.9982667369302043 -0.0033120333147083907 8.384789666970019e-05 0.0006250748796856344 -8.179121267323573e-05 -0.0003998979249401076
 0.9982667369302043 -0.0033120333147083907 0.0017014350073256647 0.0013007846127897204 -8.179337113573556e-05 -0.0003998996105535359 8.397313709446701e-05 0.0006250271426576094
 8.384789666970019e-05 0.0006250748796856344 -8.179337113573556e-05 -0.0003998996105535359 0.0017014562047353524 0.0013008395096111777 0.9982667372926882 -0.00331196625624744
 -8.179121267323573e-05 -0.0003998979249401076 8.397313709446701e-05 0.0006250271426576094 0.9982667372926882 -0.00331196625624744 0.001701436637894452 0.0013008508863312622
0.006252605252188 0.0017329887181286821 0.0016310435197967462 0.9982266089299893 -0.004140843452079231 9.044749188971353e-05 0.0007816669649836104 -8.775559841896777e-05 -0.000500377665481296
 0.9982266089299893 -0.004140843452079231 0.0017329541579291972 0.001631059964680708 -8.775895693610767e-05 -0.0005003797442766703 9.064316771486708e-05 0.0007816049803235895
 9.044749188971353e-05 0.0007816669649836104 -8.775895693610767e-05 -0.0005003797442766703 0.001732987214656174 0.0016311283194992531 0.9982266094183947 -0.0041407596307156775
 -8.775559841896777e-05 -0.000500377665481296 9.064316771486708e-05 0.0007816049803235895 0.9982266094183947 -0.0041407596307156775 0.0017329566289154992 0.001631142797473769
0.01250521050438 0.001899177943589267 0.0032959393662420214 0.9980137547579423 -0.008282415126678341 0.00012818447605918095 0.0015638320543191896 -0.00012160729855961161 -0.0010031207549727993
 0.9980137547579423 -0.008282415126678341 0.0018990399426660335 0.003295974983368388 -0.00012162053160767856 -0.0010031246025433548 0.000128964768271487 0.001563683078547933
 0.00012818447605918095 0.0015638320543191896 -0.00012162053160767856 -0.0010031246025433548 0.0018991713793624378 0.0032961087518357463 0.9980137561556947 -0.008282247723005603
 -0.00012160729855961161 -0.0010031207549727993 0.000128964768271487 0.001563683078547933 0.9980137561556947 -0.008282247723005603 0.001899049260741946 0.0032961403081429234
0.01875781575657 0.0020802995566541935 0.004984282336084351 0.9977798052719562 -0.012434779220270004 0.00017397534084770449 0.0023469673461947007 -0.00016233267240070332 -0.0015075608759293059
 0.9977798052719562 -0.012434779220270004 0.002079989458752669 0.004984340126815792 -0.00016236217889302983 -0.0015075661212282797 0.0001757281400773348 0.002346701369578747
 0.00017397534084770449 0.0023469673461947007 -0.00016236217889302983 -0.0015075661212282797 0.0020802843662751456 0.004984536250850444 0.9977798079900854 -0.012434528315119799
 -0.00016233267240070332 -0.0015075608759293059 0.0001757281400773348 0.002346701369578747 0.9977798079900854 -0.012434528315119799 0.002080009980630457 0.004984587685047623
0.02501042100875 0.0022767114288954316 0.006693717120754739 0.9975244801590674 -0.016599938718857295 0.00022791143297702331 0.003131091044405822 -0.00021003280090042337 -0.002013477556254596
 0.9975244801590674 -0.016599938718857295 0.0022761607144705055 0.006693800337306688 -0.000210084901997619 -0.002013483760712475 0.0002310247470974448 0.003130673224470631
 0.00022791143297702331 0.003131091044405822 -0.000210084901997619 -0.002013483760712475 0.0022766840485261806 0.006694055556862161 0.9975244846145832 -0.016599604341084692
 -0.00021003280090042337 -0.002013477556254596 0.0002310247470974448 0.003130673224470631 0.9975244846145832 -0.016599604341084692 0.002276196796746275 0.006694129848067716
0.03126302626094 0.0024887567108861576 0.008423027532403767 0.9972474850302714 -0.020778746131006883 0.0002900840964286609 0.003916154499023167 -0.00026480598315798337 -0.002520711339647729
 0.9972474850302714 -0.020778746131006883 0.002487896960489947 0.00842313967417624 -0.00026488693538190945 -0.0025207179964167777 0.00029494640974976415 0.003915545133014603
 0.0002900840964286609 0.003916154499023167 -0.00026488693538190945 -0.0025207179964167777 0.002488713571044363 0.008423450503204052 0.9972474916412062 -0.020778328285152862
 -0.00026480598315798337 -0.002520711339647729 0.00029494640974976415 0.003915545133014603 0.9972474916412062 -0.020778328285152862 0.002487952955942726 0.008423550806034064
0.037515631513130004 0.002716771117083334 0.01017141746615088 0.9969485189560129 -0.02497162246026088 0.000360583975647444 0.004702082408413894 -0.00032674837405113514 -0.0030291236001027135
 0.9969485189560129 -0.02497162246026088 0.002715533988366757 0.010171562278296487 -0.0003268643760254901 -0.0030291301338458507 0.0003675844083857797 0.004701236885279351
 0.000360583975647444 0.004702082408413894 -0.0003268643760254901 -0.0030291301338458507 0.002716708641558645 0.010171925005099357 0.9969485281418348 -0.024971121127738964
 -0.00032674837405113514 -0.0030291236001027135 0.0003675844083857797 0.004701236885279351 0.9969485281418348 -0.024971121127738964 0.002715614245908546 0.010172054647516419
0.043768236765320004 0.002961085742350158 0.011938292084689718 0.9966272775306879 -0.029178775946261285 0.00043950067588930026 0.005488785042428824 -0.00039595420429685505 -0.0035385843270389853
 0.9966272775306879 -0.029178775946261285 0.0029594029520167487 0.011938473557659663 -0.00039611140072733184 -0.0035385900938777796 0.00044902905824327315 0.005487653788414793
 0.00043950067588930026 0.005488785042428824 -0.00039611140072733184 -0.0035385900938777796 0.002961000348703318 0.011938884237709519 0.9966272897144495 -0.029178191093162404
 -0.00039595420429685505 -0.0035385843270389853 0.00044902905824327315 0.005487653788414793 0.9966272897144495 -0.029178191093162404 0.0029595118175609657 0.011939046719782387
0.050020842017509996 0.0032220283672020496 0.013723167376104756 0.9962834544276833 -0.03340029243078923 0.0005269225480640974 0.006276163296316221 -0.00047251585351157767 -0.004048967079703022
 0.9962834544276833 -0.03340029243078923 0.003219831675255835 0.013723389745899647 -0.0004727203376817701 -0.00404897136722493 0.0005393694488854525 0.006274691717991733
 0.0005269225480640974 0.006276163296316221 -0.0004727203376817701 -0.00404897136722493 0.0032219164646938962 0.013723844203058975 0.9962834700344813 -0.03339962400676375
 -0.00047251585351157767 -0.004048967079703022 0.0005393694488854525 0.006274691717991733 0.9962834700344813 -0.03339962400676375 0.0032199734901797276 0.01372404319617947
0.055454545454549996 0.003462551955763602 0.01528857136110225 0.9959660839726912 -0.037080590166149494 0.000609869601427916 0.006960885361149955 -0.0005450944312322906 -0.004493156611977104
 0.9959660839726912 -0.037080590166149494 0.003459853271868377 0.015288832902832802 -0.0005453449197061189 -0.004493158982161953 0.0006251705480592725 0.006959069751883392
 0.000609869601427916 0.006960885361149955 -0.0005453449197061189 -0.004493158982161953 0.0034624140945235106 0.015289321831622677 0.9959661029031628 -0.03707984906303397
 -0.0005450944312322906 -0.004493156611977104 0.0006251705480592725 0.006959069751883392 0.9959661029031628 -0.03707984906303397 0.0034600272437643755 0.01528955566835157
0.056273447269699996 0.0034999241201893205 0.015525625776893202 0.9959167423145877 -0.03763617966044298 0.0006229365297159663 0.0070641111663611745 -0.0005565238556659597 -0.004560146522322939
 0.9959167423145877 -0.03763617966044298 0.0034971453162702493 0.015525893525736443 -0.0005567816711283158 -0.0045601485496184185 0.0006386932581262472 0.007062239592492086
 0.0006229365297159663 0.0070641111663611745 -0.0005567816711283158 -0.0045601485496184185 0.0034997821105989223 0.01552638735390929 0.9959167617739723 -0.037635427596571194
 -0.0005565238556659597 -0.004560146522322939 0.0006386932581262472 0.007062239592492086 0.9959167617739723 -0.037635427596571194 0.003497324418042144 0.01552662670043877
0.06252605252188 0.003795095834899427 0.017345291767608656 0.9955268334676955 -0.041886391619435116 0.0007276280129455952 0.007852517121172239 -0.0006480668714300389 -0.0050719970670913914
 0.9955268334676955 -0.041886391619435116 0.003791666725237226 0.017345609625055228 -0.0006483840131595019 -0.005071995984798702 0.0007470866012403981 0.007850180744235186
 0.0007276280129455952 0.007852517121172239 -0.0006483840131595019 -0.005071995984798702 0.0037949201123007215 0.017346138182667434 0.9955268572139269 -0.041885555833053936
 -0.0006480668714300389 -0.0050719970670913914 0.0007470866012403981 0.007850180744235186 0.9955268572139269 -0.041885555833053936 0.003791887446760752 0.017346421896102644
0.06877865777407 0.004107864231187935 0.019181817321418368 0.9951134202137315 -0.046150843013843104 0.0008410807278330239 0.00864126491527547 -0.0007472316399482333 -0.005584392079017148
 0.9951134202137315 -0.046150843013843104 0.0041037166260277265 0.019182190265946093 -0.0007476140551088975 -0.005584386969380407 0.0008646339020547929 0.008638393732936369
 0.0008410807278330239 0.00864126491527547 -0.0007476140551088975 -0.005584386969380407 0.004107651180270441 0.019182748674836554 0.9951134486852586 -0.046149923408395875
 -0.0007472316399482333 -0.005584392079017148 0.0008646339020547929 0.008638393732936369 0.9951134486852586 -0.046149923408395875 0.004103983293541799 0.01918308094029737
0.07503126302626001 0.004438547995427784 0.021034872682227448 0.9946761952754045 -0.050429418430922336 0.0009633766344756281 0.009430234114948144 -0.0008541029190641362 -0.006097203372972686
 0.9946761952754045 -0.050429418430922336 0.0044336136971112675 0.02103530594313621 -0.000854556507500874 -0.0060971932499120345 0.0009914177750490504 0.009426752871815613
 0.0009633766344756281 0.009430234114948144 -0.000854556507500874 -0.0060971932499120345 0.004438293992302105 0.021035889086367245 0.9946762289162038 -0.05042841489665591
 -0.0008541029190641362 -0.006097203372972686 0.0009914177750490504 0.009426752871815613 0.9946762289162038 -0.05042841489665591 0.004433930630572692 0.021036274261513024
0.08128386827845 0.004787463799531587 0.02290414022445746 0.9942148520588285 -0.05472197842206445 0.0010945958203237658 0.010219300451809122 -0.0009687634174302201 -0.006610300887771368
 0.9942148520588285 -0.05472197842206445 0.00478167459018163 0.02290463928428021 -0.0009692940319387841 -0.006610284696947002 0.001127518915223669 0.01021512858166174
 0.0010945958203237658 0.010219300451809122 -0.0009692940319387841 -0.006610284696947002 0.004787165211085471 0.022905241811061985 0.9942148913190493 -0.05472089082903965
 -0.0009687634174302201 -0.006610300887771368 0.001127518915223669 0.01021512858166174 0.9942148913190493 -0.05472089082903965 0.00478204610226372 0.02290568442745695
0.08753647353064001 0.005154926274731882 0.02478931022169391 0.9937290849004861 -0.05902836368235615 0.0012348164013907968 0.01100833607193319 -0.0010912937205725672 -0.00712355246971428
 0.9937290849004861 -0.05902836368235615 0.005148213904727079 0.024789880819044832 -0.0010919071670821528 -0.007123529088615389 0.0012730159932076964 0.011003387640517306
 0.0012348164013907968 0.01100833607193319 -0.0010919071670821528 -0.007123529088615389 0.005154579458571702 0.02479049713260563 0.9937291302369494 -0.05902719189031013
 -0.0010912937205725672 -0.00712355246971428 0.0012730159932076964 0.011003387640517306 0.9937291302369494 -0.05902719189031013 0.0051486442997840925 0.024791001897501063
0.09378907878283 0.005541247958120773 0.026690077807843885 0.9932185892900669 -0.0633483980437782 0.0013841144250051028 0.011797209723217352 -0.0012217722136253844 -0.007636823723008201
 0.9932185892900669 -0.0633483980437782 0.005533544134320667 0.02669072594056911 -0.0012224742512079111 -0.00763679196103894 0.0014279855529813522 0.011791393371724822
 0.0013841144250051028 0.011797209723217352 -0.0012224742512079111 -0.00763679196103894 0.005540849261875297 0.02669135019762807 0.9932186411662248 -0.06334714189981296
 -0.0012217722136253844 -0.007636823723008201 0.0014279855529813522 0.011791393371724822 0.9932186411662248 -0.06334714189981296 0.005534037707119574 0.026691921996103516
0.100041684035 0.00594673921674991 0.02860614075873201 0.992683062074778 -0.06768189065394867 0.0015425637745907802 0.012585786898036503 -0.0013602750006698455 -0.008149977910249032
 0.992683062074778 -0.06768189065394867 0.005937975590800082 0.028606872687705967 -0.0013610713414947198 -0.008149936508827935 0.00159250191204103 0.012579005787483681
 0.0015425637745907802 0.012585786898036503 -0.0013610713414947198 -0.008149936508827935 0.005946284978496847 0.028607498797388546 0.9926831209621132 -0.06768054999043736
 -0.0013602750006698455 -0.008149977910249032 0.00159250191204103 0.012579005787483681 0.9926831209621132 -0.06768054999043736 0.005938536625973378 0.02860814269512273
0.1059090909091 0.0063449587626533245 0.030417805225389206 0.992157491929027 -0.07176047250277981 0.0016996385466928725 0.013325390721924547 -0.0014976089022310478 -0.008631288299593235
 0.992157491929027 -0.07176047250277981 0.006335138402992966 0.030418621720354495 -0.0014984988898446476 -0.008631236647432457 0.0017556299360929092 0.013317611283463796
 0.0016996385466928725 0.013325390721924547 -0.0014984988898446476 -0.008631236647432457 0.00634444906439361 0.030419243805583855 0.9921575578315125 -0.07175905236070007
 -0.0014976089022310478 -0.008631288299593235 0.0017556299360929092 0.013317611283463796 0.9921575578315125 -0.07175905236070007 0.00633576663124674 0.03041996013157774
0.1062942892872 0.006371708157002021 0.03053719782755591 0.9921222016522989 -0.07202863760759415 0.001710236075179585 0.013373929949256617 -0.0015068758219192787 -0.008662875885001546
 0.9921222016522989 -0.07202863760759415 0.0063618163133956655 0.03053802008077643 -0.0015077721310606538 -0.008662823517666073 0.0017666370632367146 0.013366081705658795
 0.001710236075179585 0.013373929949256617 -0.0015077721310606538 -0.008662823517666073 0.006371194704386109 0.030538641701636216 0.9921222680303619 -0.07202721224156686
 -0.0015068758219192787 -0.008662875885001546 0.0017666370632367146 0.013366081705658795 0.9921222680303619 -0.07202721224156686 0.006362449084193259 0.0305393629479723
0.11254689453939999 0.0068164605212774594 0.032482947471404074 0.9915357081544266 -0.07638842319362071 0.0018872005996898786 0.014161498186745357 -0.0016616459692017187 -0.009175376049461186
 0.9915357081544266 -0.07638842319362071 0.006805371965727142 0.03248386684864561 -0.0016626478644744013 -0.009175311321980423 0.0019504605775091857 0.01415247484733354
 0.0018872005996898786 0.014161498186745357 -0.0016626478644744013 -0.009175311321980423 0.006815884171522659 0.03248447738235969 0.9915357825113785 -0.07638691292892143
 -0.0016616459692017187 -0.009175376049461186 0.0019504605775091857 0.01415247484733354 0.9915357825113785 -0.07638691292892143 0.006806080732802697 0.032485281413958705
0.11879949979160001 0.007281299575501799 0.034443086865907566 0.9909232836249023 -0.08076102086094361 0.002073524175810594 0.014948347961093436 -0.0018246542001272526 -0.009687334330659231
 0.9909232836249023 -0.08076102086094361 0.007268945723201657 0.03444411044382484 -0.001825767251792032 -0.009687255781165664 0.0021440395075031917 0.01493803592151629
 0.002073524175810594 0.014948347961093436 -0.001825767251792032 -0.009687255781165664 0.00728065663569385 0.03444470303044312 0.9909233664587644 -0.0807594254885413
 -0.0018246542001272526 -0.009687334330659231 0.0021440395075031917 0.01493803592151629 0.9909233664587644 -0.0807594254885413 0.007269734734071237 0.034445595475343614
0.1250521050438 0.007766525989645793 0.036417311123030725 0.9902846321930677 -0.08514619398824111 0.0022692710931484996 0.015734332738937047 -0.0019959666511870653 -0.01019860417077657
 0.9902846321930677 -0.08514619398824111 0.007752838153471709 0.036418446260813905 -0.0019971963816425562 -0.010198510269899803 0.002347438292131257 0.01572261270167323
 0.0022692710931484996 0.015734332738937047 -0.0019971963816425562 -0.010198510269899803 0.007765812755550368 0.03641901377473385 0.9902847240112838 -0.08514451328513419
 -0.0019959666511870653 -0.01019860417077657 0.002347438292131257 0.01572261270167323 0.9902847240112838 -0.08514451328513419 0.0077537116403891574 0.0364200004570497
0.131304710296 0.008272437711398205 0.03840531267260512 0.9896194602435964 -0.08954369649729249 0.0024745030109889236 0.01651930317257539 -0.002175646750096282 -0.01070903652929194
 0.9896194602435964 -0.08954369649729249 0.008257347090004833 0.038406567018055913 -0.002176998633539918 -0.01070892568030893 0.0025607186613603944 0.01650605009639515
 0.0024745030109889236 0.01651930317257539 -0.002176998633539918 -0.01070892568030893 0.008271650468172463 0.03840710206351493 0.9896195615646034 -0.08954193022568814
 -0.002175646750096282 -0.01070903652929194 0.0025607186613603944 0.01650605009639515 0.9896195615646034 -0.08954193022568814 0.008258309269750432 0.03840818900851273
0.1375573155481 0.008684644761705372 0.040149720821148954 0.9890422110646431 -0.0936960756748589 0.0026630818461449435 0.01727801853516206 -0.002337461307315779 -0.011193477836425119
 0.9890422110646431 -0.0936960756748589 0.008668078228056349 0.04015107746765401 -0.002338943550087353 -0.011193349863240505 0.002757546143931887 0.017263248805662063
 0.0026630818461449435 0.01727801853516206 -0.002338943550087353 -0.011193349863240505 0.008683780598284377 0.04015159712408383 0.9890423223263518 -0.09369422371425469
 -0.002337461307315779 -0.011193477836425119 0.002757546143931887 0.017263248805662063 0.9890423223263518 -0.09369422371425469 0.008669132654410945 0.04015276614023933
0.1438099208003 0.009111430656306227 0.04188480078645669 0.9884445660055678 -0.09783774865074632 0.0028592388954595126 0.01803353271670637 -0.0025057229891093376 -0.01167491101503119
 0.9884445660055678 -0.09783774865074632 0.009093318618102088 0.041886265944743026 -0.0025073414878416128 -0.011674764339742691 0.0029623130525286397 0.01801713164729934
 0.0028592388954595126 0.01803353271670637 -0.0025073414878416128 -0.011674764339742691 0.009110485987338544 0.04188676424099183 0.9884446877248252 -0.09783581077167373
 -0.0025057229891093376 -0.01167491101503119 0.0029623130525286397 0.01801713164729934 0.9884446877248252 -0.09783581077167373 0.009094469366620598 0.041888019901847304
0.1500625260525 0.009552643362553933 0.043610402146121864 0.9878266813638545 -0.10196860668824458 0.003062903511698903 0.0187857654109235 -0.002680361814445036 -0.012153258131356214
 0.9878266813638545 -0.10196860668824458 0.009532916098586197 0.04361198236450806 -0.0026821224523694604 -0.012153091112470791 0.003174946538252433 0.018767614117762472
 0.003062903511698903 0.0187857654109235 -0.0026821224523694604 -0.012153091112470791 0.00955161460143777 0.043612452999057444 0.9878268140660369 -0.1019665826557334
 -0.002680361814445036 -0.012153258131356214 0.003174946538252433 0.018767614117762472 0.9878268140660369 -0.1019665826557334 0.009534167221990669 0.04361380015027392
0.15631513130469998 0.01000812974939771 0.045326378975254426 0.9871887142534702 -0.10608854155810386 0.0032740041965678055 0.019534637747584026 -0.0028613069254891234 -0.012628442928381754
