! Created with skrf 1.8.0 (http://scikit-rf.org).
# GHz S RI R 50.0 
!freq ReS11 ImS11 ReS12 ImS12 ReS13 ImS13
! ReS14 ImS14
! ReS21 ImS21 ReS22 ImS22 ReS23 ImS23
! ReS24 ImS24
! ReS31 ImS31 ReS32 ImS32 ReS33 ImS33
! ReS34 ImS34
! ReS41 ImS41 ReS42 ImS42 ReS43 ImS43
! ReS44 ImS44
!
0.0 0.001825460276503 0.0 0.9981745397235 0.0 7.089611695065e-05 0.0 -7.089611629886e-05 8.682270189737739e-21
 0.9981745397235 0.0 0.001825460276498 0.0 -7.08961162991e-05 8.68227018976713e-21 7.089611694633e-05 0.0
 7.089611695065e-05 0.0 -7.08961162991e-05 8.68227018976713e-21 0.001825460265843 0.0 0.9981745397128 0.0
 -7.089611629886e-05 8.682270189737739e-21 7.089611694633e-05 0.0 0.9981745397128 0.0 0.001825460265834 0.0
0.005 0.001965000796983442 0.0014922561117321237 0.9979978364207996 -0.0038228164414154005 9.994892838853121e-05 0.000782805939699595 -9.696347430392139e-05 -0.0004908886715787924
 0.9979978364207996 -0.0038228164414154005 0.001965015308670593 0.001492247687507365 -9.696049786206488e-05 -0.000490886514122915 9.986787926376856e-05 0.0007828368993248688
 9.994892838853121e-05 0.000782805939699595 -9.696049786206488e-05 -0.000490886514122915 0.0019650013089276886 0.0014921886097281096 0.9979978360352295 -0.003822883499983026
 -9.696347430392139e-05 -0.0004908886715787924 9.986787926376856e-05 0.0007828368993248688 0.9979978360352295 -0.003822883499983026 0.001965014034222132 0.001492181080431661
0.006252605252188 0.0020018835651353334 0.0018711512934014912 0.9979507909141487 -0.0047794092373831774 0.00010840979481102484 0.000978866887635677 -0.00010445495668901463 -0.0006142283001782893
 0.9979507909141487 -0.0047794092373831774 0.0020019062490320106 0.001871140597892404 -0.0001044503241385829 -0.0006142256439687379 0.00010828316553682403 0.0009789071116554538
 0.00010840979481102484 0.000978866887635677 -0.0001044503241385829 -0.0006142256439687379 0.0020018844330348708 0.0018710669364438927 0.99795079037933 -0.004779493053395928
 -0.00010445495668901463 -0.0006142283001782893 0.00010828316553682403 0.0009789071116554538 0.99795079037933 -0.004779493053395928 0.0020019043255748077 0.0018710573407711949
0.01250521050438 0.0021977039907396983 0.0037810755169449483 0.9976991550162264 -0.009559277759805272 0.00015777852475459277 0.0019579457409794263 -0.00014766677030252366 -0.0012312425359642624
 0.9976991550162264 -0.009559277759805272 0.0021977945579110874 0.0037810524413520808 -0.00014764850244926886 -0.0012312376766390686 0.00015727361176344837 0.001958042832293473
 0.00015777852475459277 0.0019579457409794263 -0.00014764850244926886 -0.0012312376766390686 0.0021977080494255813 0.00378090717791521 0.9976991534812979 -0.009559445170679843
 -0.00014766677030252366 -0.0012312425359642624 0.00015727361176344837 0.001958042832293473 0.9976991534812979 -0.009559445170679843 0.002197787492857502 0.0037808861257255335
0.01875781575657 0.0024134082646941188 0.005717686056691244 0.9974192775785496 -0.014351167133209847 0.00021912491475139153 0.0029378439738180907 -0.00020067629071087692 -0.001850106422914906
 0.9974192775785496 -0.014351167133209847 0.0024136117547501786 0.005717648746829322 -0.00020063553822942387 -0.0018500999205467495 0.00021799081967298104 0.0029380182808887013
 0.00021912491475139153 0.0029378439738180907 -0.00020063553822942387 -0.0018500999205467495 0.0024134177952207982 0.005717434005362426 0.9974192745516943 -0.014351418072125977
 -0.00020067629071087692 -0.001850106422914906 0.00021799081967298104 0.0029380182808887013 0.9974192745516943 -0.014351418072125977 0.0024135963333070396 0.005717399499360269
0.02501042100875 0.0026494649608370295 0.007678195375916832 0.9971107886822937 -0.019157322464832125 0.0002925729652886386 0.003918550971285502 -0.0002636221996983407 -0.002470492284663283
 0.9971107886822937 -0.019157322464832125 0.0026498263144052797 0.0076781418237357344 -0.00026355021568145456 -0.0024704848147074354 0.00029055880366705733 0.003918826438805815
 0.0002925729652886386 0.003918550971285502 -0.00026355021568145456 -0.0024704848147074354 0.0026494822379503212 0.0076778598802848584 0.9971107836742036 -0.019157656918156005
 -0.0002636221996983407 -0.002470492284663283 0.00029055880366705733 0.003918826438805815 0.9971107836742036 -0.019157656918156005 0.002649799350980886 0.007677809798491911
0.03126302626094 0.002906323034872571 0.009661129959246931 0.9967733019127819 -0.02397865746250372 0.0003782463407758864 0.004899964415206168 -0.000336638270423837 -0.003092154736444429
 0.9967733019127819 -0.02397865746250372 0.0029068871209352704 0.009661058005239042 -0.00033652639382834154 -0.0030921470908153873 0.00037510102451662666 0.0049003686047073905
 0.0003782463407758864 0.004899964415206168 -0.00033652639382834154 -0.0030921470908153873 0.002906350328195908 0.00966071129161274 0.9967732944335767 -0.023979075464074823
 -0.000336638270423837 -0.003092154736444429 0.00037510102451662666 0.0049003686047073905 0.9967732944335767 -0.023979075464074823 0.0029068454553809156 0.009660643389449003
0.037515631513130004 0.0031844208400810233 0.011665499484041393 0.9964064238045697 -0.02881558521352573 0.00047626706531020164 0.005881944980104069 -0.0004198543005644809 -0.0037148760337395014
 0.9964064238045697 -0.02881558521352573 0.0031852324742187754 0.011665406817990047 -0.0004196939480263443 -0.0037148691211462298 0.0004717392146303974 0.0058825091040147345
 0.00047626706531020164 0.005881944980104069 -0.0004196939480263443 -0.0037148691211462298 0.003184460413114176 0.01166499794291232 0.9964064133596406 -0.028816086823003746
 -0.0004198543005644809 -0.0037148760337395014 0.0004717392146303974 0.0058825091040147345 0.9964064133596406 -0.028816086823003746 0.0031851729682217723 0.01166490985403578
0.043768236765320004 0.0034841895799323655 0.013690544025148585 0.996009757727018 -0.033668270918275525 0.0005867548849253271 0.006864332989726013 -0.0005133964164109191 -0.004338449465228546
 0.996009757727018 -0.033668270918275525 0.0034852935392689806 0.013690428186034734 -0.0005131790776240789 -0.004338444311335994 0.0005805927961855346 0.006865091949516197
 0.0005867548849253271 0.006864332989726013 -0.0005131790776240789 -0.004338444311335994 0.003484243692539738 0.013689959940336597 0.9960097438165855 -0.03366885621615159
 -0.0005133964164109191 -0.004338449465228546 0.0005805927961855346 0.006865091949516197 0.9960097438165855 -0.03366885621615159 0.0034852130773000006 0.01368984917671753
0.050020842017509996 0.0038060548810574537 0.01573562958504497 0.995582905896308 -0.03853673629887607 0.0007098268669738432 0.007846955304836206 -0.0006173871514883763 -0.004962672521363126
 0.995582905896308 -0.03853673629887607 0.003807495917582345 0.015735487960397553 -0.0006171043865297924 -0.0049626702688514174 0.0007017785099827424 0.007847947730617954
 0.0007098268669738432 0.007846955304836206 -0.0006171043865297924 -0.0049626702688514174 0.003806125790401566 0.015734963307567393 0.9955828880136437 -0.038537405396509045
 -0.0006173871514883763 -0.004962672521363126 0.0007017785099827424 0.007847947730617954 0.9955828880136437 -0.038537405396509045 0.0038073914061064825 0.01573482725926022
0.055454545454549996 0.004104037641717206 0.017528710934779944 0.9951871352963193 -0.04278034223156163 0.000827088713720434 0.008700932091160955 -0.0007163362607892808 -0.005505512249562539
 0.9951871352963193 -0.04278034223156163 0.0041058079425582705 0.017528544661612754 -0.0007159898377591205 -0.005505513537348661 0.0008171962113972182 0.008702161704326243
 0.000827088713720434 0.008700932091160955 -0.0007159898377591205 -0.005505513537348661 0.004104124981322978 0.01752797353859487 0.9951871135450345 -0.04278108426046651
 -0.0007163362607892808 -0.005505512249562539 0.0008171962113972182 0.008702161704326243 0.9951871135450345 -0.04278108426046651 0.004105680037112943 0.017527813302231018
0.056273447269699996 0.0041504375720554255 0.01780019680944596 0.9951254705989833 -0.04342091082780358 0.0008455971003227486 0.008829628729842193 -0.0007319454277799594 -0.0055873435523422004
 0.9951254705989833 -0.04342091082780358 0.0041522604252033435 0.017800026634207284 -0.0007315888655720946 -0.005587345460946989 0.0008354101344659648 0.00883089702042011
 0.0008455971003227486 0.008829628729842193 -0.0007315888655720946 -0.005587345460946989 0.004150527535445953 0.017799448721762392 0.9951254482304838 -0.043421663857169654
 -0.0007319454277799594 -0.0055873435523422004 0.0008354101344659648 0.00883089702042011 0.9951254482304838 -0.043421663857169654 0.004152128793791849 0.017799284656079745
0.06252605252188 0.004517754070053058 0.019883732822624723 0.994637055028584 -0.048320659845078676 0.0009941764499732234 0.009812161891011877 -0.0008571864844500804 -0.006212259963708261
 0.994637055028584 -0.048320659845078676 0.0045200034780327955 0.019883531177522243 -0.0008567478218547021 -0.006212267410222767 0.0009815982515916988 0.009813752253869677
 0.0009941764499732234 0.009812161891011877 -0.0008567478218547021 -0.006212267410222767 0.004517865345769211 0.019882903331568353 0.9946370276519683 -0.048321496965665435
 -0.0008571864844500804 -0.006212259963708261 0.0009815982515916988 0.009813752253869677 0.9946370276519683 -0.048321496965665435 0.004519841679627302 0.019882708391952626
0.06877865777407 0.004908416549609371 0.021985754432763467 0.9941172639118336 -0.053235801315064904 0.0011556723388445058 0.010794356381490275 -0.0009932217786192213 -0.0068372171549385685
 0.9941172639118336 -0.053235801315064904 0.004911137260851433 0.021985518242325523 -0.000992692780077937 -0.0068372316331887124 0.001140450037870672 0.010796318872412114
 0.0011556723388445058 0.010794356381490275 -0.000992692780077937 -0.0068372316331887124 0.0049085513984663065 0.02198484397619091 0.9941172309953027 -0.05323672270708101
 -0.0009932217786192213 -0.0068372171549385685 0.001140450037870672 0.010796318872412114 0.9941172309953027 -0.05323672270708101 0.004910942272292818 0.02198461518062371
0.07503126302626001 0.005322832983683523 0.024105797496133764 0.9935657040109992 -0.058166116435470025 0.0013301885481692534 0.011776007506133595 -0.001140158867440817 -0.007462007868511457
 0.9935657040109992 -0.058166116435470025 0.005326069768569766 0.024105523526068203 -0.0011395313650674657 -0.007462030989308712 0.0013120690712106872 0.011778396068266568
 0.0013301885481692534 0.011776007506133595 -0.0011395313650674657 -0.007462030989308712 0.005322993671122447 0.02410480654001692 0.9935656650122239 -0.05816712230230239
 -0.001140158867440817 -0.007462007868511457 0.0013120690712106872 0.011778396068266568 0.9935656650122239 -0.05816712230230239 0.005325838590933944 0.024104540779052074
0.08128386827845 0.005761407104638618 0.02624340986098335 0.9929819845521276 -0.06311135667790128 0.001517825028346732 0.012756904794465217 -0.001298101279460424 -0.008086421781453345
 0.9929819845521276 -0.06311135667790128 0.0057652047658011876 0.026243094715315256 -0.001297367173213916 -0.008086455272526667 0.0014965551467958024 0.012759777296632392
 0.001517825028346732 0.012756904794465217 -0.001297367173213916 -0.008086455272526667 0.005761595902076582 0.026242338899468497 0.9929819389176445 -0.06311244724584435
 -0.001298101279460424 -0.008086421781453345 0.0014965551467958024 0.012759777296632392 0.9929819389176445 -0.06311244724584435 0.005764934425785607 0.02624203293379894
0.08753647353064001 0.006224538310628529 0.028398146491399306 0.9923657176038558 -0.06807124866107196 0.0017186777175234311 0.013736832378104729 -0.0014671483775464318 -0.008710245243412717
 0.9923657176038558 -0.06807124866107196 0.006228941694492399 0.0283977866089424 -0.0014662996357672118 -0.008710290949314572 0.0016940041001608879 0.013740250652291706
 0.0017186777175234311 0.013736832378104729 -0.0014662996357672118 -0.008710290949314572 0.006224757497175538 0.028396996046304458 0.9923656647676465 -0.06807242417933677
 -0.0014671483775464318 -0.008710245243412717 0.0016940041001608879 0.013740250652291706 0.9923656647676465 -0.06807242417933677 0.006228629244784669 0.028396646503818
0.09378907878283 0.00671262153489866 0.030569565997047403 0.9917165184227038 -0.07304549763056652 0.0019328383646603099 0.014715569280638663 -0.0016473952174538052 -0.009333261113417115
 0.9917165184227038 -0.07304549763056652 0.006717675542489341 0.030569157647472436 -0.0016464238775434734 -0.009333320995388202 0.0019045076338682519 0.014719599158592798
 0.0019328383646603099 0.014715569280638663 -0.0016464238775434734 -0.009333320995388202 0.00671287339905268 0.0305683366184061 0.9917164578054543 -0.07304675837012406
 -0.0016473952174538052 -0.009333261113417115 0.0019045076338682519 0.014719599158592798 0.9917164578054543 -0.07304675837012406 0.00671731806245416 0.030567939990979832
0.100041684035 0.0072260470883241815 0.03275722810740732 0.991034005776838 -0.07803379000736078 0.0021603943573145754 0.01569288965477298 -0.0018389324020004656 -0.00995524866083
 0.991034005776838 -0.07803379000736078 0.00723179668620433 0.03275676738686978 -0.001837830571123879 -0.009955324796670143 0.002128153148328615 0.01569760100351271
 0.0021603943573145754 0.01569288965477298 -0.001837830571123879 -0.009955324796670143 0.00722633392935241 0.03275592037385228 0.9910339367845977 -0.07803513626008732
 -0.0018389324020004656 -0.00995524866083 0.002128153148328615 0.01569760100351271 0.9910339367845977 -0.07803513626008732 0.007231391282894622 0.032755473013439444
0.1059090909091 0.007731234560518126 0.03482449658080254 0.9903629055712831 -0.08272725148026105 0.002386188308705998 0.016608507565827223 -0.002029014850674321 -0.010537782938537892
 0.9903629055712831 -0.08272725148026105 0.007737677860687816 0.034823983006189545 -0.0020277834524237495 -0.010537876320303471 0.0023500471642291976 0.016613925570781982
 0.002386188308705998 0.016608507565827223 -0.0020277834524237495 -0.010537876320303471 0.0077315563259667585 0.03482311586785444 0.9903628281661188 -0.08272867826476128
 -0.002029014850674321 -0.010537782938537892 0.0023500471642291976 0.016613925570781982 0.9903628281661188 -0.08272867826476128 0.007737224880541281 0.03482261745370729
0.1062942892872 0.007765200482293336 0.03496069178423636 0.9903178022527866 -0.08303579531189006 0.0024014285519199973 0.01666856297967608 -0.0020418459330589955 -0.01057598351770014
 0.9903178022527866 -0.08303579531189006 0.00777169071344409 0.03496017461034417 -0.00204060578908905 -0.010576078101575539 0.002365023574949304 0.01667402973594358
 0.0024014285519199973 0.01666856297967608 -0.00204060578908905 -0.010576078101575539 0.007765524612030045 0.034959306298818445 0.9903177242762893 -0.08303722739394787
 -0.0020418459330589955 -0.01057598351770014 0.002365023574949304 0.01667402973594358 0.9903177242762893 -0.08303722739394787 0.0077712345223716365 0.03495880441321387
0.11254689453939999 0.008330462236813913 0.03717951378831714 0.989567534551821 -0.08805116764744746 0.002656019106653078 0.01764235423856238 -0.0022562170620868075 -0.011195237662723708
 0.989567534551821 -0.08805116764744746 0.008337738231645494 0.037178935894705625 -0.002254830854635262 -0.011195353004937491 0.0026151972115663847 0.017648654442127557
 0.002656019106653078 0.01764235423856238 -0.002254830854635262 -0.011195353004937491 0.008330825981072949 0.03717805118371911 0.9895674469648349 -0.08805268589334053
 -0.0022562170620868075 -0.011195237662723708 0.0026151972115663847 0.017648654442127557 0.9895674469648349 -0.08805268589334053 0.008337228417434303 0.037177490831788396
0.11879949979160001 0.008922207676838625 0.03941324758828179 0.9887828337761673 -0.09307954685596952 0.0029242393169242585 0.018614024077342292 -0.0024821221394252897 -0.011812779435974793
 0.9887828337761673 -0.09307954685596952 0.00893031466376513 0.03941260451865821 -0.0024805821907752353 -0.011812917962778337 0.0028787475600811543 0.01862123990302883
 0.0029242393169242585 0.018614024077342292 -0.0024805821907752353 -0.011812917962778337 0.008922613377218017 0.03941170852139652 0.9887827359352136 -0.09308115162307824
 -0.0024821221394252897 -0.011812779435974793 0.0028787475600811543 0.01862123990302883 0.9887827359352136 -0.09308115162307824 0.00892974842165763 0.03941108560775687
0.1250521050438 0.009540806719921866 0.0416614425048765 0.9879633357103632 -0.09812055945296329 0.0032061574524319568 0.019583328957352486 -0.0027196324636849754 -0.012428373571770585
 0.9879633357103632 -0.09812055945296329 0.009549790036714011 0.041660729606339986 -0.0027179311700479243 -0.0124285378250125 0.0031557431657792136 0.01959154674579527
 0.0032061574524319568 0.019583328957352486 -0.0027179311700479243 -0.0124285378250125 0.009541256735457297 0.04165982765799262 0.9879632269530684 -0.09812225111935925
 -0.0027196324636849754 -0.012428373571770585 0.0031557431657792136 0.01959154674579527 0.9879632269530684 -0.09812225111935925 0.00954916459285686 0.04165913792727343
0.131304710296 0.01018662365725187 0.04392364304431556 0.987108681096319 -0.10317381938793915 0.0035018365966772128 0.020550021300030172 -0.002968814130990204 -0.013041781251609623
 0.987108681096319 -0.10317381938793915 0.010196528761236907 0.0439228554603701 -0.0029669439635831058 -0.013041973888502464 0.003446247458880387 0.020559331587108355
 0.0035018365966772128 0.020550021300030172 -0.0029669439635831058 -0.013041973888502464 0.010187120365623109 0.043921953124582504 0.9871085607405349 -0.10317559835194492
 -0.002968814130990204 -0.013041781251609623 0.003446247458880387 0.020559331587108355 0.9871085607405349 -0.10317559835194492 0.01019584137398643 0.04392119215501847
0.1375573155481 0.010721714178666127 0.045905388952649756 0.9863568911719149 -0.10794474266837695 0.0037770916722005585 0.021485813609880663 -0.0031955540803194496 -0.013624700607572215
 0.9863568911719149 -0.10794474266837695 0.01073259094341372 0.04590453714932932 -0.003193504126097395 -0.013624922182925093 0.00371619920673036 0.02149621196434371
 0.0037770916722005585 0.021485813609880663 -0.003193504126097395 -0.013624922182925093 0.010722261136742172 0.04590362371458276 0.9863567586700677 -0.10794660915943273
 -0.0031955540803194496 -0.013624700607572215 0.00371619920673036 0.02149621196434371 0.9863567586700677 -0.10794660915943273 0.010731837454754294 0.04590280405361449
0.1438099208003 0.011275900057142484 0.047874818856953036 0.9855780920748493 -0.112701657157659 0.004063395667058536 0.02241658621374355 -0.0034312722616653413 -0.014203044541162332
 0.9855780920748493 -0.112701657157659 0.011287794790378154 0.04787389876869733 -0.0034290344902959333 -0.014203297690234469 0.003996970351141098 0.022428156346145575
 0.004063395667058536 0.02241658621374355 -0.0034290344902959333 -0.014203297690234469 0.01127649988444152 0.04787297894495984 0.9855779467445099 -0.11270361156216673
 -0.0034312722616653413 -0.014203044541162332 0.003996970351141098 0.022428156346145575 0.9855779467445099 -0.11270361156216673 0.011286972246427465 0.04787209716561274
0.1500625260525 0.011848955655030798 0.04983171251421552 0.9847725146377816 -0.1174443874700892 0.004360629529318113 0.023342204595963072 -0.0036758535339802677 -0.014776688686171406
 0.9847725146377816 -0.1174443874700892 0.011861914805077062 0.04983071982525558 -0.0036734199463381856 -0.014776976149233829 0.004288443588627297 0.023355033267310626
 0.004360629529318113 0.023342204595963072 -0.0036734199463381856 -0.014776976149233829 0.011849611003532599 0.04982979859052798 0.9847723557797724 -0.11744643018878001
 -0.0036758535339802677 -0.014776688686171406 0.004288443588627297 0.023355033267310626 0.9847723557797724 -0.11744643018878001 0.011861020265875214 0.049828851050870274
0.15631513130469998 0.012440653367267317 0.05177585628094879 0.983940391271405 -0.12217276016943121 0.0046686725778858525 0.024262536996780208 -0.003929181144291483 -0.01534551170805453
 0.983940391271405 -0.12217276016943121 0.012454723526904707 0.05177478641821838 -0.0039265437733454756 -0.015345836329614091 0.004590500018620332 0.024276713980015272
