! Created with skrf 1.8.0 (http://scikit-rf.org).
# GHz S RI R 50.0 
!freq ReS11 ImS11 ReS12 ImS12 ReS13 ImS13
! ReS14 ImS14
! ReS21 ImS21 ReS22 ImS22 ReS23 ImS23
! ReS24 ImS24
! ReS31 ImS31 ReS32 ImS32 ReS33 ImS33
! ReS34 ImS34
! ReS41 ImS41 ReS42 ImS42 ReS43 ImS43
! ReS44 ImS44
!
0.0 0.00133319770987 0.0 0.9986668022866 0.0 5.105487401429e-05 0.0 -5.105487409741e-05 6.2524188144264274e-21
 0.9986668022866 0.0 0.001333197709892 0.0 -5.10548740981e-05 6.2524188145109276e-21 5.10548740146e-05 0.0
 5.105487401429e-05 0.0 -5.10548740981e-05 6.2524188145109276e-21 0.0013331976977 0.0 0.9986668022744 0.0
 -5.105487409741e-05 6.2524188144264274e-21 5.10548740146e-05 0.0 0.9986668022744 0.0 0.001333197697686 0.0
0.005 0.0014338630835145595 0.0010913999188873575 0.9985395240218095 -0.0027932949078159595 7.122849047359157e-05 0.0005607642005821696 -6.918536650513373e-05 -0.0003523958272850093
 0.9985395240218095 -0.0027932949078159595 0.0014338882178201399 0.0010913853207379094 -6.91853669847947e-05 -0.0003523958833782761 7.107565377724537e-05 0.0005608223658009204
 7.122849047359157e-05 0.0005607642005821696 -6.91853669847947e-05 -0.0003523958833782761 0.0014338624610528397 0.0010913330693451014 0.9985395236834083 -0.002793361969962911
 -6.918536650513373e-05 -0.0003523958272850093 7.107565377724537e-05 0.0005608223658009204 0.9985395236834083 -0.002793361969962911 0.0014338881680796397 0.0010913180502771947
0.006252605252188 0.0014601044041951156 0.0013685638088592545 0.9985061578242215 -0.0034923261937661394 7.691869080248164e-05 0.0007012367022490786 -7.423090530282917e-05 -0.00044095907959527806
 0.9985061578242215 -0.0034923261937661394 0.0014601436927931203 0.0013685452504921352 -7.423090560181966e-05 -0.0004409591499231375 7.667989530105491e-05 0.0007013121762380653
 7.691869080248164e-05 0.0007012367022490786 -7.423090560181966e-05 -0.0004409591499231375 0.0014601035039875363 0.0013684802564227492 0.9985061573683326 -0.0034924100194046906
 -7.423090530282917e-05 -0.00044095907959527806 7.667989530105491e-05 0.0007013121762380653 0.9985061573683326 -0.0034924100194046906 0.0014601436887073473 0.0013684611612249846
0.01250521050438 0.001597312325833557 0.0027660180212864226 0.9983306430185154 -0.00698560268676209 0.00010916251115080538 0.0014028820562151433 -0.00010246475769535894 -0.0008841533667200815
 0.9983306430185154 -0.00698560268676209 0.0015974691936140864 0.002765977777457828 -0.00010246475344817065 -0.0008841535102753266 0.00010821020316508016 0.0014030626020699725
 0.00010916251115080538 0.0014028820562151433 -0.00010246475344817065 -0.0008841535102753266 0.0015973092808621815 0.0027658512581657663 0.9983306417523448 -0.006985770088045104
 -0.00010246475769535894 -0.0008841533667200815 0.00010821020316508016 0.0014030626020699725 0.9983306417523448 -0.006985770088045104 0.0015974697402628964 0.0027658098272748963
0.01875781575657 0.0017450888141647997 0.004183616653581829 0.9981400629414274 -0.010488364435749176 0.00014785484775084419 0.002105421968981317 -0.00013583630961312636 -0.0013289674108206402
 0.9981400629414274 -0.010488364435749176 0.0017454412794877109 0.004183551388157015 -0.0001358362925490921 -0.0013289676327037812 0.00014571547455241812 0.002105742379859552
 0.00014785484775084419 0.002105421968981317 -0.0001358362925490921 -0.0013289676327037812 0.0017450823811115098 0.004183366886870095 0.9981400605140025 -0.010488615342469323
 -0.00013583630961312636 -0.0013289674108206402 0.00014571547455241812 0.002105742379859552 0.9981400605140025 -0.010488615342469323 0.0017454429437830498 0.004183299650901701
0.02501042100875 0.001903694963802912 0.005619410680943819 0.9979342158920359 -0.014002342482121597 0.00019306581959710922 0.0028089041722654806 -0.00017442339177040954 -0.0017752202693563585
 0.9979342158920359 -0.014002342482121597 0.0019043208715531408 0.005619316874716472 -0.00017442335121552763 -0.0017752205767309938 0.00018926554795098888 0.0028094042228507298
 0.00019306581959710922 0.0028089041722654806 -0.00017442335121552763 -0.0017752205767309938 0.0019036838987961774 0.005619078124992326 0.9979342119535606 -0.014002676861982827
 -0.00017442339177040954 -0.0017752202693563585 0.00018926554795098888 0.0028094042228507298 0.9979342119535606 -0.014002676861982827 0.0019043242317497992 0.005618981411922712
0.03126302626094 0.0020733808955578368 0.007072414003523585 0.997712888778148 -0.017528297963800336 0.0002448663866407559 0.0035133125758051746 -0.0002183019702155382 -0.002222791035593531
 0.997712888778148 -0.017528297963800336 0.002074357957257928 0.007072287959509669 -0.00021830189346544907 -0.0022227914377165123 0.00023893064384213574 0.0035140370484685866
 0.0002448663866407559 0.0035133125758051746 -0.00021830189346544907 -0.0022227914377165123 0.002073363949201127 0.007071998897421532 0.9977128829746588 -0.01752871580526409
 -0.0002183019702155382 -0.002222791035593531 0.00023893064384213574 0.0035140370484685866 0.9977128829746588 -0.01752871580526409 0.002074363598280788 0.0070718688375858854
0.037515631513130004 0.002254391488742595 0.008541996500751492 0.9974758629705816 -0.021066629009097664 0.0003033275797222449 0.004218606169312467 -0.0002675467064004903 -0.0026715799165201912
 0.9974758629705816 -0.021066629009097664 0.0022557973082559337 0.008541834346897896 -0.00026754657896847436 -0.0026715804247650246 0.00029478083749448627 0.0042196049046945286
 0.0003033275797222449 0.004218606169312467 -0.00026754657896847436 -0.0026715804247650246 0.0022543674108242485 0.008541499099809278 0.9974758549475562 -0.02106713033021992
 -0.0002675467064004903 -0.0026715799165201912 0.00029478083749448627 0.0042196049046945286 0.9974758549475562 -0.02106713033021992 0.002255805826261406 0.008541331628388995
0.043768236765320004 0.002446968611142307 0.010027699282887732 0.9972229166597575 -0.024617555425743624 0.0003685201535265593 0.004924730839797112 -0.00032223116278974693 -0.0031214964020942633
 0.9972229166597575 -0.024617555425743624 0.002448880704326822 0.010027496974078494 -0.0003222309685802274 -0.003121497030012632 0.0003568858156088823 0.004926058795107427
 0.0003685201535265593 0.004924730839797112 -0.0003222309685802274 -0.003121497030012632 0.0024469361496322487 0.010027119876624677 0.9972229060605551 -0.024618140256618085
 -0.00032223116278974693 -0.0031214964020942633 0.0003568858156088823 0.004926058795107427 0.9972229060605551 -0.024618140256618085 0.002448892705433543 0.010026910735235428
0.050020842017509996 0.002651352160975238 0.011529158361503037 0.9969538260277986 -0.028181194969041232 0.0004405143846983303 0.005631624250938714 -0.00038242788645839184 -0.0035724543751169385
 0.9969538260277986 -0.028181194969041232 0.0026538479725864406 0.011528911680814704 -0.0003824276078912004 -0.0035724551384674406 0.0004253147292393546 0.005633341561448135
 0.0004405143846983303 0.005631624250938714 -0.0003824276078912004 -0.0035724551384674406 0.0026513100618737804 0.011528497272700023 0.9969538124924004 -0.028181863353073607
 -0.00038242788645839184 -0.0035724543751169385 0.0004253147292393546 0.005633341561448135 0.9969538124924004 -0.028181863353073607 0.002653864072587975 0.01152824201037951
0.055454545454549996 0.002838741161374403 0.012846528723263013 0.9967066921142004 -0.031288472783341396 0.0005086574502016701 0.006246507536800312 -0.00043927290048644354 -0.003965130971437229
 0.9967066921142004 -0.031288472783341396 0.002841807092385191 0.012846239924729917 -0.0004392725332738264 -0.003965131867034898 0.0004899705640866347 0.006248616114966164
 0.0005086574502016701 0.006246507536800312 -0.0004392725332738264 -0.003965131867034898 0.0028386896686776546 0.012845796933335686 0.9967066757332474 -0.03128921382795949
 -0.00043927290048644354 -0.003965130971437229 0.0004899705640866347 0.006248616114966164 0.9967066757332474 -0.03128921382795949 0.0028418272635320797 0.012845497826667876
0.056273447269699996 0.0028677806100618707 0.013046067180609917 0.9966683659248161 -0.03175760074898362 0.0005193799346024013 0.006339218238683574 -0.0004482084376866765 -0.004024369706833863
 0.9966683659248161 -0.03175760074898362 0.002870937528406875 0.013045771740292124 -0.00044820805582187015 -0.004024370623635824 0.0005001360893798261 0.006341390280819117
 0.0005193799346024013 0.006339218238683574 -0.00044820805582187015 -0.004024370623635824 0.002867727619449176 0.01304532475910176 0.9966683490911855 -0.03175835274947921
 -0.0004482084376866765 -0.004024369706833863 0.0005001360893798261 0.006341390280819117 0.9966683490911855 -0.03175835274947921 0.0028709583545114457 0.013045018732869227
0.06252605252188 0.0030964913076278436 0.014578156010986457 0.9963663103085858 -0.035346781775177576 0.0006051857457532123 0.007047440121055212 -0.0005196433891646416 -0.004477158940387155
 0.9963663103085858 -0.035346781775177576 0.0031003866786088927 0.014577807252997756 -0.0005196428838084994 -0.004477160030956604 0.0005814176849958503 0.007050137576254872
 0.0006051857457532123 0.007047440121055212 -0.0005196428838084994 -0.004477160030956604 0.0030964261711196746 0.014577332643291065 0.9963662898106781 -0.03534761746602394
 -0.0005196433891646416 -0.004477158940387155 0.0005814176849958503 0.007050137576254872 0.9963662898106781 -0.03534761746602394 0.0031004128685716234 0.014576971018446369
0.06877865777407 0.0033377206491339456 0.0161251796674604 0.9960474325515483 -0.03894871518020472 0.0006979999556714626 0.007756213480308691 -0.0005968023096944413 -0.004930738503976512
 0.9960474325515483 -0.03894871518020472 0.0033424317896513 0.016124772863696443 -0.0005968016595075927 -0.004930739790970874 0.000669226512018811 0.007759512399242211
 0.0006979999556714626 0.007756213480308691 -0.0005968016595075927 -0.004930739790970874 0.003337642112818573 0.01612427577204189 0.9960474080198295 -0.03894963465098459
 -0.0005968023096944413 -0.004930738503976512 0.000669226512018811 0.007759512399242211 0.9960474080198295 -0.03894963465098459 0.003342463992252368 0.016123853521969194
0.07503126302626001 0.003591704168367844 0.017686909722866774 0.995711505674989 -0.04256335394821597 0.0007978898214986275 0.008465458658326975 -0.0006797537378262281 -0.005385024212993803
 0.995711505674989 -0.04256335394821597 0.0035973083791897365 0.017686439975044443 -0.0006797529204294341 -0.005385025721450906 0.0007636287091762363 0.008469440525200394
 0.0007978898214986275 0.008465458658326975 -0.0006797529204294341 -0.005385025721450906 0.003591610979483123 0.01768592575490827 0.9957114767353747 -0.04256435729968625
 -0.0006797537378262281 -0.005385024212993803 0.0007636287091762363 0.008469440525200394 0.9957114767353747 -0.04256435729968625 0.003597347254525775 0.0176854376607291
0.08128386827845 0.0038586765807177067 0.01926312932253017 0.9953583025349952 -0.04619063204494891 0.0009049216516736133 0.009175093084442707 -0.0007685651485072428 -0.005839930942024699
 0.9953583025349952 -0.04619063204494891 0.00386525115912695 0.01926259156177004 -0.0007685641405125078 -0.005839932699404763 0.0008646894983299923 0.0091798448811715
 0.0009049216516736133 0.009175093084442707 -0.0007685641405125078 -0.005839932699404763 0.0038585674880639445 0.019262065768469668 0.9953582688090916 -0.0461917193948867
 -0.0007685651485072428 -0.005839930942024699 0.0008646894983299923 0.0091798448811715 0.9953582688090916 -0.0461917193948867 0.0038652973791369794 0.019261506418178885
0.08753647353064001 0.004138871795041243 0.02085362959813697 0.9949875959814206 -0.04983046795099089 0.0010191607409246225 0.00988503150565342 -0.0008633029160272911 -0.00629537239681354
 0.9949875959814206 -0.04983046795099089 0.0041464940477264215 0.020853018584120503 -0.0008633016932110123 -0.006295374433033055 0.000972473126344772 0.009890645775818288
 0.0010191607409246225 0.00988503150565342 -0.0008633016932110123 -0.006295374433033055 0.004138745550040835 0.020852486983588985 0.9949875570857399 -0.049831639426413395
 -0.0008633029160272911 -0.00629537239681354 0.000972473126344772 0.009890645775818288 0.9949875570857399 -0.049831639426413395 0.0041465482961542885 0.020851850771005744
0.09378907878283 0.004432522902160885 0.022458207106170264 0.9945991589948033 -0.053482767172568654 0.0011406713092020845 0.010595186150034873 -0.0009640322725720721 -0.006751260955490468
 0.9945991589948033 -0.053482767172568654 0.004441270157434282 0.02245751742608371 -0.0009640308099090368 -0.006751263302961275 0.00108704280979315 0.01060176106248971
 0.0011406713092020845 0.010595186150034873 -0.0009640308099090368 -0.006751263302961275 0.004432378258878199 0.022456985989984826 0.9945991145399634 -0.053484022916058534
 -0.0009640322725720721 -0.006751260955490468 0.00108704280979315 0.01060176106248971 0.9945991145399634 -0.053484022916058534 0.004441333129954417 0.022456267113283003
0.100041684035 0.0047398621482338 0.024076661942111284 0.9941927648108385 -0.05714742407961518 0.0012695164413041437 0.011305466850389101 -0.0010708172653405093 -0.007207507552145708
 0.9941927648108385 -0.05714742407961518 0.0047498117689452725 0.02407588800907961 -0.0010708155371153124 -0.0072075102458079065 0.0012084606794815341 0.011313106262378993
 0.0012695164413041437 0.011305466850389101 -0.0010708155371153124 -0.0072075102458079065 0.004739697864638035 0.024075362919459834 0.9941927144018751 -0.05714876424643367
 -0.0010708172653405093 -0.007207507552145708 0.0012084606794815341 0.011313106262378993 0.9941927144018751 -0.05714876424643367 0.004749884173773403 0.024074555379341476
0.1059090909091 0.005040922753199356 0.025607855225542233 0.9937948734251391 -0.06059745240501961 0.0013971497851686795 0.011972022256813326 -0.0011765871621919014 -0.007635891547271066
 0.9937948734251391 -0.06059745240501961 0.005052071068525078 0.025606996992192554 -0.00117658516083353 -0.007635894599853214 0.0013286811674586552 0.011980760167985821
 0.0013971497851686795 0.011972022256813326 -0.00117658516083353 -0.007635894599853214 0.005040738913710002 0.025606483670544335 0.9937948170639485 -0.06059887194582451
 -0.0011765871621919014 -0.007635891547271066 0.0013286811674586552 0.011980760167985821 0.9937948170639485 -0.06059887194582451 0.005052152980105424 0.025605587295139138
0.1062942892872 0.005061120896046165 0.02570879633117893 0.9937681870353743 -0.06082432326985315 0.0014057580289200547 0.012015781134785365 -0.0011837207106967038 -0.00766402159602422
 0.9937681870353743 -0.06082432326985315 0.005072350291892022 0.025707932382435378 -0.0011837186905886263 -0.007664024673376248 0.0013367877265449612 0.012024594654639571
 0.0014057580289200547 0.012015781134785365 -0.0011837186905886263 -0.007664024673376248 0.005060935734681525 0.025707420034447103 0.9937681302709749 -0.06082574802715284
 -0.0011837207106967038 -0.00766402159602422 0.0013367877265449612 0.012024594654639571 0.9937681302709749 -0.06082574802715284 0.005072432850033354 0.025706517632016708
0.11254689453939999 0.0053965295780020826 0.027354413540674038 0.9933251997533656 -0.06451334061424419 0.0015494567124029828 0.012726034304887043 -0.0013028041476810584 -0.008120710905732367
 0.9933251997533656 -0.06451334061424419 0.005409116218386723 0.02735345363527528 -0.001302801808830617 -0.008120714406869975 0.0014720837481544372 0.01273613735403511
 0.0015494567124029828 0.012726034304887043 -0.001302801808830617 -0.008120714406869975 0.005396322306253514 0.027352960637602036 0.9933251362251226 -0.06451485014328126
 -0.0013028041476810584 -0.008120710905732367 0.0014720837481544372 0.01273613735403511 0.9933251362251226 -0.06451485014328126 0.005409209663754713 0.02735195697169398
0.11879949979160001 0.005746317641044607 0.02901331703505543 0.9928635776314986 -0.06821434406278418 0.0017006718239345666 0.013436129493191293 -0.0014281277895728233 -0.008577481667191106
 0.9928635776314986 -0.06821434406278418 0.005760339067923154 0.029012255051280727 -0.0014281251047246627 -0.008577485634834075 0.001614407293861346 0.01344764336759172
 0.0017006718239345666 0.013436129493191293 -0.0014281251047246627 -0.008577485634834075 0.005746087032371606 0.029011788230274983 0.9928635069240765 -0.068215938557385
 -0.0014281277895728233 -0.008577481667191106 0.001614407293861346 0.01344764336759172 0.9928635069240765 -0.068215938557385 0.005760444147560383 0.029010676694649285
0.1250521050438 0.006110713487161316 0.03068530980348885 0.992383096019605 -0.07192719428087138 0.0018594613305835418 0.014145967715560445 -0.0015597504748007997 -0.009034238399176902
 0.992383096019605 -0.07192719428087138 0.006126247327689353 0.03068413943572666 -0.001559747416331411 -0.009034242878687447 0.0017638156118658988 0.014159019646357069
 0.0018594613305835418 0.014145967715560445 -0.001559747416331411 -0.009034242878687447 0.006110458321614987 0.030683705840139394 0.992383017709624 -0.07192887394601871
 -0.0015597504748007997 -0.009034238399176902 0.0017638156118658988 0.014159019646357069 0.992383017709624 -0.07192887394601871 0.0061263648023726245 0.030682479620063853
0.131304710296 0.006489944408261758 0.032370193829768655 0.991883531047478 -0.07565174514662372 0.0020258817778863636 0.014855447913773436 -0.001697729616718676 -0.009490883931632861
 0.991883531047478 -0.07565174514662372 0.006507068387875431 0.03236890858511343 -0.0016977261567664092 -0.009490888971054847 0.0019203645952810702 0.01487017112728418
 0.0020258817778863636 0.014855447913773436 -0.0016977261567664092 -0.009490888971054847 0.006489663473300802 0.03236851548508753 0.9918834447035708 -0.07565351020299672
 -0.001697729616718676 -0.009490883931632861 0.0019203645952810702 0.01487017112728418 0.9918834447035708 -0.07565351020299672 0.006507199032176025 0.03236716755358656
0.1375573155481 0.00679210285267818 0.033847766590335046 0.9914568177896937 -0.07916778000904923 0.002178031560576696 0.015542031807347936 -0.0018202888441919435 -0.009924808117629743
 0.9914568177896937 -0.07916778000904923 0.006810901613433437 0.033846389555691116 -0.001820285107370419 -0.009924813727261323 0.002062396997188678 0.01555839370299597
 0.002178031560576696 0.015542031807347936 -0.001820285107370419 -0.009924813727261323 0.006791795664437112 0.03384601423036185 0.9914567230460023 -0.07916963058002015
 -0.0018202888441919435 -0.009924808117629743 0.002062396997188678 0.01555839370299597 0.9914567230460023 -0.07916963058002015 0.006811045357157423 0.033844567815966335
0.1438099208003 0.007104711001171095 0.03531839112717125 0.9910154180859992 -0.08267574533243759 0.0023363466874946385 0.01622627795541375 -0.001947763428834798 -0.010356640563619844
 0.9910154180859992 -0.08267574533243759 0.007125263497109414 0.03531691774000526 -0.0019477594142753572 -0.010356646787273537 0.0022101477814169533 0.016244399267295533
 0.0023363466874946385 0.01622627795541375 -0.0019477594142753572 -0.010356646787273537 0.00710437648969141 0.035316565523903845 0.9910153145125888 -0.08267768163119676
 -0.001947763428834798 -0.010356640563619844 0.0022101477814169533 0.016244399267295533 0.9910153145125888 -0.08267768163119676 0.0071254209814282906 0.03531501558852577
0.1500625260525 0.007427669298781577 0.03678196946608258 0.990559434711105 -0.08617557926132512 0.0025007796754763895 0.016908130944328244 -0.0020801081931791057 -0.010786330091512461
 0.990559434711105 -0.08617557926132512 0.007450054628723414 0.036780394902251524 -0.0020801039015093006 -0.01078633697457934 0.0023635716876227453 0.01692813679331432
 0.0025007796754763895 0.016908130944328244 -0.0020801039015093006 -0.01078633697457934 0.007427306409948826 0.03678007141953129 0.9905593218715139 -0.08617760151122494
 -0.0020801081931791057 -0.010786330091512461 0.0023635716876227453 0.01692813679331432 0.9905593218715139 -0.08617760151122494 0.007450226498200751 0.03677841264670799
0.15631513130469998 0.007760877610338781 0.03823840672720983 0.9900889708210034 -0.0896672196754922 0.0026712825548988483 0.017587536168100642 -0.0022172774723885273 -0.011213826522262943
