! Created with skrf 1.8.0 (http://scikit-rf.org).
# GHz S RI R 50.0 
!freq ReS11 ImS11 ReS12 ImS12 ReS13 ImS13
! ReS14 ImS14
! ReS21 ImS21 ReS22 ImS22 ReS23 ImS23
! ReS24 ImS24
! ReS31 ImS31 ReS32 ImS32 ReS33 ImS33
! ReS34 ImS34
! ReS41 ImS41 ReS42 ImS42 ReS43 ImS43
! ReS44 ImS44
!
0.0 0.00138569193345 0.0 0.9986143080666 0.0 5.334579842302e-05 0.0 -5.334579877918e-05 6.532976172288157e-21
 0.9986143080666 0.0 0.001385691933426 0.0 -5.334579877781e-05 6.5329761721203805e-21 5.334579842345e-05 0.0
 5.334579842302e-05 0.0 -5.334579877781e-05 6.5329761721203805e-21 0.001385691923469 0.0 0.9986143080566 0.0
 -5.334579877918e-05 6.532976172288157e-21 5.334579842345e-05 0.0 0.9986143080566 0.0 0.001385691923515 0.0
0.005 0.0014905246898861226 0.0011308686031999556 0.998481757328515 -0.0029033595254589805 7.486349957376662e-05 0.0006059935036389995 -7.272430925184987e-05 -0.0003772524401315109
 0.998481757328515 -0.0029033595254589805 0.0014905005783045374 0.0011308827205425086 -7.272326223428492e-05 -0.0003772517121658847 7.500699434524485e-05 0.0006059388213336944
 7.486349957376662e-05 0.0006059935036389995 -7.272326223428492e-05 -0.0003772517121658847 0.001490525182207517 0.0011309356235188752 0.9984817576683143 -0.002903292463506821
 -7.272430925184987e-05 -0.0003772524401315109 7.500699434524485e-05 0.0006059388213336944 0.9984817576683143 -0.002903292463506821 0.0014905007613441382 0.0011309498202947263
0.006252605252188 0.001517901903419767 0.0014180653667116804 0.9984469469672412 -0.003629929869848659 8.091796571434325e-05 0.0007577864606002905 -7.814079115478878e-05 -0.00047206470633631595
 0.9984469469672412 -0.003629929869848659 0.0015178642126296217 0.0014180833333875596 -7.81391612933294e-05 -0.00047206381015361265 8.114216388353535e-05 0.000757715503857928
 8.091796571434325e-05 0.0007577864606002905 -7.81391612933294e-05 -0.00047206381015361265 0.0015179026070999198 0.0014181491406765497 0.9984469474328785 -0.003629846048304595
 -7.814079115478878e-05 -0.00047206470633631595 8.114216388353535e-05 0.000757715503857928 0.9984469474328785 -0.003629846048304595 0.0015178644336288287 0.0014181671939452747
0.01250521050438 0.001661338502117597 0.0028661272900905544 0.9982634782586786 -0.007260798372663798 0.00011514907303400302 0.0015159408653465975 -0.00010857912581661238 -0.0009465142161174679
 0.9982634782586786 -0.007260798372663798 0.0016611879982423973 0.002866166444550727 -0.00010857269485272007 -0.0009465125744163299 0.00011604313377689241 0.0015157710351299304
 0.00011514907303400302 0.0015159408653465975 -0.00010857269485272007 -0.0009465125744163299 0.001661340736350671 0.0028662946289011904 0.9982634795521484 -0.007260630971292012
 -0.00010857912581661238 -0.0009465142161174679 0.00011604313377689241 0.0015157710351299304 0.9982634795521484 -0.007260630971292012 0.0016611883209535817 0.002866333828472823
0.01875781575657 0.0018162899252174604 0.004335081744345103 0.9980636915878951 -0.010901471592665659 0.00015611579398415906 0.0022750105946155153 -0.00014474950969727376 -0.0014226567132764262
 0.9980636915878951 -0.010901471592665659 0.001815951728547073 0.004335145515819095 -0.00014473515728849668 -0.001422654505559399 0.00015812423494819094 0.002274708918386756
 0.00015611579398415906 0.0022750105946155153 -0.00014473515728849668 -0.001422654505559399 0.0018162945086826411 0.00433533257499155 0.9980636940773985 -0.010901220686776358
 -0.00014474950969727376 -0.0014226567132764262 0.00015812423494819094 0.002274708918386756 0.9980636940773985 -0.010901220686776358 0.0018159520476682884 0.004335396219453869
0.02501042100875 0.001983037227057356 0.005822892527575199 0.997847369019029 -0.014553739980375638 0.0002038951913801023 0.003035051842732918 -0.000186738125816565 -0.0019002871077457226
 0.997847369019029 -0.014553739980375638 0.0019824366072745013 0.005822984529986259 -0.00018671276498779727 -0.0019002845452975974 0.00020746274074961185 0.0030345804944470955
 0.0002038951913801023 0.003035051842732918 -0.00018671276498779727 -0.0019002845452975974 0.0019830449613614963 0.005823226774736199 0.9978473730694106 -0.014553405617679264
 -0.000186738125816565 -0.0019002871077457226 0.00020746274074961185 0.0030345804944470955 0.9978473730694106 -0.014553405617679264 0.001982436819898466 0.005823318343731325
0.03126302626094 0.0021618497408446872 0.007328524506877757 0.9976142806452772 -0.018218385065307357 0.0002585647532374099 0.0037960492703615067 -0.0002346289478809493 -0.0023792675032128794
 0.9976142806452772 -0.018218385065307357 0.0021609120789975677 0.007328648534411001 -0.00023458951918923105 -0.0023792648295626042 0.0002641367786223934 0.0037953655449955294
 0.0002585647532374099 0.0037960492703615067 -0.00023458951918923105 -0.0023792648295626042 0.002161861415730426 0.007328942106613397 0.9976142866229961 -0.01821796725227625
 -0.0002346289478809493 -0.0023792675032128794 0.0002641367786223934 0.0037953655449955294 0.9976142866229961 -0.01821796725227625 0.0021609120886830957 0.007329065255932999
0.037515631513130004 0.0023529911322037367 0.008851312403407493 0.9973641908002873 -0.02189581061421792 0.0003202017597167515 0.00455795960170174 -0.0002885043799483924 -0.0028594836060955977
 0.9973641908002873 -0.02189581061421792 0.002351641896078054 0.008851472428215523 -0.0002884478485653904 -0.0028594810971946014 0.0003282244682531201 0.004557015866438328
 0.0003202017597167515 0.00455795960170174 -0.0002884478485653904 -0.0028594810971946014 0.002353007525025365 0.008851813272356958 0.9973641990734671 -0.021895309346750356
 -0.0002885043799483924 -0.0028594836060955977 0.0003282244682531201 0.004557015866438328 0.9973641990734671 -0.021895309346750356 0.0023516416112550342 0.00885197183151657
0.043768236765320004 0.0025567217460286755 0.010390768705753188 0.9970968605606538 -0.025586234654253453 0.00038888298667402174 0.005320724885675812 -0.0003484454938051834 -0.0033408314606398534
 0.9970968605606538 -0.025586234654253453 0.0025548864710948304 0.010390968876621425 -0.0003483688478093839 -0.0033408294249876935 0.00039980352713616697 0.00531946852380444
 0.00038888298667402174 0.005320724885675812 -0.0003483688478093839 -0.0033408294249876935 0.0025567436208469405 0.010391352755914065 0.997096871498192 -0.02558564990286931
 -0.0003484454938051834 -0.0033408314606398534 0.00039980352713616697 0.00531946852380444 0.997096871498192 -0.02558564990286931 0.0025548858035388685 0.010391550726582186
0.050020842017509996 0.0027732997013527015 0.011946504282744297 0.9968120489963432 -0.029289768795169095 0.0004646845293709861 0.00608427796528514 -0.00041453212173695836 -0.003823211974332915
 0.9968120489963432 -0.029289768795169095 0.0027709039744462528 0.011946748924232252 -0.00041443237105197534 -0.003823210753064905 0.00047895104284009326 0.006082651317027878
 0.0004646845293709861 0.00608427796528514 -0.00041443237105197534 -0.003823210753064905 0.002773327811588802 0.011947171396661398 0.9968120629713177 -0.02928910052965858
 -0.00041453212173695836 -0.003823211974332915 0.00047895104284009326 0.006082651317027878 0.9968120629713177 -0.02928910052965858 0.002770902841262154 0.01194741295168346
0.055454545454549996 0.002972145340626919 0.013311449263776717 0.9965501540580886 -0.03251893470157371 0.0005363994295694926 0.006748411428713773 -0.0004770154055468889 -0.004243178604123028
 0.9965501540580886 -0.03251893470157371 0.0029692021601853812 0.013311736199831127 -0.00047689316429932663 -0.004243178393021882 0.0005539384259178518 0.006746412201248626
 0.0005363994295694926 0.006748411428713773 -0.00047689316429932663 -0.004243178393021882 0.00297217947066727 0.013312188462789363 0.9965501709766599 -0.03251819381618557
 -0.0004770154055468889 -0.004243178604123028 0.0005539384259178518 0.006746412201248626 0.9965501709766599 -0.03251819381618557 0.002969200556455944 0.013312471415303182
0.056273447269699996 0.0030029814645570483 0.01351818941185264 0.9965095139021046 -0.03300645713595308 0.000547681677586951 0.006848545165217768 -0.00048684288642869284 -0.004306528225824441
 0.9965095139021046 -0.03300645713595308 0.002999950909026542 0.013518483023849432 -0.00048671706208963737 -0.00430652819278088 0.000565743316900855 0.006846485467064752
 0.000547681677586951 0.006848545165217768 -0.00048671706208963737 -0.00430652819278088 0.0030030165497962865 0.013518939466073708 0.9965095312890023 -0.03300570530187995
 -0.00048684288642869284 -0.004306528225824441 0.000565743316900855 0.006846485467064752 0.9965095312890023 -0.03300570530187995 0.002999949229346066 0.013519228948896648
0.06252605252188 0.00324602215887343 0.015105532367546557 0.9961890122675867 -0.03673629761298652 0.000637948816012616 0.007613447761604111 -0.0005654551985787608 -0.004790683992367207
 0.9961890122675867 -0.03673629761298652 0.003242282421242745 0.01510587962520282 -0.0005653003523869915 -0.00479068555416012 0.0006602557449346932 0.007610887084983473
 0.000637948816012616 0.007613447761604111 -0.0005653003523869915 -0.00479068555416012 0.0032460649467746443 0.015106365212765474 0.996189033444475 -0.0367354621513324
 -0.0005654551985787608 -0.004790683992367207 0.0006602557449346932 0.007610887084983473 0.996189033444475 -0.0367354621513324 0.0032422801168035887 0.015106707137270782
0.06877865777407 0.0035026757392445187 0.01670826663159416 0.9958503006144948 -0.04047925472810287 0.0007355593396423536 0.008378902862109003 -0.0006504452353891476 -0.005275582869113769
 0.9958503006144948 -0.04047925472810287 0.003498152475547237 0.016708672385571974 -0.0006502584395344899 -0.005275586465185869 0.0007625627174769753 0.008375768051757144
 0.0007355593396423536 0.008378902862109003 -0.0006502584395344899 -0.005275586465185869 0.0035027269445238036 0.016709182107204176 0.9958503259631095 -0.040478335560755044
 -0.0006504452353891476 -0.005275582869113769 0.0007625627174769753 0.008375768051757144 0.9958503259631095 -0.040478335560755044 0.0034981494702012324 0.016709581157829834
0.07503126302626001 0.0037731950826517266 0.018326142811560357 0.9954931352535813 -0.044235267570882815 0.0008405855763684261 0.009144823962965596 -0.0007418879082864595 -0.005761127713930712
 0.9954931352535813 -0.044235267570882815 0.003767813945611577 0.01832661208876548 -0.0007416662552333159 -0.0057611338166132335 0.0008727375320032705 0.009141036575283255
 0.0008405855763684261 0.009144823962965596 -0.0007416662552333159 -0.0057611338166132335 0.0037732554066167577 0.01832714073544674 0.9954931651589913 -0.044234264610723495
 -0.0007418879082864595 -0.005761127713930712 0.0008727375320032705 0.009141036575283255 0.9954931651589913 -0.044234264610723495 0.003767810163986787 0.018327601767782704
0.08128386827845 0.004057832025497478 0.019958923239242234 0.9951172724900443 -0.04800425516385516 0.0009530987154554918 0.009911121318353313 -0.0008398568222093557 -0.006247220282547455
 0.9951172724900443 -0.04800425516385516 0.00405151865220927 0.019959461243702587 -0.0008395974246795941 -0.006247229397097784 0.000990852313395178 0.009906597559938108
 0.0009530987154554918 0.009911121318353313 -0.0008395974246795941 -0.006247229397097784 0.004057902157102568 0.01996000341036292 0.9951173073423449 -0.048003168312056796
 -0.0008398568222093557 -0.006247220282547455 0.000990852313395178 0.009906597559938108 0.9951173073423449 -0.048003168312056796 0.004051514020073949 0.019960531452032974
0.08753647353064001 0.004356837370070831 0.02160637824657478 0.9947224688013182 -0.051786120132902985 0.0010731687383708998 0.010677702200552803 -0.0009444242307786972 -0.0067337609757424505
 0.9947224688013182 -0.051786120132902985 0.004349517369088615 0.021606990360883725 -0.0009441242217282295 -0.006733773640390795 0.0011169779377624537 0.010672352867032149
 0.0010731687383708998 0.010677702200552803 -0.0009441242217282295 -0.006733773640390795 0.004356917984352702 0.021607540444651446 0.9947225089947116 -0.051784949279287645
 -0.0009444242307786972 -0.0067337609757424505 0.0011169779377624537 0.010672352867032149 0.9947225089947116 -0.051784949279287645 0.004349511811554431 0.02160814069660361
0.09378907878283 0.0046704608636418815 0.023268283499281017 0.9943084809898817 -0.05558075132333091 0.0012008643519086802 0.011444471086030989 -0.0010556609870095012 -0.007220648663553802
 0.9943084809898817 -0.05558075132333091 0.004662059802443538 0.023268975286269963 -0.0010553175196610376 -0.007220665449544353 0.0012511839603597575 0.011438201501321014
 0.0012008643519086802 0.011444471086030989 -0.0010553175196610376 -0.007220665449544353 0.004670552621988154 0.023269527487500576 0.9943085269237322 -0.05557949634354877
 -0.0010556609870095012 -0.007220648663553802 0.0012511839603597575 0.011438201501321014 0.9943085269237322 -0.05557949634354877 0.004662053244190162 0.02327020532559158
0.100041684035 0.004998951163203999 0.024944418044835798 0.9938750663249182 -0.05938802570472376 0.0013362529226673893 0.012211329794715758 -0.0011736364912327902 -0.007707780559414606
 0.9938750663249182 -0.05938802570472376 0.0049893945558741595 0.02494519524970123 -0.0011732467392666244 -0.007707802071023389 0.0013935385453201898 0.012204039750783094
 0.0013362529226673893 0.012211329794715758 -0.0011732467392666244 -0.007707802071023389 0.004999054713530398 0.02494574356399831 0.993875118404246 -0.05938668646606925
 -0.0011736364912327902 -0.007707780559414606 0.0013935385453201898 0.012204039750783094 0.993875118404246 -0.05938668646606925 0.004989386920162372 0.0249465045411413
0.1059090909091 0.00532094616782505 0.026530038779890405 0.9934504684232551 -0.06297212897866396 0.0014703561728112344 0.012930937355633956 -0.001290533305350532 -0.008165031187277747
 0.9934504684232551 -0.06297212897866396 0.005310237399906034 0.02653090153024968 -0.0012900975679548744 -0.008165057712417175 0.0015345936908878867 0.012922593600579351
 0.0014703561728112344 0.012930937355633956 -0.0012900975679548744 -0.008165057712417175 0.005321061360201388 0.026531440558175873 0.9934505266433165 -0.06297071053729772
 -0.001290533305350532 -0.008165031187277747 0.0015345936908878867 0.012922593600579351 0.9934505266433165 -0.06297071053729772 0.0053102286815828615 0.02653228476262067
0.1062942892872 0.005342555786848696 0.02663456283595027 0.9934219826721061 -0.0632078098038039 0.0014794004121741278 0.012978177597283133 -0.0012984186370668604 -0.008195052129416172
 0.9934219826721061 -0.0632078098038039 0.005331769081114677 0.0266354313887914 -0.0012979797946997941 -0.008195079003987428 0.0015441083967082851 0.012969761294426911
 0.0014794004121741278 0.012978177597283133 -0.0012979797946997941 -0.008195079003987428 0.005342671762828578 0.026635969611465967 0.9934220413080779 -0.06320638615833224
 -0.0012984186370668604 -0.008195052129416172 0.0015441083967082851 0.012969761294426911 0.9934220413080779 -0.06320638615833224 0.005331760289206513 0.026636819460001626
0.11254689453939999 0.0057015210555266685 0.02833849961535524 0.9929489886176276 -0.06703996077980406 0.0016303713125815523 0.013744911301710643 -0.001430073755520954 -0.008682357025522608
 0.9929489886176276 -0.06703996077980406 0.005689429620183239 0.02833946563407853 -0.0014295830377047123 -0.008682389933481482 0.0017029586905398925 0.013735257289614253
 0.0016303713125815523 0.013744911301710643 -0.0014295830377047123 -0.008682389933481482 0.005701650076261529 0.028339987349999388 0.9929490542273341 -0.0670384525714744
 -0.001430073755520954 -0.008682357025522608 0.0017029586905398925 0.013735257289614253 0.9929490542273341 -0.0670384525714744 0.005689419590410835 0.028340931984608787
0.11879949979160001 0.006076092026722599 0.03005601002733092 0.9924558435857124 -0.07088432727654133 0.0017892285825957738 0.0145114253222094 -0.0015686665575958862 -0.009169587039889309
 0.9924558435857124 -0.07088432727654133 0.00606262113915809 0.03005707982095713 -0.0015681212002419025 -0.009169626684753334 0.0018701530078062078 0.014500416441601539
 0.0017892285825957738 0.0145114253222094 -0.0015681212002419025 -0.009169626684753334 0.006076234696883465 0.03005757840680225 0.9924559165932116 -0.0708827343357371
 -0.0015686665575958862 -0.009169587039889309 0.0018701530078062078 0.014500416441601539 0.9924559165932116 -0.0708827343357371 0.0060626097865488695 0.030058623927757055
0.1250521050438 0.006466512423920141 0.03178687493113814 0.9919423079545777 -0.07474075007669258 0.0019560335838317753 0.015277611740212804 -0.0017142600759243306 -0.009656632070398973
 0.9919423079545777 -0.07474075007669258 0.006451587256891335 0.031788055003627635 -0.0017136573361089809 -0.0096566791887843 0.0020457532673740647 0.015265125065366873
 0.0019560335838317753 0.015277611740212804 -0.0017136573361089809 -0.0096566791887843 0.006466669333326349 0.03178852361966914 0.991942388790903 -0.07473907222460646
 -0.0017142600759243306 -0.009656632070398973 0.0020457532673740647 0.015265125065366873 0.991942388790903 -0.07473907222460646 0.006451574492300444 0.031789676316631627
0.131304710296 0.0068730245593412 0.03353087384101784 0.9914081431673907 -0.0786090626333415 0.0021308460168533894 0.016043360355468887 -0.0018669156053912732 -0.010143380099758563
 0.9914081431673907 -0.0786090626333415 0.0068565701682093754 0.033532170895455723 -0.0018662527616405504 -0.010143435461363304 0.002229819659684438 0.016029267137478362
 0.0021308460168533894 0.016043360355468887 -0.0018662527616405504 -0.010143435461363304 0.006873196282465868 0.03353260248662949 0.9914082322715283 -0.07860729967687882
 -0.0018669156053912732 -0.010143380099758563 0.002229819659684438 0.016029267137478362 0.9914082322715283 -0.07860729967687882 0.0068565558977988226 0.033533868842770376
0.1375573155481 0.007199128151657261 0.03505933589865469 0.990949886938997 -0.08226054179811375 0.002290109680779031 0.016784970974601954 -0.0020029684382346234 -0.010606223849638372
 0.990949886938997 -0.08226054179811375 0.0071810644579125464 0.03506072623759794 -0.002002241703414408 -0.010606287471218974 0.0023985696676952113 0.016769299419206206
 0.002290109680779031 0.016784970974601954 -0.002002241703414408 -0.010606287471218974 0.007199316223829204 0.0350611437305218 0.990949984687472 -0.08225869363546465
 -0.0020029684382346234 -0.010606223849638372 0.0023985696676952113 0.016769299419206206 0.990949984687472 -0.08225869363546465 0.0071810477383700035 0.0350625007981994
0.1438099208003 0.007536582448931976 0.03658034441845478 0.9904757564219189 -0.08590339086337907 0.0024557972979649197 0.01752407056003492 -0.0021444831344061867 -0.011066709993251808
 0.9904757564219189 -0.08590339086337907 0.007516833575046464 0.03658183272096894 -0.0021436896255611145 -0.011066782621137078 0.002574162070609304 0.01750670365791827
 0.0024557972979649197 0.01752407056003492 -0.0021436896255611145 -0.011066782621137078 0.0075367875972981386 0.03658223101445798 0.9904758632516243 -0.08590145730820525
 -0.0021444831344061867 -0.011066709993251808 0.002574162070609304 0.01750670365791827 0.9904758632516243 -0.08590145730820525 0.007516814151637022 0.0365836833527411
0.1500625260525 0.007885277307131523 0.038093790420002556 0.9899858653679064 -0.08953753822243564 0.0026278565914708927 0.018260599755514615 -0.002291407706004237 -0.011524779482993701
 0.9899858653679064 -0.08953753822243564 0.007863767233744818 0.03809538163179539 -0.0022905445477904946 -0.0115248618931044 0.0027565424283110267 0.01824141623501226
 0.0026278565914708927 0.018260599755514615 -0.0022905445477904946 -0.0115248618931044 0.007885500255721255 0.038095755338744666 0.9899859817222099 -0.08953551908197399
 -0.002291407706004237 -0.011524779482993701 0.0027565424283110267 0.01824141623501226 0.9899859817222099 -0.08953551908197399 0.007863744836830703 0.03809730777199563
0.15631513130469998 0.008245101898501365 0.039599568295960424 0.9894803280010152 -0.09316291215401847 0.0028062347290230983 0.018994500126032512 -0.0024436895787564813 -0.01198037445034193
