! Created with skrf 1.8.0 (http://scikit-rf.org).
# GHz S RI R 50.0 
!freq ReS11 ImS11 ReS12 ImS12 ReS13 ImS13
! ReS14 ImS14
! ReS21 ImS21 ReS22 ImS22 ReS23 ImS23
! ReS24 ImS24
! ReS31 ImS31 ReS32 ImS32 ReS33 ImS33
! ReS34 ImS34
! ReS41 ImS41 ReS42 ImS42 ReS43 ImS43
! ReS44 ImS44
!
0.0 0.001323050018841 0.0 0.9986769499698 0.0 5.060918573008e-05 0.0 -5.060918652938e-05 6.197837829065656e-21
 0.9986769499698 0.0 0.001323050018849 0.0 -5.06091865297e-05 6.197837829104845e-21 5.060918573023e-05 0.0
 5.060918573008e-05 0.0 -5.06091865297e-05 6.197837829104845e-21 0.001323050010319 0.0 0.9986769499613 0.0
 -5.060918652938e-05 6.197837829065656e-21 5.060918573023e-05 0.0 0.9986769499613 0.0 0.001323050010317 0.0
0.005 0.0014229109242589921 0.0010838076432947564 0.998550690009302 -0.0027720275542856324 7.051933129034465e-05 0.0005516735274544837 -6.849288879604121e-05 -0.0003474282250413912
 0.998550690009302 -0.0027720275542856324 0.0014229444071635414 0.0010837881600518056 -6.849267869684999e-05 -0.00034742812185083264 7.030104801044737e-05 0.0005517563319455299
 7.051933129034465e-05 0.0005516735274544837 -6.849267869684999e-05 -0.00034742812185083264 0.0014229103899319423 0.0010837407513025023 0.9985506896666659 -0.0027720946038984704
 -6.849288879604121e-05 -0.0003474282250413912 7.030104801044737e-05 0.0005517563319455299 0.9985506896666659 -0.0027720946038984704 0.0014229442587139086 0.001083720954783131
0.006252605252188 0.001448933484683691 0.0013590413081697268 0.9985176021999854 -0.0034657374749751547 7.613955316553024e-05 0.0006898706756099399 -7.346547866454535e-05 -0.00043474250560188887
 0.9985176021999854 -0.0034657374749751547 0.001448985824297975 0.0013590166115484048 -7.346515126775969e-05 -0.00043474237952622827 7.579849913472316e-05 0.0006899781622399146
 7.613955316553024e-05 0.0006898706756099399 -7.346515126775969e-05 -0.00043474237952622827 0.001448932729923474 0.0013589576865331563 0.9985176017452336 -0.0034658213000884415
 -7.346547866454535e-05 -0.00043474250560188887 7.579849913472316e-05 0.0006899781622399146 0.9985176017452336 -0.0034658213000884415 0.0014489856735361037 0.0013589325874436078
0.01250521050438 0.001584944853809513 0.0027467576312314884 0.9983436178976683 -0.0069324265131642995 0.00010800954913998255 0.0013801574218153402 -0.00010126780041716318 -0.0008716895230108764
 0.9983436178976683 -0.0069324265131642995 0.001585153838872644 0.0027467048019399172 -0.00010126650439540828 -0.0008716893030899218 0.00010664933495851697 0.0013804149213773513
 0.00010800954913998255 0.0013801574218153402 -0.00010126650439540828 -0.0008716893030899218 0.001584942390362673 0.0027465907164108305 0.9983436166380664 -0.006932593909111903
 -0.00010126780041716318 -0.0008716895230108764 0.00010664933495851697 0.0013804149213773513 0.9983436166380664 -0.006932593909111903 0.0015851538009304302 0.0027465369677411363
0.01875781575657 0.0017313474928568634 0.0041544721440548325 0.9981548050453362 -0.010408537922391483 0.00014628615914889152 0.00207133342267859 -0.00013409432498088985 -0.001310240965246117
 0.9981548050453362 -0.010408537922391483 0.0017318170715858825 0.004154387517793329 -0.00013409142670315857 -0.0013102406908560712 0.00014323017756162995 0.002071790827609163
 0.00014628615914889152 0.00207133342267859 -0.00013409142670315857 -0.0013102406908560712 0.001731342370991224 0.004154222124348917 0.9981548026394207 -0.010408788799900188
 -0.00013409432498088985 -0.001310240965246117 0.00014323017756162995 0.002071790827609163 0.9981548026394207 -0.010408788799900188 0.0017318174269521883 0.004154135931904574
0.02501042100875 0.0018883987159878473 0.005580252563891162 0.9979509650304855 -0.013895791167596287 0.0001910382514277787 0.002763444458373012 -0.00017202125709747836 -0.001750220629334247
 0.9979509650304855 -0.013895791167596287 0.0018892326138012473 0.005580132287728903 -0.00017201612776828268 -0.0017502203475185606 0.000185609350408427 0.0027641587362575906
 0.0001910382514277787 0.002763444458373012 -0.00017201612776828268 -0.0017502203475185606 0.0018883899769484031 0.005579919603610906 0.9979509611320376 -0.013896125486569228
 -0.00017202125709747836 -0.001750220629334247 0.000185609350408427 0.0027641587362575906 0.9979509611320376 -0.013896125486569228 0.0018892336469685895 0.005579796968685442
0.03126302626094 0.002056344991016525 0.007023122146740729 0.9977318879478722 -0.0173949433576193 0.00024233561746070717 0.0034564740560079103 -0.00021512300835849107 -0.0021915108803182244
 0.9977318879478722 -0.0173949433576193 0.002057646765395106 0.007022962187986698 -0.00021511502310397353 -0.0021915106458874397 0.0002338554500185579 0.003457509290525547
 0.00024233561746070717 0.0034564740560079103 -0.00021511502310397353 -0.0021915106458874397 0.0020563316711421343 0.0070227064334343475 0.9977318822099419 -0.017395361080129776
 -0.00021512300835849107 -0.0021915108803182244 0.0002338554500185579 0.003457509290525547 0.9977318822099419 -0.017395361080129776 0.002057648769181875 0.0070225431615182
0.037515631513130004 0.002235427623189481 0.008482457452886782 0.9974973583986869 -0.020906391429125194 0.0003002481785366836 0.004150381428395052 -0.0002634727331933338 -0.002634014687432698
 0.9974973583986869 -0.020906391429125194 0.002237300700217324 0.008482253604006175 -0.0002634612707346828 -0.0026340145630282443 0.000288036896041862 0.004151808893855036
 0.0003002481785366836 0.004150381428395052 -0.0002634612707346828 -0.0026340145630282443 0.002235408756853989 0.008481959173722343 0.9974973504754545 -0.02090689254325508
 -0.0002634727331933338 -0.002634014687432698 0.000288036896041862 0.004151808893855036 0.9974973504754545 -0.02090689254325508 0.002237303977796268 0.008481750879224047
0.043768236765320004 0.00242588496646233 0.009957804991812882 0.9972471578235411 -0.0244303554432429 0.0003648456226400505 0.004845113002620933 -0.0003171425321136715 -0.003077644080395132
 0.9972471578235411 -0.0244303554432429 0.002428432668657798 0.009957552873999471 -0.00031712697451740686 -0.0030776441365399096 0.00034822171504087776 0.004847011249051126
 0.0003648456226400505 0.004845113002620933 -0.00031712697451740686 -0.0030776441365399096 0.0024258595832464874 0.009957224354853115 0.9972471473672947 -0.02443093994214605
 -0.0003171425321136715 -0.003077644080395132 0.00034822171504087776 0.004847011249051126 0.9972471473672947 -0.02443093994214605 0.0024284375305784734 0.009956966464364206
0.050020842017509996 0.0026279534488872977 0.011448805511577936 0.996981065652868 -0.02796695423550946 0.000436197200012759 0.005540607172342322 -0.0003762035301210302 -0.003522315385296833
 0.996981065652868 -0.02796695423550946 0.0026312790189273036 0.01144850057745742 -0.0003761832626853246 -0.003522315700457196 0.0004144774127369832 0.005543062115106428
 0.000436197200012759 0.005540607172342322 -0.0003761832626853246 -0.003522315700457196 0.002627920576019004 0.01144814274124461 0.9969810523157494 -0.027967622122210996
 -0.0003762035301210302 -0.003522315385296833 0.0004144774127369832 0.005543062115106428 0.9969810523157494 -0.027967622122210996 0.0026312857852544805 0.011447830495911956
0.055454545454549996 0.002813169324858899 0.012757006537567193 0.996736745254849 -0.03105067045703914 0.0005037424134642597 0.0061455798515447834 -0.0004319621687349282 -0.003909530885326541
 0.996736745254849 -0.03105067045703914 0.0028172546857427937 0.012756651882071209 -0.0004319373115915085 -0.003909531495493594 0.0004770378837283574 0.006148594143418274
 0.0005037424134642597 0.0061455798515447834 -0.0004319373115915085 -0.003909531495493594 0.002813129150471489 0.012756272583971297 0.9967367291300333 -0.031051410822424238
 -0.0004319621687349282 -0.003909530885326541 0.0004770378837283574 0.006148594143418274 0.9967367291300333 -0.031051410822424238 0.002817263372994657 0.01275590909525942
0.056273447269699996 0.0028418681148794376 0.012955156792962504 0.996698859978012 -0.031516242560782094 0.0005143715803369001 0.006236796640450293 -0.000440725906961802 -0.003967946872455963
 0.996698859978012 -0.031516242560782094 0.0028460747374820933 0.01295479432864026 -0.0004407003182075953 -0.0039679475330708005 0.00048687087837242973 0.006239901652053374
 0.0005143715803369001 0.006236796640450293 -0.0004407003182075953 -0.0039679475330708005 0.0028418267762771263 0.012954412126890311 0.9966988434104337 -0.03151699385159117
 -0.000440725906961802 -0.003967946872455963 0.00048687087837242973 0.006239901652053374 0.9966988434104337 -0.03151699385159117 0.002846083736206308 0.012954040584285944
0.06252605252188 0.0030678629242498335 0.014476593219103672 0.9964003179816524 -0.03507823146339092 0.0005994367493313772 0.006933609693243309 -0.0005107788953276746 -0.004414457474792194
 0.9964003179816524 -0.03507823146339092 0.0030730537462220265 0.014476168345725871 -0.0005107473769338224 -0.004414458575327294 0.0005654683113438464 0.006937465696250431
 0.0005994367493313772 0.006933609693243309 -0.0005107473769338224 -0.004414458575327294 0.0030678121412167246 0.014475766921178834 0.9964002978323312 -0.035079066175089935
 -0.0005107788953276746 -0.004414457474792194 0.0005654683113438464 0.006937465696250431 0.9964002978323312 -0.035079066175089935 0.003073065313902615 0.014475330956539486
0.06877865777407 0.0033061709214635754 0.0160128735889625 0.9960852162411631 -0.038652900404860385 0.0006914599215786181 0.007630970962907191 -0.0005864307657027879 -0.00486176602003664
 0.9960852162411631 -0.038652900404860385 0.003312449071560965 0.016012381263735505 -0.000586392712618212 -0.004861767663021535 0.0006503351555361559 0.007635686523335755
 0.0006914599215786181 0.007630970962907191 -0.000586392712618212 -0.004861767663021535 0.0033061097135702005 0.016011965933417624 0.9960851921574623 -0.038653818570883486
 -0.0005864307657027879 -0.00486176602003664 0.0006503351555361559 0.007635686523335755 0.9960851921574623 -0.038653818570883486 0.0033124635532020075 0.01601146024040356
0.07503126302626001 0.0035570243277975996 0.017563773377337968 0.9957533309574288 -0.04224020494681719 0.0007905074651439722 0.008328801912721843 -0.0006677488009984284 -0.005309790742294094
 0.9957533309574288 -0.04224020494681719 0.0035644929356094725 0.01756320839401001 -0.0006677036114035491 -0.005309793038360689 0.0007415360401055228 0.008334493333625806
 0.0007905074651439722 0.008328801912721843 -0.0006677036114035491 -0.005309793038360689 0.003556951712815157 0.017562784664865768 0.9957533025844729 -0.04224120660137921
 -0.0006677488009984284 -0.005309790742294094 0.0007415360401055228 0.008334493333625806 0.9957533025844729 -0.04224120660137921 0.0035645106846160114 0.01756220375583324
0.08128386827845 0.0038206545857500697 0.01912907960247223 0.9954044381383244 -0.04584008182825071 0.0008966448335590029 0.009027021152660027 -0.0007547992648325685 -0.005758448965472834
 0.9954044381383244 -0.04584008182825071 0.003829416800325907 0.019128436591498252 -0.0007547463402620505 -0.00575845203338839 0.000839134722936626 0.00903381256762008
 0.0008966448335590029 0.009027021152660027 -0.0007547463402620505 -0.00575845203338839 0.0038205695802183515 0.019128010152285047 0.9954044051190948 -0.04584116701451762
 -0.0007547992648325685 -0.005758448965472834 0.000839134722936626 0.00903381256762008 0.9954044051190948 -0.04584116701451762 0.003829438178317525 0.01912734835814505
0.08753647353064001 0.004097292371210394 0.020708587261006245 0.9950383137532464 -0.04945245247775619 0.0010099365018093518 0.009725544666760774 -0.0008476473651502513 -0.006207656877253446
 0.9950383137532464 -0.04945245247775619 0.004107451380121644 0.020707860689014004 -0.0008475861105100152 -0.006207660843960003 0.000943194037325648 0.00973356813299981
 0.0010099365018093518 0.009725544666760774 -0.0008475861105100152 -0.006207660843960003 0.0040971939907853295 0.020707437413605756 0.9950382757280614 -0.04945362124529643
 -0.0008476473651502513 -0.006207656877253446 0.000943194037325648 0.00973356813299981 0.9950382757280614 -0.04945362124529643 0.00410747675708991 0.02070668888306101
0.09378907878283 0.0043871675841085514 0.022302096789583857 0.9946547338671667 -0.05307722550144856 0.0011304459057302743 0.01042428596986453 -0.0009463572149801375 -0.006657329376021984
 0.9946547338671667 -0.05307722550144856 0.00439882663188866 0.02230128095844061 -0.0009462870386943347 -0.006657334376658091 0.001053775838538542 0.010433681561011056
 0.0011304459057302743 0.01042428596986453 -0.0009462870386943347 -0.006657334376658091 0.004387054844245462 0.02230086690578741 0.9946546904739137 -0.05307847790738932
 -0.0009463572149801375 -0.006657329376021984 0.001053775838538542 0.010433681561011056 0.9946546904739137 -0.05307847790738932 0.004398856385975939 0.02230002560422202
0.100041684035 0.004690509323081308 0.023909412191371104 0.9942534747624349 -0.05671429850845845 0.0012582353827734916 0.011123156229858202 -0.0010509917905774208 -0.0071073799547796135
 0.9942534747624349 -0.05671429850845845 0.004703771730060313 0.023908501236737788 -0.0010509121046520004 -0.007107386132717569 0.0011709409523086116 0.011134072128043406
 0.0012582353827734916 0.011123156229858202 -0.0010509121046520004 -0.007107386132717569 0.004690381239692824 0.023908102653284524 0.9942534256362904 -0.056715634616702426
 -0.0010509917905774208 -0.0071073799547796135 0.0011709409523086116 0.011134072128043406 0.9942534256362904 -0.056715634616702426 0.0047038062479304215 0.023907162361040846
0.1059090909091 0.0049876143735791845 0.025430090823458807 0.9938606576010466 -0.060138392789182524 0.001384827914968211 0.011779008015052708 -0.00115462377742441 -0.007529970187890258
 0.9938606576010466 -0.060138392789182524 0.005002475415555388 0.025429085122184586 -0.0011545346361827471 -0.007529977608348691 0.001286928668917565 0.01179149263353487
 0.001384827914968211 0.011779008015052708 -0.0011545346361827471 -0.007529977608348691 0.004987470997051768 0.02542870690609606 0.9938606027600462 -0.06013980750615253
 -0.00115462377742441 -0.007529970187890258 0.001286928668917565 0.01179149263353487 0.9938606027600462 -0.06013980750615253 0.005002514762611402 0.025427667898110136
0.1062942892872 0.005007545849185832 0.02553033963641225 0.9938343130511518 -0.06036355946530872 0.0013933661149849142 0.011822064354300794 -0.0011616128875411842 -0.00755772062313407
 0.9938343130511518 -0.06036355946530872 0.005022515030040679 0.025529327525763104 -0.001161523107627294 -0.007557728130000399 0.0012947491231075252 0.011834656941679476
 0.0013933661149849142 0.011822064354300794 -0.001161523107627294 -0.007557728130000399 0.005007401438365921 0.02552895084953759 0.9938342578235834 -0.060364979344623294
 -0.0011616128875411842 -0.00755772062313407 0.0012947491231075252 0.011834656941679476 0.9938342578235834 -0.060364979344623294 0.005022554706423637 0.025527905159683777
0.11254689453939999 0.005338504539689902 0.027164686385884346 0.9933970257802018 -0.06402488772926147 0.0015358980721378907 0.012520917066516915 -0.001278281075603603 -0.008008261842492533
 0.9933970257802018 -0.06402488772926147 0.00535528402286417 0.027163566915898447 -0.001278180621176688 -0.008008270838189628 0.001425258962858016 0.012535351015909961
 0.0015358980721378907 0.012520917066516915 -0.001278180621176688 -0.008008270838189628 0.005338342819043746 0.027163218774893 0.9933969640796037 -0.06402639145763563
 -0.001278281075603603 -0.008008261842492533 0.001425258962858016 0.012535351015909961 0.9933969640796037 -0.06402639145763563 0.005355329260658496 0.027162061090490044
0.11879949979160001 0.005683611836183515 0.02881225994779894 0.9929413905326067 -0.06769815485287266 0.0016858899556847096 0.013219618960964912 -0.0014010556522802405 -0.008458912484471556
 0.9929413905326067 -0.06769815485287266 0.0057023052826939945 0.028811026741271686 -0.0014009439466900445 -0.008458923137198445 0.0015625278996017004 0.013236067325747352
 0.0016858899556847096 0.013219618960964912 -0.0014009439466900445 -0.008458923137198445 0.005683431824961414 0.028810713961019346 0.9929413219838428 -0.06769974251321137
 -0.0014010556522802405 -0.008458912484471556 0.0015625278996017004 0.013236067325747352 0.9929413219838428 -0.06769974251321137 0.005702356493188073 0.028809437491768262
0.1250521050438 0.006043093186257042 0.030472867417202832 0.9924671855248457 -0.07138322520733366 0.0018433991434028837 0.013918072555185427 -0.0015299945951038904 -0.008909579795604073
 0.9924671855248457 -0.07138322520733366 0.006063804408814124 0.030471513919386264 -0.0015298710657032186 -0.008909592281878601 0.0017066121264431458 0.013936716858120412
 0.0018433991434028837 0.013918072555185427 -0.0015298710657032186 -0.008909592281878601 0.006042893905979652 0.03047124352523435 0.9924671097487566 -0.07138489688893877
 -0.0015299945951038904 -0.008909579795604073 0.0017066121264431458 0.013936716858120412 0.9924671097487566 -0.07138489688893877 0.006063862011599826 0.03046984128361223
0.131304710296 0.006417172981457462 0.032146314940815116 0.9919741897025498 -0.07507995648432839 0.002008481634076861 0.014616178328926692 -0.0016651545132662258 -0.00936016937750897
 0.9919741897025498 -0.07507995648432839 0.006440005964319447 0.03214483441504 -0.001665018591559333 -0.009360183882172739 0.001857566550186613 0.01463720865008115
 0.002008481634076861 0.014616178328926692 -0.001665018591559333 -0.009360183882172739 0.006416953456351458 0.03214461363377057 0.9919741063161273 -0.07508171228577973
 -0.0016651545132662258 -0.00936016937750897 0.001857566550186613 0.01463720865008115 0.9919741063161273 -0.07508171228577973 0.00644007038695865 0.032143078430527584
0.1375573155481 0.006714822286157146 0.033614053670007096 0.9915534576761521 -0.0785697882080751 0.002159548893664446 0.015291636168989268 -0.0017851301209030753 -0.009788272876860833
 0.9915534576761521 -0.0785697882080751 0.006739890180437145 0.03361247107571535 -0.00178498114341482 -0.009788289405059901 0.001994163104021825 0.01531500485358723
 0.002159548893664446 0.015291636168989268 -0.00178498114341482 -0.009788289405059901 0.006714582302812191 0.03361227503337469 0.9915533663352021 -0.07857162816501428
 -0.0017851301209030753 -0.009788272876860833 0.001994163104021825 0.01531500485358723 0.9915533663352021 -0.07857162816501428 0.006739961015845877 0.033610632097472906
0.1438099208003 0.0070227519877154535 0.035074939269483685 0.9911182639632242 -0.08205165683504412 0.0023167443243377493 0.015964785827785346 -0.0019099161840816857 -0.010214334456367697
 0.9911182639632242 -0.08205165683504412 0.007050160463858592 0.035073249765521126 -0.0019097535710324409 -0.010214353184533871 0.0021362484308498375 0.015990664907776505
 0.0023167443243377493 0.015964785827785346 -0.0019097535710324409 -0.010214353184533871 0.007022490712407862 0.03507308376775086 0.9911181642867988 -0.08205358104093075
 -0.0019099161840816857 -0.010214334456367697 0.0021362484308498375 0.015990664907776505 0.9911181642867988 -0.08205358104093075 0.0070502379995659 0.035071327871980765
0.1500625260525 0.007340864493109426 0.03652887580401489 0.9906687092820791 -0.08552550233918461 0.0024800212793771076 0.01663557251371059 -0.002039468790712755 -0.010638304404009855
 0.9906687092820791 -0.08552550233918461 0.0073707194517813055 0.03652707424788142 -0.002039291965144108 -0.0106383255153853 0.0022837790407980473 0.01666414026305611
 0.0024800212793771076 0.01663557251371059 -0.002039291965144108 -0.0106383255153853 0.007340581103909772 0.03652694392249332 0.9906686008861059 -0.08552751088731562
 -0.002039468790712755 -0.010638304404009855 0.0022837790407980473 0.01666414026305611 0.9906686008861059 -0.08552751088731562 0.007370803973038063 0.03652506952570267
0.15631513130469998 0.007669061648008885 0.03797577038398569 0.9902048947151383 -0.0889912643998472 0.0026493326383369366 0.017303942222032034 -0.002173743559433871 -0.01106013397486129
