! Created with skrf 1.8.0 (http://scikit-rf.org).
# GHz S RI R 50.0 
!freq ReS11 ImS11 ReS12 ImS12 ReS13 ImS13
! ReS14 ImS14
! ReS21 ImS21 ReS22 ImS22 ReS23 ImS23
! ReS24 ImS24
! ReS31 ImS31 ReS32 ImS32 ReS33 ImS33
! ReS34 ImS34
! ReS41 ImS41 ReS42 ImS42 ReS43 ImS43
! ReS44 ImS44
!
0.0 0.001517359192185 0.0 0.9984826408021 0.0 5.839622644529e-05 0.0 -5.839622609055e-05 7.15147513640772e-21
 0.9984826408021 0.0 0.001517359192189 0.0 -5.839622609031e-05 7.15147513637833e-21 5.839622644615e-05 0.0
 5.839622644529e-05 0.0 -5.839622609031e-05 7.15147513637833e-21 0.001517359175128 0.0 0.9984826407851 0.0
 -5.839622609055e-05 7.15147513640772e-21 5.839622644615e-05 0.0 0.9984826407851 0.0 0.001517359175147 0.0
0.005 0.001632471768508357 0.0012429860606437135 0.9983370483524262 -0.0031784934332155287 8.142502657720014e-05 0.0006335717956361387 -7.923618104301336e-05 -0.00039940031882473707
 0.9983370483524262 -0.0031784934332155287 0.0016324515153895295 0.0012429979421478277 -7.923706417174999e-05 -0.0003994010460233139 8.15480687698092e-05 0.0006335250016382076
 8.142502657720014e-05 0.0006335717956361387 -7.923706417174999e-05 -0.0003994010460233139 0.0016324714096659601 0.0012430535854318255 0.998337048700648 -0.0031784263673977926
 -7.923618104301336e-05 -0.00039940031882473707 8.15480687698092e-05 0.0006335250016382076 0.998337048700648 -0.0031784263673977926 0.0016324525711037448 0.0012430645512201246
0.006252605252188 0.001662642832099372 0.001558617715947143 0.9982986581840592 -0.003973896955278098 8.796314588571368e-05 0.0007922794616469653 -8.510570455243636e-05 -0.0004997657709151705
 0.9982986581840592 -0.003973896955278098 0.001662611172351561 0.0015586327928678047 -8.510707840471158e-05 -0.0004997666686053908 8.815538889989319e-05 0.0007922186967963363
 8.796314588571368e-05 0.0007922794616469653 -8.510707840471158e-05 -0.0004997666686053908 0.0016626422182550347 0.001558702106334508 0.9982986586757778 -0.003973813144992295
 -8.510570455243636e-05 -0.0004997657709151705 8.815538889989319e-05 0.0007922186967963363 0.9982986586757778 -0.003973813144992295 0.0016626127704373983 0.001558716027505446
0.01250521050438 0.0018213560252266449 0.0031498573245698942 0.9980954311151629 -0.00794861077429502 0.00012524243368415767 0.0015849734123287668 -0.00011833139593800224 -0.0010019589978970545
 0.9980954311151629 -0.00794861077429502 0.0018212295994826228 0.0031498897554214957 -0.00011833680552700042 -0.001001960669942363 0.0001260090842146591 0.0015848273984428443
 0.00012524243368415767 0.0015849734123287668 -0.00011833680552700042 -0.001001960669942363 0.0018213529590934818 0.0031500259450505403 0.998095432470455 -0.007948443390756153
 -0.00011833139593800224 -0.0010019589978970545 0.0001260090842146591 0.0015848273984428443 0.998095432470455 -0.007948443390756153 0.0018212353797521978 0.0031500559383916276
0.01875781575657 0.001993840808176045 0.004763736630497842 0.997872709928358 -0.011933817653523965 0.00017032161726180054 0.002378606020230321 -0.00015817437860797195 -0.0015058728898478362
 0.997872709928358 -0.011933817653523965 0.0019935567101221443 0.004763788882175811 -0.0001581864358425863 -0.0015058751909375859 0.00017204388574698293 0.00237834554899624
 0.00017032161726180054 0.002378606020230321 -0.0001581864358425863 -0.0015058751909375859 0.0019938334838845388 0.0047639894655329825 0.9978727125517342 -0.011933566824039597
 -0.00015817437860797195 -0.0015058728898478362 0.00017204388574698293 0.00237834554899624 0.9978727125517342 -0.011933566824039597 0.0019935692911426726 0.004764037828642984
0.02501042100875 0.0021804293987000745 0.006398004738584222 0.9976302352131814 -0.01593145237943596 0.0002232886444078435 0.0031732122518289994 -0.00020473258347314816 -0.002011284319543323
 0.9976302352131814 -0.01593145237943596 0.0021799248404739523 0.006398079445512472 -0.00020475386702252705 -0.0020112870796471067 0.00022634793130896444 0.003172803554310436
 0.0002232886444078435 0.0031732122518289994 -0.00020475386702252705 -0.0020112870796471067 0.002180415993807712 0.006398341861107143 0.9976302394952666 -0.015931118177111927
 -0.00020473258347314816 -0.002011284319543323 0.00022634793130896444 0.003172803554310436 0.9976302394952666 -0.015931118177111927 0.0021799468315570327 0.006398411017044916
0.03126302626094 0.002381440293247839 0.008051505143699296 0.997367734164944 -0.019942345197515098 0.00028423166429866254 0.00396875537266231 -0.00025810126593670425 -0.0025180364311116676
 0.997367734164944 -0.019942345197515098 0.0023806525716144095 0.008051605103293308 -0.0002581343269408392 -0.002518039455166791 0.00028900991515711465 0.003968160092235081
 0.00028423166429866254 0.00396875537266231 -0.0002581343269408392 -0.002518039455166791 0.002381418980512471 0.008051926661629726 0.9973677404943125 -0.019941927694692427
 -0.00025810126593670425 -0.0025180364311116676 0.00028900991515711465 0.003968160092235081 0.9973677404943125 -0.019941927694692427 0.002380686585566929 0.00805201915426365
0.037515631513130004 0.002597185153700517 0.00972348515159757 0.9970849276893081 -0.023966912328521578 0.00035323831439981735 0.0047651703102810266 -0.0003183736724435289 -0.0030259952886880197
 0.9970849276893081 -0.023966912328521578 0.0025960516277378585 0.00972361332222956 -0.0003184210374608588 -0.0030259983565376907 0.0003601181800662483 0.004764345455936459
 0.00035323831439981735 0.0047651703102810266 -0.0003184210374608588 -0.0030259983565376907 0.002597154101828092 0.009723991212785365 0.9970849364534323 -0.023966411591994887
 -0.0003183736724435289 -0.0030259952886880197 0.0003601181800662483 0.004764345455936459 0.9970849364534323 -0.023966411591994887 0.002596100282064334 0.009724109704221521
0.043768236765320004 0.0028279714639668965 0.011413385756310483 0.9967815332741504 -0.028005366020289756 0.0004303953733766609 0.005562376850878906 -0.0003856412831074833 -0.0035350366832742346
 0.9967815332741504 -0.028005366020289756 0.0028264295371808325 0.011413545256285825 -0.0003857054558928915 -0.0035350395496699803 0.0004397602868401361 0.005561274744478877
 0.0004303953733766609 0.005562376850878906 -0.0003857054558928915 -0.0035350395496699803 0.0028279288379664943 0.01141397654402199 0.99678154485903 -0.02800478211603962
 -0.0003856412831074833 -0.0035350366832742346 0.0004397602868401361 0.005561274744478877 0.99678154485903 -0.02800478211603962 0.002826495454473682 0.011414123812937755
0.050020842017509996 0.003074103769779386 0.013120754768507797 0.9964572664457823 -0.032057801346930724 0.000515788550953602 0.0063602850804620505 -0.00045999389562382045 -0.004045040694848966
 0.9964572664457823 -0.032057801346930724 0.0030720908748886797 0.013120948875449491 -0.00046007735825249167 -0.004045043089476553 0.0005280227602076715 0.006358853301383439
 0.000515788550953602 0.0063602850804620505 -0.00046007735825249167 -0.004045043089476553 0.0030740477307036307 0.013121430495151345 0.9964572812359981 -0.03205713434656306
 -0.00045999389562382045 -0.004045040694848966 0.0005280227602076715 0.006358853301383439 0.9964572812359981 -0.03205713434656306 0.0030721766827064524 0.01312160943562295
0.055454545454549996 0.003300697814247745 0.014618394185293522 0.996158296014492 -0.0355908625181784 0.0005967521943853058 0.007054186229767098 -0.0005304309473070716 -0.004488939503654218
 0.996158296014492 -0.0355908625181784 0.0032982248339008748 0.014618621152259795 -0.0005305331729688447 -0.0044889412493346985 0.0006117926027968038 0.007052421657498191
 0.0005967521943853058 0.007054186229767098 -0.0005305331729688447 -0.0044889412493346985 0.0033006286225551037 0.01461914393306359 0.9961583139009598 -0.03559012335595843
 -0.0005304309473070716 -0.004488939503654218 0.0006117926027968038 0.007052421657498191 0.9961583139009598 -0.03559012335595843 0.003298330064705838 0.014619352836480623
0.056273447269699996 0.0033358843118484007 0.014845204195513238 0.9961118416226231 -0.036124238757316816 0.0006095023334830093 0.007158798065268634 -0.0005415196428659066 -0.004555889017123557
 0.9961118416226231 -0.036124238757316816 0.0033333378969552688 0.014845436346319213 -0.0005416248565892969 -0.004555890644641944 0.0006249909075944181 0.007156979393990492
 0.0006095023334830093 0.007158798065268634 -0.0005416248565892969 -0.004555890644641944 0.003335813017357001 0.014845965116536203 0.9961118600008733 -0.03612348872436465
 -0.0005415196428659066 -0.004555889017123557 0.0006249909075944181 0.007156979393990492 0.9961118600008733 -0.03612348872436465 0.003333446227872314 0.014846178737288366
0.06252605252188 0.003613613368473605 0.016586386816870732 0.9957449726804685 -0.040204647430512774 0.0007116198585948304 0.007957813316393194 -0.0006303049750095866 -0.005067463501130569
 0.9957449726804685 -0.040204647430512774 0.003610470883957973 0.016586660608054908 -0.0006304343808209229 -0.005067464041212274 0.0007307486761797066 0.007955545677597169
 0.0007116198585948304 0.007957813316393194 -0.0006304343808209229 -0.005067464041212274 0.0036135249726958574 0.016587233212679995 0.9957449950271814 -0.04020381443876497
 -0.0006303049750095866 -0.005067463501130569 0.0007307486761797066 0.007955545677597169 0.9957449950271814 -0.04020381443876497 0.0036106043749976418 0.01658748463687981
0.06877865777407 0.003907589433628839 0.018343982195494542 0.9953563733574925 -0.04429895919907159 0.0008222228062621453 0.008757223672066342 -0.0007264346208394872 -0.005579645284647601
 0.9953563733574925 -0.04429895919907159 0.0039037883193451073 0.018344301383941494 -0.0007265906399025042 -0.005579644392017231 0.0008453785315731599 0.008754440077656503
 0.0008222228062621453 0.008757223672066342 -0.0007265906399025042 -0.005579644392017231 0.003907482089544208 0.018344914380820938 0.9953564000526824 -0.04429804332338088
 -0.0007264346208394872 -0.005579645284647601 0.0008453785315731599 0.008754440077656503 0.9953564000526824 -0.04429804332338088 0.003903949613956796 0.018345206846100547
0.07503126302626001 0.004218109304612048 0.02011768782515281 0.9949457575724343 -0.048407077339837935 0.0009413912983822415 0.009556917857858943 -0.0008299915374066379 -0.006092314247538947
 0.9949457575724343 -0.048407077339837935 0.0042135869774466 0.02011805632926515 -0.0008301765713387667 -0.0060923115520284295 0.0009689613480041063 0.009553546350155106
 0.0009413912983822415 0.009556917857858943 -0.0008301765713387667 -0.0060923115520284295 0.004217981162165808 0.020118706148829324 0.9949457889930707 -0.048406078656515986
 -0.0008299915374066379 -0.006092314247538947 0.0009689613480041063 0.009553546350155106 0.9949457889930707 -0.048406078656515986 0.004213778723306687 0.02011904300781113
0.08128386827845 0.004545468105556002 0.021907213238090167 0.9945128396813607 -0.052528882408915935 0.0010692038045696595 0.010356780861454648 -0.000941056850778952 -0.006605348656658662
 0.9945128396813607 -0.052528882408915935 0.004540161947293215 0.021907635139273657 -0.000941273281897852 -0.0066053437632476045 0.0011015763069503084 0.010352744456705906
 0.0010692038045696595 0.010356780861454648 -0.000941273281897852 -0.0066053437632476045 0.004545317313494027 0.021908318081602002 0.9945128762030615 -0.05252780099738099
 -0.000941056850778952 -0.006605348656658662 0.0011015763069503084 0.010352744456705906 0.9945128762030615 -0.05252780099738099 0.004540386797503358 0.021908702802784334
0.08753647353064001 0.004889959274128329 0.023712275927580274 0.9940573347021086 -0.056664236266418526 0.001205737050962577 0.011156694199865902 -0.0010597097917697037 -0.00711862492258791
 0.9940573347021086 -0.056664236266418526 0.004883806618986825 0.02371275547226258 -0.0010599599832271666 -0.007118617411455823 0.001243300799987704 0.011151910832262434
 0.001205737050962577 0.011156694199865902 -0.0010599599832271666 -0.007118617411455823 0.004889783979964527 0.023713467702355336 0.9940573766982208 -0.05666307221210403
 -0.0010597097917697037 -0.00711862492258791 0.001243300799987704 0.011151910832262434 0.9940573766982208 -0.05666307221210403 0.004884067231635986 0.02371390387140157
0.09378907878283 0.005251874519283712 0.025532598435647764 0.9935789585126547 -0.06081298494097864 0.0013510659318098155 0.011956536112384456 -0.0011860276269628999 -0.007632017435086853
 0.9935789585126547 -0.06081298494097864 0.005244812642117558 0.025533140037545476 -0.0011863139229085053 -0.007632006861657999 0.0013942103355622708 0.011950918578609485
 0.0013510659318098155 0.011956536112384456 -0.0011863139229085053 -0.007632006861657999 0.005251672870224269 0.025533877589113213 0.9935790063545161 -0.06081173832938288
 -0.0011860276269628999 -0.007632017435086853 0.0013942103355622708 0.011950918578609485 0.9935790063545161 -0.06081173832938288 0.005245111680203593 0.025534368910584967
0.100041684035 0.005631503760550878 0.027367906222943796 0.9930774280341697 -0.06497496071728205 0.0015052634221945308 0.012756181709935166 -0.0013200855872339417 -0.008145398446827518
 0.9930774280341697 -0.06497496071728205 0.0056234698642421525 0.027368514465857353 -0.0013204103128507093 -0.008145384341818938 0.0015543784473677884 0.012749637614364066
 0.0015052634221945308 0.012756181709935166 -0.0013204103128507093 -0.008145384341818938 0.0056312739036142095 0.02736927323100727 0.9930774820905978 -0.06497363164163651
 -0.0013200855872339417 -0.008145398446827518 0.0015543784473677884 0.012749637614364066 0.9930774820905978 -0.06497363164163651 0.005623809995469093 0.027369823530523828
0.1059090909091 0.0060041128443073626 0.02910353346429693 0.992585485204096 -0.068892403369788 0.0016580905610082699 0.013506271851324149 -0.0014529894864943728 -0.008627025874639755
 0.992585485204096 -0.068892403369788 0.005995109623194276 0.029104208566024792 -0.0014533523721563571 -0.008627008006854307 0.001713163497207723 0.013498769570282124
 0.0016580905610082699 0.013506271851324149 -0.0014533523721563571 -0.008627008006854307 0.006003854832531411 0.029104983380511262 0.9925855454260828 -0.06889099699454432
 -0.0014529894864943728 -0.008627025874639755 0.001713163497207723 0.013498769570282124 0.9925855454260828 -0.06889099699454432 0.005995490746557884 0.02910559261413268
0.1062942892872 0.006029135051058949 0.02921792605689491 0.9925524614011796 -0.06914998371063445 0.0016684004921866634 0.013555503092360352 -0.0014619567933302254 -0.008658637993804086
 0.9925524614011796 -0.06914998371063445 0.006020066254574313 0.029218605697962034 -0.0014623222548862393 -0.008658619863284093 0.0017238766049870757 0.013547934793068702
 0.0016684004921866634 0.013555503092360352 -0.0014623222548862393 -0.008658619863284093 0.006028875133824503 0.029219381432874673 0.9925525220391364 -0.06914857226322907
 -0.0014619567933302254 -0.008658637993804086 0.0017238766049870757 0.013547934793068702 0.9925525220391364 -0.06914857226322907 0.006020450151424834 0.02921999465969308
0.11254689453939999 0.00644505449086436 0.03108238479866641 0.9920037781257152 -0.07333786304852728 0.0018405460211401452 0.014354369443694514 -0.001611712180334357 -0.009171603842715781
 0.9920037781257152 -0.07333786304852728 0.006434887816792964 0.03108314077196951 -0.001612120665194085 -0.00917158116815807 0.0019027741248035471 0.014345673999191308
 0.0018405460211401452 0.014354369443694514 -0.001612120665194085 -0.00917158116815807 0.0064447626618933706 0.031083929083939463 0.9920038457091228 -0.07333636933001593
 -0.001611712180334357 -0.009171603842715781 0.0019027741248035471 0.014345673999191308 0.9920038457091228 -0.07333636933001593 0.006435318156274188 0.031084609313995863
0.11879949979160001 0.006879546130925808 0.03296100843927643 0.9914310992533724 -0.07753839780856851 0.0020217667130213324 0.01515264711639503 -0.001769420420153371 -0.009684161454328294
 0.9914310992533724 -0.07753839780856851 0.0068682184931699196 0.032961845859996196 -0.0017698741967788105 -0.009684133692655786 0.002091138082281189 0.015142716233284928
 0.0020217667130213324 0.01515264711639503 -0.0017698741967788105 -0.009684133692655786 0.0068792205405863865 0.03296264221339385 0.9914311741442291 -0.0775368219181068
 -0.001769420420153371 -0.009684161454328294 0.002091138082281189 0.015142716233284928 0.9914311741442291 -0.0775368219181068 0.006868697956809922 0.03296339365282638
0.1250521050438 0.007332891870242366 0.034853521357948176 0.990834147517435 -0.08175137774028404 0.0022121270117378363 0.015950199701503378 -0.0019351478432069352 -0.010196173965916983
 0.990834147517435 -0.08175137774028404 0.0073203400615428705 0.0348544455269131 -0.001935649161149748 -0.010196140549568215 0.002289033224625761 0.01593891968307187
 0.0022121270117378363 0.015950199701503378 -0.001935649161149748 -0.010196140549568215 0.007332530670806718 0.03485524523020117 0.9908342300745262 -0.08174971978396237
 -0.0019351478432069352 -0.010196173965916983 0.002289033224625761 0.01593891968307187 0.9908342300745262 -0.08174971978396237 0.007320871334763957 0.0348560722193797
0.131304710296 0.007805371346811479 0.036759645712039185 0.9902126474879966 -0.08597658386141747 0.002411689017065219 0.016746888095384833 -0.002108958358971935 -0.010707502182385266
 0.9902126474879966 -0.08597658386141747 0.007791532026378558 0.03676066212086623 -0.0021095094488068327 -0.010707462519359664 0.0024965218841500924 0.016734139791219283
 0.002411689017065219 0.016746888095384833 -0.0021095094488068327 -0.010707462519359664 0.007804972693416159 0.036761460326037027 0.9902127380673396 -0.08597484394786498
 -0.002108958358971935 -0.010707502182385266 0.0024965218841500924 0.016734139791219283 0.9902127380673396 -0.08597484394786498 0.007792117798762107 0.036762367344054483
0.1375573155481 0.008188559430021329 0.03843107158421881 0.9896750715711137 -0.08996563759638188 0.002594700495959726 0.017517777394295206 -0.002265004565524329 -0.011193296497646289
 0.9896750715711137 -0.08996563759638188 0.008173365336574668 0.03843216520911615 -0.00226560887129665 -0.011193250549765495 0.0026876540959660613 0.017503579789328923
 0.002594700495959726 0.017517777394295206 -0.00226560887129665 -0.011193250549765495 0.008188122291856649 0.03843297730775075 0.9896751705301828 -0.08996381584577293
 -0.002265004565524329 -0.011193296497646289 0.0026876540959660613 0.017503579789328923 0.9896751705301828 -0.08996381584577293 0.008174007489429126 0.038433948907917806
0.1438099208003 0.008585231883692953 0.04009379578545153 0.9891186134369193 -0.09394467376315042 0.0027850823881561968 0.018285635416707562 -0.00242728883819119 -0.011676254565778064
 0.9891186134369193 -0.09394467376315042 0.00856861892072762 0.04009497093031461 -0.0024279487816366097 -0.01167620174761955 0.002886513127089 0.01826987960593966
 0.0027850823881561968 0.018285635416707562 -0.0024279487816366097 -0.01167620174761955 0.00858475456829488 0.04009579326451699 0.9891187211270227 -0.09394277029182121
 -0.00242728883819119 -0.011676254565778064 0.002886513127089 0.01826987960593966 0.9891187211270227 -0.09394277029182121 0.008569320004688134 0.040096832773431734
0.1500625260525 0.008995250894369465 0.04174768200013749 0.9885434150062846 -0.09791359618168094 0.002982768993565114 0.01905038710067578 -0.0025957461679030486 -0.012156303330203348
 0.9885434150062846 -0.09791359618168094 0.008977154820562754 0.0417489432211018 -0.002596464167107175 -0.012156243032598053 0.0030930312102079526 0.019032960201935283
 0.002982768993565114 0.01905038710067578 -0.002596464167107175 -0.012156243032598053 0.00899473172174343 0.041749771903909536 0.988543531775985 -0.0979116111127459
 -0.0025957461679030486 -0.012156303330203348 0.0030930312102079526 0.019032960201935283 0.988543531775985 -0.0979116111127459 0.008977917381108001 0.041750882863145794
0.15631513130469998 0.009418477691220832 0.04339259802759263 0.9879496189011827 -0.10187230896067852 0.003187693844529725 0.01981195866329509 -0.0027703107514216326 -0.012633371270969123
