! Created with skrf 1.8.0 (http://scikit-rf.org).
# GHz S RI R 50.0 
!freq ReS11 ImS11 ReS12 ImS12 ReS13 ImS13
! ReS14 ImS14
! ReS21 ImS21 ReS22 ImS22 ReS23 ImS23
! ReS24 ImS24
! ReS31 ImS31 ReS32 ImS32 ReS33 ImS33
! ReS34 ImS34
! ReS41 ImS41 ReS42 ImS42 ReS43 ImS43
! ReS44 ImS44
!
0.0 0.001206838431841 0.0 0.9987931615681 0.0 4.620361309588e-05 0.0 -4.620361219688e-05 5.65831057859547e-21
 0.9987931615681 0.0 0.001206838431829 0.0 -4.620361219708e-05 5.658310578619963e-21 4.620361309662e-05 0.0
 4.620361309588e-05 0.0 -4.620361219708e-05 5.658310578619963e-21 0.00120683842065 0.0 0.9987931615569 0.0
 -4.620361219688e-05 5.65831057859547e-21 4.620361309662e-05 0.0 0.9987931615569 0.0 0.001206838420627 0.0
0.005 0.0012977323422302097 0.000983733950382341 0.9986782843148927 -0.0025291979536753973 6.485412939986222e-05 0.0005339917691543222 -6.295670832105764e-05 -0.00033096550171900083
 0.9986782843148927 -0.0025291979536753973 0.0012977221470173664 0.0009837398714270533 -6.295443504202902e-05 -0.0003309637376113238 6.492276165271235e-05 0.0005339656689546977
 6.485412939986222e-05 0.0005339917691543222 -6.295443504202902e-05 -0.0003309637376113238 0.0012977332513001134 0.0009836661457136562 0.9986782839782745 -0.002529265006907239
 -6.295670832105764e-05 -0.00033096550171900083 6.492276165271235e-05 0.0005339656689546977 0.9986782839782745 -0.002529265006907239 0.001297720568694578 0.0009836735731510431
0.006252605252188 0.0013213471625335344 0.0012335881471279525 0.9986482874495921 -0.0031621529626661778 7.004182425144061e-05 0.0006677522664397845 -6.758369213328606e-05 -0.0004141540295789209
 0.9986482874495921 -0.0031621529626661778 0.0013213312260011083 0.0012335956863644198 -6.75801547972613e-05 -0.0004141518530982028 7.014905759690829e-05 0.0006677184106818362
 7.004182425144061e-05 0.0006677522664397845 -6.75801547972613e-05 -0.0004141518530982028 0.001321348670163777 0.001233503386062825 0.9986482870095755 -0.003162236783211914
 -6.758369213328606e-05 -0.0004141540295789209 7.014905759690829e-05 0.0006677184106818362 0.9986482870095755 -0.003162236783211914 0.0013213288447355 0.0012335128142089754
0.01250521050438 0.0014443568851300241 0.0024935041536521545 0.9984911790508605 -0.006325327445015906 9.904964743616164e-05 0.001335873428556266 -9.328348288715929e-05 -0.0008304864526992033
 0.9984911790508605 -0.006325327445015906 0.001444293255533572 0.002493520606669043 -9.326954294484364e-05 -0.0008304824083694523 9.947730617733327e-05 0.0013357926314406458
 9.904964743616164e-05 0.001335873428556266 -9.326954294484364e-05 -0.0008304824083694523 0.001444363469843033 0.0024933348557239473 0.9984911778524337 -0.006325494852930064
 -9.328348288715929e-05 -0.0008304864526992033 9.947730617733327e-05 0.0013357926314406458 0.9984911778524337 -0.006325494852930064 0.001444284302499347 0.002493355162353595
0.01875781575657 0.0015760887605487702 0.0037718373181278987 0.9983216751002697 -0.009497273618362067 0.00013328671371638456 0.002004869764587974 -0.00012337196406824228 -0.0012483927468815766
 0.9983216751002697 -0.009497273618362067 0.001575945792019779 0.003771864114449471 -0.0001233408768683371 -0.0012483871898501932 0.0001342474939833448 0.002004726816511697
 0.00013328671371638456 0.002004869764587974 -0.0001233408768683371 -0.0012483871898501932 0.001576103985009261 0.0037715835698069085 0.9983216728227463 -0.009497524520972071
 -0.00012337196406824228 -0.0012483927468815766 0.0001342474939833448 0.002004726816511697 0.9983216728227463 -0.009497524520972071 0.0015759260848065258 0.003771616312823634
0.02501042100875 0.001716759854925584 0.005066837037735707 0.9981396094054052 -0.012679576333347079 0.00017281319277428475 0.0026748077304241846 -0.00015791651935812763 -0.001667705209146842
 0.9981396094054052 -0.012679576333347079 0.0017165059734023966 0.0050668756516672915 -0.00015786161949305592 -0.001667698548078814 0.00017451994701654847 0.0026745853950973205
 0.00017281319277428475 0.0026748077304241846 -0.00015786161949305592 -0.001667698548078814 0.0017167872862243337 0.00506649887216606 0.9981396057316166 -0.01267991069599909
 -0.00015791651935812763 -0.001667705209146842 0.00017451994701654847 0.0026745853950973205 0.9981396057316166 -0.01267991069599909 0.0017164713381749006 0.00506654570332448
0.03126302626094 0.001866577906944697 0.006377625918310943 0.997944805742497 -0.015872941976990844 0.00021768989225228033 0.0033456901078311634 -0.00019698298072869504 -0.002088316861065436
 0.997944805742497 -0.015872941976990844 0.0018661815941486495 0.006377677866605847 -0.00019689766800394979 -0.0020883095590710707 0.00022035583908809833 0.0033453691124347173
 0.00021768989225228033 0.0033456901078311634 -0.00019689766800394979 -0.0020883095590710707 0.0018666211119493176 0.006377203346797971 0.9979448003516609 -0.015873359791743362
 -0.00019698298072869504 -0.002088316861065436 0.00022035583908809833 0.0033453691124347173 0.9979448003516609 -0.015873359791743362 0.0018661278576022644 0.006377266009360233
0.037515631513130004 0.0020257463260748747 0.00770364966917992 0.9977370829467419 -0.01907774853287651 0.0002679777151379323 0.0040174950848635045 -0.00024063615897144158 -0.0025101423636508776
 0.9977370829467419 -0.01907774853287651 0.002025176108936901 0.007703716509606281 -0.0002405138911073038 -0.002510134938619425 0.0002718165402981018 0.0040170540993415115
 0.0002679777151379323 0.0040174950848635045 -0.0002405138911073038 -0.002510134938619425 0.00202580887757591 0.007703142701505335 0.9977370755191071 -0.0190782497982005
 -0.00024063615897144158 -0.0025101423636508776 0.0002718165402981018 0.0040170540993415115 0.9977370755191071 -0.0190782497982005 0.002025099103139296 0.007703223029121447
0.043768236765320004 0.0021944661337008962 0.009044509750553285 0.9975162569446044 -0.022294212883852995 0.00032373741812973943 0.004690188139498619 -0.00028894004314111276 -0.0029331061236539716
 0.9975162569446044 -0.022294212883852995 0.0021936905766952552 0.009044593080632697 -0.0002887743313900719 -0.0029330991483868768 0.0003289633289602291 0.0046896037525003135
 0.00032373741812973943 0.004690188139498619 -0.0002887743313900719 -0.0029330991483868768 0.0021945516076700726 0.009043918376280673 0.997516247158289 -0.022294797623231645
 -0.00028894004314111276 -0.0029331061236539716 0.0003289633289602291 0.0046896037525003135 0.997516247158289 -0.022294797623231645 0.0021935861352153064 0.009044018292416552
0.050020842017509996 0.0023729368716840383 0.010399894164422947 0.9972821417545077 -0.025522459969505678 0.0003850294711211943 0.005363726948558262 -0.0003419578877113733 -0.0033571373735939063
 0.9972821417545077 -0.025522459969505678 0.002371924569802694 0.010399995620464102 -0.0003417422939427987 -0.0033571314758765263 0.00039185722644782616 0.005362973641946477
 0.0003850294711211943 0.005363726948558262 -0.0003417422939427987 -0.0033571314758765263 0.002373048847769922 0.010399218368652253 0.9972821292843387 -0.025523128215471844
 -0.0003419578877113733 -0.0033571373735939063 0.00039185722644782616 0.005362973641946477 0.9972821292843387 -0.025523128215471844 0.00237178852795152 0.010399339886295248
0.055454545454549996 0.0025361065175823912 0.01158935741653408 0.997067750662163 -0.02833752655789417 0.00044283374753831874 0.005949702479738095 -0.0003919089122858489 -0.0037264471942461217
 0.997067750662163 -0.02833752655789417 0.002534862991809069 0.011589475982973513 -0.00039164477877865237 -0.003726442785535235 0.00045122840474992956 0.0059487799970674
 0.00044283374753831874 0.005949702479738095 -0.00039164477877865237 -0.003726442785535235 0.0025362444363492085 0.011588608237699489 0.997067735594658 -0.028338267409650487
 -0.0003919089122858489 -0.0037264471942461217 0.00045122840474992956 0.0059487799970674 0.997067735594658 -0.028338267409650487 0.002534696108676252 0.011588750231929805
0.056273447269699996 0.0025613570829809682 0.01176954350893006 0.9970345500603568 -0.028762556679693036 0.0004519139652241923 0.006038063783577385 -0.00039975224533295026 -0.0037821677651335346
 0.9970345500603568 -0.028762556679693036 0.0025600766558425063 0.011769664765204881 -0.00039948038002375565 -0.0037821636277887948 0.0004605588907960996 0.006037113906215077
 0.0004519139652241923 0.006038063783577385 -0.00039948038002375565 -0.0037821636277887948 0.002561499146336085 0.011768783269220932 0.9970345345797333 -0.028763308476795563
 -0.00039975224533295026 -0.0037821677651335346 0.0004605588907960996 0.006037113906215077 0.9970345345797333 -0.028763308476795563 0.0025599048521402486 0.011768928490736689
0.06252605252188 0.0027599245812000854 0.013153232318533692 0.9967732935761148 -0.032014530462847704 0.0005244505394585962 0.006713146831959746 -0.00046238497767509207 -0.0042081300379949345
 0.9967732935761148 -0.032014530462847704 0.0027583446674311223 0.013153375086523473 -0.0004620504984962267 -0.004208128398896503 0.0005351285337041813 0.006711970573092959
 0.0005244505394585962 0.006713146831959746 -0.0004620504984962267 -0.004208128398896503 0.002760100322511999 0.013152387599464242 0.9967732747560564 -0.03201536587285614
 -0.00046238497767509207 -0.0042081300379949345 0.0005351285337041813 0.006711970573092959 0.9967732747560564 -0.03201536587285614 0.0027581329433737675 0.013152558716576605
0.06877865777407 0.0029688366071836227 0.014550757918901284 0.996498183299192 -0.03527838042009053 0.0006026983230285515 0.007388920979031426 -0.0005299172483132826 -0.004634957229003702
 0.996498183299192 -0.03527838042009053 0.002966925858611619 0.014550923946671445 -0.0005295138590186958 -0.0046349588810992454 0.0006156258560873105 0.00738748634149878
 0.0006026983230285515 0.007388920979031426 -0.0005295138590186958 -0.0046349588810992454 0.0029690496225359838 0.014549828682262091 0.9964981608075552 -0.03527929951162176
 -0.0005299172483132826 -0.004634957229003702 0.0006156258560873105 0.00738748634149878 0.9964981608075552 -0.03527929951162176 0.0029666700590104717 0.01455002797620985
0.07503126302626001 0.0031882899194953457 0.015961933379597115 0.9962090296991366 -0.03855408430274939 0.0006867158827657974 0.008065328303568512 -0.0006024095084696568 -0.005062582168934934
 0.9962090296991366 -0.03855408430274939 0.003186016996262097 0.015962124451308454 -0.0006019309581619379 -0.005062587960250653 0.0007021099906677641 0.008063601076913379
 0.0006867158827657974 0.008065328303568512 -0.0006019309581619379 -0.005062587960250653 0.0031885438107418273 0.015960919578433996 0.9962090032005825 -0.03855508715700379
 -0.0006024095084696568 -0.005062582168934934 0.0007021099906677641 0.008063601076913379 0.9962090032005825 -0.03855508715700379 0.0031857129693977117 0.015961149420209278
0.08128386827845 0.0034184808421638072 0.01738658281812551 0.9959056428655939 -0.041841603159686755 0.0007765611758829106 0.00874230840501805 -0.0006799214760422497 -0.005490937149013547
 0.9959056428655939 -0.041841603159686755 0.003415814407247885 0.01738680075366989 -0.0006793615585803719 -0.005490947982654299 0.0007946394509184042 0.008740252138577194
 0.0007765611758829106 0.00874230840501805 -0.0006793615585803719 -0.005490947982654299 0.003418779217500952 0.017385484396929204 0.9959056120216206 -0.04184268987000436
 -0.0006799214760422497 -0.005490937149013547 0.0007946394509184042 0.008740252138577194 0.9959056120216206 -0.04184268987000436 0.0034154580057937237 0.01738574724767607
0.08753647353064001 0.003659605285691501 0.01882453814164356 0.9955878326318266 -0.04514088454826739 0.0008722915053561291 0.009419798630661978 -0.0007625121106274139 -0.0059199536889135065
 0.9955878326318266 -0.04514088454826739 0.0036565139997287656 0.018824784796352998 -0.0007618646642164604 -0.005919970523066119 0.0008932720834272776 0.009417374606705466
 0.0008722915053561291 0.009419798630661978 -0.0007618646642164604 -0.005919970523066119 0.003659951759364047 0.018823355036395036 0.9955877970996021 -0.045142055219840146
 -0.0007625121106274139 -0.0059199536889135065 0.0008932720834272776 0.009417374606705466 0.9955877970996021 -0.045142055219840146 0.0036561010806999486 0.018823653447917994
0.09378907878283 0.003911858749330345 0.02027563673218303 0.9952554086798812 -0.048451864803419314 0.0009739634768632719 0.010097734236122006 -0.0008502395858020595 -0.006349562372952898
 0.9952554086798812 -0.048451864803419314 0.003908311265431147 0.02027591399668891 -0.0008494984927196038 -0.0063495862208688605 0.00099806502235195 0.010094901443067851
 0.0009739634768632719 0.010097734236122006 -0.0008494984927196038 -0.0063495862208688605 0.003912256942124051 0.02027436887333965 0.995255368112625 -0.04845311955004778
 -0.0008502395858020595 -0.006349562372952898 0.00099806502235195 0.010094901443067851 0.995255368112625 -0.04845311955004778 0.003907837690822313 0.020274705488734772
0.100041684035 0.004175436309393268 0.021739719739674312 0.9949081806355328 -0.05177447070041785 0.001081632957359919 0.010776048500938848 -0.0009431612586077727 -0.006779692732792744
 0.9949081806355328 -0.05177447070041785 0.004171401267911713 0.02174002953997088 -0.0009423204449433948 -0.006779724662781509 0.0011090746461411623 0.010772763606687698
 0.001081632957359919 0.010776048500938848 -0.0009423204449433948 -0.006779724662781509 0.0041758898486297475 0.02173836704575256 0.9949081346818607 -0.051775809650692915
 -0.0009431612586077727 -0.006779692732792744 0.0011090746461411623 0.010772763606687698 0.9949081346818607 -0.051775809650692915 0.004170862905524711 0.02173874460011434
0.1059090909091 0.004433248417943821 0.023125276218687506 0.994568710227792 -0.05490288479444441 0.0011881730939714266 0.011412857797690754 -0.0010351328078534376 -0.007183735132542155
 0.994568710227792 -0.05490288479444441 0.004428727318266382 0.023125618333521367 -0.0010341929318536595 -0.007183775667337861 0.0012189489297877458 0.011409107153951333
 0.0011881730939714266 0.011412857797690754 -0.0010341929318536595 -0.007183775667337861 0.0044337571992840216 0.023123843836664822 0.9945686588957982 -0.054904302885298156
 -0.0010351328078534376 -0.007183735132542155 0.0012189489297877458 0.011409107153951333 0.9945686588957982 -0.054904302885298156 0.004428124406698515 0.023124262378264183
0.1062942892872 0.004450532598552833 0.023216630791983335 0.9945459581540705 -0.05510862070236263 0.001195355033338678 0.011454672825190118 -0.001041333638512216 -0.007210273150761018
 0.9945459581540705 -0.05510862070236263 0.004445978621942012 0.023216975089418578 -0.0010403870741352785 -0.007210314286164383 0.001226356533626407 0.011450890150600985
 0.001195355033338678 0.011454672825190118 -0.0010403870741352785 -0.007210314286164383 0.004451045118647696 0.02321519317585325 0.9945459064580479 -0.055110043992974096
 -0.001041333638512216 -0.007210273150761018 0.001226356533626407 0.011450890150600985 0.9945459064580479 -0.055110043992974096 0.004445371345746788 0.023215614497256943
0.11254689453939999 0.0047373417768107945 0.024706215021375127 0.9941685510010653 -0.05845422589297309 0.0013151839710185652 0.012133536790287376 -0.0011448123533185006 -0.0076412308006760295
 0.9941685510010653 -0.05845422589297309 0.004732237464267949 0.024706595813005553 -0.0011437540517961926 -0.007641282319847154 0.001349965422903252 0.01212920828283568
 0.0013151839710185652 0.012133536790287376 -0.0011437540517961926 -0.007641282319847154 0.004737916918999942 0.024704692385395122 0.9941684932012047 -0.05845573367336212
 -0.0011448123533185006 -0.0076412308006760295 0.001349965422903252 0.01212920828283568 0.9941684932012047 -0.05845573367336212 0.004731557154788772 0.024705160395845593
0.11879949979160001 0.0050360574973868175 0.026208318286656568 0.9937757691286262 -0.06181119071561912 0.0014411731755267364 0.012812568218496452 -0.0012536521152763372 -0.00807249159174942
 0.9937757691286262 -0.06181119071561912 0.005030371419483879 0.026208737605603334 -0.0012524761338672738 -0.008072554728019755 0.0014799551690597335 0.012807643426093062
 0.0014411731755267364 0.012812568218496452 -0.0012524761338672738 -0.008072554728019755 0.005036698910114702 0.026206710525507076 0.9937757048580915 -0.061812783144819396
 -0.0012536521152763372 -0.00807249159174942 0.0014799551690597335 0.012807643426093062 0.9937757048580915 -0.061812783144819396 0.005029613964699894 0.026207228242110206
0.1250521050438 0.005346872867112091 0.027722786570587882 0.9933674227484707 -0.06517941353894517 0.0015733751509974477 0.013491693214198491 -0.0013679066853935723 -0.00850398013249255
 0.9933674227484707 -0.06517941353894517 0.005340573560492349 0.027723246486616653 -0.0013666071251098293 -0.008504056174139204 0.0016163787030419353 0.013486119259277332
 0.0015733751509974477 0.013491693214198491 -0.0013666071251098293 -0.008504056174139204 0.005347584206151439 0.027721093568062623 0.9933673516347361 -0.06518109078848612
 -0.0013679066853935723 -0.00850398013249255 0.0016163787030419353 0.013486119259277332 0.9933673516347361 -0.06518109078848612 0.0053397348563916 0.02772166410434036
0.131304710296 0.005669980403888239 0.029249465485067797 0.9929433224037862 -0.06855878711679549 0.0017118414601102034 0.01417083620386282 -0.0014876288376218826 -0.008935619697854568
 0.9929433224037862 -0.06855878711679549 0.005663036365780519 0.02924996810523363 -0.0014861998433354237 -0.00893570998805076 0.001759287989910768 0.014164557757653953
 0.0017118414601102034 0.01417083620386282 -0.0014861998433354237 -0.00893570998805076 0.005670765332392543 0.029247687117451328 0.9929432440677065 -0.0685605493668735
 -0.0014876288376218826 -0.008935619697854568 0.001759287989910768 0.014164557757653953 0.9929432440677065 -0.0685605493668735 0.005662112316809803 0.029248313684815126
0.1375573155481 0.0059243419709927424 0.030587418343128947 0.9925845308816041 -0.07174835386174157 0.0018368182376957527 0.014828685280154337 -0.0015930130381461452 -0.00934614384087413
 0.9925845308816041 -0.07174835386174157 0.005916718611407643 0.03058795235181717 -0.0015914459788291 -0.009346248217513517 0.00188881828164962 0.014821719928305024
 0.0018368182376957527 0.014828685280154337 -0.0015914459788291 -0.009346248217513517 0.005925203580040123 0.030585554418431155 0.9925844449970348 -0.07175020121326578
 -0.0015930130381461452 -0.00934614384087413 0.00188881828164962 0.014821719928305024 0.9925844449970348 -0.07175020121326578 0.005915705601807735 0.03058622681020294
0.1438099208003 0.0061873799245649366 0.031919448278106756 0.992213611243317 -0.07493100261669414 0.00196683520979863 0.015484671658825031 -0.001702633514813278 -0.009754944434410336
 0.992213611243317 -0.07493100261669414 0.006179045193731593 0.03192001484548301 -0.0017009220978457516 -0.009755064191228449 0.002023590663264863 0.015476969658541864
 0.00196683520979863 0.015484671658825031 -0.0017009220978457516 -0.009755064191228449 0.006188321784279973 0.03191749867272848 0.992213517433153 -0.07493293524805186
 -0.001702633514813278 -0.009754944434410336 0.002023590663264863 0.015476969658541864 0.992213517433153 -0.07493293524805186 0.006177939227253458 0.03191821919407398
0.1500625260525 0.0064590158656903365 0.03324547815664818 0.9918306447609821 -0.0781066895462415 0.0021018560063764914 0.016138754510550017 -0.0018164544528796944 -0.010161980924618222
 0.9918306447609821 -0.0781066895462415 0.006449937652094651 0.033246078528560555 -0.001814592394024468 -0.010162117406798675 0.0021635678529943352 0.016130264326111643
 0.0021018560063764914 0.016138754510550017 -0.001814592394024468 -0.010162117406798675 0.0064600415464440035 0.0332434427434671 0.991830542642775 -0.07810870764191222
 -0.0018164544528796944 -0.010161980924618222 0.0021635678529943352 0.016130264326111643 0.991830542642775 -0.07810870764191222 0.006448734746417545 0.03324421382038259
0.15631513130469998 0.006739170998888432 0.034565433388400374 0.9914357129439016 -0.08127537031840232 0.002241843927770419 0.01679089355219333 -0.0019344396878555753 -0.010567213522079098
