! Created with skrf 1.8.0 (http://scikit-rf.org).
# GHz S RI R 50.0 
!freq ReS11 ImS11 ReS12 ImS12 ReS13 ImS13
! ReS14 ImS14
! ReS21 ImS21 ReS22 ImS22 ReS23 ImS23
! ReS24 ImS24
! ReS31 ImS31 ReS32 ImS32 ReS33 ImS33
! ReS34 ImS34
! ReS41 ImS41 ReS42 ImS42 ReS43 ImS43
! ReS44 ImS44
!
0.0 0.001966065268429 0.0 0.9980339347264 0.0 7.673216049474e-05 0.0 -7.673216060546e-05 9.396979487713722e-21
 0.9980339347264 0.0 0.001966065268411 0.0 -7.673216060478e-05 9.396979487630446e-21 7.67321604935e-05 0.0
 7.673216049474e-05 0.0 -7.673216060478e-05 9.396979487630446e-21 0.001966065263875 0.0 0.9980339347219 0.0
 -7.673216060546e-05 9.396979487713722e-21 7.67321604935e-05 0.0 0.9980339347219 0.0 0.001966065263897 0.0
0.005 0.002116913282973059 0.001603313194227346 0.9978428175196675 -0.004116962254667278 0.00010896053952792322 0.0008674731221586596 -0.00010558875855470872 -0.0005403462097188193
 0.9978428175196675 -0.004116962254667278 0.002116905848508331 0.0016033175142045367 -0.00010558616604346259 -0.000540344178368123 0.00010901142039089038 0.0008674536264950799
 0.00010896053952792322 0.0008674731221586596 -0.00010558616604346259 -0.000540344178368123 0.0021169144301886166 0.0016032451784100275 0.9978428171227682 -0.004117029318463638
 -0.00010558875855470872 -0.0005403462097188193 0.00010901142039089038 0.0008674536264950799 0.9978428171227682 -0.004117029318463638 0.0021169039119154492 0.00160325140426555
0.006252605252188 0.002156943202705096 0.002010400184354833 0.9977917102586966 -0.005147135701387343 0.00011842032759159511 0.0010847209377941398 -0.00011395915626639994 -0.0006761072234581775
 0.9977917102586966 -0.005147135701387343 0.002156931581798449 0.002010405703621723 -0.0001139551224871747 -0.0006761047193597015 0.00011849982147010191 0.0010846956054919202
 0.00011842032759159511 0.0010847209377941398 -0.0001139551224871747 -0.0006761047193597015 0.0021569450781431148 0.0020103151607454945 0.9977917097198628 -0.0051472195293683215
 -0.00011395915626639994 -0.0006761072234581775 0.00011849982147010191 0.0010846956054919202 0.9977917097198628 -0.0051472195293683215 0.0021569286357522445 0.002010323075924455
0.01250521050438 0.002370386673407024 0.004062342498219604 0.9975170772005212 -0.010294511935569356 0.0001740022252364597 0.0021695011814202247 -0.00016264796056840295 -0.0013551908050726525
 0.9975170772005212 -0.010294511935569356 0.0023703402772471864 0.004062354733211002 -0.00016263206908073946 -0.0013551861886717813 0.00017431916036860233 0.002169439944603735
 0.0001740022252364597 0.0021695011814202247 -0.00016263206908073946 -0.0013551861886717813 0.0023703947191065595 0.004062172650638223 0.9975170755967285 -0.010294679325331547
 -0.00016264796056840295 -0.0013551908050726525 0.00017431916036860233 0.002169439944603735 0.9975170755967285 -0.010294679325331547 0.002370329055674055 0.004062189850380225
0.01875781575657 0.002606956002710502 0.006142760666195271 0.9972096280057109 -0.01545453949053784 0.00024362059127609216 0.003255011368768678 -0.00022296784660453715 -0.0020361646934599718
 0.9972096280057109 -0.01545453949053784 0.002606851759449862 0.006142780875836434 -0.0002229324167242042 -0.002036158448535431 0.0002443323779311517 0.003254901165258778
 0.00024362059127609216 0.003255011368768678 -0.0002229324167242042 -0.002036158448535431 0.0026069745229597954 0.0061425059780463795 0.9972096248248531 -0.015454790359385403
 -0.00022296784660453715 -0.0020361646934599718 0.0002443323779311517 0.003254901165258778 0.9972096248248531 -0.015454790359385403 0.002606826957133067 0.006142534000453098
0.02501042100875 0.002867188668243658 0.00824860592217762 0.9968689368761484 -0.020629590039474507 0.000327418900132708 0.004341218864755799 -0.0002950800058231749 -0.0027186341159872044
 0.9968689368761484 -0.020629590039474507 0.00286700355740477 0.008248635421415622 -0.00029501745298529566 -0.002718626825910308 0.00032868286473622106 0.004341044214231968
 0.000327418900132708 0.004341218864755799 -0.00029501745298529566 -0.002718626825910308 0.0028672219653708437 0.008248266312803397 0.9968689316025368 -0.020629924338246574
 -0.0002950800058231749 -0.0027186341159872044 0.00032868286473622106 0.004341044214231968 0.9968689316025368 -0.020629924338246574 0.002866959870404348 0.008248306854385446
0.03126302626094 0.003151599233718433 0.010378243743091405 0.9964945603162654 -0.02582059943602778 0.0004255394831931717 0.005427986231428865 -0.0003791391618581907 -0.003402297273876042
 0.9964945603162654 -0.02582059943602778 0.0031513102717131846 0.010378283901562492 -0.00037904198202114446 -0.0034022896223632995 0.000427512990317089 0.005427729224335276
 0.0004255394831931717 0.005427986231428865 -0.00037904198202114446 -0.0034022896223632995 0.0031516516138597617 0.01037781909135923 0.9964945524338371 -0.02582101712533211
 -0.0003791391618581907 -0.003402297273876042 0.000427512990317089 0.005427729224335276 0.9964945524338371 -0.02582101712533211 0.0031512424000795765 0.01037787400651122
0.037515631513130004 0.0034606893950114258 0.012530558769930073 0.9960860477611829 -0.031027962767752867 0.0005381220494687824 0.0065151334482090205 -0.00047529467727770047 -0.0040868832234201005
 0.9960860477611829 -0.031027962767752867 0.00346027362465887 0.01253061101118752 -0.0004751554390984303 -0.004086875994679775 0.0005409625414972795 0.006514773726210062
 0.0005381220494687824 0.0065151334482090205 -0.0004751554390984303 -0.004086875994679775 0.0034607651676347778 0.012530048895698566 0.9960860367522631 -0.031028463836220363
 -0.00047529467727770047 -0.0040868832234201005 0.0005409625414972795 0.006514773726210062 0.9960860367522631 -0.031028463836220363 0.0034601762710862356 0.01253012019702986
0.043768236765320004 0.003794951808743793 0.014704682442132107 0.9956429459875753 -0.03625180668414121 0.0006653029486238494 0.007602456859265329 -0.000583690895341755 -0.004772133028807672
 0.9956429459875753 -0.03625180668414121 0.0037943862897470413 0.014704748243597788 -0.000583502235648218 -0.004772127107506287 0.0006691679498075043 0.00760197159354214
 0.0006653029486238494 0.007602456859265329 -0.000583502235648218 -0.004772127107506287 0.003795055288167307 0.014704087130059806 0.995642931333367 -0.03625239112418156
 -0.000583690895341755 -0.004772133028807672 0.0006691679498075043 0.00760197159354214 0.995642931333367 -0.03625239112418156 0.0037942541611778327 0.014704176989688468
0.050020842017509996 0.004154871821344214 0.01689988044856412 0.9951648014295058 -0.04149210191152085 0.0008072146909980011 0.008689737043352014 -0.000704467215192591 -0.005457792000521094
 0.9951648014295058 -0.04149210191152085 0.004154133622180344 0.016899961341593443 -0.0007042218362213431 -0.0054577883716824885 0.0008122617922359618 0.008689100912334198
 0.0008072146909980011 0.008689737043352014 -0.0007042218362213431 -0.0054577883716824885 0.004155007326527093 0.01689919943796733 0.9951647826097392 -0.041492769728877825
 -0.000704467215192591 -0.005457792000521094 0.0008122617922359618 0.008689100912334198 0.9951647826097392 -0.041492769728877825 0.004153961429992795 0.016899310189124172
0.055454545454549996 0.004488862397469317 0.01882417867440823 0.9947204688277378 -0.0460593386732627 0.000942603302199669 0.009634401968241125 -0.0008195841693149253 -0.0060537853221327995
 0.9947204688277378 -0.0460593386732627 0.004487955511476694 0.01882427396843895 -0.0008192836223417941 -0.006053784563333597 0.0009488056994279991 0.009633612213800782
 0.000942603302199669 0.009634401968241125 -0.0008192836223417941 -0.006053784563333597 0.004489029244596616 0.018823422945852954 0.994720445963629 -0.046060078959136525
 -0.0008195841693149253 -0.0060537853221327995 0.0009488056994279991 0.009633612213800782 0.994720445963629 -0.046060078959136525 0.0044877442115002645 0.018823553873824252
0.056273447269699996 0.004540928302407584 0.01911549751012196 0.9946511616054196 -0.046748718445546907 0.0009639855836262196 0.009776742687610402 -0.0008377580452842217 -0.006143605941170872
 0.9946511616054196 -0.046748718445546907 0.004539994492241109 0.01911559508058692 -0.0008374487129093383 -0.006143605690059644 0.0009703724161762583 0.009775927854807905
 0.0009639855836262196 0.009776742687610402 -0.0008374487129093383 -0.006143605690059644 0.004541100156333359 0.019114730498099572 0.9946511380973825 -0.046749469655713735
 -0.0008377580452842217 -0.006143605941170872 0.0009703724161762583 0.009775927854807905 0.9946511380973825 -0.046749469655713735 0.00453977695258187 0.019114864637073344
0.06252605252188 0.00495359403412845 0.021350927038084833 0.9941015761069882 -0.05202145588087634 0.001135739422252782 0.010863232767507397 -0.0009836926980681616 -0.006829319098190527
 0.9941015761069882 -0.05202145588087634 0.004952441675306828 0.021351042927207055 -0.0009833122407136017 -0.0068293234101829275 0.0011436236227999321 0.010862208859953397
 0.001135739422252782 0.010863232767507397 -0.0009833122407136017 -0.0068293234101829275 0.004953806563914536 0.021350073684166568 0.9941015473854516 -0.05202229050383125
 -0.0009836926980681616 -0.006829319098190527 0.0011436236227999321 0.010862208859953397 0.9941015473854516 -0.05202229050383125 0.004952173510261876 0.021350233872669204
0.06877865777407 0.005393335861474753 0.02360559307546949 0.9935155973550763 -0.05731006147254449 0.0013225952167464472 0.011948957863703485 -0.0011423952485253705 -0.007514672993818978
 0.9935155973550763 -0.05731006147254449 0.005391942002035596 0.023605728981068063 -0.0011419365565504156 -0.007514683154242141 0.0013321343870929129 0.011947691951033252
 0.0013225952167464472 0.011948957863703485 -0.0011419365565504156 -0.007514683154242141 0.00539359339747973 0.023604652993262944 0.9935155628909133 -0.057310979540494605
 -0.0011423952485253705 -0.007514672993818978 0.0013321343870929129 0.011947691951033252 0.9935155628909133 -0.057310979540494605 0.0053916179397443705 0.02360484206116549
0.07503126302626001 0.0058606146922376545 0.025878938856646848 0.9928927812110754 -0.06261424159519348 0.001524666936585067 0.01303366103392088 -0.0013139843715285063 -0.008199405714780755
 0.9928927812110754 -0.06261424159519348 0.005858956358197348 0.025879096534754623 -0.001313440396839079 -0.008199423108777434 0.0015360185990058173 0.013032117608392235
 0.001524666936585067 0.01303366103392088 -0.001313440396839079 -0.008199423108777434 0.005860921568460754 0.025877911617375546 0.9928927404722268 -0.0626152431484966
 -0.0013139843715285063 -0.008199405714780755 0.0015360185990058173 0.013032117608392235 0.9928927404722268 -0.0626152431484966 0.005858571135257092 0.025878132565722807
0.08128386827845 0.006355885411498605 0.028170419227594966 0.9922326875083034 -0.0679336693587271 0.0017420632671977074 0.014117078430853552 -0.001498573167855047 -0.008883251471255139
 0.9922326875083034 -0.0679336693587271 0.006353939599794548 0.028170600494415433 -0.0014979369239228706 -0.00888327758360136 0.0017553848159152631 0.01411521938833047
 0.0017420632671977074 0.014117078430853552 -0.0014979369239228706 -0.00888327758360136 0.006356245965111489 0.028169304362514625 0.9922326399586827 -0.06793475444281394
 -0.001498573167855047 -0.008883251471255139 0.0017553848159152631 0.01411521938833047 0.9922326399586827 -0.06793475444281394 0.006353487961537206 0.028169560367001047
0.08753647353064001 0.006879596731810424 0.03047949542792457 0.9915348805237016 -0.0732679898800226 0.001974887376956444 0.015198939756030512 -0.0016962689794784794 -0.00956594033562275
 0.9915348805237016 -0.0732679898800226 0.00687734040284203 0.03047970216228001 -0.0016955335414320421 -0.009565976750561839 0.0019903360270918085 0.015196724378072441
 0.001974887376956444 0.015198939756030512 -0.0016955335414320421 -0.009565976750561839 0.006880015302477141 0.030478292422778865 0.9915348256224963 -0.0732691585503063
 -0.0016962689794784794 -0.00956594033562275 0.0019903360270918085 0.015196724378072441 0.9915348256224963 -0.0732691585503063 0.006876817104472099 0.030478586837537333
0.09378907878283 0.00743219100270418 0.03280563137917504 0.9907989294125101 -0.07861682406702103 0.002223236689527894 0.016278968624625557 -0.001907173200688092 -0.010247198086264014
 0.9907989294125101 -0.07861682406702103 0.007429601072892751 0.03280586552522098 -0.0019063317054792987 -0.010247246487320649 0.002240969423273166 0.016276353561688345
 0.002223236689527894 0.016278968624625557 -0.0019063317054792987 -0.010247246487320649 0.007432671931956576 0.03280433967676796 0.990798866614296 -0.07861807638565955
 -0.001907173200688092 -0.010247198086264014 0.002240969423273166 0.016276353561688345 0.990798866614296 -0.07861807638565955 0.007429000881147827 0.03280467603851761
0.100041684035 0.008014103990001568 0.03514829099968261 0.9900244086177272 -0.08397977139506149 0.002487202661354197 0.017356882865550694 -0.0021313810851579635 -0.010926746132361699
 0.9900244086177272 -0.08397977139506149 0.008011157324667352 0.03514855457010759 -0.002130426732068374 -0.01092680830212833 0.0025073761720487524 0.01735382212150652
 0.002487202661354197 0.017356882865550694 -0.002130426732068374 -0.01092680830212833 0.008014651621555324 0.035146910000567605 0.9900243373718054 -0.08398110742965882
 -0.0021313810851579635 -0.010926746132361699 0.0025073761720487524 0.01735382212150652 0.9900243373718054 -0.08398110742965882 0.008010475019024025 0.0351472920332091
0.1059090909091 0.008587214849740607 0.037361177390556374 0.9892621501962716 -0.08902479064730666 0.002749185950600578 0.01836621161638739 -0.0023539552328886502 -0.011562622922346253
 0.9892621501962716 -0.08902479064730666 0.00858391233342718 0.03736147046739207 -0.0023528888453770735 -0.011562699721893003 0.0027717920743046266 0.01836268844486001
 0.002749185950600578 0.01836621161638739 -0.0023528888453770735 -0.011562699721893003 0.008587829025575413 0.03735971200658311 0.9892620705171615 -0.08902620531265419
 -0.0023539552328886502 -0.011562622922346253 0.0027717920743046266 0.01836268844486001 0.9892620705171615 -0.08902620531265419 0.008583148236780152 0.037360140454435004
0.1062942892872 0.00862576463442681 0.03750693620591175 0.9892108982598665 -0.08935641201647257 0.0027668705639902406 0.018432394782195393 -0.0023689815508473842 -0.011604301494613922
 0.9892108982598665 -0.08935641201647257 0.008622438040604113 0.03750723128557634 -0.002367907601920227 -0.011604379314534554 0.0027896411982181804 0.018428839700119912
 0.0027668705639902406 0.018432394782195393 -0.002367907601920227 -0.011604379314534554 0.00862638331283043 0.03750546526057297 0.989210818009885 -0.08935783184712558
 -0.0023689815508473842 -0.011604301494613922 0.0027896411982181804 0.018428839700119912 0.989210818009885 -0.08935783184712558 0.008621668414353426 0.037505896880138376
0.11254689453939999 0.009267594792375667 0.03988102540351374 0.9883579845127372 -0.09474630840022304 0.003062319269370363 0.01950521138915334 -0.002620056984453666 -0.012279576826681066
 0.9883579845127372 -0.09474630840022304 0.009263865011490877 0.03988135415344353 -0.002618856764993621 -0.012279672276844294 0.0030878429674243853 0.01950111063840995
 0.003062319269370363 0.01950521138915334 -0.002618856764993621 -0.012279672276844294 0.00926828886289739 0.039879463822532865 0.9883578946961189 -0.09474781210873699
 -0.002620056984453666 -0.012279576826681066 0.0030878429674243853 0.01950111063840995 0.9883578946961189 -0.09474781210873699 0.009263002873371588 0.039879949142486944
0.11879949979160001 0.009940008965810205 0.0422700123594007 0.9874652599689437 -0.10014900661093251 0.0033736210394805202 0.020575034633358563 -0.002884683045372833 -0.012952280468938739
 0.9874652599689437 -0.10014900661093251 0.00993585266679148 0.04227037702130392 -0.002883349944650955 -0.012952395627810781 0.003402053274010389 0.02057033419821078
 0.0033736210394805202 0.020575034633358563 -0.002883349944650955 -0.012952395627810781 0.009940782773886304 0.04226835940443755 0.9874651600168836 -0.10015059428913745
 -0.002884683045372833 -0.012952280468938739 0.003402053274010389 0.02057033419821078 0.9874651600168836 -0.10015059428913745 0.009934892842452178 0.042268902741445846
0.1250521050438 0.010643414022482514 0.04467334531560497 0.9865323239970379 -0.10556403736671524 0.003700841319180862 0.021641561603971123 -0.003162928470672742 -0.013622116530643042
 0.9865323239970379 -0.10556403736671524 0.010638807794376582 0.04467374821672597 -0.0031614559425275366 -0.013622253574804571 0.0037323370325498336 0.02163620477357063
 0.003700841319180862 0.021641561603971123 -0.0031614559425275366 -0.013622253574804571 0.010644271913075055 0.04467160020325627 0.9865322133334471 -0.10556570911179074
 -0.003162928470672742 -0.013622116530643042 0.0037323370325498336 0.02163620477357063 0.9865322133334471 -0.10556570911179074 0.010637745127948116 0.04467220608334177
0.131304710296 0.011378208909190246 0.04709046632481883 0.9855587830915248 -0.11099091689624227 0.004044038532596604 0.02270448474046126 -0.003454854881472001 -0.01428878499070952
 0.9855587830915248 -0.11099091689624227 0.01137312925461885 0.04709090988336864 -0.003453236445130488 -0.014288946194595488 0.004078752072871119 0.022698412100436216
 0.004044038532596604 0.02270448474046126 -0.003453236445130488 -0.014288946194595488 0.011379155226237062 0.04708862822216969 0.9855586611330582 -0.11099267281451033
 -0.003454854881472001 -0.01428878499070952 0.004078752072871119 0.022698412100436216 0.9855586611330582 -0.11099267281451033 0.011371958609913297 0.04708930138729438
0.1375573155481 0.011992220678906882 0.04920622069794673 0.9846969112842983 -0.11611430825531284 0.004364530229429098 0.02373398332526949 -0.003721756581394287 -0.01492254062170145
 0.9846969112842983 -0.11611430825531284 0.011986641254680436 0.0492066959266018 -0.003719982384907319 -0.014922726558363603 0.004402541170498359 0.023727195771001762
 0.004364530229429098 0.02373398332526949 -0.003719982384907319 -0.014922726558363603 0.011993258799325425 0.04920428899558825 0.9846967775155363 -0.11611614835173814
 -0.003721756581394287 -0.01492254062170145 0.004402541170498359 0.023727195771001762 0.9846967775155363 -0.11611614835173814 0.011985358337171322 0.049205022160904034
0.1438099208003 0.012628221204933567 0.051307668335072144 0.9838038661930101 -0.12122151229247571 0.004697821894849826 0.0247573747761806 -0.0039991649578114685 -0.015550656548655803
 0.9838038661930101 -0.12122151229247571 0.012622117961022009 0.05130817700779779 -0.003997228008426194 -0.015550869500333325 0.0047392703018727935 0.024749817244592638
 0.004697821894849826 0.0247573747761806 -0.003997228008426194 -0.015550869500333325 0.012629355296468954 0.05130564220301103 0.9838037200354649 -0.12122343665833957
 -0.0039991649578114685 -0.015550656548655803 0.0047392703018727935 0.024749817244592638 0.9838037200354649 -0.12122343665833957 0.012620717811164259 0.05130643946146043
0.1500625260525 0.013285932802674195 0.05339454090929751 0.9828799313386501 -0.12631230727920836 0.005043762638985704 0.02577449323487285 -0.004286932218437318 -0.016172977276132327
 0.9828799313386501 -0.12631230727920836 0.013279281592875935 0.05339508493764022 -0.0042848255459848545 -0.01617321961778369 0.0050887871568925545 0.025766108720943093
 0.005043762638985704 0.02577449323487285 -0.0042848255459848545 -0.01617321961778369 0.013287167020774471 0.05339241948705648 0.9828797722080728 -0.12631431600512838
 -0.004286932218437318 -0.016172977276132327 0.0050887871568925545 0.025766108720943093 0.9828797722080728 -0.12631431600512838 0.013277759278888471 0.05339328516000755
0.15631513130469998 0.013965075173636116 0.055466578247268215 0.9819253923978458 -0.13138647460960365 0.005402199430030132 0.02678517656705565 -0.004584908421114497 -0.01678935138899498
 0.9819253923978458 -0.13138647460960365 0.013957851754075275 0.055467159686221595 -0.004582625078529466 -0.016789625587920635 0.005450937253089136 0.026775906157745003
