! Created with skrf 1.8.0 (http://scikit-rf.org).
# GHz S RI R 50.0 
!freq ReS11 ImS11 ReS12 ImS12 ReS13 ImS13
! ReS14 ImS14
! ReS21 ImS21 ReS22 ImS22 ReS23 ImS23
! ReS24 ImS24
! ReS31 ImS31 ReS32 ImS32 ReS33 ImS33
! ReS34 ImS34
! ReS41 ImS41 ReS42 ImS42 ReS43 ImS43
! ReS44 ImS44
!
0.0 0.001682102766405 0.0 0.9983178972201 0.0 6.490623605955e-05 0.0 -6.490623557149e-05 7.94872136373293e-21
 0.9983178972201 0.0 0.001682102766446 0.0 -6.490623557185e-05 7.948721363777017e-21 6.490623606073e-05 0.0
 6.490623605955e-05 0.0 -6.490623557185e-05 7.948721363777017e-21 0.001682102773165 0.0 0.9983178972268 0.0
 -6.490623557149e-05 7.94872136373293e-21 6.490623606073e-05 0.0 0.9983178972268 0.0 0.001682102773189 0.0
0.005 0.0018101972739480365 0.0013795567798374226 0.9981557946582348 -0.003522893546212608 9.054535106374422e-05 0.0006918229295853441 -8.80823417925907e-05 -0.0004382362282857597
 0.9981557946582348 -0.003522893546212608 0.0018101950041470199 0.0013795581767814917 -8.808162515338317e-05 -0.00043823575904176904 9.055122555191114e-05 0.0006918205712656688
 9.054535106374422e-05 0.0006918229295853441 -8.808162515338317e-05 -0.00043823575904176904 0.0018101975878721188 0.0013796239234611567 0.9981557950215902 -0.003522826493239251
 -8.80823417925907e-05 -0.0004382362282857597 9.055122555191114e-05 0.0006918205712656688 0.9981557950215902 -0.003522826493239251 0.0018101954196138711 0.0013796251444074064
0.006252605252188 0.0018439217429190805 0.0017298368271513726 0.998112832484474 -0.0044044561576541685 9.792277202341438e-05 0.0008651174926407249 -9.467665120311521e-05 -0.0005483489140494074
 0.998112832484474 -0.0044044561576541685 0.0018439181945515046 0.0017298386403001762 -9.467553542490196e-05 -0.0005483483373690644 9.793194896094476e-05 0.0008651144487714044
 9.792277202341438e-05 0.0008651174926407249 -9.467553542490196e-05 -0.0005483483373690644 0.0018439221636392578 0.0017299207649306798 0.9981128329828289 -0.004404372342739282
 -9.467665120311521e-05 -0.0005483489140494074 9.793194896094476e-05 0.0008651144487714044 0.9981128329828289 -0.004404372342739282 0.0018439187749471262 0.0017299223433860178
0.01250521050438 0.0020222060871707497 0.003495573572271395 0.9978841497432144 -0.008809546455644439 0.00014050847047424853 0.0017306160560355882 -0.00013236434535938583 -0.0010992510428122512
 0.9978841497432144 -0.008809546455644439 0.0020221919116410283 0.003495577887761468 -0.00013235994043559498 -0.0010992499995903678 0.0001405450237003103 0.0017306089115545274
 0.00014050847047424853 0.0017306160560355882 -0.00013235994043559498 -0.0010992499995903678 0.0020222072113146856 0.0034957412958273337 0.9978841511847356 -0.008809379090563363
 -0.00013236434535938583 -0.0010992510428122512 0.0001405450237003103 0.0017306089115545274 0.9978841511847356 -0.008809379090563363 0.0020221936909593217 0.003495744989246683
0.01875781575657 0.0022173718057647094 0.005286113782577904 0.9976315456219237 -0.01322595666048307 0.00019276715857781935 0.0025970290121773384 -0.00017808996931748477 -0.0016519264147166828
 0.9976315456219237 -0.01322595666048307 0.002217339937285201 0.005286121357677746 -0.00017808013557561955 -0.0016519250411998936 0.00019284917408146854 0.002597016461795279
 0.00019276715857781935 0.0025970290121773384 -0.00017808013557561955 -0.0016519250411998936 0.002217373885950582 0.005286365335197284 0.9976315484289235 -0.013225705858076142
 -0.00017808996931748477 -0.0016519264147166828 0.00019284917408146854 0.002597016461795279 0.9976315484289235 -0.013225705858076142 0.002217343524463048 0.0052863717331827036
0.02501042100875 0.0024298210062452036 0.007098926855443381 0.9973547039951304 -0.017655793059661282 0.0002548035784111466 0.003464365561881236 -0.00023196987978107056 -0.002206111933192812
 0.9973547039951304 -0.017655793059661282 0.0024297643860338265 0.007098938515684344 -0.00023195249995407494 -0.002206110393688436 0.00025494909507106504 0.00346434606578958
 0.0002548035784111466 0.003464365561881236 -0.00023195249995407494 -0.002206110393688436 0.002429824300387746 0.007099262315991747 0.9973547086005482 -0.017655458940856846
 -0.00023196987978107056 -0.002206111933192812 0.00025494909507106504 0.00346434606578958 0.9973547086005482 -0.017655458940856846 0.002429770413523785 0.007099272060539375
0.03126302626094 0.0026599391938556876 0.008932693585633804 0.9970532936296609 -0.022099936890406253 0.00032672246092851215 0.0043325574744729044 -0.00029411686787738403 -0.0027616147313553677
 0.9970532936296609 -0.022099936890406253 0.0026598507676578705 0.008932710225405574 -0.0002940898433273564 -0.002761613218515533 0.0003269494926620806 0.004332529258275226
 0.00032672246092851215 0.0043325574744729044 -0.0002940898433273564 -0.002761613218515533 0.0026599439474450518 0.008933113103902062 0.9970533004583576 -0.022099519548924623
 -0.00029411686787738403 -0.0027616147313553677 0.0003269494926620806 0.004332529258275226 0.9970533004583576 -0.022099519548924623 0.002659859873739546 0.008933126889599678
0.037515631513130004 0.0029081032424476544 0.010786541032994723 0.996726976469508 -0.026558809409442996 0.00040862755698505986 0.005201505519017439 -0.00036464091986242994 -0.0033182657619603927
 0.996726976469508 -0.026558809409442996 0.0029079759601476894 0.01078656361625885 -0.0003646021689241556 -0.0033182644969199718 0.0004089541042435527 0.005201466572183091
 0.00040862755698505986 0.005201505519017439 -0.0003646021689241556 -0.0033182644969199718 0.0029081096954641124 0.010787044787837622 0.9967269859439662 -0.026558308953744954
 -0.00036464091986242994 -0.0033182657619603927 0.0004089541042435527 0.005201466572183091 0.9967269859439662 -0.026558308953744954 0.0029079887939848356 0.01078706336229741
0.043768236765320004 0.003174684474045646 0.012659809634823596 0.9963754110300288 -0.03103260470757247 0.0005006211735657129 0.006071093555217725 -0.00044364946880790694 -0.0038759057261918534
 0.9963754110300288 -0.03103260470757247 0.003174511289183038 0.012659839195702788 -0.0004435969257764124 -0.003875904958655178 0.0005010652300036798 0.006071041628939279
 0.0005006211735657129 0.006071093555217725 -0.0004435969257764124 -0.003875904958655178 0.003174692861138758 0.012660397845975299 0.9963754235688331 -0.03103202124900386
 -0.00044364946880790694 -0.0038759057261918534 0.0005010652300036798 0.006071041628939279 0.9963754235688331 -0.03103202124900386 0.0031745285106342183 0.012660422010076212
0.050020842017509996 0.0034600500713666397 0.014551956982405575 0.9959982541283986 -0.035521385858848585 0.0006028038765021192 0.006941194403854696 -0.0005312474763882341 -0.0044343792256634025
 0.9959982541283986 -0.035521385858848585 0.0034598239409663863 0.014551994625844838 -0.0005311790909877668 -0.004434379233976038 0.000603383433507069 0.0069411270086837465
 0.0006028038765021192 0.006941194403854696 -0.0005311790909877668 -0.004434379233976038 0.003460060623021074 0.014552629904477473 0.9959982701462108 -0.03552071951779641
 -0.0005312474763882341 -0.0044343792256634025 0.000603383433507069 0.0069411270086837465 0.9959982701462108 -0.03552071951779641 0.0034598462210121837 0.014552660512659537
0.055454545454549996 0.0037235792190331465 0.01621125402683042 0.9956494429148531 -0.03943442847646642 0.0006999551641380131 0.007697649904358276 -0.0006144281489503542 -0.00492026671054229
 0.9956494429148531 -0.03943442847646642 0.003723301360678979 0.01621129964699639 -0.0006143443428182163 -0.004920267641416333 0.0007006670868508681 0.007697566855732598
 0.0006999551641380131 0.007697649904358276 -0.0006143443428182163 -0.004920267641416333 0.0037235918367177195 0.016212000797816782 0.9956494622896211 -0.03943369021397389
 -0.0006144281489503542 -0.00492026671054229 0.0007006670868508681 0.007697566855732598 0.9956494622896211 -0.03943369021397389 0.003723328590162238 0.016212037741971965
0.056273447269699996 0.00376456379436123 0.01646251059341091 0.9955951619231601 -0.04002513207673345 0.0007152742768204338 0.007811672686646622 -0.0006275374287160873 -0.0049935319496701895
 0.9955951619231601 -0.04002513207673345 0.0037642776793525264 0.016462557495713962 -0.0006274511659001777 -0.004993533040862419 0.0007160073263415733 0.007811587089982878
 0.0007152742768204338 0.007811672686646622 -0.0006274511659001777 -0.004993533040862419 0.0037645767385063047 0.016463268514475063 0.9955951818308333 -0.04002438298385878
 -0.0006275374287160873 -0.0049935319496701895 0.0007160073263415733 0.007811587089982878 0.9955951818308333 -0.04002438298385878 0.0037643057002158123 0.016463306475208547
0.06252605252188 0.004088586350081931 0.0183910419401991 0.995165790611691 -0.04454376461910406 0.0008381288512027693 0.008682386430003417 -0.0007326192956392415 -0.005553209104052818
 0.995165790611691 -0.04454376461910406 0.004088233215568912 0.018391099349604076 -0.0007325131353927605 -0.005553211613893428 0.0008390333878925589 0.008682279653458042
 0.0008381288512027693 0.008682386430003417 -0.0007325131353927605 -0.005553211613893428 0.004088601911635426 0.018391885182305296 0.995165814814818 -0.04454293291487159
 -0.0007326192956392415 -0.005553209104052818 0.0008390333878925589 0.008682279653458042 0.995165814814818 -0.04454293291487159 0.004088267670238665 0.01839193145823114
0.06877865777407 0.004432475572488619 0.020337150980271498 0.994709796942218 -0.049077162196994484 0.0009714617869341509 0.0095531880097511 -0.0008465904636073778 -0.006113254505185842
 0.994709796942218 -0.049077162196994484 0.004432048387767247 0.020337220217632155 -0.0008464624010092969 -0.006113258798225185 0.000972555809347246 0.009553056826471177
 0.0009714617869341509 0.0095531880097511 -0.0008464624010092969 -0.006113258798225185 0.004432493976211442 0.020338079903025864 0.9947098258422375 -0.04907624802802362
 -0.0008465904636073778 -0.006113254505185842 0.000972555809347246 0.009553056826471177 0.9947098258422375 -0.04907624802802362 0.004432089981516779 0.020338135511411736
0.07503126302626001 0.004796586491563632 0.0223004563422564 0.9942268386205472 -0.05362517073487974 0.001115364837272409 0.010423924770506618 -0.0009695456561328569 -0.0066735100058550045
 0.9942268386205472 -0.05362517073487974 0.004796078230494201 0.022300538801532 -0.0009693937013609162 -0.0066735164754518645 0.0011166663488848534 0.010423765702389787
 0.001115364837272409 0.010423924770506618 -0.0009693937013609162 -0.0066735164754518645 0.00479660796129924 0.02230147133197309 0.9942268726128475 -0.05362417426467395
 -0.0009695456561328569 -0.0066735100058550045 0.0011166663488848534 0.010423765702389787 0.9942268726128475 -0.05362417426467395 0.004796127680062642 0.022301537344985703
0.08128386827845 0.005181271330728869 0.02428058880743217 0.9937165746487974 -0.0581876098425909 0.0012699271864157152 0.01129443943925021 -0.0011015768431038046 -0.007233815133693634
 0.9937165746487974 -0.0581876098425909 0.005180674972362457 0.024280685956262368 -0.0011013990216839436 -0.007233824202030158 0.0012714541961393786 0.011294248754183427
 0.0012699271864157152 0.01129443943925021 -0.0011013990216839436 -0.007233824202030158 0.005181296091930772 0.024281690287554603 0.993716614123814 -0.05818653124097547
 -0.0011015768431038046 -0.007233815133693634 0.0012714541961393786 0.011294248754183427 0.993716614123814 -0.05818653124097547 0.005180733006763877 0.024281767832693896
0.08753647353064001 0.005586879458104747 0.026277186801380387 0.9931786656233406 -0.06276427728521412 0.0014352353186778276 0.012164570429218693 -0.001242773144562783 -0.007794006846327487
 0.9931786656233406 -0.06276427728521412 0.0055861879871767816 0.026277300181650396 -0.001242567497526253 -0.007794018964436898 0.001437005841102374 0.012164344138212655
 0.0014352353186778276 0.012164570429218693 -0.001242567497526253 -0.007794018964436898 0.005586907737674722 0.026278375224858635 0.9931787109648542 -0.06276311673573959
 -0.001242773144562783 -0.007794006846327487 0.001437005841102374 0.012164344138212655 0.9931787109648542 -0.06276311673573959 0.005586255347075809 0.026278465485312038
0.09378907878283 0.006013757304107713 0.02828989318166639 0.992612774002008 -0.0673549521650044 0.00161137289124262 0.013034152063188897 -0.0013932207296847956 -0.008353919374508061
 0.992612774002008 -0.0673549521650044 0.006012963711226493 0.028290024410056312 -0.0013929853137731986 -0.008353935022266772 0.001613404946666479 0.01303388591749335
 0.00161137289124262 0.013034152063188897 -0.0013929853137731986 -0.008353935022266772 0.006013789332231642 0.02829116903586438 0.9926128255879063 -0.06735370985994807
 -0.0013932207296847956 -0.008353919374508061 0.001613404946666479 0.01303388591749335 0.9926128255879063 -0.06735370985994807 0.006013041150202094 0.028291273250791615
0.100041684035 0.006462248256902715 0.03031835288444343 0.9920185643550156 -0.0719593972533144 0.0017984206094840262 0.013903014752611307 -0.0015530027121921223 -0.008913384116693507
 0.9920185643550156 -0.0719593972533144 0.006461345539193786 0.03031850365295269 -0.0015527356001593955 -0.00891340380282953 0.0018007322238282025 0.013902704240812276
 0.0017984206094840262 0.013903014752611307 -0.0015527356001593955 -0.00891340380282953 0.006462284267557301 0.030319716689000194 0.9920186225559782 -0.07195807339538848
 -0.0015530027121921223 -0.008913384116693507 0.0018007322238282025 0.013902704240812276 0.9920186225559782 -0.07195807339538848 0.006461433823143132 0.030319836154019765
0.1059090909091 0.006903069441700929 0.032235858641901635 0.9914349099537124 -0.07629248033307515 0.0019839369049434734 0.014717541988059593 -0.0017115019503384863 -0.009437822450357668
 0.9914349099537124 -0.07629248033307515 0.0069020579589648134 0.03223602935323472 -0.0017112033565367408 -0.009437846414449383 0.0019865272547050393 0.01471718550376515
 0.0019839369049434734 0.014717541988059593 -0.0017112033565367408 -0.009437846414449383 0.006903109406700618 0.03223730547717536 0.9914349746931086 -0.07629108014273223
 -0.0017115019503384863 -0.009437822450357668 0.0019865272547050393 0.01471718550376515 0.9914349746931086 -0.07629108014273223 0.0069021571277984835 0.03223744048175477
0.1062942892872 0.006932692539344798 0.03236221116482389 0.9913957035989666 -0.07657736073729542 0.0019964561037937086 0.01477098514426285 -0.0017221990437614211 -0.009472229573786423
 0.9913957035989666 -0.07657736073729542 0.006931673700825711 0.03236238324137738 -0.0017218983246553995 -0.009472253835855097 0.001999065308206411 0.014770625489366427
 0.0019964561037937086 0.01477098514426285 -0.0017218983246553995 -0.009472253835855097 0.006932732771442274 0.032363663468722076 0.9913957687786192 -0.07657595554246566
 -0.0017221990437614211 -0.009472229573786423 0.001999065308206411 0.014770625489366427 0.9913957687786192 -0.07657595554246566 0.006931773608431341 0.03236379953628868
0.11254689453939999 0.00742542707320492 0.03442111225329132 0.9907438612239176 -0.08120857756023336 0.002205553808100018 0.015637886245624278 -0.001900886405118598 -0.010030281312961626
 0.9907438612239176 -0.08120857756023336 0.007424285125550652 0.034421307482209895 -0.0019005501845483037 -0.01003031071734289 0.002208478638630047 0.015637472402063587
 0.002205553808100018 0.015637886245624278 -0.0019005501845483037 -0.01003031071734289 0.0074254717714938205 0.034422653638529775 0.9907439337380793 -0.08120709125362706
 -0.001900886405118598 -0.010030281312961626 0.002208478638630047 0.015637472402063587 0.9907439337380793 -0.08120709125362706 0.007424397448375384 0.03442280771829737
0.11879949979160001 0.007940785332954258 0.03649469832046034 0.9900627095112345 -0.08585277046266339 0.0024257848394743458 0.016503537533446213 -0.0020891380960103385 -0.010587361956168974
 0.9900627095112345 -0.08585277046266339 0.007939513295838372 0.03649491862298668 -0.0020887644965979597 -0.010587397098014062 0.0024290433363844633 0.016503064184091698
 0.0024257848394743458 0.016503537533446213 -0.0020887644965979597 -0.010587397098014062 0.007940834749340743 0.03649632939978678 0.9900627897076352 -0.08585120328048797
 -0.0020891380960103385 -0.010587361956168974 0.0024290433363844633 0.016503064184091698 0.9900627897076352 -0.08585120328048797 0.007939638838456746 0.03649650295907202
0.1250521050438 0.008479097191775978 0.03858260866000104 0.9893519237484159 -0.09050965081522294 0.0026572168783801703 0.017367755058515923 -0.0022870239246176043 -0.01114329118041174
 0.9893519237484159 -0.09050965081522294 0.008477688093508838 0.03858285603485746 -0.0022866110861984325 -0.01114333268360474 0.0026608270855788345 0.017367216611648213
 0.0026572168783801703 0.017367755058515923 -0.0022866110861984325 -0.01114333268360474 0.008479151585758633 0.03858433007612183 0.989352011966101 -0.09050800300515319
 -0.0022870239246176043 -0.01114329118041174 0.0026608270855788345 0.017367216611648213 0.989352011966101 -0.09050800300515319 0.008477827673575347 0.0385845246403481
0.131304710296 0.009040688759866022 0.040684479048029666 0.9886111824378563 -0.09517891928494496 0.00289991405030476 0.01823035154044422 -0.0024946100958659007 -0.011697885736228632
 0.9886111824378563 -0.09517891928494496 0.00903913563806808 0.04068475557187709 -0.0024941561759859996 -0.011697934253337983 0.0029038940145637297 0.0182297421267577
 0.00289991405030476 0.01823035154044422 -0.0024941561759859996 -0.011697934253337983 0.009040748400369093 0.04068629147699893 0.9886112790070927 -0.09517719110220824
 -0.0024946100958659007 -0.011697885736228632 0.0029038940145637297 0.0182297421267577 0.9886112790070927 -0.09517719110220824 0.009039290086825625 0.040686508630150615
0.1375573155481 0.009501629822788992 0.04252746061962771 0.9879644770944133 -0.0995876310201802 0.0031244042369635875 0.019064743717399666 -0.0026824289096956805 -0.012224589163230154
 0.9879644770944133 -0.0995876310201802 0.009499926574144824 0.04252776193191116 -0.0026819313943116214 -0.012224644801923435 0.0031287674711394857 0.019064063627801896
 0.0031244042369635875 0.019064743717399666 -0.0026819313943116214 -0.012224644801923435 0.009501695989306948 0.04252936419769242 0.9879645823775981 -0.09958582269906563
 -0.0026824289096956805 -0.012224589163230154 0.0031287674711394857 0.019064063627801896 0.9879645823775981 -0.09958582269906563 0.009500095667639468 0.04252960016391114
0.1438099208003 0.009978944052171413 0.04435994891749738 0.9872947433017791 -0.10398434652114005 0.0033579255518819814 0.0198952273364612 -0.002877719014262125 -0.012747685282178947
 0.9872947433017791 -0.10398434652114005 0.009977083895976862 0.044360276592058975 -0.002877175965029683 -0.012747748682134569 0.003362689283789989 0.019894471063804948
 0.0033579255518819814 0.0198952273364612 -0.002877175965029683 -0.012747748682134569 0.009979017211709329 0.04436194430261742 0.9872948576212619 -0.10398245832943857
 -0.002877719014262125 -0.012747685282178947 0.003362689283789989 0.019894471063804948 0.9872948576212619 -0.10398245832943857 0.0099772682954369 0.04436220027172766
0.1500625260525 0.010472451539954377 0.046181766662089396 0.9866021655826882 -0.10836893169018817 0.003600389103409515 0.020721701001820313 -0.003080393671439124 -0.013267078358376698
 0.9866021655826882 -0.10836893169018817 0.010470427716488416 0.046182122337624844 -0.0030798031588661957 -0.0132671501843654 0.0036055705121789813 0.020720862820327462
 0.003600389103409515 0.020721701001820313 -0.0030798031588661957 -0.0132671501843654 0.010472532181059832 0.04618385453588758 0.9866022892526165 -0.10836696390589474
 -0.003080393671439124 -0.013267078358376698 0.0036055705121789813 0.020720862820327462 0.9866022892526165 -0.10836696390589474 0.01047062808431057 0.04618413175227975
0.15631513130469998 0.010981970960204781 0.04799274185399152 0.9858869295531242 -0.11274125344328238 0.0038517048633508163 0.021544065231482955 -0.0032903649986712772 -0.013782674817381988
 0.9858869295531242 -0.11274125344328238 0.010979776731165585 0.047993127233613805 -0.0032897251021755196 -0.013782755759040746 0.0038573210792494034 0.021543139197583216
