! Created with skrf 1.8.0 (http://scikit-rf.org).
# GHz S RI R 50.0 
!freq ReS11 ImS11 ReS12 ImS12 ReS13 ImS13
! ReS14 ImS14
! ReS21 ImS21 ReS22 ImS22 ReS23 ImS23
! ReS24 ImS24
! ReS31 ImS31 ReS32 ImS32 ReS33 ImS33
! ReS34 ImS34
! ReS41 ImS41 ReS42 ImS42 ReS43 ImS43
! ReS44 ImS44
!
0.0 0.001304515773745 0.0 0.9986954842262 0.0 5.000247872236e-05 0.0 -5.000247887258e-05 6.123537570073825e-21
 0.9986954842262 0.0 0.00130451577377 0.0 -5.000247887284e-05 6.1235375701056666e-21 5.00024787233e-05 0.0
 5.000247872236e-05 0.0 -5.000247887284e-05 6.1235375701056666e-21 0.001304515769489 0.0 0.998695484222 0.0
 -5.000247887258e-05 6.123537570073825e-21 5.00024787233e-05 0.0 0.998695484222 0.0 0.001304515769498 0.0
0.005 0.0014029753614591002 0.001065988014233046 0.9985710106513642 -0.0027334701392930684 6.994702503229888e-05 0.0005607074546123124 -6.793559779184117e-05 -0.0003503473911922221
 0.9985710106513642 -0.0027334701392930684 0.0014029788490209864 0.0010659859105534273 -6.79362769876196e-05 -0.0003503478469037362 6.992313718575729e-05 0.0005607164918715984
 6.994702503229888e-05 0.0005607074546123124 -6.79362769876196e-05 -0.0003503478469037362 0.0014029756854140884 0.001066055037312362 0.9985710109903378 -0.002733403076906771
 -6.793559779184117e-05 -0.0003503473911922221 6.992313718575729e-05 0.0005607164918715984 0.9985710109903378 -0.002733403076906771 0.0014029791998209872 0.0010660530098345992
0.006252605252188 0.0014286244537185162 0.001336710441794116 0.9985384078493017 -0.003417534072893228 7.55455977745051e-05 0.0007011626359563585 -7.291865136603118e-05 -0.00043839967435452785
 0.9985384078493017 -0.003417534072893228 0.0014286299060804078 0.00133670777782004 -7.29197087948106e-05 -0.0004384002350670882 7.550827411609851e-05 0.0007011743711336661
 7.55455977745051e-05 0.0007011626359563585 -7.29197087948106e-05 -0.0004384002350670882 0.0014286248838636306 0.0013367942044163316 0.9985384083025719 -0.003417450254159065
 -7.291865136603118e-05 -0.00043839967435452785 7.550827411609851e-05 0.0007011743711336661 0.9985384083025719 -0.003417450254159065 0.001428630377384848 0.001336791647171412
0.01250521050438 0.001562634432995574 0.0027017409874759393 0.9983670709399313 -0.006836041938123854 0.00010712668975534148 0.0014027172334191637 -0.0001007617273683439 -0.000879045413944172
 0.9983670709399313 -0.006836041938123854 0.001562656214689414 0.0027017353151832443 -0.00010076590134267061 -0.000879046437959395 0.00010697782208847949 0.0014027453814684382
 0.00010712668975534148 0.0014027172334191637 -0.00010076590134267061 -0.000879046437959395 0.001562635598126507 0.0027019081875960934 0.9983670721913874 -0.006835874546500173
 -0.0001007617273683439 -0.000879045413944172 0.00010697782208847949 0.0014027453814684382 0.9983670721913874 -0.006835874546500173 0.0015626575300358304 0.00270190284584763
0.01875781575657 0.0017068022815084783 0.004086533857995694 0.9981812863657876 -0.010263882119405756 0.00014481299363924767 0.002105167208759668 -0.00013360978888164352 -0.0013213119515413946
 0.9981812863657876 -0.010263882119405756 0.0017068512451487413 0.004086524811026557 -0.00013361910664933384 -0.0013213133232824756 0.00014447850889617964 0.00210521724130205
 0.00014481299363924767 0.002105167208759668 -0.00013361910664933384 -0.0013213133232824756 0.001706804485627052 0.004086784317202198 0.9981812887531422 -0.010263631229510014
 -0.00013360978888164352 -0.0013213119515413946 0.00014447850889617964 0.00210521724130205 0.9981812887531422 -0.010263631229510014 0.0017068537587067052 0.004086775948869683
0.02501042100875 0.0018613788679065295 0.005489184914795898 0.9979808606596924 -0.013702752961083597 0.00018867277435423235 0.0028085679519167617 -0.00017153892223364676 -0.0017650184534619368
 0.9979808606596924 -0.013702752961083597 0.0018614658552956864 0.005489172109382796 -0.00017155539022056617 -0.001765020037298157 0.00018807852655005965 0.0028086461040465805
 0.00018867277435423235 0.0028085679519167617 -0.00017155539022056617 -0.001765020037298157 0.0018613824279781676 0.005489518452735714 0.9979808645277691 -0.013702418624485724
 -0.00017153892223364676 -0.0017650184534619368 0.00018807852655005965 0.0028086461040465805 0.9979808645277691 -0.013702418624485724 0.001861469918181811 0.005489506806165159
0.03126302626094 0.002026604472485101 0.006908732761037003 0.9977655892649612 -0.01715340349699687 0.00023877499433950966 0.0035129097330233593 -0.00021462339049613125 -0.002210045594647782
 0.9977655892649612 -0.01715340349699687 0.0020267403201734615 0.006908715796917819 -0.00021464899798230675 -0.0022100472345902666 0.00023784669544032252 0.003513023007853006
 0.00023877499433950966 0.0035129097330233593 -0.00021464899798230675 -0.0022100472345902666 0.0020266097082752496 0.006909149191969984 0.9977655949569635 -0.017152985745350752
 -0.00021462339049613125 -0.002210045594647782 0.00023784669544032252 0.003513023007853006 0.9977655949569635 -0.017152985745350752 0.0020267462711669043 0.006909134007162333
0.037515631513130004 0.0022027143589382144 0.008344564578681511 0.9975352622265578 -0.020616227562448363 0.00029518864783476884 0.004218157475677231 -0.0002629361984187531 -0.0026562957748441692
 0.9975352622265578 -0.020616227562448363 0.00220290990165078 0.008344543039625004 -0.00026297291935968234 -0.0026562972944207015 0.0002938518358137714 0.004218313652395598
 0.00029518864783476884 0.004218157475677231 -0.00026297291935968234 -0.0026562972944207015 0.0022027215934181813 0.008345063716221625 0.9975352700852546 -0.02061572640250241
 -0.0002629361984187531 -0.0026562957748441692 0.0002938518358137714 0.004218313652395598 0.9975352700852546 -0.02061572640250241 0.0022029180684519914 0.008345044725506616
0.043768236765320004 0.0023899409288679566 0.009796235311963249 0.9972896664647688 -0.02409144455336483 0.0003579824573653836 0.004924262854902224 -0.00031654930430424837 -0.0031036810097917426
 0.9972896664647688 -0.02409144455336483 0.0023902070023975124 0.009796208766096671 -0.0003165990984288136 -0.003103682211953722 0.00035616248012518905 0.004924470497940636
 0.0003579824573653836 0.004924262854902224 -0.0003165990984288136 -0.003103682211953722 0.002389950489809057 0.009796816954841855 0.997289676834572 -0.024090859980914356
 -0.00031654930430424837 -0.0031036810097917426 0.00035616248012518905 0.004924470497940636 0.997289676834572 -0.024090859980914356 0.0023902177035834294 0.009796793883475183
0.050020842017509996 0.002588514735888315 0.011263392939243432 0.9970285869112725 -0.027579174095026426 0.00042722469737713746 0.005631169287582013 -0.0003755337070861314 -0.003552117930592609
 0.9970285869112725 -0.027579174095026426 0.0025888621790862544 0.011263360939296922 -0.0003755985205029153 -0.00355211859764743 0.00042484670516390897 0.005631437756203914
 0.00042722469737713746 0.005631169287582013 -0.0003755985205029153 -0.00355211859764743 0.0025885269547482035 0.011264056869066917 0.9970286001381824 -0.027578506096907793
 -0.0003755337070861314 -0.003552117930592609 0.00042484670516390897 0.005631437756203914 0.9970286001381824 -0.027578506096907793 0.0025888757239637614 0.011264029435574176
0.055454545454549996 0.0027704747989988356 0.012550743982811112 0.9967889580919009 -0.030620323515036036 0.000492687816690277 0.006246094610453016 -0.0004312095331776535 -0.0039426142032259704
 0.9967889580919009 -0.030620323515036036 0.0027709017613802935 0.012550706868056934 -0.00043128896906665504 -0.003942614212383764 0.0004897639498755654 0.0062464241638949345
 0.000492687816690277 0.006246094610453016 -0.00043128896906665504 -0.003942614212383764 0.0027704895992526736 0.01255147923235574 0.9967889740838212 -0.030619582999142723
 -0.0004312095331776535 -0.0039426142032259704 0.0004897639498755654 0.0062464241638949345 0.9967889740838212 -0.030619582999142723 0.0027709180212063464 0.012551447774526062
0.056273447269699996 0.002798665015179194 0.01274574178690607 0.9967518071627856 -0.031079472668641226 0.0005029830751520171 0.006338814377644934 -0.00043995947644974876 -0.004001525329504041
 0.9967518071627856 -0.031079472668641226 0.0027991046721223384 0.012745703870399371 -0.0004400412421097521 -0.004001525223053718 0.0004999720179149732 0.006339153835748942
 0.0005029830751520171 0.006338814377644934 -0.0004400412421097521 -0.004001525223053718 0.002798680226341663 0.01274648776991807 0.9967518235941134 -0.031078721220765
 -0.00043995947644974876 -0.004001525329504041 0.0004999720179149732 0.006339153835748942 0.9967518235941134 -0.031078721220765 0.0027991213601952208 0.01274645568649364
0.06252605252188 0.0030206199767253725 0.014243022370694648 0.9964591099001412 -0.03459235371122168 0.0005853246379342152 0.007047131260022695 -0.0005098957562471967 -0.004451822808488107
 0.9964591099001412 -0.03459235371122168 0.003021162698709944 0.014242978060061109 -0.0005099963941770831 -0.004451821669390812 0.0005816052661649925 0.007047552686032809
 0.0005853246379342152 0.007047131260022695 -0.0005099963941770831 -0.004451821669390812 0.0030206385172617824 0.014243850155451406 0.9964591298853206 -0.03459151878061025
 -0.0005098957562471967 -0.004451822808488107 0.0005816052661649925 0.007047552686032809 0.9964591298853206 -0.03459151878061025 0.0030211828202193302 0.014243813128156134
0.06877865777407 0.0032546069736733773 0.01575499936598198 0.9961502771856737 -0.03811779958775732 0.0006743156964451382 0.007756049399654752 -0.0005854107508574734 -0.0049029299744822435
 0.9961502771856737 -0.03811779958775732 0.0032552636209739476 0.01575494816854522 -0.0005855321683290776 -0.00490292752279164 0.0006698125641673652 0.007756564596435039
 0.0006743156964451382 0.007756049399654752 -0.0005855321683290776 -0.00490292752279164 0.0032546291829741625 0.01575590868197227 0.9961503010764621 -0.03811688113378834
 -0.0005854107508574734 -0.0049029299744822435 0.0006698125641673652 0.007756564596435039 0.9961503010764621 -0.03811688113378834 0.0032552874569314813 0.01575586641093491
0.07503126302626001 0.003500852592975504 0.017281453987659567 0.9958250906848267 -0.04165576915544453 0.0007700217575198286 0.008465495094134452 -0.0006665717013691488 -0.005354765932906802
 0.9958250906848267 -0.04165576915544453 0.0035016340365279517 0.017281395395771372 -0.0006667157929602974 -0.005354761867841216 0.0007646592271268814 0.008466116698886531
 0.0007700217575198286 0.008465495094134452 -0.0006667157929602974 -0.005354761867841216 0.0035008788115724445 0.017282444549032504 0.9958251188347989 -0.041654767125913726
 -0.0006665717013691488 -0.005354765932906802 0.0007646592271268814 0.008466116698886531 0.9958251188347989 -0.041654767125913726 0.0035016618581767823 0.01728239672860673
0.08128386827845 0.003759582700289874 0.01882217891512422 0.9954833318441104 -0.045206202784830965 0.0008725074616426499 0.009175391813509647 -0.0007534448558774483 -0.005807248946060358
 0.9954833318441104 -0.045206202784830965 0.0037604998236906097 0.018822112406018332 -0.0007536135035247147 -0.005807242945956929 0.0008662097101064052 0.009176133307643115
 0.0008725074616426499 0.009175391813509647 -0.0007536135035247147 -0.005807242945956929 0.003759613270347308 0.01882325041597637 0.9954833646103398 -0.045205117120409866
 -0.0007534448558774483 -0.005807248946060358 0.0008662097101064052 0.009176133307643115 0.9954833646103398 -0.045205117120409866 0.0037605318932677507 0.018823196734803458
0.08753647353064001 0.004031022454054105 0.02037697478214306 0.99512478204125 -0.04876902581789244 0.0009818365245767887 0.009885660430611464 -0.0008460954347494449 -0.006260296203116189
 0.99512478204125 -0.04876902581789244 0.004032086155095741 0.020376899817862445 -0.000846290507686013 -0.006260287925402468 0.000974527550696357 0.009886536149517247
 0.0009818365245767887 0.009885660430611464 -0.000846290507686013 -0.006260287925402468 0.0040310577179670974 0.02037812689635345 0.9951248197833218 -0.04876785645225337
 -0.0008460954347494449 -0.006260296203116189 0.000974527550696357 0.009886536149517247 0.9951248197833218 -0.04876785645225337 0.004032122725273977 0.020378067037354404
0.09378907878283 0.00431539629772608 0.021945647663247362 0.9947492227151404 -0.05234415103213663 0.0010980716811405408 0.010596219388805636 -0.0009445875927005692 -0.006713823654887958
 0.9947492227151404 -0.05234415103213663 0.004316617490011982 0.021945563690536418 -0.0009448109473794781 -0.006713812736052877 0.0010896753136563412 0.010597244531597353
 0.0010980716811405408 0.010596219388805636 -0.0009448109473794781 -0.006713812736052877 0.004315436597752229 0.021946880048775947 0.9947492657958065 -0.0523428978874105
 -0.0009445875927005692 -0.006713823654887958 0.0010896753136563412 0.010597244531597353 0.9947492657958065 -0.0523428978874105 0.004316658804213279 0.02194681368908618
0.100041684035 0.004612927936134838 0.023528007240911458 0.9943564354825184 -0.05593148042618869 0.0012212746305147529 0.011306984825138684 -0.00104898437824408 -0.007167745895568259
 0.9943564354825184 -0.05593148042618869 0.004614317551185355 0.023527913690897673 -0.001049237858319158 -0.007167731951130734 0.001211714537063686 0.011308175464246726
 0.0012212746305147529 0.011306984825138684 -0.001049237858319158 -0.007167731951130734 0.004612973614272885 0.023529319530685346 0.9943564842681762 -0.05593014342193397
 -0.00104898437824408 -0.007167745895568259 0.001211714537063686 0.011308175464246726 0.9943564842681762 -0.05593014342193397 0.004614363843413885 0.02352924634157552
0.1059090909091 0.004904295288449117 0.025025164185831894 0.9939719834519423 -0.059308812570433696 0.0013432786665652982 0.011974073946404047 -0.0011523750381627024 -0.007593985483978031
 0.9939719834519423 -0.059308812570433696 0.004905852909615853 0.0250250611171351 -0.0011526584529389502 -0.007593968331966417 0.0013325569811703257 0.011975435290288033
 0.0013432786665652982 0.011974073946404047 -0.0011526584529389502 -0.007593968331966417 0.00490434632324644 0.025026551110877693 0.9939720379276988 -0.059307396787617456
 -0.0011523750381627024 -0.007593985483978031 0.0013325569811703257 0.011975435290288033 0.9939720379276988 -0.059307396787617456 0.004905904077720656 0.02502647120869457
0.1062942892872 0.0049238403020231 0.02512386540735507 0.993946202246743 -0.05953090657312042 0.0013515059821800589 0.01201787066577038 -0.0011593476917473662 -0.007621976074412086
 0.993946202246743 -0.05953090657312042 0.0049254092906676995 0.025123761695418807 -0.0011596331278816258 -0.007621958698915396 0.0013407056788696228 0.012019243756494035
 0.0013515059821800589 0.01201787066577038 -0.0011596331278816258 -0.007621958698915396 0.004923891698986487 0.025125257221129665 0.9939462571076021 -0.059529485614389935
 -0.0011593476917473662 -0.007621976074412086 0.0013407056788696228 0.012019243756494035 0.9939462571076021 -0.059529485614389935 0.004925460785664978 0.025125176867785027
0.11254689453939999 0.005248355512644047 0.02673303521720937 0.9935183052993379 -0.06314231362578336 0.0014888252031754693 0.012728788699580308 -0.0012757382410867773 -0.00807642583187386
 0.9935183052993379 -0.06314231362578336 0.005250114846947135 0.02673292074257725 -0.0012760574508920775 -0.008076404598851724 0.0014767080647433194 0.012730362089462394
 0.0014888252031754693 0.012728788699580308 -0.0012760574508920775 -0.008076404598851724 0.005248412967613779 0.02673450614972112 0.9935183666096014 -0.06314080861487165
 -0.0012757382410867773 -0.00807642583187386 0.0014767080647433194 0.012730362089462394 0.9935183666096014 -0.06314080861487165 0.005250171759929129 0.02673441829102427
0.11879949979160001 0.005586694820339067 0.028355330045687077 0.9930725274170727 -0.0667655781193332 0.0016332905651384162 0.013439648637287823 -0.0013982154967682587 -0.008531005252583847
 0.9930725274170727 -0.0667655781193332 0.005588655495432293 0.02835520419103842 -0.0013985702845926453 -0.00853097971456546 0.0016197798357094138 0.013441441075370786
 0.0016332905651384162 0.013439648637287823 -0.0013985702845926453 -0.00853097971456546 0.005586758670147734 0.028356879674370786 0.9930725955553199 -0.06676398894791967
 -0.0013982154967682587 -0.008531005252583847 0.0016197798357094138 0.013441441075370786 0.9930725955553199 -0.06676398894791967 0.005588718032254741 0.02835678396250586
0.1250521050438 0.00593907855761955 0.029990562940608707 0.9926086519559849 -0.0704005695825035 0.0017849590918684228 0.01415035816308267 -0.0015268376456821014 -0.008985622828448515
 0.9926086519559849 -0.0704005695825035 0.00594125159324158 0.029990425071675306 -0.0015272298024834904 -0.008985592516943152 0.0017699778961002598 0.014152389309104774
 0.0017849590918684228 0.01415035816308267 -0.0015272298024834904 -0.008985592516943152 0.005939149136292243 0.0299921908235745 0.9926087273055038 -0.07039889613365206
 -0.0015268376456821014 -0.008985622828448515 0.0017699778961002598 0.014152389309104774 0.9926087273055038 -0.07039889613365206 0.005941319950298495 0.029992086903740146
0.131304710296 0.006305726077843714 0.031638546093339374 0.9921264629428261 -0.07404715103325159 0.001943886507079722 0.01486082297569491 -0.0016616615438867566 -0.009440185434948595
 0.9921264629428261 -0.07404715103325159 0.006308122520324913 0.03163839555840547 -0.0016620928470442353 -0.009440149860452208 0.0019273578618558534 0.01486311340901082
 0.001943886507079722 0.01486082297569491 -0.0016620928470442353 -0.009440149860452208 0.0063058037158217365 0.03164025176676991 0.9921265458913626 -0.0740453931839825
 -0.0016616615438867566 -0.009440185434948595 0.0019273578618558534 0.01486311340901082 0.9921265458913626 -0.0740453931839825 0.006308196884404211 0.03164013927659932
0.1375573155481 0.00659724143478954 0.033083331615486065 0.9917153855011953 -0.07748935061792976 0.0020885456888709653 0.015548648838585062 -0.0017811830967901805 -0.009872296139118632
 0.9917153855011953 -0.07748935061792976 0.006599872036794854 0.03308317061796085 -0.0017816559645406698 -0.009872255309863421 0.002070433328281946 0.015551193092196195
 0.0020885456888709653 0.015548648838585062 -0.0017816559645406698 -0.009872255309863421 0.006597325673444919 0.033085115087775084 0.9917154763930698 -0.07748750831141943
 -0.0017811830967901805 -0.009872296139118632 0.002070433328281946 0.015551193092196195 0.9917154763930698 -0.07748750831141943 0.006599953462969465 0.03308499569086401
0.1438099208003 0.006898813837730639 0.03452140370417523 0.9912902128866836 -0.08092374418042803 0.0022390538210769494 0.016234261483947736 -0.0019055028142899316 -0.010302387357230953
 0.9912902128866836 -0.08092374418042803 0.006901689607601565 0.034521231760987474 -0.0019060191200361133 -0.010302340801717796 0.0022192879800082416 0.016237078132729288
 0.0022390538210769494 0.016234261483947736 -0.0019060191200361133 -0.010302340801717796 0.006898904859390929 0.03452326454339283 0.9912903121079013 -0.08092181729852159
 -0.0019055028142899316 -0.010302387357230953 0.0022192879800082416 0.016237078132729288 0.9912903121079013 -0.08092181729852159 0.006901778427293684 0.03452313796284247
0.1500625260525 0.007210348730278648 0.03595266919931466 0.9908510428555746 -0.08435027407327575 0.002395366241646187 0.016917609599807506 -0.002034577399403379 -0.010730409987496976
 0.9908510428555746 -0.08435027407327575 0.00721348069360124 0.03595248579898427 -0.0020351390113484843 -0.010730357215745103 0.0023738775272866596 0.01692071788491536
 0.002395366241646187 0.016917609599807506 -0.0020351390113484843 -0.010730357215745103 0.007210446704495669 0.035954606958764165 0.9908511507958965 -0.08434826249242298
 -0.002034577399403379 -0.010730409987496976 0.0023738775272866596 0.01692071788491536 0.9908511507958965 -0.08434826249242298 0.007213577239696813 0.03595447289407529
0.15631513130469998 0.007531751020616955 0.03737703790397315 0.9903979735114692 -0.08776888232756949 0.0025574378426179794 0.017598642612855174 -0.0021683630968012085 -0.011156315880233103
