! Created with skrf 1.8.0 (http://scikit-rf.org).
# GHz S RI R 50.0 
!freq ReS11 ImS11 ReS12 ImS12 ReS13 ImS13
! ReS14 ImS14
! ReS21 ImS21 ReS22 ImS22 ReS23 ImS23
! ReS24 ImS24
! ReS31 ImS31 ReS32 ImS32 ReS33 ImS33
! ReS34 ImS34
! ReS41 ImS41 ReS42 ImS42 ReS43 ImS43
! ReS44 ImS44
!
0.0 0.001581921574543 0.0 0.998418078414 0.0 6.121737284541e-05 0.0 -6.121737355558e-05 7.496966057704888e-21
 0.998418078414 0.0 0.001581921574529 0.0 -6.121737355514e-05 7.496966057651002e-21 6.121737284421e-05 0.0
 6.121737284541e-05 0.0 -6.121737355514e-05 7.496966057651002e-21 0.001581921580219 0.0 0.9984180784197 0.0
 -6.121737355558e-05 7.496966057704888e-21 6.121737284421e-05 0.0 0.9984180784197 0.0 0.001581921580227 0.0
0.005 0.001702151151746014 0.001291497503843968 0.998265934709385 -0.003313756375636498 8.627708871035372e-05 0.0006896251913892066 -8.363430827660766e-05 -0.00043021407665830324
 0.998265934709385 -0.003313756375636498 0.0017021765150789755 0.0012914826418041535 -8.36338430964188e-05 -0.0004302136588188534 8.61178858226161e-05 0.0006896857107582326
 8.627708871035372e-05 0.0006896251913892066 -8.36338430964188e-05 -0.0004302136588188534 0.0017021520501505924 0.0012915641885011396 0.9982659350699677 -0.0033136893223506374
 -8.363430827660766e-05 -0.00043021407665830324 8.61178858226161e-05 0.0006896857107582326 0.9982659350699677 -0.0033136893223506374 0.0017021763309162886 0.001291550057274229
0.006252605252188 0.0017337150638605703 0.0016194593289050442 0.9982257305045799 -0.004143001445564758 9.347190533454766e-05 0.0008623551666500126 -8.998096207500244e-05 -0.0005383250939589994
 0.9982257305045799 -0.004143001445564758 0.001733754712215133 0.0016194404812178115 -8.998023870176079e-05 -0.0005383245775076335 9.322316460908165e-05 0.0008624337761994135
 9.347190533454766e-05 0.0008623551666500126 -8.998023870176079e-05 -0.0005383245775076335 0.0017337163953641515 0.0016195426832886614 0.9982257309948797 -0.0041429176211201756
 -8.998096207500244e-05 -0.0005383250939589994 9.322316460908165e-05 0.0008624337761994135 0.9982257309948797 -0.0041429176211201756 0.0017337543505000687 0.0016195247614018572
0.01250521050438 0.0019000571284545607 0.0032728849021333136 0.9980124041897884 -0.008286780356571299 0.00013491810130075865 0.0017249953248826848 -0.00012608502121621155 -0.0010792503867158736
 0.9980124041897884 -0.008286780356571299 0.0019002154566789388 0.0032728444856762995 -0.0001260821762987967 -0.0010792494172692656 0.0001339261431492596 0.0017251845198798812
 0.00013491810130075865 0.0017249953248826848 -0.0001260821762987967 -0.0010792494172692656 0.0019000618935634786 0.0032730512442870367 0.9980124055916632 -0.008286612954339575
 -0.00012608502121621155 -0.0010792503867158736 0.0001339261431492596 0.0017251845198798812 0.9980124055916632 -0.008286612954339575 0.001900213445900192 0.0032730128150264414
0.01875781575657 0.0020813191281344383 0.004949849838959605 0.9977778286939192 -0.012441415569131455 0.0001856518858926297 0.002588505860986318 -0.00016964269533237475 -0.001621970557891487
 0.9977778286939192 -0.012441415569131455 0.002081674921967405 0.004949784931206718 -0.00016963635914447086 -0.0016219692093656843 0.00018342347378168453 0.0025888439714296953
 0.0001856518858926297 0.002588505860986318 -0.00016963635914447086 -0.0016219692093656843 0.0020813294250442427 0.004950098924177138 0.9977778314264861 -0.012441164642979941
 -0.00016964269533237475 -0.001621970557891487 0.00018342347378168453 0.0025888439714296953 0.9977778314264861 -0.012441164642979941 0.0020816699640625745 0.004950037237725314
0.02501042100875 0.002277860940902899 0.006647991704126462 0.9975217223328378 -0.016608909957071004 0.00024577111246869385 0.003452917215426785 -0.00022076322860557318 -0.0021662289652351354
 0.9975217223328378 -0.016608909957071004 0.0022784928444305147 0.006647899210274819 -0.00022075205035828983 -0.0021662273235097396 0.00024181278098156685 0.0034534487180487277
 0.00024577111246869385 0.003452917215426785 -0.00022075205035828983 -0.0021662273235097396 0.0022778788672263993 0.006648323247408727 0.9975217268164923 -0.0166085755304764
 -0.00022076322860557318 -0.0021662289652351354 0.00024181278098156685 0.0034534487180487277 0.9975217268164923 -0.0166085755304764 0.0022784836310876613 0.006648235418027229
0.03126302626094 0.0024900275398955247 0.008366089128290044 0.997243789351431 -0.020790113794338885 0.0003153742042417222 0.004318178340603463 -0.0002795526318369607 -0.002711844089047906
 0.997243789351431 -0.020790113794338885 0.0024910141004913827 0.008365965787144066 -0.0002795352764431696 -0.0027118422521110372 0.00030919180883044837 0.004318953896404768
 0.0003153742042417222 0.004318178340603463 -0.0002795352764431696 -0.0027118422521110372 0.0024900551930043995 0.008366502803470977 0.9972437960088957 -0.020789695860873366
 -0.0002795526318369607 -0.002711844089047906 0.00030919180883044837 0.004318953896404768 0.9972437960088957 -0.020789695860873366 0.0024909993127670465 0.008366385815679066
0.037515631513130004 0.0027181563232872067 0.01010334149992457 0.9969437274983577 -0.024985445003037753 0.00039455906788699003 0.0051842059019176 -0.00034611446558192963 -0.0032586603279136633
 0.9969437274983577 -0.024985445003037753 0.0027195760223057484 0.01010318388677008 -0.00034608961189087624 -0.003258658405878027 0.00038565758610328724 0.005185282418966853
 0.00039455906788699003 0.0051842059019176 -0.00034608961189087624 -0.003258658405878027 0.0027181957994219462 0.010103836950544195 0.9969437367555043 -0.024984943515077095
 -0.00034611446558192963 -0.0032586603279136633 0.00038565758610328724 0.005185282418966853 0.9969437367555043 -0.024984943515077095 0.0027195543301550404 0.01010368766237638
0.043768236765320004 0.00296257994150753 0.011859149764687467 0.9966212311031217 -0.029195108283777874 0.0004834225870094862 0.006050899236732279 -0.00042055011412989987 -0.003806533043763982
 0.9966212311031217 -0.029195108283777874 0.002964511218598003 0.011858954292948394 -0.0004205164538776842 -0.003806531158838744 0.000471306027468343 0.006052339940837445
 0.0004834225870094862 0.006050899236732279 -0.0004205164538776842 -0.003806531158838744 0.0029626333361960793 0.011859726570417957 0.9966212433907862 -0.029194523185587674
 -0.00042055011412989987 -0.003806533043763982 0.000471306027468343 0.006052339940837445 0.9966212433907862 -0.029194523185587674 0.0029644812815984873 0.011859541715590992
0.050020842017509996 0.0032236276114009713 0.01363302582293913 0.9962759926454782 -0.03341918564614899 0.0005820603158333076 0.006918146542006368 -0.0005029588828861411 -0.004355322382695546
 0.9962759926454782 -0.03341918564614899 0.0032261488861093385 0.01363278874485336 -0.0005029151199725673 -0.0043553206691307415 0.0005662316840796149 0.006920021050479811
 0.0005820603158333076 0.006918146542006368 -0.0005029151199725673 -0.0043553206691307415 0.0032236970159334865 0.013633683517304521 0.9962760083972773 -0.03341851685560056
 -0.0005029588828861411 -0.004355322382695546 0.0005662316840796149 0.006920021050479811 0.9962760083972773 -0.03341851685560056 0.003226109350384978 0.013633459706540329
0.055454545454549996 0.003464240309360873 0.01518892250753259 0.9959572610855641 -0.03710174721981565 0.0006757903991428752 0.0076721676585194635 -0.000581125323353012 -0.004832874102029752
 0.9959572610855641 -0.03710174721981565 0.003467337995515892 0.015188646103599289 -0.0005810717373611928 -0.004832872655744185 0.0006563314652674382 0.007674480714347974
 0.0006757903991428752 0.0076721676585194635 -0.0005810717373611928 -0.004832872655744185 0.003464325322800789 0.015189650078452698 0.9959572802045461 -0.03710100561409496
 -0.000581125323353012 -0.004832874102029752 0.0006563314652674382 0.007674480714347974 0.9959572802045461 -0.03710100561409496 0.0034672890096605416 0.015189389566144122
0.056273447269699996 0.0035016257812224877 0.01542454806457973 0.9959077036792369 -0.03765768080340692 0.0006905662645023564 0.007785827902677193 -0.0005934380130350532 -0.0049048902594124675
 0.9959077036792369 -0.03765768080340692 0.0035048154729627598 0.01542426547138042 -0.0005933828629731272 -0.004904888863471372 0.0006705275640551235 0.007788212299417246
 0.0006905662645023564 0.007785827902677193 -0.0005933828629731272 -0.004904888863471372 0.003501713283497378 0.015425286132622418 0.9959077233345942 -0.03765692821399343
 -0.0005934380130350532 -0.0049048902594124675 0.0006705275640551235 0.007788212299417246 0.9959077233345942 -0.03765692821399343 0.003504764972887847 0.01542501985416667
0.06252605252188 0.003796898485047364 0.017233336936428048 0.9955160554510515 -0.04191054353816184 0.0008090327268252805 0.008653816974883988 -0.0006920826582099319 -0.005455098691527025
 0.9955160554510515 -0.04191054353816184 0.0038008350322164507 0.017233004757677223 -0.0006920148477760487 -0.005455097771435769 0.0007842849825198973 0.008656793885945195
 0.0008090327268252805 0.008653816974883988 -0.0006920148477760487 -0.005455097771435769 0.003797006168716766 0.017234154801350376 0.9955160794559207 -0.041909707031839376
 -0.0006920826582099319 -0.005455098691527025 0.0007842849825198973 0.008656793885945195 0.9955160794559207 -0.041909707031839376 0.0038007721898657377 0.017233842421000102
0.06877865777407 0.004109767524583546 0.01905904035296543 0.9951007393504505 -0.046177684228954914 0.000937550134861907 0.009521981979120261 -0.0007989858353532887 -0.006005808828962137
 0.9951007393504505 -0.046177684228954914 0.00411452940297769 0.01905865435546462 -0.0007989041022054055 -0.00600580855486648 0.0009075934328911832 0.00952564064819684
 0.000937550134861907 0.009521981979120261 -0.0007989041022054055 -0.00600580855486648 0.004109897466638417 0.019059937389166438 0.9951007681567731 -0.04617676366280973
 -0.0007989858353532887 -0.006005808828962137 0.0009075934328911832 0.00952564064819684 0.9951007681567731 -0.04617676366280973 0.00411445282699202 0.019059575149597874
0.07503126302626001 0.004440552547232406 0.020901324473249223 0.9946614472599518 -0.05045898301579475 0.0010762069269458943 0.010390186346769957 -0.0009142383626110504 -0.00655688033519587
 0.9946614472599518 -0.05045898301579475 0.004446218288233891 0.02090088025929291 -0.000914141455095034 -0.006556880889123025 0.0010405404669326923 0.010394622710278729
 0.0010762069269458943 0.010390186346769957 -0.000914141455095034 -0.006556880889123025 0.004440706817876627 0.020902299996681552 0.9946614813271588 -0.05045797823125535
 -0.0009142383626110504 -0.00655688033519587 0.0010405404669326923 0.010394622710278729 0.9946614813271588 -0.05045797823125535 0.004446126574102798 0.02090188401620808
0.08128386827845 0.004789571061123766 0.02275986755013635 0.9941978718465797 -0.05475429589898773 0.00122508942554601 0.011258289151481941 -0.0010379287871356052 -0.007108170989134706
 0.9941978718465797 -0.05475429589898773 0.004796219269789122 0.02275936055511333 -0.0010378154640488058 -0.0071081725649515815 0.001183211582145114 0.011263605912992674
 0.00122508942554601 0.011258289151481941 -0.0010378154640488058 -0.0071081725649515815 0.004789751721821463 0.022760920824327246 0.9941979116420471 -0.05475320671558766
 -0.0010379287871356052 -0.007108170989134706 0.001183211582145114 0.011263605912992674 0.9941979116420471 -0.05475320671558766 0.004796110998940363 0.02276044709498754
0.08753647353064001 0.005157138407172786 0.02463435568884839 0.993709706814458 -0.0590634589344551 0.0013842817208469056 0.012126145415287944 -0.0011701433065478837 -0.00765953641781502
 0.993709706814458 -0.0590634589344551 0.0051648477801048255 0.024633781178283062 -0.0011700123369675782 -0.007659539221192762 0.0013356901130948007 0.01213245211923605
 0.0013842817208469056 0.012126145415287944 -0.0011700123369675782 -0.007659539221192762 0.005157347509944295 0.02463548591738289 0.9937097528145008 -0.05906228515702053
 -0.0011701433065478837 -0.00765953641781502 0.0013356901130948007 0.01213245211923605 0.9937097528145008 -0.05906228515702053 0.005164721520131542 0.024634950302489942
0.09378907878283 0.005543567701482179 0.026524479807125825 0.9931966471313594 -0.06338629123393118 0.001553865558169573 0.012993606337213267 -0.0013109656857503381 -0.008210829912532223
 0.9931966471313594 -0.06338629123393118 0.005552417045283307 0.026523832873003778 -0.0013108158489358284 -0.008210834160902724 0.0014980571255655962 0.013001019441563594
 0.001553865558169573 0.012993606337213267 -0.0013108158489358284 -0.008210834160902724 0.005543807287359448 0.02652568614042154 0.9931966998212742 -0.06338503264559482
 -0.0013109656857503381 -0.008210829912532223 0.0014980571255655962 0.013001019441563594 0.9931966998212742 -0.06338503264559482 0.005552271348864423 0.026525084371339026
0.100041684035 0.00594916975678155 0.02842993342269195 0.9926583892368295 -0.06772259714413553 0.0017339202285626357 0.013860519469177938 -0.0014604771702765758 -0.00876190230350358
 0.9926583892368295 -0.06772259714413553 0.005959238005444359 0.02842920897923766 -0.0014603072554761672 -0.008761908226039951 0.0016703913123817147 0.013869162417038429
 0.0017339202285626357 0.013860519469177938 -0.0014603072554761672 -0.008761908226039951 0.005949441854732408 0.028431214953509424 0.9926584491127222 -0.06772125351073237
 -0.0014604771702765758 -0.00876190230350358 0.0016703913123817147 0.013869162417038429 0.9926584491127222 -0.06772125351073237 0.00595907141081617 0.0284305426258091
0.1059090909091 0.0063474964478284135 0.030231669364671532 0.9921301048530942 -0.07180382860863697 0.00191247393014682 0.014673388408210102 -0.0016087505706904239 -0.009278689092187988
 0.9921301048530942 -0.07180382860863697 0.006358780428874584 0.030230867398721467 -0.0016085607225144749 -0.00927869680459961 0.0018412416300852164 0.014683303988127477
 0.00191247393014682 0.014673388408210102 -0.0016085607225144749 -0.00927869680459961 0.006347800887915977 0.03023302058360059 0.9921301719326239 -0.07180240494124411
 -0.0016087505706904239 -0.009278689092187988 0.0018412416300852164 0.014683303988127477 0.9921301719326239 -0.07180240494124411 0.0063585928800525045 0.03023227791344481
0.1062942892872 0.006374252987916054 0.030350410986779264 0.9920946312402874 -0.07207216788702546 0.001924522460804111 0.014726728854491472 -0.0016187563971315337 -0.00931260187810475
 0.9920946312402874 -0.07207216788702546 0.006385619221567904 0.030349603765415713 -0.0016185652035293381 -0.00931260971567464 0.0018527688906612972 0.014736732144587665
 0.001924522460804111 0.014726728854491472 -0.0016185652035293381 -0.00931260971567464 0.006374559613168368 0.030351766749756138 0.9920946988086973 -0.07207073895741631
 -0.0016187563971315337 -0.00931260187810475 0.0018527688906612972 0.014736732144587665 0.9920946988086973 -0.07207073895741631 0.0063854302513603155 0.03035101931871311
0.11254689453939999 0.006819123305641343 0.032285606607666266 0.9915050731075374 -0.07643478281675277 0.002125746315215408 0.01559207514673952 -0.0017858793036185895 -0.009862774324939004
 0.9915050731075374 -0.07643478281675277 0.006831866768347286 0.03228471115141919 -0.001785665640221717 -0.009862784330086258 0.002045263499966121 0.015603576402473975
 0.002125746315215408 0.01559207514673952 -0.001785665640221717 -0.009862784330086258 0.006819466458564868 0.03228703558208442 0.9915051488870089 -0.07643326831996364
 -0.0017858793036185895 -0.009862774324939004 0.002045263499966121 0.015603576402473975 0.9915051488870089 -0.07643326831996364 0.006831653929586358 0.032286208357405234
0.11879949979160001 0.007284084000253594 0.03423521307228679 0.9908894168431046 -0.08081021038610062 0.0023376630785919765 0.01645639571112168 -0.0019619190346004713 -0.010412262701672611
 0.9908894168431046 -0.08081021038610062 0.007298284118778276 0.034234223729359095 -0.0019616817201874854 -0.010412275138583728 0.0022479461011045985 0.016469539748409055
 0.0023376630785919765 0.01645639571112168 -0.0019616817201874854 -0.010412275138583728 0.007284465665141867 0.03423671417917023 0.9908895013644571 -0.08080861003420271
 -0.0019619190346004713 -0.010412262701672611 0.0022479461011045985 0.016469539748409055 0.9908895013644571 -0.08080861003420271 0.007298045902403465 0.0342358023190289
0.1250521050438 0.007769435619112928 0.03619892106570701 0.9902473666669674 -0.08519820892219987 0.0025603411598016466 0.017319524714090016 -0.002146945848817644 -0.0109609074212472
 0.9902473666669674 -0.08519820892219987 0.00778517202074584 0.03619783198242876 -0.0021466837117957173 -0.01096092256571748 0.002460884875703887 0.017334463607570065
 0.0025603411598016466 0.017319524714090016 -0.0021466837117957173 -0.01096092256571748 0.007769857762326261 0.036200493168582946 0.9902474604743066 -0.08519652240969043
 -0.002146945848817644 -0.0109609074212472 0.002460884875703887 0.017334463607570065 0.9902474604743066 -0.08519652240969043 0.00778490690149053 0.03619949167287548
0.131304710296 0.008275475836662431 0.038176418555950345 0.989578629188246 -0.08959852724482661 0.0027938459863286295 0.018181293207648788 -0.0023410270242023 -0.011508546249739276
 0.989578629188246 -0.08959852724482661 0.008292828368408875 0.03817522366886684 -0.0023407389026759173 -0.01150856438917794 0.0026841451259897557 0.018198186355380924
 0.0027938459863286295 0.018181293207648788 -0.0023407389026759173 -0.01150856438917794 0.008275940405585257 0.038178060461178095 0.9895787328396635 -0.08959675424835051
 -0.0023410270242023 -0.011508546249739276 0.0026841451259897557 0.018198186355380924 0.9895787328396635 -0.08959675424835051 0.008292534803844178 0.03817696416401353
0.1375573155481 0.008687800988763452 0.039909139285684514 0.9889976573148963 -0.0937525391811799 0.00300972464174859 0.01901581707481291 -0.002515844333086801 -0.012029226370250766
 0.9889976573148963 -0.0937525391811799 0.008706854360742778 0.03990785691690127 -0.0025155283321979674 -0.012029247526999907 0.00288953049108531 0.01903464304187775
 0.00300972464174859 0.01901581707481291 -0.0025155283321979674 -0.012029247526999907 0.008688309137945426 0.03991085027049189 0.9889977712672131 -0.09375067951329413
 -0.002515844333086801 -0.012029226370250766 0.00288953049108531 0.01903464304187775 0.9889977712672131 -0.09375067951329413 0.008706531780438643 0.039909677656061286
0.1438099208003 0.009114668157428878 0.04163243996881741 0.9883961623526074 -0.0978957312878955 0.0032343355183041254 0.019846739268463073 -0.0026976495074516795 -0.01254666504223036
 0.9883961623526074 -0.0978957312878955 0.009135503213926904 0.041631065402925375 -0.002697304347224713 -0.012546689504399192 0.003103188960577588 0.019867644072303545
 0.0032343355183041254 0.019846739268463073 -0.002697304347224713 -0.012546689504399192 0.009115221663277011 0.04163421883559242 0.988396287163089 -0.09789378463321705
 -0.0026976495074516795 -0.01254666504223036 0.003103188960577588 0.019867644072303545 0.988396287163089 -0.09789378463321705 0.009135150227819069 0.0416329660282889
0.1500625260525 0.00955592256028345 0.04334616810543563 0.9877743033045919 -0.10202799195399465 0.003467599198441983 0.020673967276973636 -0.002886366537776452 -0.013060777106699778
 0.9877743033045919 -0.10202799195399465 0.009578620372041916 0.04334469632350238 -0.0028859909387285903 -0.013060805174474003 0.0033250439609040718 0.02069710226216599
 0.003467599198441983 0.020673967276973636 -0.0028859909387285903 -0.013060805174474003 0.009556523171325597 0.043348013611949725 0.9877744395423707 -0.10202595798463768
 -0.002886366537776452 -0.013060777106699778 0.0033250439609040718 0.02069710226216599 0.9877744395423707 -0.10202595798463768 0.009578235585475483 0.04334667646263162
0.15631513130469998 0.010011408262671231 0.04505017578571922 0.9871322400403366 -0.10614921014586816 0.003709435290516911 0.021497410196446153 -0.0030819184492085943 -0.013571479250554757
 0.9871322400403366 -0.10614921014586816 0.01003605013344226 0.045048601455479564 -0.003081511132283558 -0.013571511236228411 0.003555017988955029 0.021522931977470506
