! Created with skrf 1.8.0 (http://scikit-rf.org).
# GHz S RI R 50.0 
!freq ReS11 ImS11 ReS12 ImS12 ReS13 ImS13
! ReS14 ImS14
! ReS21 ImS21 ReS22 ImS22 ReS23 ImS23
! ReS24 ImS24
! ReS31 ImS31 ReS32 ImS32 ReS33 ImS33
! ReS34 ImS34
! ReS41 ImS41 ReS42 ImS42 ReS43 ImS43
! ReS44 ImS44
!
0.0 0.001424463873637 0.0 0.9985755361256 0.0 5.490762396928e-05 0.0 -5.490762695593e-05 6.72424496003566e-21
 0.9985755361256 0.0 0.001424463873604 0.0 -5.49076269557e-05 6.724244960007493e-21 5.490762396932e-05 0.0
 5.490762396928e-05 0.0 -5.49076269557e-05 6.724244960007493e-21 0.001424463868386 0.0 0.9985755361203 0.0
 -5.490762695593e-05 6.72424496003566e-21 5.490762396932e-05 0.0 0.9985755361203 0.0 0.001424463868373 0.0
0.005 0.0015323281738294236 0.0011625045106256181 0.9984391276035891 -0.002984461109001522 7.713824889064222e-05 0.0006232957843969656 -7.48963448549735e-05 -0.0003880840757244219
 0.9984391276035891 -0.002984461109001522 0.001532316730100252 0.0011625111191041178 -7.489532294504002e-05 -0.0003880832455152735 7.72234668723939e-05 0.0006232635253092306
 7.713824889064222e-05 0.0006232957843969656 -7.489532294504002e-05 -0.0003880832455152735 0.001532329270646605 0.0011625710847746617 0.9984391279562285 -0.0029843940523164025
 -7.48963448549735e-05 -0.0003880840757244219 7.72234668723939e-05 0.0006232635253092306 0.9984391279562285 -0.0029843940523164025 0.0015323163300679904 0.0011625786494988037
0.006252605252188 0.0015605260404819195 0.0014577310013491932 0.9984032598038104 -0.0037313224032532503 8.341976253261897e-05 0.0007794203418954892 -8.049793721431973e-05 -0.00048561661962111794
 0.9984032598038104 -0.0037313224032532503 0.0015605081520937297 0.001457739357504885 -8.049634738330675e-05 -0.00048561559486908233 8.35529105787991e-05 0.0007793784419701812
 8.341976253261897e-05 0.0007794203418954892 -8.049634738330675e-05 -0.00048561559486908233 0.0015605276742356252 0.0014578142140545696 0.9984032602740867 -0.003731238578185408
 -8.049793721431973e-05 -0.00048561661962111794 8.35529105787991e-05 0.0007793784419701812 0.9984032602740867 -0.003731238578185408 0.0015605074452268155 0.0014578237755435714
0.01250521050438 0.0017084317672575904 0.002946250281133409 0.9982139627507037 -0.007463558334276224 0.00011907578072447027 0.0015591925488057392 -0.0001120553869117295 -0.0009736657567519313
 0.9982139627507037 -0.007463558334276224 0.001708360345066573 0.0029462679347029737 -0.00011204912565522941 -0.000973663848550464 0.0001196068253014096 0.0015590918486681736
 0.00011907578072447027 0.0015591925488057392 -0.00011204912565522941 -0.000973663848550464 0.0017084377407543916 0.002946416343719649 0.9982139640753298 -0.00746339092050861
 -0.0001120553869117295 -0.0009736657567519313 0.0001196068253014096 0.0015590918486681736 0.9982139640753298 -0.00746339092050861 0.0017083569593888672 0.002946436521764906
0.01875781575657 0.0018684849468258798 0.004456193415010243 0.998007423191678 -0.011205814617472096 0.00016195595250107815 0.002339873242010334 -0.00014967337294180804 -0.0014634319981831683
 0.998007423191678 -0.011205814617472096 0.0018683244723032386 0.004456221338107611 -0.00014965941567772814 -0.0014634293716513605 0.00016314907890475845 0.0023396937597130775
 0.00016195595250107815 0.002339873242010334 -0.00014965941567772814 -0.0014634293716513605 0.0018684979499355213 0.0044564420615908025 0.9980074257451825 -0.011205563663994944
 -0.00014967337294180804 -0.0014634319981831683 0.00016314907890475845 0.0023396937597130775 0.9980074257451825 -0.011205563663994944 0.0018683164190754643 0.004456473983773544
0.02501042100875 0.0020409815562153297 0.005985460854172823 0.9977834111604172 -0.014959924730972095 0.00021214125262100644 0.003121514062873581 -0.0001934425149623144 -0.001954700123148856
 0.9977834111604172 -0.014959924730972095 0.002040696589761957 0.0059855000347561905 -0.00019341787484593103 -0.001954696970406964 0.00021426087094502248 0.0031212328422070145
 0.00021214125262100644 0.003121514062873581 -0.00019341787484593103 -0.001954696970406964 0.0020410042838675292 0.005985791774206026 0.9977834153271172 -0.014959590241645634
 -0.0001934425149623144 -0.001954700123148856 0.00021426087094502248 0.0031212328422070145 0.9977834153271172 -0.014959590241645634 0.0020406818792650236 0.005985836623884876
0.03126302626094 0.002226205255839836 0.007532981843231584 0.997541684296511 -0.018726684850425758 0.00026971312198732013 0.0039040929920810823 -0.00024345103344966488 -0.0024473238555476917
 0.997541684296511 -0.018726684850425758 0.002225760415694005 0.007533033281117541 -0.0002434127549167695 -0.002447320396092537 0.00027302411506123763 0.003903684083326806
 0.00026971312198732013 0.0039040929920810823 -0.0002434127549167695 -0.002447320396092537 0.0022262403996812083 0.007533394677475692 0.9975416904631509 -0.018726266787629932
 -0.00024345103344966488 -0.0024473238555476917 0.00027302411506123763 0.003903684083326806 0.9975416904631509 -0.018726266787629932 0.00222573704669395 0.007533453690076084
0.037515631513130004 0.002424433696902005 0.009098065574990313 0.9972819943255818 -0.02250650263610692 0.0003347527453768236 0.004687559167896664 -0.00029978541798872437 -0.0029411810484049374
 0.9972819943255818 -0.02250650263610692 0.0024237936445732676 0.009098130279274329 -0.0002997305733803777 -0.002941177529194632 0.0003395205837233005 0.004686993595641883
 0.0003347527453768236 0.004687559167896664 -0.0002997305733803777 -0.002941177529194632 0.0024244839449586554 0.009098559903761237 0.9972820028816326 -0.022506000931904475
 -0.00029978541798872437 -0.0029411810484049374 0.0003395205837233005 0.004686993595641883 0.9972820028816326 -0.022506000931904475 0.002423759603323098 0.009098634364752447
0.043768236765320004 0.0026359409584481514 0.010680203751807412 0.9970040896665682 -0.026299594606289167 0.00040734071407555185 0.005471846506481311 -0.0003625306722622687 -0.0034361600602878057
 0.9970040896665682 -0.026299594606289167 0.0026350703868692057 0.0106802827388616 -0.00036245635978437345 -0.003436156755759956 0.00041383151389253977 0.005471092233346028
 0.00040734071407555185 0.005471846506481311 -0.00036245635978437345 -0.003436156755759956 0.0026360089950887484 0.01068077909679941 0.9970041010064332 -0.02629900916010641
 -0.0003625306722622687 -0.0034361600602878057 0.00041383151389253977 0.005471092233346028 0.9970041010064332 -0.02629900916010641 0.0026350236466917373 0.010680870340222165
0.050020842017509996 0.002860998685844617 0.012278988974166245 0.9967077167434666 -0.0301060676815503 0.0004875568239875464 0.006256879325637284 -0.000431770408852246 -0.003932154128026794
 0.9967077167434666 -0.0301060676815503 0.0028598623085537675 0.0122790832660965 -0.0004316737512505805 -0.003932151340076537 0.0004960373750438017 0.0062559012143304565
 0.0004875568239875464 0.006256879325637284 -0.0004316737512505805 -0.003932151340076537 0.0028610871926462583 0.01227964478267392 0.9967077312680866 -0.03010539837526319
 -0.000431770408852246 -0.003932154128026794 0.0004960373750438017 0.0062559012143304565 0.9967077312680866 -0.03010539837526319 0.002859800830447171 0.012279754190258799
0.055454545454549996 0.003067794889008303 0.01368163098120864 0.9964349633310803 -0.03342490549569262 0.0005635233083404846 0.006939638112967578 -0.0004972800648255737 -0.004363931047946992
 0.9964349633310803 -0.03342490549569262 0.0030663988704492423 0.013681739407066365 -0.0004971616703276896 -0.004363928975398746 0.0005739502102331752 0.006938434507004122
 0.0005635233083404846 0.006939638112967578 -0.0004971616703276896 -0.004363928975398746 0.003067903358774506 0.013682356222079067 0.996434980953524 -0.03342416318870577
 -0.0004972800648255737 -0.004363931047946992 0.0005739502102331752 0.006938434507004122 0.996434980953524 -0.03342416318870577 0.003066322917213686 0.013682482573568477
0.056273447269699996 0.003099876681922651 0.013894074688954355 0.9963926207514692 -0.033925959169845775 0.0005754799333736343 0.007042575113641001 -0.0005075868768596588 -0.004429058595889963
 0.9963926207514692 -0.033925959169845775 0.003098439223545078 0.013894185312282637 -0.0005074650205220966 -0.004429056653844384 0.000586217708933839 0.007041334888167019
 0.0005754799333736343 0.007042575113641001 -0.0005074650205220966 -0.004429056653844384 0.003099988335290032 0.01389481035128153 0.996392638867652 -0.03392520584987706
 -0.0005075868768596588 -0.004429058595889963 0.000586217708933839 0.007041334888167019 0.996392638867652 -0.03392520584987706 0.003098360953591678 0.01389493935182379
0.06252605252188 0.0033528432281310456 0.015525153172512065 0.996058546155877 -0.03775925871859772 0.0006711878507249854 0.00782884603869153 -0.0005900609549499413 -0.0049267694064090125
 0.996058546155877 -0.03775925871859772 0.003351069414601857 0.015525281157045896 -0.00058991106923028 -0.004926768666979068 0.0006844510053814715 0.007827302245152361
 0.0006711878507249854 0.00782884603869153 -0.00058991106923028 -0.004926768666979068 0.0033529806984878546 0.01552596800629944 0.996058568277618 -0.037758421210984314
 -0.0005900609549499413 -0.0049267694064090125 0.0006844510053814715 0.007827302245152361 0.996058568277618 -0.037758421210984314 0.0033509722833335747 0.015526118075235804
0.06877865777407 0.0036201652593503015 0.01717194239731472 0.9957052370481009 -0.041605921385256955 0.0007747572373019965 0.008615599854264024 -0.0006792721262448373 -0.005425182197953889
 0.9957052370481009 -0.041605921385256955 0.0036180198088884034 0.01717208877544478 -0.0006790914030074712 -0.005425183045202436 0.0007908145965445751 0.008613707821543335
 0.0007747572373019965 0.008615599854264024 -0.0006790914030074712 -0.005425183045202436 0.0036203312109904027 0.01717283565294823 0.9957052635977907 -0.041604999489736255
 -0.0006792721262448373 -0.005425182197953889 0.0007908145965445751 0.008613707821543335 0.9957052635977907 -0.041604999489736255 0.0036179017310649553 0.017173008312317762
0.07503126302626001 0.0039021084540655266 0.018834177710381542 0.9953324374199602 -0.04546587589924415 0.000886263520700849 0.009402740473253924 -0.0007752984398470556 -0.005924191736524242
 0.9953324374199602 -0.04546587589924415 0.0038995560676764224 0.018834343516495804 -0.0007750840931031424 -0.005924194581813815 0.0009053845640455881 0.009400452273685488
 0.000886263520700849 0.009402740473253924 -0.0007750840931031424 -0.005924194581813815 0.0039023055432584933 0.018835148570631503 0.9953324688285372 -0.045464869389164206
 -0.0007752984398470556 -0.005924191736524242 0.0009053845640455881 0.009400452273685488 0.9953324688285372 -0.045464869389164206 0.003899414940684965 0.01883534538917314
0.08128386827845 0.004198937269145791 0.020511606291418884 0.9949398913851499 -0.04933903014714845 0.0010057808134566748 0.010190168352423338 -0.0008782164649245491 -0.0064236915403831025
 0.9949398913851499 -0.04933903014714845 0.004195942621789258 0.02051179256160868 -0.0008779657305937173 -0.006423696822330955 0.0010282356530152794 0.010187432762551728
 0.0010057808134566748 0.010190168352423338 -0.0008779657305937173 -0.006423696822330955 0.004199168143983598 0.020512653868169962 0.9949399280938214 -0.049337938772207136
 -0.0008782164649245491 -0.0064236915403831025 0.0010282356530152794 0.010187432762551728 0.9949399280938214 -0.049337938772207136 0.004195776325546536 0.020512876461769563
0.08753647353064001 0.004510914939277719 0.0222039833228749 0.9945273433690534 -0.05322527494950432 0.0011333818350610467 0.010977780761863 -0.0009881012398949124 -0.006923573622980116
 0.9945273433690534 -0.05322527494950432 0.004507442670412081 0.02220419109491394 -0.000987811375639905 -0.006923581807407532 0.0011594411898967003 0.010974543223439923
 0.0011333818350610467 0.010977780761863 -0.000987811375639905 -0.006923581807407532 0.004511182237777996 0.022205106658641727 0.9945273858289094 -0.05322409843386376
 -0.0009881012398949124 -0.006923573622980116 0.0011594411898967003 0.010974543223439923 0.9945273858289094 -0.05322409843386376 0.004507249065637656 0.02220535669095234
0.09378907878283 0.004838303451347268 0.023911069252195737 0.9940945382752904 -0.057124486749018266 0.0012691378373653522 0.011765471975203112 -0.001105026216353718 -0.007423728318626518
 0.9940945382752904 -0.057124486749018266 0.004834318155932027 0.023911299565707818 -0.0011046945014254162 -0.0074237398985083055 0.001299073004864861 0.011761674556341093
 0.0012691378373653522 0.011765471975203112 -0.0011046945014254162 -0.0074237398985083055 0.00483860980096273 0.023912267317013333 0.994094586949397 -0.05712322479404375
 -0.001105026216353718 -0.007423728318626518 0.001299073004864861 0.011761674556341093 0.994094586949397 -0.05712322479404375 0.004834095084085459 0.023912546500392935
0.100041684035 0.00518136350167195 0.025632627781808595 0.9936412216391141 -0.06103652957481009 0.001413118530115238 0.012553133419660942 -0.0012290632016253966 -0.00792404415182509
 0.9936412216391141 -0.06103652957481009 0.005176829720724769 0.025632881678823764 -0.001228686936820103 -0.007924059647226872 0.0014472013544025834 0.012548714776421908
 0.001413118530115238 0.012553133419660942 -0.001228686936820103 -0.007924059647226872 0.005181711517648557 0.02563389947586547 0.993641277002604 -0.061035181856085405
 -0.0012290632016253966 -0.00792404415182509 0.0014472013544025834 0.012548714776421908 0.993641277002604 -0.061035181856085405 0.00517657500245706 0.02563420957263834
0.1059090909091 0.0055177731090146264 0.0272610815863064 0.9931969510384653 -0.06471910578517946 0.0015557700846439506 0.013292143954342186 -0.0013519895192895543 -0.008393583081343758
 0.9931969510384653 -0.06471910578517946 0.005512692326732473 0.027261358564427622 -0.0013515690133983165 -0.008393602748128915 0.0015939927413625718 0.013287083493294936
 0.0015557700846439506 0.013292143954342186 -0.0013515690133983165 -0.008393602748128915 0.0055181625911841945 0.027262421309872335 0.9931970131228702 -0.06471767726923279
 -0.0013519895192895543 -0.008393583081343758 0.0015939927413625718 0.013287083493294936 0.9931970131228702 -0.06471767726923279 0.005512405910397066 0.027262762064143416
0.1062942892872 0.005540354439348068 0.027368424361498535 0.9931671397691351 -0.06496125650853234 0.0015653920088103557 0.013340653788747117 -0.0013602822976516782 -0.008424407747717147
 0.9931671397691351 -0.06496125650853234 0.005535236650538707 0.027368702887189112 -0.0013598588052530255 -0.008424427705744619 0.0016038948468478913 0.013335549126946171
 0.0015653920088103557 0.013340653788747117 -0.0013598588052530255 -0.008424427705744619 0.005540746723747604 0.02736976851453858 0.9931672023101488 -0.06495982267616882
 -0.0013602822976516782 -0.008424407747717147 0.0016038948468478913 0.013335549126946171 0.9931672023101488 -0.06495982267616882 0.005534948085080826 0.027370111338407808
0.11254689453939999 0.005915534199862708 0.02911822503360753 0.9926720398814911 -0.0688985108015338 0.0017260246822970796 0.014127919131777255 -0.0014987518390609444 -0.008924703769428863
 0.9926720398814911 -0.0688985108015338 0.005909796808176014 0.029118529237325035 -0.0014982784628221506 -0.00892472876416596 0.0017692203677656647 0.01412206016926388
 0.0017260246822970796 0.014127919131777255 -0.0014982784628221506 -0.00892472876416596 0.005915973340638633 0.029119640401221423 0.9926721101024997 -0.06889699048363909
 -0.0014987518390609444 -0.008924703769428863 0.0017692203677656647 0.01412206016926388 0.9926721101024997 -0.06889699048363909 0.005909472172822336 0.02912001781902821
0.11879949979160001 0.006307159231302336 0.030881795531067652 0.992155670230197 -0.07284812674365537 0.00189508120151716 0.014914812931795673 -0.0016445383290427905 -0.009424814870890473
 0.992155670230197 -0.07284812674365537 0.0063007665593080246 0.03088212646774499 -0.0016440124342211545 -0.009424845503327747 0.0019432430067914774 0.014908127861157937
 0.00189508120151716 0.014914812931795673 -0.0016440124342211545 -0.009424845503327747 0.0063076478003794515 0.030883280798413897 0.9921557486482947 -0.07284651954247512
 -0.0016445383290427905 -0.009424814870890473 0.0019432430067914774 0.014908127861157937 0.9921557486482947 -0.07284651954247512 0.006300403607708124 0.030883694732281787
0.1250521050438 0.006715484413338108 0.032658900567072775 0.991617780232054 -0.07680993034500586 0.0020726243879496445 0.01570121617030788 -0.0017977063747088983 -0.009924621666824758
 0.991617780232054 -0.07680993034500586 0.00670840069149595 0.03265925929885997 -0.0017971253480817116 -0.009924658564799812 0.002126025984296904 0.01569362962202181
 0.0020726243879496445 0.01570121617030788 -0.0017971253480817116 -0.009924658564799812 0.00671602496617102 0.03266045434691802 0.9916178673805062 -0.07680823583865065
 -0.0017977063747088983 -0.009924621666824758 0.002126025984296904 0.01569362962202181 0.9916178673805062 -0.07680823583865065 0.006707997153682462 0.0326609067765378
0.131304710296 0.007140762971890551 0.03444930326921949 0.9910581205902282 -0.08078373987756378 0.002258715162702839 0.016487007382824177 -0.0019583186210405993 -0.010424002715943325
 0.9910581205902282 -0.08078373987756378 0.007132952328996154 0.03444969086746204 -0.0019576798709784707 -0.010424046534077696 0.002317630578751368 0.016478440388914828
 0.002258715162702839 0.016487007382824177 -0.0019576798709784707 -0.010424046534077696 0.007141358045607871 0.03445092410088575 0.9910582170187445 -0.08078195762101834
 -0.0019583186210405993 -0.010424002715943325 0.002317630578751368 0.016478440388914828 0.9910582170187445 -0.08078195762101834 0.007132505909719111 0.03445141706624927
0.1375573155481 0.007483035575379735 0.03601835241498999 0.9905766903283264 -0.08453485664215839 0.002428837765453714 0.017248022321496376 -0.002101792210256878 -0.010898855905754143
 0.9905766903283264 -0.08453485664215839 0.007474457939930619 0.03601876126033925 -0.002101091780035906 -0.010898906648029538 0.002493397983216845 0.01723849079237613
 0.002428837765453714 0.017248022321496376 -0.002101091780035906 -0.010898906648029538 0.007483687059026162 0.03602003920177112 0.9905767964666675 -0.08453298635434832
 -0.002101792210256878 -0.010898855905754143 0.002493397983216845 0.01723849079237613 0.9905767964666675 -0.08453298635434832 0.00747396720110897 0.03602056556346269
0.1438099208003 0.007837256346083966 0.03757958531230965 0.9900785103028564 -0.08827693409021962 0.0026058275975714327 0.01800631502316878 -0.0022510207489627155 -0.011371184821455825
 0.9900785103028564 -0.08827693409021962 0.007827875031614584 0.03758001604817732 -0.0022502558322101147 -0.011371243129935968 0.0026762812825016015 0.017995747158064446
 0.0026058275975714327 0.01800631502316878 -0.0022502558322101147 -0.011371243129935968 0.007837966633854934 0.0375813365586199 0.9900786267008875 -0.08827497532968245
 -0.0022510207489627155 -0.011371184821455825 0.0026762812825016015 0.017995747158064446 0.9900786267008875 -0.08827497532968245 0.007827337796293792 0.03758189790428869
0.1500625260525 0.008203307118812182 0.03913288520637637 0.989563702475654 -0.09200989343122541 0.002789627314355799 0.018761819647518187 -0.002405947804779294 -0.011840925487321864
 0.989563702475654 -0.09200989343122541 0.00819308531039457 0.03913333855109483 -0.0024051155994527684 -0.011840992029855646 0.0028662218125617483 0.018750141029409095
 0.002789627314355799 0.018761819647518187 -0.0024051155994527684 -0.011840992029855646 0.008204078579746598 0.039134699355432116 0.9895638296974738 -0.09200784574124787
 -0.002405947804779294 -0.011840925487321864 0.0028662218125617483 0.018750141029409095 0.9895638296974738 -0.09200784574124787 0.00819249938711187 0.03913529738492718
0.15631513130469998 0.008581068964700591 0.04067813893302743 0.9890323893494927 -0.09573365587370081 0.0029801789366853083 0.019514471399972977 -0.0025665162887834854 -0.012308015226804964
