! Created with skrf 1.8.0 (http://scikit-rf.org).
# GHz S RI R 50.0 
!freq ReS11 ImS11 ReS12 ImS12 ReS13 ImS13
! ReS14 ImS14
! ReS21 ImS21 ReS22 ImS22 ReS23 ImS23
! ReS24 ImS24
! ReS31 ImS31 ReS32 ImS32 ReS33 ImS33
! ReS34 ImS34
! ReS41 ImS41 ReS42 ImS42 ReS43 ImS43
! ReS44 ImS44
!
0.0 0.001264428140027 0.0 0.9987355718599 0.0 4.830022953362e-05 0.0 -4.830022898968e-05 5.9150720830295814e-21
 0.9987355718599 0.0 0.001264428140019 0.0 -4.830022898991e-05 5.915072083057748e-21 4.830022953399e-05 0.0
 4.830022953362e-05 0.0 -4.830022898991e-05 5.915072083057748e-21 0.001264428136746 0.0 0.9987355718566 0.0
 -4.830022898968e-05 5.9150720830295814e-21 4.830022953399e-05 0.0 0.9987355718566 0.0 0.001264428136721 0.0
0.005 0.0013597546623225559 0.0010348784268168906 0.998615091758913 -0.0026495132980216126 6.720720292428361e-05 0.0005320883355147867 -6.540205947608994e-05 -0.0003341062444413483
 0.998615091758913 -0.0026495132980216126 0.0013597384780207873 0.0010348879105101798 -6.540439673975891e-05 -0.00033410805665329675 6.730670115344604e-05 0.000532050654396979
 6.720720292428361e-05 0.0005320883355147867 -6.540439673975891e-05 -0.00033410805665329675 0.0013597537056731545 0.0010349462711130488 0.9986150920873574 -0.002649446229225718
 -6.540205947608994e-05 -0.0003341062444413483 6.730670115344604e-05 0.000532050654396979 0.9986150920873574 -0.002649446229225718 0.0013597400868247162 0.0010349541996932075
0.006252605252188 0.0013845615587577602 0.0012976967013016121 0.9985835772266216 -0.0033125702953326736 7.247928494420039e-05 0.0006653819389447448 -7.013889063793971e-05 -0.00041807616705741404
 0.9985835772266216 -0.0033125702953326736 0.0013845362590786657 0.0012977086983757353 -7.014252753760553e-05 -0.0004180784026735788 7.263474585393189e-05 0.0006653330251043541
 7.247928494420039e-05 0.0006653819389447448 -7.014252753760553e-05 -0.0004180784026735788 0.001384560001314988 0.0012977814901495904 0.9985835776784665 -0.0033124864770926483
 -7.013889063793971e-05 -0.00041807616705741404 7.263474585393189e-05 0.0006653330251043541 0.9985835776784665 -0.0033124864770926483 0.001384538712583317 0.0012977915368033006
0.01250521050438 0.0015140184798734463 0.0026228693623397106 0.9984182036452057 -0.00662612165784903 0.00010203044487765389 0.0013312018222651995 -9.652308350464413e-05 -0.0008383033650777256
 0.9984182036452057 -0.00662612165784903 0.0015139174508691485 0.0026228947902131026 -9.653741577710615e-05 -0.0008383075158165432 0.00010265049387129012 0.0013310846898591665
 0.00010203044487765389 0.0013312018222651995 -9.653741577710615e-05 -0.0008383075158165432 0.0015140116802503894 0.002623038719723943 0.9984182048754193 -0.006625954249580918
 -9.652308350464413e-05 -0.0008383033650777256 0.00010265049387129012 0.0013310846898591665 0.9984182048754193 -0.006625954249580918 0.0015139266765932797 0.0026230601632084246
0.01875781575657 0.0016530401681690407 0.003967230731297992 0.9982392751008142 -0.009948759906542839 0.00013701667844313086 0.001997932299243528 -0.0001275251684627777 -0.0012601016958271648
 0.9982392751008142 -0.009948759906542839 0.001652813141142637 0.003967271141333091 -0.00012755713028744081 -0.0012601073902173178 0.0001384098063649275 0.0019977244273705853
 0.00013701667844313086 0.001997932299243528 -0.00012755713028744081 -0.0012601073902173178 0.0016530244564829752 0.003967484569523788 0.9982392774462979 -0.009948508998891045
 -0.0001275251684627777 -0.0012601016958271648 0.0001384098063649275 0.0019977244273705853 0.9982392774462979 -0.009948508998891045 0.001652833457765877 0.003967518819457602
0.02501042100875 0.0018018629273826737 0.005328941439027653 0.9980466098376565 -0.013282137042982724 0.00017750130046018271 0.0026656290300587776 -0.00016321577864753114 -0.0016833049487986666
 0.9980466098376565 -0.013282137042982724 0.0018014597292274124 0.005328998479503224 -0.00016327222243784216 -0.0016833117572260937 0.00017997629057733125 0.002665304812459322
 0.00017750130046018271 0.0026656290300587776 -0.00016327222243784216 -0.0016833117572260937 0.001801834627814684 0.005329279727196024 0.9980466136314186 -0.01328180266277557
 -0.00016321577864753114 -0.0016833049487986666 0.00017997629057733125 0.002665304812459322 0.9980466136314186 -0.01328180266277557 0.0018014954453452008 0.005329328235715431
0.03126302626094 0.001960713036154379 0.006707075924122945 0.9978400154486656 -0.016626985287085425 0.000223548119227538 0.0033342871320631647 -0.00020366392877742466 -0.002107804224237952
 0.9978400154486656 -0.016626985287085425 0.0019600835631339727 0.0067071513361279065 -0.000203751639545619 -0.0021078116580081903 0.00022741434343422366 0.0033338178593154077
 0.000223548119227538 0.0033342871320631647 -0.000203751639545619 -0.0021078116580081903 0.0019606684713484855 0.006707498640797409 0.997840021026087 -0.01662656744450563
 -0.00020366392877742466 -0.002107804224237952 0.00022741434343422366 0.0033338178593154077 0.997840021026087 -0.01662656744450563 0.0019601389850892026 0.006707562898355812
0.037515631513130004 0.0021298120739278088 0.00810104660860627 0.9976192943111746 -0.019983692851840623 0.00027522093207761475 0.004003878214942797 -0.00024893752863790734 -0.002533510895555073
 0.9976192943111746 -0.019983692851840623 0.0021289062747884874 0.00810114222381763 -0.00024906323138252924 -0.002533518406570945 0.00028078849130505704 0.004003232041628618
 0.00027522093207761475 0.004003878214942797 -0.00024906323138252924 -0.002533518406570945 0.002129747561849324 0.00810155374853645 0.9976193020087734 -0.019983191533695623
 -0.00024893752863790734 -0.002533510895555073 0.00028078849130505704 0.004003232041628618 0.9976193020087734 -0.019983191533695623 0.0021289857055861966 0.008101635281251577
0.043768236765320004 0.00230937897997178 0.009510428693597445 0.9973842457537232 -0.023352479092685 0.00033258328986721764 0.004674361636859607 -0.0002991035800021685 -0.002960345344306714
 0.9973842457537232 -0.023352479092685 0.0023081468435773717 0.00951054643286378 -0.00029927394423365233 -0.002960352324947816 0.0003401630880988866 0.004673503544046924
 0.00033258328986721764 0.004674361636859607 -0.00029927394423365233 -0.002960352324947816 0.002309290834564243 0.009511020258784704 0.9973842559110249 -0.02335189427148263
 -0.0002991035800021685 -0.002960345344306714 0.0003401630880988866 0.004673503544046924 0.9973842559110249 -0.02335189427148263 0.0023082545839963548 0.009511120626324731
0.050020842017509996 0.0024996310274869433 0.01093488772329988 0.9971346671388039 -0.026733466886759216 0.0003956983603298528 0.0053456891489315215 -0.0003542282573639057 -0.003388232305745279
 0.9971346671388039 -0.026733466886759216 0.0024980225718769862 0.01093502959563628 -0.0003544498999849798 -0.003388238088792468 0.0004056021434611852 0.005344580904693731
 0.0003956983603298528 0.0053456891489315215 -0.0003544498999849798 -0.003388238088792468 0.002499515555360624 0.010935563728411792 0.9971346800958241 -0.026732798515454063
 -0.0003542282573639057 -0.003388232305745279 0.0004056021434611852 0.005344580904693731 0.9971346800958241 -0.026732798515454063 0.002498162918125018 0.010935684522287605
0.055454545454549996 0.002673811329364744 0.01218481194349066 0.9969058171734299 -0.029681606067057578 0.0004552678762600053 0.0059297371020322195 -0.00040621107832958193 -0.0037608769324126426
 0.9969058171734299 -0.029681606067057578 0.002671835265257637 0.012184976487679728 -0.0004064826178649427 -0.0037608810865467197 0.0004674451161363419 0.0059283778938161525
 0.0004552678762600053 0.0059297371020322195 -0.0004064826178649427 -0.0037608810865467197 0.0026736691064843275 0.012185561345962546 0.9969058328427586 -0.029680865040147313
 -0.00040621107832958193 -0.0037608769324126426 0.0004674451161363419 0.0059283778938161525 0.9969058328427586 -0.029680865040147313 0.002672007434548516 0.012185701207002037
0.056273447269699996 0.0027007843264224038 0.012374144060514071 0.996870354475576 -0.030126718100512408 0.0004646288331112417 0.006017807175009464 -0.0004143769382435762 -0.0038170985794314786
 0.996870354475576 -0.030126718100512408 0.0026987495895792915 0.012374312162378326 -0.00041465642560692834 -0.0038171024380457825 0.00047716920702935405 0.006016407293955744
 0.0004646288331112417 0.006017807175009464 -0.00041465642560692834 -0.0038171024380457825 0.0027006378297005787 0.01237490452415737 0.9968703705764557 -0.030125966121393837
 -0.0004143769382435762 -0.0038170985794314786 0.00047716920702935405 0.006016407293955744 0.9968703705764557 -0.030125966121393837 0.002698926836119667 0.01237504736617969
0.06252605252188 0.0029130541120760025 0.013827953332750255 0.9965911028196625 -0.033532253087128476 0.0005394368463591862 0.006690658056341534 -0.0004796142073986773 -0.004246871775944346
 0.9965911028196625 -0.033532253087128476 0.002910543142885383 0.013828149847653232 -0.0004799580566941904 -0.0042468729236471575 0.0005549272808667823 0.006688921758676448
 0.0005394368463591862 0.006690658056341534 -0.0004799580566941904 -0.0042468729236471575 0.0029128728854897973 0.01382879828291543 0.9965911224110191 -0.0335314174266192
 -0.0004796142073986773 -0.004246871775944346 0.0005549272808667823 0.006688921758676448 0.9965911224110191 -0.0335314174266192 0.002910761580056302 0.013828964823982751
0.06877865777407 0.0031366549046146245 0.015296094783680119 0.9962967065470776 -0.03695006227976587 0.0006201839243341451 0.007364180796274488 -0.000550003846358509 -0.004677479564865607
 0.9962967065470776 -0.03695006227976587 0.003133617754554283 0.015296321981843745 -0.0005504185266752543 -0.004677477155533518 0.0006389387476311793 0.007362059966591835
 0.0006201839243341451 0.007364180796274488 -0.0005504185266752543 -0.004677477155533518 0.003136435236884795 0.015297024255061558 0.996296729979644 -0.036949142851289876
 -0.000550003846358509 -0.004677479564865607 0.0006389387476311793 0.007362059966591835 0.996296729979644 -0.036949142851289876 0.0031338816696409805 0.015297216174079092
0.07503126302626001 0.0033718006031000906 0.01677836388391739 0.9959869595633039 -0.04038011352660981 0.0007069309218376789 0.008038311528936914 -0.0006256088138782973 -0.0051088492002418035
 0.9959869595633039 -0.04038011352660981 0.003368187318039322 0.016778624122393917 -0.0006261007469165975 -0.005108842328123 0.0007292653078617903 0.008035754674961803
 0.0007069309218376789 0.008038311528936914 -0.0006261007469165975 -0.005108842328123 0.0033715387750409 0.016779377919041223 0.9959869871912622 -0.040379110229823635
 -0.0006256088138782973 -0.0051088492002418035 0.0007292653078617903 0.008035754674961803 0.9959869871912622 -0.040379110229823635 0.0033685009936165185 0.016779596922041597
0.08128386827845 0.0036187045306484912 0.018274567418547886 0.9956616554668193 -0.04382235695101973 0.0007997379727886964 0.008712983830959028 -0.0007064912202524514 -0.005540907204673917
 0.9956616554668193 -0.04382235695101973 0.003614465142976438 0.018274863141283695 -0.000707066780907025 -0.005540894904387464 0.0008259679230288335 0.00870993604231737
 0.0007997379727886964 0.008712983830959028 -0.000707066780907025 -0.005540894904387464 0.003618396816088031 0.018275666065160585 0.9956616876488956 -0.043821269674539094
 -0.0007064912202524514 -0.005540907204673917 0.0008259679230288335 0.00870993604231737 0.9956616876488956 -0.043821269674539094 0.0036148328572851874 0.01827591388467747
0.08753647353064001 0.003877579452769462 0.01978452007610473 0.9953205876868507 -0.047276728311671186 0.0008986644412940591 0.00938812893557143 -0.000792712297623848 -0.005973579152752916
 0.9953205876868507 -0.047276728311671186 0.003872663973409878 0.01978485381437141 -0.0007933778143166996 -0.005973560399312601 0.0009291067621230499 0.009384531842667885
 0.0008986644412940591 0.00938812893557143 -0.0007933778143166996 -0.005973560399312601 0.0038772221175016022 0.019785703391842078 0.9953206247864905 -0.047275556928842125
 -0.000792712297623848 -0.005973579152752916 0.0009291067621230499 0.009384531842667885 0.9953206247864905 -0.047275556928842125 0.003873089999384451 0.019785981786426248
0.09378907878283 0.00414863757408449 0.021308042023950837 0.9949635496024428 -0.050743151378367754 0.0010037688743154886 0.010063675888584409 -0.0008843323670816008 -0.006406789514427705
 0.9949635496024428 -0.050743151378367754 0.004142995984714799 0.021308416396897602 -0.0008850941220185824 -0.006406763223265495 0.0010387411508504501 0.010059467621665793
 0.0010037688743154886 0.010063675888584409 -0.0008850941220185824 -0.006406763223265495 0.004148226875892642 0.02130931007285937 0.9949635919881594 -0.05074189575095367
 -0.0008843323670816008 -0.006406789514427705 0.0010387411508504501 0.010059467621665793 0.9949635919881594 -0.05074189575095367 0.004143484589688337 0.02130962082678983
0.100041684035 0.004432090521324387 0.022844957120294287 0.9945903346488958 -0.05422153967305809 0.0011151089553405403 0.01073955165946818 -0.0009814108036410535 -0.0068404615451837444
 0.9945903346488958 -0.05422153967305809 0.004425672766430416 0.0228453748358499 -0.0009822750329532557 -0.006840426572182841 0.0011549295221446481 0.010734666807912952
 0.0011151089553405403 0.01073955165946818 -0.0009822750329532557 -0.006840426572182841 0.004431622709356562 0.02284630997544016 0.9945903826945774 -0.054220199648975266
 -0.0009814108036410535 -0.0068404615451837444 0.0011549295221446481 0.010734666807912952 0.9945903826945774 -0.054220199648975266 0.004426228211202898 0.022846654898755384
0.1059090909091 0.004709541989744649 0.024299215006994456 0.9942252154449621 -0.05749643551129991 0.0012253116513418084 0.011374021641095213 -0.0010775249728404792 -0.007247767129960362
 0.9942252154449621 -0.05749643551129991 0.004702350320983225 0.024299675937746637 -0.0010784909941918743 -0.007247722916399539 0.0012699719856304414 0.011368439206712808
 0.0012253116513418084 0.011374021641095213 -0.0010784909941918743 -0.007247722916399539 0.004709017163623342 0.024300647516350683 0.9942252691473227 -0.05749501614154732
 -0.0010775249728404792 -0.007247767129960362 0.0012699719856304414 0.011368439206712808 0.9942252691473227 -0.05749501614154732 0.004702972356913756 0.02430102617325985
0.1062942892872 0.004728149314824397 0.024395091569260063 0.9942007364156819 -0.057711797769979936 0.001232741458726612 0.011415681228905966 -0.0010840059993448459 -0.007274517201706246
 0.9942007364156819 -0.057711797769979936 0.0047209052939656436 0.024395555425085327 -0.0010849788931549301 -0.0072744723432389535 0.001277729367866923 0.011410050800807764
 0.001232741458726612 0.011415681228905966 -0.0010849788931549301 -0.0072744723432389535 0.004727620629801903 0.024396529309375962 0.994200790501393 -0.057710373187055616
 -0.0010840059993448459 -0.007274517201706246 0.001277729367866923 0.011410050800807764 0.994200790501393 -0.057710373187055616 0.004721531832628798 0.024396910237992935
0.11254689453939999 0.00503702433332537 0.025958272893054694 0.9937945487390982 -0.061213822280938295 0.0013567222042977088 0.012091987655389685 -0.001192175325049296 -0.0077088770805565756
 0.9937945487390982 -0.061213822280938295 0.005028903893011321 0.025958785777850477 -0.0011932630274614105 -0.007708821073523961 0.0014071971910802543 0.012085539037449397
 0.0013567222042977088 0.012091987655389685 -0.0011932630274614105 -0.007708821073523961 0.005036431006793754 0.02595979560899735 0.9937946092508241 -0.061212312960745426
 -0.001192175325049296 -0.0077088770805565756 0.0014071971910802543 0.012085539037449397 0.9937946092508241 -0.061212312960745426 0.005029605771911302 0.025960214405112318
0.11879949979160001 0.0053589252705886015 0.027534329125156295 0.9933715657885527 -0.06472750262177132 0.001487106012467884 0.01276839212915674 -0.0013059750907424945 -0.008143460371598622
 0.9933715657885527 -0.06472750262177132 0.005349878196502034 0.027534894020107472 -0.0013071836997608428 -0.008143391893490148 0.0015433884590266953 0.012761049046892564
 0.001487106012467884 0.01276839212915674 -0.0013071836997608428 -0.008143391893490148 0.005358263524885322 0.027535936914254055 0.9933716331192615 -0.06472590837567921
 -0.0013059750907424945 -0.008143460371598622 0.0015433884590266953 0.012761049046892564 0.9933716331192615 -0.06472590837567921 0.005350659653867269 0.02753639546700152
0.1250521050438 0.005694061088439869 0.029123088176341273 0.9929315821519359 -0.06825272160843257 0.0016239466590183265 0.013444814015816407 -0.0014254605052887966 -0.008578184823817609
 0.9929315821519359 -0.06825272160843257 0.00568403709727354 0.029123708156910975 -0.0014267960727375362 -0.008578102492764063 0.0016863575559384809 0.013436496494241747
 0.0016239466590183265 0.013444814015816407 -0.0014267960727375362 -0.008578102492764063 0.005693327136589787 0.029124781147958304 0.9929316567018046 -0.06825104223245781
 -0.0014254605052887966 -0.008578184823817609 0.0016863575559384809 0.013436496494241747 0.9929316567018046 -0.06825104223245781 0.00568490236246577 0.029125281374277036
0.131304710296 0.006042639965326534 0.03072437732057371 0.9924743929174104 -0.07178935593562344 0.0017672968301558948 0.014121170894378152 -0.0015506856349997247 -0.009012966719058452
 0.9924743929174104 -0.07178935593562344 0.006031588696881812 0.030725055558414944 -0.0015521541663532617 -0.009012869093896895 0.0018361577365169643 0.014111795219049867
 0.0017672968301558948 0.014121170894378152 -0.0015521541663532617 -0.009012869093896895 0.006041830010387363 0.030726155590195533 0.9924744750940112 -0.07178759121679061
 -0.0015506856349997247 -0.009012966719058452 0.0018361577365169643 0.014111795219049867 0.9924744750940112 -0.07178759121679061 0.006032541989397875 0.03072669943595165
0.1375573155481 0.006318705538413166 0.032128699540527925 0.992085982325677 -0.07512788211934922 0.0018969652789293944 0.014775714048417007 -0.0016613766416207943 -0.009426119216341344
 0.992085982325677 -0.07512788211934922 0.006306573659965813 0.03212942659449158 -0.0016629870044379486 -0.009426006404070734 0.001972430526072888 0.01476530399768262
 0.0018969652789293944 0.014775714048417007 -0.0016629870044379486 -0.009426006404070734 0.006317816387028115 0.03213056328877316 0.9920860724754015 -0.07512603193599858
 -0.0016613766416207943 -0.009426119216341344 0.001972430526072888 0.01476530399768262 0.9920860724754015 -0.07512603193599858 0.00630761870318629 0.03213114011113698
0.1438099208003 0.006604263175106542 0.033526659080442785 0.9916843281980654 -0.07845899744549048 0.0020318561342082056 0.015428277161375868 -0.001776507757776572 -0.009837422419548455
 0.9916843281980654 -0.07845899744549048 0.006590999770682466 0.033527437402193556 -0.0017782664067993185 -0.009837293025083946 0.002114217800935107 0.015416757269135647
 0.0020318561342082056 0.015428277161375868 -0.0017782664067993185 -0.009837293025083946 0.0066032911256497994 0.03352860842046635 0.9916844267267467 -0.0784570615881212
 -0.001776507757776572 -0.009837422419548455 0.002114217800935107 0.015416757269135647 0.9916844267267467 -0.0784570615881212 0.006592140680776976 0.03352921941126844
0.1500625260525 0.006899225653719336 0.034918170014801915 0.9912695208356584 -0.08178265074233565 0.002171930001819019 0.016078815854034787 -0.0018960399523989817 -0.010246832213887162
 0.9912695208356584 -0.08178265074233565 0.00688477971640171 0.034919002197740606 -0.0018979533325470218 -0.010246684786565034 0.0022614787576856438 0.016066107932066927
 0.002171930001819019 0.016078815854034787 -0.0018979533325470218 -0.010246684786565034 0.006898167002236859 0.03492020506546335 0.9912696281557405 -0.08178062899202655
 -0.0018960399523989817 -0.010246832213887162 0.0022614787576856438 0.016066107932066927 0.9912696281557405 -0.08178062899202655 0.006886020594676049 0.034920851507523894
0.15631513130469998 0.007203505286840888 0.0363031491875691 0.9908416508308995 -0.08509879042895838 0.0023171471117172755 0.016727286375967935 -0.0020199337962058697 -0.010654305327389481
