! Created with skrf 1.8.0 (http://scikit-rf.org).
# GHz S RI R 50.0 
!freq ReS11 ImS11 ReS12 ImS12 ReS13 ImS13
! ReS14 ImS14
! ReS21 ImS21 ReS22 ImS22 ReS23 ImS23
! ReS24 ImS24
! ReS31 ImS31 ReS32 ImS32 ReS33 ImS33
! ReS34 ImS34
! ReS41 ImS41 ReS42 ImS42 ReS43 ImS43
! ReS44 ImS44
!
0.0 0.001581851232479 0.0 0.9984181487391 0.0 6.120152991787e-05 0.0 -6.120152965211e-05 7.495025739137833e-21
 0.9984181487391 0.0 0.001581851232514 0.0 -6.120152965255e-05 7.495025739191717e-21 6.120152991968e-05 0.0
 6.120152991787e-05 0.0 -6.120152965255e-05 7.495025739191717e-21 0.001581851246698 0.0 0.9984181487533 0.0
 -6.120152965211e-05 7.495025739137833e-21 6.120152991968e-05 0.0 0.9984181487533 0.0 0.001581851246716 0.0
0.005 0.0017020758935892791 0.0012917483893790556 0.9982660171921546 -0.003313528406846264 8.620070569214825e-05 0.0006879945779052007 -8.358397883419552e-05 -0.00042944117643880847
 0.9982660171921546 -0.003313528406846264 0.0017020949006606204 0.0012917373260540553 -8.358593285034281e-05 -0.0004294427133591058 8.607357547338105e-05 0.0006880429432892432
 8.620070569214825e-05 0.0006879945779052007 -8.358593285034281e-05 -0.0004294427133591058 0.001702074350211138 0.0012916820691072557 0.9982660168312751 -0.0033135954623650732
 -8.358397883419552e-05 -0.00042944117643880847 8.607357547338105e-05 0.0006880429432892432 0.9982660168312751 -0.0033135954623650732 0.0017020957266213083 0.001291669538579654
0.006252605252188 0.001733639345591667 0.0016197725252162795 0.9982258166261642 -0.0041427163637757294 9.3373320196491e-05 0.0008603171089319512 -8.992016569458776e-05 -0.0005373576531541419
 0.9982258166261642 -0.0041427163637757294 0.0017336690567794984 0.0016197584756971382 -8.992320602209912e-05 -0.0005373595488224578 9.317469062953742e-05 0.0008603799253617076
 9.3373320196491e-05 0.0008603171089319512 -8.992320602209912e-05 -0.0005373595488224578 0.0017336370092463915 0.0016196896400970148 0.998225816138537 -0.0041428001747969975
 -8.992016569458776e-05 -0.0005373576531541419 9.317469062953742e-05 0.0008603799253617076 0.998225816138537 -0.0041428001747969975 0.0017336704250074202 0.0016196737463063705
0.01250521050438 0.0018999836706080047 0.003273506868238717 0.9980125120179643 -0.008286209234791111 0.00013466661422261415 0.0017209268376873915 -0.0001259609327109767 -0.0010773096717502791
 0.9980125120179643 -0.008286209234791111 0.0019001023042143194 0.0032734765619523896 -0.0001259729109572143 -0.0010773131835539386 0.00013387450886044537 0.0017210779633973028
 0.00013466661422261415 0.0017209268376873915 -0.0001259729109572143 -0.0010773131835539386 0.0018999748848676 0.003273341413782389 0.9980125106189967 -0.008286376632312142
 -0.0001259609327109767 -0.0010773096717502791 0.00013387450886044537 0.0017210779633973028 0.9980125106189967 -0.008286376632312142 0.0019001083237783197 0.0032733072935713487
0.01875781575657 0.0020812554804987135 0.004950777186945118 0.9977779642036165 -0.012440556521785735 0.00018517726324914695 0.002582411992535973 -0.00016943679710173832 -0.0016190541250493808
 0.9977779642036165 -0.012440556521785735 0.002081522048625665 0.004950728289724682 -0.00016946350426785606 -0.0016190589193794602 0.00018339784679418324 0.0025826819944712157
 0.00018517726324914695 0.002582411992535973 -0.00016946350426785606 -0.0016190589193794602 0.0020812361518119256 0.004950529409301464 0.9977779614810309 -0.012440807413660847
 -0.00016943679710173832 -0.0016190541250493808 0.00018339784679418324 0.0025826819944712157 0.9977779614810309 -0.012440807413660847 0.0020815360128757896 0.004950474535288191
0.02501042100875 0.0022778145632120837 0.006649221288608671 0.9975218915589867 -0.016607760977316133 0.00024500288823152763 0.003444802953776592 -0.00022045681337129266 -0.0021623352336852053
 0.9975218915589867 -0.016607760977316133 0.002278287957630837 0.006649151360240244 -0.00022050396972364783 -0.002162340916922745 0.0002418421597342001 0.003445227305349469
 0.00024500288823152763 0.003444802953776592 -0.00022050396972364783 -0.002162340916922745 0.002277780598180108 0.006648891442929604 0.9975218870969442 -0.016608095323706936
 -0.00022045681337129266 -0.0021623352336852053 0.0002418421597342001 0.003445227305349469 0.9975218870969442 -0.016608095323706936 0.0022783131597042326 0.006648813117111518
0.03126302626094 0.002490005812718531 0.00836761795344754 0.997243998394397 -0.020788672853250353 0.0003142416264455674 0.004308048986213998 -0.0002791268031050311 -0.002706971981431032
 0.997243998394397 -0.020788672853250353 0.0024907448389609285 0.008367524452621629 -0.00027920007017384255 -0.0027069780992647207 0.0003093050578374439 0.004308668096831485
 0.0003142416264455674 0.004308048986213998 -0.00027920007017384255 -0.0027069780992647207 0.0024899531179905527 0.008367206337779017 0.997243991773571 -0.020789090633154515
 -0.0002791268031050311 -0.002706971981431032 0.0003093050578374439 0.004308668096831485 0.997243991773571 -0.020789090633154515 0.002490784574492713 0.008367101696061736
0.037515631513130004 0.0027181665509486237 0.010105166698116475 0.9969439825227329 -0.024983710076934326 0.0003929910739733963 0.00517206720758812 -0.0003455501379090346 -0.0032528091455880682
 0.9969439825227329 -0.024983710076934326 0.0027192299525167414 0.010105046984996948 -0.0003456551246671189 -0.003252815182816432 0.00038588345027743844 0.005172926472537946
 0.0003929910739733963 0.00517206720758812 -0.0003456551246671189 -0.003252815182816432 0.0027180910385224185 0.010104673648064832 0.9969439733257154 -0.02498421129399067
 -0.0003455501379090346 -0.0032528091455880682 0.00038588345027743844 0.005172926472537946 0.9969439733257154 -0.02498421129399067 0.0027192875258337406 0.010104539662222335
0.043768236765320004 0.002962629359521089 0.01186126856270319 0.9966215383422418 -0.02919307739357941 0.00048134779137196885 0.006036757487983377 -0.0004198280138648794 -0.003799702402253083
 0.9966215383422418 -0.02919307739357941 0.002964075836994873 0.011861119900752014 -0.0004199702803520835 -0.0037997077827514377 0.0004716731368063422 0.006037907344620909
 0.00048134779137196885 0.006036757487983377 -0.0004199702803520835 -0.0037997077827514377 0.0029625269421968067 0.011860694467616666 0.9966215261481938 -0.0291936620606578
 -0.0004198280138648794 -0.003799702402253083 0.0004716731368063422 0.006037907344620909 0.9966215261481938 -0.0291936620606578 0.002964154557128141 0.011860527946166665
0.050020842017509996 0.003223723386833758 0.01363543553865077 0.9962763583986513 -0.033416856866406414 0.0005794070039833378 0.006902008602459537 -0.0005020595486742519 -0.00434751218243302
 0.9962763583986513 -0.033416856866406414 0.0032256116157028903 0.013635255095721456 -0.0005022446084246487 -0.00434751626914976 0.0005667685539629652 0.006903504588951438
 0.0005794070039833378 0.006902008602459537 -0.0005022446084246487 -0.00434751626914976 0.0032235899808577178 0.013634780832939949 0.9962763427850796 -0.03341752501476207
 -0.0005020595486742519 -0.00434751218243302 0.0005667685539629652 0.006903504588951438 0.9962763427850796 -0.03341752501476207 0.0032257147984339953 0.013634578421430201
0.055454545454549996 0.003464382142229527 0.015191582927125932 0.995957682858338 -0.03709915805210847 0.0006725758416216956 0.00765430102016266 -0.0005800560171186144 -0.004824212759795496
 0.995957682858338 -0.03709915805210847 0.003466701910419743 0.01519137249175226 -0.0005802827081884717 -0.0048242151575167945 0.0006570389291033543 0.00765614691431541
 0.0006725758416216956 0.00765430102016266 -0.0005802827081884717 -0.0048242151575167945 0.0034642184917172917 0.015190858564583635 0.9959576639276493 -0.03709989877998911
 -0.0005800560171186144 -0.004824212759795496 0.0006570389291033543 0.00765614691431541 0.9959576639276493 -0.03709989877998911 0.003466829049613763 0.015190622112461251
0.056273447269699996 0.0035017750178396347 0.015427246102527539 0.9959081343142054 -0.037655052272284904 0.0006872623915060218 0.007767701251668182 -0.0005923417964155566 -0.004896100664426491
 0.9959081343142054 -0.037655052272284904 0.003504163664261086 0.01542703095150172 -0.0005925751179694779 -0.004896102759412785 0.0006712625924132309 0.007769604066811569
 0.0006872623915060218 0.007767701251668182 -0.0005925751179694779 -0.004896102759412785 0.003501606542220616 0.015426511276466265 0.9959081148555854 -0.037655803941476995
 -0.0005923417964155566 -0.004896100664426491 0.0006712625924132309 0.007769604066811569 0.9959081148555854 -0.037655803941476995 0.003504294631715324 0.015426269457115938
0.06252605252188 0.0037971082265394803 0.01723632078325967 0.9955165574040135 -0.04190761346754125 0.0008050059181140233 0.008633709731846732 -0.0006907697243827408 -0.005445330121477972
 0.9955165574040135 -0.04190761346754125 0.00380005596308447 0.01723606790213775 -0.0006910567324221304 -0.005445329465930971 0.0007852464451162911 0.008636085295291304
 0.0008050059181140233 0.008633709731846732 -0.0006910567324221304 -0.005445329465930971 0.0037969006036924218 0.017235506377641475 0.9955165336714554 -0.04190844871145428
 -0.0006907697243827408 -0.005445330121477972 0.0007852464451162911 0.008636085295291304 0.9955165336714554 -0.04190844871145428 0.0038002180435235014 0.01723522146850419
0.06877865777407 0.004110044755809965 0.019062307581394856 0.9951013191246438 -0.04617445090597262 0.000932727689420438 0.009499902926213263 -0.0007974361635109656 -0.005995061953021093
 0.9951013191246438 -0.04617445090597262 0.004113610276672717 0.01906201385301311 -0.0007977822396036735 -0.005995057727325945 0.0009088094777060268 0.009502822438620369
 0.000932727689420438 0.009499902926213263 -0.0007977822396036735 -0.005995057727325945 0.004109793913171788 0.019061414191429586 0.9951012906857717 -0.04617536978945922
 -0.0007974361635109656 -0.005995061953021093 0.0009088094777060268 0.009502822438620369 0.9951012906857717 -0.04617536978945922 0.004113806805603609 0.019061082345152514
0.07503126302626001 0.004440904198454396 0.020904872740688096 0.9946621114262255 -0.05045544480979728 0.0010705158211559557 0.010366144949870447 -0.0009124317473947786 -0.006545156067584947
 0.9946621114262255 -0.05045544480979728 0.004445146234069547 0.020904534951840883 -0.0009128422304649275 -0.006545147391369498 0.0010420391063730998 0.010369684952814904
 0.0010705158211559557 0.010366144949870447 -0.0009128422304649275 -0.006545147391369498 0.004440606068378354 0.020903901018999357 0.9946620778448778 -0.050456447406320985
 -0.0009124317473947786 -0.006545156067584947 0.0010420391063730998 0.010369684952814904 0.9946620778448778 -0.050456447406320985 0.0044453805537777264 0.02090351822100807
0.08128386827845 0.004790004010272262 0.022763694599417243 0.9941986270432301 -0.054750451266263295 0.001218456318891608 0.011232295574954808 -0.0010358448390236097 -0.007095470490963413
 0.9941986270432301 -0.054750451266263295 0.004794981342692261 0.02276330943954977 -0.0010363250257290001 -0.007095456423157683 0.001185020685871217 0.011236538010271517
 0.001218456318891608 0.011232295574954808 -0.0010363250257290001 -0.007095456423157683 0.004789654530948934 0.022762645251126985 0.9941985878780818 -0.05475153766337884
 -0.0010358448390236097 -0.007095470490963413 0.001185020685871217 0.011236538010271517 0.9941985878780818 -0.05475153766337884 0.004795256801903868 0.022762207317367566
0.08753647353064001 0.005157659483025404 0.02463845934666184 0.9937105597461207 -0.05905930642527436 0.0013766329620628717 0.01209821054082891 -0.0011677614532055115 -0.00764586109481326
 0.9937105597461207 -0.05905930642527436 0.005163430960431166 0.02463802340609121 -0.0011683165980735496 -0.0076458406337095355 0.0013378373990426521 0.01210324280947831
 0.0013766329620628717 0.01209821054082891 -0.0011683165980735496 -0.0076458406337095355 0.005157254599680919 0.024637333134831615 0.9937105145517046 -0.059060476719743876
 -0.0011677614532055115 -0.00764586109481326 0.0013378373990426521 0.01210324280947831 0.9937105145517046 -0.059060476719743876 0.0051637509151786975 0.024636835709004625
0.09378907878283 0.005544183686555596 0.026528857989205016 0.9931976045685783 -0.06338182949280352 0.0015451271923857732 0.01296374177708221 -0.0013082651730709463 -0.008196181418463995
 0.9931976045685783 -0.06338182949280352 0.005550808238617827 0.02652836775672475 -0.0013089004886589859 -0.008196153501787512 0.0015005701509774965 0.012969656797091758
 0.0015451271923857732 0.01296374177708221 -0.0013089004886589859 -0.008196153501787512 0.005543719352321661 0.026527655733614073 0.9931975528938876 -0.06338308379231779
 -0.0013082651730709463 -0.008196181418463995 0.0015005701509774965 0.012969656797091758 0.9931975528938876 -0.06338308379231779 0.00555117605157403 0.026527094283950683
0.100041684035 0.005949887390599215 0.028434584136013245 0.9926594580159165 -0.06771782491305432 0.001724018004943385 0.013828737579984478 -0.0014574370636219872 -0.008746282542958872
 0.9926594580159165 -0.06771782491305432 0.005957424043080754 0.028434035996097784 -0.0014581577203937662 -0.008746246047944488 0.0016732974643976033 0.0138356338436843
 0.001724018004943385 0.013828737579984478 -0.0014581577203937662 -0.008746246047944488 0.005949359566797 0.028433306714097415 0.9926593994040144 -0.06771916333583507
 -0.0014574370636219872 -0.008746282542958872 0.0016732974643976033 0.0138356338436843 0.9926593994040144 -0.06771916333583507 0.005957843083876545 0.02843267652954661
0.1059090909091 0.006348315561866334 0.030236574085131265 0.9921312843892794 -0.07179876396622491 0.001901411762850917 0.014639819223353777 -0.0016053725916632827 -0.009262159858243052
 0.9921312843892794 -0.07179876396622491 0.006356761906172608 0.03023596822104963 -0.0016061779970803032 -0.009262114238408191 0.0018445414376449375 0.014647730872837317
 0.001901411762850917 0.014639819223353777 -0.0016061779970803032 -0.009262114238408191 0.006347724495620814 0.03023522697694762 0.9921312188466246 -0.07180018144708399
 -0.0016053725916632827 -0.009262159858243052 0.0018445414376449375 0.014647730872837317 0.9921312188466246 -0.07180018144708399 0.006357232089758781 0.03023452784387184
0.1062942892872 0.006375078969796923 0.03035533232570351 0.9920958182615726 -0.07206708401467123 0.0019133818410007604 0.014693042752324331 -0.0016153555826955385 -0.009296013007981134
 0.9920958182615726 -0.07206708401467123 0.006383586859907005 0.030354722555113515 -0.0016161667090347491 -0.009295966751451825 0.0018560953762169327 0.014701024382608825
 0.0019133818410007604 0.014693042752324331 -0.0016161667090347491 -0.009295966751451825 0.006374483627841668 0.03035398067304609 0.9920957522495872 -0.07206850668940716
 -0.0016153555826955385 -0.009296013007981134 0.0018560953762169327 0.014701024382608825 0.9920957522495872 -0.07206850668940716 0.006384060505278297 0.030353276858976416
0.11254689453939999 0.006820064298373877 0.032290796763012046 0.9915063853352142 -0.0764293862547824 0.0021132924823397724 0.015556498719420065 -0.0017820964897673978 -0.009845218758701348
 0.9915063853352142 -0.0764293862547824 0.006829602689767184 0.03229012152677405 -0.0017830031718079982 -0.009845161497157534 0.0020490373356176206 0.015565675524968608
 0.0021132924823397724 0.015556498719420065 -0.0017830031718079982 -0.009845161497157534 0.006819397419826989 0.032289371873239395 0.9915063114532797 -0.07643089332121589
 -0.0017820964897673978 -0.009845218758701348 0.0020490373356176206 0.015565675524968608 0.9915063114532797 -0.07643089332121589 0.0068301343229323274 0.032288589346574414
0.11879949979160001 0.007285146632973374 0.03424067032639044 0.9908908613034203 -0.08080450019933177 0.002323820946494412 0.016418943631498102 -0.0019577327535434284 -0.010393743112628487
 0.9908908613034203 -0.08080450019933177 0.0072957749313193555 0.034239925673298366 -0.0019587400349781133 -0.010393673542344014 0.002252194102416632 0.01642943116096868
 0.002323820946494412 0.016418943631498102 -0.0019587400349781133 -0.010393673542344014 0.007284404211398656 0.03423917325420952 0.9908907790749718 -0.08080609180557397
 -0.0019577327535434284 -0.010393743112628487 0.002252194102416632 0.01642943116096868 0.9908907790749718 -0.08080609180557397 0.007296367942717422 0.03423830673799685
0.1250521050438 0.007770626490989715 0.03620464379856199 0.9902489504475375 -0.08519218428773427 0.0025450353830940814 0.01728021245216988 -0.002142334458113308 -0.010941426746834942
 0.9902489504475375 -0.08519218428773427 0.007782404259107094 0.03620382565606171 -0.0021434473399815903 -0.010941343503939289 0.0024656336463920086 0.01729213204715885
 0.0025450353830940814 0.01728021245216988 -0.0021434473399815903 -0.010941343503939289 0.007769804532493673 0.03620307565596262 0.9902488593883721 -0.08519386059446189
 -0.002142334458113308 -0.010941426746834942 0.0024656336463920086 0.01729213204715885 0.9902488593883721 -0.08519386059446189 0.007783062045830649 0.03620211967341195
0.131304710296 0.008276801520492915 0.038182405245526116 0.9895803594367667 -0.08959218745692253 0.00277700097074117 0.018140137042799383 -0.002335968708520649 -0.011488107695698899
 0.9895803594367667 -0.08959218745692253 0.008289788493969268 0.0381815094139246 -0.002337192148909506 -0.011488009356333527 0.0026894210468380504 0.018153615889675987
 0.00277700097074117 0.018140137042799383 -0.002337192148909506 -0.011488009356333527 0.008275896044718463 0.03818076720626129 0.9895802590544636 -0.0895939486331963
 -0.002335968708520649 -0.011488107695698899 0.0026894210468380504 0.018153615889675987 0.9895802590544636 -0.0895939486331963 0.008290514459800544 0.03817971607411374
0.1375573155481 0.008689273478740147 0.0399154281099014 0.9889995353475931 -0.09374592140982628 0.0029913462727568425 0.018972837543539327 -0.002510370198597085 -0.01200785437538221
 0.9889995353475931 -0.09374592140982628 0.008703534816056532 0.03991447088306176 -0.002511711654619951 -0.012007740795716577 0.002895388218837545 0.018987858600390897
 0.0029913462727568425 0.018972837543539327 -0.002511711654619951 -0.012007740795716577 0.008688281204541331 0.039913721073361184 0.9889994252151086 -0.09374776753178977
 -0.002510370198597085 -0.01200785437538221 0.002895388218837545 0.018987858600390897 0.9889994252151086 -0.09374776753178977 0.00870433154846877 0.03991258999452122
0.1438099208003 0.009116295389528796 0.04163903280566107 0.9883981939102665 -0.09788883813969257 0.003214356871164508 0.019801953028471216 -0.0026917413691922008 -0.01252436466816872
 0.9883981939102665 -0.09788883813969257 0.009131891895795555 0.04163801115768657 -0.002693206187142958 -0.012524234441583848 0.0031096539761816307 0.01981863283485692
 0.003214356871164508 0.019801953028471216 -0.002693206187142958 -0.012524234441583848 0.00911521248168139 0.04163725795764363 0.9883980735376753 -0.09789076936833672
 -0.0026917413691922008 -0.01252436466816872 0.0031096539761816307 0.01981863283485692 0.9883980735376753 -0.09789076936833672 0.009132762660267845 0.041636042424303084
0.1500625260525 0.009557712533486905 0.043353066861704634 0.9877764940891661 -0.10202082609112541 0.003445953693340016 0.020627391518917397 -0.0028800063010405554 -0.01303755357960348
 0.9877764940891661 -0.10202082609112541 0.009574705210402703 0.04335197755167604 -0.0028815998161008816 -0.013037405242635748 0.0033321415001576174 0.020645850870655354
 0.003445953693340016 0.020627391518917397 -0.0028815998161008816 -0.013037405242635748 0.009556535177942499 0.04335122543371111 0.9877763629799388 -0.10202284259378938
 -0.0028800063010405554 -0.01303755357960348 0.0033321415001576174 0.020645850870655354 0.9877763629799388 -0.10202284259378938 0.009575653269245135 0.043349920665039586
0.15631513130469998 0.01001336904003641 0.04505738239419445 0.9871345957147907 -0.10614177428639227 0.0036860566960688753 0.02144906263810917 -0.0030750881100973042 -0.013547337959379954
 0.9871345957147907 -0.10614177428639227 0.010031819091476489 0.04505622195807216 -0.003076815646166114 -0.01354716999192345 0.003562773036692348 0.021469426541998467
