! Created with skrf 1.8.0 (http://scikit-rf.org).
# GHz S RI R 50.0 
!freq ReS11 ImS11 ReS12 ImS12 ReS13 ImS13
! ReS14 ImS14
! ReS21 ImS21 ReS22 ImS22 ReS23 ImS23
! ReS24 ImS24
! ReS31 ImS31 ReS32 ImS32 ReS33 ImS33
! ReS34 ImS34
! ReS41 ImS41 ReS42 ImS42 ReS43 ImS43
! ReS44 ImS44
!
0.0 0.001582885689796 0.0 0.9984171142932 0.0 6.13315271173e-05 0.0 -6.133152622894e-05 7.51094572830933e-21
 0.9984171142932 0.0 0.001582885689791 0.0 -6.133152622868e-05 7.51094572827749e-21 6.133152711668e-05 0.0
 6.13315271173e-05 0.0 -6.133152622868e-05 7.51094572827749e-21 0.001582885691208 0.0 0.9984171142946 0.0
 -6.133152622894e-05 7.51094572830933e-21 6.133152711668e-05 0.0 0.9984171142946 0.0 0.001582885691224 0.0
0.005 0.0017032081832239452 0.0012909434506082527 0.998264846636355 -0.003315785680322799 8.666726635442848e-05 0.0006993461215545767 -8.394863213135588e-05 -0.00043483751349375054
 0.998264846636355 -0.003315785680322799 0.001703234516435079 0.0012909281143332098 -8.395085591492675e-05 -0.00043483925410569006 8.649126248987685e-05 0.0006994130507533936
 8.666726635442848e-05 0.0006993461215545767 -8.395085591492675e-05 -0.00043483925410569006 0.001703206530218496 0.0012908771809828589 0.9982648462806596 -0.0033158527551636983
 -8.394863213135588e-05 -0.00043483751349375054 8.649126248987685e-05 0.0006994130507533936 0.9982648462806596 -0.0033158527551636983 0.0017032354670543062 0.0012908602432669752
0.006252605252188 0.001734797837131326 0.0016187706637238815 0.9982246067667464 -0.004145539007410929 9.394620933457523e-05 0.0008745067455806302 -9.035398425901471e-05 -0.0005441122218722737
 0.9982246067667464 -0.004145539007410929 0.0017348390006301341 0.001618751198615264 -9.035744439242336e-05 -0.0005441143686037626 9.367121880547613e-05 0.000874593677346837
 9.394620933457523e-05 0.0008745067455806302 -9.035744439242336e-05 -0.0005441143686037626 0.0017347953118229777 0.0016186878532308516 0.9982246062695185 -0.004145622833685946
 -9.035398425901471e-05 -0.0005441122218722737 9.367121880547613e-05 0.000874593677346837 0.9982246062695185 -0.004145622833685946 0.0017348405461124602 0.0016186663764079226
0.01250521050438 0.0019012833502829102 0.0032715410680335152 0.9980110744692995 -0.008291861866012636 0.0001359024448167442 0.0017492698499124756 -0.00012680284740345643 -0.0010908597532122504
 0.9980110744692995 -0.008291861866012636 0.0019014477148499996 0.0032714991894339726 -0.00012681648039593907 -0.001090863728089157 0.00013480581349964107 0.0017494790410513632
 0.0001359024448167442 0.0017492698499124756 -0.00012681648039593907 -0.001090863728089157 0.0019012738405207957 0.003271375822896705 0.9980110730601777 -0.008292029276036965
 -0.00012680284740345643 -0.0010908597532122504 0.00013480581349964107 0.0017494790410513632 0.9980110730601777 -0.008292029276036965 0.0019014544725161502 0.0032713297976361445
0.01875781575657 0.002082714298483331 0.004947875273526588 0.9977762461330818 -0.012449054729635981 0.00018729705263046973 0.002624891838003416 -0.0001707927520683573 -0.0016394170031821208
 0.9977762461330818 -0.012449054729635981 0.002083083630147656 0.0049478078691605025 -0.00017082314983432712 -0.001639422425726717 0.00018483351489902868 0.002625265643929123
 0.00018729705263046973 0.002624891838003416 -0.00017082314983432712 -0.001639422425726717 0.002082693348681748 0.00494762787764704 0.9977762433877095 -0.012449305681060521
 -0.0001707927520683573 -0.0016394170031821208 0.00018483351489902868 0.002625265643929123 0.9977762433877095 -0.012449305681060521 0.0020830992581987355 0.004947553995648381
0.02501042100875 0.002279451207664791 0.006645408192080629 0.9975198395705401 -0.016619121338324275 0.00024822892017474626 0.0035014053620173345 -0.00022243430362984905 -0.002189521920585923
 0.9975198395705401 -0.016619121338324275 0.0022801071099944857 0.006645312015747984 -0.00022248797786431567 -0.0021895283417401913 0.00024385296887901225 0.0035019929354565436
 0.00024822892017474626 0.0035014053620173345 -0.00022248797786431567 -0.0021895283417401913 0.0022794143707850732 0.0066450789981981635 0.9975198350636069 -0.016619455826749247
 -0.00022243430362984905 -0.002189521920585923 0.00024385296887901225 0.0035019929354565436 0.9975198350636069 -0.016619455826749247 0.0022801352735163432 0.006644973747736411
0.03126302626094 0.0024918396664814673 0.008362916734161664 0.9972415585218987 -0.020802911854275793 0.0003187975568738609 0.004378759427451128 -0.0002818347911088047 -0.002740989653659864
 0.9972415585218987 -0.020802911854275793 0.0024928636285844875 0.008362788412378945 -0.00028191818687496817 -0.0027409965549755485 0.0003119629444158837 0.00437961675974788
 0.0003187975568738609 0.004378759427451128 -0.00028191818687496817 -0.0027409965549755485 0.0024917825014828363 0.0083625061597277 0.997241551824457 -0.020803329917770196
 -0.0002818347911088047 -0.002740989653659864 0.0003119629444158837 0.00437961675974788 0.997241551824457 -0.020803329917770196 0.002492908000298627 0.008362365832059477
0.037515631513130004 0.0027202176544378997 0.010099598879155023 0.9969411002298814 -0.02500084373172462 0.00039910196506386407 0.005256869920130475 -0.0003490990011198022 -0.0032936620186505322
 0.9969411002298814 -0.02500084373172462 0.0027216910845647537 0.010099434914988329 -0.00034921850383543457 -0.0032936688120795195 0.0003892614830156866 0.0052580599106137665
 0.00039910196506386407 0.005256869920130475 -0.00034921850383543457 -0.0032936688120795195 0.002720135727457452 0.010099107414472154 0.9969410909088802 -0.02500134544333505
 -0.0003490990011198022 -0.0032936620186505322 0.0003892614830156866 0.0052580599106137665 0.9969410909088802 -0.02500134544333505 0.0027217553471302067 0.010098928106931884
0.043768236765320004 0.0029649183809513204 0.011854854306117393 0.9966181585296345 -0.029213121016396573 0.0004892401166710486 0.00613563497372072 -0.0004243295023934471 -0.0038473921363268828
 0.9966181585296345 -0.029213121016396573 0.002966922633559833 0.011854651081661465 -0.00042449144190631 -0.003847398164169165 0.00047584549441043937 0.00613722750771027
 0.0004892401166710486 0.00613563497372072 -0.00042449144190631 -0.003847398164169165 0.0029648072643799514 0.011854282524159428 0.9966181461464 -0.029213706475160847
 -0.0004243295023934471 -0.0038473921363268828 0.00047584549441043937 0.00613722750771027 0.9966181461464 -0.029213706475160847 0.0029670104795065837 0.01185406014160217
0.050020842017509996 0.003226271596078358 0.013628193716948902 0.9962724254173188 -0.033439824950813796 0.0005893086395135365 0.007014941322844715 -0.0005076267456707705 -0.00440203808755552
 0.9962724254173188 -0.033439824950813796 0.0032288879965953234 0.013627947494852648 -0.0005078373989642326 -0.0044020426224639685 0.0005718105063180351 0.0070170133531940225
 0.0005893086395135365 0.007014941322844715 -0.0005078373989642326 -0.0044020426224639685 0.0032261268713598876 0.013627542274823346 0.9962724095275701 -0.03344049428091255
 -0.0005076267456707705 -0.00440203808755552 0.0005718105063180351 0.0070170133531940225 0.9962724095275701 -0.03344049428091255 0.0032290031307476686 0.013627272530245756
0.055454545454549996 0.003467173314637261 0.015183636288726762 0.9959532235466532 -0.037124678641303664 0.0006844097662117468 0.0077794305522535185 -0.0005866421923857339 -0.004884677205779539
 0.9959532235466532 -0.037124678641303664 0.0034703877306998896 0.015183349573091049 -0.0005869002373447523 -0.004884679798512797 0.0006628985468940129 0.007781987326035135
 0.0006844097662117468 0.0077794305522535185 -0.0005869002373447523 -0.004884679798512797 0.003466995800785283 0.0151829162147593 0.9959532042422111 -0.03712542098289384
 -0.0005866421923857339 -0.004884677205779539 0.0006628985468940129 0.007781987326035135 0.9959532042422111 -0.03712542098289384 0.0034705295965437206 0.015182601680417697
0.056273447269699996 0.0035046042601193255 0.015419194346699085 0.9959035919798948 -0.03768095839408093 0.0006994025959143039 0.007894667415796341 -0.000599089081706357 -0.004957459813893411
 0.9959035919798948 -0.03768095839408093 0.00350791412723619 0.015418901271056733 -0.0005993546746059656 -0.004957462058898497 0.0006772504812069877 0.007897303045891152
 0.0006994025959143039 0.007894667415796341 -0.0005993546746059656 -0.004957462058898497 0.003504421516349948 0.015418463980334387 0.9959035721310237 -0.03768171175100374
 -0.000599089081706357 -0.004957459813893411 0.0006772504812069877 0.007897303045891152 0.9959035721310237 -0.03768171175100374 0.0035080602657959962 0.015418142394660944
0.06252605252188 0.003800240895060331 0.017227475491984435 0.9955113490125116 -0.04193647022713067 0.0008196153065820472 0.008774685138371804 -0.0006988127380851408 -0.005513517411846268
 0.9955113490125116 -0.04193647022713067 0.003804325562950537 0.017227131588491536 -0.00069913944648721 -0.00551351650040727 0.000792257665637356 0.008777975705656272
 0.0008196153065820472 0.008774685138371804 -0.00069913944648721 -0.00551351650040727 0.0038000157325971014 0.017226667024741904 0.99551132474493 -0.04193730778970132
 -0.0006988127380851408 -0.005513517411846268 0.000792257665637356 0.008777975705656272 0.99551132474493 -0.04193730778970132 0.003804506436454631 0.017226288925948487
0.06877865777407 0.004113503767387279 0.01905268393647805 0.9950953874713306 -0.04620626986530576 0.0009500382022186544 0.00965486083993079 -0.0008068917701903327 -0.006070070130024733
 0.9950953874713306 -0.04620626986530576 0.004118444606636254 0.019052285111970255 -0.000807285720851923 -0.00607006512609292 0.0009169224597495609 0.009658904999365808
 0.0009500382022186544 0.00965486083993079 -0.000807285720851923 -0.00607006512609292 0.004113231796685621 0.019051798276618962 0.9950953583152674 -0.04620719183893079
 -0.0008068917701903327 -0.006070070130024733 0.0009169224597495609 0.009658904999365808 0.9950953583152674 -0.04620719183893079 0.00411866395871474 0.019051358798102255
0.07503126302626001 0.004444712964925063 0.02089448469391227 0.9946553988246915 -0.05049023645853102 0.0010907606883579744 0.010535055993669051 -0.0009234179992246548 -0.0066269757374420295
 0.9946553988246915 -0.05049023645853102 0.004450591403872778 0.020894026735084833 -0.000923885270327215 -0.006626965635507035 0.0010513332956660767 0.010539959800736683
 0.0010907606883579744 0.010535055993669051 -0.000923885270327215 -0.006626965635507035 0.004444389809724101 0.02089352283583157 0.9946553643008177 -0.050491243074555006
 -0.0009234179992246548 -0.0066269757374420295 0.0010513332956660767 0.010539959800736683 0.9946553643008177 -0.050491243074555006 0.004450852993635674 0.020893016914201114
0.08128386827845 0.0047941864116167795 0.02275255487382888 0.9941910753457338 -0.05478822497441499 0.0012418700213804033 0.01141512763979285 -0.0010484809389392973 -0.00718409011440213
 0.9941910753457338 -0.05478822497441499 0.004801083957286505 0.02275203344546053 -0.0010490275604170287 -0.0071840738395791024 0.0011955765240655046 0.011421004632862872
 0.0012418700213804033 0.01141512763979285 -0.0010490275604170287 -0.0071840738395791024 0.004793807709464824 0.022751517899693614 0.9941910349638161 -0.054789316489139823
 -0.0010484809389392973 -0.00718409011440213 0.0011955765240655046 0.011421004632862872 0.9941910349638161 -0.054789316489139823 0.004801391559370041 0.022750940271769254
0.08753647353064001 0.0051622398387641474 0.024626579423369044 0.993702110366099 -0.05910007041138887 0.0014034511896976875 0.012294928701668935 -0.0011821677166809366 -0.0077412669761725665
 0.993702110366099 -0.05910007041138887 0.0051702380978792374 0.02462599006568093 -0.0011827996703820867 -0.007741243384274657 0.001349736303931117 0.012301899983453476
 0.0014034511896976875 0.012294928701668935 -0.0011827996703820867 -0.007741243384274657 0.0051618012424546195 0.024625468503497845 0.9937020636237082 -0.05910124710613132
 -0.0011821677166809366 -0.0077412669761725665 0.001349736303931117 0.012301899983453476 0.9937020636237082 -0.05910124710613132 0.005170595503369552 0.024624813702656144
0.09378907878283 0.0055491867270310285 0.026516248096173155 0.9931881985033636 -0.06342559079092842 0.0015755867995047462 0.013174308219801228 -0.0013245629892042917 -0.008298357684717615
 0.9931881985033636 -0.06342559079092842 0.005558367426985009 0.026515586221537064 -0.001325286208980182 -0.008298325562339037 0.0015138944954863837 0.013182502537759041
 0.0015755867995047462 0.013174308219801228 -0.001325286208980182 -0.008298325562339037 0.005548683906497706 0.02651506448731216 0.9931881448852405 -0.06342685297425182
 -0.0013245629892042917 -0.008298357684717615 0.0015138944954863837 0.013182502537759041 0.9931881448852405 -0.06342685297425182 0.005558778444285315 0.026514326839146955
0.100041684035 0.005955338226614837 0.02842125322970304 0.9926490358708391 -0.06776458934811118 0.0017583569631883134 0.01405311153126868 -0.0014757488551967602 -0.008855211121039938
 0.9926490358708391 -0.06776458934811118 0.005965783236817749 0.02842051411859906 -0.0014765692268400407 -0.00885516918565032 0.0016881305548661347 0.014062665356819212
 0.0017583569631883134 0.01405311153126868 -0.0014765692268400407 -0.00885516918565032 0.0059547668700965116 0.028419998281761154 0.9926489748478866 -0.06776593734952646
 -0.0014757488551967602 -0.008855211121039938 0.0016881305548661347 0.014062665356819212 0.9926489748478866 -0.06776593734952646 0.0059662516921872525 0.028419171898921864
0.1059090909091 0.006354209756728185 0.03022257358922573 0.9921198544153386 -0.07184835071878178 0.0019396084653559805 0.014877110279748999 -0.0016256865123071658 -0.009377406345627734
 0.9921198544153386 -0.07184835071878178 0.006365915792186444 0.030221757585844045 -0.0016266033607984969 -0.009377353973842758 0.0018608669044347628 0.01488807092717665
 0.0019396084653559805 0.014877110279748999 -0.0016266033607984969 -0.009377353973842758 0.006353570182652476 0.030221253003432754 0.9921197859490251 -0.07184977957444323
 -0.0016256865123071658 -0.009377406345627734 0.0018608669044347628 0.01488807092717665 0.9921197859490251 -0.07184977957444323 0.006366441643751157 0.030220337803204513
0.1062942892872 0.00638100306227888 0.030341288081873013 0.9920843202754315 -0.07211685616968855 0.0019518391901127698 0.01493118041300913 -0.001635804764875623 -0.009411673599779328
 0.9920843202754315 -0.07211685616968855 0.00639279441506974 0.030340466878086374 -0.001636728125971617 -0.00941162049983726 0.001872521430274194 0.01494223801948977
 0.0019518391901127698 0.01493118041300913 -0.001636728125971617 -0.00941162049983726 0.006380358877898861 0.0303399632331452 0.9920842513035085 -0.07211829034479039
 -0.001635804764875623 -0.009411673599779328 0.001872521430274194 0.01494223801948977 0.9920842513035085 -0.07211829034479039 0.006393324153601788 0.03033904200945959
0.11254689453939999 0.006826487426105476 0.03227604555839299 0.9914937514064978 -0.07648216944862013 0.0021561082784410917 0.015808353203929607 -0.0018048074279464177 -0.009967588811400625
 0.9914937514064978 -0.07648216944862013 0.006839707338543875 0.032275137263375366 -0.0018058395677343227 -0.009967523126445558 0.002067141458733785 0.015821066743067578
 0.0021561082784410917 0.015808353203929607 -0.0018058395677343227 -0.009967523126445558 0.006825766143670446 0.03227465233621536 0.9914936739253198 -0.0764836901786895
 -0.0018048074279464177 -0.009967588811400625 0.002067141458733785 0.015821066743067578 0.9914936739253198 -0.0764836901786895 0.006840302224686461 0.032273629940063206
0.11879949979160001 0.0072920948606666515 0.03422521722548792 0.990877031017583 -0.08086029646046197 0.0023712362086296033 0.016684464908276107 -0.0019828307196819487 -0.01052279778946637
 0.990877031017583 -0.08086029646046197 0.007306825755892272 0.03422421669195407 -0.001983977378766149 -0.010522718030261438 0.0022720622640008867 0.016698994485171054
 0.0023712362086296033 0.016684464908276107 -0.001983977378766149 -0.010522718030261438 0.007291292233245639 0.03422375724885719 0.9908769444501857 -0.08086190415012469
 -0.0019828307196819487 -0.01052279778946637 0.0022720622640008867 0.016698994485171054 0.9908769444501857 -0.08086190415012469 0.007307489674334145 0.03422262711564598
0.1250521050438 0.007778126135242123 0.036188492535171514 0.9902338631052254 -0.0852509943348034 0.002597292037447342 0.017559347287390486 -0.002169945586088119 -0.01107713889614184
 0.9902338631052254 -0.0852509943348034 0.007794450664156883 0.036187394459865095 -0.0021712124561835233 -0.011077043504805956 0.002487352654715881 0.01757586103383397
 0.002597292037447342 0.017559347287390486 -0.0021712124561835233 -0.011077043504805956 0.007777237940884894 0.036186967514193 0.990233766856612 -0.08525268941268908
 -0.002169945586088119 -0.01107713889614184 0.002487352654715881 0.01757586103383397 0.990233766856612 -0.08525268941268908 0.007795187520684303 0.036185722838110994
0.131304710296 0.008284879115727709 0.03816555821164265 0.9895639540831691 -0.08965401067334391 0.0028343417930496817 0.018432828946817394 -0.0023662199482271345 -0.011630447818964395
 0.9895639540831691 -0.08965401067334391 0.008302880178781563 0.038164357127177743 -0.0023676126717828735 -0.011630335169078954 0.0027130785232045793 0.018451503092964457
 0.0028343417930496817 0.018432828946817394 -0.0023676126717828735 -0.011630335169078954 0.008283901159078464 0.038163969947308404 0.989563847539266 -0.08965579359241341
 -0.0023662199482271345 -0.011630447818964395 0.0027130785232045793 0.018451503092964457 0.989563847539266 -0.08965579359241341 0.008303693900672298 0.03816260367217356
0.1375573155481 0.008697864655868442 0.03989754522888594 0.9889818413465997 -0.09381041746164967 0.003053594726260953 0.01927890833285532 -0.002543009363849405 -0.012156644788312304
 0.9889818413465997 -0.09381041746164967 0.008717632351026783 0.03989626291745821 -0.002544536404175321 -0.012156514717091237 0.0029207317636630787 0.019299719238178664
 0.003053594726260953 0.01927890833285532 -0.002544536404175321 -0.012156514717091237 0.008696793364819804 0.03989589522574039 0.9889817240246034 -0.09381228850078095
 -0.002543009363849405 -0.012156644788312304 0.0029207317636630787 0.019299719238178664 0.9889817240246034 -0.09381228850078095 0.00871852601386241 0.03989442787924452
0.1438099208003 0.009125412625457418 0.041620086544053476 0.9883791642459144 -0.09795597652824797 0.0032817210948585755 0.02012133621687438 -0.0027268679920164542 -0.012679563859457732
 0.9883791642459144 -0.09795597652824797 0.00914703129278169 0.04161871907699181 -0.0027285354285962716 -0.012679414761417764 0.003136750839400114 0.020144445333432626
 0.0032817210948585755 0.02012133621687438 -0.0027285354285962716 -0.012679414761417764 0.009124243954949686 0.04161837665443271 0.9883790355312597 -0.0979579361333174
 -0.0027268679920164542 -0.012679563859457732 0.003136750839400114 0.020144445333432626 0.9883790355312597 -0.0979579361333174 0.00914800870179108 0.0416168027107757
0.1500625260525 0.009567367590958007 0.043333029021259975 0.9877560824228531 -0.10209057560874872 0.0035186403397341 0.020960018654949477 -0.0029177188557895388 -0.013199118763205649
 0.9877560824228531 -0.10209057560874872 0.009590921848662271 0.04333157218236236 -0.0029195327547289524 -0.013198948968213145 0.0033610583260781225 0.020985593327578173
 0.0035186403397341 0.020960018654949477 -0.0029195327547289524 -0.013198948968213145 0.009566097528664184 0.04333126117144386 0.9877559416846542 -0.10209262424139996
 -0.0029177188557895388 -0.013199118763205649 0.0033610583260781225 0.020985593327578173 0.9877559416846542 -0.10209262424139996 0.00959198682035989 0.04332957475377394
0.15631513130469998 0.010023572955080088 0.04503622413191593 0.9871127563951996 -0.10621410303342134 0.003764270912409196 0.02179486333372073 -0.0031154839988813757 -0.013715225103301988
 0.9871127563951996 -0.10621410303342134 0.010049147707755071 0.04503467340599299 -0.0031174504127732183 -0.013715032876788491 0.0035935758590140525 0.021823076736932966
