! Created with skrf 1.8.0 (http://scikit-rf.org).
# GHz S RI R 50.0 
!freq ReS11 ImS11 ReS12 ImS12 ReS13 ImS13
! ReS14 ImS14
! ReS21 ImS21 ReS22 ImS22 ReS23 ImS23
! ReS24 ImS24
! ReS31 ImS31 ReS32 ImS32 ReS33 ImS33
! ReS34 ImS34
! ReS41 ImS41 ReS42 ImS42 ReS43 ImS43
! ReS44 ImS44
!
0.0 0.001444387825214 0.0 0.9985556121747 0.0 5.572198946697e-05 0.0 -5.572199022078e-05 6.823975696599834e-21
 0.9985556121747 0.0 0.001444387825255 0.0 -5.572199022145e-05 6.823975696681886e-21 5.57219894653e-05 0.0
 5.572198946697e-05 0.0 -5.572199022145e-05 6.823975696681886e-21 0.001444387818139 0.0 0.9985556121676 0.0
 -5.572199022078e-05 6.823975696599834e-21 5.57219894653e-05 0.0 0.9985556121676 0.0 0.001444387818143 0.0
0.005 0.001553817610115162 0.0011785359372568397 0.9984172139939668 -0.00302614848816927 7.835900141111217e-05 0.0006336457522196582 -7.605316010859912e-05 -0.0003943324467216056
 0.9984172139939668 -0.00302614848816927 0.0015538066863759283 0.00117854235790067 -7.605432064108654e-05 -0.00039433338212649654 7.84145224580088e-05 0.0006336245189017281
 7.835900141111217e-05 0.0006336457522196582 -7.605432064108654e-05 -0.00039433338212649654 0.0015538171422552578 0.0011786035169549121 0.9984172143438488 -0.003026081418800889
 -7.605316010859912e-05 -0.0003943324467216056 7.84145224580088e-05 0.0006336245189017281 0.9984172143438488 -0.003026081418800889 0.001553807843858778 0.0011786089063872466
0.006252605252188 0.0015824408291573958 0.0014778323032953664 0.9983807997087009 -0.0037834395961165936 8.476923394105003e-05 0.0007923609334355187 -8.175829006953587e-05 -0.0004934346134315861
 0.9983807997087009 -0.0037834395961165936 0.0015824237532626553 0.0014778404827957212 -8.176009561709455e-05 -0.0004934357678576379 8.48559796737225e-05 0.0007923333873940761
 8.476923394105003e-05 0.0007923609334355187 -8.176009561709455e-05 -0.0004934357678576379 0.0015824400191449448 0.0014779167737632864 0.998380800177588 -0.0037833557636105294
 -8.175829006953587e-05 -0.0004934346134315861 8.48559796737225e-05 0.0007923333873940761 0.998380800177588 -0.0037833557636105294 0.0015824254847247767 0.001477923654172001
0.01250521050438 0.0017326717074802865 0.002986860040292548 0.9981884844596142 -0.0075677798266355675 0.00012122979918484713 0.001585061114499639 -0.00011394003951196051 -0.0009893315253525858
 0.9981884844596142 -0.0075677798266355675 0.0017326035187932448 0.0029868779592292895 -0.00011394715102650017 -0.00098933367279011 0.00012157569429012839 0.0015849952191782548
 0.00012122979918484713 0.001585061114499639 -0.00011394715102650017 -0.00098933367279011 0.0017326679245431372 0.002987028712636906 0.9981884857941147 -0.0075676124045536254
 -0.00011394003951196051 -0.0009893315253525858 0.00012157569429012839 0.0015849952191782548 0.9981884857941147 -0.0075676124045536254 0.001732609896900106 0.0029870439186466275
0.01875781575657 0.0018953926033449635 0.0045175842287948605 0.9979784386609094 -0.011362251364486188 0.0001651861291211894 0.0023786648977304832 -0.0001523633625240002 -0.0014869601809898417
 0.9979784386609094 -0.011362251364486188 0.0018952393703214599 0.004517613576629489 -0.00015237921608859934 -0.0014869631321651692 0.00016596308260607794 0.0023785478170313124
 0.0001651861291211894 0.0023786648977304832 -0.00015237921608859934 -0.0014869631321651692 0.0018953836648679914 0.004517836975542002 0.9979784412454245 -0.011362000394164531
 -0.0001523633625240002 -0.0014869601809898417 0.00016596308260607794 0.0023785478170313124 0.9979784412454245 -0.011362000394164531 0.0018952532896002005 0.00451786203667093
0.02501042100875 0.0020709073180611307 0.006067872318023615 0.9977504260166733 -0.01516870962307835 0.00021672152837406264 0.0031732222623016663 -0.0001971214401375487 -0.001986099427111305
 0.9977504260166733 -0.01516870962307835 0.002070635172465598 0.006067914903922804 -0.00019714942920681127 -0.001986102961278953 0.00021810148164299155 0.003173039209064076
 0.00021672152837406264 0.0031732222623016663 -0.00019714942920681127 -0.001986102961278953 0.0020708910328423743 0.006068209008242698 0.9977504302391308 -0.01516837508756063
 -0.0001971214401375487 -0.001986099427111305 0.00021810148164299155 0.003173039209064076 0.9977504302391308 -0.01516837508756063 0.002070659524095113 0.006068245530572018
0.03126302626094 0.002259507025412089 0.007636634808330608 0.9975041976207696 -0.018987958099705254 0.00027591979162770464 0.003968708109598898 -0.00024830494262588764 -0.0024865982669359243
 0.9975041976207696 -0.018987958099705254 0.0022590821459948854 0.007636692559794829 -0.00024834842539490107 -0.0024866021314563203 0.00027807488261544645 0.003968442336384243
 0.00027591979162770464 0.003968708109598898 -0.00024834842539490107 -0.0024866021314563203 0.002259481194880237 0.007637055284279089 0.997504203876707 -0.018987539946913407
 -0.00024830494262588764 -0.0024865982669359243 0.00027807488261544645 0.003968442336384243 0.997504203876707 -0.018987539946913407 0.0022591198205441556 0.00763710494887539
0.037515631513130004 0.0024614767083452134 0.009223167355852343 0.9972394985746219 -0.022820406212140452 0.0003428644371127562 0.004765067894314045 -0.00030600271695254924 -0.00298833023089968
 0.9972394985746219 -0.022820406212140452 0.002460865310136064 0.009223242318476465 -0.000306065020108177 -0.002988334141128233 0.00034596707486410263 0.004764700674937967
 0.0003428644371127562 0.004765067894314045 -0.000306065020108177 -0.002988334141128233 0.0024614391208586457 0.009223671433503597 0.9972395072633667 -0.022819904354279053
 -0.00030600271695254924 -0.00298833023089968 0.00034596707486410263 0.004764700674937967 0.9972395072633667 -0.022819904354279053 0.00246091919293916 0.009223735995621447
0.043768236765320004 0.0026770976420407854 0.010826950533567685 0.9969560706503477 -0.02666626947134636 0.00041763834569608657 0.005562231508591844 -0.0003703020405550654 -0.0034911794898235303
 0.9969560706503477 -0.02666626947134636 0.0026762659684749844 0.0108270448711359 -0.00037038646154625017 -0.0034911831291031116 0.0004218612467657264 0.005561742116699162
 0.00041763834569608657 0.005562231508591844 -0.00037038646154625017 -0.0034911831291031116 0.002677046071836082 0.01082753800790566 0.9969560821769944 -0.02666568377965214
 -0.0003703020405550654 -0.0034911794898235303 0.0004218612467657264 0.005561742116699162 0.9969560821769944 -0.02666568377965214 0.002676338939040924 0.010827619296390346
0.050020842017509996 0.0029066485538126624 0.012447567126989075 0.9966536536337508 -0.0305256521178426 0.0005003235469401143 0.006360119009308969 -0.00044128871713772244 -0.003995035125153679
 0.9966536536337508 -0.0305256521178426 0.0029055628704978674 0.012447683121778394 -0.000441398525694571 -0.003995038144817682 0.0005058397516581523 0.0063594846958036815
 0.0005003235469401143 0.006360119009308969 -0.000441398525694571 -0.003995038144817682 0.002906580762430885 0.012448237751677157 0.9966536684116397 -0.030524982442900157
 -0.00044128871713772244 -0.003995035125153679 0.0005058397516581523 0.0063594846958036815 0.9966536684116397 -0.030524982442900157 0.0029056578037348927 0.012448337668659888
0.055454545454549996 0.0031176631037497437 0.01386932553265198 0.9963752196107599 -0.03389057936006933 0.0005786673859203804 0.007054027912688411 -0.0005084747913025178 -0.004433633702089073
 0.9963752196107599 -0.03389057936006933 0.0031163292944409986 0.013869462294124127 -0.0005086092970864631 -0.004433635875295175 0.0005854482950065288 0.007053247594502605
 0.0005786673859203804 0.007054027912688411 -0.0005086092970864631 -0.004433635875295175 0.003117579384260139 0.013870068198940865 0.9963752375541889 -0.03388983655026208
 -0.0005084747913025178 -0.004433633702089073 0.0005854482950065288 0.007053247594502605 0.9963752375541889 -0.03388983655026208 0.0031164456415386354 0.013870185906195152
0.056273447269699996 0.0031504062254473554 0.014084661484314595 0.9963319861104768 -0.03439858770399461 0.0005910010676187065 0.007158643431836451 -0.000519047104372797 -0.00449978831453215
 0.9963319861104768 -0.03439858770399461 0.003149032814108077 0.014084801537604993 -0.0005191855435245319 -0.004499790333938989 0.0005979839438531393 0.0071578394017571935
 0.0005910010676187065 0.007158643431836451 -0.0005191855435245319 -0.004499790333938989 0.003150319957306885 0.014085414989154946 0.9963320045590697 -0.03439783385838542
 -0.000519047104372797 -0.00449978831453215 0.0005979839438531393 0.0071578394017571935 0.9963320045590697 -0.03439783385838542 0.0031491525760102574 0.014085535509876256
0.06252605252188 0.0034086458162826926 0.015737917212137572 0.9959908059772908 -0.0382850613327904 0.000689750811800619 0.00795771233417953 -0.0006036601059763393 -0.005005330789488747
 0.9959908059772908 -0.0382850613327904 0.003406950969460872 0.01573808384487745 -0.0006038303927480587 -0.005005331396053762 0.000698374050823823 0.007956711723407601
 0.000689750811800619 0.00795771233417953 -0.0006038303927480587 -0.005005331396053762 0.0034085388000750726 0.01573875329201341 0.9959908285259884 -0.0382842231022391
 -0.0006036601059763393 -0.005005330789488747 0.000698374050823823 0.007956711723407601 0.9959908285259884 -0.0382842231022391 0.003407098418541719 0.015738896464770932
0.06877865777407 0.0036816410406216075 0.017407043847878882 0.9956298508109219 -0.04218502292236244 0.0007966514586348081 0.008757228718358098 -0.0006952091432823389 -0.005511553918858063
 0.9956298508109219 -0.04218502292236244 0.0036795910567770183 0.017407239701509498 -0.0006954144692554151 -0.005511552668099894 0.0008070890652873948 0.008756002570243377
 0.0007966514586348081 0.008757228718358098 -0.0006954144692554151 -0.005511552668099894 0.003681510987689525 0.017407962169215585 0.9956298778985997 -0.042184100059431635
 -0.0006952091432823389 -0.005511553918858063 0.0008070890652873948 0.008756002570243377 0.9956298778985997 -0.042184100059431635 0.0036797690419521443 0.017408130115460156
0.07503126302626001 0.0039696642571901905 0.01909176842796032 0.9952488581510267 -0.04609839557780845 0.0009117803697222081 0.009557091615317743 -0.000793774114900888 -0.006018348131860405
 0.9952488581510267 -0.04609839557780845 0.003967225435844092 0.01909199626536658 -0.000794017646553685 -0.006018344547438324 0.0009242066485037108 0.009555608857399856
 0.0009117803697222081 0.009557091615317743 -0.000794017646553685 -0.006018344547438324 0.003969508859800735 0.019092768622637157 0.9952488902271127 -0.0460973878082579
 -0.000793774114900888 -0.006018348131860405 0.0009242066485037108 0.009555608857399856 0.9952488902271127 -0.0460973878082579 0.003967436794693228 0.019092963537259047
0.08128386827845 0.0042729865006462244 0.02079182986818499 0.9948475657291699 -0.05002508115432792 0.0010352135029971388 0.010357196480426937 -0.0008994333481264181 -0.006525602533994203
 0.9948475657291699 -0.05002508115432792 0.004270125137616537 0.02079209257484248 -0.0008997182271390948 -0.0065255961077580835 0.0010498030404656562 0.010355423901308475
 0.0010352135029971388 0.010357196480426937 -0.0008997182271390948 -0.0065255961077580835 0.004272803432248466 0.020792911535424723 0.9948476032553075 -0.05002398817537432
 -0.0008994333481264181 -0.006525602533994203 0.0010498030404656562 0.010355423901308475 0.9948476032553075 -0.05002398817537432 0.004270372696085907 0.020793135687151756
0.08753647353064001 0.004591877478560666 0.022506975076300912 0.9944257116659383 -0.05396496409173268 0.0011670253305784695 0.011157435462789824 -0.0010122635442797604 -0.007033204652686108
 0.9944257116659383 -0.05396496409173268 0.0045885598613902 0.022507275661593478 -0.001012592887696434 -0.007033194844726724 0.0011839529755777356 0.01115533768924519
 0.0011670253305784695 0.011157435462789824 -0.001012592887696434 -0.007033194844726724 0.004591664391803699 0.022508137786291987 0.9944257551162652 -0.05396378556883804
 -0.0010122635442797604 -0.007033204652686108 0.0011839529755777356 0.01115533768924519 0.9944257551162652 -0.05396378556883804 0.004588846431570752 0.02250839351828601
0.09378907878283 0.0049266055427891935 0.02423695618329439 0.9939830346457963 -0.05791791413439725 0.001307288759038801 0.011957697607671035 -0.0011323397204484136 -0.007541040253571132
 0.9939830346457963 -0.05791791413439725 0.004922797946156151 0.024237297781890405 -0.0011327166208164943 -0.007541026492273738 0.0013267296004066949 0.01195523708194746
 0.001307288759038801 0.011957697607671035 -0.0011327166208164943 -0.007541026492273738 0.004926360068891453 0.024238199473346423 0.9939830845081681 -0.05791664970537467
 -0.0011323397204484136 -0.007541040253571132 0.0013267296004066949 0.01195523708194746 0.9939830845081681 -0.05791664970537467 0.004923126325195215 0.024238489203909287
0.100041684035 0.00527743764191465 0.025981528501376607 0.9935192740753062 -0.06188378832833898 0.0014560750513902868 0.012757869006539246 -0.0012597351480630149 -0.008048993212941863
 0.9935192740753062 -0.06188378832833898 0.005273106322950269 0.025981914374935248 -0.00126016267348483 -0.00804897489504039 0.0014782043937412012 0.0127550059639971
 0.0014560750513902868 0.012757869006539246 -0.00126016267348483 -0.00804897489504039 0.005277157389618998 0.025982851879429458 0.993519330852689 -0.06188243760030205
 -0.0012597351480630149 -0.008048993212941863 0.0014782043937412012 0.0127550059639971 0.993519330852689 -0.06188243760030205 0.005273479291726178 0.02598317810291298
0.1059090909091 0.005621539310594647 0.02763167862572563 0.9930646773412181 -0.06561695781117234 0.0016035086275272452 0.013508558503779418 -0.0013860027051044272 -0.0085256547487286
 0.9930646773412181 -0.06561695781117234 0.005616685825530499 0.027632109127706958 -0.0013864805054425878 -0.008525631578130759 0.0016283204502955642 0.013505279591184895
 0.0016035086275272452 0.013508558503779418 -0.0013864805054425878 -0.008525631578130759 0.00562122422672232 0.027633076681506042 0.9930647410789656 -0.06561552571907496
 -0.0013860027051044272 -0.0085256547487286 0.0016283204502955642 0.013505279591184895 0.9930647410789656 -0.06561552571907496 0.005617103150268765 0.02763343948701997
0.1062942892872 0.005644639260395514 0.027740448998614334 0.9930341702318188 -0.06586243250621937 0.0016134537503207102 0.013557832912688422 -0.0013945212887497291 -0.008556945428583372
 0.9930341702318188 -0.06586243250621937 0.005639750454316626 0.027740882537494734 -0.0013950024829417628 -0.008556921919218485 0.001638447088525012 0.013554525359790836
 0.0016134537503207102 0.013557832912688422 -0.0013950024829417628 -0.008556921919218485 0.005644321815004637 0.027741851940590326 0.9930342344428397 -0.06586099505869886
 -0.0013945212887497291 -0.008556945428583372 0.001638447088525012 0.013554525359790836 0.9930342344428397 -0.06586099505869886 0.005640170775745757 0.027742217228488925
0.11254689453939999 0.0060284743482887605 0.02951347512643016 0.9925274644043605 -0.0698536824239006 0.0017794926020739173 0.014357469836846961 -0.0015367677288643073 -0.009064776754663745
 0.9925274644043605 -0.0698536824239006 0.006022994263735736 0.029513959851723427 -0.0015373056111074443 -0.009064747387449192 0.0018075255939585442 0.014353673529468994
 0.0017794926020739173 0.014357469836846961 -0.0015373056111074443 -0.009064747387449192 0.006028117270396709 0.029514957078521094 0.9925275365846473 -0.06985215780704757
 -0.0015367677288643073 -0.009064776754663745 0.0018075255939585442 0.014353673529468994 0.9925275365846473 -0.06985215780704757 0.006023464681501327 0.029515364080719128
0.11879949979160001 0.00642920524144394 0.03130036390984914 0.9919988990288197 -0.07385736463882273 0.0019542574808068727 0.015156657626082783 -0.0016865421122685066 -0.009572364957481963
 0.9919988990288197 -0.07385736463882273 0.006423100056162796 0.03130090347543813 -0.0016871396774479925 -0.009572329034558765 0.0019855059186616726 0.015152326048227924
 0.0019542574808068727 0.015156657626082783 -0.0016871396774479925 -0.009572329034558765 0.006428806066374481 0.03130192428823711 0.9919989797320894 -0.07385575237424692
 -0.0016865421122685066 -0.009572364957481963 0.0019855059186616726 0.015152326048227924 0.9919989797320894 -0.07385575237424692 0.006423623292935689 0.031302375734441855
0.1250521050438 0.006847092576999925 0.033100871226633376 0.9914482178199236 -0.07787329720435351 0.0021378123135494115 0.015955271532218873 -0.0018439100719852275 -0.010079585685903341
 0.9914482178199236 -0.07787329720435351 0.006840328433017087 0.033101469421620754 -0.0018445702904816169 -0.01007954247801997 0.0021724520942159073 0.01595035587516903
 0.0021378123135494115 0.015955271532218873 -0.0018445702904816169 -0.01007954247801997 0.006846648813266639 0.033102509418602134 0.9914483076187606 -0.0778715967846697
 -0.0018439100719852275 -0.010079585685903341 0.0021724520942159073 0.01595035587516903 0.9914483076187606 -0.0778715967846697 0.006840907188943925 0.0331030081199872
0.131304710296 0.0072823952020690495 0.03491475123378053 0.9908751658997574 -0.08190129022175768 0.002330219005063078 0.016753184270767624 -0.002008935160858282 -0.010586312455661566
 0.9908751658997574 -0.08190129022175768 0.007274938201393718 0.03491541198491586 -0.002009660978458758 -0.010586261202246967 0.0023684260992972803 0.01674763341262263
 0.002330219005063078 0.016753184270767624 -0.002009660978458758 -0.010586261202246967 0.007281904330697348 0.034916466596656884 0.9908752653872261 -0.08189950111235728
 -0.002008935160858282 -0.010586312455661566 0.0023684260992972803 0.01674763341262263 0.9908752653872261 -0.08189950111235728 0.007275575152683019 0.03491701544767613
0.1375573155481 0.007633361493577187 0.036504273603662415 0.9903815348912179 -0.08570355964694404 0.0025064083704589 0.01752597643414689 -0.002156509335394981 -0.01106817129875608
 0.9903815348912179 -0.08570355964694404 0.007625176256118938 0.03650498632074616 -0.002157305230068559 -0.011068111983468661 0.002548274376723873 0.01751980017098067
 0.0025064083704589 0.01752597643414689 -0.002157305230068559 -0.011068111983468661 0.0076328218688585915 0.0365060654015086 0.9903816445191229 -0.08570168150342038
 -0.002156509335394981 -0.01106817129875608 0.002548274376723873 0.01751980017098067 0.9903816445191229 -0.08570168150342038 0.0076258734490966 0.03650665324886115
0.1438099208003 0.007996598487403863 0.03808578396208496 0.9898706926227779 -0.08949657335428629 0.0026897141301135286 0.018295937232709433 -0.002310001316151711 -0.011547416800786194
 0.9898706926227779 -0.08949657335428629 0.007987650857995798 0.03808655159081692 -0.002310870474212055 -0.011547348676989337 0.002735399862935446 0.018289088947506783
 0.0026897141301135286 0.018295937232709433 -0.002310870474212055 -0.011547348676989337 0.00799600770782921 0.03808765148393557 0.9898708129848477 -0.08949460564626713
 -0.002310001316151711 -0.011547416800786194 0.002735399862935446 0.018289088947506783 0.9898708129848477 -0.08949460564626713 0.007988410820405491 0.03808828026236049
0.1500625260525 0.008371983681470227 0.03965916124457685 0.9893427654310015 -0.09328024868312498 0.0028800763029708807 0.01906299756183 -0.0024693522928498335 -0.012023982361392528
 0.9893427654310015 -0.09328024868312498 0.008362239462008461 0.03965998688313247 -0.002470297895495358 -0.012023904652408018 0.0029297416676431153 0.01905542894248598
 0.0028800763029708807 0.01906299756183 -0.002470297895495358 -0.012023904652408018 0.008371339328666174 0.03966110375202352 0.9893428971381552 -0.09327819085843835
 -0.0024693522928498335 -0.012023982361392528 0.0029297416676431153 0.01905542894248598 0.9893428971381552 -0.09327819085843835 0.008363064690729569 0.03966177550924628
0.15631513130469998 0.008759393764691653 0.04122428809251129 0.9887978802303781 -0.09705450303665261 0.003077434235550361 0.019827089425096815 -0.002634502762406154 -0.012497802744921845
 0.9887978802303781 -0.09705450303665261 0.00874881871275795 0.04122517499381011 -0.002635527985663594 -0.012497714644150601 0.0031312382146924315 0.01981875048186455
