! Created with skrf 1.8.0 (http://scikit-rf.org).
# GHz S RI R 50.0 
!freq ReS11 ImS11 ReS12 ImS12 ReS13 ImS13
! ReS14 ImS14
! ReS21 ImS21 ReS22 ImS22 ReS23 ImS23
! ReS24 ImS24
! ReS31 ImS31 ReS32 ImS32 ReS33 ImS33
! ReS34 ImS34
! ReS41 ImS41 ReS42 ImS42 ReS43 ImS43
! ReS44 ImS44
!
0.0 0.001115308432812 0.0 0.9988846915665 0.0 4.235779341302e-05 0.0 -4.235779243617e-05 5.187333492590356e-21
 0.9988846915665 0.0 0.001115308432835 0.0 -4.235779243658e-05 5.1873334926405666e-21 4.235779341371e-05 0.0
 4.235779341302e-05 0.0 -4.235779243658e-05 5.1873334926405666e-21 0.001115308431407 0.0 0.9988846915651 0.0
 -4.235779243617e-05 5.187333492590356e-21 4.235779341371e-05 0.0 0.9988846915651 0.0 0.001115308431416 0.0
0.005 0.0011990597872536693 0.0009118914989563162 0.9987788592400544 -0.002337522726372144 5.9044671452268493e-05 0.0004736947696042926 -5.73362377684025e-05 -0.0002962816672520837
 0.9987788592400544 -0.002337522726372144 0.001199079114990144 0.0009118802660024774 -5.733826909420034e-05 -0.0002962832441889706 5.8911882470284115e-05 0.0004737450624063
 5.9044671452268493e-05 0.0004736947696042926 -5.733826909420034e-05 -0.0002962832441889706 0.0011990583535716605 0.0009118251102971536 0.9987788589237865 -0.0023375897945663434
 -5.73362377684025e-05 -0.0002962816672520837 5.8911882470284115e-05 0.0004737450624063 0.9987788589237865 -0.0023375897945663434 0.0011990799192043258 0.0009118125205894474
0.006252605252188 0.0012207562582460794 0.001143494619307048 0.9987513090329672 -0.00292251669600011 6.367809621832223e-05 0.0005923605160506 -6.144295154238129e-05 -0.0003707522076984824
 0.9987513090329672 -0.00292251669600011 0.0012207864707339513 0.0011434803739323832 -6.144611239140767e-05 -0.0003707541534957756 6.347061912208631e-05 0.0005924257649357383
 6.367809621832223e-05 0.0005923605160506 -6.144611239140767e-05 -0.0003707541534957756 0.0012207540784081924 0.0011434116513840515 0.9987513086000874 -0.002922600517263751
 -6.144295154238129e-05 -0.0003707522076984824 6.347061912208631e-05 0.0005924257649357383 0.9987513086000874 -0.002922600517263751 0.0012207877897741737 0.0011433957045845814
0.01250521050438 0.0013334051742096666 0.002311381416294407 0.9986075060244913 -0.005846053158789701 8.954112832978308e-05 0.0011851246281681014 -8.408760911912754e-05 -0.0007434759393708828
 0.9986075060244913 -0.005846053158789701 0.0013335258074442516 0.002311350892413612 -8.410006563816916e-05 -0.0007434795589225582 8.871359977206452e-05 0.001185280343405813
 8.954112832978308e-05 0.0011851246281681014 -8.410006563816916e-05 -0.0007434795589225582 0.0013333970444178826 0.002311215780030152 0.9986075048738984 -0.005846220555721002
 -8.408760911912754e-05 -0.0007434759393708828 8.871359977206452e-05 0.001185280343405813 0.9986075048738984 -0.005846220555721002 0.0013335316574003776 0.0023111817847437178
0.01875781575657 0.0014534449015307167 0.003496362582987126 0.9984531444632013 -0.008777780278827871 0.00011999637589676634 0.001778728430801727 -0.00011034921147333113 -0.0011176573794934625
 0.9984531444632013 -0.008777780278827871 0.0014537159556789387 0.003496313651545993 -0.00011037699101939634 -0.0011176623627816209 0.00011813704293714945 0.001779003648614693
 0.00011999637589676634 0.001778728430801727 -0.00011037699101939634 -0.0011176623627816209 0.001453427051858177 0.003496114450913007 0.9984531423017445 -0.008778031175402967
 -0.00011034921147333113 -0.0011176573794934625 0.00011813704293714945 0.001779003648614693 0.9984531423017445 -0.008778031175402967 0.001453729536031817 0.003496060164217702
0.02501042100875 0.0015810622870194803 0.004696831630589113 0.9982880825415654 -0.011719173498260066 0.00015509458343819705 0.0023732312122430907 -0.00014028409541344547 -0.001493157349679555
 0.9982880825415654 -0.011719173498260066 0.0015815436301778374 0.004696762089206422 -0.00014033315493678907 -0.0014931633424109707 0.00015179126137188737 0.0023736586064836665
 0.00015509458343819705 0.0023732312122430907 -0.00014033315493678907 -0.0014931633424109707 0.001581030947657899 0.00469650119932621 0.9982880790726677 -0.011719507835316768
 -0.00014028409541344547 -0.001493157349679555 0.00015179126137188737 0.0023736586064836665 0.9982880790726677 -0.011719507835316768 0.001581568137268475 0.004696424263076608
0.03126302626094 0.0017164359368053877 0.005911989169640317 0.9981121694048911 -0.014670897013799025 0.0001948873751883463 0.002968637794494804 -0.0001739474104769322 -0.0018698888614012113
 0.9981121694048911 -0.014670897013799025 0.0017171873353001134 0.0059118967479578404 -0.00017402364909055212 -0.0018698954641500683 0.00018972704082674202 0.002969253695261838
 0.0001948873751883463 0.002968637794494804 -0.00017402364909055212 -0.0018698954641500683 0.0017163873459053952 0.005911576635673344 0.9981121643373193 -0.014671314773398638
 -0.0001739474104769322 -0.0018698888614012113 0.00018972704082674202 0.002969253695261838 0.9981121643373193 -0.014671314773398638 0.001717225973292622 0.005911474581892544
0.037515631513130004 0.0018597407186055417 0.007141334667150728 0.9979252497131735 -0.01763331198252168 0.00023942667559826531 0.0035649320180014196 -0.0002113935525087812 -0.0022477836105359124
 0.9979252497131735 -0.01763331198252168 0.0018608218561587673 0.007141217030043669 -0.00021150281801103203 -0.002247790378444154 0.00023199526891147816 0.0035657764502087085
 0.00023942667559826531 0.0035649320180014196 -0.00021150281801103203 -0.002247790378444154 0.0018596711133327074 0.007140840259636074 0.9979252427524313 -0.017633813155464417
 -0.0002113935525087812 -0.0022477836105359124 0.00023199526891147816 0.0035657764502087085 0.9979252427524313 -0.017633813155464417 0.0018608778296130652 0.007140710513421228
0.043768236765320004 0.0020111494923596637 0.008384511843216287 0.997727165434485 -0.020606631083130628 0.0002887644512980971 0.004162086926105044 -0.0002526763332465027 -0.002626781777967229
 0.997727165434485 -0.020606631083130628 0.0020126199845989555 0.008384366593335104 -0.0002528244261074672 -0.0026267882206096106 0.0002786467658117449 0.004163203654236597
 0.0002887644512980971 0.004162086926105044 -0.0002528244261074672 -0.0026267882206096106 0.0020110551118327053 0.008383935822389155 0.9977271562859101 -0.020607215670943934
 -0.0002526763332465027 -0.002626781777967229 0.0002786467658117449 0.004163203654236597 0.9977271562859101 -0.020607215670943934 0.0020126965021701453 0.008383775703918264
0.050020842017509996 0.002170833932300193 0.009641244739746499 0.9975177567322264 -0.023590982403244747 0.0003429525687281342 0.0047600689642024584 -0.0002978490539991561 -0.0030068278171802567
 0.9975177567322264 -0.023590982403244747 0.002172753338716237 0.009641069419646198 -0.0002980417299762703 -0.003006833398484137 0.0003297321885051186 0.004761505539702305
 0.0003429525687281342 0.0047600689642024584 -0.0002980417299762703 -0.003006833398484137 0.0021707110167173784 0.0096405873983504 0.9975177451000461 -0.023591650417221735
 -0.0002978490539991561 -0.0030068278171802567 0.0003297321885051186 0.004761505539702305 0.9975177451000461 -0.023591650417221735 0.00217285361281146 0.0096403941244767
0.055454545454549996 0.0023164581632782208 0.01074421543773261 0.997326452284948 -0.02619349272791809 0.0003940228939856523 0.0052803757122688545 -0.00034030566036313744 -0.003337908877830487
 0.997326452284948 -0.02619349272791809 0.0023188160239355623 0.010744011944642714 -0.0003405417214651196 -0.0033379132397673645 0.00037776703144302287 0.005282131840254627
 0.0003940228939856523 0.0052803757122688545 -0.0003405417214651196 -0.0033379132397673645 0.0023163073973650095 0.0107434876855504 0.9973264382530536 -0.026194233262549795
 -0.00034030566036313744 -0.003337908877830487 0.00037776703144302287 0.005282131840254627 0.9973264382530536 -0.026194233262549795 0.002318939555264347 0.010743263259066398
0.056273447269699996 0.002338964960180752 0.010911306368214692 0.9972968624658746 -0.026586440747209953 0.00040204270208292047 0.005358840038757794 -0.00034696453722023407 -0.003387868382949462
 0.9972968624658746 -0.026586440747209953 0.0023413927950189433 0.010911098462172496 -0.000347207509192438 -0.0033878725211560204 0.00038530196672978667 0.00536064784883307
 0.00040204270208292047 0.005358840038757794 -0.000347207509192438 -0.0033878725211560204 0.002338809750958622 0.010910568025581855 0.9972968480529885 -0.02658719221474396
 -0.00034696453722023407 -0.003387868382949462 0.00038530196672978667 0.00536064784883307 0.9972968480529885 -0.02658719221474396 0.0023415200423318673 0.010910338711076576
0.06252605252188 0.0025157129933300252 0.012194501446469405 0.9970643205067372 -0.029593044854690574 0.000466086265109682 0.00595835864586801 -0.0004000751383110165 -0.0037698511914129587
 0.9970643205067372 -0.029593044854690574 0.0025187087354176687 0.012194258382128492 -0.00040037407761395834 -0.003769853259045621 0.00044540625277225373 0.0059605929629901995
 0.000466086265109682 0.00595835864586801 -0.00040037407761395834 -0.003769853259045621 0.00251552173266345 0.012193682463640752 0.9970643030139339 -0.02959387980465089
 -0.0004000751383110165 -0.0037698511914129587 0.00044540625277225373 0.0059605929629901995 0.9970643030139339 -0.02959387980465089 0.0025188661764369395 0.01219341412218497
0.06877865777407 0.002701248088884712 0.013490656134832054 0.9968199679529294 -0.032610807620465476 0.0005351343582492169 0.006558580537814344 -0.0004572327438192585 -0.004152724342987099
 0.9968199679529294 -0.032610807620465476 0.0027048711909647854 0.013490375284640858 -0.0004575932812174559 -0.0041527236668322184 0.0005100948814087097 0.006561300569697993
 0.0005351343582492169 0.006558580537814344 -0.0004575932812174559 -0.0041527236668322184 0.0027010170209318014 0.013489756902709423 0.9968199470800454 -0.032611726095538314
 -0.0004572327438192585 -0.004152724342987099 0.0005100948814087097 0.006561300569697993 0.9968199470800454 -0.032611726095538314 0.002705062051434925 0.01348944644771849
0.07503126302626001 0.002895740032426045 0.014799611507152312 0.9965636412897689 -0.03563972257980915 0.0006092377229055984 0.007159459149007057 -0.0005184887634041551 -0.0045364358868287
 0.9965636412897689 -0.03563972257980915 0.0029000499305335027 0.014799290189580726 -0.0005189164898427662 -0.004536431747918198 0.0005794173334887193 0.007162728088794795
 0.0006092377229055984 0.007159459149007057 -0.0005189164898427662 -0.004536431747918198 0.002895465402677986 0.014798632453429921 0.9965636167340385 -0.035640724629926596
 -0.0005184887634041551 -0.0045364358868287 0.0005794173334887193 0.007162728088794795 0.9965636167340385 -0.035640724629926596 0.002900277440471409 0.014798276698669493
0.08128386827845 0.0030993583869927894 0.016121219215160732 0.9962951765109676 -0.038679768201194245 0.0006884467016596279 0.00776094587408309 -0.0005838941162354078 -0.004920933534058486
 0.9962951765109676 -0.038679768201194245 0.003104414509230895 0.016120854695766205 -0.0005843945833656829 -0.004920925167670747 0.0006534227031604372 0.007764830950667689
 0.0006884467016596279 0.00776094587408309 -0.0005843945833656829 -0.004920925167670747 0.0030990364426787707 0.016120160804886867 0.996295147967521 -0.03868085388348457
 -0.0005838941162354078 -0.004920933534058486 0.0006534227031604372 0.007764830950667689 0.996295147967521 -0.03868085388348457 0.0031046819035378723 0.016119756464861662
0.08753647353064001 0.0033122725193764414 0.017455338487528987 0.9960144092206044 -0.041730910845211446 0.0007728112014769786 0.008362990260167557 -0.000653499214333711 -0.005306164457833056
 0.9960144092206044 -0.041730910845211446 0.00331813429482808 0.017454927979849086 -0.0006540779349563942 -0.005306151053482205 0.0007321596665688142 0.008367562788529409
 0.0007728112014769786 0.008362990260167557 -0.0006540779349563942 -0.005306151053482205 0.003311899510015538 0.017454201220612572 0.9960143763821406 -0.04173208022698789
 -0.000653499214333711 -0.005306164457833056 0.0007321596665688142 0.008367562788529409 0.9960143763821406 -0.04173208022698789 0.003318444813390249 0.017453744910821137
0.09378907878283 0.0035346516095983082 0.018801833984523803 0.995721174717805 -0.04479310686881755 0.0008623806588305545 0.008965540143631965 -0.000727353943669146 -0.00569207514993067
 0.995721174717805 -0.04479310686881755 0.0035413784771622116 0.018801374650739833 -0.0007280163919860607 -0.005692055851374788 0.0008156764517509129 0.008970875575119452
 0.0008623806588305545 0.008965540143631965 -0.0007280163919860607 -0.005692055851374788 0.003534223786801114 0.018800618400773787 0.9957211372741629 -0.04479436002291268
 -0.000727353943669146 -0.00569207514993067 0.0008156764517509129 0.008970875575119452 0.9957211372741629 -0.04479436002291268 0.003541735364872179 0.018800106637703234
0.100041684035 0.0037666646482903054 0.020160574222668114 0.9954153080715621 -0.04786630416042177 0.0009572040067986143 0.009568541748050814 -0.0008055076429637922 -0.006078611317206946
 0.9954153080715621 -0.04786630416042177 0.0037743160654548085 0.020160063174121695 -0.0008062592548491231 -0.006078585222450266 0.0009040208094693136 0.009574719720562381
 0.0009572040067986143 0.009568541748050814 -0.0008062592548491231 -0.006078585222450266 0.0037661782667681733 0.02015928089768876 0.9954152657099188 -0.0478676411697756
 -0.0008055076429637922 -0.006078611317206946 0.0009040208094693136 0.009574719720562381 0.9954152657099188 -0.0478676411697756 0.003774722572532305 0.020158710098708968
0.1059090909091 0.003993296607064422 0.021446629503501218 0.9951166488095362 -0.050760126548965064 0.001051007135743834 0.010134756381495014 -0.0008827999172182118 -0.0064418542525122155
 0.9951166488095362 -0.050760126548965064 0.004001869716315372 0.021446067253881387 -0.0008836401094627842 -0.006441820919140006 0.0009913553343850906 0.010141801192446823
 0.001051007135743834 0.010134756381495014 -0.0008836401094627842 -0.006441820919140006 0.003992751870767553 0.0214452637860552 0.9951166015455248 -0.050761542328350624
 -0.0008827999172182118 -0.0064418542525122155 0.0009913553343850906 0.010141801192446823 0.9951166015455248 -0.050761542328350624 0.00400232574668377 0.021444634241125134
0.1062942892872 0.004008480425964151 0.021531430387821394 0.9950966441893107 -0.050950443287933495 0.0010573296425712584 0.010171939760959049 -0.0008880090816835657 -0.006465717800352051
 0.9950966441893107 -0.050950443287933495 0.004017115877769137 0.021530864685286002 -0.0008888552547817559 -0.0064656839616574 0.0009972399840278113 0.010179044148954687
 0.0010573296425712584 0.010171939760959049 -0.0008888552547817559 -0.0064656839616574 0.00400793174335486 0.02153005993646411 0.9950965965935991 -0.0509518642425524
 -0.0008880090816835657 -0.006465717800352051 0.0009972399840278113 0.010179044148954687 0.9950965965935991 -0.0509518642425524 0.004017575259680924 0.021529426419433163
0.11254689453939999 0.004260267515507011 0.02291427542554071 0.9947650178791156 -0.054045458370246456 0.0011628053962174068 0.010775677388215487 -0.0009749064362522352 -0.006853338516163837
 0.9947650178791156 -0.054045458370246456 0.004269946523417371 0.02291365207933176 -0.0009758525300853924 -0.0068532959400667585 0.001095380684840203 0.010783796352533693
 0.0011628053962174068 0.010775677388215487 -0.0009758525300853924 -0.0068532959400667585 0.004259652793094294 0.02291282850253928 0.9947649647299353 -0.05404696336700143
 -0.0009749064362522352 -0.006853338516163837 0.001095380684840203 0.010783796352533693 0.9947649647299353 -0.05404696336700143 0.004270462041166241 0.02291212848526112
0.11879949979160001 0.004522194249788999 0.024308983334796353 0.9944202639087522 -0.057151277746896385 0.0012736784994074719 0.011379696400154536 -0.0010662472657486778 -0.007241416409189116
 0.9944202639087522 -0.057151277746896385 0.004532976380687835 0.02430829930463907 -0.0010672986017529625 -0.007241364056518307 0.0011984890577760433 0.011388922437641216
 0.0012736784994074719 0.011379696400154536 -0.0010672986017529625 -0.007241364056518307 0.004521509752601037 0.024307460632910522 0.9944202048832382 -0.05715286689180777
 -0.0010662472657486778 -0.007241416409189116 0.0011984890577760433 0.011388922437641216 0.9944202048832382 -0.05715286689180777 0.004533551300539484 0.024306690232358586
0.1250521050438 0.004794428694817432 0.025715428599619 0.9940622170625536 -0.060267824510902374 0.001389995554529057 0.011983937165781793 -0.001162078486713698 -0.0076298934165949595
 0.9940622170625536 -0.060267824510902374 0.004806373570224707 0.025714680794326768 -0.0011632403482416602 -0.007629830202495665 0.0013066106565854136 0.011994367158562344
 0.001389995554529057 0.011983937165781793 -0.0011632403482416602 -0.007629830202495665 0.004793670692365665 0.02571383085125342 0.9940621518339272 -0.06026949791786865
 -0.001162078486713698 -0.0076298934165949595 0.0013066106565854136 0.011994367158562344 0.9940621518339272 -0.06026949791786865 0.004807011164145262 0.025712986082592915
0.131304710296 0.00507713862030809 0.027133485740044566 0.9936907121950951 -0.06339501692346118 0.0015118025040761257 0.012588338682421084 -0.0012624463471916881 -0.008018710438713434
 0.9936907121950951 -0.06339501692346118 0.005090305925325225 0.027132671016935114 -0.0012637239794304638 -0.00801863523268173 0.0014197904143523439 0.012600073946925012
 0.0015118025040761257 0.012588338682421084 -0.0012637239794304638 -0.00801863523268173 0.005076303386519905 0.02713181371695507 0.9936906404325978 -0.06339677471507778
 -0.0012624463471916881 -0.008018710438713434 0.0014197904143523439 0.012600073946925012 0.9936906404325978 -0.06339677471507778 0.00509100947082781 0.027130890492306433
0.1375573155481 0.005296839956177988 0.028377017289210785 0.9933792490641256 -0.06634672208224325 0.0016217308219349956 0.013173339747401506 -0.001350094512638619 -0.008388241641063872
 0.9933792490641256 -0.06634672208224325 0.005311294735116084 0.028376151754054026 -0.0013514956295400486 -0.008388154655640407 0.001520883051275776 0.013186342146222944
 0.0016217308219349956 0.013173339747401506 -0.0013514956295400486 -0.008388154655640407 0.00529592422481504 0.028375271722098108 0.9933791704740943 -0.06634856431814196
 -0.001350094512638619 -0.008388241641063872 0.001520883051275776 0.013186342146222944 0.9933791704740943 -0.06634856431814196 0.005312066985278424 0.028374285186043503
0.1438099208003 0.005523928479097266 0.02961534394041119 0.9930574238825038 -0.06929231971644557 0.0017361051745361268 0.01375676718045343 -0.001441256588150464 -0.00875637475488544
 0.9930574238825038 -0.06929231971644557 0.005539731365659167 0.029614425720322555 -0.001442786825338968 -0.008756274909057346 0.001626029036757134 0.013771127166917167
 0.0017361051745361268 0.01375676718045343 -0.001442786825338968 -0.008756274909057346 0.005522928614326802 0.02961352562653357 0.9930573381360198 -0.06929424651496645
 -0.001441256588150464 -0.00875637475488544 0.001626029036757134 0.013771127166917167 0.9930573381360198 -0.06929424651496645 0.005540575510635794 0.029612472932069332
0.1500625260525 0.005758339673928739 0.030848402652365572 0.9927253035655369 -0.07223177794565391 0.0018548960170741062 0.014338587590818583 -0.0015359046270658103 -0.009123078602610394
 0.9927253035655369 -0.07223177794565391 0.005775551405141435 0.030847429754306276 -0.001537569613575778 -0.009122964772602098 0.001735200478281147 0.01435439885238284
 0.0018548960170741062 0.014338587590818583 -0.001537569613575778 -0.009122964772602098 0.0057572520497579435 0.030846512422126434 0.9927252103302563 -0.07223378942876071
 -0.0015359046270658103 -0.009123078602610394 0.001735200478281147 0.01435439885238284 0.9927252103302563 -0.07223378942876071 0.005776470634156228 0.03084539056330496
0.15631513130469998 0.006000008741763656 0.032076132563541214 0.9923829551734508 -0.0751650642654754 0.001978073565712091 0.014918767992813222 -0.0016340104374402032 -0.00948832257877603
