! Created with skrf 1.8.0 (http://scikit-rf.org).
# GHz S RI R 50.0 
!freq ReS11 ImS11 ReS12 ImS12 ReS13 ImS13
! ReS14 ImS14
! ReS21 ImS21 ReS22 ImS22 ReS23 ImS23
! ReS24 ImS24
! ReS31 ImS31 ReS32 ImS32 ReS33 ImS33
! ReS34 ImS34
! ReS41 ImS41 ReS42 ImS42 ReS43 ImS43
! ReS44 ImS44
!
0.0 0.00143759864243 0.0 0.9985624013491 0.0 5.526259924105e-05 0.0 -5.526259959687e-05 6.767716570886866e-21
 0.9985624013491 0.0 0.001437598642425 0.0 -5.526259959661e-05 6.767716570855025e-21 5.526259924187e-05 0.0
 5.526259924105e-05 0.0 -5.526259959661e-05 6.767716570855025e-21 0.001437598641007 0.0 0.9985624013476 0.0
 -5.526259959687e-05 6.767716570886866e-21 5.526259924187e-05 0.0 0.9985624013476 0.0 0.001437598641017 0.0
0.005 0.00154645065912792 0.001176539948214871 0.9984247462601002 -0.0030116832831362365 7.719365831057939e-05 0.0006076678711817508 -7.503401681388553e-05 -0.00038168471000760504
 0.9984247462601002 -0.0030116832831362365 0.0015464485290265686 0.0011765411584213922 -7.503316202272188e-05 -0.00038168400666753374 7.720156181067259e-05 0.0006076647135012718
 7.719365831057939e-05 0.0006076678711817508 -7.503316202272188e-05 -0.00038168400666753374 0.001546450996660338 0.001176472451683113 0.9984247459178174 -0.0030117503424324952
 -7.503401681388553e-05 -0.00038168471000760504 7.720156181067259e-05 0.0006076647135012718 0.9984247459178174 -0.0030117503424324952 0.0015464475100697738 0.0011764745386113014
0.006252605252188 0.0015749147384765594 0.001475313908378281 0.9983885391533288 -0.0037653539868794566 8.340214559803645e-05 0.000759885797790913 -8.057536467964519e-05 -0.00047760402554076884
 0.9983885391533288 -0.0037653539868794566 0.0015749114094403482 0.0014753154900397955 -8.057403491982286e-05 -0.00047760315722309446 8.341449237643831e-05 0.0007598817232642216
 8.340214559803645e-05 0.000759885797790913 -8.057403491982286e-05 -0.00047760315722309446 0.001574915327937352 0.0014752295469867807 0.9983885386796374 -0.003765437797680112
 -8.057536467964519e-05 -0.00047760402554076884 8.341449237643831e-05 0.0007598817232642216 0.9983885386796374 -0.003765437797680112 0.001574909877616944 0.0014752322350247138
0.01250521050438 0.001724263726238704 0.002981649460313707 0.9981973850763379 -0.0075315956629012654 0.00011870535081319269 0.001520171945976171 -0.00011179687440896868 -0.0009575764836441313
 0.9981973850763379 -0.0075315956629012654 0.0017242504425904863 0.0029816533221152354 -0.00011179163829103433 -0.000957574865012331 0.00011875453358023481 0.001520162410780448
 0.00011870535081319269 0.001520171945976171 -0.00011179163829103433 -0.000957574865012331 0.0017242666599222602 0.0029814809246313406 0.9981973837567873 -0.00753176305878739
 -0.00011179687440896868 -0.0009575764836441313 0.00011875453358023481 0.001520162410780448 0.9981973837567873 -0.00753176305878739 0.0017242448924673442 0.0029814871162395537
0.01875781575657 0.0018859543862951651 0.004509559817599479 0.9979887137799862 -0.011307909375500053 0.00016125189975794898 0.002281377805545909 -0.0001490194902587443 -0.0014392393309173824
 0.9979887137799862 -0.011307909375500053 0.0018859245534693372 0.0045095667004589135 -0.0001490078194251658 -0.001439237099848298 0.00016136225806096888 0.0022813611357076985
 0.00016125189975794898 0.002281377805545909 -0.0001490078194251658 -0.001439237099848298 0.0018859614150624983 0.004509307162850594 0.9979887112351432 -0.011308160263004956
 -0.0001490194902587443 -0.0014392393309173824 0.00016136225806096888 0.0022813611357076985 0.9979887112351432 -0.011308160263004956 0.0018859124924171199 0.004509317755512782
0.02501042100875 0.0020602873264735358 0.006056925774606791 0.9977622915141545 -0.01509614317665443 0.00021112243645736073 0.0030435468319344686 -0.0001923329053141053 -0.001922385708697164
 0.9977622915141545 -0.01509614317665443 0.002060234374672449 0.006056936462401377 -0.00019231230344844965 -0.0019223830256480192 0.00021131824459480128 0.0030435210849196334
 0.00021112243645736073 0.0030435468319344686 -0.00019231230344844965 -0.0019223830256480192 0.0020603002117114523 0.006056589021483861 0.9977622873687184 -0.015096477498169846
 -0.0001923329053141053 -0.001922385708697164 0.00021131824459480128 0.0030435210849196334 0.9977622873687184 -0.015096477498169846 0.0020602133130217383 0.00605660499357716
0.03126302626094 0.0022475506706636224 0.007622665750939812 0.9975178719936549 -0.018897098797159662 0.00026839812000505075 0.003806652940332287 -0.00024182449186748326 -0.002406873596326705
 0.9975178719936549 -0.018897098797159662 0.0022474680525211566 0.007622681070806424 -0.00024179248915863307 -0.0024068706446167664 0.0002687036127670241 0.003806615906021166
 0.00026839812000505075 0.003806652940332287 -0.00024179248915863307 -0.0024068706446167664 0.0022475711789935625 0.007622244883741865 0.9975178658700543 -0.018897516532794395
 -0.00024182449186748326 -0.002406873596326705 0.0002687036127670241 0.003806615906021166 0.9975178658700543 -0.018897516532794395 0.0022474354970935095 0.0076222672951963555
0.037515631513130004 0.002448026435321685 0.009206081342146335 0.9972552029483815 -0.022711186037319756 0.00033315987949904865 0.004570642734193038 -0.0002975799335380103 -0.002892583580444299
 0.9972552029483815 -0.022711186037319756 0.0024479076247299553 0.009206102164812867 -0.0002975340838778739 -0.0028925805663367085 0.0003335992633732108 0.004570591933925715
 0.00033315987949904865 0.004570642734193038 -0.0002975340838778739 -0.0028925805663367085 0.002448056341779448 0.009205576341727126 0.9972551944691302 -0.022711687171880466
 -0.0002975799335380103 -0.002892583580444299 0.0003335992633732108 0.004570591933925715 0.9972551944691302 -0.022711687171880466 0.0024478610810875394 0.009205606334759572
0.043768236765320004 0.002661993003815267 0.010806658166329424 0.996974028771359 -0.026538621853888063 0.0004054880653401795 0.005335448336089437 -0.00035968345644359583 -0.003379406019437655
 0.996974028771359 -0.026538621853888063 0.0026618314954854824 0.010806685406280587 -0.0003596213357012848 -0.003379403172134314 0.0004060855235852853 0.005335381021144489
 0.0004054880653401795 0.005335448336089437 -0.0003596213357012848 -0.003379403172134314 0.0026620340917024726 0.010806068998752343 0.9969740175580099 -0.02653920638813277
 -0.00035968345644359583 -0.003379406019437655 0.0004060855235852853 0.005335381021144489 0.9969740175580099 -0.02653920638813277 0.0026617684674961808 0.010806107798658713
0.050020842017509996 0.002889726277363582 0.01242398355559013 0.9966740918456457 -0.030379512600130523 0.00048546224267249753 0.006100992690947524 -0.00042821791557106454 -0.003867235736118479
 0.9966740918456457 -0.030379512600130523 0.0028895155861267995 0.012424018171227232 -0.0004281371204737105 -0.003867233307730605 0.0004862419369149461 0.0061009058408153525
 0.00048546224267249753 0.006100992690947524 -0.0004281371204737105 -0.003867233307730605 0.0028897803378888764 0.012423310178129563 0.9966740775182804 -0.03038018054461213
 -0.00042821791557106454 -0.003867235736118479 0.0004862419369149461 0.0061009058408153525 0.9966740775182804 -0.03038018054461213 0.0028894335754628886 0.012423359094066656
0.055454545454549996 0.003099026495380509 0.013842816244114552 0.9963979989057212 -0.03372831942344759 0.0005612328023404195 0.006766809069493514 -0.0004930624805623331 -0.004291912320328364
 0.9963979989057212 -0.03372831942344759 0.0030987678116256826 0.01384285808205685 -0.0004929635207435529 -0.004291910478506138 0.0005621904705387895 0.006766702577213868
 0.0005612328023404195 0.006766809069493514 -0.0004929635207435529 -0.004291910478506138 0.003099093290951044 0.013842069645310658 0.9963979815623045 -0.033729059868867296
 -0.0004930624805623331 -0.004291912320328364 0.0005621904705387895 0.006766702577213868 0.9963979815623045 -0.033729059868867296 0.003098667274384353 0.013842128481318612
0.056273447269699996 0.0031315002696243846 0.014057706164109533 0.9963551333184125 -0.034233894349750285 0.000573161045189316 0.006867192162170018 -0.0005032648183932708 -0.004355969419340072
 0.9963551333184125 -0.034233894349750285 0.003131233930498275 0.014057749157955504 -0.0005031629657527046 -0.004355967684855352 0.0005741471153216841 0.00686708248273451
 0.000573161045189316 0.006867192162170018 -0.0005031629657527046 -0.004355967684855352 0.003131569102484719 0.014056948525134677 0.9963551154952534 -0.034234645724738305
 -0.0005032648183932708 -0.004355969419340072 0.0005741471153216841 0.00686708248273451 0.9963551154952534 -0.034234645724738305 0.003131130437142393 0.014057008950935097
0.06252605252188 0.003387587433897762 0.01570751373989629 0.9960168936094506 -0.038101755058631226 0.00066866205942438 0.007633957963086706 -0.0005849043164819342 -0.004845504192689458
 0.9960168936094506 -0.038101755058631226 0.0033872590014480744 0.015707566158778805 -0.000584779042617586 -0.004845503449930268 0.00066987862177415 0.007633821884800686
 0.00066866205942438 0.007633957963086706 -0.000584779042617586 -0.004845503449930268 0.0033876728477926143 0.01570667178046928 0.9960168719072447 -0.0381025898924028
 -0.0005849043164819342 -0.004845504192689458 0.00066987862177415 0.007633821884800686 0.9960168719072447 -0.0381025898924028 0.003387131524469889 0.01570674519543041
0.06877865777407 0.0036582588381820044 0.017373119901098157 0.9956591127724291 -0.041983047724665226 0.0007720417262477957 0.008401197007218763 -0.0006732151777037426 -0.005335736767142082
 0.9956591127724291 -0.041983047724665226 0.003657861887008298 0.017373182836227092 -0.0006730641380637533 -0.0053357373367154915 0.0007735128713128956 0.008401030683280214
 0.0007720417262477957 0.008401197007218763 -0.0006730641380637533 -0.0053357373367154915 0.0036583626496551175 0.01737219355323839 0.9956590868045327 -0.04198396605501606
 -0.0006732151777037426 -0.005335736767142082 0.0007735128713128956 0.008401030683280214 0.9956590868045327 -0.04198396605501606 0.0036577079233497587 0.0173722815229205
0.07503126302626001 0.003943784255384972 0.01905425572041049 0.9952815307726057 -0.04587769874213903 0.0008833752525250749 0.009168812448664621 -0.0007682747471178509 -0.005826562906595002
 0.9952815307726057 -0.04587769874213903 0.003943312379636748 0.019054330307669422 -0.0007680956159824834 -0.005826565131852133 0.0008851250416267226 0.009168611753267756
 0.0008833752525250749 0.009168812448664621 -0.0007680956159824834 -0.005826565131852133 0.003943908291000574 0.01905324491029167 0.9952815001510718 -0.045878700612976185
 -0.0007682747471178509 -0.005826562906595002 0.0008851250416267226 0.009168611753267756 0.9952815001510718 -0.045878700612976185 0.003943129426412875 0.01905334908740464
0.08128386827845 0.004244432198264036 0.020750664155014927 0.9948838877139207 -0.04978561341399188 0.0010027365282245324 0.009936704045766673 -0.0008701589006345318 -0.006317877073340654
 0.9948838877139207 -0.04978561341399188 0.00424387901171309 0.020750751575064744 -0.0008699493708925882 -0.0063178813203118855 0.0010047889898185877 0.00993646457238501
 0.0010027365282245324 0.009936704045766673 -0.0008699493708925882 -0.0063178813203118855 0.00424457829325815 0.02074956879622237 0.994883852047254 -0.04978669888188337
 -0.0008701589006345318 -0.006317877073340654 0.0010047889898185877 0.00993646457238501 0.994883852047254 -0.04978669888188337 0.004243664565256919 0.02074969092143345
0.08753647353064001 0.004560469917072961 0.022462096165726152 0.9944659240308263 -0.05370667977830523 0.0011301980479175929 0.010704768412169904 -0.0009789419929498943 -0.006809572189484357
 0.9944659240308263 -0.05370667977830523 0.004559829053394418 0.02246219764422528 -0.0009786997759664183 -0.006809578846839627 0.001132577173498163 0.010704485471906437
 0.0011301980479175929 0.010704768412169904 -0.0009786997759664183 -0.006809578846839627 0.004560639916164113 0.022460916167547203 0.9944658829246262 -0.053707848903945164
 -0.0009789419929498943 -0.006809572189484357 0.001132577173498163 0.010704485471906437 0.9944658829246262 -0.053707848903945164 0.004559580610052112 0.02246105807034164
0.09378907878283 0.004892163372770979 0.02418830796564492 0.9940273806590625 -0.05764077130902984 0.001265830834663469 0.0114728992022272 -0.0010946968018995806 -0.007301539467505908
 0.9940273806590625 -0.05764077130902984 0.0048914284852640995 0.024188424773425383 -0.0010944196273723352 -0.007301548946496233 0.0012685605741768957 0.011472567822276009
 0.001265830834663469 0.0114728992022272 -0.0010944196273723352 -0.007301548946496233 0.004892359129912729 0.024187043227519054 0.9940273337153315 -0.05764202416256583
 -0.0010946968018995806 -0.007301539467505908 0.0012685605741768957 0.011472567822276009 0.9940273337153315 -0.05764202416256583 0.004891143541801136 0.024187206826996405
0.100041684035 0.005239777192497861 0.025929058990817048 0.9935679991916011 -0.061587748898705205 0.001409704365245106 0.01224098724828682 -0.0012174944701199993 -0.007793668292546004
 0.9935679991916011 -0.061587748898705205 0.005238941954232098 0.025929192444129327 -0.0012171800860365583 -0.007793681026945088 0.0014128086222380955 0.012240602170409075
 0.001409704365245106 0.01224098724828682 -0.0012171800860365583 -0.007793681026945088 0.005240000571398671 0.025927709404409048 0.9935679460089235 -0.06158908555737789
 -0.0012174944701199993 -0.007793668292546004 0.0014128086222380955 0.012240602170409075 0.9935679460089235 -0.06158908555737789 0.005238618008347146 0.025927896710271434
0.1059090909091 0.005580689795592819 0.027575579669138994 0.9931177369069871 -0.06530315480278465 0.001552269747889897 0.01296161791068748 -0.0013391943452017946 -0.008255525711609696
 0.9931177369069871 -0.06530315480278465 0.005579754652366301 0.027575729980251602 -0.001338843011986697 -0.00825554191538496 0.0015557471441056535 0.01296117740526695
 0.001552269747889897 0.01296161791068748 -0.001338843011986697 -0.00825554191538496 0.005580940798309847 0.027574150355673524 0.9931176775009609 -0.06530457018055193
 -0.0013391943452017946 -0.008255525711609696 0.0015557471441056535 0.01296117740526695 0.9931176775009609 -0.06530457018055193 0.00557939183215582 0.027574361816672843
0.1062942892872 0.005603574610993709 0.027684110377578095 0.9930875220235997 -0.06554746233851129 0.0015618864971223539 0.013008920668320543 -0.0013474044438923343 -0.008285846138010677
 0.9930875220235997 -0.06554746233851129 0.005602632715019814 0.02768426183827867 -0.0013470506165023804 -0.00828586258405239 0.001565389123721283 0.013008476347522889
 0.0015618864971223539 0.013008920668320543 -0.0013470506165023804 -0.00828586258405239 0.0056038274850571685 0.02768267582637061 0.9930874621962988 -0.06554888288684164
 -0.0013474044438923343 -0.008285846138010677 0.001565389123721283 0.013008476347522889 0.9930874621962988 -0.06554888288684164 0.005602267265612992 0.02768288893971893
0.11254689453939999 0.0059838174020021215 0.029453223797367974 0.9925856924895015 -0.06951975144529435 0.001722443395394829 0.013776584953793499 -0.0014844944110563852 -0.008777958504821423
 0.9925856924895015 -0.06951975144529435 0.005982762561385863 0.029453394673154474 -0.0014840989248334094 -0.00877797914114385 0.001726368186974561 0.013776075556994137
 0.001722443395394829 0.013776584953793499 -0.0014840989248334094 -0.00877797914114385 0.005984101654740873 0.029451704154865824 0.9925856256078046 -0.06952125597654406
 -0.0014844944110563852 -0.008777958504821423 0.001726368186974561 0.013776075556994137 0.9925856256078046 -0.06952125597654406 0.005982353109465294 0.029451945269094625
0.11879949979160001 0.0063807658026648634 0.031236160548887296 0.9920622549960907 -0.07350444693549431 0.0018914394608816121 0.014543863041742702 -0.0016288302368740312 -0.009269888880266506
 0.9920622549960907 -0.07350444693549431 0.006379591750340403 0.031236352293589505 -0.0016283908945237142 -0.009269914207845727 0.001895810150491994 0.014543282446608059
 0.0018914394608816121 0.014543863041742702 -0.0016283908945237142 -0.009269914207845727 0.006381083327295616 0.0312345556810922 0.9920621806455703 -0.07350603554896783
 -0.0016288302368740312 -0.009269888880266506 0.001895810150491994 0.014543282446608059 0.9920621806455703 -0.07350603554896783 0.006379135799046047 0.03123482708282286
0.1250521050438 0.006794678429690013 0.03303268084337212 0.991516955150768 -0.07750137111076105 0.002068937258106762 0.015310635377172588 -0.0017804758991240683 -0.009761518710566849
 0.991516955150768 -0.07750137111076105 0.006793378919140372 0.03303289495713241 -0.00177999052162505 -0.009761549252650248 0.0020737775107894465 0.01530997717101612
 0.002068937258106762 0.015310635377172588 -0.00177999052162505 -0.009761549252650248 0.006795031129792222 0.0330309906053917 0.9915168729118958 -0.07750304391474663
 -0.0017804758991240683 -0.009761518710566849 0.0020737775107894465 0.01530997717101612 0.9915168729118958 -0.07750304391474663 0.0067928739745180015 0.03303129467538874
0.131304710296 0.007225812191953061 0.034842543225573126 0.9909495398868533 -0.0815103384123334 0.002254997443828818 0.016076779968653043 -0.0019394934220643748 -0.010252727384272419
 0.9909495398868533 -0.0815103384123334 0.0072243809968787895 0.03484278125516651 -0.0019389598487008087 -0.010252763686309736 0.0022603308507009217 0.01607603744752024
 0.002254997443828818 0.016076779968653043 -0.0019389598487008087 -0.010252763686309736 0.007226201981442503 0.034840767463881775 0.9909494493352348 -0.08151209552171162
 -0.0019394934220643748 -0.010252727384272419 0.0022603308507009217 0.01607603744752024 0.9909494493352348 -0.08151209552171162 0.007223824568455448 0.03484110667793652
0.1375573155481 0.007573006899723523 0.036429445192377896 0.9904612087409307 -0.08529499807276765 0.0024253878433907303 0.016818290087476425 -0.002081652323455156 -0.010719527430242
 0.9904612087409307 -0.08529499807276765 0.0075714366300761015 0.0364297015077358 -0.002081067225682586 -0.01071956950039464 0.002431231553998481 0.016817464506200107
 0.0024253878433907303 0.016818290087476425 -0.002081067225682586 -0.01071956950039464 0.007573434877286131 0.03642758396250283 0.9904611094988385 -0.08529683953282458
 -0.002081652323455156 -0.010719527430242 0.002431231553998481 0.016817464506200107 0.9904611094988385 -0.08529683953282458 0.007570826956574796 0.03642795308135194
0.1438099208003 0.007932336987657697 0.03800843019030413 0.989955862459736 -0.08907051109975389 0.0026026616809122715 0.017557076459102403 -0.00222950712700658 -0.011183818296741161
 0.989955862459736 -0.08907051109975389 0.007930621252526866 0.03800870577632592 -0.002228868160338861 -0.011183866671239386 0.002609038012311683 0.017556161642638204
 0.0026026616809122715 0.017557076459102403 -0.002228868160338861 -0.011183866671239386 0.00793280493478518 0.0380064833620241 0.9899557541051143 -0.08907243701884365
 -0.00222950712700658 -0.011183818296741161 0.002609038012311683 0.017556161642638204 0.9899557541051143 -0.08907243701884365 0.007929955979083287 0.03800688426921327
0.1500625260525 0.008303682136285965 0.03957937930714805 0.989433625067414 -0.09283679705823186 0.0027867615138526206 0.01829307290196921 -0.00238300175316109 -0.011645536546978842
 0.989433625067414 -0.09283679705823186 0.00830181455308505 0.03957967519474888 -0.00238230657652977 -0.01164559178364304 0.002793692637294607 0.018292062452234706
 0.0027867615138526206 0.01829307290196921 -0.00238230657652977 -0.01164559178364304 0.00830419183441514 0.03957734674473678 0.9894335071738626 -0.09283880754920673
 -0.00238300175316109 -0.011645536546978842 0.002793692637294607 0.018292062452234706 0.9894335071738626 -0.09283880754920673 0.00830109133644986 0.039577781404949865
0.15631513130469998 0.008686921245573255 0.04114217727695007 0.9888946211374642 -0.09659377553140588 0.0029776292652858734 0.019026214291320353 -0.002542079470826173 -0.012104620031614005
