! Created with skrf 1.8.0 (http://scikit-rf.org).
# GHz S RI R 50.0 
!freq ReS11 ImS11 ReS12 ImS12 ReS13 ImS13
! ReS14 ImS14
! ReS21 ImS21 ReS22 ImS22 ReS23 ImS23
! ReS24 ImS24
! ReS31 ImS31 ReS32 ImS32 ReS33 ImS33
! ReS34 ImS34
! ReS41 ImS41 ReS42 ImS42 ReS43 ImS43
! ReS44 ImS44
!
0.0 0.001640406411928 0.0 0.9983595935824 0.0 6.354027400333e-05 0.0 -6.354027391326e-05 7.781439306481992e-21
 0.9983595935824 0.0 0.001640406411931 0.0 -6.354027391392e-05 7.78143930656282e-21 6.354027400149e-05 0.0
 6.354027400333e-05 0.0 -6.354027391392e-05 7.78143930656282e-21 0.001640406413373 0.0 0.9983595935838 0.0
 -6.354027391326e-05 7.781439306481992e-21 6.354027400149e-05 0.0 0.9983595935838 0.0 0.001640406413345 0.0
0.005 0.00176525483124652 0.0013397525736528518 0.9982015802300646 -0.003436031482231281 8.953577055028073e-05 0.0007117823065508044 -8.681916353623076e-05 -0.0004446838872346182
 0.9982015802300646 -0.003436031482231281 0.0017652765011071693 0.0013397398592690886 -8.68206321621897e-05 -0.00044468492053843854 8.94079428407082e-05 0.000711831128738445
 8.953577055028073e-05 0.0007117823065508044 -8.68206321621897e-05 -0.00044468492053843854 0.001765254912904803 0.0013398197398317509 0.9982015805984242 -0.0034359644147621098
 -8.681916353623076e-05 -0.0004446838872346182 8.94079428407082e-05 0.000711831128738445 0.9982015805984242 -0.0034359644147621098 0.0017652771464776466 0.0013398068181708557
0.006252605252188 0.0017980852992367617 0.001679957719566743 0.9981597491619371 -0.004295866208280958 9.70231549811098e-05 0.0008900606544974439 -9.343362457607327e-05 -0.000556426960484845
 0.9981597491619371 -0.004295866208280958 0.0017981191731885132 0.0016799415245081896 -9.343591060776227e-05 -0.0005564282323151524 9.682343849768364e-05 0.0008901240451471363
 9.70231549811098e-05 0.0008900606544974439 -9.343591060776227e-05 -0.0005564282323151524 0.0017980853562473158 0.0016800416444513974 0.9981597496669521 -0.004295782394391316
 -9.343362457607327e-05 -0.000556426960484845 9.682343849768364e-05 0.0008901240451471363 0.9981597496669521 -0.004295782394391316 0.0017981201105653417 0.0016800252056638236
0.01250521050438 0.001971415819384283 0.003395046076211738 0.9979373571328288 -0.008592444436164411 0.00014028062213404855 0.0017803950384839477 -0.00013118832433841248 -0.0011155022331590901
 0.9979373571328288 -0.008592444436164411 0.001971551084224931 0.003395010629428301 -0.00013119734249123134 -0.0011155045575073834 0.00013948426241621847 0.0017805474316397781
 0.00014028062213404855 0.0017803950384839477 -0.00013119734249123134 -0.0011155045575073834 0.0019714154749387175 0.0033952135636344935 0.997937358572341 -0.008592277015480328
 -0.00013118832433841248 -0.0011155022331590901 0.00013948426241621847 0.0017805474316397781 0.997937358572341 -0.008592277015480328 0.0019715542365515014 0.0033951777831641885
0.01875781575657 0.0021607957520480407 0.005134441909548134 0.9976921274792552 -0.01290017167316682 0.0001934147620901103 0.002671594845907893 -0.00017692487172841172 -0.0016763907895588658
 0.9976921274792552 -0.01290017167316682 0.0021610997114810964 0.00513438392420798 -0.00017694499494060615 -0.0016763938987808002 0.00019162597981615343 0.0026718671326807827
 0.0001934147620901103 0.002671594845907893 -0.00017694499494060615 -0.0016763938987808002 0.0021607945638234096 0.005134692658085215 0.9976921302928924 -0.012899920714032129
 -0.00017692487172841172 -0.0016763907895588658 0.00019162597981615343 0.0026718671326807827 0.9976921302928924 -0.012899920714032129 0.002161106344686644 0.00513463440164158
0.02501042100875 0.0023666099589072604 0.006895682948617762 0.9974237582508839 -0.017221111237379395 0.0002565294398724688 0.0035636820588379583 -0.00023075938067578956 -0.0022388203565576067
 0.9974237582508839 -0.017221111237379395 0.0023671497886878965 0.006895598927836489 -0.00023079493344196488 -0.0022388239305551833 0.00025335241243327144 0.0035641102316806557
 0.0002565294398724688 0.0035636820588379583 -0.00023079493344196488 -0.0022388239305551833 0.0023666074900973266 0.006896016656218667 0.9974237628815285 -0.017220776729803284
 -0.00023075938067578956 -0.0022388203565576067 0.00025335241243327144 0.0035641102316806557 0.9974237628815285 -0.017220776729803284 0.002367161150388488 0.006895932580064367
0.03126302626094 0.0025892273568431626 0.008677489605105906 0.9971319328201063 -0.021556130965287065 0.0003297288924073665 0.004456594808479043 -0.00029280437540141994 -0.002802595482670407
 0.9971319328201063 -0.021556130965287065 0.0025900701405078075 0.008677375845516203 -0.0002928596417467775 -0.0028025991483211932 0.00032476739279093666 0.004457219988913039
 0.0003297288924073665 0.004456594808479043 -0.0002928596417467775 -0.0028025991483211932 0.0025892231698929147 0.008677905929070159 0.9971319397115594 -0.021555712860617957
 -0.00029280437540141994 -0.002802595482670407 0.00032476739279093666 0.004457219988913039 0.9971319397115594 -0.021555712860617957 0.0025900874568530524 0.00867779248375356
0.037515631513130004 0.0028290086362069474 0.010479018115184258 0.996816327884577 -0.02590565000987456 0.00041311660624424187 0.005350237853263198 -0.00036316960942738745 -0.0033675470656597804
 0.996816327884577 -0.02590565000987456 0.0028302213896477103 0.010478870708191049 -0.00036324883696286115 -0.0033675503965872352 0.00040597384690756584 0.0053511063409393414
 0.00041311660624424187 0.005350237853263198 -0.00036324883696286115 -0.0033675503965872352 0.002829002296034625 0.010479516660291132 0.9968163374869821 -0.02590514823225324
 -0.00036316960942738745 -0.0033675470656597804 0.00040597384690756584 0.0053511063409393414 0.9968163374869821 -0.02590514823225324 0.002830245869582908 0.010479370092269645
0.043768236765320004 0.003086309241545992 0.012299633256261738 0.9964766167352402 -0.030269866053122686 0.0005067947857565936 0.00624449794225379 -0.00044196235011117335 -0.003933517001275961
 0.9964766167352402 -0.030269866053122686 0.0030879589323434308 0.012299448088592202 -0.0004420697523131851 -0.003933519517728058 0.0004970733500409015 0.006245661270586882
 0.0005067947857565936 0.00624449794225379 -0.0004420697523131851 -0.003933519517728058 0.003086300312995694 0.012300213586975145 0.9964766295051385 -0.030269280486907166
 -0.00044196235011117335 -0.003933517001275961 0.0004970733500409015 0.006245661270586882 0.9964766295051385 -0.030269280486907166 0.003087991766031115 0.012300029939208614
0.050020842017509996 0.0033614807440440933 0.014138814423530058 0.9961124709218588 -0.03464884915734127 0.0006108640287858099 0.0071392501610482535 -0.0005292874733517402 -0.0045003518543155355
 0.9961124709218588 -0.03464884915734127 0.003363634308302853 0.014138587177089903 -0.0005294272308688471 -0.004500353023085034 0.0005981658495623138 0.007140765155357234
 0.0006108640287858099 0.0071392501610482535 -0.0005294272308688471 -0.004500353023085034 0.0033614687885332012 0.014139476046970278 0.9961124873217754 -0.03464817966402169
 -0.0005292874733517402 -0.0045003518543155355 0.0005981658495623138 0.007140765155357234 0.9961124873217754 -0.03464817966402169 0.0033636766654096526 0.014139251158798698
0.055454545454549996 0.0036153971247934098 0.015751844148969008 0.9957759175740496 -0.03846630340583069 0.0007098189201053712 0.007917113149469305 -0.0006121846514612078 -0.004993532986216333
 0.9957759175740496 -0.03846630340583069 0.0036180429179720063 0.01575157666835915 -0.0006123558970701209 -0.004993532509205462 0.0006942100806044345 0.007918984055756318
 0.0007098189201053712 0.007917113149469305 -0.0006123558970701209 -0.004993532509205462 0.003615382180248832 0.015752575980135637 0.9957759375112801 -0.038465560840081583
 -0.0006121846514612078 -0.004993532986216333 0.0006942100806044345 0.007918984055756318 0.9957759375112801 -0.038465560840081583 0.0036180944859473423 0.015752311715256227
0.056273447269699996 0.0036548715362603366 0.01599610953102103 0.9957235612449331 -0.03904258779461248 0.0007254230955701924 0.008034361050499345 -0.0006252474724262948 -0.005067899761976118
 0.9957235612449331 -0.03904258779461248 0.0036575958942636645 0.015995835682150333 -0.0006254237339214545 -0.00506789899632396 0.0007093494614763088 0.008036289887185459
 0.0007254230955701924 0.008034361050499345 -0.0006254237339214545 -0.00506789899632396 0.003654856112045304 0.015996851904192106 0.995723581746544 -0.03904183420521257
 -0.0006252474724262948 -0.005067899761976118 0.0007093494614763088 0.008036289887185459 0.995723581746544 -0.03904183420521257 0.0036576489247978753 0.015996581410729394
0.06252605252188 0.0039668271962384795 0.0178711096640918 0.9953095584229481 -0.04345101412871294 0.0008505687210867991 0.00892969033093573 -0.0007299424254423193 -0.005636008737244473
 0.9953095584229481 -0.04345101412871294 0.0039701892669687065 0.01787078448243098 -0.000730159308016567 -0.005636005396868322 0.0008307203020856921 0.00893210059693214
 0.0008505687210867991 0.00892969033093573 -0.000730159308016567 -0.005636005396868322 0.003966807856047369 0.01787193219406811 0.9953095835066846 -0.043450176243606385
 -0.0007299424254423193 -0.005636008737244473 0.0008307203020856921 0.00893210059693214 0.9953095835066846 -0.043450176243606385 0.003970254100206433 0.017871611524946474
0.06877865777407 0.004297690668144996 0.01976343398041274 0.9948701335796264 -0.047874019054262924 0.0009863954556867211 0.009825091930847888 -0.0008434699356074975 -0.0062045256738189475
 0.9948701335796264 -0.047874019054262924 0.004301757383762297 0.019763052527202438 -0.0008437315250266232 -0.006204519064805227 0.0009623723416326888 0.009828056682854528
 0.0009863954556867211 0.009825091930847888 -0.0008437315250266232 -0.006204519064805227 0.0042976669572049354 0.019764336019632272 0.994870163735957 -0.04787309664775714
 -0.0008434699356074975 -0.0062045256738189475 0.0009623723416326888 0.009828056682854528 0.994870163735957 -0.04787309664775714 0.004301835127061618 0.019763960397351604
0.07503126302626001 0.0046478023337931385 0.021672720129685876 0.9944049586269827 -0.05231146172319829 0.0011329955185863734 0.0107204146564758 -0.0009659250581748319 -0.006773295716301653
 0.9944049586269827 -0.05231146172319829 0.004652640653527141 0.021672277255591718 -0.0009662354089199086 -0.006773285091109922 0.001104397268139948 0.01072401247973213
 0.0011329955185863734 0.0107204146564758 -0.0009662354089199086 -0.006773285091109922 0.004647773788678767 0.021673700974992206 0.9944049943578858 -0.052310454544480606
 -0.0009659250581748319 -0.006773295716301653 0.001104397268139948 0.01072401247973213 0.9944049943578858 -0.052310454544480606 0.004652732392128183 0.02167326541264539
0.08128386827845 0.005017500017801536 0.023598617892216706 0.9939137065868877 -0.056763175859135304 0.0012904586621515512 0.011615502636741739 -0.0010974002163914697 -0.007342161861555841
 0.9939137065868877 -0.056763175859135304 0.005023176941936148 0.023598108234614456 -0.0010977633515973802 -0.007342146418993268 0.001256884359174666 0.011619817703133584
 0.0012904586621515512 0.011615502636741739 -0.0010977633515973802 -0.007342146418993268 0.005017466164987872 0.023599676790329514 0.99391374840697 -0.056762083626824604
 -0.0010974002163914697 -0.007342161861555841 0.001256884359174666 0.011619817703133584 0.99391374840697 -0.056762083626824604 0.005023283738028355 0.023599176088920867
0.08753647353064001 0.00540711894665013 0.025540784777392585 0.993396051870134 -0.061228974118951396 0.0014588720418886039 0.012510195647015223 -0.0012379851106838387 -0.007910964687881933
 0.993396051870134 -0.061228974118951396 0.005413701530086898 0.025540202757168895 -0.0012384050219117993 -0.007910943573115545 0.0014199203586575731 0.012515317772309598
 0.0014588720418886039 0.012510195647015223 -0.0012384050219117993 -0.007910943573115545 0.0054070793002245566 0.025541920921080537 0.9933961003070942 -0.06122779652511686
 -0.0012379851106838387 -0.007910964687881933 0.0014199203586575731 0.012515317772309598 0.9933961003070942 -0.06122779652511686 0.005413824421819991 0.025541349666115234
0.09378907878283 0.0058169916765071225 0.027498882883142475 0.9928516705281781 -0.06570865120100881 0.0016383200904803363 0.013404329350216996 -0.0013877666233742272 -0.008479542173686634
 0.9928516705281781 -0.06570865120100881 0.005824547042843545 0.02749822270092347 -0.001388247270382116 -0.008479514478245128 0.0015935893559684935 0.01341035405042198
 0.0016383200904803363 0.013404329350216996 -0.001388247270382116 -0.008479514478245128 0.005816945736572063 0.027500095412979462 0.99285172612426 -0.06570738790953598
 -0.0013877666233742272 -0.008479542173686634 0.0015935893559684935 0.01341035405042198 0.99285172612426 -0.06570738790953598 0.005824687043276786 0.02749944797069432
0.100041684035 0.0062474479981736875 0.029472576607486763 0.9922802404862664 -0.0702019861090449 0.0018288843949838681 0.014297735481552469 -0.0015468287193959602 -0.009047729579719726
 0.9922802404862664 -0.0702019861090449 0.006256043352914762 0.029471832239316247 -0.0015473740297379085 -0.009047694341523412 0.0017779726680429134 0.0143047640280848
 0.0018288843949838681 0.014297735481552469 -0.0015473740297379085 -0.009047694341523412 0.006247395249264714 0.0294738646046894 0.992280303799505 -0.07020063676318987
 -0.0015468287193959602 -0.009047729579719726 0.0017779726680429134 0.0143047640280848 0.992280303799505 -0.07020063676318987 0.006256201449807345 0.029473135117508868
0.1059090909091 0.006670397402801465 0.03133856442240159 0.9917191284413133 -0.07443071685507631 0.002017888969080802 0.015135287458621825 -0.0017046043608368996 -0.009580409219982215
 0.9917191284413133 -0.07443071685507631 0.006680029884621956 0.03133773537161009 -0.0017052138939790968 -0.00958036598098574 0.001960811302375599 0.015143355288126572
 0.002017888969080802 0.015135287458621825 -0.0017052138939790968 -0.00958036598098574 0.006670337780144173 0.03133992236144892 0.9917191995185413 -0.07442928640144927
 -0.0017046043608368996 -0.009580409219982215 0.001960811302375599 0.015143355288126572 0.9917191995185413 -0.07442928640144927 0.006680205837479681 0.03133911035270424
0.1062942892872 0.006698814825850539 0.031461530910046005 0.9916814417637563 -0.07470874387430951 0.002030643575914837 0.01519024200247049 -0.001715252344706139 -0.009615359369021484
 0.9916814417637563 -0.07470874387430951 0.006708517470839925 0.031460696102523736 -0.0017158662134358711 -0.009615315572417488 0.0019731487223536696 0.015198381476264731
 0.002030643575914837 0.01519024200247049 -0.0017158662134358711 -0.009615315572417488 0.006698754735262027 0.03146289341042169 0.9916815133687599 -0.07470730808297571
 -0.001715252344706139 -0.009615359369021484 0.0019731487223536696 0.015198381476264731 0.9916815133687599 -0.07470730808297571 0.006708694625082743 0.03146207579198448
0.11254689453939999 0.007171416072969163 0.033465410021701274 0.991054956684779 -0.0792286768378283 0.0022436731680889254 0.016081673229449443 -0.0018931153225103469 -0.010182261159627788
 0.991054956684779 -0.0792286768378283 0.007182293419700821 0.03346447828647926 -0.0018938016117118967 -0.01018220773544214 0.0021791929416540416 0.01609103657371423
 0.0022436731680889254 0.016081673229449443 -0.0018938016117118967 -0.01018220773544214 0.007171348088808108 0.03346684600299217 0.9910550371741838 -0.07922715418876834
 -0.0018931153225103469 -0.010182261159627788 0.0021791929416540416 0.01609103657371423 0.9910550371741838 -0.07922715418876834 0.007182490564683313 0.03346593393253981
0.11879949979160001 0.007665572518036633 0.035483876413869686 0.9904004700821605 -0.08376152568191132 0.0024680455028169854 0.016971849946061934 -0.002080492248212102 -0.010748261701278447
 0.9904004700821605 -0.08376152568191132 0.007677692101629062 0.035482841021596136 -0.0020812547865154615 -0.010748197526868517 0.002396177629172667 0.016982556017767738
 0.0024680455028169854 0.016971849946061934 -0.0020812547865154615 -0.010748197526868517 0.007665496067501422 0.03548538480266398 0.9904005600674515 -0.08375991573523925
 -0.002080492248212102 -0.010748261701278447 0.002396177629172667 0.016982556017767738 0.9904005600674515 -0.08375991573523925 0.007677910142335982 0.03548437171868191
0.1250521050438 0.008181601662740354 0.03751659000747392 0.9897176694965301 -0.08830702023052005 0.0027038295908240998 0.017860589505233695 -0.0022774543833059407 -0.011313184869583692
 0.9897176694965301 -0.08830702023052005 0.008195031155956272 0.037515443981091454 -0.0022782969654224754 -0.011313108768952107 0.0026241718550062427 0.017872763125105686
 0.0027038295908240998 0.017860589505233695 -0.0022782969654224754 -0.011313108768952107 0.008181516150543737 0.0375181696795447 0.9897177696095159 -0.08830532251903409
 -0.0022774543833059407 -0.011313184869583692 0.0026241718550062427 0.017872763125105686 0.9897177696095159 -0.08830532251903409 0.008195270967851066 0.037517048772953886
0.131304710296 0.00871981758388404 0.039563207540805105 0.9890062453717582 -0.0928648801000371 0.0029510910065824797 0.018747705925122773 -0.0024840695484763873 -0.011876851674335186
 0.9890062453717582 -0.0928648801000371 0.008734624810909775 0.0395619436481988 -0.002484995934679424 -0.011876762418172511 0.00286324134306742 0.018761477926199446
 0.0029510910065824797 0.018747705925122773 -0.002484995934679424 -0.011876762418172511 0.00871972239014007 0.03956485731725622 0.9890063562654495 -0.09286309413375039
 -0.0024840695484763873 -0.011876851674335186 0.00286324134306742 0.018761477926199446 0.9890063562654495 -0.09286309413375039 0.008734887239072085 0.03956362152375962
0.1375573155481 0.009160294965404223 0.04135644196056084 0.9883861783528001 -0.09716774782173299 0.003180057528587348 0.019606692249031218 -0.0026706690678097358 -0.012412705443614188
 0.9883861783528001 -0.09716774782173299 0.009176552052837487 0.04135508135723951 -0.002671684581016805 -0.01241260286013791 0.0030838099052526136 0.019622048127565368
 0.003180057528587348 0.019606692249031218 -0.002671684581016805 -0.01241260286013791 0.009160188520723684 0.041358161408015695 0.9883863005358504 -0.09716587329621078
 -0.0026706690678097358 -0.012412705443614188 0.0030838099052526136 0.019622048127565368 0.9883863005358504 -0.09716587329621078 0.009176839143464165 0.041356830834810364
0.1438099208003 0.009616362078272087 0.04313961070417297 0.9877441041554159 -0.10145908085732308 0.003418268594888265 0.020461768969004212 -0.0028647119359941384 -0.012945025477987163
 0.9877441041554159 -0.10145908085732308 0.009634137671208428 0.04313814793036708 -0.002865820568626447 -0.012944908359622467 0.0033132565426927892 0.020478828973945196
 0.003418268594888265 0.020461768969004212 -0.002865820568626447 -0.012944908359622467 0.009616243554800839 0.04314139866121049 0.9877442382819172 -0.10145711728773858
 -0.0028647119359941384 -0.012945025477987163 0.0033132565426927892 0.020478828973945196 0.9877442382819172 -0.10145711728773858 0.00963445044375224 0.04313996788281433
0.1500625260525 0.010087848869851012 0.04491254646872881 0.9870801973332166 -0.10573875377767923 0.003665636404166198 0.02131283443825901 -0.0030661138020564513 -0.013473717998966718
 0.9870801973332166 -0.10573875377767923 0.010107211773146427 0.04491097574473903 -0.003067319532361791 -0.013473585090314889 0.003551495856633446 0.021331723206899068
 0.003665636404166198 0.02131283443825901 -0.003067319532361791 -0.013473585090314889 0.010087717404295236 0.04491440172974728 0.9870803440757542 -0.10573670066361522
 -0.0030661138020564513 -0.013473717998966718 0.003551495856633446 0.021331723206899068 0.9870803440757542 -0.10573670066361522 0.010107551232229693 0.04491286499579018
0.15631513130469998 0.010574583966925344 0.04667508696503653 0.9863946334531604 -0.11000664200455021 0.003922072042238037 0.022159788852343185 -0.003274789212959002 -0.013998691318052202
