! Created with skrf 1.8.0 (http://scikit-rf.org).
# GHz S RI R 50.0 
!freq ReS11 ImS11 ReS12 ImS12 ReS13 ImS13
! ReS14 ImS14
! ReS21 ImS21 ReS22 ImS22 ReS23 ImS23
! ReS24 ImS24
! ReS31 ImS31 ReS32 ImS32 ReS33 ImS33
! ReS34 ImS34
! ReS41 ImS41 ReS42 ImS42 ReS43 ImS43
! ReS44 ImS44
!
0.0 0.001824592466911 0.0 0.9981754075274 0.0 7.084906817956e-05 0.0 -7.084906862284e-05 8.676508511153218e-21
 0.9981754075274 0.0 0.001824592466901 0.0 -7.084906862299e-05 8.67650851117159e-21 7.084906817807e-05 0.0
 7.084906817956e-05 0.0 -7.084906862299e-05 8.67650851117159e-21 0.001824592466905 0.0 0.9981754075274 0.0
 -7.084906862284e-05 8.676508511153218e-21 7.084906817807e-05 0.0 0.9981754075274 0.0 0.001824592466891 0.0
0.005 0.0019640550499138865 0.0014917798137077851 0.9979987969992418 -0.003820989120655456 9.988797005465061e-05 0.0007809068574094631 -9.686989768071551e-05 -0.0004899449548640075
 0.9979987969992418 -0.003820989120655456 0.0019640814289957394 0.0014917644511205834 -9.687025523167271e-05 -0.0004899453009235907 9.972026098335666e-05 0.0007809707934212224
 9.988797005465061e-05 0.0007809068574094631 -9.687025523167271e-05 -0.0004899453009235907 0.001964054126618293 0.0014917131330569105 0.9979987966147692 -0.0038210561858967353
 -9.686989768071551e-05 -0.0004899449548640075 9.972026098335666e-05 0.0007809707934212224 0.9979987966147692 -0.0038210561858967353 0.0019640815981896388 0.0014916970163383388
0.006252605252188 0.0020009144504819316 0.0018705531986640005 0.9979517777477264 -0.004777124730928795 0.00010835564587945376 0.0009764920611471519 -0.00010434678869831711 -0.0006130472385122586
 0.9979517777477264 -0.004777124730928795 0.002000955685399538 0.0018705336899105646 -0.00010434734451278712 -0.0006130476666149318 0.00010809361956868653 0.000976575148968093
 0.00010835564587945376 0.0009764920611471519 -0.00010434734451278712 -0.0006130476666149318 0.0020009130832080065 0.001870469874055813 0.9979517772229818 -0.004777208550780322
 -0.00010434678869831711 -0.0006130472385122586 0.00010809361956868653 0.000976575148968093 0.9979517772229818 -0.004777208550780322 0.002000956026915396 0.0018704494079345082
0.01250521050438 0.0021965951882890866 0.0037798607285834903 0.997700291229498 -0.009554708991902788 0.00015781959209777038 0.0019531923187203846 -0.00014746809447276543 -0.0012288747335795984
 0.997700291229498 -0.009554708991902788 0.002196759834832706 0.003779818625570382 -0.000147470277902458 -0.0012288755411136516 0.0001567747611521438 0.0019533930619112304
 0.00015781959209777038 0.0019531923187203846 -0.000147470277902458 -0.0012288755411136516 0.0021965902773755657 0.003779694489274724 0.9977002896845499 -0.009554876422346282
 -0.00014746809447276543 -0.0012288747335795984 0.0001567747611521438 0.0019533930619112304 0.9977002896845499 -0.009554876422346282 0.0021967617642266474 0.0037796503082358087
0.01875781575657 0.0024121209482801057 0.005715842420823675 0.9974205938375328 -0.014344308882052058 0.00021936290270278778 0.002930703463996238 -0.0002003574598414399 -0.0018465501254133973
 0.9974205938375328 -0.014344308882052058 0.002412490908968523 0.005715774397146536 -0.0002003623191838813 -0.0018465512554966153 0.00021701598060631962 0.002931064096676284
 0.00021936290270278778 0.002930703463996238 -0.0002003623191838813 -0.0018465512554966153 0.0024121103349124015 0.0057155936371233096 0.9974205907869398 -0.01434455989504275
 -0.0002003574598414399 -0.0018465501254133973 0.00021701598060631962 0.002931064096676284 0.9974205907869398 -0.01434455989504275 0.002412495699607546 0.005715522206317535
0.02501042100875 0.0026479598865403247 0.007675712493315411 0.9971123160122016 -0.019148168754335122 0.00029310935228166413 0.00390901286085721 -0.0002631533081476557 -0.0024657470496590905
 0.9971123160122016 -0.019148168754335122 0.0026486169018409152 0.007675615010257567 -0.0002631618759708962 -0.002465748435989971 0.00028894101658111893 0.0039095830653791885
 0.00029310935228166413 0.00390901286085721 -0.0002631618759708962 -0.002465748435989971 0.00264794140634699 0.007675381608935893 0.9971123109555836 -0.019148503389860634
 -0.0002631533081476557 -0.0024657470496590905 0.00028894101658111893 0.0039095830653791885 0.9971123109555836 -0.019148503389860634 0.0026486258334177037 0.007675279136849991
0.03126302626094 0.0029045605564439873 0.009657998530671915 0.9967750717075476 -0.02396720224357468 0.0003791824997803751 0.00488801655402345 -0.0003359891650978495 -0.003086221066556695
 0.9967750717075476 -0.02396720224357468 0.002905586255109308 0.009657867843053974 -0.00033600246092335353 -0.0030862226333485824 0.00037267294276542497 0.004888853506063821
 0.0003791824997803751 0.00488801655402345 -0.00033600246092335353 -0.0030862226333485824 0.0029045320553125653 0.009657586072094604 0.9967750641418877 -0.023967620600804592
 -0.0003359891650978495 -0.003086221066556695 0.00037267294276542497 0.004888853506063821 0.9967750641418877 -0.023967620600804592 0.0029056006298191217 0.009657448515859148
0.037515631513130004 0.003182360911188236 0.01166171107439193 0.9964084678197541 -0.02880182262713724 0.0004777043187696909 0.0058675737172523374 -0.0004189945946854381 -0.0037077552496429023
 0.9964084678197541 -0.02880182262713724 0.003183836846484939 0.011661543232799571 -0.00041901362636518523 -0.0037077569116559382 0.0004683330650778035 0.005868742158250793
 0.0004777043187696909 0.0058675737172523374 -0.00041901362636518523 -0.0037077569116559382 0.003182320241095654 0.011661217664376897 0.9964084572321501 -0.02880232485158088
 -0.0004189945946854381 -0.0037077552496429023 0.0004683330650778035 0.005868742158250793 0.9964084572321501 -0.02880232485158088 0.0031838579849594872 0.011661040731432601
0.043768236765320004 0.003481791761687162 0.013686090963251962 0.9960121080753411 -0.033652195422920694 0.0005887945336730898 0.006847523231442519 -0.0005122955031830248 -0.004330143654497205
 0.9960121080753411 -0.033652195422920694 0.0034837994410701627 0.013685881815142688 -0.0005123212678827982 -0.0043301453170987575 0.0005760403722919763 0.006849095549323039
 0.0005887945336730898 0.006847523231442519 -0.0005123212678827982 -0.0043301453170987575 0.0034817367847316196 0.013685517325467347 0.9960120939429224 -0.033652781702313776
 -0.0005122955031830248 -0.004330143654497205 0.0005760403722919763 0.006849095549323039 0.9960120939429224 -0.033652781702313776 0.003483828685135927 0.013685296474018647
0.050020842017509996 0.0038032783464357735 0.015730504902110955 0.9955855950386057 -0.038518342759321096 0.0007125702044829807 0.007827690550664557 -0.0006160142186794911 -0.004953184507758523
 0.9955855950386057 -0.038518342759321096 0.0038058992586977774 0.015730250091518648 -0.0006160477034273437 -0.0049531860669877175 0.0006959111824395046 0.007829746863573676
 0.0007125702044829807 0.007827690550664557 -0.0006160477034273437 -0.0049531860669877175 0.0038032069367638643 0.015729851858891118 0.9955855768265025 -0.03851901332637208
 -0.0006160142186794911 -0.004953184507758523 0.0006959111824395046 0.007829746863573676 0.9955855768265025 -0.03851901332637208 0.003805937973298613 0.015729582296957024
0.055454545454549996 0.004100898540370841 0.017522997458510294 0.9951901454889566 -0.042759930427071484 0.0008305258403917667 0.008679519381546152 -0.0007147017628285929 -0.005494999731063719
 0.9951901454889566 -0.042759930427071484 0.004104118553947768 0.017522699269489683 -0.0007147427506293353 -0.005495001108840136 0.0008100489327145553 0.008682067433947505
 0.0008305258403917667 0.008679519381546152 -0.0007147427506293353 -0.005495001108840136 0.004100811134551808 0.01752227615924704 0.9951901232865442 -0.0427606744617747
 -0.0007147017628285929 -0.005494999731063719 0.0008100489327145553 0.008682067433947505 0.9951901232865442 -0.0427606744617747 0.004104166625748018 0.017521960179092414
0.056273447269699996 0.0041472411152168355 0.01779439421220821 0.9951285313378636 -0.043400194568962096 0.0008491454200254539 0.008807891076598207 -0.0007302694720122389 -0.005576676896503695
 0.9951285313378636 -0.043400194568962096 0.0041505567557574745 0.01779408917866143 -0.0007303116541957599 -0.005576678239142521 0.0008280588728440205 0.008810519317603365
 0.0008491454200254539 0.008807891076598207 -0.0007303116541957599 -0.005576678239142521 0.004147151161093744 0.017793662692411966 0.9951285084977548 -0.04340094969403943
 -0.0007302694720122389 -0.005576676896503695 0.0008280588728440205 0.008810519317603365 0.9951285084977548 -0.04340094969403943 0.004150606329873356 0.017793339376008938
0.06252605252188 0.004514096110284692 0.019877246683858197 0.9946405204971042 -0.048297616688549094 0.0009986310452883551 0.009787932047562134 -0.0008551763272980486 -0.006200418952411245
 0.9946405204971042 -0.048297616688549094 0.004518188005741861 0.019876886660228944 -0.0008552281750230849 -0.006200419956047171 0.0009725936527657286 0.009791228049296328
 0.0009986310452883551 0.009787932047562134 -0.0008552281750230849 -0.006200419956047171 0.004513985516269323 0.019876437714046197 0.9946404924647516 -0.04829845668868319
 -0.0008551763272980486 -0.006200418952411245 0.0009725936527657286 0.009791228049296328 0.9946404924647516 -0.04829845668868319 0.004518249853675772 0.01987605534452621
0.06877865777407 0.004904255138828616 0.021978579779315124 0.9941211675626543 -0.0532104276177974 0.001161134500651811 0.010767613668623142 -0.0009908460826415176 -0.006824206804816863
 0.9941211675626543 -0.0532104276177974 0.0049092048707134375 0.021978159788894898 -0.0009909085549907133 -0.006824207337910375 0.001129622360069658 0.010771681247194893
 0.001161134500651811 0.010767613668623142 -0.0009909085549907133 -0.006824207337910375 0.004904121828486566 0.021977694492598267 0.994121133756948 -0.053211352848184734
 -0.0009908460826415176 -0.006824206804816863 0.001129622360069658 0.010771681247194893 0.994121133756948 -0.053211352848184734 0.004909280434233238 0.021977247512976535
0.07503126302626001 0.005318125812993006 0.02409793001491941 0.993570079605088 -0.058138409110237745 0.0013367595593467506 0.011746729854219193 -0.0011373861527743095 -0.007447833931561794
 0.993570079605088 -0.058138409110237745 0.005324015041668316 0.024097444867445906 -0.0011374602000794106 -0.00744783385350639 0.0012992482726411991 0.011751680892029813
 0.0013367595593467506 0.011746729854219193 -0.0011374602000794106 -0.00744783385350639 0.0053179677320032825 0.024096969647519353 0.9935700394264892 -0.05813941996780331
 -0.0011373861527743095 -0.007447833931561794 0.0012992482726411991 0.011751680892029813 0.9935700394264892 -0.05813941996780331 0.005324105791771593 0.024096452237908232
0.08128386827845 0.005756111511925307 0.02623484589835161 0.9929868661467122 -0.06308131322030842 0.0015256061560185781 0.012725068740361127 -0.0012948999412111088 -0.008071090750904019
 0.9929868661467122 -0.06308131322030842 0.0057630220001955645 0.02623429018510242 -0.0012949865052571492 -0.008071089912077839 0.001481570927367376 0.012731023267476297
 0.0015256061560185781 0.012725068740361127 -0.0012949865052571492 -0.008071089912077839 0.005755926629875269 0.026233811792806105 0.9929868189747278 -0.06308241014047376
 -0.0012948999412111088 -0.008071090750904019 0.001481570927367376 0.012731023267476297 0.9929868189747278 -0.06308241014047376 0.005763129437912553 0.0262332178649304
0.08753647353064001 0.0062186112879539 0.028388883059449536 0.9923711395389013 -0.06803886716912526 0.0017277702034667402 0.01370241306005073 -0.0014634867041468202 -0.008693764361226671
 0.9923711395389013 -0.06803886716912526 0.0062266249242637906 0.028388251147416242 -0.0014635867182889871 -0.008693762603057627 0.0016766859458410633 0.013709499333943751
 0.0017277702034667402 0.01370241306005073 -0.0014635867182889871 -0.008693762603057627 0.00621839760111951 0.02838777666263218 0.9923710847309769 -0.06804005062776604
 -0.0014634867041468202 -0.008693764361226671 0.0016766859458410633 0.013709499333943751 0.9923710847309769 -0.06804005062776604 0.006226750582914037 0.028387099853371584
0.09378907878283 0.006706019736680758 0.03055960078485254 0.991722515307886 -0.0730107768190698 0.0019433434151851902 0.014678540434135218 -0.001643241408799478 -0.009315638376413441
 0.991722515307886 -0.0730107768190698 0.006715218558956714 0.03055888680986908 -0.001643355798187326 -0.00931563553142289 0.001884684864294674 0.014686895017597009
 0.0019433434151851902 0.014678540434135218 -0.001643355798187326 -0.00931563553142289 0.006705775270899909 0.03055842364667025 0.9917224521974061 -0.07301204733349737
 -0.001643241408799478 -0.009315638376413441 0.001884684864294674 0.014686895017597009 0.9917224521974061 -0.07301204733349737 0.006715364005487681 0.030557657310630065
0.100041684035 0.007218726839693238 0.032746559484004754 0.9910406124772373 -0.07799672923026858 0.0021724131314422115 0.0156532236030294 -0.0018342545887004276 -0.009936492831861035
 0.9910406124772373 -0.07799672923026858 0.007229193059031297 0.03274575734279762 -0.0018343842703790105 -0.009936488723719489 0.002105654966213503 0.015662991439988023
 0.0021724131314422115 0.0156532236030294 -0.0018343842703790105 -0.009936488723719489 0.007218449653152274 0.03274531326271591 0.9910405403715081 -0.07799808735360331
 -0.0018342545887004276 -0.009936492831861035 0.002105654966213503 0.015662991439988023 0.9910405403715081 -0.07799808735360331 0.00722935989564053 0.03274445046377191
0.1059090909091 0.007723200114935813 0.03481316701347022 0.9903701164425407 -0.08268799488658982 0.0023997195018182747 0.016566340343784708 -0.0020238162852495314 -0.010517972479197066
 0.9903701164425407 -0.08268799488658982 0.007734930596845749 0.03481227636596772 -0.002023961144088035 -0.010517967017484284 0.0023248829941690916 0.016577573724798216
 0.0023997195018182747 0.016566340343784708 -0.002023961144088035 -0.010517967017484284 0.007722890488452034 0.03481185756424431 0.9903700352411129 -0.08268943576158344
 -0.0020238162852495314 -0.010517972479197066 0.0023248829941690916 0.016577573724798216 0.9903700352411129 -0.08268943576158344 0.00773511899580348 0.034810897669509795
0.1062942892872 0.0077571177878845345 0.03494931881033845 0.9903250538741125 -0.08299639457528271 0.0024150621489079436 0.016626230630190638 -0.0020366121960809854 -0.01055610413031216
 0.9903250538741125 -0.08299639457528271 0.007768933811970119 0.03494842215163809 -0.002036758079170006 -0.01055609857386199 0.0023396791177212736 0.016637565119418333
 0.0024150621489079436 0.016626230630190638 -0.002036758079170006 -0.01055609857386199 0.007756805973650786 0.03494800526657265 0.9903249720527423 -0.08299784090196852
 -0.0020366121960809854 -0.01055610413031216 0.0023396791177212736 0.016637565119418333 0.9903249720527423 -0.08299784090196852 0.007769123677675543 0.03494703876842677
0.11254689453939999 0.008321572790199969 0.03716743623173476 0.9895754664250644 -0.08800942761861887 0.002671368552828046 0.01759732507282475 -0.002250395452966792 -0.011174245032219225
 0.9895754664250644 -0.08800942761861887 0.008334821246819068 0.037166438446221334 -0.002250558438641501 -0.011174237833554822 0.0025868356049596358 0.01761038813925574
 0.002671368552828046 0.01759732507282475 -0.002250558438641501 -0.011174237833554822 0.008321224478831742 0.03716605723112185 0.9895753741380672 -0.08801096278115696
 -0.002250395452966792 -0.011174245032219225 0.0025868356049596358 0.01761038813925574 0.9895753741380672 -0.08801096278115696 0.008335035819395206 0.03716497948665491
0.11879949979160001 0.008912466869931957 0.03940046592565806 0.9887914814420091 -0.09303546888559401 0.0029414055514615073 0.018566266145596644 -0.0024756807011351812 -0.01179068466509511
 0.9887914814420091 -0.09303546888559401 0.008927230631150548 0.039399360134784144 -0.0024758616829288005 -0.01179067562153832 0.00284719797322397 0.018581228309227385
 0.0029414055514615073 0.018566266145596644 -0.0024758616829288005 -0.01179067562153832 0.008912080233061108 0.0393990234399752 0.9887913779081563 -0.09303709355255942
 -0.0024756807011351812 -0.01179068466509511 0.00284719797322397 0.018581228309227385 0.9887913779081563 -0.09303709355255942 0.008927471628444915 0.03939782657974804
0.1250521050438 0.00953016965349861 0.04164795793923128 0.9879727349024491 -0.09807414558081146 0.0032252413130587957 0.019532808870770687 -0.0027125392518700434 -0.01240518855833435
 0.9879727349024491 -0.09807414558081146 0.009546531858854625 0.04164673698299373 -0.002712739115612587 -0.012405177458562969 0.0031208348682178902 0.019549849312978384
 0.0032252413130587957 0.019532808870770687 -0.002712739115612587 -0.012405177458562969 0.009529742905873564 0.041646454041527114 0.9879726193070553 -0.09807586046091961
 -0.0027125392518700434 -0.01240518855833435 0.0031208348682178902 0.019549849312978384 0.9879726193070553 -0.09807586046091961 0.009546801040582226 0.04164512986095622
0.131304710296 0.010175045151200744 0.043909457515772944 0.9871188677250152 -0.10312507235514569 0.00352293880460709 0.02049670422115322 -0.0029610372356063796 -0.013017518697663964
 0.9871188677250152 -0.10312507235514569 0.01019308923183329 0.04390811393920853 -0.0029612568595804266 -0.013017505321646156 0.0034078098792381857 0.02051601084823428
 0.00352293880460709 0.02049670422115322 -0.0029612568595804266 -0.013017505321646156 0.010174576553889892 0.043907894385020164 0.9871187392181355 -0.10312687819140143
 -0.0029610372356063796 -0.013017518697663964 0.0034078098792381857 0.02051601084823428 0.9871187392181355 -0.10312687819140143 0.010193388401151136 0.04390643433053646
0.1375573155481 0.010709233509487168 0.04589064950992719 0.9863678151281137 -0.10789381699848953 0.0038003177659428704 0.021429739484943148 -0.003187133150070747 -0.013599395697794696
 0.9863678151281137 -0.10789381699848953 0.010729050264948047 0.045889203880862234 -0.003187374045699635 -0.013599380004267771 0.003674203995787116 0.021451302994631324
 0.0038003177659428704 0.021429739484943148 -0.003187374045699635 -0.013599380004267771 0.01070872215137554 0.04588902865741722 0.9863676730804737 -0.10789571426551543
 -0.003187133150070747 -0.013599395697794696 0.003674203995787116 0.021451302994631324 0.9863676730804737 -0.10789571426551543 0.010729380017888071 0.04588745314452102
0.1438099208003 0.011262480185941991 0.04785954013519147 0.9855897807472895 -0.11264856872394104 0.004088840171984115 0.022357725678780426 -0.003422181413466614 -0.014176711590363206
 0.9855897807472895 -0.11264856872394104 0.011284154549682873 0.04785798641953313 -0.0034224445616318315 -0.014176693353048902 0.003951265879745587 0.022381719744734976
 0.004088840171984115 0.022357725678780426 -0.0034224445616318315 -0.014176693353048902 0.011261924544194536 0.04785786377920357 0.985589624303426 -0.11265055815519617
 -0.003422181413466614 -0.014176711590363206 0.003951265879745587 0.022381719744734976 0.985589624303426 -0.11265055815519617 0.011284516534320511 0.04785616575111082
0.1500625260525 0.011834559830273697 0.049815909548547505 0.9847849950218984 -0.11738915249239489 0.004388386464008617 0.02328052711008301 -0.0036660672822089006 -0.014749342453770844
 0.9847849950218984 -0.11738915249239489 0.011858177047002934 0.04981424129861254 -0.0036663536639487764 -0.014749321436637906 0.004238879556099316 0.023307131741837732
 0.004388386464008617 0.02328052711008301 -0.0036663536639487764 -0.014749321436637906 0.01183395843697499 0.04981417999251169 0.9847848232962007 -0.11739123484539445
 -0.0036660672822089006 -0.014749342453770844 0.004238879556099316 0.023307131741837732 0.9847848232962007 -0.11739123484539445 0.01185857293997854 0.04981235194200888
0.15631513130469998 0.012425245127715413 0.05175954449662107 0.9839536899638771 -0.12211539520699623 0.004698835444910719 0.024198010852326535 -0.003918674407547833 -0.015317167384527387
 0.9839536899638771 -0.12211539520699623 0.012450890761358835 0.05175775483623947 -0.0039189850041995425 -0.015317143341678689 0.004536927476047565 0.02422741231675687
