! Created with skrf 1.8.0 (http://scikit-rf.org).
# GHz S RI R 50.0 
!freq ReS11 ImS11 ReS12 ImS12 ReS13 ImS13
! ReS14 ImS14
! ReS21 ImS21 ReS22 ImS22 ReS23 ImS23
! ReS24 ImS24
! ReS31 ImS31 ReS32 ImS32 ReS33 ImS33
! ReS34 ImS34
! ReS41 ImS41 ReS42 ImS42 ReS43 ImS43
! ReS44 ImS44
!
0.0 0.001443891560755 0.0 0.9985561084392 0.0 5.55283329876e-05 0.0 -5.552833267686e-05 6.800259487470598e-21
 0.9985561084392 0.0 0.001443891560725 0.0 -5.552833267589e-05 6.800259487351807e-21 5.552833298686e-05 0.0
 5.55283329876e-05 0.0 -5.552833267589e-05 6.800259487351807e-21 0.001443891556472 0.0 0.998556108435 0.0
 -5.552833267686e-05 6.800259487470598e-21 5.552833298686e-05 0.0 0.998556108435 0.0 0.001443891556498 0.0
0.005 0.0015532340819871327 0.0011814475430065037 0.9984178217833792 -0.00302485903136416 7.765196259554595e-05 0.0006119742117041974 -7.542819088388728e-05 -0.00038415085726795317
 0.9984178217833792 -0.00302485903136416 0.0015532439426218978 0.0011814417955260496 -7.542865337457292e-05 -0.00038415126591693165 7.75773499936017e-05 0.0006120024225148684
 7.765196259554595e-05 0.0006119742117041974 -7.542865337457292e-05 -0.00038415126591693165 0.0015532332282028702 0.001181380845134585 0.9984178214349538 -0.0030249260761741493
 -7.542819088388728e-05 -0.00038415085726795317 7.75773499936017e-05 0.0006120024225148684 0.9984178214349538 -0.0030249260761741493 0.0015532441088522819 0.0011813744128760788
0.006252605252188 0.0015818297859941837 0.0014814681844740358 0.9983814410320327 -0.003781826228566248 8.39296623274454e-05 0.0007652690536405166 -8.100799005092994e-05 -0.00048068993812002764
 0.9983814410320327 -0.003781826228566248 0.0015818452002548415 0.0014814609331375412 -8.100870930030162e-05 -0.00048069044316315855 8.381308414011769e-05 0.0007653057059758231
 8.39296623274454e-05 0.0007652690536405166 -8.100870930030162e-05 -0.00048069044316315855 0.0015818285280144466 0.001481384809138366 0.998381440564426 -0.0037819100474239834
 -8.100799005092994e-05 -0.00048068993812002764 8.381308414011769e-05 0.0007653057059758231 0.998381440564426 -0.0037819100474239834 0.0015818455376558633 0.0014813766908113868
0.01250521050438 0.0017318892351867608 0.002994088984339615 0.9981893269733816 -0.007564536734197398 0.00011970392966603697 0.0015309235623846855 -0.00011245944270326359 -0.000963761406857694
 0.9981893269733816 -0.007564536734197398 0.0017319507847820372 0.0029940738226725263 -0.00011246227214216877 -0.0009637623546191326 0.00011923895702766756 0.001531011764946833
 0.00011970392966603697 0.0015309235623846855 -0.00011246227214216877 -0.0009637623546191326 0.0017318847407574798 0.0029939225846331474 0.9981893256379181 -0.007564704153600886
 -0.00011245944270326359 -0.000963761406857694 0.00011923895702766756 0.001531011764946833 0.9981893256379181 -0.007564704153600886 0.0017319526744558591 0.0029939055681773934
0.01875781575657 0.001894381367876019 0.0045283728506295634 0.9979795390195967 -0.011357355022674613 0.00016293118209467653 0.002297485046111435 -0.00014997598702754092 -0.0014485290514719285
 0.9979795390195967 -0.011357355022674613 0.0018945196688882925 0.0045283490907897335 -0.00014998228977754208 -0.001448530370022632 0.0001618864695619748 0.002297642428497516
 0.00016293118209467653 0.002297485046111435 -0.00014998228977754208 -0.001448530370022632 0.0018943716899011073 0.004528123708286305 0.997979536443679 -0.01135760598197145
 -0.00014997598702754092 -0.0014485290514719285 0.0001618864695619748 0.002297642428497516 0.997979536443679 -0.01135760598197145 0.001894524363647176 0.0045280969528937905
0.02501042100875 0.0020696093323819592 0.0060821901076500515 0.9977518414229449 -0.015162135942854921 0.0002136928012335078 0.0030649945614272837 -0.00019364817709858906 -0.0019347832318424008
 0.9977518414229449 -0.015162135942854921 0.0020698549381992447 0.006082157047399236 -0.00019365929778882227 -0.0019347848381215337 0.00021183679130961787 0.0030652413936505685
 0.0002136928012335078 0.0030649945614272837 -0.00019365929778882227 -0.0019347848381215337 0.002069592508997072 0.006081858532214144 0.997751837216045 -0.015162470441719797
 -0.00019364817709858906 -0.0019347832318424008 0.00021183679130961787 0.0030652413936505685 0.997751837216045 -0.015162470441719797 0.0020698636856371624 0.006081821151567269
0.03126302626094 0.002257863674115209 0.007654453232805501 0.9975059858324168 -0.018979683378997983 0.0002720707851167333 0.0038334229159943762 -0.0002435641874210097 -0.0024223797603497854
 0.9975059858324168 -0.018979683378997983 0.002258247093832378 0.0076544101592262125 -0.0002435814553644311 -0.002422381560018486 0.00026917149572580135 0.0038337821259490823
 0.0002720707851167333 0.0038334229159943762 -0.0002435814553644311 -0.002422381560018486 0.00225783774748877 0.007654039578415424 0.9975059796027359 -0.018980101461101538
 -0.0002435641874210097 -0.0024223797603497854 0.00026917149572580135 0.0038337821259490823 0.9975059796027359 -0.018980101461101538 0.002258261155908296 0.007653990644069017
0.037515631513130004 0.00245942876196418 0.009244459531403685 0.9972417178928777 -0.02281040751793627 0.00033814692288274527 0.004602713309363465 -0.0002998104590694269 -0.002911197252244817
 0.9972417178928777 -0.02281040751793627 0.0024599804732437724 0.009244405723241986 -0.0002998351899096309 -0.002911199139670389 0.0003339718507017564 0.0046032105113503734
 0.00033814692288274527 0.004602713309363465 -0.0002998351899096309 -0.002911199139670389 0.002459391777393035 0.009243964211630526 0.9972417092455715 -0.022810909256640494
 -0.0002998104590694269 -0.002911197252244817 0.0003339718507017564 0.0046032105113503734 0.9972417092455715 -0.022810909256640494 0.0024600011258029855 0.009243902754933494
0.043768236765320004 0.002674585281217911 0.010851691100742113 0.9969587799140049 -0.02665452481884756 0.0004120024165303582 0.005372794280067683 -0.0003624719300945474 -0.003401124172303515
 0.9969587799140049 -0.02665452481884756 0.0026753357407885933 0.01085162583003484 -0.00036250542686367586 -0.0034011260305749557 0.000406318489989713 0.005373457806741136
 0.0004120024165303582 0.005372794280067683 -0.00036250542686367586 -0.0034011260305749557 0.0026745352853183 0.010851114593621003 0.9969587684475641 -0.026655110312624443
 -0.0003624719300945474 -0.003401124172303515 0.000406318489989713 0.005373457806741136 0.9969587684475641 -0.026655110312624443 0.0026753642713562803 0.010851039606932083
0.050020842017509996 0.002903611386653649 0.012475732173326322 0.9966569122018719 -0.03051214060153355 0.0004937176540598251 0.006143585061448111 -0.00043163212458990934 -0.003892053474801405
 0.9966569122018719 -0.03051214060153355 0.002904591039382766 0.0124756547068652 -0.0004316756783684226 -0.003892055175769605 0.0004862912125058009 0.006144445997221808
 0.0004937176540598251 0.006143585061448111 -0.0004316756783684226 -0.003892055175769605 0.002903546431660007 0.01247507501018801 0.9966568975105073 -0.030512809985810005
 -0.00043163212458990934 -0.003892053474801405 0.0004862912125058009 0.006144445997221808 0.9966568975105073 -0.030512809985810005 0.0029046287515911134 0.012474985447776987
0.055454545454549996 0.0031141203872760968 0.013900448237490539 0.9963790041384947 -0.033875516307976146 0.0005711754494196413 0.006813934282912938 -0.0004970760117122266 -0.004319418263075326
 0.9963790041384947 -0.033875516307976146 0.003115323938205347 0.013900359573779109 -0.0004971293449578027 -0.004319419714572491 0.0005620444872130097 0.006814994180250437
 0.0005711754494196413 0.006813934282912938 -0.0004971293449578027 -0.004319419714572491 0.003114040853512737 0.013899721469123827 0.9963789863088024 -0.03387625872021129
 -0.0004970760117122266 -0.004319418263075326 0.0005620444872130097 0.006814994180250437 0.9963789863088024 -0.03387625872021129 0.0031153706989898856 0.01389961836152032
0.056273447269699996 0.003146783305887063 0.014116228515278256 0.9963358538446577 -0.03438328958037598 0.0005833720512677287 0.006914998207767879 -0.0005073731764354377 -0.00438387997573757
 0.9963358538446577 -0.03438328958037598 0.0031480225935650147 0.014116138115631085 -0.0005074280668555792 -0.004383881380059069 0.0005739688400882258 0.0069160904228185455
 0.0005833720512677287 0.006914998207767879 -0.0005074280668555792 -0.004383881380059069 0.0031467014478241 0.014115491299295024 0.9963358355144987 -0.03438404300937623
 -0.0005073731764354377 -0.00438387997573757 0.0005739688400882258 0.0069160904228185455 0.9963358355144987 -0.03438404300937623 0.003148070804951163 0.01411538607786619
0.06252605252188 0.0034043756640711673 0.015772865140605087 0.9959953432218539 -0.038267958083856905 0.0006810439289569983 0.007686941032150866 -0.0005897758187819933 -0.004876498916001524
 0.9959953432218539 -0.038267958083856905 0.003405905033635195 0.015772761066922127 -0.0005898433144009797 -0.004876499873168666 0.000669429105058062 0.0076883012167028465
 0.0006810439289569983 0.007686941032150866 -0.0005898433144009797 -0.004876499873168666 0.003404274965410104 0.01577204853426676 0.9959953208320049 -0.038268795743676344
 -0.0005897758187819933 -0.004876498916001524 0.000669429105058062 0.0076883012167028465 0.9959953208320049 -0.038268795743676344 0.003405965077905183 0.015771926533307543
0.06877865777407 0.0036766616615073744 0.01744535299665177 0.9956351183713736 -0.04216609730556169 0.0007868104073908653 0.008459316469898177 -0.0006789193561631536 -0.005369805102189047
 0.9956351183713736 -0.04216609730556169 0.003678511573137479 0.017445234505273917 -0.0006790007147211933 -0.005369805450586818 0.0007727485521139422 0.00846098416857898
 0.0007868104073908653 0.008459316469898177 -0.0006790007147211933 -0.005369805450586818 0.0036765401918137453 0.017444457731502872 0.9956350914921672 -0.04216701940477168
 -0.0006789193561631536 -0.005369805102189047 0.0007727485521139422 0.00846098416857898 0.9956350914921672 -0.04216701940477168 0.0036785848006777224 0.017444317793375512
0.07503126302626001 0.003963913163485154 0.019133420530510325 0.9952549172703407 -0.04607763167708301 0.000900747312845875 0.009232023626085299 -0.0007748816239532328 -0.0058636923664156645
 0.9952549172703407 -0.04607763167708301 0.003966114098605765 0.01913328687536051 -0.0007749780926067213 -0.005863691933352696 0.0008840024503118066 0.009234041272188367
 0.000900747312845875 0.009232023626085299 -0.0007749780926067213 -0.005863691933352696 0.003963769000520023 0.01913244740121664 0.9952548854627399 -0.04607863845318266
 -0.0007748816239532328 -0.0058636923664156645 0.0008840024503118066 0.009234041272188367 0.9952548854627399 -0.04607863845318266 0.0039662018770474 0.01913228833103184
0.08128386827845 0.00426640073298888 0.020836808085413033 0.9948544780630612 -0.05000246441445926 0.0010229290907436417 0.010004958139946894 -0.0008777389403110672 -0.006358053212695446
 0.9948544780630612 -0.05000246441445926 0.004268983202403959 0.02083665851808902 -0.0008778517558143433 -0.006358051814458012 0.0010032647106526474 0.010007371089526436
 0.0010229290907436417 0.010004958139946894 -0.0008778517558143433 -0.006358051814458012 0.004266231964202772 0.02083575795509142 0.9948544408778099 -0.050003556128849665
 -0.0008777389403110672 -0.006358053212695446 0.0010032647106526474 0.010007371089526436 0.9948544408778099 -0.050003556128849665 0.004269086917580737 0.02083557852026407
0.08753647353064001 0.004584393628389867 0.022555264011625914 0.9944335392566777 -0.053940481353540154 0.0011534287231078396 0.010778012441169804 -0.0009875660530244447 -0.006852778574954526
 0.9944335392566777 -0.053940481353540154 0.004587388180055977 0.02255509778128799 -0.0009876964418632686 -0.006852776016842072 0.0011306078067935105 0.01078086900690223
 0.0011534287231078396 0.010778012441169804 -0.0009876964418632686 -0.006852776016842072 0.004584198352177132 0.022554137808988864 0.9944334962335019 -0.053941658294703404
 -0.0009875660530244447 -0.006852778574954526 0.0011306078067935105 0.01078086900690223 0.9944334962335019 -0.053941658294703404 0.004587509236943281 0.02255393673870261
0.09378907878283 0.004918159776074186 0.024288541896820347 0.9939918398948879 -0.05789155366992327 0.0012923176488235295 0.01155107593883822 -0.0011044360823704274 -0.007347757646065876
 0.9939918398948879 -0.05789155366992327 0.004921597003262352 0.024288358249849578 -0.0011045852608830033 -0.007347753722436991 0.001266102698393818 0.011554427423577785
 0.0012923176488235295 0.01155107593883822 -0.0011045852608830033 -0.007347753722436991 0.004917936102760521 0.02428734061817878 0.9939917905612169 -0.05789281615165055
 -0.0011044360823704274 -0.007347757646065876 0.001266102698393818 0.011554427423577785 0.9939917905612169 -0.05789281615165055 0.004921736826375687 0.024287116602538687
0.100041684035 0.0052679657229892955 0.02603639853068709 0.99352911971419 -0.061855539868507635 0.0014396656861092602 0.012324035158674602 -0.0012284204609553928 -0.007842877762323558
 0.99352911971419 -0.061855539868507635 0.005271876272245512 0.026036196710082546 -0.001228589635404822 -0.007842872256640567 0.0014098187559368623 0.012327935888612581
 0.0014396656861092602 0.012324035158674602 -0.001228589635404822 -0.007842872256640567 0.005267711776381296 0.026035123239853353 0.9935290635846746 -0.06185688823029441
 -0.0012284204609553928 -0.007842877762323558 0.0014098187559368623 0.012327935888612581 0.9935290635846746 -0.06185688823029441 0.0052720363068780125 0.026034874928729187
0.1059090909091 0.0056110456997936825 0.027689620634123994 0.9930755565969717 -0.0655869296542037 0.0015856903637253533 0.013049177051236694 -0.001351299168394242 -0.008307521691200756
 0.9930755565969717 -0.0655869296542037 0.005615428339158228 0.027689401067200817 -0.001351488195118225 -0.00830751449431184 0.0015522184277509312 0.013053645320642914
 0.0015856903637253533 0.013049177051236694 -0.001351488195118225 -0.00830751449431184 0.005610761651747941 0.027688276920196087 0.9930754936364876 -0.06558835893520241
 -0.001351299168394242 -0.008307521691200756 0.0015522184277509312 0.013053645320642914 0.9930754936364876 -0.06558835893520241 0.005615608673617243 0.027688004545482165
0.1062942892872 0.005634076577690228 0.02779859237618109 0.993045119292215 -0.06583228727088013 0.0015955409560845938 0.013096773856080272 -0.0013595888713434235 -0.00833802431594698
 0.993045119292215 -0.06583228727088013 0.005638491157278117 0.02779837162066148 -0.0013597792380292651 -0.008338017000809815 0.0015618236866343665 0.013101281213612379
 0.0015955409560845938 0.013096773856080272 -0.0013597792380292651 -0.008338017000809815 0.005633790496411724 0.027797244206953998 0.9930450558675181 -0.06583372187551446
 -0.0013595888713434235 -0.00833802431594698 0.0015618236866343665 0.013101281213612379 0.9930450558675181 -0.06583372187551446 0.005638672870043195 0.02779697020872869
0.11254689453939999 0.006016755940333991 0.02957488240235643 0.9925395801868193 -0.06982163314526775 0.0017600098072289496 0.013869173103115296 -0.0014980091822019185 -0.008833080697713398
 0.9925395801868193 -0.06982163314526775 0.00602170532804858 0.029574641945302908 -0.0014982219274882426 -0.008833071334917298 0.0017221834605932185 0.013874347559142684
 0.0017600098072289496 0.013869173103115296 -0.0014982219274882426 -0.008833071334917298 0.006016435879073456 0.029573462553314927 0.9925395089529002 -0.06982315438424679
 -0.0014980091822019185 -0.008833080697713398 0.0017221834605932185 0.013874347559142684 0.9925395089529002 -0.06982315438424679 0.006021910207905734 0.029573161433218052
0.11879949979160001 0.006416265824424706 0.03136502716816075 0.9920122450707354 -0.07382340559037037 0.0019331367404844101 0.014641111364653576 -0.0016437473827732938 -0.00932792825430701
 0.9920122450707354 -0.07382340559037037 0.006421780876233382 0.03136476623619454 -0.0016439836831786897 -0.009327916594869324 0.0018909622378036131 0.01464701651054199
 0.0019331367404844101 0.014641111364653576 -0.0016439836831786897 -0.009327916594869324 0.006415909955623252 0.03136353690835788 0.9920121654977456 -0.07382501387816871
 -0.0016437473827732938 -0.00932792825430701 0.0018909622378036131 0.01464701651054199 0.9920121654977456 -0.07382501387816871 0.006422010435239965 0.031363207186645
0.1250521050438 0.006832866572571059 0.0331687841098577 0.9914628578615506 -0.07783742421999496 0.0021149843348599586 0.015412464561194309 -0.001796867516247579 -0.00982244626332458
 0.9914628578615506 -0.07783742421999496 0.006838978230828789 0.033168501921136954 -0.0017971285384614216 -0.009822432047535475 0.002068222295418302 0.015419167140120113
 0.0021149843348599586 0.015412464561194309 -0.0017971285384614216 -0.009822432047535475 0.006832473087605499 0.03316722477567838 0.9914627694030372 -0.07783911999731873
 -0.001796867516247579 -0.00982244626332458 0.002068222295418302 0.015419167140120113 0.9914627694030372 -0.07783911999731873 0.006839234004938184 0.03316686492547456
0.131304710296 0.0072668167667964455 0.03498590895790967 0.9908911638497763 -0.0818635007233346 0.0023056131733289634 0.016183106127744835 -0.00195743161228555 -0.010316511916279771
 0.9908911638497763 -0.0818635007233346 0.007273556068628334 0.03498560472021015 -0.0019577185132334794 -0.010316494873728089 0.0022540239550791915 0.016190676065579244
 0.0023056131733289634 0.016183106127744835 -0.0019577185132334794 -0.010316494873728089 0.007266383877214191 0.034984281954968756 0.9908910659414506 -0.08186528445503208
 -0.00195743161228555 -0.010316511916279771 0.0022540239550791915 0.016190676065579244 0.9908910659414506 -0.08186528445503208 0.007273839618507083 0.03498389039986754
0.1375573155481 0.007616388758353587 0.036579102202229236 0.9903989280861978 -0.08566429272857337 0.0024805313516576225 0.01692898158375096 -0.002101014365050532 -0.010786042543710926
 0.9903989280861978 -0.08566429272857337 0.007623789866837825 0.03657878080637947 -0.0021013290094718147 -0.010786022674496831 0.002424002503574432 0.01693740524606202
 0.0024805313516576225 0.01692898158375096 -0.0021013290094718147 -0.010786022674496831 0.007615915376244074 0.036577408489687324 0.9903988202887916 -0.08566616470669206
 -0.002101014365050532 -0.010786042543710926 0.002424002503574432 0.01693740524606202 0.9903988202887916 -0.08566616470669206 0.007624101837305754 0.03657698997328316
0.1438099208003 0.007978179399485252 0.0381643169257472 0.9898895306213328 -0.08945586566851127 0.0026625222779209146 0.017672045043602074 -0.002250347478867716 -0.01125302570796657
 0.9898895306213328 -0.08945586566851127 0.007986273977007675 0.038163977781849184 -0.0022506911369764857 -0.011253002744172671 0.0026008367839481772 0.017681386019380223
 0.0026625222779209146 0.017672045043602074 -0.0022506911369764857 -0.011253002744172671 0.007977663892830826 0.03816255793520182 0.9898894123704067 -0.08945782635201409
 -0.002250347478867716 -0.01125302570796657 0.0026008367839481772 0.017681386019380223 0.9898894123704067 -0.08945782635201409 0.00798661579899717 0.038162111130593396
0.1500625260525 0.008352066858069976 0.03974143294341733 0.9893630970100635 -0.0932381377689669 0.0028515265814621476 0.01841222732875245 -0.0024053737882173912 -0.011717396819898168
 0.9893630970100635 -0.0932381377689669 0.008360886678701097 0.03974107539433242 -0.0024057477292681122 -0.011717370482687417 0.0027844686528665672 0.01842255151302433
 0.0028515265814621476 0.01841222732875245 -0.0024057477292681122 -0.011717370482687417 0.008351507623089977 0.039739610160485425 0.9893629677262278 -0.09324018763656765
 -0.0024053737882173912 -0.011717396819898168 0.0027844686528665672 0.01842255151302433 0.9893629677262278 -0.09324018763656765 0.008361259796439051 0.03973913364607717
0.15631513130469998 0.008737928504199237 0.04131033375808179 0.988819753372169 -0.09701102730001905 0.003047484222944185 0.019149460362318113 -0.0025660354565496257 -0.01217909260985917
