! Created with skrf 1.8.0 (http://scikit-rf.org).
# GHz S RI R 50.0 
!freq ReS11 ImS11 ReS12 ImS12 ReS13 ImS13
! ReS14 ImS14
! ReS21 ImS21 ReS22 ImS22 ReS23 ImS23
! ReS24 ImS24
! ReS31 ImS31 ReS32 ImS32 ReS33 ImS33
! ReS34 ImS34
! ReS41 ImS41 ReS42 ImS42 ReS43 ImS43
! ReS44 ImS44
!
0.0 0.001758395996311 0.0 0.9982416039794 0.0 6.811888982207e-05 0.0 -6.811888962166e-05 8.342158013663778e-21
 0.9982416039794 0.0 0.001758395996311 0.0 -6.811888962241e-05 8.342158013755626e-21 6.811888982175e-05 0.0
 6.811888982207e-05 0.0 -6.811888962241e-05 8.342158013755626e-21 0.001758396008489 0.0 0.9982416039915 0.0
 -6.811888962166e-05 8.342158013663778e-21 6.811888982175e-05 0.0 0.9982416039915 0.0 0.001758396008449 0.0
0.005 0.0018925881477170933 0.0014390434575786515 0.998071735517455 -0.003682576801835392 9.559252487232727e-05 0.0007433150807356347 -9.288942610791433e-05 -0.0004676892787798771
 0.998071735517455 -0.003682576801835392 0.0018925748517423352 0.0014390513008022475 -9.288729247935118e-05 -0.0004676877500768782 9.56670639221266e-05 0.0007432864846877599
 9.559252487232727e-05 0.0007433150807356347 -9.288729247935118e-05 -0.0004676877500768782 0.0018925890674972657 0.0014391102738767856 0.9980717358949115 -0.003682509734475704
 -9.288942610791433e-05 -0.0004676892787798771 9.56670639221266e-05 0.0007432864846877599 0.9980717358949115 -0.003682509734475704 0.001892574683043691 0.0014391186168184222
0.006252605252188 0.0019279952985585369 0.0018044301373830538 0.9980266050280469 -0.004604087240622171 0.00010353461502306026 0.0009294951578289658 -9.997611044081026e-05 -0.0005852019099860784
 0.9980266050280469 -0.004604087240622171 0.0019279745145599039 0.001804440163952146 -9.997278949713425e-05 -0.0005852000280975116 0.00010365107201220474 0.0009294580341414468
 0.00010353461502306026 0.0009294951578289658 -9.997278949713425e-05 -0.0005852000280975116 0.0019279966581871226 0.0018045136532808344 0.998026605540734 -0.004604003418083183
 -9.997611044081026e-05 -0.0005852019099860784 0.00010365107201220474 0.0009294580341414468 0.998026605540734 -0.004604003418083183 0.0019279741738691257 0.00180452428743835
0.01250521050438 0.002115623136434241 0.0036462975623353616 0.9977857529625037 -0.009208723427068785 0.00014957302085756683 0.0018592879156098226 -0.00014068391109941445 -0.0011730948105819355
 0.9977857529625037 -0.009208723427068785 0.0021155401404925104 0.0036463198793067705 -0.0001406708134524658 -0.0011730913696981382 0.00015003733481813567 0.0018591986379855171
 0.00014957302085756683 0.0018592879156098226 -0.0001406708134524658 -0.0011730913696981382 0.0021156279991082216 0.003646464399013651 0.9977857544549481 -0.009208556037964808
 -0.00014068391109941445 -0.0011730948105819355 0.00015003733481813567 0.0018591986379855171 0.9977857544549481 -0.009208556037964808 0.002115538234141407 0.0036464877643901665
0.01875781575657 0.0023217325205720503 0.005513978960222861 0.9975187175411084 -0.013825062281665364 0.00020634875758693822 0.0027899609004605735 -0.00019037607286105234 -0.001762810166433513
 0.9975187175411084 -0.013825062281665364 0.0023215460123816164 0.005514016018685951 -0.00019034685122001888 -0.001762805564054351 0.00020739157673519226 0.002789801148607547
 0.00020634875758693822 0.0027899609004605735 -0.00019034685122001888 -0.001762805564054351 0.0023217429980521027 0.005514229074935301 0.997518720470115 -0.013824811399381628
 -0.00019037607286105234 -0.001762810166433513 0.00020739157673519226 0.002789801148607547 0.997518720470115 -0.013824811399381628 0.0023215413205891536 0.005514267470498946
0.02501042100875 0.0025467604496509813 0.007404807730472325 0.9972251543534264 -0.018455285257229954 0.0002739771674050168 0.003721517804592538 -0.00024918116896504347 -0.0023540499236207177
 0.9972251543534264 -0.018455285257229954 0.002546429206287909 0.007404862158854082 -0.0002491295482998605 -0.0023540446378787086 0.0002758290897460478 0.0037212660761524654
 0.0002739771674050168 0.003721517804592538 -0.0002491295482998605 -0.0023540446378787086 0.002546778638049141 0.0074051410624802905 0.9972251591783498 -0.018454950944081054
 -0.00024918116896504347 -0.0023540499236207177 0.0002758290897460478 0.0037212660761524654 0.9972251591783498 -0.018454950944081054 0.002546420523327537 0.007405196976536066
0.03126302626094 0.0027911257721384315 0.009317383367192027 0.9969047031132714 -0.02310029213773077 0.0003525733003085154 0.00465387664680934 -0.0003172235201357347 -0.0029465933670469358
 0.9969047031132714 -0.02310029213773077 0.0027906086264612817 0.009317457970018083 -0.00031714328576164225 -0.0029465879575014077 0.0003554650860551882 0.004653508240567569
 0.0003525733003085154 0.00465387664680934 -0.00031714328576164225 -0.0029465879575014077 0.0027911537532480826 0.009317799868653222 0.9969047102971127 -0.023099874414107987
 -0.0003172235201357347 -0.0029465933670469358 0.0003554650860551882 0.004653508240567569 0.9969047102971127 -0.023099874414107987 0.0027905947596408003 0.009317875977052725
0.037515631513130004 0.0030552377109740363 0.01125077136838428 0.9965569965612447 -0.027760501070720818 0.0004422508593430001 0.005586921030294474 -0.0003946240495670724 -0.003540245904531927
 0.9965569965612447 -0.027760501070720818 0.0030544935373272514 0.011250869126187004 -0.000394509041315813 -0.003540241012461921 0.0004464135219780938 0.005586408016295439
 0.0004422508593430001 0.005586921030294474 -0.000394509041315813 -0.003540241012461921 0.0030552775484776525 0.011251270972601179 0.9965570065662015 -0.02775999994671719
 -0.0003946240495670724 -0.003540245904531927 0.0004464135219780938 0.005586408016295439 0.9965570065662015 -0.02775999994671719 0.0030544733013372 0.011251370138509126
0.043768236765320004 0.003339499136074868 0.013204259706789616 0.9961816641136605 -0.03243609202719409 0.0005431216799786546 0.006520515742056865 -0.0004815005689030965 -0.00413482350375891
 0.9961816641136605 -0.03243609202719409 0.0033384868386981993 0.013204383776369674 -0.00048134467781191866 -0.004134819852295441 0.0005487865258841239 0.0065198269276768445
 0.0005431216799786546 0.006520515742056865 -0.00048134467781191866 -0.004134819852295441 0.0033395528774648447 0.013204842325967314 0.9961816774034467 -0.03243550750463332
 -0.0004815005689030965 -0.00413482350375891 0.0005487865258841239 0.0065198269276768445 0.9961816774034467 -0.03243550750463332 0.003338459056396551 0.0132049676001182
0.050020842017509996 0.00364430806394512 0.015177258209136471 0.9957783337425385 -0.037127107352697336 0.0006552954013128124 0.007454513201806589 -0.0005779678589011724 -0.004730146282622447
 0.9957783337425385 -0.037127107352697336 0.003642986566909213 0.01517741192430069 -0.0005777650252185248 -0.004730144676854173 0.0006626940415943961 0.0074536140961406075
 0.0006552954013128124 0.007454513201806589 -0.0005777650252185248 -0.004730144676854173 0.0036443777402969213 0.015177923742730965 0.9957783507825221 -0.03712643941666763
 -0.0005779678589011724 -0.004730146282622447 0.0006626940415943961 0.0074536140961406075 0.9957783507825221 -0.03712643941666763 0.0036429500685183163 0.015178078364112177
0.055454545454549996 0.003926189372028571 0.016907294986921013 0.9954048005071926 -0.04121623425719594 0.0007620404201096738 0.008266390819134167 -0.0006696765969820694 -0.005247966083152866
 0.9954048005071926 -0.04121623425719594 0.003924565821223885 0.01690747731069489 -0.0006694280848757193 -0.005247966972685666 0.0007711341098661792 0.008265278364318153
 0.0007620404201096738 0.008266390819134167 -0.0006694280848757193 -0.005247966972685666 0.0039262745339154114 0.016908032478502758 0.9954048211862927 -0.04121549381267723
 -0.0006696765969820694 -0.005247966083152866 0.0007711341098661792 0.008265278364318153 0.9954048211862927 -0.04121549381267723 0.003924520803973508 0.01690821538091356
0.056273447269699996 0.00397005840625674 0.01716924917648504 0.995346633109357 -0.04183350108141044 0.0007788792188913531 0.008388756644004049 -0.0006841376608778817 -0.0053260353718938705
 0.995346633109357 -0.04183350108141044 0.003968386644669803 0.017169436049052515 -0.0006838818729338821 -0.00532603669892648 0.0007882435644296876 0.008387609421696935
 0.0007788792188913531 0.008388756644004049 -0.0006838818729338821 -0.00532603669892648 0.003970146033110481 0.017169997503084414 0.9953466543674936 -0.04183274970817676
 -0.0006841376608778817 -0.0053260353718938705 0.0007882435644296876 0.008387609421696935 0.9953466543674936 -0.04183274970817676 0.0039683402675731285 0.01717018489991983
0.06252605252188 0.004317140350082066 0.019179760232606848 0.9948861903351184 -0.04655516602869466 0.0009139776804683118 0.009323081873670484 -0.0008001186203894678 -0.00592231121112482
 0.9948861903351184 -0.04655516602869466 0.004315077260545802 0.0191799839537306 -0.000799803913905366 -0.005922316440123939 0.0009255399259626235 0.009321645338465183
 0.0009139776804683118 0.009323081873670484 -0.000799803913905366 -0.005922316440123939 0.0043172479268456755 0.01918059121022473 0.994886216282181 -0.04655433118522502
 -0.0008001186203894678 -0.00592231121112482 0.0009255399259626235 0.009321645338465183 0.994886216282181 -0.04655433118522502 0.0043150198483809625 0.019180815001411687
0.06877865777407 0.004685940532378495 0.021208348150795416 0.994396634571311 -0.051291949913098996 0.0010606925041352928 0.010257318326364282 -0.0009260162051125333 -0.006518792547942045
 0.994396634571311 -0.051291949913098996 0.004683445045250339 0.021208612592504904 -0.0009256366629077472 -0.0065188027301573736 0.0010746851041319226 0.010255547874823771
 0.0010606925041352928 0.010257318326364282 -0.0009256366629077472 -0.0065188027301573736 0.004686070042481419 0.021209261613987652 0.9943966656811649 -0.051291031559711805
 -0.0009260162051125333 -0.006518792547942045 0.0010746851041319226 0.010255547874823771 0.9943966656811649 -0.051291031559711805 0.004683375447510071 0.02120952561071979
0.07503126302626001 0.005076842095713557 0.02325458860065784 0.9938775964553049 -0.05604366556688404 0.0012191224102545797 0.01119128975722568 -0.0010619326061006972 -0.007115295816508608
 0.9938775964553049 -0.05604366556688404 0.005073873126716824 0.023254897817869567 -0.0010614823581219543 -0.00711531208528988 0.0012357780494492944 0.011189137342707493
 0.0012191224102545797 0.01119128975722568 -0.0010614823581219543 -0.00711531208528988 0.005076995506295554 0.023255584365784752 0.9938776332051633 -0.05604266365192922
 -0.0010619326061006972 -0.007115295816508608 0.0012357780494492944 0.011189137342707493 0.9938776332051633 -0.05604266365192922 0.005073790197243029 0.023255892573662357
0.08128386827845 0.00549022466738401 0.025318069337789954 0.9933287084957797 -0.06081009771354166 0.0013893629627595575 0.012124814708646927 -0.0012079666280748146 -0.007711634745885645
 0.9933287084957797 -0.06081009771354166 0.00548674110893679 0.025318427570563184 -0.0012074398514242523 -0.007711658316680659 0.0014089145211591404 0.012122228805678868
 0.0013893629627595575 0.012124814708646927 -0.0012074398514242523 -0.007711658316680659 0.005490403929492324 0.025319147198068086 0.9933287513670761 -0.06080901217807802
 -0.0012079666280748146 -0.007711634745885645 0.0014089145211591404 0.012122228805678868 0.9933287513670761 -0.06080901217807802 0.0054866437067967455 0.02531950381938783
0.08753647353064001 0.005926464288381912 0.027398385502076735 0.9927496054113429 -0.06559100764637321 0.001571506414992314 0.013057706853479326 -0.0013642135729908902 -0.008307620101723043
 0.9927496054113429 -0.06559100764637321 0.0059224250018807935 0.02739879717819076 -0.001363604492351522 -0.008307652272051972 0.0015941869296115837 0.013054632422676741
 0.001571506414992314 0.013057706853479326 -0.001363604492351522 -0.008307652272051972 0.00592667133626836 0.027399545229438046 0.9927496548895232 -0.06558983842223344
 -0.0013642135729908902 -0.008307620101723043 0.0015941869296115837 0.013054632422676741 0.9927496548895232 -0.06558983842223344 0.005922311989052078 0.027399954665973433
0.09378907878283 0.006385933306056409 0.029495136261210052 0.9921399244385772 -0.07038613657242875 0.0017656415598104231 0.013989775255033275 -0.0015307651185514554 -0.008903059520313065
 0.9921399244385772 -0.07038613657242875 0.0063812971136315115 0.02949560599911319 -0.0015300680064968064 -0.00890310166973746 0.001791684183188955 0.013986153708545569
 0.0017656415598104231 0.013989775255033275 -0.0015300680064968064 -0.00890310166973746 0.006386170057628183 0.029496377607179217 0.9921399810142754 -0.07038488358122869
 -0.0015307651185514554 -0.008903059520313065 0.001791684183188955 0.013986153708545569 0.9921399810142754 -0.07038488358122869 0.006381167355997107 0.029496844463215117
0.100041684035 0.006869000243178232 0.031607922371374386 0.9914993056196048 -0.0751952080502883 0.0019718535828160983 0.014920824573701568 -0.001707709192760606 -0.009497757405265263
 0.9914993056196048 -0.0751952080502883 0.006863725919592137 0.03160845498351241 -0.0017069183703491647 -0.009497810995333809 0.002001491538513737 0.014916593741367041
 0.0019718535828160983 0.014920824573701568 -0.0017069183703491647 -0.009497810995333809 0.006869268599307721 0.031609245061640964 0.9914993697881631 -0.07519387120872491
 -0.001707709192760606 -0.009497757405265263 0.002001491538513737 0.014916593741367041 0.9914993697881631 -0.07519387120872491 0.0068635782850860975 0.03160977414740986
0.1059090909091 0.007344094166700374 0.033604776162755 0.9908696972267206 -0.07972043204220446 0.002176418072907027 0.015793411043902975 -0.0018832792534125558 -0.010054966753581735
 0.9908696972267206 -0.07972043204220446 0.0073381834814576176 0.033605372328509735 -0.0018823953724987042 -0.010055032481712247 0.0022096420030576175 0.01578854869814943
 0.002176418072907027 0.015793411043902975 -0.0018823953724987042 -0.010055032481712247 0.0073443938936543045 0.03360617491866972 0.9908697689760182 -0.0797190164305959
 -0.0018832792534125558 -0.010054966753581735 0.0022096420030576175 0.01578854869814943 0.9908697689760182 -0.0797190164305959 0.007338018043620936 0.03360676696210065
0.1062942892872 0.007376029647253457 0.03373634433575292 0.9908273920739888 -0.08001792984105888 0.0021902239174212477 0.0158506552388012 -0.0018951298462199211 -0.010091514868604514
 0.9908273920739888 -0.08001792984105888 0.007370075911725049 0.033736944832137336 -0.0018942396835502629 -0.010091581442770767 0.0022236904531991396 0.015845749335020573
 0.0021902239174212477 0.0158506552388012 -0.0018942396835502629 -0.010091581442770767 0.007376331491495887 0.03373774807489006 0.9908274643364692 -0.08001650905608292
 -0.0018951298462199211 -0.010091514868604514 0.0022236904531991396 0.015845749335020573 0.9908274643364692 -0.08001650905608292 0.007369909270283438 0.033738344410411666
0.11254689453939999 0.007907381926019766 0.035880001020960325 0.9901238302606323 -0.08485399531311225 0.0024208301016754117 0.016779063600605715 -0.0020931071226275035 -0.010684129701263312
 0.9901238302606323 -0.08485399531311225 0.007900707434032442 0.03588067461331111 -0.0020921120394673683 -0.010684210884807458 0.00245835844043919 0.01677341319196717
 0.0024208301016754117 0.016779063600605715 -0.0020921120394673683 -0.010684210884807458 0.007907719124718587 0.035881485490568944 0.9901239111240783 -0.08485249048372573
 -0.0020931071226275035 -0.010684129701263312 0.00245835844043919 0.01677341319196717 0.9901239111240783 -0.08485249048372573 0.007900520656793959 0.03588215430985477
0.11879949979160001 0.008463413171990774 0.03803848858386982 0.9893882702317564 -0.08970308454821106 0.002663745636446648 0.017705842062780593 -0.002301716928201396 -0.011275396373167169
 0.9893882702317564 -0.08970308454821106 0.008455976507191229 0.03803924068998062 -0.0023006113947867672 -0.011275493873061718 0.0027055689252336616 0.01769937403652381
 0.002663745636446648 0.017705842062780593 -0.0023006113947867672 -0.011275493873061718 0.008463787573755445 0.038040053443755 0.9893883602095812 -0.08970149556430505
 -0.002301716928201396 -0.011275396373167169 0.0027055689252336616 0.01769937403652381 0.9893883602095812 -0.08970149556430505 0.008455768465948763 0.038040800199384155
0.1250521050438 0.009044474978330108 0.040211399635351516 0.9886203658811729 -0.09456486522298 0.00291903984553856 0.018630779210052757 -0.0025210309000430332 -0.011865106047892562
 0.9886203658811729 -0.09456486522298 0.00903623464455948 0.04021223588390572 -0.0025198094377650994 -0.011865221652697867 0.00296539110262995 0.018623416743440875
 0.00291903984553856 0.018630779210052757 -0.0025198094377650994 -0.011865221652697867 0.009044888413747587 0.04021304452166901 0.9886204654936078 -0.09456319196700683
 -0.0025210309000430332 -0.011865106047892562 0.00296539110262995 0.018623416743440875 0.9886204654936078 -0.09456319196700683 0.00903600421116724 0.04021387488979371
0.131304710296 0.009650914248105399 0.042398322581755965 0.9878197751878761 -0.0994389933247866 0.0031867777365352213 0.019553659925917222 -0.0027511162748095792 -0.012453046617575033
 0.9878197751878761 -0.0994389933247866 0.00964182866089979 0.04239924881758506 -0.002749773457056549 -0.012453182197238438 0.0032378897967965388 0.019545322456467583
 0.0031867777365352213 0.019553659925917222 -0.002749773457056549 -0.012453182197238438 0.009651368529584507 0.0424000471067972 0.9878198849622165 -0.09943723567206458
 -0.0027511162748095792 -0.012453046617575033 0.0032378897967965388 0.019545322456467583 0.9878198849622165 -0.09943723567206458 0.009641574706326539 0.042400966992659835
0.1375573155481 0.01015140925589509 0.0443148184273427 0.98711789190406 -0.10404090665735921 0.0034349837134922553 0.02044685771700723 -0.002959952609097291 -0.013011664848178861
 0.98711789190406 -0.10404090665735921 0.01014143460072192 0.04431581935427052 -0.002958480643407693 -0.01301182075302057 0.003490980400280357 0.02043755048260365
 0.0034349837134922553 0.02044685771700723 -0.002958480643407693 -0.01301182075302057 0.010151907447601572 0.04431662156141037 0.9871180123050766 -0.10403906457232263
 -0.002959952609097291 -0.013011664848178861 0.003490980400280357 0.02043755048260365 0.9871180123050766 -0.10403906457232263 0.010141154860043628 0.04431761716705002
0.1438099208003 0.01066973835118319 0.04621986830426728 0.9863908888735929 -0.10862977630562914 0.0036931579640950164 0.02133563679084691 -0.0031770814510287825 -0.013566172501024416
 0.9863908888735929 -0.10862977630562914 0.010658832626956315 0.04622094839792739 -0.0031754745590733173 -0.013566350580216515 0.0037542521951823213 0.021325285307930167
 0.0036931579640950164 0.02133563679084691 -0.0031754745590733173 -0.013566350580216515 0.010670282466854735 0.04622174957231863 0.9863910204252296 -0.10862784967281758
 -0.0031770814510287825 -0.013566172501024416 0.0037542521951823213 0.021325285307930167 0.9863910204252296 -0.10862784967281758 0.010658525765902833 0.04622282559817903
0.1500625260525 0.011205698256395075 0.048113272443645716 0.9856389743445556 -0.11320544688751638 0.003961197518387434 0.022219881091592557 -0.003402401595055162 -0.014116458903937461
 0.9856389743445556 -0.11320544688751638 0.011193819374363104 0.048114436425106336 -0.003400654019808557 -0.014116661080462748 0.004027600786597577 0.022208408130792397
 0.003961197518387434 0.022219881091592557 -0.003400654019808557 -0.014116661080462748 0.011206290307304004 0.04811523134739015 0.9856391175764917 -0.11320343558973826
 -0.003402401595055162 -0.014116458903937461 0.004027600786597577 0.022208408130792397 0.9856391175764917 -0.11320343558973826 0.011193484044770429 0.048116392754292525
0.15631513130469998 0.011759083998948247 0.04999483702012096 0.9848623579018515 -0.1177677645008071 0.004238998048701596 0.023099476865668277 -0.003635810456722929 -0.014662415981147307
 0.9848623579018515 -0.1177677645008071 0.01174618978049669 0.04999608986056308 -0.003633916463004724 -0.014662644251313986 0.004310920397791475 0.02308680248203264
