! Created with skrf 1.8.0 (http://scikit-rf.org).
# GHz S RI R 50.0 
!freq ReS11 ImS11 ReS12 ImS12 ReS13 ImS13
! ReS14 ImS14
! ReS21 ImS21 ReS22 ImS22 ReS23 ImS23
! ReS24 ImS24
! ReS31 ImS31 ReS32 ImS32 ReS33 ImS33
! ReS34 ImS34
! ReS41 ImS41 ReS42 ImS42 ReS43 ImS43
! ReS44 ImS44
!
0.0 0.001529818879576 0.0 0.9984701811143 0.0 5.925421057262e-05 0.0 -5.925420996149e-05 7.256547856534394e-21
 0.9984701811143 0.0 0.001529818879582 0.0 -5.925420996197e-05 7.256547856593177e-21 5.92542105721e-05 0.0
 5.925421057262e-05 0.0 -5.925420996197e-05 7.256547856593177e-21 0.001529818882598 0.0 0.9984701811174 0.0
 -5.925420996149e-05 7.256547856534394e-21 5.92542105721e-05 0.0 0.9984701811174 0.0 0.00152981888258 0.0
0.005 0.0016459799276182505 0.001246498448541513 0.9983232131770603 -0.0032049311076548966 8.375215346411654e-05 0.0006830524312079735 -8.116808343165269e-05 -0.00042347570325812164
 0.9983232131770603 -0.0032049311076548966 0.0016459835935572912 0.00124649623183734 -8.116893661589097e-05 -0.00042347627761570863 8.373635536618465e-05 0.0006830585623370585
 8.375215346411654e-05 0.0006830524312079735 -8.116893661589097e-05 -0.00042347627761570863 0.001645980236667796 0.0012465654778672805 0.9983232135275509 -0.0032048640449985474
 -8.116808343165269e-05 -0.00042347570325812164 8.373635536618465e-05 0.0006830585623370585 0.9983232135275509 -0.0032048640449985474 0.0016459839809720475 0.0012465633240765883
0.006252605252188 0.0016764354181145705 0.0015630513324563396 0.9982844372642116 -0.004006951475566768 9.074487220282372e-05 0.0008541331123844649 -8.73545257048794e-05 -0.0005298995935928851
 0.9982844372642116 -0.004006951475566768 0.0016764411490184563 0.0015630484801536495 -8.735585398599691e-05 -0.0005299003000660824 9.072019045250957e-05 0.0008541410549326757
 9.074487220282372e-05 0.0008541331123844649 -8.735585398599691e-05 -0.0005299003000660824 0.0016764358413115282 0.001563135101660925 0.9982844377518475 -0.0040068676559461315
 -8.73545257048794e-05 -0.0005298995935928851 9.072019045250957e-05 0.0008541410549326757 0.9982844377518475 -0.0040068676559461315 0.0016764416937412663 0.0015631323417195121
0.01250521050438 0.0018367014250230019 0.003159045822293918 0.9980790361382221 -0.008014742848830534 0.0001308134935895224 0.001708538383783238 -0.00012245207440786382 -0.0010624026158152825
 0.9980790361382221 -0.008014742848830534 0.0018367243158864722 0.0031590392888722375 -0.0001224573169963707 -0.001062403902066528 0.0001307151086409951 0.0017085572866551945
 0.0001308134935895224 0.001708538383783238 -0.0001224573169963707 -0.001062403902066528 0.001836702547597646 0.00315921302064848 0.9980790375116656 -0.008014575448032213
 -0.00012245207440786382 -0.0010624026158152825 0.0001307151086409951 0.0017085572866551945 0.9980790375116656 -0.008014575448032213 0.0018367259073541547 0.0031592068119580953
0.01875781575657 0.0020109656235355123 0.004777904852495978 0.9978537233609411 -0.012033134890455932 0.00017955225706574085 0.0025638218900214185 -0.0001646553857004457 -0.0015967015688769302
 0.9978537233609411 -0.012033134890455932 0.0020110170757279746 0.004777893743469486 -0.00016466708801915754 -0.001596703281083854 0.00017933133937352152 0.002563855381203338
 0.00017955225706574085 0.0025638218900214185 -0.00016466708801915754 -0.001596703281083854 0.0020109677364058523 0.004778155259184845 0.9978537260256833 -0.012032883991073226
 -0.0001646553857004457 -0.0015967015688769302 0.00017933133937352152 0.002563855381203338 0.9978537260256833 -0.012032883991073226 0.002011020208911715 0.004778144856834315
0.02501042100875 0.0021995665065675167 0.006417352427918488 0.997608234594621 -0.016064075274806362 0.00023705469002373034 0.0034200271483280894 -0.00021406931050944175 -0.002132545619276419
 0.997608234594621 -0.016064075274806362 0.002199657905893965 0.006417335784493209 -0.00021408999125843668 -0.00213254757410756 0.00023666244556936459 0.003420079438426522
 0.00023705469002373034 0.0034200271483280894 -0.00021408999125843668 -0.00213254757410756 0.002199569904867035 0.006417685826257335 0.9976082389545423 -0.016063740918010144
 -0.00021406931050944175 -0.002132545619276419 0.00023666244556936459 0.003420079438426522 0.9976082389545423 -0.016063740918010144 0.0021996630601810825 0.0064176704316255
0.03126302626094 0.0024028285298751196 0.00807621690197236 0.9973422919776491 -0.020108396823449035 0.0003034148214905421 0.004277115326455626 -0.00027079565433246614 -0.002669760390613253
 0.9973422919776491 -0.020108396823449035 0.0024029712507214586 0.008076193700980167 -0.0002708278100102681 -0.002669762374877782 0.0003028024430978289 0.0042771912103853746
 0.0003034148214905421 0.004277115326455626 -0.0002708278100102681 -0.002669762374877782 0.00240283351498069 0.008076633067025513 0.9973422984384872 -0.020107979021034866
 -0.00027079565433246614 -0.002669760390613253 0.0003028024430978289 0.0042771912103853746 0.9973422984384872 -0.020107979021034866 0.002402978893157192 0.008076611827970585
0.037515631513130004 0.0026210691063374295 0.009753734040691589 0.9970556113422342 -0.02416651438103383 0.0003787262314466263 0.005135015144007422 -0.0003349339565696768 -0.00320819806508875
 0.9970556113422342 -0.02416651438103383 0.0026212745149243846 0.009753703194107392 -0.00033498006385719223 -0.0032081998355670783 0.00037784487658643946 0.005135120005754298
 0.0003787262314466263 0.005135015144007422 -0.00033498006385719223 -0.0032081998355670783 0.0026210759831917846 0.009754232728603993 0.9970556203094421 -0.02416601312564071
 -0.0003349339565696768 -0.00320819806508875 0.00037784487658643946 0.005135120005754298 0.9970556203094421 -0.02416601312564071 0.0026212850972297834 0.009754204739454904
0.043768236765320004 0.002854601302811453 0.011449334940844033 0.9967479051344483 -0.028238636828164514 0.000463081605170136 0.005993638046393216 -0.00040658177033565815 -0.003747722212133148
 0.9967479051344483 -0.028238636828164514 0.002854880758970908 0.011449295295379743 -0.000406644287297256 -0.003747723495463331 0.0004618823852649826 0.005993777864682388
 0.000463081605170136 0.005993638046393216 -0.000406644287297256 -0.003747723495463331 0.0028546103819556148 0.01144991588544526 0.9967479170165995 -0.028238052096421273
 -0.00040658177033565815 -0.003747722212133148 0.0004618823852649826 0.005993777864682388 0.9967479170165995 -0.028238052096421273 0.002854894720641483 0.0114498801867445
0.050020842017509996 0.0031037350951018906 0.01316255839057029 0.9964188838971535 -0.03232485465018382 0.0005565724658292178 0.0068528844753608185 -0.0004858347646003375 -0.004288201522459003
 0.9964188838971535 -0.03232485465018382 0.003104099953509762 0.013162508727221332 -0.0004859161314902437 -0.004288202015052355 0.0005550064413424462 0.006853065829756046
 0.0005565724658292178 0.0068528844753608185 -0.0004859161314902437 -0.004288202015052355 0.0031037466912487177 0.013163221295302216 0.9964188991055131 -0.03232418641043629
 -0.0004858347646003375 -0.004288201522459003 0.0005550064413424462 0.006853065829756046 0.9964188991055131 -0.03232418641043629 0.0031041177207344244 0.013163176873747679
0.055454545454549996 0.0033331492096965024 0.014665404016131658 0.9961154184688972 -0.035887362031134094 0.00064530805692969 0.007600018724474687 -0.0005609572580920184 -0.0047585697246940815
 0.9961154184688972 -0.035887362031134094 0.0033335975039259207 0.014665344605523227 -0.0005610569744714568 -0.004758569260023771 0.0006433834829173956 0.007600241989754613
 0.00064530805692969 0.007600018724474687 -0.0005610569744714568 -0.004758569260023771 0.003333163251715913 0.014666137887463694 0.9961154369043461 -0.03588662118274539
 -0.0005609572580920184 -0.0047585697246940815 0.0006433834829173956 0.007600241989754613 0.9961154369043461 -0.03588662118274539 0.0033336189137749537 0.014666085020527018
0.056273447269699996 0.003368778009986203 0.014893007833950457 0.9960682571425117 -0.03642518290342388 0.0006592889843317058 0.00771264694624307 -0.000572786748004061 -0.004829506738560679
 0.9960682571425117 -0.03642518290342388 0.003369239621903167 0.014892946867465475 -0.0005728893877832642 -0.004829506106518778 0.0006573071637842275 0.007712877023399946
 0.0006592889843317058 0.00771264694624307 -0.0005728893877832642 -0.004829506106518778 0.0033687924412472907 0.014893752382545792 0.996068276091223 -0.03642443110463377
 -0.000572786748004061 -0.004829506738560679 0.0006573071637842275 0.007712877023399946 0.996068276091223 -0.03642443110463377 0.0033692616066535873 0.014893698170726229
0.06252605252188 0.0036500354673189724 0.016640327729407555 0.9956957339291368 -0.04053958479012499 0.0007713198295406171 0.008572811738141428 -0.0006675296513151438 -0.005371508976021213
 0.9956957339291368 -0.04053958479012499 0.003650605181616922 0.01664025410781932 -0.0006676559698720962 -0.005371506855073499 0.0007688731706541994 0.00857309833815851
 0.0007713198295406171 0.008572811738141428 -0.0006676559698720962 -0.005371506855073499 0.003650053054622548 0.016641153575803383 0.9956957570353723 -0.04053874937183575
 -0.0006675296513151438 -0.005371508976021213 0.0007688731706541994 0.00857309833815851 0.9956957570353723 -0.04053874937183575 0.0036506317818599393 0.016641088451909588
0.06877865777407 0.003947810961248962 0.018404189448874512 0.9953010232815294 -0.04466798569673002 0.0008927520384830694 0.009433259909401824 -0.0007701534880692424 -0.005914078723726587
 0.9953010232815294 -0.04466798569673002 0.003948500125598203 0.01840410175282047 -0.000770305874456188 -0.00591407471915353 0.000889791451175807 0.009433611452140729
 0.0008927520384830694 0.009433259909401824 -0.000770305874456188 -0.00591407471915353 0.003947832028280811 0.018405096222635274 0.9953010509666402 -0.044667066583270895
 -0.0007701534880692424 -0.005914078723726587 0.000889791451175807 0.009433611452140729 0.9953010509666402 -0.044667066583270895 0.003948531724823322 0.01840501901018456
0.07503126302626001 0.004262406141836736 0.02018428233955664 0.9948838345137438 -0.04881028207346551 0.0010236709001629884 0.010293867944981347 -0.0008807463004339763 -0.006457085216574582
 0.9948838345137438 -0.04881028207346551 0.004263226103410919 0.020184179081784034 -0.0008809271268145703 -0.00645707890316315 0.0010201472506329086 0.010294293476413943
 0.0010236709001629884 0.010293867944981347 -0.0008809271268145703 -0.00645707890316315 0.004262431013684125 0.020185269641442564 0.9948838672031342 -0.048809279178177525
 -0.0008807463004339763 -0.006457085216574582 0.0010201472506329086 0.010294293476413943 0.9948838672031342 -0.048809279178177525 0.004263263070323897 0.020185179108927382
0.08128386827845 0.004594120837348317 0.021980307777373583 0.994443877497917 -0.05296634732724464 0.001164159846957367 0.011154508187824139 -0.0009993940956056473 -0.007000396028929497
 0.994443877497917 -0.05296634732724464 0.004595082944309004 0.02198018740201791 -0.0009996057172967777 -0.007000386950905136 0.0011600239630391376 0.011155017386297851
 0.001164159846957367 0.011154508187824139 -0.0009996057172967777 -0.007000386950905136 0.0045941498406919514 0.021981375180216627 0.9944439156217161 -0.0529652605513311
 -0.0009993940956056473 -0.007000396028929497 0.0011600239630391376 0.011155017386297851 0.9944439156217161 -0.0529652605513311 0.004595125632674496 0.021981270040706772
0.08753647353064001 0.004943253036278216 0.023791975055836054 0.993980862895168 -0.05713603588411859 0.0013143003511411943 0.012015049148067074 -0.0011261807762172704 -0.0075438767950237
 0.993980862895168 -0.05713603588411859 0.004944368638184971 0.023791835937768166 -0.00112642553154535 -0.007543864466015975 0.0013095030280198792 0.012015652330487474
 0.0013143003511411943 0.012015049148067074 -0.00112642553154535 -0.007543864466015975 0.004943286498376079 0.023793122101240724 0.9939809068889792 -0.05713486511982955
 -0.0011261807762172704 -0.0075438767950237 0.0013095030280198792 0.012015652330487474 0.9939809068889792 -0.05713486511982955 0.004944417386591637 0.023793001011901807
0.09378907878283 0.005310098840388646 0.025618998447440464 0.9934945023619858 -0.061319186084552696 0.0014741718245444937 0.012875355726365572 -0.001261188065825933 -0.008087391020311488
 0.9934945023619858 -0.061319186084552696 0.005311379289483849 0.025618838891502262 -0.0012614682760753804 -0.008087374923292511 0.0014686638314744234 0.01287606385436439
 0.0014741718245444937 0.012875355726365572 -0.0012614682760753804 -0.008087374923292511 0.005310137088699535 0.025620224652611084 0.9934945526668991 -0.0613179312081042
 -0.001261188065825933 -0.008087391020311488 0.0014686638314744234 0.01287606385436439 0.9934945526668991 -0.0613179312081042 0.005311434420586603 0.025620086214325037
0.100041684035 0.005694952399092364 0.027461095058782258 0.9929845087400767 -0.0655156222906745 0.0016438515207201 0.01373528938658853 -0.001404495431140204 -0.008630799948608247
 0.9929845087400767 -0.0655156222906745 0.0056964090508909515 0.027460913299044716 -0.0014048134002776279 -0.00863077953587314 0.0016375836081498846 0.013736114072505627
 0.0016438515207201 0.01373528938658853 -0.0014048134002776279 -0.00863077953587314 0.005694995760118 0.027462399909829686 0.9929845658031331 -0.06551428316882527
 -0.001404495431140204 -0.008630799948608247 0.0016375836081498846 0.013736114072505627 0.9929845658031331 -0.06551428316882527 0.005696470871352726 0.02746224266658007
0.1059090909091 0.006072734741042662 0.02920316535140727 0.9924841851816392 -0.06946544872063182 0.0018120652272945127 0.014541780451174206 -0.0015465917590949708 -0.009140510158539991
 0.9924841851816392 -0.06946544872063182 0.006074367072127312 0.029202961085883578 -0.0015469472408730606 -0.009140485170464582 0.001805039408931092 0.014542725660533452
 0.0018120652272945127 0.014541780451174206 -0.0015469472408730606 -0.009140485170464582 0.006072783195988799 0.02920454350859043 0.9924842489990537 -0.06946403041330654
 -0.0015465917590949708 -0.009140510158539991 0.001805039408931092 0.014542725660533452 0.9924842489990537 -0.06946403041330654 0.006074435434045442 0.029204367243479638
0.1062942892872 0.0060981058270354015 0.029317983212660374 0.9924505962339646 -0.0697251564722676 0.0018234144383033135 0.014594708291712161 -0.001556180001772489 -0.009173962471301646
 0.9924505962339646 -0.0697251564722676 0.006099750041531016 0.02931777741159397 -0.001556538016348072 -0.009173937164425147 0.0018163373455391397 0.014595661804578901
 0.0018234144383033135 0.014594708291712161 -0.001556538016348072 -0.009173937164425147 0.006098154626391766 0.029319366165777905 0.9924506605089353 -0.06972373296104199
 -0.001556180001772489 -0.009173962471301646 0.0018163373455391397 0.014595661804578901 0.9924506605089353 -0.06972373296104199 0.006099818841570803 0.029319188604091394
0.11254689453939999 0.006519849112892575 0.03118938121242759 0.9918924805815316 -0.07394758941670407 0.0020129332260179532 0.015453467417034199 -0.0017163164877429132 -0.009716735064737992
 0.9918924805815316 -0.07394758941670407 0.006521692255155584 0.031189149460000953 -0.0017167168166149366 -0.0097167042545555 0.002004997689160824 0.01545456268831063
 0.0020129332260179532 0.015453467417034199 -0.0017167168166149366 -0.0097167042545555 0.006519903674184236 0.031190841694125098 0.9918925525291554 -0.07394608136103034
 -0.0017163164877429132 -0.009716735064737992 0.002004997689160824 0.01545456268831063 0.9918925525291554 -0.07394608136103034 0.0065217683081118805 0.031190642242456084
0.11879949979160001 0.006960470016571608 0.0330750063879877 0.9913098792170525 -0.07818271166333311 0.00221247808816823 0.01631141864256593 -0.001884977095507992 -0.010258971753817682
 0.9913098792170525 -0.07818271166333311 0.006962523457831439 0.03307474670074773 -0.0018854219895861604 -0.010258934800413377 0.0022036348487185753 0.016312669271869022
 0.00221247808816823 0.01631141864256593 -0.0018854219895861604 -0.010258934800413377 0.006960530660785357 0.033076543797433966 0.9913099593055461 -0.07818111889463537
 -0.001884977095507992 -0.010258971753817682 0.0022036348487185753 0.016312669271869022 0.9913099593055461 -0.07818111889463537 0.006962607019742089 0.033076320825472426
0.1250521050438 0.0074202539618289905 0.03497457434022955 0.9907025114312191 -0.08243030424583786 0.0024221166907639952 0.017168410840703825 -0.002062231443073459 -0.010800524086132563
 0.9907025114312191 -0.08243030424583786 0.007422529079991535 0.03497428466040086 -0.0020627231350589695 -0.010800480318797389 0.0024123165042829217 0.017169831101376116
 0.0024221166907639952 0.017168410840703825 -0.0020627231350589695 -0.010800480318797389 0.007420321006816281 0.03497618804478077 0.9907026001366718 -0.08242862658647039
 -0.002062231443073459 -0.010800524086132563 0.0024123165042829217 0.017169831101376116 0.9907026001366718 -0.08242862658647039 0.007422620389373411 0.034975939862726575
0.131304710296 0.007899483921026894 0.036887798335180015 0.9900700985268841 -0.08669013929160628 0.0026419140683480694 0.018024289950917753 -0.002248146473859015 -0.011341241124669823
 0.9900700985268841 -0.08669013929160628 0.007901992101851862 0.03688747652959004 -0.0022486871779528426 -0.01134118984195834 0.0026311077136709337 0.018025894795369254
 0.0026419140683480694 0.018024289950917753 -0.0022486871779528426 -0.01134118984195834 0.007899557680684134 0.03688948767379827 0.9900701963339457 -0.08668837655145217
 -0.002248146473859015 -0.011341241124669823 0.0026311077136709337 0.018025894795369254 0.9900701963339457 -0.08668837655145217 0.00790209137914433 0.036889212531551
0.1375573155481 0.008288616791461917 0.0385637194957519 0.9895222303690524 -0.09071119965491191 0.002844303446133922 0.018853489190489077 -0.0024151704752956365 -0.011855566718941325
 0.9895222303690524 -0.09071119965491191 0.00829136916973401 0.0385633713015662 -0.002415763236540803 -0.011855507851079038 0.0028324621823082267 0.018855276370361208
 0.002844303446133922 0.018853489190489077 -0.002415763236540803 -0.011855507851079038 0.008288696672872301 0.038565484388804 0.9895223376944934 -0.09070935174069754
 -0.0024151704752956365 -0.011855566718941325 0.0028324621823082267 0.018855276370361208 0.9895223376944934 -0.09070935174069754 0.008291477663576286 0.03856518739616605
0.1438099208003 0.008691431127532593 0.04023075175763765 0.9889550985473731 -0.09472202681256464 0.003054873666736187 0.01967935607197159 -0.0025888836855958177 -0.012366848382668959
 0.9889550985473731 -0.09472202681256464 0.008694439030504738 0.04023037562940994 -0.0025895308417747728 -0.012366781245151304 0.003041952009815367 0.019681339324585795
 0.003054873666736187 0.01967935607197159 -0.0025895308417747728 -0.012366781245151304 0.008691517275997124 0.04023259157631314 0.9889552158736837 -0.09472009354218276
 -0.0025888836855958177 -0.012366848382668959 0.003041952009815367 0.019681339324585795 0.9889552158736837 -0.09472009354218276 0.008694557121539078 0.04023227147224308
0.1500625260525 0.00910778449981364 0.04188875455273804 0.9883688496806993 -0.09872252004154927 0.0032735522000163406 0.020501806584649385 -0.0027692156472046313 -0.012875006735206735
 0.9883688496806993 -0.09872252004154927 0.009111059254799627 0.04188834887270613 -0.0027699195284452767 -0.012874930616269833 0.003259504925279005 0.020504000152684873
 0.0032735522000163406 0.020501806584649385 -0.0027699195284452767 -0.012874930616269833 0.009107877046164618 0.04189066864489975 0.9883689774975035 -0.09872050122626126
 -0.0027692156472046313 -0.012875006735206735 0.003259504925279005 0.020504000152684873 0.9883689774975035 -0.09872050122626126 0.009111187318571043 0.04189032410468594
0.15631513130469998 0.009537533456889243 0.04353759156267585 0.9877636311484456 -0.10271257900073236 0.0035002656516346865 0.021320758139227642 -0.0029560950273955803 -0.013379964083605214
 0.9877636311484456 -0.10271257900073236 0.009541086391665404 0.043537154640342114 -0.002956857956136951 -0.01337987824438619 0.0034850477975262965 0.021323176765572164
