! Created with skrf 1.8.0 (http://scikit-rf.org).
# GHz S RI R 50.0 
!freq ReS11 ImS11 ReS12 ImS12 ReS13 ImS13
! ReS14 ImS14
! ReS21 ImS21 ReS22 ImS22 ReS23 ImS23
! ReS24 ImS24
! ReS31 ImS31 ReS32 ImS32 ReS33 ImS33
! ReS34 ImS34
! ReS41 ImS41 ReS42 ImS42 ReS43 ImS43
! ReS44 ImS44
!
0.0 0.001226954032272 0.0 0.9987730459395 0.0 4.662620350403e-05 0.0 -4.662620349299e-05 5.710063086408334e-21
 0.9987730459395 0.0 0.001226954032288 0.0 -4.662620349349e-05 5.710063086469567e-21 4.662620350471e-05 0.0
 4.662620350403e-05 0.0 -4.662620349349e-05 5.710063086469567e-21 0.001226954046403 0.0 0.9987730459536 0.0
 -4.662620349299e-05 5.710063086408334e-21 4.662620350471e-05 0.0 0.9987730459536 0.0 0.001226954046405 0.0
0.005 0.0013193176109182084 0.001007345494192632 0.998656318921502 -0.0025709392535383183 6.443602735628743e-05 0.0004950890284970653 -6.275992350578863e-05 -0.00031414306411944843
 0.998656318921502 -0.0025709392535383183 0.0013193267427634246 0.001007340125853284 -6.275808120780332e-05 -0.0003141416275336196 6.438444499238493e-05 0.0004951085896476991
 6.443602735628743e-05 0.0004950890284970653 -6.275808120780332e-05 -0.0003141416275336196 0.0013193189970520185 0.0010074119091493207 0.9986563192491517 -0.002570872188709878
 -6.275992350578863e-05 -0.00031414306411944843 6.438444499238493e-05 0.0004951085896476991 0.9986563192491517 -0.002570872188709878 0.0013193260089709898 0.0010074078382066413
0.006252605252188 0.0013433230426018314 0.0012631608823114357 0.9986258257986859 -0.0032143352326693465 6.940466272473886e-05 0.0006191231856671805 -6.721401544949381e-05 -0.00039309290539371833
 0.9986258257986859 -0.0032143352326693465 0.0013433373178150798 0.0012631540833378627 -6.721114880544121e-05 -0.00039309113291545266 6.932406806640774e-05 0.0006191485704641665
 6.940466272473886e-05 0.0006191231856671805 -6.721114880544121e-05 -0.00039309113291545266 0.0013433251412621765 0.00126324389428759 0.9986258262425086 -0.0032142514036473755
 -6.721401544949381e-05 -0.00039309290539371833 6.932406806640774e-05 0.0006191485704641665 0.9986258262425086 -0.0032142514036473755 0.001343336101927844 0.001263238724065478
0.01250521050438 0.0014684193159038817 0.002552991561919078 0.9984660414808295 -0.006429646813136205 9.726727186471405e-05 0.0012387266621839308 -9.194335700370258e-05 -0.0007882065897401912
 0.9984660414808295 -0.006429646813136205 0.0014684763227799306 0.0025529770661825804 -9.193206082381238e-05 -0.0007882032956621671 9.694583027751699e-05 0.0012387873603001683
 9.726727186471405e-05 0.0012387266621839308 -9.193206082381238e-05 -0.0007882032956621671 0.0014684271307861274 0.00255315726532662 0.9984660426842947 -0.006429479413082858
 -9.194335700370258e-05 -0.0007882065897401912 9.694583027751699e-05 0.0012387873603001683 0.9984660426842947 -0.006429479413082858 0.0014684708929054132 0.00255314611199015
0.01875781575657 0.001602470205771697 0.0038614598890537085 0.9982935272568951 -0.009653801941529625 0.0001302715784461878 0.0018592307464455997 -0.00012088015764370097 -0.0011848243986115794
 0.9982935272568951 -0.009653801941529625 0.001602598312743327 0.003861436713474313 -0.00012085496738116266 -0.0011848198724796317 0.00012954937650441677 0.0018593383090812557
 0.0001302715784461878 0.0018592307464455997 -0.00012085496738116266 -0.0011848198724796317 0.001602487359282956 0.0038617080959987386 0.9982935295474428 -0.009653551051221614
 -0.00012088015764370097 -0.0011848243986115794 0.00012954937650441677 0.0018593383090812557 0.9982935295474428 -0.009653551051221614 0.001602585685268206 0.0038616901099235213
0.02501042100875 0.0017456986578835779 0.005186787478680122 0.9981081121886548 -0.01288840863855817 0.0001684760368616737 0.0024806839036268864 -0.00015408898474608384 -0.0015827987020065784
 0.9981081121886548 -0.01288840863855817 0.0017459261816109564 0.005186754565873217 -0.00015404450047532285 -0.0015827932776826584 0.00016719301377937334 0.0024808514350830404
 0.0001684760368616737 0.0024806839036268864 -0.00015404450047532285 -0.0015827932776826584 0.0017457287607053242 0.005187117993432419 0.9981081158850635 -0.012888074303354766
 -0.00015408898474608384 -0.0015827987020065784 0.00016719301377937334 0.0024808514350830404 0.9981081158850635 -0.012888074303354766 0.0017459033626636474 0.005187092296356416
0.03126302626094 0.0018983180750147628 0.0065280823787581 0.9979096150932034 -0.016134183052005795 0.00021193977427078263 0.003103080616301677 -0.00019163303915800792 -0.001982032986148229
 0.9979096150932034 -0.016134183052005795 0.001898673294640023 0.006528038599050412 -0.00019156391425589797 -0.001982027042584005 0.00020993556485217053 0.0031033227826074536
 0.00021193977427078263 0.003103080616301677 -0.00019156391425589797 -0.001982027042584005 0.0018983647379898297 0.006528494981700228 0.9979096205163841 -0.016133765297783088
 -0.00019163303915800792 -0.001982032986148229 0.00020993556485217053 0.0031033227826074536 0.9979096205163841 -0.016133765297783088 0.0018986372885413253 0.006528460668654654
0.037515631513130004 0.0020605374296802695 0.007884780625136577 0.9976978497458756 -0.01939150785616904 0.00026072204483106704 0.0037263943890823267 -0.00023357459590424076 -0.002382448835264179
 0.9976978497458756 -0.01939150785616904 0.0020610485955793916 0.007884724777431979 -0.00023347553110324406 -0.0023824427967362163 0.00025783590373466315 0.003726727434577725
 0.00026072204483106704 0.0037263943890823267 -0.00023347553110324406 -0.0023824427967362163 0.0020606042632750955 0.007885275067555469 0.9976978572179335 -0.01939100669413055
 -0.00023357459590424076 -0.002382448835264179 0.00025783590373466315 0.003726727434577725 0.9976978572179335 -0.01939100669413055 0.0020609964034227304 0.00788523120817401
0.043768236765320004 0.0022325632440625956 0.009256476295760952 0.9974726269517884 -0.02266060214600741 0.0003148819782159441 0.0043505877879734586 -0.00027997517481983587 -0.002783975879599855
 0.9974726269517884 -0.02266060214600741 0.0022332585843494695 0.009256407108078367 -0.0002798409146645051 -0.00278397021581368 0.00031095273860127565 0.004351029554361466
 0.0003148819782159441 0.0043505877879734586 -0.0002798409146645051 -0.00278397021581368 0.002232653857709992 0.009257052302454844 0.9974726367954473 -0.02266001756965769
 -0.00027997517481983587 -0.002783975879599855 0.00031095273860127565 0.004351029554361466 0.9974726367954473 -0.02266001756965769 0.0022331872024156257 0.009256997942049462
0.050020842017509996 0.002414600518980337 0.01064285129397534 0.9972337555683453 -0.025941591600160133 0.00037447843671644846 0.0049756165800060705 -0.0003308956102839832 -0.0031865476437885868
 0.9972337555683453 -0.025941591600160133 0.002415508244837245 0.010642767423684077 -0.00033072094081967407 -0.003186542869924204 0.0003693444871720568 0.00497618652646779
 0.00037447843671644846 0.0049756165800060705 -0.00033072094081967407 -0.003186542869924204 0.002414718522316042 0.010643508548575289 0.9972337681084557 -0.025940923599485338
 -0.0003308956102839832 -0.0031865476437885868 0.0003693444871720568 0.00497618652646779 0.9972337681084557 -0.025940923599485338 0.0024154146651911446 0.010643442709020123
0.055454545454549996 0.002581085391769782 0.011859367999654322 0.9970149352936387 -0.028802584083485024 0.00043073013051017823 0.005519426020489416 -0.0003788644401364565 -0.0035371929333869157
 0.9970149352936387 -0.028802584083485024 0.0025822005881299603 0.01185927022464508 -0.0003786504503182583 -0.003537189386622571 0.0004244176487873126 0.005520124434309029
 0.00043073013051017823 0.005519426020489416 -0.0003786504503182583 -0.003537189386622571 0.002581230127409874 0.011860095580969263 0.9970149504411748 -0.028801843564617242
 -0.0003788644401364565 -0.0035371929333869157 0.0004244176487873126 0.005520124434309029 0.9970149504411748 -0.028801843564617242 0.0025820852706527025 0.011860018953690352
0.056273447269699996 0.002606853224661402 0.012043640856457 0.9969810430919652 -0.02923454291891931 0.00043956991779932846 0.005601431762519285 -0.00038639607846801 -0.003590099506412477
 0.9969810430919652 -0.02923454291891931 0.0026080015347141 0.01204354089048259 -0.0003861758255354753 -0.003590096183152194 0.0004330691901974334 0.005602150986378992
 0.00043956991779932846 0.005601431762519285 -0.0003861758255354753 -0.003590096183152194 0.0026070022255023353 0.012044379012436232 0.9969810586539206 -0.029233791468915447
 -0.00038639607846801 -0.003590099506412477 0.0004330691901974334 0.005602150986378992 0.9969810586539206 -0.029233791468915447 0.0026078827437070987 0.012044300692937852
0.06252605252188 0.0028095245752126664 0.013458614615108593 0.9967142960300543 -0.03253948270848681 0.0005102144814621028 0.006227980674385143 -0.0004465361006936021 -0.00399456757866558
 0.9967142960300543 -0.03253948270848681 0.0028109416600773022 0.013458497069892598 -0.00044626512887243957 -0.003994566312194852 0.0005021844458576229 0.0062288719320989505
 0.0005102144814621028 0.006227980674385143 -0.00044626512887243957 -0.003994566312194852 0.0028097081808512504 0.013459433286349281 0.9967143149414228 -0.03253864777814311
 -0.0004465361006936021 -0.00399456757866558 0.0005021844458576229 0.0062288719320989505 0.9967143149414228 -0.03253864777814311 0.0028107946386651695 0.013459341464177339
0.06877865777407 0.003022817188813357 0.014887565290523002 0.9964333201613439 -0.03585640873444681 0.0005864696892699424 0.006855207658568588 -0.0005113745353453436 -0.004399888032867079
 0.9964333201613439 -0.03585640873444681 0.0030245312348544957 0.01488742861204185 -0.0005110477470365082 -0.004399889474880397 0.0005767473538398296 0.00685629538687746
 0.0005864696892699424 0.006855207658568588 -0.0005110477470365082 -0.004399889474880397 0.0030230390054463746 0.014888464054415766 0.9964333427515003 -0.0358554902831254
 -0.0005113745353453436 -0.004399888032867079 0.0005767473538398296 0.00685629538687746 0.9964333427515003 -0.0358554902831254 0.0030243529587782457 0.014888357685474182
0.07503126302626001 0.0032469331787929536 0.016330301523669453 0.996137920728045 -0.039185297038110974 0.0006683925519124142 0.007483054476794556 -0.0005809695608521299 -0.004805996680200703
 0.996137920728045 -0.039185297038110974 0.0032489723721966946 0.01633014408716911 -0.0005805818957234714 -0.004806001527886304 0.0006568144665609629 0.007484364813944018
 0.0006683925519124142 0.007483054476794556 -0.0005805818957234714 -0.004806001527886304 0.0032471968113537667 0.016331279921703336 0.9961379473287633 -0.03918429501443121
 -0.0005809695608521299 -0.004805996680200703 0.0006568144665609629 0.007484364813944018 0.9961379473287633 -0.03918429501443121 0.003248759811301702 0.016331157941070307
0.08128386827845 0.0034820742026268497 0.017786643116161762 0.9958279025888207 -0.04252610664538445 0.0007560394808184793 0.008111460588700044 -0.0006553786542465381 -0.0052128286852926465
 0.9958279025888207 -0.04252610664538445 0.0034844667328363774 0.017786463225963382 -0.0006549250887523524 -0.005212837681327753 0.0007424417434952007 0.008113021395733569
 0.0007560394808184793 0.008111460588700044 -0.0006549250887523524 -0.005212837681327753 0.003482383254489064 0.017787700648778423 0.9958279335345319 -0.042525020991952725
 -0.0006553786542465381 -0.0052128286852926465 0.0007424417434952007 0.008113021395733569 0.9958279335345319 -0.042525020991952725 0.0034842168513278308 0.01778756197114833
0.08753647353064001 0.003728441482345408 0.019256417720384614 0.9955030703445874 -0.04587878282729148 0.0008494662432930573 0.008740363340383391 -0.0007346585654237296 -0.005620318372918358
 0.9955030703445874 -0.04587878282729148 0.003731215545788336 0.019256213609544763 -0.0007341341124723295 -0.005620332305447779 0.0008336845086334638 0.008742204222407226
 0.0008494662432930573 0.008740363340383391 -0.0007341341124723295 -0.005620332305447779 0.0037287995545841543 0.019257553849218283 0.9955031059722013 -0.04587761347801403
 -0.0007346585654237296 -0.005620318372918358 0.0008336845086334638 0.008742204222407226 0.9955031059722013 -0.04587761347801403 0.003730925301685554 0.019257397369251382
0.09378907878283 0.003986235806335452 0.020739458488040093 0.9951632284477823 -0.04924325940366555 0.0009487279190921714 0.00936969810175225 -0.0008188652892856976 -0.0060283990873975495
 0.9951632284477823 -0.04924325940366555 0.003989419610128442 0.02073922831787776 -0.0008182649980558595 -0.006028418790012223 0.0009305974088326676 0.009371850429176517
 0.0009487279190921714 0.00936969810175225 -0.0008182649980558595 -0.006028418790012223 0.00398664649776393 0.02074067263308233 0.9951632690972071 -0.049242006286019956
 -0.0008188652892856976 -0.0060283990873975495 0.0009305974088326676 0.009371850429176517 0.9951632690972071 -0.049242006286019956 0.003989085955309729 0.02074049722566758
0.100041684035 0.0042556575168453785 0.02223560232907178 0.9948081812993803 -0.052619460437931455 0.0010538788585767772 0.009999398366030676 -0.0009080540356158481 -0.006437003091436052
 0.9948081812993803 -0.052619460437931455 0.004259279282107818 0.022235344188701583 -0.0009073729913711775 -0.006437029443155402 0.0010332343735485199 0.010001895295743154
 0.0010538788585767772 0.009999398366030676 -0.0009073729913711775 -0.006437029443155402 0.00425612442344531 0.022236893874420714 0.994808227313848 -0.05261812346686125
 -0.0009080540356158481 -0.006437003091436052 0.0010332343735485199 0.010001895295743154 0.994808227313848 -0.05261812346686125 0.004258899162386139 0.022236698394844583
0.1059090909091 0.0045192342487549355 0.023651348631223812 0.9944610039944405 -0.055798255165912386 0.0011579558213756596 0.010590576872390284 -0.0009963277726298763 -0.00682084918335683
 0.9944610039944405 -0.055798255165912386 0.004523292677259244 0.02365106244091749 -0.0009955665124826453 -0.006820882614441682 0.001134801627595296 0.010593428940529753
 0.0011579558213756596 0.010590576872390284 -0.0009955665124826453 -0.006820882614441682 0.004519757175031931 0.023652712208140053 0.9944610553586254 -0.05579683942663773
 -0.0009963277726298763 -0.00682084918335683 0.001134801627595296 0.010593428940529753 0.9944610553586254 -0.05579683942663773 0.004522866171497439 0.023652496834491037
0.1062942892872 0.004536906487506737 0.02374468862161293 0.9944377333374856 -0.05600730148273789 0.001164972641511656 0.010629395824643742 -0.0010022791974702437 -0.006846061491230472
 0.9944377333374856 -0.05600730148273789 0.004540994453449842 0.023744400527253875 -0.0010015125215447063 -0.006846095416457782 0.0011416485749270206 0.010632272321099413
 0.001164972641511656 0.010629395824643742 -0.0010015125215447063 -0.006846095416457782 0.004537433202167629 0.023746056906051353 0.9944377850636329 -0.05600588056959934
 -0.0010022791974702437 -0.006846061491230472 0.0011416485749270206 0.010632272321099413 0.9944377850636329 -0.05600588056959934 0.004540564808080245 0.02374584019008733
0.11254689453939999 0.004830182093583662 0.025266558199792285 0.9940516891204715 -0.059406690549554705 0.001282062036646589 0.011259620426144383 -0.001101594318184434 -0.007255504179202452
 0.9940516891204715 -0.059406690549554705 0.004834764520586888 0.025266238094107808 -0.001100737167895998 -0.007255546647696509 0.0012558923885140727 0.011262913282388829
 0.001282062036646589 0.011259620426144383 -0.001100737167895998 -0.007255546647696509 0.004830772205372937 0.02526800252351844 0.9940517469087327 -0.05940518559494281
 -0.001101594318184434 -0.007255504179202452 0.0012558923885140727 0.011262913282388829 0.9940517469087327 -0.05940518559494281 0.004834282282448902 0.02526776338740301
0.11879949979160001 0.005135683175677569 0.02680105257887493 0.9936498534061121 -0.06281752884283125 0.0014051989611647544 0.011890000422114941 -0.0012060520575512194 -0.007665259791566552
 0.9936498534061121 -0.06281752884283125 0.005140788349152952 0.026800698330120623 -0.0012050996262558606 -0.007665311818403397 0.0013760173539004586 0.011893748280624247
 0.0014051989611647544 0.011890000422114941 -0.0012050996262558606 -0.007665311818403397 0.0051363402697355495 0.026802572197891908 0.9936499176107558 -0.06281593974171677
 -0.0012060520575512194 -0.007665259791566552 0.0013760173539004586 0.011893748280624247 0.9936499176107558 -0.06281593974171677 0.005140250444744319 0.026802309438213195
0.1250521050438 0.005453607998913242 0.02834801333592926 0.9932320312267843 -0.06623971134050252 0.001534434440805934 0.012520462405909785 -0.001315704156885402 -0.008075255674763996
 0.9932320312267843 -0.06623971134050252 0.005459264232921304 0.028347622737071653 -0.0013146516740504895 -0.008075318320281522 0.0015020741355599781 0.012524705779394225
 0.001534434440805934 0.012520462405909785 -0.0013146516740504895 -0.008075318320281522 0.005454335655627105 0.028349607465254775 0.9932321022065421 -0.06623803797872038
 -0.001315704156885402 -0.008075255674763996 0.0015020741355599781 0.012524705779394225 0.9932321022065421 -0.06623803797872038 0.005458667581804403 0.028349319858726806
0.131304710296 0.005784154207990638 0.02990728161001468 0.9927980279636183 -0.06967312725734594 0.0016698185697179935 0.013150931343439167 -0.0014306014034684313 -0.008485417861776364
 0.9927980279636183 -0.06967312725734594 0.005790389848862315 0.02990685237765358 -0.001429444134731154 -0.00848549223153202 0.0016341124837798203 0.013155712635375325
 0.0016698185697179935 0.013150931343439167 -0.001429444134731154 -0.00848549223153202 0.005784956002863057 0.029908949422552716 0.9927981060815783 -0.06967136951225632
 -0.0014306014034684313 -0.008485417861776364 0.0016341124837798203 0.013155712635375325 0.9927981060815783 -0.06967136951225632 0.0057897313642237954 0.029908635725682767
0.1375573155481 0.006044525387445094 0.03127557652572422 0.9924306636840818 -0.0729144842144272 0.001792466155867665 0.013760566710277504 -0.0015319050891652594 -0.008874886800322434
 0.9924306636840818 -0.0729144842144272 0.006051369958032881 0.031275114263580504 -0.0015306360259597274 -0.008874972785911662 0.001753332968316453 0.01376587307379151
 0.001792466155867665 0.013760566710277504 -0.0015306360259597274 -0.008874972785911662 0.006045404363223372 0.03127731730687461 0.9924307492623752 -0.07291264202901274
 -0.0015319050891652594 -0.008874886800322434 0.001753332968316453 0.01376587307379151 0.9924307492623752 -0.07291264202901274 0.0060506471577624526 0.031276984042751275
0.1438099208003 0.006313802776874769 0.032637837702000794 0.9920508434024158 -0.07614880002609924 0.001920065291118928 0.014368369532715242 -0.0016372666469571943 -0.00926268361941438
 0.9920508434024158 -0.07614880002609924 0.006321284834923333 0.03263734060858911 -0.0016358806970137934 -0.009262782288950193 0.0018773529705110236 0.014374239138450899
 0.001920065291118928 0.014368369532715242 -0.0016358806970137934 -0.009262782288950193 0.006314762405716502 0.03263965060337434 0.9920509368022676 -0.07614687328377256
 -0.0016372666469571943 -0.00926268361941438 0.0018773529705110236 0.014374239138450899 0.9920509368022676 -0.07614687328377256 0.006320494732306356 0.03263929702953679
0.1500625260525 0.006591905760226343 0.03399398599000886 0.9916586505585556 -0.07937602948947407 0.002052580150126375 0.01497429911439726 -0.0017466514571845909 -0.009648769390697441
 0.9916586505585556 -0.07937602948947407 0.006600053899361603 0.03399345217109222 -0.001745143535395981 -0.00964888185481375 0.002006137338245048 0.014980771514647391
 0.002052580150126375 0.01497429911439726 -0.001745143535395981 -0.00964888185481375 0.006592949503057973 0.03399587013091875 0.9916587521448701 -0.0793740180672834
 -0.0017466514571845909 -0.009648769390697441 0.002006137338245048 0.014980771514647391 0.9916587521448701 -0.0793740180672834 0.006599193508380488 0.03399549545444716
0.15631513130469998 0.0068787533156037806 0.03534394483816575 0.9912541688313128 -0.0825961269134206 0.00218997458208032 0.015578315312924012 -0.001860024563631485 -0.010033105915755685
