! Created with skrf 1.8.0 (http://scikit-rf.org).
# GHz S RI R 50.0 
!freq ReS11 ImS11 ReS12 ImS12 ReS13 ImS13
! ReS14 ImS14
! ReS21 ImS21 ReS22 ImS22 ReS23 ImS23
! ReS24 ImS24
! ReS31 ImS31 ReS32 ImS32 ReS33 ImS33
! ReS34 ImS34
! ReS41 ImS41 ReS42 ImS42 ReS43 ImS43
! ReS44 ImS44
!
0.0 0.001350858444642 0.0 0.9986491415546 0.0 5.169841589592e-05 0.0 -5.169841671708e-05 6.331230055355804e-21
 0.9986491415546 0.0 0.001350858444609 0.0 -5.169841671658e-05 6.331230055294571e-21 5.16984158946e-05 0.0
 5.169841589592e-05 0.0 -5.169841671658e-05 6.331230055294571e-21 0.001350858444621 0.0 0.9986491415546 0.0
 -5.169841671708e-05 6.331230055355804e-21 5.16984158946e-05 0.0 0.9986491415546 0.0 0.00135085844462 0.0
0.005 0.0014529016031586076 0.001107008217875164 0.9985201352746244 -0.002830234344342279 7.188281695686164e-05 0.0005602961895029864 -6.99394872966275e-05 -0.0003534003825659411
 0.9985201352746244 -0.002830234344342279 0.0014529007373372481 0.0011070087805437096 -6.993974453339682e-05 -0.00035340063198858833 7.188236956625347e-05 0.0005602963133541052
 7.188281695686164e-05 0.0005602961895029864 -6.993974453339682e-05 -0.00035340063198858833 0.0014529015424044462 0.0011070755673690089 0.9985201356141314 -0.0028301672730216827
 -6.99394872966275e-05 -0.0003534003825659411 7.188236956625347e-05 0.0005602963133541052 0.9985201356141314 -0.0028301672730216827 0.0014529014785178652 0.001107075576880438
0.006252605252188 0.0014795190321900678 0.0013881283103971574 0.998486298142846 -0.00353850723272413 7.75601112440436e-05 0.0007006556707043124 -7.502028409080436e-05 -0.00044221362341878285
 0.998486298142846 -0.00353850723272413 0.0014795176783370758 0.0013881290369458267 -7.502068396510795e-05 -0.000442213932103989 7.755941173253405e-05 0.0007006558386129933
 7.75601112440436e-05 0.0007006556707043124 -7.502068396510795e-05 -0.000442213932103989 0.0014795188589424222 0.001388212471962508 0.9984862985955458 -0.0035384234253973425
 -7.502028409080436e-05 -0.00044221362341878285 7.755941173253405e-05 0.0007006558386129933 0.9984862985955458 -0.0035384234253973425 0.001479518759476642 0.0013882124966371262
0.01250521050438 0.0016187922619250417 0.0028054944890215936 0.9983082026999117 -0.007077948656790915 0.00010964697688564144 0.001401754108663221 -0.00010347588254722536 -0.0008866536711704731
 0.9983082026999117 -0.007077948656790915 0.0016187868483077505 0.002805496183481046 -0.00010347745349321627 -0.0008866542555529771 0.00010964417161143246 0.0014017545798852375
 0.00010964697688564144 0.001401754108663221 -0.00010347745349321627 -0.0008866542555529771 0.001618791022339501 0.002805662657976685 0.9983082039656311 -0.0070777812744182945
 -0.00010347588254722536 -0.0008866536711704731 0.00010964417161143246 0.0014017545798852375 0.9983082039656311 -0.0070777812744182945 0.001618790630573528 0.0028056628357529013
0.01875781575657 0.0017689519748300556 0.004243236301840179 0.998114655448038 -0.010626967870812545 0.00014802918910424096 0.0021037733553132564 -0.00013714614665264212 -0.0013327118867095043
 0.998114655448038 -0.010626967870812545 0.001768939793872003 0.004243239234978731 -0.00013714964309258159 -0.0013327127097649998 0.000148022849799886 0.0021037742811836208
 0.00014802918910424096 0.0021037733553132564 -0.00013714964309258159 -0.0013327127097649998 0.0017689487553606165 0.0042434884601728 0.9981146578692632 -0.010626717043310816
 -0.00013714614665264212 -0.0013327118867095043 0.000148022849799886 0.0021037742811836208 0.9981146578692632 -0.010626717043310816 0.0017689478850382362 0.004243488923937614
0.02501042100875 0.0019302655176630871 0.005699376794742216 0.997905449557464 -0.01418731599288688 0.0001927777784927984 0.002806760037140775 -0.00017610993734985312 -0.0017802075540293465
 0.997905449557464 -0.01418731599288688 0.0019302438576884484 0.005699381266551413 -0.0001761161025408469 -0.0017802085738149785 0.0001927664533611325 0.0028067615867459613
 0.0001927777784927984 0.002806760037140775 -0.0001761161025408469 -0.0017802085738149785 0.0019302594059580898 0.0056997130019465925 0.9979054534809889 -0.014186981806134558
 -0.00017610993734985312 -0.0017802075540293465 0.0001927664533611325 0.0028067615867459613 0.9979054534809889 -0.014186981806134558 0.0019302578768616808 0.005699713889341139
0.03126302626094 0.0021029890425891926 0.007172914429409577 0.9976803666098946 -0.017759761491619053 0.00024396435180873446 0.003510697911731134 -0.0002204442283591737 -0.002229018953774626
 0.9976803666098946 -0.017759761491619053 0.002102955187211865 0.007172920769479066 -0.0002204537962953754 -0.002229020123339409 0.00024394656463671467 0.0035107002727708357
 0.00024396435180873446 0.003510697911731134 -0.0002204537962953754 -0.002229020123339409 0.0021029791202078893 0.0071733347832219204 0.997680372379659 -0.017759344026720837
 -0.0002204442283591737 -0.002229018953774626 0.00024394656463671467 0.0035107002727708357 0.997680372379659 -0.017759344026720837 0.0021029767582870177 0.00717333623687457
0.037515631513130004 0.0022873733442742746 0.008663208166617222 0.9974391825708485 -0.021344705048478452 0.00030166044903742593 0.004215546152681246 -0.0002702246575153089 -0.0026790450709636604
 0.9974391825708485 -0.021344705048478452 0.002287324572285658 0.008663216734573815 -0.00027023835397172775 -0.002679046338355484 0.00030163469832440205 0.004215549532181814
 0.00030166044903742593 0.004215546152681246 -0.00027023835397172775 -0.002679046338355484 0.0022873586872718555 0.00866371280387479 0.9974391905278261 -0.021344204381096212
 -0.0002702246575153089 -0.0026790450709636604 0.00030163469832440205 0.004215549532181814 0.9974391905278261 -0.021344204381096212 0.0022873553244758503 0.008663714971458007
0.043768236765320004 0.002483666124507512 0.010169790358572295 0.9971816701902791 -0.024942366604412132 0.0003659372437478543 0.0049212509923267315 -0.0003255257334545997 -0.003130193943216218
 0.9971816701902791 -0.024942366604412132 0.0024835997099543093 0.01016980154444738 -0.0003255442766338079 -0.0031301952514945796 0.0003659020020634652 0.004921255617345555
 0.0003659372437478543 0.0049212509923267315 -0.0003255442766338079 -0.0031301952514945796 0.002483645806740194 0.010170379442401543 0.9971816806755005 -0.024941782817563193
 -0.0003255257334545997 -0.003130193943216218 0.0003659020020634652 0.004921255617345555 0.9971816806755005 -0.024941782817563193 0.002483641280972762 0.01017038247670002
0.050020842017509996 0.002692113051624237 0.01169228940292047 0.9969076002001562 -0.0285528626424369 0.00043686536867263716 0.005627750522782132 -0.00038642091588328897 -0.003582377851037793
 0.9969076002001562 -0.0285528626424369 0.0026920262643326943 0.011692303627622915 -0.00038644501686028283 -0.0035823791383259155 0.0004368190818126353 0.0056277566411367915
 0.00043686536867263716 0.005627750522782132 -0.00038644501686028283 -0.0035823791383259155 0.002692086141745963 0.011692963129742152 0.9969076135510327 -0.028552195819819774
 -0.00038642091588328897 -0.003582377851037793 0.0004368190818126353 0.0056277566411367915 0.9969076135510327 -0.028552195819819774 0.0026920802971566954 0.011692967188589276
0.055454545454549996 0.0028833200793331663 0.013028069112306508 0.9966557992024364 -0.031700957038167325 0.0005039601120121519 0.00624231295565883 -0.00044394005716877165 -0.003976113254717213
 0.9966557992024364 -0.031700957038167325 0.00288321336716613 0.01302808634386497 -0.00044396956024752665 -0.003976114469690042 0.0005039029432024137 0.006242320589668044
 0.0005039601120121519 0.00624231295565883 -0.00044396956024752665 -0.003976114469690042 0.0028832866824880614 0.013028816578336013 0.9966558153167188 -0.03170021812694605
 -0.00044394005716877165 -0.003976113254717213 0.0005039029432024137 0.006242320589668044 0.9966558153167188 -0.03170021812694605 0.0028832795699562834 0.013028821659726231
0.056273447269699996 0.002912958310640186 0.013230391789429441 0.9966167420042108 -0.03217624407786571 0.000514514793520802 0.006334977052704778 -0.00045298264193548203 -0.004035510953715341
 0.9966167420042108 -0.03217624407786571 0.0029128484163545654 0.013230409505057397 -0.0004530130049943441 -0.00403551215321786 0.000514455879991857 0.00633498493366777
 0.000514514793520802 0.006334977052704778 -0.0004530130049943441 -0.00403551215321786 0.002912923874967441 0.013231150384101045 0.9966167585568955 -0.03217549430871458
 -0.00045298264193548203 -0.004035510953715341 0.000514455879991857 0.00633498493366777 0.9966167585568955 -0.03217549430871458 0.0029129165618121855 0.013231155630482648
0.06252605252188 0.0031464449119918353 0.01478382122776943 0.9963088641302735 -0.03581251706810309 0.0005989547303474452 0.007042858397970937 -0.000525282323916203 -0.004489507992930773
 0.9963088641302735 -0.03581251706810309 0.003146309172906097 0.014783842918085334 -0.0005253196467875892 -0.004489509032977859 0.0005988815805527531 0.007042868333024769
 0.0005989547303474452 0.007042858397970937 -0.0005253196467875892 -0.004489509032977859 0.003146402012823581 0.014784664948295017 0.9963088842173579 -0.03581168444267031
 -0.000525282323916203 -0.004489507992930773 0.0005988815805527531 0.007042868333024769 0.9963088842173579 -0.03581168444267031 0.003146393087751994 0.01478467155030858
0.06877865777407 0.0033928148601339594 0.016352326207308476 0.9959837345434551 -0.03946165539223374 0.0006902535532065447 0.007751318652589464 -0.0006033903311935178 -0.004944283518164678
 0.9959837345434551 -0.03946165539223374 0.0033926505350472466 0.016352352388146467 -0.0006034353052513297 -0.00494428432225161 0.0006901645287357226 0.007751330956165004
 0.0006902535532065447 0.007751318652589464 -0.0006034353052513297 -0.00494428432225161 0.003392762557958935 0.016353255336749598 0.9959837584955382 -0.039460740010042045
 -0.0006033903311935178 -0.004944283518164678 0.0006901645287357226 0.007751330956165004 0.9959837584955382 -0.039460740010042045 0.0033927518839526488 0.016353263467579118
0.07503126302626001 0.0036523092457344396 0.017935672102602638 0.9956411208870354 -0.04312360828676752 0.0007884787266122559 0.008460278675997659 -0.0006873759619257969 -0.005399751397860756
 0.9956411208870354 -0.04312360828676752 0.0036521135910259264 0.01793570332223135 -0.000687429272394436 -0.005399751884680862 0.0007883721596957525 0.00846029368624343
 0.0007884787266122559 0.008460278675997659 -0.000687429272394436 -0.005399751884680862 0.003652246599582739 0.017936686952503993 0.9956411490324397 -0.043122610253196456
 -0.0006873759619257969 -0.005399751397860756 0.0007883721596957525 0.00846029368624343 0.9956411490324397 -0.043122610253196456 0.0036522340461976957 0.017936696790522334
0.08128386827845 0.0039251682898770075 0.019533635925988377 0.995280790676751 -0.04679830563663863 0.0008936967398414857 0.009169656416651874 -0.0007773074079912445 -0.005855824496618244
 0.995280790676751 -0.04679830563663863 0.00392493855951887 0.019533672765466106 -0.0007773697340444519 -0.005855824580096141 0.0008935709324867721 0.009169674496213363
 0.0008936967398414857 0.009169656416651874 -0.0007773697340444519 -0.005855824580096141 0.003925094356844381 0.01953473683730373 0.995280823340272 -0.046797225062142254
 -0.0007773074079912445 -0.005855824496618244 0.0008935709324867721 0.009169674496213363 0.995280823340272 -0.046797225062142254 0.003925079800160187 0.01953474856595533
0.08753647353064001 0.0042116313512387425 0.021146002692058227 0.9949025114615815 -0.0504856615566031 0.0010059730436072962 0.009879367138320282 -0.0008732517159500951 -0.006312414452078948
 0.9949025114615815 -0.0504856615566031 0.004211364797841431 0.021146045765693545 -0.0008733237308801511 -0.00631241404140738 0.0010058262670213924 0.009879388675155516
 0.0010059730436072962 0.009879367138320282 -0.0008733237308801511 -0.00631241404140738 0.004211545187920729 0.021147190035356395 0.9949025489654124 -0.05048449855665912
 -0.0008732517159500951 -0.006312414452078948 0.0010058262670213924 0.009879388675155516 0.9949025489654124 -0.05048449855665912 0.0042115285107916355 0.021147203843204492
0.09378907878283 0.004511936914647318 0.022772562820547022 0.9945060509676231 -0.05418557693716162 0.0011253719899288993 0.010589323581915687 -0.0009752747439609335 -0.006769431518839088
 0.9945060509676231 -0.05418557693716162 0.004511630789570054 0.022772612776207162 -0.0009753571152415611 -0.0067694305185114125 0.0011252024837862657 0.010589348990114787
 0.0011253719899288993 0.010589323581915687 -0.0009753571152415611 -0.0067694305185114125 0.004511837576878604 0.02277383699350515 0.9945060936301379 -0.05418433163471491
 -0.0009752747439609335 -0.006769431518839088 0.0011252024837862657 0.010589348990114787 0.9945060936301379 -0.05418433163471491 0.004511818669031462 0.022773853074280266
0.100041684035 0.0048263225610519185 0.024413110234405278 0.994091177226249 -0.057897941297831775 0.0012519567726492523 0.011299436085918366 -0.0010834411168059708 -0.007226784456348742
 0.994091177226249 -0.057897941297831775 0.0048259741152501985 0.02441316775391106 -0.0010835345062210947 -0.0072267827661982795 0.001251762744350245 0.011299465806567714
 0.0012519567726492523 0.011299436085918366 -0.0010835345062210947 -0.0072267827661982795 0.00482620910528426 0.02441447166378951 0.9940912253628865 -0.05789661382152015
 -0.0010834411168059708 -0.007226784456348742 0.001251762744350245 0.011299465806567714 0.9940912253628865 -0.05789661382152015 0.004826187863348443 0.024414490216277115
0.1059090909091 0.005134356632127199 0.02596512950843892 0.9936849093148044 -0.06139281653881705 0.0013773338292485688 0.011965861393646124 -0.0011905875331022508 -0.007656184490472396
 0.9936849093148044 -0.06139281653881705 0.0051339659727691785 0.02596519477647298 -0.0011906918587594561 -0.00765618205775916 0.0013771151298142196 0.011965895587011234
 0.0013773338292485688 0.011965861393646124 -0.0011906918587594561 -0.00765618205775916 0.0051342290704670295 0.0259665732282359 0.9936849628719009 -0.06139141207763089
 -0.0011905875331022508 -0.007656184490472396 0.0013771151298142196 0.011965895587011234 0.9936849628719009 -0.06139141207763089 0.005134205550563008 0.025966594285529537
0.1062942892872 0.005155024926179269 0.026067440921151538 0.993657658693707 -0.06162263418032366 0.0013857893693203578 0.01200961267985061 -0.0011978141785180358 -0.007684380446523071
 0.993657658693707 -0.06162263418032366 0.005154631410808629 0.026067506720637346 -0.0011979192422420495 -0.007684377961742518 0.0013855689933283965 0.012009647181849823
 0.0013857893693203578 0.01200961267985061 -0.0011979192422420495 -0.007684377961742518 0.005154896409488033 0.026068890059205048 0.9936577126162507 -0.061621224668052324
 -0.0011978141785180358 -0.007684380446523071 0.0013855689933283965 0.012009647181849823 0.9936577126162507 -0.061621224668052324 0.005154872737269764 0.026068911287317958
0.11254689453939999 0.005498279651082783 0.0277353518369194 0.9932052643643433 -0.0653595262019565 0.0015269304833847935 0.01271975915809956 -0.0013184559438067151 -0.008142125033676215
 0.9932052643643433 -0.0653595262019565 0.0054978383179566095 0.027735426667176506 -0.0013185733324579765 -0.00814212164485571 0.0015266819005070643 0.01271979893912391
 0.0015269304833847935 0.01271975915809956 -0.0013185733324579765 -0.00814212164485571 0.005498135131381103 0.027736889166656127 0.9932053243803088 -0.06535803479565742
 -0.0013184559438067151 -0.008142125033676215 0.0015266819005070643 0.01271979893912391 0.9932053243803088 -0.06535803479565742 0.005498108939950933 0.027736913279379143
0.11879949979160001 0.0058563213232824315 0.02941664004976909 0.992733763877222 -0.06910847987311988 0.0016754394869789952 0.013429779139001435 -0.001445427047906046 -0.008599922082178703
 0.992733763877222 -0.06910847987311988 0.005855829425660123 0.029416724696599117 -0.0014455574066716825 -0.00859991767534009 0.0016751608036066291 0.013429824726348178
 0.0016754394869789952 0.013429779139001435 -0.0014455574066716825 -0.00859991767534009 0.005856159860714081 0.02941826608310168 0.9927338302904489 -0.06910690672065116
 -0.001445427047906046 -0.008599922082178703 0.0016751608036066291 0.013429824726348178 0.9927338302904489 -0.06910690672065116 0.005856131068374106 0.029418293294508995
0.1250521050438 0.006229383414589271 0.03111110206191456 0.9922429276215059 -0.07286935023904703 0.001831374363827784 0.014139574116113022 -0.0015787866955163461 -0.009057673744727986
 0.9922429276215059 -0.07286935023904703 0.006228838207806048 0.031111197346486714 -0.001578930664164643 -0.00905766820134818 0.0018310636512791825 0.014139626067678459
 0.001831374363827784 0.014139574116113022 -0.001578930664164643 -0.00905766820134818 0.006229204071447034 0.03111281733853073 0.992243000731466 -0.0728676954952783
 -0.0015787866955163461 -0.009057673744727986 0.0018310636512791825 0.014139626067678459 0.992243000731466 -0.0728676954952783 0.006229172604200341 0.031112847867762663
0.131304710296 0.006617698212703914 0.032818533266246216 0.9917325268379763 -0.07664198539085347 0.0019947916522449686 0.014849043501641256 -0.0017185926089031262 -0.009515280441536229
 0.9917325268379763 -0.07664198539085347 0.006617096954871949 0.0328186400453608 -0.001718750821889302 -0.009515273638568177 0.0019944469460024296 0.014849102406873125
 0.0019947916522449686 0.014849043501641256 -0.001718750821889302 -0.009515273638568177 0.006617500054181205 0.03282033835252128 0.9917326069396588 -0.07664024921878289
 -0.0017185926089031262 -0.009515280441536229 0.0019944469460024296 0.014849102406873125 0.9917326069396588 -0.07664024921878289 0.006617465845669215 0.03282037242376199
0.1375573155481 0.006927806000659081 0.03431615157895979 0.9912960528108355 -0.08020357104784069 0.002143758513452753 0.015535442870191185 -0.0018429161918418983 -0.009950008748193786
 0.9912960528108355 -0.08020357104784069 0.006927147049269547 0.03431626865032183 -0.0018430897366965705 -0.009950000698404949 0.0021433803168028082 0.015535508593383953
 0.002143758513452753 0.015535442870191185 -0.0018430897366965705 -0.009950000698404949 0.006927588854923892 0.03431804673500264 0.991296140215866 -0.08020175359552492
 -0.0018429161918418983 -0.009950008748193786 0.0021433803168028082 0.015535508593383953 0.991296140215866 -0.08020175359552492 0.006927551390343691 0.034318083135648964
0.1438099208003 0.007248670494045689 0.035806671468570486 0.9908445226489595 -0.08375692250696884 0.002298741384081313 0.016219521327886614 -0.0019722226881499663 -0.010382602425849876
 0.9908445226489595 -0.08375692250696884 0.007247951311930275 0.0358067995191382 -0.0019724122732429354 -0.010382593006659594 0.0022983281271819938 0.016219594388317465
 0.002298741384081313 0.016219521327886614 -0.0019724122732429354 -0.010382593006659594 0.007248433569926714 0.03580865726044774 0.9908446176483374 -0.08375502394413242
 -0.0019722226881499663 -0.010382602425849876 0.0022983281271819938 0.016219594388317465 0.9908446176483374 -0.08375502394413242 0.007248392714001526 0.03580869609468901
0.1500625260525 0.007580189100350768 0.03728999172136548 0.9903780422904441 -0.08730197524167434 0.00245969275611765 0.016901224324469277 -0.002106465790457097 -0.010813009073435374
 0.9903780422904441 -0.08730197524167434 0.007579407166000737 0.03729013146429513 -0.00210667212442587 -0.010812998157170866 0.0024592428634554677 0.016901305262170634
 0.00245969275611765 0.016901224324469277 -0.00210667212442587 -0.010812998157170866 0.007579931618939937 0.03729206873870084 0.990378145171227 -0.08729999574339078
 -0.002106465790457097 -0.010813009073435374 0.0024592428634554677 0.016901305262170634 0.990378145171227 -0.08729999574339078 0.007579887238665775 0.03729211011572938
0.15631513130469998 0.007922258622285561 0.03876601429921592 0.9898967180764616 -0.09083866449443737 0.00262656463172833 0.017580498127685997 -0.002245598686685315 -0.011241177318722715
