! Created with skrf 1.8.0 (http://scikit-rf.org).
# GHz S RI R 50.0 
!freq ReS11 ImS11 ReS12 ImS12 ReS13 ImS13
! ReS14 ImS14
! ReS21 ImS21 ReS22 ImS22 ReS23 ImS23
! ReS24 ImS24
! ReS31 ImS31 ReS32 ImS32 ReS33 ImS33
! ReS34 ImS34
! ReS41 ImS41 ReS42 ImS42 ReS43 ImS43
! ReS44 ImS44
!
0.0 0.001898012946305 0.0 0.9981019870228 0.0 7.373876471613e-05 0.0 -7.373876436182e-05 9.030394174878378e-21
 0.9981019870228 0.0 0.00189801294627 0.0 -7.373876436047e-05 9.030394174713051e-21 7.373876471674e-05 0.0
 7.373876471613e-05 0.0 -7.373876436047e-05 9.030394174713051e-21 0.001898012961724 0.0 0.9981019870383 0.0
 -7.373876436182e-05 9.030394174878378e-21 7.373876471674e-05 0.0 0.9981019870383 0.0 0.001898012961761 0.0
0.005 0.0020433202504096205 0.001552676617916778 0.9979179231512362 -0.003974489403057649 0.00010396814980844902 0.0008056012419739255 -0.00010081114729060917 -0.0005066484755437516
 0.9979179231512362 -0.003974489403057649 0.0020433636776068576 0.0015526512055917775 -0.00010080767637845343 -0.0005066457897154723 0.00010370948203337982 0.0008056998993486596
 0.00010396814980844902 0.0008056012419739255 -0.00010080767637845343 -0.0005066457897154723 0.0020433225416956234 0.0015527425299700628 0.9979179235396705 -0.003974422330503025
 -0.00010081114729060917 -0.0005066484755437516 0.00010370948203337982 0.0008056998993486596 0.9979179235396705 -0.003974422330503025 0.0020433621573035915 0.0015527194349694935
0.006252605252188 0.0020817986407151135 0.0019468962074891943 0.9978688108319768 -0.004969022566287615 0.00011283436011033674 0.0010073688543631265 -0.00010862390406344247 -0.0006339412593198588
 0.9978688108319768 -0.004969022566287615 0.0020818665258557894 0.001946863951141105 -0.00010861850328038764 -0.0006339379489077373 0.00011243022287161836 0.00100749708867559
 0.00011283436011033674 0.0010073688543631265 -0.00010861850328038764 -0.0006339379489077373 0.0020818021515063016 0.0019469785712241071 0.9978688113679794 -0.0049689387439174814
 -0.00010862390406344247 -0.0006339412593198588 0.00011243022287161836 0.00100749708867559 0.9978688113679794 -0.0049689387439174814 0.0020818640774575062 0.001946949223517826
0.01250521050438 0.0022865031903644387 0.0039339705378809596 0.9976055122531237 -0.00993838197685807 0.00016489140742423892 0.0020149134628372222 -0.0001538596876750272 -0.0012706982010080305
 0.9976055122531237 -0.00993838197685807 0.002286774266790858 0.003933901026402782 -0.000153838407157605 -0.001270692102710591 0.00016327994477408352 0.002015223695786511
 0.00016489140742423892 0.0020149134628372222 -0.000153838407157605 -0.001270692102710591 0.0022865166399702263 0.003934134906148329 0.9976055138200901 -0.009938214576150753
 -0.0001538596876750272 -0.0012706982010080305 0.00016327994477408352 0.002015223695786511 0.9976055138200901 -0.009938214576150753 0.002286763908053976 0.003934071374812954
0.01875781575657 0.0025126502928131756 0.005948638550855033 0.9973117101828571 -0.01492007638864673 0.00023003953112133615 0.0030232319027599596 -0.00020960003458673023 -0.0019093036224344453
 0.9973117101828571 -0.01492007638864673 0.0025132594391145215 0.005948526293224483 -0.00020955258475314285 -0.0019092953797571943 0.00022641991857919527 0.003023790179276325
 0.00023003953112133615 0.0030232319027599596 -0.00020955258475314285 -0.0019092953797571943 0.00251268010162145 0.005948884623190455 0.9973117132843442 -0.014919825498417473
 -0.00020960003458673023 -0.0019093036224344453 0.00022641991857919527 0.003023790179276325 0.9973117132843442 -0.014919825498417473 0.0025132357246974795 0.005948781704685529
0.02501042100875 0.00276074316128509 0.00798798191920175 0.9969870066213233 -0.01991641840926829 0.00030841040039448635 0.0040322932126767045 -0.00027599212256288315 -0.0025494090401964814
 0.9969870066213233 -0.01991641840926829 0.002761825012734247 0.007987820979030209 -0.00027590834076545606 -0.002549399427732806 0.0003019818308751189 0.004033177523895465
 0.00030841040039448635 0.0040322932126767045 -0.00027590834076545606 -0.002549399427732806 0.002760795735187774 0.007988309355751753 0.9969870117556566 -0.019916084063340975
 -0.00027599212256288315 -0.0025494090401964814 0.0003019818308751189 0.004033177523895465 0.9969870117556566 -0.019916084063340975 0.002761782491558283 0.00798816152104596
0.03126302626094 0.003031263774112153 0.010050447599089848 0.9966309864034574 -0.024928335956727637 0.00040013525542154413 0.0050419727099359725 -0.0003531776572183224 -0.00319074926404562
 0.9966309864034574 -0.024928335956727637 0.003032952805225315 0.010050231602336156 -0.0003530474871106126 -0.0031907391885637746 0.0003900962567961444 0.005043273066174034
 0.00040013525542154413 0.0050419727099359725 -0.0003530474871106126 -0.0031907391885637746 0.003031345514380636 0.010050855987370651 0.9966309940725177 -0.024927918166659978
 -0.0003531776572183224 -0.00319074926404562 0.0003900962567961444 0.005043273066174034 0.9966309940725177 -0.024927918166659978 0.0030328860256315466 0.010050657390242409
0.037515631513130004 0.003324682417365747 0.012134984186304681 0.9962432272312075 -0.02995623586404869 0.000505343380311684 0.006052107628468926 -0.000441293841053888 -0.003833086808027953
 0.9962432272312075 -0.02995623586404869 0.003327113000126867 0.012134706323371823 -0.00044110732226009897 -0.0038330773087111394 0.0004908915452066574 0.006053926174558228
 0.000505343380311684 0.006052107628468926 -0.00044110732226009897 -0.0038330773087111394 0.0033247997177968448 0.01213547303546018 0.9962432379373969 -0.02995573462396317
 -0.000441293841053888 -0.003833086808027953 0.0004908915452066574 0.006053926174558228 0.9962432379373969 -0.02995573462396317 0.0033270165052271356 0.012135217515805548
0.043768236765320004 0.003641461337037031 0.014240779104553581 0.9958233038230495 -0.03500026663811438 0.0006241613595879793 0.007062514060152184 -0.000540473677893795 -0.00447619501355397
 0.9958233038230495 -0.03500026663811438 0.0036447677890572025 0.01424043212984932 -0.0005402209400662407 -0.0044761872619819764 0.0006044932521193578 0.007064965203570509
 0.0006241613595879793 0.007062514060152184 -0.0005402209400662407 -0.0044761872619819764 0.0036416205863178982 0.014241347841263843 0.9958233180728436 -0.03499968192773416
 -0.000540473677893795 -0.00447619501355397 0.0006044932521193578 0.007064965203570509 0.9958233180728436 -0.03499968192773416 0.0036446361184665154 0.014241028926346168
0.050020842017509996 0.003982056393402853 0.016367150011078087 0.9953707900734496 -0.04006042700241579 0.0007567126090277185 0.008072993981753202 -0.000650846042710127 -0.005119851097835319
 0.9953707900734496 -0.04006042700241579 0.003986373021344216 0.016366726240594667 -0.0006505173019914904 -0.0051198463978827 0.0007310237663636262 0.00807620452532409
 0.0007567126090277185 0.008072993981753202 -0.0006505173019914904 -0.0051198463978827 0.0039822639732711865 0.016367797983653384 0.9953708083758717 -0.0400597587818951
 -0.000650846042710127 -0.005119851097835319 0.0007310237663636262 0.00807620452532409 0.9953708083758717 -0.0400597587818951 0.003986200708467441 0.016367408887468227
0.055454545454549996 0.004297735281116011 0.01823126945369807 0.9949507439929325 -0.04447088475093552 0.0008831499700472135 0.008951029490888088 -0.0007559496363958439 -0.005679480074797084
 0.9949507439929325 -0.04447088475093552 0.004303038877570923 0.018230772361530694 -0.000755546966525143 -0.005679479188359438 0.0008515748502252733 0.008955012683271257
 0.0008831499700472135 0.008951029490888088 -0.000755546966525143 -0.005679479188359438 0.0042979900387172644 0.018231985686988906 0.9949507662335599 -0.04447014391673634
 -0.0007559496363958439 -0.005679480074797084 0.0008515748502252733 0.008955012683271257 0.9949507662335599 -0.04447014391673634 0.004302826801627816 0.018231529845036096
0.056273447269699996 0.00434691787089362 0.018513491506299298 0.9948852603752112 -0.04513661914290359 0.0009031170289330652 0.009083338711985878 -0.0007725356459397061 -0.0057638327832191
 0.9948852603752112 -0.04513661914290359 0.0043523790106407365 0.01851298281361263 -0.0007721212025682379 -0.005763832570935056 0.000870602020593643 0.00908744798784611
 0.0009031170289330652 0.009083338711985878 -0.0007721212025682379 -0.005763832570935056 0.004347180155917304 0.018514217975922558 0.9948852832433432 -0.045135867360526515
 -0.0007725356459397061 -0.0057638327832191 0.000870602020593643 0.00908744798784611 0.9948852832433432 -0.045135867360526515 0.004352160583761657 0.018513751596825282
0.06252605252188 0.004736490868632568 0.020679245850690142 0.9943662905288678 -0.050228677956586025 0.0010634907161065103 0.010093330852798931 -0.0009056629467155289 -0.006407916453832734
 0.9943662905288678 -0.050228677956586025 0.004743230924477578 0.020678643661334508 -0.000905153183745005 -0.006407922297273768 0.0010233432418754393 0.010098490856033041
 0.0010634907161065103 0.010093330852798931 -0.000905153183745005 -0.006407922297273768 0.0047368142255962 0.02068004999010471 0.9943663184804301 -0.05022784254902209
 -0.0009056629467155289 -0.006407916453832734 0.0010233432418754393 0.010098490856033041 0.9943663184804301 -0.05022784254902209 0.004742960905768896 0.020679498907068074
0.06877865777407 0.005151215462522789 0.022863885520642387 0.993813458430493 -0.05533638847316477 0.0012379457128649423 0.011102745453509711 -0.001050344033041277 -0.007051876101388342
 0.993813458430493 -0.05533638847316477 0.005159368945204308 0.022863180804930546 -0.0010497294155280697 -0.00705188970044538 0.0011893587287278282 0.011109120974432802
 0.0012379457128649423 0.011102745453509711 -0.0010497294155280697 -0.00705188970044538 0.005151606249284404 0.022864766417277183 0.993813491988056 -0.0553354693613319
 -0.001050344033041277 -0.007051876101388342 0.0011893587287278282 0.011109120974432802 0.993813491988056 -0.0553354693613319 0.005159041850665469 0.0228641228844697
0.07503126302626001 0.005591526729122065 0.025066902162585513 0.9932263446270228 -0.06045949689162546 0.0014265897750763042 0.012111350786049033 -0.0012066904853108987 -0.007695482672363055
 0.9932263446270228 -0.06045949689162546 0.00560122829337741 0.025066085426810332 -0.0012059615599410887 -0.007695505858564208 0.001368755640038137 0.01211911954043977
 0.0014265897750763042 0.012111350786049033 -0.0012059615599410887 -0.007695505858564208 0.005591991293628895 0.02506785881267019 0.9932263843188793 -0.06045849398553934
 -0.0012066904853108987 -0.007695482672363055 0.001368755640038137 0.01211911954043977 0.9932263843188793 -0.06045849398553934 0.005600838632797681 0.0250671147525547
0.08128386827845 0.006057854685291315 0.027287799265352266 0.9926045327925583 -0.06559771791235532 0.0016295261544869806 0.013118908883472285 -0.001374809226714509 -0.008338503664684353
 0.9926045327925583 -0.06559771791235532 0.0060692391669312975 0.027286860541455654 -0.0013739566218077196 -0.008338538400981635 0.0015616367943784256 0.01312826164033462
 0.0016295261544869806 0.013118908883472285 -0.0013739566218077196 -0.008338538400981635 0.006058399364916396 0.027288830576825098 0.9926045791538399 -0.06559663110731545
 -0.001374809226714509 -0.008338503664684353 0.0015616367943784256 0.01312826164033462 0.9926045791538399 -0.06559663110731545 0.006068781444065816 0.027287977571585905
0.08753647353064001 0.006550624169170049 0.029526087103812607 0.9919476101520811 -0.07075073981317848 0.00184685338940915 0.014125175936490778 -0.0015548023666409512 -0.008980702879440082
 0.9919476101520811 -0.07075073981317848 0.006563826622315903 0.029525015937330437 -0.0015538167923174657 -0.008980751259979967 0.0017681004744935784 0.014136316642917167
 0.00184685338940915 0.014125175936490778 -0.0015538167923174657 -0.008980751259979967 0.00655125528835813 0.029527191890821328 0.9919476637240782 -0.07074956899430891
 -0.0015548023666409512 -0.008980702879440082 0.0017681004744935784 0.014136316642917167 0.9919476637240782 -0.07074956899430891 0.00656329533402891 0.029526221172117825
0.09378907878283 0.007070254680901812 0.03178127914880289 0.9912551678681579 -0.07591822807390716 0.0020786651024080403 0.015129902607861423 -0.0017467670381984784 -0.00962184026820359
 0.9912551678681579 -0.07591822807390716 0.007085410414946015 0.031780064585153416 -0.0017456392868374644 -0.009621904518067163 0.0019882402366822745 0.015143048510683727
 0.0020786651024080403 0.015129902607861423 -0.0017456392868374644 -0.009621904518067163 0.007070978551181639 0.03178245613155784 0.9912552292001285 -0.07591697311543984
 -0.0017467670381984784 -0.00962184026820359 0.0019882402366822745 0.015143048510683727 0.9912552292001285 -0.07591697311543984 0.007084800052249883 0.03178135856868861
0.100041684035 0.007617160196840488 0.03405288944732004 0.9905268014062539 -0.081099828046946 0.0023250498023496724 0.016132834289358407 -0.0019507952328348434 -0.010261671851229082
 0.9905268014062539 -0.081099828046946 0.007634404813519713 0.034051520016333804 -0.0019495161795971352 -0.010261754326172882 0.0022221447231169766 0.016148216053303723
 0.0023250498023496724 0.016132834289358407 -0.0019495161795971352 -0.010261754326172882 0.0076179831148904704 0.03405413725516614 0.9905268710556167 -0.08109848880823234
 -0.0019507952328348434 -0.010261671851229082 0.0022221447231169766 0.016148216053303723 0.9905268710556167 -0.08109848880823234 0.007633709861000281 0.034052903341334886
0.1059090909091 0.008155543072731966 0.03619905292569333 0.9898102778132674 -0.08597471266342259 0.0025695838684206044 0.017072115538796135 -0.002153302982019127 -0.010860677499289593
 0.9898102778132674 -0.08597471266342259 0.00817487150518293 0.03619752726180371 -0.0021518737234595313 -0.010860779335184301 0.002454232628501446 0.01708981726134478
 0.0025695838684206044 0.017072115538796135 -0.0021518737234595313 -0.010860779335184301 0.008156464648907232 0.03620036586270308 0.9898103557822895 -0.0859732942000504
 -0.002153302982019127 -0.010860677499289593 0.002454232628501446 0.01708981726134478 0.9898103557822895 -0.0859732942000504 0.008174092152313645 0.03619899500314563
0.1062942892872 0.008191748961348362 0.03634043068223088 0.9897621108806086 -0.08629516696417185 0.0025860906909503404 0.017133711322955467 -0.0021669736320708488 -0.010899949685399656
 0.9897621108806086 -0.08629516696417185 0.008211218391602148 0.0363388943809476 -0.0021655342356352763 -0.010900052871524566 0.002469897477493167 0.017151573144977093
 0.0025860906909503404 0.017133711322955467 -0.0021655342356352763 -0.010900052871524566 0.00819267720765122 0.03634174784837796 0.9897621894133982 -0.08629374329428197
 -0.0021669736320708488 -0.010899949685399656 0.002469897477493167 0.017151573144977093 0.9897621894133982 -0.08629374329428197 0.008210433327540602 0.0363403676853478
0.11254689453939999 0.008794423263354561 0.03864341269611503 0.9889607013883838 -0.09150385549677231 0.0028618654723136356 0.018132269200110074 -0.002395383438417996 -0.01153642186778824
 0.9889607013883838 -0.09150385549677231 0.00881625380443046 0.03864169696971032 -0.0023937747417702294 -0.011536548381253679 0.0027315767628907535 0.01815286891981154
 0.0028618654723136356 0.018132269200110074 -0.0023937747417702294 -0.011536548381253679 0.008795463100672835 0.03864479765923236 0.9889607893799337 -0.09150234723209538
 -0.002395383438417996 -0.01153642186778824 0.0027315767628907535 0.01815286891981154 0.9889607893799337 -0.09150234723209538 0.00881537310095053 0.03864326093993556
0.11879949979160001 0.009425579201252296 0.04096134137388798 0.9881221833339426 -0.09672548897302265 0.003152446165746453 0.019128238746634225 -0.0026361002057838693 -0.012170832568000391
 0.9881221833339426 -0.09672548897302265 0.009449907553285956 0.04095943309477445 -0.0026343133370679826 -0.012170985154641744 0.003007255381783029 0.019151847952392522
 0.003152446165746453 0.019128238746634225 -0.0026343133370679826 -0.012170985154641744 0.009426736873523715 0.04096279247368304 0.9881222813700361 -0.09672389594103895
 -0.0026361002057838693 -0.012170832568000391 0.003007255381783029 0.019151847952392522 0.9881222813700361 -0.09672389594103895 0.009448925676690303 0.04096108846317668
0.1250521050438 0.010085606438598117 0.043293717769648514 0.9872461727468516 -0.10195964836926139 0.003457898921385108 0.020121346296297284 -0.0028891936696769983 -0.01280292208576874
 0.9872461727468516 -0.10195964836926139 0.010112569741538366 0.04329160321470281 -0.0028872198432334075 -0.012803103620752359 0.003297000498961039 0.02014825042701347
 0.003457898921385108 0.020121346296297284 -0.0028872198432334075 -0.012803103620752359 0.010086888169032089 0.04329523325170159 0.9872462814233315 -0.10195797038295808
 -0.0028891936696769983 -0.01280292208576874 0.003297000498961039 0.02014825042701347 0.9872462814233315 -0.10195797038295808 0.01011148115207456 0.04329335076612079
0.131304710296 0.010774887952207034 0.0456400374381921 0.98633229159231 -0.10720590111380815 0.0037782838387331844 0.021111313863811255 -0.003154727578433875 -0.013432426923671203
 0.98633229159231 -0.10720590111380815 0.010804623822438677 0.045637702263963555 -0.0031525580957853724 -0.013432640411072155 0.003600873466423108 0.021141812305955472
 0.0037782838387331844 0.021111313863811255 -0.0031525580957853724 -0.013432640411072155 0.0107762999417934 0.045641615448689034 0.9863324115168203 -0.10720413797655133
 -0.003154727578433875 -0.013432426923671203 0.003600873466423108 0.021141812305955472 0.9863324115168203 -0.10720413797655133 0.010803422974925815 0.04563954283209439
0.1375573155481 0.01134818794566478 0.04769543070072464 0.9855258602881946 -0.11215924687706047 0.004077644999084644 0.022069394101894207 -0.0033969582513593854 -0.014030483597529965
 0.9855258602881946 -0.11215924687706047 0.011380843150914635 0.04769290477287295 -0.0033945800035483594 -0.014030729734989918 0.0038833186169149633 0.02210347877961733
 0.004077644999084644 0.022069394101894207 -0.0033945800035483594 -0.014030729734989918 0.01134973568037034 0.047697069676098276 0.9855259919806921 -0.11215739851291454
 -0.0033969582513593854 -0.014030483597529965 0.0038833186169149633 0.02210347877961733 0.9855259919806921 -0.11215739851291454 0.011379525371796567 0.04769483911091622
0.1438099208003 0.011941983546268525 0.049737552452640284 0.98469034371097 -0.11709753525153868 0.004389011701544399 0.023021901134264725 -0.003648748038951416 -0.014623535667771432
 0.98469034371097 -0.11709753525153868 0.011977697644781717 0.04973482356900766 -0.0036461516599503785 -0.014623817459262025 0.004177038800662857 0.023059849403331802
 0.004389011701544399 0.023021901134264725 -0.0036461516599503785 -0.014623817459262025 0.01194367307094382 0.049739250504474246 0.9846904877759148 -0.1170956014798268
 -0.003648748038951416 -0.014623535667771432 0.004177038800662857 0.023059849403331802 0.9846904877759148 -0.1170956014798268 0.011976257536792835 0.04973685251818997
0.1500625260525 0.01255602432950997 0.051766159698529504 0.9838259974946706 -0.12202056896920714 0.004712249440253605 0.023968683479694615 -0.00390996858573811 -0.01521144632329089
 0.9838259974946706 -0.12202056896920714 0.012594937355538082 0.05176321488185006 -0.003907144740631017 -0.015211766894008404 0.004481905272119961 0.024010782820556312
 0.004712249440253605 0.023968683479694615 -0.003907144740631017 -0.015211766894008404 0.012557861660727317 0.051767914866789555 0.9838261545459166 -0.12201854960016172
 -0.00390996858573811 -0.01521144632329089 0.004481905272119961 0.024010782820556312 0.9838261545459166 -0.12201854960016172 0.012593369525750393 0.051765339322898216
0.15631513130469998 0.013190057605414371 0.053781016774219544 0.9829330791086488 -0.12692815323388104 0.005047221821861323 0.02490959287389737 -0.0041804897054917274 -0.0157940822057026
 0.9829330791086488 -0.12692815323388104 0.013232310079766857 0.053777842248140056 -0.004177429091103565 -0.01579444480142691 0.004797787504522978 0.024956140762779376
