! Created with skrf 1.8.0 (http://scikit-rf.org).
# GHz S RI R 50.0 
!freq ReS11 ImS11 ReS12 ImS12 ReS13 ImS13
! ReS14 ImS14
! ReS21 ImS21 ReS22 ImS22 ReS23 ImS23
! ReS24 ImS24
! ReS31 ImS31 ReS32 ImS32 ReS33 ImS33
! ReS34 ImS34
! ReS41 ImS41 ReS42 ImS42 ReS43 ImS43
! ReS44 ImS44
!
0.0 0.001578751693113 0.0 0.9984212483005 0.0 6.072753982439e-05 0.0 -6.072753793669e-05 7.436978495426687e-21
 0.9984212483005 0.0 0.001578751693062 0.0 -6.072753793591e-05 7.436978495331165e-21 6.072753982294e-05 0.0
 6.072753982439e-05 0.0 -6.072753793591e-05 7.436978495331165e-21 0.001578751687394 0.0 0.9984212482948 0.0
 -6.072753793669e-05 7.436978495426687e-21 6.072753982294e-05 0.0 0.9984212482948 0.0 0.001578751687393 0.0
0.005 0.001698651204330325 0.0012956791770450749 0.9982695533994691 -0.0033067420923663243 8.451862554627876e-05 0.0006435287319929646 -8.22002713218149e-05 -0.0004083890822649724
 0.9982695533994691 -0.0033067420923663243 0.0016986758425432838 0.0012956647534805583 -8.219750109348104e-05 -0.0004083869353037562 8.437679378024781e-05 0.0006435827479988972
 8.451862554627876e-05 0.0006435287319929646 -8.219750109348104e-05 -0.0004083869353037562 0.0016986531015570053 0.0012957452910512296 0.9982695537645718 -0.0033066750415500813
 -8.22002713218149e-05 -0.0004083890822649724 8.437679378024781e-05 0.0006435827479988972 0.9982695537645718 -0.0033066750415500813 0.0016986746688114117 0.001295732735541853
0.006252605252188 0.0017301232630141676 0.001624672134496754 0.9982294796977883 -0.004134229685799239 9.133526990616878e-05 0.0008047322765001873 -8.826904445263254e-05 -0.0005110066980634468
 0.9982294796977883 -0.004134229685799239 0.0017301617771869613 0.0016246538232948717 -8.826473388940215e-05 -0.0005110040506321117 9.111367125907574e-05 0.0008048024213868034
 9.133526990616878e-05 0.0008047322765001873 -8.826473388940215e-05 -0.0005110040506321117 0.0017301261534107132 0.0016247547683890195 0.9982294801930002 -0.004134145873442526
 -8.826904445263254e-05 -0.0005110066980634468 9.111367125907574e-05 0.0008048024213868034 0.9982294801930002 -0.004134145873442526 0.0017301598663973558 0.001624738801601373
0.01250521050438 0.0018959508228220854 0.0032831776214798706 0.998016913777448 -0.008269205583673974 0.0001305303856414296 0.001609880756548727 -0.00012273566809659867 -0.0010244472123609775
 0.998016913777448 -0.008269205583673974 0.0018961046142130197 0.0032831381317037036 -0.00012271868230469846 -0.001024442316018706 0.0001296467049160023 0.0016100494099156636
 0.0001305303856414296 0.001609880756548727 -0.00012271868230469846 -0.001024442316018706 0.0018959617895026794 0.0032833425630417606 0.9980169151767991 -0.008269038177745176
 -0.00012273566809659867 -0.0010244472123609775 0.0001296467049160023 0.0016100494099156636 0.9980169151767991 -0.008269038177745176 0.0018960963978405495 0.00328330788432359
0.01875781575657 0.0020766030833661063 0.004965123766180601 0.9977832815810119 -0.012414979277812297 0.0001784044478793663 0.00241594802171699 -0.00016423395902155955 -0.001539613067834269
 0.9977832815810119 -0.012414979277812297 0.0020769486658985515 0.004965059953283068 -0.00016419608260370225 -0.0015396063997487443 0.00017641936477315746 0.002416249202023606
 0.0001784044478793663 0.00241594802171699 -0.00016419608260370225 -0.0015396063997487443 0.0020766273073317 0.0049653707383403 0.9977832843023346 -0.012414728357986559
 -0.00016423395902155955 -0.001539613067834269 0.00017641936477315746 0.002416249202023606 0.9977832843023346 -0.012414728357986559 0.0020769297622652313 0.004965314412151805
0.02501042100875 0.0022724374610976397 0.006668158010487392 0.9975283033288249 -0.016573550881113928 0.0002350505872652813 0.0032229530152703316 -0.000212867088968446 -0.0020562735284504895
 0.9975283033288249 -0.016573550881113928 0.0022730511987829774 0.006668066479353832 -0.00021280020560788764 -0.0020562656527278586 0.00023152462706372808 0.003223426205094137
 0.0002350505872652813 0.0032229530152703316 -0.00021280020560788764 -0.0020562656527278586 0.0022724801166372757 0.006668486701041087 0.9975283077918619 -0.01657321647413498
 -0.000212867088968446 -0.0020562735284504895 0.00023152462706372808 0.003223426205094137 0.9975283077918619 -0.01657321647413498 0.002273017225103899 0.006668405623824692
0.03126302626094 0.002483796613098205 0.008391065543011212 0.9972516851884158 -0.020745771405486068 0.0003005623753758494 0.004030843486806754 -0.00026873533936020366 -0.0025742630659381783
 0.9972516851884158 -0.020745771405486068 0.002484754761358448 0.008390942652573683 -0.00026863141512853785 -0.002574254634613658 0.0002950555043935516 0.004031533664552543
 0.0003005623753758494 0.004030843486806754 -0.00026863141512853785 -0.002574254634613658 0.0024838628661947968 0.008391475586446413 0.9972516918120848 -0.02074535350289484
 -0.00026873533936020366 -0.0025742630659381783 0.0002950555043935516 0.004031533664552543 0.9972516918120848 -0.02074535350289484 0.0024847013275480765 0.008391366491631053
0.037515631513130004 0.002711015733976739 0.010133051124922845 0.9969531268092515 -0.02493206087397069 0.00037503286760916493 0.004839538840276404 -0.0003319367763152004 -0.0030934385077982913
 0.9969531268092515 -0.02493206087397069 0.002712394466459053 0.010132892990018294 -0.00033178785106235866 -0.0030934302611253786 0.0003671043140662581 0.004840496534817865
 0.00037503286760916493 0.004839538840276404 -0.00033178785106235866 -0.0030934302611253786 0.0027111107462676914 0.01013354208554329 0.9969531360161646 -0.024931559448360938
 -0.0003319367763152004 -0.0030934385077982913 0.0003671043140662581 0.004840496534817865 0.9969531360161646 -0.024931559448360938 0.0027123171778048083 0.010133401546120878
0.043768236765320004 0.00295442537012339 0.011893520530761145 0.9966323243799367 -0.029132626807496648 0.00045855415114918124 0.005648943171792615 -0.0004025674858329646 -0.0036136660017129342
 0.9966323243799367 -0.029132626807496648 0.002956300799600865 0.011893323022854516 -0.00040236566819562564 -0.00361365876823024 0.0004477623224958758 0.005650224524269582
 0.00045855415114918124 0.005648943171792615 -0.00040236566819562564 -0.00361365876823024 0.0029545542981540655 0.01189409190816594 0.9966323365961919 -0.029132041806211022
 -0.0004025674858329646 -0.0036136660017129342 0.0004477623224958758 0.005650224524269582 0.9966323365961919 -0.029132041806211022 0.0029561952548022175 0.011893916338497356
0.050020842017509996 0.003214352727950724 0.013671990230553724 0.9962889721840755 -0.03334755446835377 0.0005512170716257851 0.006458950652641963 -0.0004807216519398944 -0.004134815638671767
 0.9962889721840755 -0.03334755446835377 0.0032168009249465093 0.013671748977638351 -0.00048045911611775503 -0.004134810335221899 0.0005371195230604275 0.006460617481100328
 0.0005512170716257851 0.006458950652641963 -0.00048045911611775503 -0.004134810335221899 0.003214520721772186 0.013672641449771226 0.9962889878390395 -0.03334688582270293
 -0.0004807216519398944 -0.004134815638671767 0.0005371195230604275 0.006460617481100328 0.9962889878390395 -0.03334688582270293 0.0032166627144291906 0.013672427106589226
0.055454545454549996 0.003453903994902238 0.01523182756336575 0.9959720373633574 -0.03702212490739661 0.0006392375628844844 0.007163273832571511 -0.0005548216823165042 -0.004588359479665447
 0.9959720373633574 -0.03702212490739661 0.003456911702029758 0.015231544554605276 -0.0005545000743625756 -0.004588356666610968 0.0006219072617634097 0.007165330313701862
 0.0006392375628844844 0.007163273832571511 -0.0005545000743625756 -0.004588356666610968 0.0034541101160485738 0.015232547645767381 0.9959720563591522 -0.037021383500132746
 -0.0005548216823165042 -0.004588359479665447 0.0006219072617634097 0.007165330313701862 0.9959720563591522 -0.037021383500132746 0.0034567415169192584 0.015232296445346733
0.056273447269699996 0.003491122336632383 0.015468043058980049 0.9959227635151837 -0.03757685111811832 0.0006531110384660647 0.007269448169283011 -0.0005664915645375694 -0.004656758823124753
 0.9959227635151837 -0.03757685111811832 0.003494219345496002 0.01546775344500359 -0.000566160548177487 -0.004656756454810275 0.0006352644725813381 0.007271568034576741
 0.0006531110384660647 0.007269448169283011 -0.000566160548177487 -0.004656756454810275 0.0034913345402235022 0.015468773474566693 0.9959227830428097 -0.037576098738253044
 -0.0005664915645375694 -0.004656758823124753 0.0006352644725813381 0.007271568034576741 0.9959227830428097 -0.037576098738253044 0.0034940440516888355 0.015468516457664996
0.06252605252188 0.0037850564035377364 0.017281303842098902 0.9955333912887055 -0.04182047032097231 0.0007643238682950389 0.008080316780297971 -0.0006599675928860686 -0.005179366830522194
 0.9955333912887055 -0.04182047032097231 0.003788878258076958 0.01728096100583667 -0.000659560395656185 -0.005179368490668331 0.0007422841551016091 0.008082963052388389
 0.0007643238682950389 0.008080316780297971 -0.000659560395656185 -0.005179368490668331 0.0037853179546720878 0.017282112730599354 0.9955334151291473 -0.04181963410282284
 -0.0006599675928860686 -0.005179366830522194 0.0007422841551016091 0.008082963052388389 0.9955334151291473 -0.04181963410282284 0.0037886614554459353 0.017281808982819162
0.06877865777407 0.004096474997265411 0.01911142486481205 0.9951205484858864 -0.04607832641046189 0.0008849416511803409 0.008891432590746954 -0.0007612381374032889 -0.005702509952056594
 0.9951205484858864 -0.04607832641046189 0.004101097735742202 0.019111023698218533 -0.0007607471200575387 -0.0057025168221416555 0.0008582638627307926 0.008894684514990763
 0.0008849416511803409 0.008891432590746954 -0.0007607471200575387 -0.0057025168221416555 0.0040967910251726684 0.019112311432394034 0.9951205770841728 -0.04607740622727252
 -0.0007612381374032889 -0.005702509952056594 0.0008582638627307926 0.008894684514990763 0.9951205770841728 -0.04607740622727252 0.004100834988564566 0.01911195673926014
0.07503126302626001 0.004425696127100829 0.02095807666449051 0.9946839284985806 -0.05035030363501698 0.0010150486284798376 0.009702667309999033 -0.0008703895700967341 -0.0062260569607914375
 0.9946839284985806 -0.05035030363501698 0.004431195806768146 0.020957611810545552 -0.0008698071538896673 -0.006226070310372316 0.0009832870843833905 0.009706610073091983
 0.0010150486284798376 0.009702667309999033 -0.0008698071538896673 -0.006226070310372316 0.004426071753209137 0.02095904003664073 0.9946839623068638 -0.05034929934685517
 -0.0008703895700967341 -0.0062260569607914375 0.0009832870843833905 0.009706610073091983 0.9946839623068638 -0.05034929934685517 0.004430882670180819 0.02095863002547258
0.08128386827845 0.004773035761524607 0.02282094189909192 0.9942232254165965 -0.0546362622340194 0.001154727080875658 0.010513888626382327 -0.0009875061644901068 -0.006749874766014624
 0.9942232254165965 -0.0546362622340194 0.004779488472731977 0.022820407749256248 -0.000986824830768124 -0.006749895952648736 0.0011174354023297136 0.010518613421772897
 0.001154727080875658 0.010513888626382327 -0.000986824830768124 -0.006749895952648736 0.004773476097490776 0.022821981125919297 0.994223264894144 -0.05463517368182033
 -0.0009875061644901068 -0.006749874766014624 0.0011174354023297136 0.010518613421772897 0.994223264894144 -0.05463517368182033 0.004779120491667627 0.022821511264476287
0.08753647353064001 0.005138807802503047 0.024699711113359692 0.9937381342752655 -0.05893604262167504 0.0013040572191084518 0.011324960478101066 -0.0011126700221168724 -0.007273828176553196
 0.9937381342752655 -0.05893604262167504 0.005146289683317481 0.024699101804345713 -0.0011118823122405177 -0.007273858645696728 0.0012607883899018546 0.011330564570708194
 0.0013040572191084518 0.011324960478101066 -0.0011118823122405177 -0.007273858645696728 0.005139317949484734 0.024700825165210598 0.9937381798889107 -0.05893486963091946
 -0.0011126700221168724 -0.007273828176553196 0.0012607883899018546 0.011330564570708194 0.9937381798889107 -0.05893486963091946 0.005145862391735315 0.02470029075980191
0.09378907878283 0.00552332403124475 0.02659407971057654 0.9932283512778683 -0.0632494683711355 0.0014631170801193507 0.01213574324952999 -0.001245960993067199 -0.007797779744099509
 0.9932283512778683 -0.0632494683711355 0.005531911281250165 0.026593389120775576 -0.0012450595083444544 -0.007797821029004728 0.001413423513402052 0.01214233003960621
 0.0014631170801193507 0.01213574324952999 -0.0012450595083444544 -0.007797821029004728 0.005523909078882055 0.026595267478945864 0.9932284035032147 -0.06324821075034467
 -0.001245960993067199 -0.007797779744099509 0.001413423513402052 0.01214233003960621 0.9932284035032147 -0.06324821075034467 0.005531420202280127 0.026594663671991946
0.100041684035 0.005926894032150435 0.02850374574340455 0.9926935740004792 -0.06757634838600031 0.0016319824248072871 0.012946093922963562 -0.001387456594049237 -0.008321589656600601
 0.9926935740004792 -0.06757634838600031 0.00593666292690905 0.028502967488632937 -0.001386433995917614 -0.008321643378191263 0.0015754160348565797 0.012953773009071707
 0.0016319824248072871 0.012946093922963562 -0.001386433995917614 -0.008321643378191263 0.005927559057793791 0.028505006039658037 0.9926936333223021 -0.0675750059272548
 -0.001387456594049237 -0.008321589656600601 0.0015754160348565797 0.012953773009071707 0.9926936333223021 -0.0675750059272548 0.005936103572181122 0.02850432780682764
0.1059090909091 0.006323204639213611 0.030309409514018976 0.992168742201197 -0.07164872119320233 0.0017994280207591982 0.013705998819987825 -0.0015277641595938258 -0.008812874184466359
 0.992168742201197 -0.07164872119320233 0.0063341518338077265 0.0303085429506527 -0.001526621288710913 -0.008812941128773856 0.0017360043086609381 0.01371480816448919
 0.0017994280207591982 0.013705998819987825 -0.001526621288710913 -0.008812941128773856 0.006323949320894854 0.03031073671832451 0.9921688086316782 -0.07164729891816733
 -0.0015277641595938258 -0.008812874184466359 0.0017360043086609381 0.01371480816448919 0.9921688086316782 -0.07164729891816733 0.006333524316916784 0.030309983923441825
0.1062942892872 0.006349825102115434 0.030428408245563348 0.9921335015849557 -0.071916478537202 0.001810726636751989 0.01375586620581252 -0.0015372319249522752 -0.008845115661885056
 0.9921335015849557 -0.071916478537202 0.006360852007025755 0.030427535674392946 -0.0015360809351247595 -0.008845183528633402 0.0017468389151487833 0.01376475344666271
 0.001810726636751989 0.01375586620581252 -0.0015360809351247595 -0.008845183528633402 0.006350575169049797 0.030429739801532605 0.9921335684977056 -0.07191505101512609
 -0.0015372319249522752 -0.008845115661885056 0.0017468389151487833 0.01376475344666271 0.9921335684977056 -0.07191505101512609 0.006360219876394703 0.030428981948178044
0.11254689453939999 0.006792422146786167 0.03236776596363445 0.9915478349225649 -0.07626964290677425 0.0019994206235547816 0.014564910630705833 -0.001695359582104976 -0.009368213024103136
 0.9915478349225649 -0.07626964290677425 0.006804783531530903 0.03236679215205689 -0.0016940729829271063 -0.009368296831884776 0.001927762719244557 0.014575128205981237
 0.0019994206235547816 0.014564910630705833 -0.0016940729829271063 -0.009368296831884776 0.006793262303456362 0.032369167428607085 0.991547909931037 -0.07626813008091969
 -0.001695359582104976 -0.009368213024103136 0.001927762719244557 0.014575128205981237 0.991547909931037 -0.07626813008091969 0.006804074112480837 0.03236832458576526
0.11879949979160001 0.00725498756791726 0.03432151636925242 0.9909362768319724 -0.08063561475804129 0.0021981327180745592 0.015373074645380978 -0.0018619095712411767 -0.009890734496389783
 0.9909362768319724 -0.08063561475804129 0.007268760020713287 0.034320434114781084 -0.001860480206085746 -0.009890836128311447 0.0021182555210950186 0.015384751115248604
 0.0021981327180745592 0.015373074645380978 -0.001860480206085746 -0.009890836128311447 0.007255922847038888 0.034322986311885295 0.9909363604527154 -0.08063401637052296
 -0.0018619095712411767 -0.009890734496389783 0.0021182555210950186 0.015384751115248604 0.9909363604527154 -0.08063401637052296 0.007267968788372081 0.03432205293166294
0.1250521050438 0.00773782114405538 0.036289354888087995 0.9902985322332224 -0.0850141572961598 0.0024069285809126956 0.01618020269181091 -0.0020369492189887843 -0.010412530310171872
 0.9902985322332224 -0.0850141572961598 0.00775308138561257 0.03628815670335262 -0.0020353699925628275 -0.010412651736437135 0.0023183828093702643 0.016193473055181207
 0.0024069285809126956 0.01618020269181091 -0.0020353699925628275 -0.010412651736437135 0.007738856560387089 0.03629089179406639 0.9902986249942307 -0.08501247307357827
 -0.0020369492189887843 -0.010412530310171872 0.0023183828093702643 0.016193473055181207 0.9902986249942307 -0.08501247307357827 0.0077522038021451845 0.03628986214429456
0.131304710296 0.008241219903394638 0.03827097427694675 0.9896343083172258 -0.08940502428801468 0.002625871103160822 0.016986136282427417 -0.0022205430837344987 -0.010933448173580771
 0.9896343083172258 -0.08940502428801468 0.008258044801801095 0.03826965238251856 -0.0022188069627679346 -0.010933591451232058 0.0025282073932448947 0.017001142033852015
 0.002625871103160822 0.016986136282427417 -0.0022188069627679346 -0.010933591451232058 0.008242360453638579 0.03827257654981384 0.9896344107592899 -0.08940325394016063
 -0.0022205430837344987 -0.010933448173580771 0.0025282073932448947 0.017001142033852015 0.9896344107592899 -0.08940325394016063 0.008257076316006525 0.038271444708338744
0.1375573155481 0.008651046998013771 0.04000903924639204 0.989057790537014 -0.09355082343320253 0.002828042273053663 0.017765571331280285 -0.002385892122952446 -0.011428123363094735
 0.989057790537014 -0.09355082343320253 0.008669518396109605 0.0400076116186221 -0.0023839886139829835 -0.01142828871227387 0.0027210355738461426 0.017782293575895003
 0.002828042273053663 0.017765571331280285 -0.0023839886139829835 -0.01142828871227387 0.00865229707672319 0.04001070548981864 0.9890579031084459 -0.09354896680057621
 -0.002385892122952446 -0.011428123363094735 0.0027210355738461426 0.017782293575895003 0.9890579031084459 -0.09354896680057621 0.008668455220256263 0.04000949109450297
0.1438099208003 0.009075341166313098 0.04173778329327359 0.9884609088864741 -0.09768591623592687 0.0030383775607658032 0.018541618337906646 -0.0025578376527936567 -0.011919732363147587
 0.9884609088864741 -0.09768591623592687 0.009095536868409027 0.04173624362544433 -0.0025557591886771797 -0.011919921814237788 0.002921618906769618 0.01856018678098192
 0.0030383775607658032 0.018541618337906646 -0.0025557591886771797 -0.011919921814237788 0.009076705636150064 0.04173951186518902 0.9884610321270296 -0.09768397303739514
 -0.0025578376527936567 -0.011919732363147587 0.002921618906769618 0.01856018678098192 0.9884610321270296 -0.09768397303739514 0.009094374569612837 0.0417382105041056
0.1500625260525 0.009513950176199106 0.04345705631105715 0.9878438197364401 -0.10181019376017657 0.0032568025160895253 0.01931419080580756 -0.0027363082667862426 -0.012408195405644798
 0.9878438197364401 -0.10181019376017657 0.009535948150405643 0.043455397941800505 -0.0027340472981357646 -0.012408411070710812 0.0031298854555796493 0.019334739891731918
 0.0032568025160895253 0.01931419080580756 -0.0027340472981357646 -0.012408411070710812 0.009515433875273913 0.043458845504167246 0.9878439541963163 -0.10180816370382414
 -0.0027363082667862426 -0.012408195405644798 0.0031298854555796493 0.019334739891731918 0.9878439541963163 -0.10180816370382414 0.009534682291861909 0.04345745248766365
0.15631513130469998 0.00996672068640807 0.045166712702718895 0.9872066802819718 -0.10592354758558925 0.003483241783609629 0.020083203746868016 -0.002921231661596404 -0.01289343443761381
 0.9872066802819718 -0.10592354758558925 0.009990599069564008 0.0451649286083639 -0.0029187806572109547 -0.012893678509958224 0.0033457624181405356 0.02010587260872254
