! Created with skrf 1.8.0 (http://scikit-rf.org).
# GHz S RI R 50.0 
!freq ReS11 ImS11 ReS12 ImS12 ReS13 ImS13
! ReS14 ImS14
! ReS21 ImS21 ReS22 ImS22 ReS23 ImS23
! ReS24 ImS24
! ReS31 ImS31 ReS32 ImS32 ReS33 ImS33
! ReS34 ImS34
! ReS41 ImS41 ReS42 ImS42 ReS43 ImS43
! ReS44 ImS44
!
0.0 0.001841525217361 0.0 0.9981584747826 0.0 7.183405326212e-05 0.0 -7.183405321763e-05 8.79713433427512e-21
 0.9981584747826 0.0 0.001841525217387 0.0 -7.183405321849e-05 8.797134334380441e-21 7.183405326278e-05 0.0
 7.183405326212e-05 0.0 -7.183405321849e-05 8.797134334380441e-21 0.001841525213739 0.0 0.998158474779 0.0
 -7.183405321763e-05 8.79713433427512e-21 7.183405326278e-05 0.0 0.998158474779 0.0 0.001841525213718 0.0
0.005 0.0019824225968629065 0.0014998809648589114 0.9979800270216415 -0.003856715048419702 0.00010213919930242673 0.000825935489134902 -9.889957471700771e-05 -0.0005122046151362346
 0.9979800270216415 -0.003856715048419702 0.0019824223512161887 0.001499881067754652 -9.890154130840563e-05 -0.0005122060106086092 0.00010213120975294559 0.0008259384298102837
 0.00010213919930242673 0.000825935489134902 -9.890154130840563e-05 -0.0005122060106086092 0.0019824217594704026 0.001499814100129075 0.997980026636794 -0.003856782105728191
 -9.889957471700771e-05 -0.0005122046151362346 0.00010213120975294559 0.0008259384298102837 0.997980026636794 -0.003856782105728191 0.001982422418718611 0.001499813814769011
0.006252605252188 0.0020196852924716487 0.0018807345722963147 0.9979324858149651 -0.004821789653745343 0.00011097416519320865 0.0010327826407874668 -0.00010669389562838499 -0.0006409063980151
 0.9979324858149651 -0.004821789653745343 0.002019684909234893 0.0018807347182413802 -0.00010669695669212641 -0.0006409081153819037 0.00011096168124870103 0.0010327864789411857
 0.00011097416519320865 0.0010327826407874668 -0.00010669695669212641 -0.0006409081153819037 0.0020196840583275224 0.001880650988303918 0.9979324852875858 -0.004821873468470185
 -0.00010669389562838499 -0.0006409063980151 0.00011096168124870103 0.0010327864789411857 0.9979324852875858 -0.004821873468470185 0.0020196850882910023 0.0018806506666708687
0.01250521050438 0.002217645627157526 0.003800610054033332 0.9976780213682467 -0.009644039800707336 0.00016257446991892665 0.0020656644401767536 -0.00015173700504882628 -0.00128473777286575
 0.9976780213682467 -0.009644039800707336 0.0022176441077766643 0.003800610533217037 -0.0001517490787530478 -0.0012847409058898568 0.0001625246540455372 0.0020656738760732865
 0.00016257446991892665 0.0020656644401767536 -0.0001517490787530478 -0.0012847409058898568 0.002217641283781148 0.003800443031535805 0.9976780198372809 -0.009644207178572917
 -0.00015173700504882628 -0.00128473777286575 0.0001625246540455372 0.0020656738760732865 0.9976780198372809 -0.009644207178572917 0.0022176453870871634 0.003800442750973597
0.01875781575657 0.002435902064046233 0.005747418201491452 0.9973947204362078 -0.01447841451971084 0.00022676356805882806 0.0030993220485919437 -0.00020711617618630933 -0.0019304687581018036
 0.9973947204362078 -0.01447841451971084 0.002435898671940037 0.005747419241371177 -0.0002071431143793723 -0.0019304729323642116 0.0002266515859108932 0.003099339212644304
 0.00022676356805882806 0.0030993220485919437 -0.0002071431143793723 -0.0019304729323642116 0.0024358927470639496 0.005747167741544763 0.9973947174200831 -0.01447866533952014
 -0.00020711617618630933 -0.0019304687581018036 0.0002266515859108932 0.003099339212644304 0.9973947174200831 -0.01447866533952014 0.0024359019493315776 0.005747167897365551
0.02501042100875 0.0026749317146631943 0.007718337994484327 0.9970822062448231 -0.019327172723047976 0.0003036713385393037 0.004133751735928524 -0.0002729774525206121 -0.0025777443007604134
 0.9970822062448231 -0.019327172723047976 0.0026749257287671377 0.007718339863265543 -0.0002730250403330501 -0.002577749063633143 0.0003034723037983661 0.0041337791248113685
 0.0003036713385393037 0.004133751735928524 -0.0002730250403330501 -0.002577749063633143 0.0026749155774590866 0.0077180040528821445 0.997082201267873 -0.019327506893814062
 -0.0002729774525206121 -0.0025777443007604134 0.0003034723037983661 0.0041337791248113685 0.997082201267873 -0.019327506893814062 0.002674931892777984 0.007718005076041366
0.03126302626094 0.002935191629544361 0.00971187471450921 0.9967400854105101 -0.024191229081107633 0.00039342722976135264 0.005168848981565202 -0.0003494614944926756 -0.003226300144307252
 0.9967400854105101 -0.024191229081107633 0.0029351823449954646 0.00971187772195941 -0.00034953546104568144 -0.003226304964263766 0.0003931161847058686 0.005168889462274044
 0.00039342722976135264 0.005168848981565202 -0.00034953546104568144 -0.003226304964263766 0.002935166836395883 0.009711457216999399 0.9967400779978668 -0.02419164652696521
 -0.0003494614944926756 -0.003226300144307252 0.0003931161847058686 0.005168889462274044 0.9967400779978668 -0.02419164652696521 0.002935192271197422 0.009711459575148339
0.037515631513130004 0.0032171279328236575 0.011727021221018537 0.9963679575296687 -0.02907099270111532 0.000496158889483559 0.006204468706215657 -0.00043670462216175424 -0.0038759026552554103
 0.9963679575296687 -0.02907099270111532 0.0032171146620066575 0.011727025718940482 -0.0004368106457856719 -0.0038759069216019884 0.0004957107969712785 0.006204525520987317
 0.000496158889483559 0.006204468706215657 -0.0004368106457856719 -0.0038759069216019884 0.003217092660055931 0.011726520082201788 0.9963679472103718 -0.02907149334247027
 -0.00043670462216175424 -0.0038759026552554103 0.0004957107969712785 0.006204525520987317 0.9963679472103718 -0.02907149334247027 0.0032171292164030114 0.011726524280357822
0.043768236765320004 0.0035211793232639097 0.013763002762816666 0.9959654191359372 -0.03396662225906173 0.0006119914948468986 0.007240443617871468 -0.0005348391576659327 -0.004526330536593525
 0.9959654191359372 -0.03396662225906173 0.0035211613964051514 0.013763009145664636 -0.0005349828686918729 -0.004526333559373073 0.0006113812352176782 0.007240520389375868
 0.0006119914948468986 0.007240443617871468 -0.0005349828686918729 -0.004526333559373073 0.0035211317557385475 0.013762417880146847 0.9959654054407026 -0.0339672060189227
 -0.0005348391576659327 -0.004526330536593525 0.0006113812352176782 0.007240520389375868 0.9959654054407026 -0.0339672060189227 0.003521181434312126 0.013762424461140134
0.050020842017509996 0.0038477786667372956 0.015819171504105677 0.9955320657534771 -0.038878131418246524 0.0007410473273972364 0.008276591809938916 -0.0006439935209472475 -0.005177367295292369
 0.9955320657534771 -0.038878131418246524 0.003847755433207934 0.01581918020939196 -0.0006441805033939349 -0.005177368305217677 0.0007402496977143644 0.008276692546598888
 0.0007410473273972364 0.008276591809938916 -0.0006441805033939349 -0.005177368305217677 0.0038477169965475473 0.015818502765601147 0.9955320482145844 -0.03887879821466835
 -0.0006439935209472475 -0.005177367295292369 0.0007402496977143644 0.008276692546598888 0.9955320482145844 -0.03887879821466835 0.0038477817992412775 0.015818512310444795
0.055454545454549996 0.004150247472258544 0.01762199284557735 0.9951301290220689 -0.043159217782987806 0.0008640321967437188 0.00917702721529349 -0.0007478982105397942 -0.005743465206450515
 0.9951301290220689 -0.043159217782987806 0.004150219114609055 0.017622003958282603 -0.0007481272967663675 -0.005743463780761829 0.0008630512053170959 0.009177152337328177
 0.0008640321967437188 0.00917702721529349 -0.0007481272967663675 -0.005743463780761829 0.004150172083269278 0.017621251135549215 0.9951301077650547 -0.04315995667064272
 -0.0007478982105397942 -0.005743465206450515 0.0008630512053170959 0.009177152337328177 0.9951301077650547 -0.04315995667064272 0.004150251658338616 0.01762126375774978
0.056273447269699996 0.004197353779356712 0.017894954780470932 0.9950674931470456 -0.04380544052385479 0.0008834454594407336 0.009312720499252443 -0.00076429221172718 -0.00582879757845064
 0.9950674931470456 -0.04380544052385479 0.004197324609081362 0.01789496628927133 -0.0007645280041921713 -0.005828795726884767 0.0008824351749105676 0.009312849600569967
 0.0008834454594407336 0.009312720499252443 -0.0007645280041921713 -0.005828795726884767 0.0041972762048881 0.017894202064757076 0.995067471299083 -0.043806190270337934
 -0.00076429221172718 -0.00582879757845064 0.0008824351749105676 0.009312849600569967 0.995067471299083 -0.043806190270337934 0.00419735813780144 0.01789421519288295
0.06252605252188 0.004570327813307923 0.01998982665228809 0.9945712981799948 -0.04874840500940049 0.0010393014929840688 0.010348628108738581 -0.0008958557374727568 -0.006480405174509569
 0.9945712981799948 -0.04874840500940049 0.004570292097825687 0.019989841489517473 -0.0008961458335550109 -0.006480399533452635 0.0010380531888936162 0.010348790370652377
 0.0010393014929840688 0.010348628108738581 -0.0008961458335550109 -0.006480399533452635 0.004570232539553133 0.01998898982634602 0.9945712715607058 -0.04874923761738486
 -0.0008958557374727568 -0.006480405174509569 0.0010380531888936162 0.010348790370652377 0.9945712715607058 -0.04874923761738486 0.00457033361561801 0.019989007195732374
0.06877865777407 0.004967119422063794 0.022103290965003835 0.9940430794572392 -0.053706832306422765 0.0012087273296284484 0.01138410552396551 -0.001038800508272694 -0.007131971851075978
 0.9940430794572392 -0.053706832306422765 0.004967076575989765 0.022103309699837703 -0.0010391503566558895 -0.007131961413191424 0.0012072155643602627 0.011384306144197012
 0.0012087273296284484 0.01138410552396551 -0.0010391503566558895 -0.007131961413191424 0.0049670046580300815 0.022102369882770763 0.9940430476068518 -0.053707747687111645
 -0.001038800508272694 -0.007131971851075978 0.0012072155643602627 0.011384306144197012 0.9940430476068518 -0.053707747687111645 0.004967126900026898 0.022102392190046626
0.07503126302626001 0.005388142797095316 0.0242348706121829 0.9934824378461036 -0.05868049256333854 0.0013918309585460446 0.012418936913586962 -0.0011932387123874658 -0.007783276639951338
 0.9934824378461036 -0.05868049256333854 0.005388092259598363 0.02423489385834858 -0.0011936537167849964 -0.007783260318587147 0.0013900302170452732 0.012419181496956585
 0.0013918309585460446 0.012418936913586962 -0.0011936537167849964 -0.007783260318587147 0.005388006755164471 0.02423386512522249 0.9934824003071357 -0.05868149061742433
 -0.0011932387123874658 -0.007783276639951338 0.0013900302170452732 0.012419181496956585 0.9934824003071357 -0.05868149061742433 0.0053881521979226715 0.024233893105727298
0.08128386827845 0.0058338076189351235 0.026384100417174636 0.9928889769152561 -0.0636691257580828 0.0015887162556285533 0.01345290029914385 -0.0013592781795949598 -0.008434095384205417
 0.9928889769152561 -0.0636691257580828 0.0058337488549657915 0.026384128833176732 -0.0013597636983121281 -0.008434072013469442 0.0015866009535253352 0.013453194862838526
 0.0015887162556285533 0.01345290029914385 -0.0013597636983121281 -0.008434072013469442 0.005833648514019249 0.026383010366790093 0.9928889332333953 -0.06367020638408542
 -0.0013592781795949598 -0.008434095384205417 0.0015866009535253352 0.013453194862838526 0.9928889332333953 -0.06367020638408542 0.005833819208090119 0.02638304479430789
0.08753647353064001 0.006304518957412743 0.028550522220320215 0.9922623033282986 -0.0686724466181218 0.0017994827912238762 0.014485767966275894 -0.0015370222352982619 -0.009084200455728778
 0.9922623033282986 -0.0686724466181218 0.006304451459284824 0.028550556509662886 -0.0015375835808783013 -0.009084168790556266 0.0017970272791005759 0.014486118945041518
 0.0017994827912238762 0.014485767966275894 -0.0015375835808783013 -0.009084168790556266 0.0063043350057338755 0.02854934744044887 0.9922622530523175 -0.06867360970999907
 -0.0015370222352982619 -0.009084200455728778 0.0017970272791005759 0.014486118945041518 0.9922622530523175 -0.06867360970999907 0.006304533019584032 0.02854938912715227
0.09378907878283 0.006800677131566195 0.030733681373552573 0.9916020272017714 -0.073690148146926 0.0020242256425865397 0.01551730678938787 -0.001726569549650297 -0.00973336057129108
 0.9916020272017714 -0.073690148146926 0.006800600420560343 0.030733722284875475 -0.0017272119882886323 -0.00973331928754645 0.002021404210754011 0.01551772104071019
 0.0020242256425865397 0.01551730678938787 -0.0017272119882886323 -0.00973331928754645 0.006800466550143374 0.030732421692302458 0.9916019698835165 -0.07369139359294016
 -0.001726569549650297 -0.00973336057129108 0.002021404210754011 0.01551772104071019 0.9916019698835165 -0.07369139359294016 0.0068006939731877205 0.030732471488439578
0.100041684035 0.007322677543473957 0.03293312420608888 0.9909077624401028 -0.07872190419317456 0.0022630352105978105 0.016547278488216025 -0.0019280139825965314 -0.010381340689125211
 0.9909077624401028 -0.07872190419317456 0.007322591171527904 0.03293317253323885 -0.001928742733557904 -0.010381288383727953 0.0022598220942131684 0.016547763297442102
 0.0022630352105978105 0.016547278488216025 -0.001928742733557904 -0.010381288383727953 0.007322438548531661 0.0329317794448227 0.9909076976348 -0.07872323187748129
 -0.0019280139825965314 -0.010381340689125211 0.0022598220942131684 0.016547763297442102 0.9909076976348 -0.07872323187748129 0.007322697494145078 0.03293183823832098
0.1059090909091 0.007836370540776603 0.03501147291458878 0.9902250159803644 -0.08345615035462836 0.002500002452631684 0.017512155815487214 -0.0021279477669453144 -0.010988115385969725
 0.9902250159803644 -0.08345615035462836 0.007836274723804392 0.035011528963100745 -0.0021287622171497498 -0.010988051391643858 0.002496398304357062 0.01751271384726766
 0.002500002452631684 0.017512155815487214 -0.0021287622171497498 -0.010988051391643858 0.007836103259338206 0.03501004814672674 0.990224943747965 -0.08345755510184422
 -0.0021279477669453144 -0.010988115385969725 0.002496398304357062 0.01751271384726766 0.990224943747965 -0.08345755510184422 0.007836393731410492 0.03501011622406297
0.1062942892872 0.007870910491644132 0.03514839611611224 0.9901791270541616 -0.08376737140856644 0.0025159970400543082 0.017575439850147735 -0.002141444426230924 -0.011027901952280303
 0.9901791270541616 -0.08376737140856644 0.00787081404258231 0.035148452698279854 -0.0021422646610075543 -0.01102783714335348 0.0025123664242450838 0.017576002935460095
 0.0025159970400543082 0.017575439850147735 -0.0021422646610075543 -0.01102783714335348 0.007870641298292843 0.03514696609030088 0.9901790543206487 -0.08376878121089137
 -0.002141444426230924 -0.011027901952280303 0.0025123664242450838 0.017576002935460095 0.9901790543206487 -0.08376878121089137 0.007870933906498921 0.035147034806374
0.11254689453939999 0.008445760970018184 0.03737904014044347 0.9894157434685744 -0.08882619074253913 0.002783191642359601 0.01860154292169346 -0.002366944645415472 -0.011672801675480808
 0.9894157434685744 -0.08882619074253913 0.008445654061621575 0.03737910586201213 -0.002367861487094408 -0.011672722802525305 0.002779117667938722 0.018602192439089976
 0.002783191642359601 0.01860154292169346 -0.002367861487094408 -0.011672722802525305 0.008445459790910579 0.03737752465971066 0.9894156623692686 -0.08882768253870729
 -0.002366944645415472 -0.011672801675480808 0.002779117667938722 0.018602192439089976 0.9894156623692686 -0.08882768253870729 0.008445788231490729 0.03737760426021121
0.11879949979160001 0.0090476084551835 0.039624595847983404 0.9886172388192289 -0.0938979886280649 0.0030646943210679905 0.019625335186300313 -0.0026045931177074715 -0.012315793358563578
 0.9886172388192289 -0.0938979886280649 0.009047490740662783 0.03962467163854113 -0.002605611640102065 -0.012315698782638175 0.0030601510901353693 0.01962607973446365
 0.0030646943210679905 0.019625335186300313 -0.002605611640102065 -0.012315698782638175 0.00904727349966865 0.039622994720508335 0.9886171489201828 -0.09389956228630769
 -0.0026045931177074715 -0.012315793358563578 0.0030601510901353693 0.01962607973446365 0.9886171489201828 -0.09389956228630769 0.009047639974910765 0.03962308620334233
0.1250521050438 0.009676826684366407 0.041884598494457415 0.9877832452442121 -0.09898237792198408 0.0033605749993756264 0.020646559728919645 -0.002854462873011797 -0.012956626726152652
 0.9877832452442121 -0.09898237792198408 0.009676697854196765 0.04188468532865365 -0.002855588099774798 -0.012956514730155171 0.0033555365813838995 0.020647408353945625
 0.0033605749993756264 0.020646559728919645 -0.002855588099774798 -0.012956514730155171 0.009676456157852313 0.041882911521585645 0.9877831461160012 -0.09898403330900998
 -0.002854462873011797 -0.012956626726152652 0.0033555365813838995 0.020647408353945625 0.9877831461160012 -0.09898403330900998 0.009676862905849808 0.04188301591991086
0.131304710296 0.010333783427301076 0.044158578353146405 0.9869134001701403 -0.10407895868472788 0.0036708980501956303 0.021664955397918084 -0.0031166213334405486 -0.01359504778309537
 0.9869134001701403 -0.10407895868472788 0.010333643210974233 0.04415867725048112 -0.003117858237201072 -0.013594916571941602 0.003665338488118064 0.021665917598035538
 0.0036708980501956303 0.021664955397918084 -0.003117858237201072 -0.013594916571941602 0.010333375530184152 0.04415680533398708 0.9869132913872389 -0.10408069566178725
 -0.0031166213334405486 -0.01359504778309537 0.003665338488118064 0.021665917598035538 0.9869132913872389 -0.10408069566178725 0.010333824827504 0.04415692371539989
0.1375573155481 0.010878943783264934 0.04614914912761599 0.9861473206422781 -0.1088902057425117 0.003959873940434785 0.022651656024237025 -0.0033552963694394727 -0.014202221760029018
 0.9861473206422781 -0.1088902057425117 0.01087879101097356 0.04614925906025158 -0.0033566520850846814 -0.014202070954281089 0.0039537837503599545 0.022652731281557585
 0.003959873940434785 0.022651656024237025 -0.0033566520850846814 -0.014202070954281089 0.010878495490393913 0.0461472905422351 0.9861472017797761 -0.10889202414937464
 -0.0033552963694394727 -0.014202221760029018 0.0039537837503599545 0.022652731281557585 0.9861472017797761 -0.10889202414937464 0.010878991153808736 0.04614742049199625
0.1438099208003 0.011443557738376334 0.048127123272668264 0.9853537006520766 -0.11368713385903796 0.004260449157767813 0.023633078029645545 -0.003603426417732544 -0.014804556705873927
 0.9853537006520766 -0.11368713385903796 0.011443392021830232 0.04812724508640699 -0.0036049062338868415 -0.014804384528506378 0.004253805308727549 0.023634275064658677
 0.004260449157767813 0.023633078029645545 -0.0036049062338868415 -0.014804384528506378 0.011443067016771672 0.04812517897713647 0.9853535712920849 -0.1136890335438796
 -0.003603426417732544 -0.014804556705873927 0.004253805308727549 0.023634275064658677 0.9853535712920849 -0.1136890335438796 0.011443611649947158 0.04812532122297208
0.1500625260525 0.012027392279558225 0.050092273672470905 0.9845327786244216 -0.11846956075048554 0.0045724976486831775 0.024609079765582933 -0.0038608887616329666 -0.015401920293935336
 0.9845327786244216 -0.11846956075048554 0.012027213254261771 0.05009240824361566 -0.003862497944036611 -0.01540172489773111 0.004565277272544886 0.02461040761826742
 0.0045724976486831775 0.024609079765582933 -0.003862497944036611 -0.01540172489773111 0.012026857075857884 0.050090243522632145 0.9845326383537187 -0.11847154155501874
 -0.0038608887616329666 -0.015401920293935336 0.004565277272544886 0.02461040761826742 0.9845326383537187 -0.11847154155501874 0.012027453335647446 0.05009039880809991
0.15631513130469998 0.012630212323803675 0.05204438003726111 0.9836847946607955 -0.12323730626212734 0.004895891627394803 0.025579522521477698 -0.004127558952302447 -0.01599418346172057
 0.9836847946607955 -0.12323730626212734 0.012630019649406441 0.0520445282717172 -0.004129302743186765 -0.015993962929883324 0.004888072021058696 0.025580990547810017
