! Created with skrf 1.8.0 (http://scikit-rf.org).
# GHz S RI R 50.0 
!freq ReS11 ImS11 ReS12 ImS12 ReS13 ImS13
! ReS14 ImS14
! ReS21 ImS21 ReS22 ImS22 ReS23 ImS23
! ReS24 ImS24
! ReS31 ImS31 ReS32 ImS32 ReS33 ImS33
! ReS34 ImS34
! ReS41 ImS41 ReS42 ImS42 ReS43 ImS43
! ReS44 ImS44
!
0.0 0.001143305035768 0.0 0.9988566949443 0.0 4.341796204925e-05 0.0 -4.341796204812e-05 5.317166824773142e-21
 0.9988566949443 0.0 0.001143305035795 0.0 -4.341796204897e-05 5.3171668248772374e-21 4.341796204785e-05 0.0
 4.341796204925e-05 0.0 -4.341796204897e-05 5.3171668248772374e-21 0.00114330503863 0.0 0.9988566949472 0.0
 -4.341796204812e-05 5.317166824773142e-21 4.341796204785e-05 0.0 0.9988566949472 0.0 0.00114330503861 0.0
0.005 0.0012292264420577217 0.0009360324404178762 0.9987481400427968 -0.0023960299646367308 6.024236231815094e-05 0.00047783390947523345 -5.866122408108616e-05 -0.0003001672251153179
 0.9987481400427968 -0.0023960299646367308 0.0012292101027567641 0.0009360419369237497 -5.8660912528695955e-05 -0.00030016694301014673 6.0350037702719144e-05 0.0004777931017386054
 6.024236231815094e-05 0.00047783390947523345 -5.8660912528695955e-05 -0.00030016694301014673 0.001229226500151336 0.0009359651248072777 0.9987481397203188 -0.00239609702298232
 -5.866122408108616e-05 -0.0003001672251153179 6.0350037702719144e-05 0.0004777931017386054 0.9987481397203188 -0.00239609702298232 0.0012292094004765358 0.0009359751358233049
0.006252605252188 0.0012515082930050203 0.0011737581392736905 0.9987198563192016 -0.0029956628779001654 6.488791338319005e-05 0.0005975413444922917 -6.284785994558649e-05 -0.00037561162979575345
 0.9987198563192016 -0.0029956628779001654 0.0012514827520022506 0.0011737701797344335 -6.284737548161617e-05 -0.0003756112809186257 6.505615106555523e-05 0.0005974883998163565
 6.488791338319005e-05 0.0005975413444922917 -6.284737548161617e-05 -0.0003756112809186257 0.0012515084567248666 0.0011736740005601446 0.9987198558876 -0.0029957466908413204
 -6.284785994558649e-05 -0.00037561162979575345 6.505615106555523e-05 0.0005974883998163565 0.9987198558876 -0.0029957466908413204 0.001251481726365634 0.0011736866927253547
0.01250521050438 0.0013673327163449475 0.002372477801654947 0.9985720807187247 -0.005992335847160006 9.067932501847903e-05 0.0011955301210404587 -8.597357130374986e-05 -0.0007532025587851205
 0.9985720807187247 -0.005992335847160006 0.0013672307370515943 0.002372503579967915 -8.597166602742856e-05 -0.0007532019010055748 9.135033410258133e-05 0.001195403725774392
 9.067932501847903e-05 0.0011955301210404587 -8.597166602742856e-05 -0.0007532019010055748 0.0013673339387917554 0.0023723097130571784 0.9985720795582984 -0.005992503240145422
 -8.597357130374986e-05 -0.0007532025587851205 9.135033410258133e-05 0.001195403725774392 0.9985720795582984 -0.005992503240145422 0.0013672271992255013 0.0023723368861553453
0.01875781575657 0.0014909769650295155 0.003588677617564274 0.9984132233739983 -0.008997364419554996 0.00012084424865650791 0.001794399310467518 -0.0001128544578866647 -0.0011322609516520108
 0.9984132233739983 -0.008997364419554996 0.0014907478288980758 0.003588718927443428 -0.000112850214453996 -0.0011322600295511655 0.00012235187833455535 0.0017941757887283587
 0.00012084424865650791 0.001794399310467518 -0.000112850214453996 -0.0011322600295511655 0.0014909801449268156 0.003588425632455807 0.9984132211875363 -0.008997615287050148
 -0.0001128544578866647 -0.0011322609516520108 0.00012235187833455535 0.0017941757887283587 0.9984132211875363 -0.008997615287050148 0.0014907402896922072 0.0035884691913478785
0.02501042100875 0.0016226365179343553 0.00482070836901105 0.9982431354226217 -0.012012257546538481 0.00015543487085360104 0.002394208166140882 -0.00014354872378069235 -0.0015126462258711409
 0.9982431354226217 -0.012012257546538481 0.0016222296205811915 0.004820767081455006 -0.00014354123740845185 -0.001512645089717812 0.0001581133030690288 0.002393860819225289
 0.00015543487085360104 0.002394208166140882 -0.00014354123740845185 -0.001512645089717812 0.0016226425590885596 0.004820372493253489 0.9982431319135209 -0.01201259182300009
 -0.00014354872378069235 -0.0015126462258711409 0.0001581133030690288 0.002393860819225289 0.9982431319135209 -0.01201259182300009 0.0016222165875233625 0.004820434438902973
0.03126302626094 0.0017624983341361289 0.006067747776173368 0.9980616586667704 -0.015037692798623407 0.00019450386654615837 0.0029949618977045222 -0.00017811335418656244 -0.0018942694453153272
 0.9980616586667704 -0.015037692798623407 0.0017618631598516504 0.006067825835126441 -0.00017810173048368402 -0.00189426815118537 0.0001986879457367495 0.0029944609884231884
 0.00019450386654615837 0.0029949618977045222 -0.00017810173048368402 -0.00189426815118537 0.0017625081469423486 0.006067327992367343 0.9980616535397425 -0.015038110434223647
 -0.00017811335418656244 -0.0018942694453153272 0.0001986879457367495 0.0029944609884231884 0.9980616535397425 -0.015038110434223647 0.0017618431378826193 0.006067410417701981
0.037515631513130004 0.0019107454811400353 0.007329279748634703 0.9978686302771057 -0.018074037073089435 0.00023810400240937538 0.003596644879545825 -0.00021660454757315654 -0.0022770601095365847
 0.9978686302771057 -0.018074037073089435 0.0019098315865524534 0.007329379168417763 -0.00021658790136623395 -0.002277058719328814 0.0002441293960088734 0.003595957600179539
 0.00023810400240937538 0.003596644879545825 -0.00021658790136623395 -0.002277058719328814 0.0019107599807283914 0.007328776017962052 0.9978686232364271 -0.01807453803183252
 -0.00021660454757315654 -0.0022770601095365847 0.0002441293960088734 0.003595957600179539 0.9978686232364271 -0.01807453803183252 0.001909803076069043 0.007328881105561625
0.043768236765320004 0.0020675589293289694 0.008604935894927822 0.9976638846613466 -0.02112150503931167 0.00028628795812495164 0.004199230745502336 -0.0002590778809129147 -0.0026609560497638167
 0.9976638846613466 -0.02112150503931167 0.0020663159314710197 0.008605058758309924 -0.00025905533554170017 -0.00266095463119418 0.0002944912451256795 0.004198321180736953
 0.00028628795812495164 0.004199230745502336 -0.00025905533554170017 -0.00266095463119418 0.0020675790366335434 0.008604348167881781 0.9976638754119621 -0.021122089288242933
 -0.0002590778809129147 -0.0026609560497638167 0.0002944912451256795 0.004198321180736953 0.9976638754119621 -0.021122089288242933 0.0020662774291303537 0.008604478188374705
0.050020842017509996 0.0022331183973554164 0.009894430047209097 0.9974472543829932 -0.024180224567342843 0.0003391082214865008 0.004802686556519768 -0.0003055883834943889 -0.003045899250444416
 0.9974472543829932 -0.024180224567342843 0.0022314959633031903 0.009894578503890365 -0.00030555907028855737 -0.0030458978770325352 0.00034982694293144237 0.00480151564417394
 0.0003391082214865008 0.004802686556519768 -0.00030555907028855737 -0.0030458978770325352 0.0022331450384310493 0.009893758264704037 0.9974472426295672 -0.024180892075418837
 -0.0003055883834943889 -0.003045899250444416 0.00034982694293144237 0.00480151564417394 0.9974472426295672 -0.024180892075418837 0.0022314459617541428 0.009893915575475186
0.055454545454549996 0.0023842363982997184 0.011026093424083238 0.9972492132675624 -0.026847540015706026 0.00038881644893734487 0.005327785432394942 -0.0003493284433949627 -0.0033812336047216907
 0.9972492132675624 -0.026847540015706026 0.0023822433783606575 0.011026265918906084 -0.0003492925492239464 -0.0033812323347515026 0.00040199605219119733 0.005326353203411557
 0.00038881644893734487 0.005327785432394942 -0.0003492925492239464 -0.0033812323347515026 0.00238426947415045 0.011025348535981258 0.9972491990988335 -0.026848279858070846
 -0.0003493284433949627 -0.0033812336047216907 0.00040199605219119733 0.005326353203411557 0.9972491990988335 -0.026848279858070846 0.0023821821569684413 0.011025531543950386
0.056273447269699996 0.0024076027989182423 0.011197526105110116 0.9972185706830266 -0.027250268836999568 0.000396617019300275 0.005406974840945598 -0.0003561905663108371 -0.0034318337980114304
 0.9972185706830266 -0.027250268836999568 0.002405550636933571 0.011197702370382851 -0.00035615362426382944 -0.003431832549058225 0.00041018970627518193 0.0054055003315628715
 0.000396617019300275 0.005406974840945598 -0.00035615362426382944 -0.003431832549058225 0.0024076369054171396 0.011196770193548698 0.9972185561305635 -0.02725101957984494
 -0.0003561905663108371 -0.0034318337980114304 0.00041018970627518193 0.0054055003315628715 0.9972185561305635 -0.02725101957984494 0.002405487625106185 0.011196957237745027
0.06252605252188 0.0025911904945164054 0.012514020366420004 0.9969776638069533 -0.030331673960023644 0.00045886626372206566 0.006012054712894887 -0.0004109384315421875 -0.003818704751959104
 0.9969776638069533 -0.030331673960023644 0.0025886583454696613 0.012514226720006707 -0.00041089300700421276 -0.003818703712523039 0.00047563245028652966 0.006010231128740037
 0.00045886626372206566 0.006012054712894887 -0.00041089300700421276 -0.003818703712523039 0.002591233003812719 0.012513180242052521 0.9969776461609255 -0.03033250791563171
 -0.0004109384315421875 -0.003818704751959104 0.00047563245028652966 0.006010231128740037 0.9969776461609255 -0.03033250791563171 0.0025885808092039014 0.012513399547749812
0.06877865777407 0.0027840594432566776 0.013843730992051443 0.996724363234323 -0.03342444946867276 0.0005259075078253554 0.006617882535617553 -0.0004698854693493037 -0.004206457471623333
 0.996724363234323 -0.03342444946867276 0.002780997073045782 0.013843969777145877 -0.0004698307158615893 -0.004206456732494466 0.0005462077339688025 0.00661566112928585
 0.0005259075078253554 0.006617882535617553 -0.0004698307158615893 -0.004206456732494466 0.0027841112972491915 0.013842806560912094 0.9967243421995303 -0.03342536661726465
 -0.0004698854693493037 -0.004206457471623333 0.0005462077339688025 0.00661566112928585 0.9967243421995303 -0.03342536661726465 0.0027809034937085974 0.013843060740443839
0.07503126302626001 0.0029863872889933423 0.015186491322272105 0.9964584978433918 -0.03652858495340115 0.0005977919065112578 0.007224412341061785 -0.0005330846475009698 -0.004595037187557297
 0.9964584978433918 -0.03652858495340115 0.0029827444807761965 0.015186764944749439 -0.0005330197255850229 -0.004595036845235917 0.0006219677133387458 0.007221741053916036
 0.0005977919065112578 0.007224412341061785 -0.0005330197255850229 -0.004595036845235917 0.0029864494350349572 0.015185482479031282 0.9964584731250783 -0.0365295852786563
 -0.0005330846475009698 -0.004595037187557297 0.0006219677133387458 0.007221741053916036 0.9964584731250783 -0.0365295852786563 0.0029826333366985373 0.015185774228515178
0.08128386827845 0.003198351410787671 0.01654214543215259 0.9961798960417044 -0.0396440544625888 0.0006745701806277536 0.007831596107533055 -0.0006005883958525179 -0.004984388715774747
 0.9961798960417044 -0.0396440544625888 0.0031940779574574003 0.01654245635988776 -0.000600512472895334 -0.004984388872446094 0.0007029640998446587 0.007828419528046825
 0.0006745701806277536 0.007831596107533055 -0.000600512472895334 -0.004984388872446094 0.0031984248010884417 0.016541052064515768 0.9961798673445913 -0.039645137946958994
 -0.0006005883958525179 -0.004984388715774747 0.0007029640998446587 0.007828419528046825 0.9961798673445913 -0.039645137946958994 0.003193947723400427 0.016541384163509767
0.08753647353064001 0.003420128947714209 0.017910545057468138 0.995888385872184 -0.042770819532189794 0.0007562925827474382 0.00843938395059004 -0.0006724485878731602 -0.005374456259776428
 0.995888385872184 -0.042770819532189794 0.0034151746444755016 0.017910895819894287 -0.0006723608379893176 -0.0053744570232824125 0.0007892481215615324 0.008435643272654048
 0.0007562925827474382 0.00843938395059004 -0.0006723608379893176 -0.0053744570232824125 0.003420214539117287 0.017909367040485215 0.9958883529008272 -0.0427719861627389
 -0.0006724485878731602 -0.005374456259776428 0.0007892481215615324 0.008435643272654048 0.9958883529008272 -0.0427719861627389 0.003415023791845751 0.01790974235180062
0.09378907878283 0.0036518968061152518 0.01929154739191133 0.9955837951041049 -0.04590883134577262 0.0008430088647660768 0.009047724257605439 -0.0007487165191239255 -0.005765183269949179
 0.9955837951041049 -0.04590883134577262 0.0036462114432263787 0.019291940579634077 -0.000748616123078383 -0.005765184753768776 0.0008808704869956729 0.009043357238915814
 0.0008430088647660768 0.009047724257605439 -0.000748616123078383 -0.005765184753768776 0.0036519955605826475 0.019290284591314218 0.9955837575632965 -0.045910081110620206
 -0.0007487165191239255 -0.005765183269949179 0.0008808704869956729 0.009043357238915814 0.9955837575632965 -0.045910081110620206 0.0036460384406493767 0.01929070606101036
0.100041684035 0.003893831656226893 0.020685013470996636 0.9952659513139949 -0.04905803230842041 0.0009347682456724104 0.009656563786600954 -0.0008294428844284964 -0.006156512339865864
 0.9952659513139949 -0.04905803230842041 0.003887365011636791 0.020685451735658698 -0.0008293290295409912 -0.006156514663086822 0.0009778813498756908 0.009651504707115163
 0.0009347682456724104 0.009656563786600954 -0.0008293290295409912 -0.006156514663086822 0.0038939445398550486 0.020683665743815173 0.9952659089074767 -0.049059365196069446
 -0.0008294428844284964 -0.006156512339865864 0.0009778813498756908 0.009651504707115163 0.9952659089074767 -0.049059365196069446 0.003887168324315838 0.02068413640131628
0.1059090909091 0.004130265776321092 0.022003847757125893 0.9949554814515441 -0.05202334181666829 0.0010255046836588982 0.010228300354061035 -0.0009092955225259461 -0.0065242287763893235
 0.9949554814515441 -0.05202334181666829 0.004123020287620555 0.02200433078775461 -0.0009091683045639044 -0.006524232000585491 0.001073860693845655 0.010222528942965901
 0.0010255046836588982 0.010228300354061035 -0.0009091683045639044 -0.006524232000585491 0.004130392801430525 0.02200242019580418 0.9949554342098393 -0.05202475269790561
 -0.0009092955225259461 -0.0065242287763893235 0.001073860693845655 0.010222528942965901 0.9949554342098393 -0.05202475269790561 0.004122799976738938 0.022002939840634235
0.1062942892872 0.004146109917645564 0.022090806964300953 0.9949346819568506 -0.052218357213855496 0.0010316193802135274 0.010265847740620079 -0.0009146777533112213 -0.006548385128204674
 0.9949346819568506 -0.052218357213855496 0.004138811749338413 0.022091293018615524 -0.00091454963335674 -0.00654838841549903 0.0010803302749985545 0.010260027361149058
 0.0010316193802135274 0.010265847740620079 -0.00091454963335674 -0.00654838841549903 0.004146237901323745 0.022089374156072875 0.9949346343887617 -0.052219773215986545
 -0.0009146777533112213 -0.006548385128204674 0.0010803302749985545 0.010260027361149058 0.9949346343887617 -0.052219773215986545 0.004138589840283163 0.02208989711452562
0.11254689453939999 0.004408907739685688 0.0235087932330475 0.9945898144350266 -0.05538973414743838 0.0011336103277257389 0.01087551982396276 -0.0010044705442285868 -0.006940742300007967
 0.9945898144350266 -0.05538973414743838 0.004400727778669121 0.02350932985092214 -0.0010043273594312837 -0.006940746681610535 0.001188266204780523 0.010868865344960016
 0.0011336103277257389 0.01087551982396276 -0.0010043273594312837 -0.006940746681610535 0.004409051798445173 0.023507275181624702 0.9945897614084792 -0.05539123325493279
 -0.0010044705442285868 -0.006940742300007967 0.001188266204780523 0.010868865344960016 0.9945897614084792 -0.05539123325493279 0.004400479107772416 0.023507853638309983
0.11879949979160001 0.004682400975950498 0.024938838610422818 0.9942311761606104 -0.05857208516758719 0.0012407885209866627 0.011485522287474693 -0.0010988699981319822 -0.007333523480210777
 0.9942311761606104 -0.05857208516758719 0.004673288918469869 0.024939428627351472 -0.001098710955058557 -0.007333529091892482 0.001301737425895785 0.011477957307973444
 0.0012407885209866627 0.011485522287474693 -0.001098710955058557 -0.007333529091892482 0.004682562088920969 0.024937235142557516 0.9942311173786017 -0.058573667373908914
 -0.0010988699981319822 -0.007333523480210777 0.001301737425895785 0.011477957307973444 0.9942311173786017 -0.058573667373908914 0.004673011943319828 0.02493787237962264
0.1250521050438 0.004966765154183994 0.02638080982017085 0.9938585946168834 -0.06176532685055973 0.0013532007352273048 0.012095795962643341 -0.001197924150860188 -0.007726667219604253
 0.9938585946168834 -0.06176532685055973 0.004956670654182714 0.02638145613377444 -0.0011977484623822189 -0.007726674202647368 0.0014207915365768307 0.012087240439466762
 0.0013532007352273048 0.012095795962643341 -0.0011977484623822189 -0.007726674202647368 0.004966944304762452 0.02637912075213933 0.9938585297819031 -0.06176699215106613
 -0.001197924150860188 -0.007726667219604253 0.0014207915365768307 0.012087240439466762 0.9938585297819031 -0.06176699215106613 0.004956363830323388 0.026379820137406345
0.131304710296 0.0052621754438136525 0.02783457351212284 0.9934718974171042 -0.06496937071962926 0.001470893057129223 0.01270628029144634 -0.0013016803050199708 -0.008120110966398166
 0.9934718974171042 -0.06496937071962926 0.005251048105474677 0.027835279082884235 -0.0013014871902850443 -0.00812011946757493 0.0015454754136963603 0.01269665049868609
 0.001470893057129223 0.01270628029144634 -0.0013014871902850443 -0.00812011946757493 0.005262373619244626 0.02783279865049649 0.9934718262309679 -0.06497111911068146
 -0.0013016803050199708 -0.008120110966398166 0.0015454754136963603 0.01269665049868609 0.9934718262309679 -0.06497111911068146 0.005250709886265001 0.02783356363849851
0.1375573155481 0.005492845291284397 0.029109712629855126 0.9931468931563993 -0.06799378431148348 0.001576343720074529 0.01329699196427383 -0.0013925287930958753 -0.008493934419466064
 0.9931468931563993 -0.06799378431148348 0.0054806300008448505 0.029110464397453493 -0.0013923169805312747 -0.008493944404312526 0.0016580873428554135 0.013286317802167174
 0.001576343720074529 0.01329699196427383 -0.0013923169805312747 -0.008493944404312526 0.0054930628114332756 0.029107851992923803 0.9931468153337297 -0.0679956157652764
 -0.0013925287930958753 -0.008493934419466064 0.0016580873428554135 0.013286317802167174 0.9931468153337297 -0.0679956157652764 0.005480259481554269 0.02910866954656221
0.1438099208003 0.005731322336376845 0.03037944595937305 0.9928110211628931 -0.07101186518625788 0.001686027648094403 0.013886145592911438 -0.00148701859859015 -0.008866295734235401
 0.9928110211628931 -0.07101186518625788 0.005717967866672389 0.030380245844542787 -0.0014867872278829988 -0.008866307344963376 0.0017752506926741888 0.013874352143622341
 0.001686027648094403 0.013886145592911438 -0.0014867872278829988 -0.008866307344963376 0.005731560072506458 0.030377499369313957 0.9928109364076322 -0.07101377969377494
 -0.00148701859859015 -0.008866295734235401 0.0017752506926741888 0.013874352143622341 0.9928109364076322 -0.07101377969377494 0.005717563613758424 0.030378371866857684
0.1500625260525 0.005977538356793518 0.031643706579623974 0.992464352254511 -0.0740235783900109 0.0017999152310713966 0.014473708781862604 -0.0015851202385093236 -0.009237161926476776
 0.992464352254511 -0.0740235783900109 0.005962993394395532 0.031644556619465275 -0.0015848684493953644 -0.009237175311030122 0.0018969345006712168 0.014460718439081435
 0.0017999152310713966 0.014473708781862604 -0.0015848684493953644 -0.009237175311030122 0.005977797175767533 0.03164167385014415 0.9924642602705982 -0.07402557594379867
 -0.0015851202385093236 -0.009237161926476776 0.0018969345006712168 0.014460718439081435 0.9924642602705982 -0.07402557594379867 0.005962553980133272 0.03164260380290512
0.15631513130469998 0.006231424822463068 0.03290242984390351 0.9921069574153408 -0.07702888837374983 0.0019179766124833826 0.015059649552062375 -0.0016868039636547386 -0.009606500620070594
