! Created with skrf 1.8.0 (http://scikit-rf.org).
# GHz S RI R 50.0 
!freq ReS11 ImS11 ReS12 ImS12 ReS13 ImS13
! ReS14 ImS14
! ReS21 ImS21 ReS22 ImS22 ReS23 ImS23
! ReS24 ImS24
! ReS31 ImS31 ReS32 ImS32 ReS33 ImS33
! ReS34 ImS34
! ReS41 ImS41 ReS42 ImS42 ReS43 ImS43
! ReS44 ImS44
!
0.0 0.00165890517509 0.0 0.998341094824 0.0 6.414997740155e-05 0.0 -6.414997651296e-05 7.856106340197434e-21
 0.998341094824 0.0 0.001658905175054 0.0 -6.414997651211e-05 7.856106340093339e-21 6.414997739984e-05 0.0
 6.414997740155e-05 0.0 -6.414997651211e-05 7.856106340093339e-21 0.001658905175055 0.0 0.998341094824 0.0
 -6.414997651296e-05 7.856106340197434e-21 6.414997739984e-05 0.0 0.998341094824 0.0 0.00165890517507 0.0
0.005 0.0017852061191130821 0.0013574042402465715 0.9981812674480848 -0.0034745055729137717 8.991954300270052e-05 0.0007034111240207129 -8.739213001237189e-05 -0.00044203506829187196
 0.9981812674480848 -0.0034745055729137717 0.0017851930665441782 0.0013574118868913017 -8.739390581600477e-05 -0.0004420364727139266 9.001232740211558e-05 0.0007033760859464739
 8.991954300270052e-05 0.0007034111240207129 -8.739390581600477e-05 -0.0004420364727139266 0.0017852046243507324 0.0013573378878637074 0.998181267075778 -0.00347457262679717
 -8.739213001237189e-05 -0.00044203506829187196 9.001232740211558e-05 0.0007033760859464739 0.998181267075778 -0.00347457262679717 0.001785193818600273 0.0013573441318022457
0.006252605252188 0.0018184398843741627 0.001702077213807505 0.9981389349136988 -0.0043439643981867905 9.731674343115964e-05 0.0008796009232693777 -9.40002050652405e-05 -0.000553108116523502
 0.9981389349136988 -0.0043439643981867905 0.0018184194795817944 0.0017020868341204873 -9.400296802568473e-05 -0.0005531098487545296 9.746171337908514e-05 0.0008795553614526411
 9.731674343115964e-05 0.0008796009232693777 -9.400296802568473e-05 -0.0005531098487545296 0.001818437622069258 0.0017019942926530416 0.9981389344064732 -0.0043440482022549486
 -9.40002050652405e-05 -0.000553108116523502 9.746171337908514e-05 0.0008795553614526411 0.9981389344064732 -0.0043440482022549486 0.0018184207304309163 0.0017020021482075129
0.01250521050438 0.0019940227790833814 0.0034396261899210866 0.9979137556122873 -0.008688607349584663 0.0001399239334622366 0.0017595387462912258 -0.00013174000313985592 -0.0011088241773434902
 0.9979137556122873 -0.008688607349584663 0.001993941288740551 0.003439646045377383 -0.00013175088770588233 -0.0011088273853817625 0.0001405021403771375 0.0017594285358433386
 0.0001399239334622366 0.0017595387462912258 -0.00013175088770588233 -0.0011088273853817625 0.001994014330458582 0.0034394606423841833 0.9979137541774664 -0.008688774737423214
 -0.00013174000313985592 -0.0011088241773434902 0.0001405021403771375 0.0017594285358433386 0.9979137541774664 -0.008688774737423214 0.001993946881700161 0.0034394768313959095
0.01875781575657 0.0021860595762475637 0.005201702483084349 0.9976652609848627 -0.01304447632460441 0.0001920751214085342 0.0026403839851553315 -0.00017749009055648146 -0.0016663368323150732
 0.9976652609848627 -0.01304447632460441 0.0021858764386728582 0.005201733244928898 -0.0001775143577092466 -0.001666341208113833 0.00019337423447339877 0.0026401861600461036
 0.0001920751214085342 0.0026403839851553315 -0.0001775143577092466 -0.001666341208113833 0.0021860410019073984 0.005201454537437434 0.9976652581823937 -0.013044727183316038
 -0.00017749009055648146 -0.0016663368323150732 0.00019337423447339877 0.0026401861600461036 0.9976652581823937 -0.013044727183316038 0.0021858894429159738 0.005201479525161811
0.02501042100875 0.002394942700420362 0.006985813498237972 0.9973931428048965 -0.017413653804010134 0.0002538745542185435 0.003522156869716382 -0.00023136683680478345 -0.0022253778396971566
 0.9973931428048965 -0.017413653804010134 0.0023946174144885528 0.006985855874223495 -0.00023140968255313797 -0.0022253830182355555 0.0002561824812305808 0.0035218446899697845
 0.0002538745542185435 0.003522156869716382 -0.00023140968255313797 -0.0022253830182355555 0.002394910071549512 0.006985483373028694 0.9973931382045211 -0.017413988070093492
 -0.00023136683680478345 -0.0022253778396971566 0.0002561824812305808 0.0035218446899697845 0.9973931382045211 -0.017413988070093492 0.002394640911261374 0.006985517594996681
0.03126302626094 0.002621048362279158 0.008790662044838205 0.997097077969623 -0.021797013692310307 0.0003254264738307167 0.004404796548151932 -0.00029348303095438774 -0.00278575296063249
 0.997097077969623 -0.021797013692310307 0.0026205404607861403 0.008790716774613927 -0.000293549597249652 -0.002785758519311004 0.00032903161681860187 0.004404339471853755
 0.0003254264738307167 0.004404796548151932 -0.000293549597249652 -0.002785758519311004 0.0026209977471728287 0.008790249985732367 0.9970970711389516 -0.021797431315162576
 -0.00029348303095438774 -0.00278575296063249 0.00032903161681860187 0.004404339471853755 0.9970970711389516 -0.021797431315162576 0.002620577532529694 0.008790293842750492
0.037515631513130004 0.0028647443900494036 0.010615391390018505 0.9967767366352568 -0.026194976201600956 0.00040683418661405544 0.005288209847028878 -0.0003639486799187958 -0.0033472932240951004
 0.9967767366352568 -0.026194976201600956 0.002864013421102385 0.010615459242609477 -0.00036404406027901876 -0.0033472986825833382 0.00041202555417162813 0.005287573488501487
 0.00040683418661405544 0.005288209847028878 -0.00036404406027901876 -0.0033472986825833382 0.002864671858924134 0.010614897667506486 0.9967767271441297 -0.026195477146354337
 -0.0003639486799187958 -0.0033472932240951004 0.00041202555417162813 0.005287573488501487 0.9967767271441297 -0.026195477146354337 0.0028640671568190682 0.010614951522470892
0.043768236765320004 0.0031263932448003344 0.01245935549445007 0.9964317855344137 -0.030607737542918127 0.0004981996135739102 0.006172286098289406 -0.00044287128202013864 -0.003909840118960371
 0.9964317855344137 -0.030607737542918127 0.0031253987557606786 0.012459437266852965 -0.0004430005247942369 -0.003909844939194642 0.0005052668716176156 0.006171432182015618
 0.0004981996135739102 0.006172286098289406 -0.0004430005247942369 -0.003909844939194642 0.003126294866580273 0.012458780411188041 0.9964317729522445 -0.030608321783765734
 -0.00044287128202013864 -0.003909840118960371 0.0005052668716176156 0.006171432182015618 0.9964317729522445 -0.030608321783765734 0.003125472248394577 0.012458844586666882
0.050020842017509996 0.0034063534143318618 0.014322024054067704 0.9960618896746837 -0.035035364810816844 0.0005996230094043123 0.007056903270684537 -0.0005303559146027729 -0.004473239483188873
 0.9960618896746837 -0.035035364810816844 0.0034050549371684932 0.014322120570330513 -0.0005305240250924435 -0.00447324306938654 0.0006088564991036927 0.007055789583422638
 0.0005996230094043123 0.007056903270684537 -0.0005305240250924435 -0.00447324306938654 0.0034062252565191416 0.014321367955383775 0.9960618735697903 -0.035036032321048356
 -0.0005303559146027729 -0.004473239483188873 0.0006088564991036927 0.007055789583422638 0.9960618735697903 -0.035036032321048356 0.0034051512834092474 0.014321442731850802
0.055454545454549996 0.00366479426533845 0.015955570403908634 0.9957199200477528 -0.03889516953075679 0.0006960077711969743 0.007826000610733606 -0.0006134159210027266 -0.004963424234018047
 0.9957199200477528 -0.03889516953075679 0.0036631987267503816 0.015955680422937737 -0.0006136218413093737 -0.004963426219157247 0.0007073600979006385 0.007824623797482912
 0.0006960077711969743 0.007826000610733606 -0.0006136218413093737 -0.004963426219157247 0.0036646370350200915 0.015954844207323574 0.9957199005311052 -0.03889590938938941
 -0.0006134159210027266 -0.004963424234018047 0.0007073600979006385 0.007824623797482912 0.9957199005311052 -0.03889590938938941 0.003663317452197913 0.015954928390377578
0.056273447269699996 0.003704980113148759 0.016202935914688386 0.9956667133490569 -0.03947784249750507 0.0007112027540981823 0.007941930987780944 -0.0006265052399682856 -0.005037338510291329
 0.9956667133490569 -0.03947784249750507 0.0037033371515734718 0.016203048025481195 -0.0006267171818819564 -0.0050373402089969365 0.0007228934903849751 0.007940511329937642
 0.0007112027540981823 0.007941930987780944 -0.0006267171818819564 -0.0050373402089969365 0.0037048182439640117 0.016202199180421786 0.9956666932900853 -0.03947859325839543
 -0.0006265052399682856 -0.005037338510291329 0.0007228934903849751 0.007940511329937642 0.9956666932900853 -0.03947859325839543 0.0037034594531951486 0.016202284794847654
0.06252605252188 0.004022625651065769 0.018101673439172402 0.9952459208169898 -0.04393509805912191 0.0008330351828241136 0.008827232185070892 -0.0007314194679224685 -0.005601984121757592
 0.9952459208169898 -0.04393509805912191 0.004020597667015088 0.01810180202188063 -0.0007316801642893857 -0.005601983221916431 0.0008474748394429017 0.008825456321788952
 0.0008330351828241136 0.008827232185070892 -0.0007316801642893857 -0.005601983221916431 0.004022426137895171 0.018100856489329235 0.9952458963716618 -0.043935932054895654
 -0.0007314194679224685 -0.005601984121757592 0.0008474748394429017 0.008825456321788952 0.9952458963716618 -0.043935932054895654 0.004020749029300044 0.018100953134229956
0.06877865777407 0.00435963961187009 0.02001784724770845 0.9947991768023706 -0.04840701711445027 0.0009652144352385591 0.009712664112655157 -0.0008451962947003838 -0.006167021999603556
 0.9947991768023706 -0.04840701711445027 0.004357186012626905 0.020017993206861227 -0.000845510628514603 -0.006167017732609317 0.0009826953205265992 0.009710477724950857
 0.0009652144352385591 0.009712664112655157 -0.000845510628514603 -0.006167017732609317 0.004359398522818597 0.02001695053944779 0.9947991475380314 -0.04840793433590531
 -0.0008451962947003838 -0.006167021999603556 0.0009826953205265992 0.009710477724950857 0.9947991475380314 -0.04840793433590531 0.004357369545281035 0.020017058362419956
0.07503126302626001 0.004716368924917011 0.021951086532742456 0.9943261468876605 -0.05289345307537264 0.001107832317716574 0.010598078976158526 -0.0009679308260268353 -0.006732295986819562
 0.9943261468876605 -0.05289345307537264 0.004713449050297267 0.021951250800991792 -0.0009683036406954184 -0.006732287526594143 0.0011286473433700522 0.01059542361223383
 0.001107832317716574 0.010598078976158526 -0.0009683036406954184 -0.006732287526594143 0.0047160823286764705 0.021950110564039987 0.9943261123704984 -0.05289445351691987
 -0.0009679308260268353 -0.006732295986819562 0.0011286473433700522 0.01059542361223383 0.9943261123704984 -0.05289445351691987 0.004713667866554179 0.021950229667699262
0.08128386827845 0.005093157866135427 0.02390103261988451 0.9938264978422628 -0.05739423353865184 0.0012609781721674136 0.011483324371359451 -0.001099715491228972 -0.007297647700590631
 0.9938264978422628 -0.05739423353865184 0.005089730975979907 0.0239012161591861 -0.0011001515908481815 -0.007297634163653395 0.001285420816487189 0.011480137398248588
 0.0012609781721674136 0.011483324371359451 -0.0011001515908481815 -0.007297634163653395 0.0050928218326047915 0.02389997793314455 0.9938264576373051 -0.05739531719524418
 -0.001099715491228972 -0.007297647700590631 0.001285420816487189 0.011480137398248588 0.9938264576373051 -0.05739531719524418 0.005089988192249372 0.023900108375383238
0.08753647353064001 0.005490348013853818 0.025867334528403015 0.9932998979097774 -0.06190916468519515 0.0014247387499089787 0.01236824359711416 -0.0012406399503960938 -0.00786291627382886
 0.9932998979097774 -0.06190916468519515 0.005486373275020161 0.025867538331871363 -0.0012411440998403712 -0.007862896719380777 0.0014531030165108954 0.012364458152838303
 0.0014247387499089787 0.01236824359711416 -0.0012411440998403712 -0.007862896719380777 0.005489958614504469 0.025866201708897894 0.9932998515808278 -0.061910331554596215
 -0.0012406399503960938 -0.00786291627382886 0.0014531030165108954 0.012364458152838303 0.9932998515808278 -0.061910331554596215 0.005486672010905237 0.025866343503715316
0.09378907878283 0.005908278172433108 0.02784964579659693 0.992746017067181 -0.06643803442256989 0.001599198089059217 0.013252675888274982 -0.0013907909963988445 -0.008427938183795888
 0.992746017067181 -0.06643803442256989 0.005903714645924104 0.02784987089070521 -0.0013913679213862877 -0.008427911613807732 0.0016317784617420263 0.013248220834439736
 0.001599198089059217 0.013252675888274982 -0.0013913679213862877 -0.008427911613807732 0.0059078314810533696 0.027848435469364875 0.9927459641766151 -0.06643928450898737
 -0.0013907909963988445 -0.008427938183795888 0.0016317784617420263 0.013248220834439736 0.9927459641766151 -0.06643928450898737 0.005904058023743862 0.027848588588124834
0.100041684035 0.006347284272804976 0.029847622156310167 0.9921645272650726 -0.07098061468642503 0.0017844373936798873 0.014136456597996293 -0.001550252453909689 -0.008992547138344876
 0.9921645272650726 -0.07098061468642503 0.006342090900926467 0.029847869603511105 -0.0015509068409559298 -0.008992512497642088 0.0018215287880600237 0.01413125647306342
 0.0017844373936798873 0.014136456597996293 -0.0015509068409559298 -0.008992512497642088 0.006346776366005621 0.029846334993731093 0.9921644673737048 -0.07098194799359854
 -0.001550252453909689 -0.008992547138344876 0.0018215287880600237 0.01413125647306342 0.9921644673737048 -0.07098194799359854 0.00634248204544509 0.02984649936678308
0.1059090909091 0.006778709895165876 0.031736452022728984 0.9915934604230936 -0.07525559836534103 0.0019681388387185663 0.014965048508385616 -0.0017084298105326 -0.009521846554308846
 0.9915934604230936 -0.07525559836534103 0.006772888021367993 0.031736721447020444 -0.0017091611148129415 -0.009521803329616555 0.00200973191058609 0.014959076690323835
 0.0019681388387185663 0.014965048508385616 -0.0017091611148129415 -0.009521803329616555 0.006778140978988883 0.03173509340719354 0.9915933935613874 -0.07525700977467104
 -0.0017084298105326 -0.009521846554308846 0.00200973191058609 0.014959076690323835 0.9915933935613874 -0.07525700977467104 0.006773326833705217 0.0317352682433002
0.1062942892872 0.006807699256219476 0.03186091979707289 0.9915551026541535 -0.07553666316076024 0.0019805349150307803 0.015019417346057325 -0.0017191050754138764 -0.009556574003446188
 0.9915551026541535 -0.07553666316076024 0.006801834849333365 0.031861190698944934 -0.0017198415717083245 -0.009556530179815946 0.002022432627223607 0.015013392319279414
 0.0019805349150307803 0.015019417346057325 -0.0017198415717083245 -0.009556530179815946 0.00680712621411165 0.03185955651318469 0.9915550353213635 -0.07553807969822407
 -0.0017191050754138764 -0.009556574003446188 0.002022432627223607 0.015013392319279414 0.9915550353213635 -0.07553807969822407 0.006802276887501552 0.031859732032131306
0.11254689453939999 0.007289852945181024 0.03388919403720793 0.9909174198036093 -0.08010592460010021 0.0021875658334789437 0.01590138614578257 -0.0018974264357472864 -0.010119846759628575
 0.9909174198036093 -0.08010592460010021 0.00728327616904567 0.03388948953799198 -0.0018982496490550242 -0.010119792583907123 0.0022345654862771422 0.015894451971829166
 0.0021875658334789437 0.01590138614578257 -0.0018982496490550242 -0.010119792583907123 0.0072892108518527315 0.03388775539322104 0.9909173445863312 -0.08010742437816629
 -0.0018974264357472864 -0.010119846759628575 0.0022345654862771422 0.015894451971829166 0.9909173445863312 -0.08010742437816629 0.007283772229108145 0.03388794191355493
0.11879949979160001 0.007794071903942948 0.03593209830304818 0.990251157910534 -0.08468813185221707 0.002405602142030621 0.01678218751456981 -0.002085290824947075 -0.010682190482257057
 0.990251157910534 -0.08468813185221707 0.007786741265908601 0.03593241959383366 -0.0020862053233308875 -0.010682124728480149 0.0024579996284795616 0.016774255489033284
 0.002405602142030621 0.01678218751456981 -0.0020862053233308875 -0.010682124728480149 0.007793356848466256 0.03593058510421745 0.9902510743641194 -0.0846897148857288
 -0.002085290824947075 -0.010682190482257057 0.0024579996284795616 0.016774255489033284 0.9902510743641194 -0.0846897148857288 0.007787294477673321 0.03593078244851813
0.1250521050438 0.00832067929116467 0.03798928331710695 0.9895559990060426 -0.0892830066815206 0.0026347125302073455 0.017661642573997265 -0.0022827691402159092 -0.011243427340102974
 0.9895559990060426 -0.0892830066815206 0.00831255312724957 0.03798963164038627 -0.0022837794518185224 -0.011243348725570304 0.002692803955257866 0.017652619489643893
 0.0026347125302073455 0.017661642573997265 -0.0022837794518185224 -0.011243348725570304 0.008319887367820423 0.03798769641599648 0.9895559066833153 -0.08928467298711044
 -0.0022827691402159092 -0.011243427340102974 0.002692803955257866 0.017652619489643893 0.9895559066833153 -0.08928467298711044 0.008313166621394256 0.03798790437757845
0.131304710296 0.008869994706484502 0.04006039646720419 0.988831628157076 -0.09389026042056882 0.0028749622691643436 0.018539569145995874 -0.0024899287772220534 -0.011803376605514554
 0.988831628157076 -0.09389026042056882 0.008861031167681943 0.04006077312201588 -0.002491039389967282 -0.011803283790966266 0.0029390438890354842 0.018529357250007237
 0.0028749622691643436 0.018539569145995874 -0.002491039389967282 -0.011803283790966266 0.00886912201590752 0.04005873676184745 0.9888315266086714 -0.09389201001904757
 -0.0024899287772220534 -0.011803376605514554 0.0029390438890354842 0.018529357250007237 0.9888315266086714 -0.09389201001904757 0.008861708075273431 0.04005895510908811
0.1375573155481 0.009320323503569003 0.041875680146084296 0.9881998007054549 -0.09824004512822247 0.0030968263496044895 0.019389324518627123 -0.002677171179563494 -0.012335473597828285
 0.9881998007054549 -0.09824004512822247 0.009310478413316005 0.04187608220638726 -0.002678388884099877 -0.012335366399905913 0.00316703558145346 0.01937793418366269
 0.0030968263496044895 0.019389324518627123 -0.002678388884099877 -0.012335366399905913 0.009319366925852031 0.04187394823477266 0.9881996895152841 -0.09824187798390678
 -0.002677171179563494 -0.012335473597828285 0.00316703558145346 0.01937793418366269 0.9881996895152841 -0.09824187798390678 0.009311221021133536 0.04187417301066215
0.1438099208003 0.009786627158580991 0.04368070685578877 0.9875455148739114 -0.10257809277771111 0.0033276190164498406 0.020235257093906268 -0.0028718750781554004 -0.012864006914491128
 0.9875455148739114 -0.10257809277771111 0.009775858090849304 0.04368113568410767 -0.0028732047189377985 -0.01286388400433371 0.0034042236748378584 0.020222598615076047
 0.0033276190164498406 0.020235257093906268 -0.0028732047189377985 -0.01286388400433371 0.009785582941947615 0.04367890362577137 0.9875453935967303 -0.10258000890214419
 -0.0028718750781554004 -0.012864006914491128 0.0034042236748378584 0.020222598615076047 0.9875453935967303 -0.10258000890214419 0.009776669377603874 0.04367913467256541
0.1500625260525 0.010268731458778617 0.045475304710554776 0.9868689495331734 -0.10690427416848196 0.0035672537045770255 0.021077268523557978 -0.003073955195546129 -0.013388881987903136
 0.9868689495331734 -0.10690427416848196 0.01025699580732445 0.04547576179559904 -0.003075401606131201 -0.013388741982845348 0.003650519920107296 0.021063248906868445
 0.0035672537045770255 0.021077268523557978 -0.003075401606131201 -0.013388741982845348 0.010267595866299283 0.04547343108534708 0.9868688177222742 -0.10690627357149005
 -0.003073955195546129 -0.013388881987903136 0.003650519920107296 0.021063248906868445 0.9868688177222742 -0.10690627357149005 0.010257878741968209 0.04547366831196674
0.15631513130469998 0.01076646083269193 0.04725930694968922 0.986170284600455 -0.11121846101705651 0.0038156427566148157 0.021915262294423997 -0.0032833251371744442 -0.013910006366518455
 0.986170284600455 -0.11121846101705651 0.010753715805877345 0.04725979391326198 -0.0032848931399706576 -0.013909847830292294 0.003905834950557024 0.021899785291170547
