! Created with skrf 1.8.0 (http://scikit-rf.org).
# GHz S RI R 50.0 
!freq ReS11 ImS11 ReS12 ImS12 ReS13 ImS13
! ReS14 ImS14
! ReS21 ImS21 ReS22 ImS22 ReS23 ImS23
! ReS24 ImS24
! ReS31 ImS31 ReS32 ImS32 ReS33 ImS33
! ReS34 ImS34
! ReS41 ImS41 ReS42 ImS42 ReS43 ImS43
! ReS44 ImS44
!
0.0 0.001228196550991 0.0 0.9987718034476 0.0 4.705475741601e-05 0.0 -4.705475809367e-05 5.7625458884065974e-21
 0.9987718034476 0.0 0.001228196550985 0.0 -4.705475809367e-05 5.7625458884065974e-21 4.705475741688e-05 0.0
 4.705475741601e-05 0.0 -4.705475809367e-05 5.7625458884065974e-21 0.00122819655153 0.0 0.9987718034481 0.0
 -4.705475809367e-05 5.7625458884065974e-21 4.705475741688e-05 0.0 0.9987718034481 0.0 0.001228196551527 0.0
0.005 0.0013207339035494411 0.0010012969629674842 0.9986548246770995 -0.002573939976574601 6.61305466183106e-05 0.000542323763774527 -6.411314829417753e-05 -0.0003363852591291439
 0.9986548246770995 -0.002573939976574601 0.0013207511916100152 0.0010012868442808122 -6.411269830870073e-05 -0.00033638486702439706 6.602325433525911e-05 0.0005423644624882155
 6.61305466183106e-05 0.000542323763774527 -6.411269830870073e-05 -0.00033638486702439706 0.0013207346906414345 0.0010013637210226861 0.9986548250088587 -0.002573872908805064
 -6.411314829417753e-05 -0.0003363852591291439 6.602325433525911e-05 0.0005423644624882155 0.9986548250088587 -0.002573872908805064 0.001320751060229609 0.0010013542136153531
0.006252605252188 0.0013447862020980065 0.001255609086033869 0.9986242580612853 -0.00321808974418602 7.147000721250774e-05 0.0006781695183545999 -6.883101661405888e-05 -0.0004209348682572504
 0.9986242580612853 -0.00321808974418602 0.0013448132269438186 0.001255596254058536 -6.883031675505565e-05 -0.00042093438365141725 7.130236903230188e-05 0.0006782223310295255
 7.147000721250774e-05 0.0006781695183545999 -6.883031675505565e-05 -0.00042093438365141725 0.001344787356962673 0.0012556925210477376 0.9986242585041284 -0.003218005913657253
 -6.883101661405888e-05 -0.0004209348682572504 7.130236903230188e-05 0.0006782223310295255 0.9986242585041284 -0.003218005913657253 0.0013448129453684705 0.0012556804622286689
0.01250521050438 0.0014701369129986944 0.0025379887346690818 0.9984640439002282 -0.006437194042914477 0.00010150650135611452 0.0013566919661606633 -9.507166411197803e-05 -0.0008440732294972636
 0.9984640439002282 -0.006437194042914477 0.0014702448300262852 0.0025379612317913353 -9.506891031002329e-05 -0.0008440723194581157 0.00010083790527009135 0.0013568182221536224
 0.00010150650135611452 0.0013566919661606633 -9.506891031002329e-05 -0.0008440723194581157 0.001470140976839981 0.002538155250054824 0.9984640451181865 -0.006437026623450103
 -9.507166411197803e-05 -0.0008440732294972636 0.00010083790527009135 0.0013568182221536224 0.9984640451181865 -0.006437026623450103 0.0014702431463309393 0.0025381293916894774
0.01875781575657 0.001604477580802173 0.003839086320877368 0.9982909941634012 -0.009665196940886358 0.00013722514862626544 0.0020360754491433814 -0.00012584794399167316 -0.0012688009360572047
 0.9982909941634012 -0.009665196940886358 0.0016047200866781076 0.003839042196377339 -0.00012584180870239565 -0.0012687996675505705 0.00013572299369572045 0.002036299153335707
 0.00013722514862626544 0.0020360754491433814 -0.00012584180870239565 -0.0012687996675505705 0.0016044862976301343 0.003839335670222852 0.9982909964819093 -0.009664945989707059
 -0.00012584794399167316 -0.0012688009360572047 0.00013572299369572045 0.002036299153335707 0.9982909964819093 -0.009664945989707059 0.0016047158649334793 0.003839294184078451
0.02501042100875 0.0017480326026153457 0.005157117772835914 0.9981049368045781 -0.01290370841826175 0.00017868825810075304 0.002716382625365326 -0.00016122938715854032 -0.0016949462599948058
 0.9981049368045781 -0.01290370841826175 0.0017484632917288035 0.005157054984112183 -0.0001612185604234084 -0.0016949447092669532 0.00017601965219725987 0.0027167310109330943
 0.00017868825810075304 0.002716382625365326 -0.0001612185604234084 -0.0016949447092669532 0.0017480477187978237 0.00515744968914576 0.9981049405538138 -0.012903373937282404
 -0.00016122938715854032 -0.0016949462599948058 0.00017601965219725987 0.0027167310109330943 0.9981049405538138 -0.012903373937282404 0.0017484553900333063 0.005157390678486936
0.03126302626094 0.0019010167684924205 0.006491187505032791 0.9979056895233019 -0.016153444435777407 0.0002259590332074612 0.003397611582688453 -0.00020128390379057725 -0.002122398931805471
 0.9979056895233019 -0.016153444435777407 0.0019016891604654424 0.006491103921810984 -0.00020126709014689503 -0.002122397184561166 0.00022179046885812938 0.003398115128561717
 0.0002259590332074612 0.003397611582688453 -0.00020126709014689503 -0.002122397184561166 0.001901040029479565 0.006491601678324096 0.9979056950363417 -0.01615302639370506
 -0.00020128390379057725 -0.002122398931805471 0.00022179046885812938 0.003398115128561717 0.9979056950363417 -0.01615302639370506 0.0019016764270462201 0.006491523182189755
0.037515631513130004 0.0020636403772536422 0.007840728658879732 0.9976930649722942 -0.019414786649147402 0.0002791008786049436 0.004079735416067921 -0.0002460783237287776 -0.002551070544772985
 0.9976930649722942 -0.019414786649147402 0.002064607934414099 0.007840622065483176 -0.0002460542406289456 -0.00255106869621229 0.0002730980777892421 0.004080427880865568
 0.0002791008786049436 0.004079735416067921 -0.0002460542406289456 -0.00255106869621229 0.0020636735280319574 0.007841224733791058 0.9976930725861158 -0.019414284983389415
 -0.0002460783237287776 -0.002551070544772985 0.0002730980777892421 0.004080427880865568 0.9976930725861158 -0.019414284983389415 0.002064589207565927 0.00784112472960148
0.043768236765320004 0.0022361112334596213 0.0092053327541102 0.9974668728480408 -0.02268795270654268 0.00033817708936770854 0.00476271426228208 -0.00029567860268735126 -0.002980882506072351
 0.9974668728480408 -0.02268795270654268 0.0022374273740679044 0.009205200850974754 -0.00029564597947038265 -0.002980880660874862 0.00033000492032484813 0.00476363272334458
 0.00033817708936770854 0.00476271426228208 -0.00029564597947038265 -0.002980880660874862 0.0022361560163888143 0.00920591032152452 0.9974668829031232 -0.022687367331143425
 -0.00029567860268735126 -0.002980882506072351 0.00033000492032484813 0.00476363272334458 0.9974668829031232 -0.022687367331143425 0.0022374014802028558 0.009205786726973886
0.050020842017509996 0.0024186355783054675 0.010584679288039293 0.9972269209184292 -0.025973066596272215 0.0004032506746100993 0.005446500266432459 -0.00035014990996261287 -0.0034117610576216706
 0.9972269209184292 -0.025973066596272215 0.0024203536878999463 0.010584519692895766 -0.0003501074872244548 -0.0034117593299341246 0.0003925731068403117 0.005447685161086442
 0.0004032506746100993 0.005446500266432459 -0.0003501074872244548 -0.0034117593299341246 0.002418693733296711 0.01058533789124168 0.9972269337596872 -0.025972397395182995
 -0.00035014990996261287 -0.0034117610576216706 0.0003925731068403117 0.005447685161086442 0.9972269337596872 -0.025972397395182995 0.0024203194415126183 0.01058518856585549
0.055454545454549996 0.002585578792751516 0.011795137508826301 0.9970070704648005 -0.02883768465255302 0.0004647208287994806 0.0060413451585092865 -0.000401493045435356 -0.0037870183214963066
 0.9970070704648005 -0.02883768465255302 0.0025876895631255403 0.011794951850230039 -0.00040144109220009255 -0.003787016795970214 0.00045159238041328584 0.006042797073448893
 0.0004647208287994806 0.0060413451585092865 -0.00040144109220009255 -0.003787016795970214 0.0025856499794388427 0.011795866116873681 0.9970070860120632 -0.028836942496359992
 -0.000401493045435356 -0.0037870183214963066 0.00045159238041328584 0.006042797073448893 0.9970070860120632 -0.028836942496359992 0.002587647086082844 0.01179569264801837
0.056273447269699996 0.0026114185797827165 0.011978501191896255 0.9969730156113681 -0.029270193136882044 0.00047438424163781875 0.0061310400079339885 -0.00040955666265080325 -0.0038436348387727135
 0.9969730156113681 -0.029270193136882044 0.002613592021018903 0.011978311440659403 -0.000409503191748987 -0.0038436333521905406 0.0004608643231314656 0.006132535175823216
 0.00047438424163781875 0.0061310400079339885 -0.000409503191748987 -0.0038436333521905406 0.0026114918440980676 0.01197924031598972 0.9969730315896925 -0.029269439974182337
 -0.00040955666265080325 -0.0038436348387727135 0.0004608643231314656 0.006132535175823216 0.9969730315896925 -0.029269439974182337 0.002613548224712783 0.01197906306234256
0.06252605252188 0.0028146646112968987 0.013386565827456258 0.9967049623943292 -0.03257935692749396 0.000551639908379561 0.006816275842993363 -0.0004739625338446393 -0.004276433533850452
 0.9967049623943292 -0.03257935692749396 0.002817346733301102 0.013386343374830969 -0.00047389677655431246 -0.0042764324213783594 0.0005349397583359646 0.0068181285689914726
 0.000551639908379561 0.006816275842993363 -0.00047389677655431246 -0.0042764324213783594 0.002814754717721361 0.013387384903715131 0.9967049818661472 -0.03257851964254995
 -0.0004739625338446393 -0.004276433533850452 0.0005349397583359646 0.0068181285689914726 0.9967049818661472 -0.03257851964254995 0.0028172921760826067 0.013387177468501628
0.06877865777407 0.003028577410021727 0.014808663658006775 0.9964225660357098 -0.03590055362462784 0.0006350792326148348 0.007502146693770619 -0.0005434304457523159 -0.004710087074407518
 0.9964225660357098 -0.03590055362462784 0.0030318215571384674 0.014808405877973406 -0.000543351173950165 -0.0047100864784359936 0.0006148600441830286 0.007504407751204908
 0.0006350792326148348 0.007502146693770619 -0.000543351173950165 -0.0047100864784359936 0.0030286860863151977 0.014809562066169726 0.996422589363948 -0.035899632029331704
 -0.0005434304457523159 -0.004710087074407518 0.0006148600441830286 0.007504407751204908 0.996422589363948 -0.035899632029331704 0.0030317550143644863 0.014809322141016375
0.07503126302626001 0.003253360166433696 0.016244601072297016 0.9961256307993946 -0.03923375706707274 0.0007247631510026594 0.008188588550946849 -0.0006180225530430725 -0.005144525129600817
 0.9961256307993946 -0.03923375706707274 0.0032572196868827534 0.01624430525829567 -0.0006179285485447452 -0.005144525201877977 0.0007006852017468728 0.008191312244921358
 0.0007247631510026594 0.008188588550946849 -0.0006179285485447452 -0.005144525201877977 0.0032534891349237332 0.016245578132276416 0.996125658354269 -0.03923275095376422
 -0.0006180225530430725 -0.005144525129600817 0.0007006852017468728 0.008191312244921358 0.996125658354269 -0.03923275095376422 0.003257139919786383 0.01624530335430889
0.08128386827845 0.0034892155738167983 0.017694195600505416 0.9958139606008212 -0.04257892401029264 0.000820751924226231 0.008875534806228024 -0.0006978002199650364 -0.00557967676819927
 0.9958139606008212 -0.04257892401029264 0.003493743828050239 0.017693858965488227 -0.0006976902743295748 -0.005579677669795991 0.0007924745926378782 0.008878779016991663
 0.000820751924226231 0.008875534806228024 -0.0006976902743295748 -0.005579677669795991 0.0034893665502738038 0.0176952505774807 0.9958139927607708 -0.042577833146219955
 -0.0006978002199650364 -0.00557967676819927 0.0007924745926378782 0.008878779016991663 0.9958139927607708 -0.042577833146219955 0.0034936495830032157 0.017694938529841196
0.08753647353064001 0.0037363458468200133 0.01915727261415574 0.9954873591347336 -0.04593599737819333 0.000923105085522598 0.009562916482271356 -0.0007828239938006596 -0.006015470224844337
 0.9954873591347336 -0.04593599737819333 0.0037415962157067353 0.0191568922904233 -0.0007826969081862965 -0.006015472126127251 0.0008902868720460258 0.009566742708462007
 0.000923105085522598 0.009562916482271356 -0.0007826969081862965 -0.006015472126127251 0.003736520539289682 0.01915840471464718 0.9954873962865254 -0.045934821509162185
 -0.0007828239938006596 -0.006015470224844337 0.0008902868720460258 0.009566742708462007 0.9954873962865254 -0.045934821509162185 0.003741486223437571 0.019158052926598418
0.09378907878283 0.003994952721806898 0.02063366295040931 0.9951456299864855 -0.049304908592345695 0.0010318813923056766 0.010250662395480472 -0.000873153574538781 -0.006451832735127272
 0.9951456299864855 -0.049304908592345695 0.004000978615323831 0.020633235989167026 -0.0008730081595988716 -0.006451835815724248 0.0009941799443057861 0.010255135797273884
 0.0010318813923056766 0.010250662395480472 -0.0008730081595988716 -0.006451835815724248 0.003995152829781272 0.020634871326811507 0.9951456725260821 -0.049303647437839764
 -0.000873153574538781 -0.006451832735127272 0.0009941799443057861 0.010255135797273884 0.9951456725260821 -0.049303647437839764 0.004000851590247222 0.020634477273756516
0.100041684035 0.004265237443242247 0.02212320118868719 0.9947885767304863 -0.05268557925050286 0.0011471387788527276 0.010938699278376292 -0.0009688477828760818 -0.006888690412880762
 0.9947885767304863 -0.05268557925050286 0.004272092308384716 0.022122724559468173 -0.0009686828586672283 -0.0068886948616504635 0.001104210918871911 0.010943888720403222
 0.0011471387788527276 0.010938699278376292 -0.0009686828586672283 -0.0068886948616504635 0.004265464656986205 0.0221244849333948 0.9947886250640523 -0.05268423250916787
 -0.0009688477828760818 -0.006888690412880762 0.001104210918871911 0.010943888720403222 0.9947886250640523 -0.05268423250916787 0.004271946948358091 0.02212404603669224
0.1059090909091 0.004529670674732566 0.023532787493958256 0.9944394081102373 -0.05586859783197964 0.001261240926769045 0.011584546535472121 -0.0010635773127628631 -0.007299018480171568
 0.9944394081102373 -0.05586859783197964 0.004537352091614143 0.023532261426978833 -0.00106339301632126 -0.007299024392787693 0.0012130958098759634 0.011590473874322264
 0.001261240926769045 0.011584546535472121 -0.00106339301632126 -0.007299024392787693 0.004529924852069583 0.023534141086294758 0.9944394622595389 -0.05586717048237547
 -0.0010635773127628631 -0.007299018480171568 0.0012130958098759634 0.011590473874322264 0.9944394622595389 -0.05586717048237547 0.004537188326183731 0.023533657714781858
0.1062942892872 0.0045474007401587625 0.02362572433742942 0.9944160030222599 -0.056077922396907634 0.0012689343106367286 0.011626951869077258 -0.0010699645259553611 -0.0073259681622425766
 0.9944160030222599 -0.056077922396907634 0.004555138069372108 0.023625194927284873 -0.001069778921847037 -0.007325974177244094 0.0012204360673734895 0.011632929963107969
 0.0012689343106367286 0.011626951869077258 -0.001069778921847037 -0.007325974177244094 0.004547656739181762 0.023627082485568867 0.9944160575663477 -0.05607648974368251
 -0.0010699645259553611 -0.0073259681622425766 0.0012204360673734895 0.011632929963107969 0.9944160575663477 -0.05607648974368251 0.00455497305454406 0.023626596112057495
0.11254689453939999 0.004841642793877346 0.025141070837668714 0.994027712681675 -0.05948184347767673 0.001397324139052426 0.012315342982959963 -0.0011765607619378406 -0.0077635896093062005
 0.994027712681675 -0.05948184347767673 0.004850316133426412 0.02514048545010685 -0.0011763533165533393 -0.007763597397765157 0.0013429107808301656 0.012322186130359203
 0.001397324139052426 0.012315342982959963 -0.0011763533165533393 -0.007763597397765157 0.004841929246361499 0.02514250236557779 0.9940277738644206 -0.059480324564991964
 -0.0011765607619378406 -0.0077635896093062005 0.0013429107808301656 0.012322186130359203 0.9940277738644206 -0.059480324564991964 0.004850130126028161 0.025141965826912006
0.11879949979160001 0.005148163201094327 0.026669079777282906 0.993623509774975 -0.06289724108761882 0.001532363456722189 0.013003793569469776 -0.0012886924632315223 -0.008201477050740954
 0.993623509774975 -0.06289724108761882 0.005157826159651429 0.026668435130958693 -0.0012884620244064343 -0.008201486829018246 0.0014716895273267582 0.01301158200318312
 0.001532363456722189 0.013003793569469776 -0.0012884620244064343 -0.008201486829018246 0.0051484817626539035 0.02667058360273984 0.9936235780365756 -0.06289563554505431
 -0.0012886924632315223 -0.008201477050740954 0.0014716895273267582 0.01301158200318312 0.9936235780365756 -0.06289563554505431 0.005157617802939412 0.02666999415443805
0.1250521050438 0.005467160931059267 0.028209590273594945 0.9932031986917713 -0.0663240075507655 0.0016741064533379066 0.013692222756442553 -0.0014064145787450288 -0.008639551416686006
 0.9932031986917713 -0.0663240075507655 0.005477867187866374 0.02820888300082481 -0.0014061600034518276 -0.008639563410247813 0.0016068258095553577 0.01370104058282345
 0.0016741064533379066 0.013692222756442553 -0.0014061600034518276 -0.008639563410247813 0.005467513243752937 0.02821116525837458 0.9932032744851362 -0.06632231498222017
 -0.0014064145787450288 -0.008639551416686006 0.0016068258095553577 0.01370104058282345 0.9932032744851362 -0.06632231498222017 0.0054776351058897915 0.028210520098691558
0.131304710296 0.005798834279167972 0.029762440977528518 0.9927665842202503 -0.06976202938153 0.0018226062711723095 0.014380547890311842 -0.001529780995449312 -0.009077732240015218
 0.9927665842202503 -0.06976202938153 0.005810637592985973 0.029761667622472864 -0.0015295011498158272 -0.009077746683391992 0.0017483721224920412 0.014390483130392864
 0.0018226062711723095 0.014380547890311842 -0.0015295011498158272 -0.009077746683391992 0.005799221970430588 0.029764085921830517 0.9927666680120208 -0.06976024937076784
 -0.001529780995449312 -0.009077732240015218 0.0017483721224920412 0.014390483130392864 0.9927666680120208 -0.06976024937076784 0.005810380389391806 0.02976338219038291
0.1375573155481 0.006060338609639013 0.031123342215678588 0.9923965337626564 -0.07300700883296338 0.0019575237721847958 0.015047262326680988 -0.0016385442074391644 -0.009494464341281627
 0.9923965337626564 -0.07300700883296338 0.006073295907720458 0.031122516237009536 -0.0016382372905910634 -0.009494481198534927 0.0018761669006937419 0.015058288135482439
 0.0019575237721847958 0.015047262326680988 -0.0016382372905910634 -0.009494481198534927 0.006060762703525594 0.031125056274759966 0.9923966259161304 -0.07300514111161223
 -0.0016385442074391644 -0.009494464341281627 0.0018761669006937419 0.015058288135482439 0.9923966259161304 -0.07300514111161223 0.006073012967705279 0.03112430753571291
0.1438099208003 0.006330775645064031 0.032478152879475856 0.9920139327316764 -0.0762448791952583 0.002097907247392662 0.01571197549736304 -0.0017516790357530356 -0.009909404957541144
 0.9920139327316764 -0.0762448791952583 0.006344941270229574 0.032477271915463846 -0.0017513438067457627 -0.00990942445667191 0.00200911211605764 0.015724171073608198
 0.002097907247392662 0.01571197549736304 -0.0017513438067457627 -0.00990942445667191 0.006331237638047379 0.032479934826427435 0.9920140337125276 -0.0762429233487638
 -0.0017516790357530356 -0.009909404957541144 0.00200911211605764 0.015724171073608198 0.9920140337125276 -0.0762429233487638 0.0063446313098194625 0.032479139277182496
0.1500625260525 0.006610063511705898 0.03382679256887298 0.9916188658817978 -0.07947559373226985 0.0022437173983900446 0.016374642116907603 -0.0018691479685838794 -0.010322511574550266
 0.9916188658817978 -0.07947559373226985 0.006625491900629921 0.03382585411892557 -0.0018687831872005608 -0.010322533952707758 0.0021471699264913164 0.01638808951464473
 0.0022437173983900446 0.016374642116907603 -0.0018687831872005608 -0.010322533952707758 0.00661056487862456 0.03382864112810814 0.9916189761672918 -0.07947354932921574
 -0.0018691479685838794 -0.010322511574550266 0.0021471699264913164 0.01638808951464473 0.9916189761672918 -0.07947354932921574 0.006625153625718587 0.03382779684788591
0.15631513130469998 0.006898119908281406 0.035169183515656066 0.9912114182274234 -0.08269910524815804 0.0023949145603056883 0.017035217503274833 -0.0019909131203415475 -0.010733742486818465
