! Created with skrf 1.8.0 (http://scikit-rf.org).
# GHz S RI R 50.0 
!freq ReS11 ImS11 ReS12 ImS12 ReS13 ImS13
! ReS14 ImS14
! ReS21 ImS21 ReS22 ImS22 ReS23 ImS23
! ReS24 ImS24
! ReS31 ImS31 ReS32 ImS32 ReS33 ImS33
! ReS34 ImS34
! ReS41 ImS41 ReS42 ImS42 ReS43 ImS43
! ReS44 ImS44
!
0.0 0.0008851736176457 0.0 0.9991148263553 0.0 3.279385145494e-05 0.0 -3.279385223218e-05 4.016088616785052e-21
 0.9991148263553 0.0 0.00088517361764 0.0 -3.279385223158e-05 4.0160886167115735e-21 3.27938514545e-05 0.0
 3.279385145494e-05 0.0 -3.279385223158e-05 4.0160886167115735e-21 0.0008851736311304 0.0 0.9991148263688 0.0
 -3.279385223218e-05 4.016088616785052e-21 3.27938514545e-05 0.0 0.9991148263688 0.0 0.0008851736311574 0.0
0.005 0.0009511678517118662 0.0007290236702330984 0.9990315006092879 -0.0018556245010999256 4.4684780692897435e-05 0.00033557691704185497 -4.36647518920516e-05 -0.00021530752141072607
 0.9990315006092879 -0.0018556245010999256 0.0009511685805049821 0.0007290232743102525 -4.36638824074749e-05 -0.0002153068997661509 4.4684588508845464e-05 0.0003355770338711308
 4.4684780692897435e-05 0.00033557691704185497 -4.36638824074749e-05 -0.0002153068997661509 0.0009511677316514085 0.0007289565411813168 0.9990315003006395 -0.0018556915541826395
 -4.36647518920516e-05 -0.00021530752141072607 4.4684588508845464e-05 0.0003355770338711308 0.9990315003006395 -0.0018556915541826395 0.000951168084611115 0.0007289562983346904
0.006252605252188 0.0009681506817604399 0.0009141741680690856 0.9990099769254903 -0.002320031456324203 4.7908361959122196e-05 0.0004196647520412635 -4.6591383119466024e-05 -0.00026942401686365824
 0.9990099769254903 -0.002320031456324203 0.0009681518206695781 0.0009141736589164648 -4.659002971291942e-05 -0.000269423250603385 4.790806217952287e-05 0.0004196648963650758
 4.7908361959122196e-05 0.0004196647520412635 -4.659002971291942e-05 -0.000269423250603385 0.0009681505832686279 0.0009140902528805832 0.9990099765324169 -0.0023201152813109916
 -4.6591383119466024e-05 -0.00026942401686365824 4.790806217952287e-05 0.0004196648963650758 0.9990099765324169 -0.0023201152813109916 0.0009681511352548894 0.00091408992673002
0.01250521050438 0.0010556564401788225 0.0018478234604876757 0.998898604358903 -0.004641015106427415 6.547793899765548e-05 0.0008398077357294236 -6.243068693705796e-05 -0.0005403147309218741
 0.998898604358903 -0.004641015106427415 0.0010556609833544085 0.001847822297105718 -6.242534778623647e-05 -0.0005403133130966343 6.547675882262937e-05 0.0008398080105963433
 6.547793899765548e-05 0.0008398077357294236 -6.242534778623647e-05 -0.0005403133130966343 0.001055656589683672 0.0018476559339857966 0.9988986033365366 -0.004641182503650868
 -6.243068693705796e-05 -0.0005403147309218741 6.547675882262937e-05 0.0008398080105963433 0.9988986033365366 -0.004641182503650868 0.0010556587998201503 0.0018476550539512288
0.01875781575657 0.0011478114552251769 0.002795176572879212 0.9987806213728282 -0.0069686577094377105 8.553250583866202e-05 0.001260715395120788 -8.034515962869922e-05 -0.0008123510611356932
 0.9987806213728282 -0.0069686577094377105 0.0011478216563643798 0.0027951745978585765 -8.033324462819587e-05 -0.000812349120249887 8.552989046421507e-05 0.0012607157921672772
 8.553250583866202e-05 0.001260715395120788 -8.033324462819587e-05 -0.000812349120249887 0.0011478122009251058 0.0027949255804652602 0.9987806194944372 -0.006968908593029362
 -8.034515962869922e-05 -0.0008123510611356932 8.552989046421507e-05 0.0012607157921672772 0.9987806194944372 -0.006968908593029362 0.0011478171807489477 0.0027949239094803343
0.02501042100875 0.0012447358849850161 0.0037549774599230537 0.9986559394206292 -0.009304148718243066 0.00010810216847713604 0.0016824340775965833 -0.00010036796673548945 -0.0010854509830402542
 0.9986559394206292 -0.009304148718243066 0.0012447539892231569 0.0037549745040184193 -0.00010034691302440794 -0.001085448663991529 0.00010809758360818992 0.0016824345913518722
 0.00010810216847713604 0.0016824340775965833 -0.00010034691302440794 -0.001085448663991529 0.0012447375655502088 0.0037546431252209224 0.9986559364564775 -0.009304483033186034
 -0.00010036796673548945 -0.0010854509830402542 0.00010809758360818992 0.0016824345913518722 0.9986559364564775 -0.009304483033186034 0.0012447464326754737 0.003754640416188207
0.03126302626094 0.0013465440769377234 0.004726610918100072 0.9985244633262111 -0.011648034681445325 0.0001332174960359945 0.002104975606632771 -0.00012253173950964492 -0.0013595659518017957
 0.9985244633262111 -0.011648034681445325 0.0013465723220636413 0.004726606800138864 -0.00012249900640732417 -0.0013595634162784276 0.00013321042607427236 0.002104976234032503
 0.0001332174960359945 0.002104975606632771 -0.00012249900640732417 -0.0013595634162784276 0.001346547025597403 0.004726193354748407 0.9985244590461675 -0.011648452391983194
 -0.00012253173950964492 -0.0013595659518017957 0.00013321042607427236 0.002104976234032503 0.9985244590461675 -0.011648452391983194 0.0013465609038118376 0.004726189350231772
0.037515631513130004 0.001453347842206133 0.005709699456472199 0.9983860945825206 -0.014000622350458467 0.00016090926745743672 0.0025283386517156317 -0.00014686881025800075 -0.0016346595250823044
 0.9983860945825206 -0.014000622350458467 0.0014533884591481701 0.005709693983268268 -0.00014682187662014542 -0.001634656951729112 0.00016089921451592606 0.002528339391833383
 0.00016090926745743672 0.0025283386517156317 -0.00014682187662014542 -0.001634656951729112 0.0014533523871506518 0.005709198776020479 0.998386088757014 -0.014001123432357104
 -0.00014686881025800075 -0.0016346595250823044 0.00016089921451592606 0.002528339391833383 0.998386088757014 -0.014001123432357104 0.0014533724064202604 0.005709193208036543
0.043768236765320004 0.0015652577270428927 0.0067039806475637734 0.9982407326499281 -0.01636210130407646 0.000191208362197817 0.002952515210943512 -0.0001734113043677701 -0.0019107008723881058
 0.9982407326499281 -0.01636210130407646 0.0015653129402875088 0.006703973613814963 -0.00017334766700065083 -0.0019106984569098506 0.00019119484551862273 0.0029525160647785884
 0.000191208362197817 0.002952515210943512 -0.00017334766700065083 -0.0019106984569098506 0.001565264191143615 0.006703396961865489 0.998240725048631 -0.016362685742379396
 -0.0001734113043677701 -0.0019107008723881058 0.00019119484551862273 0.0029525160647785884 0.998240725048631 -0.016362685742379396 0.0015652914874383485 0.006703389551671598
0.050020842017509996 0.0016823836075414232 0.0077092564205080314 0.9980882755762784 -0.01873259462972756 0.0002241457003767343 0.0033774932876781756 -0.00020219118298747747 -0.0021876620900937514
 0.9980882755762784 -0.01873259462972756 0.001682455635302315 0.007709247608679406 -0.00020210835554170732 -0.0021876600453239864 0.0002241282559047918 0.003377494257988709
 0.0002241457003767343 0.0033774932876781756 -0.00020210835554170732 -0.0021876600453239864 0.0016823923089268886 0.007708589842730352 0.9980882659687049 -0.018733262417881952
 -0.00020219118298747747 -0.0021876620900937514 0.0002241282559047918 0.003377494257988709 0.9980882659687049 -0.018733262417881952 0.0016824280244004885 0.007708580300635632
0.055454545454549996 0.0017884906428308016 0.008591676591218211 0.9979499436524527 -0.02080000995303958 0.00025493583669730576 0.0037474517018343686 -0.00022904351517859204 -0.002429076373074388
 0.9979499436524527 -0.02080000995303958 0.0017885790797077864 0.008591666047934782 -0.0002289420043146207 -0.0024290748366607266 0.00025491461474324786 0.0037474527768428935
 0.00025493583669730576 0.0037474517018343686 -0.0002289420043146207 -0.0024290748366607266 0.001788501543447806 0.008590938072945042 0.997949932114096 -0.02080075017374542
 -0.00022904351517859204 -0.002429076373074388 0.00025491461474324786 0.0037474527768428935 0.997949932114096 -0.02080075017374542 0.001788545507516367 0.00859092643428498
0.056273447269699996 0.001804835010801404 0.008725368187643577 0.9979286203451289 -0.02111218377073735 0.00025975220299465784 0.003803258209558973 -0.00023324026537816295 -0.002465516874062788
 0.9979286203451289 -0.02111218377073735 0.0018049260652555127 0.008725357367858368 -0.00023313577765271003 -0.0024655154300286756 0.00025973038307616823 0.003803259300690961
 0.00025975220299465784 0.003803258209558973 -0.00023313577765271003 -0.0024655154300286756 0.0018048462631525123 0.008724618835043163 0.9979286085005881 -0.021112934907950704
 -0.00023324026537816295 -0.002465516874062788 0.00025973038307616823 0.003803259300690961 0.9979286085005881 -0.021112934907950704 0.0018048915457717148 0.008724606860250022
0.06252605252188 0.001932721298819925 0.009752183173178738 0.9977616630867508 -0.02350092217135872 0.00029805876566224706 0.004229793341300896 -0.000266590237584378 -0.002744239798559053
 0.9977616630867508 -0.02350092217135872 0.001932833586065641 0.009752170103116962 -0.0002664616349528582 -0.0027442392025218802 0.00029803213881191394 0.004229794559048359
 0.00029805876566224706 0.004229793341300896 -0.0002664616349528582 -0.0027442392025218802 0.0019327354104967576 0.009751351169136918 0.9977616487732203 -0.02350175666064531
 -0.000266590237584378 -0.002744239798559053 0.00029803213881191394 0.004229794559048359 0.9977616487732203 -0.02350175666064531 0.001932791414069111 0.009751336449594307
0.06877865777407 0.0020661517815304922 0.010789586249997235 0.9975872992191647 -0.025898843413518804 0.0003390962373649065 0.004657080510351893 -0.0003022726557188558 -0.003023805882439327
 0.9975872992191647 -0.025898843413518804 0.0020662875017787782 0.010789570674780074 -0.00030211749874589167 -0.0030238063989541293 0.0003390643880937746 0.004657081861798941
 0.0003390962373649065 0.004657080510351893 -0.00030211749874589167 -0.0030238063989541293 0.0020661690574227285 0.010788671721370545 0.9975872822047666 -0.025899761264526013
 -0.0003022726557188558 -0.003023805882439327 0.0003390643880937746 0.004657081861798941 0.9975872822047666 -0.025899761264526013 0.002066236941404682 0.01078865393358809
0.07503126302626001 0.0022052357889785204 0.011837474786428723 0.9974054235487442 -0.028305966343706253 0.0003828954023350143 0.005085100280304606 -0.0003403189458821807 -0.0033041903077649154
 0.9974054235487442 -0.028305966343706253 0.002205397136470412 0.011837456438486434 -0.0003401348100113686 -0.003304192218714688 0.0003828579309810462 0.005085101773689553
 0.0003828954023350143 0.005085100280304606 -0.0003401348100113686 -0.003304192218714688 0.0022052565291086194 0.011836477862458313 0.9974054036003379 -0.028306967573875214
 -0.0003403189458821807 -0.0033041903077649154 0.0003828579309810462 0.005085101773689553 0.9974054036003379 -0.028306967573875214 0.0022053374585501062 0.011836456671386232
0.08128386827845 0.0023500827156378136 0.01289575519875887 0.9972159303435981 -0.030722298494089244 0.0004294869647874833 0.0055138321220199295 -0.00038076040086129295 -0.0035853682409152316
 0.9972159303435981 -0.030722298494089244 0.0023502718786802728 0.012895733797765683 -0.0003805448761992869 -0.0035853718455611605 0.0004294434873841138 0.005513833766587314
 0.0004294869647874833 0.0055138321220199295 -0.0003805448761992869 -0.0035853718455611605 0.0023501072160933547 0.012894676017810662 0.997215907227198 -0.030723383122050054
 -0.00038076040086129295 -0.0035853682409152316 0.0004294434873841138 0.005513833766587314 0.997215907227198 -0.030723383122050054 0.002350202361389639 0.012894651076654341
0.08753647353064001 0.002500802050216002 0.013964340577216445 0.9970187133933457 -0.03314783843043682 0.000478901534875194 0.0059432545406248195 -0.00042362817528927805 -0.0038673146980702905
 0.9970187133933457 -0.03314783843043682 0.002501021211331601 0.013964315829969086 -0.000423378866448257 -0.0038673203130832057 0.00047885168307004066 0.005943256346484687
 0.000478901534875194 0.0059432545406248195 -0.000423378866448257 -0.0038673203130832057 0.0025008306031533904 0.013963179282448883 0.9970186868738539 -0.033149006480432334
 -0.00042362817528927805 -0.0038673146980702905 0.00047885168307004066 0.005943256346484687 0.9970186868738539 -0.033149006480432334 0.0025009411399627432 0.013963150232557644
0.09378907878283 0.0026575033923430602 0.015043148987001839 0.9968136660555511 -0.03558257742510169 0.0005311696156007442 0.006373345154095906 -0.0004689532795545959 -0.004150004459348668
 0.9968136660555511 -0.03558257742510169 0.0026577547279685396 0.015043120587281423 -0.00046866780548742505 -0.004150012418853414 0.0005311130365997584 0.006373347132076445
 0.0005311696156007442 0.006373345154095906 -0.00046866780548742505 -0.004150012418853414 0.002657536286262309 0.015041905726335692 0.9968136358973919 -0.0355838289271019
 -0.0004689532795545959 -0.004150004459348668 0.0005311130365997584 0.006373347132076445 0.9968136358973919 -0.0355838289271019 0.0026576633954097273 0.015041872197048856
0.100041684035 0.002820296462675653 0.016132102222096753 0.9966006812978586 -0.038026500677398455 0.000586321590065876 0.00680408076336318 -0.0005167665730645893 -0.004433411991691222
 0.9966006812978586 -0.038026500677398455 0.0028205821434129654 0.0161320698505981 -0.0005164425670304029 -0.00443342264729882 0.00058625794643477 0.0068040829248796775
 0.000586321590065876 0.00680408076336318 -0.0005164425670304029 -0.00443342264729882 0.0028203339823076054 0.01613077715054752 0.9966006472635973 -0.038027835664933646
 -0.0005167665730645893 -0.004433411991691222 0.00058625794643477 0.0068040829248796775 0.9966006472635973 -0.038027835664933646 0.002820478849452741 0.016130738759049024
0.1059090909091 0.0029786986996017625 0.017163128727130945 0.9963935030406964 -0.04032819870692741 0.0006407256873202287 0.007208845714048573 -0.0005639246079749614 -0.00469998964954969
 0.9963935030406964 -0.04032819870692741 0.002979018578368581 0.017163092326363035 -0.0005635623039117536 -0.004700003170555953 0.0006406551211421578 0.007208848058563629
 0.0006407256873202287 0.007208845714048573 -0.0005635623039117536 -0.004700003170555953 0.002978740816018589 0.01716172703204905 0.9963934651525809 -0.040329612070506025
 -0.0005639246079749614 -0.00469998964954969 0.0006406551211421578 0.007208848058563629 0.9963934651525809 -0.040329612070506025 0.0029789034297960496 0.017161683718769125
0.1062942892872 0.0029892911058418325 0.017231124863959432 0.9963796517312823 -0.040479588229413936 0.0006443877097436641 0.0072354373891181135 -0.0005670987560477309 -0.004717511405354042
 0.9963796517312823 -0.040479588229413936 0.0029896132962626302 0.0172310881881656 -0.0005667338655086367 -0.004717525126195361 0.0006443166794692115 0.007235439746019804
 0.0006443877097436641 0.0072354373891181135 -0.0005667338655086367 -0.004717525126195361 0.0029893335325627333 0.01722971814349292 0.9963796135828753 -0.04048100673979767
 -0.0005670987560477309 -0.004717511405354042 0.0006443166794692115 0.007235439746019804 0.9963796135828753 -0.04048100673979767 0.002989497348233228 0.017229674494670597
0.11254689453939999 0.0031645972903590665 0.018340143569581507 0.9961504696436289 -0.042941815652692804 0.0007053980822732753 0.007667390312269598 -0.0006199803616724981 -0.005002276407009623
 0.9961504696436289 -0.042941815652692804 0.003164958149055918 0.01834010224364389 -0.0006195722482887882 -0.0050022935797694795 0.0007053193586070523 0.007667392876704758
 0.0007053980822732753 0.007667390312269598 -0.0006195722482887882 -0.0050022935797694795 0.0031646449022234894 0.01833865536693233 0.9961504271411843 -0.042943317729243126
 -0.0006199803616724981 -0.005002276407009623 0.0007053193586070523 0.007667392876704758 0.9961504271411843 -0.042943317729243126 0.003164828861488282 0.0183386060532594
0.11879949979160001 0.0033463251039721783 0.019459086499744156 0.9959130270266857 -0.04541315459495142 0.0007693826599207952 0.008099914097005726 -0.0006754417470267512 -0.005287680270595098
 0.9959130270266857 -0.04541315459495142 0.0033467267835425958 0.01945904016442486 -0.0006749880866352485 -0.005287701299541008 0.0007692959513908445 0.008099916881273218
 0.0007693826599207952 0.008099914097005726 -0.0006749880866352485 -0.005287701299541008 0.003346378176004267 0.019457516990912044 0.9959129799291963 -0.0454147402826504
 -0.0006754417470267512 -0.005287680270595098 0.0007692959513908445 0.008099916881273218 0.9959129799291963 -0.0454147402826504 0.003346583478377165 0.019457461592277833
0.1250521050438 0.003534584747896085 0.02058788288503603 0.9956672156044543 -0.04789357318940885 0.0008363712280966381 0.008532982610391824 -0.0007335130838837526 -0.005573695811923052
 0.9956672156044543 -0.04789357318940885 0.0035350293947170796 0.02058783116754433 -0.0007330115664757011 -0.0055737211189358805 0.0008362762583676197 0.008532985626796316
 0.0008363712280966381 0.008532982610391824 -0.0007330115664757011 -0.0055737211189358805 0.0035346435518119165 0.020586232249026077 0.9956671636691709 -0.047895242541218304
 -0.0007335130838837526 -0.005573695811923052 0.0008362762583676197 0.008532985626796316 0.9956671636691709 -0.047895242541218304 0.0035348714011199122 0.020586170332634192
0.131304710296 0.0037294865269574106 0.02172646265830402 0.9954129268576224 -0.05038303639793483 0.0009063933934927154 0.008966569040106146 -0.0007942243493331998 -0.00586029536549477
 0.9954129268576224 -0.05038303639793483 0.003729976281248188 0.021726405172236146 -0.0007936726790930354 -0.005860325390093009 0.0009062899013967175 0.008966572300817318
 0.0009063933934927154 0.008966569040106146 -0.0007936726790930354 -0.005860325390093009 0.0037295513318968336 0.02172473108390927 0.9954128698402075 -0.05038478946811487
 -0.0007942243493331998 -0.00586029536549477 0.0009062899013967175 0.008966572300817318 0.9954128698402075 -0.05038478946811487 0.0037298029360504363 0.021724662204132154
0.1375573155481 0.0038755573995775503 0.02272633585066791 0.9952056430930851 -0.052733064619710425 0.0009678022660260247 0.009385315852664448 -0.000845929270782761 -0.006132123688990803
 0.9952056430930851 -0.052733064619710425 0.0038760947444034773 0.022726273690665294 -0.0008453242619652303 -0.0061321582695712945 0.0009676885499493742 0.009385319350858812
 0.0009678022660260247 0.009385315852664448 -0.0008453242619652303 -0.0061321582695712945 0.0038756290667685497 0.022724523165729142 0.9952055807679715 -0.052734901431806556
 -0.000845929270782761 -0.006132123688990803 0.0009676885499493742 0.009385319350858812 0.9952055807679715 -0.052734901431806556 0.003875904758642974 0.02272444901997871
0.1438099208003 0.004026326681284079 0.023722542758118532 0.9949918305464648 -0.05507874213554454 0.0010316487949816797 0.009803207907087188 -0.0008996789631235135 -0.006403162934314872
 0.9949918305464648 -0.05507874213554454 0.004026913807488872 0.023722475656259148 -0.000899018179741873 -0.006403202480355415 0.0010315243551209305 0.009803211667145545
 0.0010316487949816797 0.009803207907087188 -0.000899018179741873 -0.006403202480355415 0.004026405583079099 0.023720649121114226 0.9949917626708187 -0.05508066274227192
 -0.0008996789631235135 -0.006403162934314872 0.0010315243551209305 0.009803211667145545 0.9949917626708187 -0.05508066274227192 0.004026706414846884 0.02372056945126244
0.1500625260525 0.004181757207988648 0.02471504726205536 0.9947715279833627 -0.05742005834014165 0.0010979186488160465 0.010220231025011085 -0.0009554594406076918 -0.006673398620855506
 0.9947715279833627 -0.05742005834014165 0.00418239630432282 0.024714974938807865 -0.0009547404493864274 -0.006673443557744988 0.0010977829827613533 0.010220235073620354
 0.0010979186488160465 0.010220231025011085 -0.0009547404493864274 -0.006673443557744988 0.004181843721077148 0.024713072835409373 0.9947714543129513 -0.05742206279819358
 -0.0009554594406076918 -0.006673398620855506 0.0010977829827613533 0.010220235073620354 0.9947714543129513 -0.05742206279819358 0.0041821707381872195 0.02471298737380375
