! Created with skrf 1.8.0 (http://scikit-rf.org).
# GHz S RI R 50.0 
!freq ReS11 ImS11 ReS12 ImS12 ReS13 ImS13
! ReS14 ImS14
! ReS21 ImS21 ReS22 ImS22 ReS23 ImS23
! ReS24 ImS24
! ReS31 ImS31 ReS32 ImS32 ReS33 ImS33
! ReS34 ImS34
! ReS41 ImS41 ReS42 ImS42 ReS43 ImS43
! ReS44 ImS44
!
0.0 0.001729197786393 0.0 0.998270802204 0.0 6.741012954185e-05 0.0 -6.741012975763e-05 8.255359963778932e-21
 0.998270802204 0.0 0.001729197786405 0.0 -6.741012975805e-05 8.255359963830368e-21 6.741012954081e-05 0.0
 6.741012954185e-05 0.0 -6.741012975805e-05 8.255359963830368e-21 0.001729197772719 0.0 0.9982708021903 0.0
 -6.741012975763e-05 8.255359963778932e-21 6.741012954081e-05 0.0 0.9982708021903 0.0 0.001729197772713 0.0
0.005 0.0018611694238632596 0.0014066206892095624 0.998103715883285 -0.003621952616555076 9.595223169893435e-05 0.000787845152915728 -9.286720500913395e-05 -0.00048651449369030046
 0.998103715883285 -0.003621952616555076 0.0018611664669572984 0.001406622413645972 -9.28727423624123e-05 -0.00048651873094231494 9.595988093520137e-05 0.000787842343018309
 9.595223169893435e-05 0.000787845152915728 -9.28727423624123e-05 -0.00048651873094231494 0.001861166286533552 0.0014065552681778244 0.9981037155096142 -0.003622019681534331
 -9.286720500913395e-05 -0.00048651449369030046 9.595988093520137e-05 0.000787842343018309 0.9981037155096142 -0.003622019681534331 0.0018611688590020733 0.0014065537047962223
0.006252605252188 0.0018959651698321357 0.001763818311551437 0.9980593529642315 -0.004528300580045581 0.00010421236371647532 0.0009851548128252815 -0.00010014945341736625 -0.0006087708880373637
 0.9980593529642315 -0.004528300580045581 0.0018959605471311671 0.0017638204451056658 -0.0001001580700549085 -0.0006087761108939522 0.00010422431614199021 0.0009851511460383996
 0.00010421236371647532 0.0009851548128252815 -0.0001001580700549085 -0.0006087761108939522 0.0018959603412802366 0.0017637365471792274 0.9980593524561122 -0.0045283844031955515
 -0.00010014945341736625 -0.0006087708880373637 0.00010422431614199021 0.0009851511460383996 0.9980593524561122 -0.0045283844031955515 0.0018959643628451948 0.0017637345638230784
0.01250521050438 0.0020802058865252646 0.003564585461005281 0.9978227590015598 -0.009057231757912747 0.00015214064297361463 0.0019704436153029476 -0.0001419765398247887 -0.0012204084205024743
 0.9978227590015598 -0.009057231757912747 0.0020801874227980126 0.0035645895211856415 -0.00014201049771474835 -0.0012204180507148512 0.00015218834395025897 0.0019704346145769645
 0.00015214064297361463 0.0019704436153029476 -0.00014201049771474835 -0.0012204180507148512 0.002080187153654702 0.003564422260184406 0.9978227575246058 -0.00905739914170145
 -0.0001419765398247887 -0.0012204084205024743 0.00015218834395025897 0.0019704346145769645 0.9978227575246058 -0.00905739914170145 0.0020802032159961356 0.0035644179652858763
0.01875781575657 0.00228236053611431 0.00539086142177266 0.9975606992873345 -0.013597778362689116 0.00021131132913270592 0.0029565454871202075 -0.00019302968311918727 -0.0018339400238804005
 0.9975606992873345 -0.013597778362689116 0.0022823190373590643 0.005390867244464608 -0.0001931054098997705 -0.0018339530713112645 0.0002114185758289984 0.002956529148710221
 0.00021131132913270592 0.0029565454871202075 -0.0001931054098997705 -0.0018339530713112645 0.0022823188602284763 0.005390617021438398 0.9975606963931571 -0.013598029216435954
 -0.00019302968311918727 -0.0018339400238804005 0.0002114185758289984 0.002956529148710221 0.9975606963931571 -0.013598029216435954 0.002282354960044224 0.005390609978304731
0.02501042100875 0.0025028543235501707 0.007240024785602987 0.9972728391927445 -0.018152091610737466 0.0002818421541867733 0.003943480628458303 -0.00025344147347020247 -0.002449043475410138
 0.9972728391927445 -0.018152091610737466 0.00250278060473825 0.007240032243723681 -0.0002535751989042996 -0.0024490587590071623 0.00028203281414227143 0.003943454615259694
 0.0002818421541867733 0.003943480628458303 -0.0002535751989042996 -0.0024490587590071623 0.0025027806764698996 0.007239699476323004 0.9972728344307599 -0.018152425867278516
 -0.00025344147347020247 -0.002449043475410138 0.00028203281414227143 0.003943454615259694 0.9972728344307599 -0.018152425867278516 0.0025028447964344004 0.007239689141750708
0.03126302626094 0.002742094732144526 0.009110700911308929 0.9969588285501445 -0.02272106094025005 0.00036385084896008136 0.004931172132579437 -0.00032333996132943404 -0.0030654851793090808
 0.9969588285501445 -0.02272106094025005 0.002741979611341357 0.00911070991420342 -0.0003235477502328207 -0.0030655013251854593 0.0003641488854228878 0.004931133769231716
 0.00036385084896008136 0.004931172132579437 -0.0003235477502328207 -0.0030655013251854593 0.002741980091973275 0.009110295044294064 0.996958821467022 -0.022721478549387008
 -0.00032333996132943404 -0.0030654851793090808 0.0003641488854228878 0.004931133769231716 0.996958821467022 -0.022721478549387008 0.002742080202598438 0.00911028076745244
0.037515631513130004 0.003000479854099776 0.011001974090280937 0.996618310344312 -0.027305101790319444 0.00045745391627785017 0.0059195043703824885 -0.0004028496386945764 -0.0036830618160482885
 0.996618310344312 -0.027305101790319444 0.0030003141484325406 0.011001984583833987 -0.0004031474075072632 -0.0036830772569454023 0.00045788340293080154 0.0059194506372873676
 0.00045745391627785017 0.0059195043703824885 -0.0004031474075072632 -0.0036830772569454023 0.003000315209905763 0.01100148808483393 0.9966183004902018 -0.027305602712276198
 -0.0004028496386945764 -0.0036830618160482885 0.00045788340293080154 0.0059194506372873676 0.9966183004902018 -0.027305602712276198 0.0030004592694561406 0.01100146910583647
0.043768236765320004 0.0032784016052527067 0.012913147835416217 0.9962509242884406 -0.03190439524624263 0.0005627660364314087 0.00690834075614083 -0.0004920917785422131 -0.004301582610100676
 0.9962509242884406 -0.03190439524624263 0.0032781761279611957 0.012913159802623739 -0.0004924953049973813 -0.004301595585259494 0.0005633511675143154 0.006908268283144525
 0.0005627660364314087 0.00690834075614083 -0.0004924953049973813 -0.004301595585259494 0.0032781779520874113 0.012912582182105286 0.9962509112133545 -0.03190497944979238
 -0.0004920917785422131 -0.004301582610100676 0.0005633511675143154 0.006908268283144525 0.9962509112133545 -0.03190497944979238 0.0032783739055120696 0.012912557630503703
0.050020842017509996 0.0035762471926911003 0.014843645796894409 0.9958563086575735 -0.03651898705805927 0.0006798997013936749 0.007897531098168944 -0.0005911845405185674 -0.004920862017120536
 0.9958563086575735 -0.03651898705805927 0.0035759527504167464 0.014843659258329693 -0.0005917094696972344 -0.004920870572267043 0.0006806647992456025 0.007897436157900218
 0.0006798997013936749 0.007897531098168944 -0.0005917094696972344 -0.004920870572267043 0.003575955531521327 0.014843001065179351 0.9958562919109055 -0.03651965451398225
 -0.0005911845405185674 -0.004920862017120536 0.0006806647992456025 0.007897436157900218 0.9958562919109055 -0.03651965451398225 0.0035762113085730904 0.014842969958455864
0.055454545454549996 0.003851562357482191 0.01653660731698799 0.9954909807745252 -0.040541601076745856 0.0007913784699819957 0.008757330739430415 -0.0006853884962791779 -0.0054595078565250425
 0.9954909807745252 -0.040541601076745856 0.003851200509774475 0.016536622123485455 -0.0006860315337158819 -0.0054595108331889665 0.0007923198215669179 0.008757212964762926
 0.0007913784699819957 0.008757330739430415 -0.0006860315337158819 -0.0054595108331889665 0.0038512042910613525 0.016535894383805403 0.9954909604705768 -0.040542340864068854
 -0.0006853884962791779 -0.0054595078565250425 0.0007923198215669179 0.008757212964762926 0.9954909604705768 -0.040542340864068854 0.003851518483701047 0.01653585669436563
0.056273447269699996 0.003894399850370989 0.016792963146575156 0.9954341013944077 -0.04114883619415355 0.0008089649464290018 0.008886915214550276 -0.0007002429753926011 -0.005540716152139235
 0.9954341013944077 -0.04114883619415355 0.0038940272411620252 0.016792978161218847 -0.000700904823575972 -0.005540718139553354 0.0008099344680742761 0.008886793715570414
 0.0008089649464290018 0.008886915214550276 -0.000700904823575972 -0.005540718139553354 0.003894031187521875 0.01679223997767891 0.9954340805248043 -0.041149586883773445
 -0.0007002429753926011 -0.005540716152139235 0.0008099344680742761 0.008886793715570414 0.9954340805248043 -0.041149586883773445 0.0038943547013504066 0.01679220121969571
0.06252605252188 0.004233239212434262 0.01876063984718366 0.9949839408573842 -0.04579384151673846 0.000950069130728943 0.009876324933264046 -0.0008193789780860242 -0.006160960840572906
 0.9949839408573842 -0.04579384151673846 0.004232779223234538 0.018760656513105607 -0.0008201931351910525 -0.0061609539191910985 0.0009512676731163529 0.009876172413006316
 0.000950069130728943 0.009876324933264046 -0.0008201931351910525 -0.0061609539191910985 0.004232784560410007 0.018759838972791855 0.9949839154134167 -0.045794675414492204
 -0.0008193789780860242 -0.006160960840572906 0.0009512676731163529 0.009876172413006316 0.9949839154134167 -0.045794675414492204 0.004233183705455327 0.018759791352225268
0.06877865777407 0.004593141489145281 0.020746244737703586 0.9945054663772641 -0.050453857648391026 0.0011033167458539017 0.010865585296044807 -0.0009487012101463506 -0.006781410473314067
 0.9945054663772641 -0.050453857648391026 0.004592584894167839 0.02074626319288155 -0.0009496829413518229 -0.006781392108867682 0.0011047690506810286 0.010865396913559646
 0.0011033167458539017 0.010865585296044807 -0.0009496829413518229 -0.006781392108867682 0.004592591866675274 0.020745366961556138 0.9945054359069352 -0.05045477474154816
 -0.0009487012101463506 -0.006781410473314067 0.0011047690506810286 0.010865396913559646 0.9945054359069352 -0.05045477474154816 0.00459307451604547 0.020745309150410077
0.07503126302626001 0.004974479523309818 0.022749365429309703 0.993998318698439 -0.05512870503659922 0.0012688092403340269 0.011854515336496183 -0.0010883150043456725 -0.007401877295843006
 0.993998318698439 -0.05512870503659922 0.004973817081620076 0.022749385852588226 -0.0010894794508515633 -0.0074018447610073096 0.0012705401984611105 0.01185428586502397
 0.0012688092403340269 0.011854515336496183 -0.0010894794508515633 -0.0074018447610073096 0.004973825955239894 0.02274841164188206 0.9939982827488598 -0.055129705311965996
 -0.0010883150043456725 -0.007401877295843006 0.0012705401984611105 0.01185428586502397 0.9939982827488598 -0.055129705311965996 0.0049743999586053375 0.022748342194067586
0.08128386827845 0.005377622773924827 0.024769601610401044 0.9934621403524352 -0.05981817661853041 0.0014466448543019332 0.012842928612937898 -0.0012383222575880633 -0.008022170951195232
 0.9934621403524352 -0.05981817661853041 0.00537684522776869 0.024769624222331747 -0.0012396844369794236 -0.008022121325791528 0.001448679509610846 0.012842652432319508
 0.0014466448543019332 0.012842928612937898 -0.0012396844369794236 -0.008022121325791528 0.005376856291684138 0.024768572784323484 0.9934620984696652 -0.05981926006833523
 -0.0012383222575880633 -0.008022170951195232 0.001448679509610846 0.012842652432319508 0.9934620984696652 -0.05981926006833523 0.005377529472759072 0.024768490134093404
0.08753647353064001 0.005802937249544305 0.026806560409643902 0.9928965759855112 -0.0645220424371522 0.001636918461369343 0.013830633588477767 -0.001398821315077547 -0.00864209818465974
 0.9928965759855112 -0.0645220424371522 0.005802035322462719 0.026806585473492208 -0.0014003961213077294 -0.008642028355852522 0.0016392820146458294 0.013830304677347171
 0.001636918461369343 0.013830633588477767 -0.0014003961213077294 -0.008642028355852522 0.0058020488921047605 0.026805457607636748 0.9928965277146765 -0.06452320905239918
 -0.001398821315077547 -0.00864209818465974 0.0016392820146458294 0.013830304677347171 0.9928965277146765 -0.06452320905239918 0.005802829045682276 0.026805360068272176
0.09378907878283 0.006250785407411746 0.02885985310123256 0.9923012726556278 -0.06924005292533712 0.001839721414340275 0.014817433924346474 -0.0015699068499410173 -0.009261462644318041
 0.9923012726556278 -0.06924005292533712 0.006249749802372668 0.02885988092400553 -0.0015717090529801506 -0.009261369306861693 0.0018424392267259396 0.014817045852237412
 0.001839721414340275 0.014817433924346474 -0.0015717090529801506 -0.009261369306861693 0.006249766221383394 0.02885867747220723 0.9923012175404674 -0.06924130270107828
 -0.0015699068499410173 -0.009261462644318041 0.0018424392267259396 0.014817045852237412 0.9923012175404674 -0.06924130270107828 0.00625066111053102 0.02885856323464274
0.100041684035 0.006721526028699022 0.030929092696881766 0.9916758801102914 -0.07397194131370104 0.002055141394966531 0.015803128705441698 -0.001751669738064783 -0.009880064758775526
 0.9916758801102914 -0.07397194131370104 0.006720347425871901 0.030929123630354514 -0.0017537139832545336 -0.009879944415286406 0.0020582389912158976 0.015802674624634448
 0.002055141394966531 0.015803128705441698 -0.0017537139832545336 -0.009879944415286406 0.0067203670689071964 0.03092784547840865 0.9916758176930558 -0.07397327424792108
 -0.001751669738064783 -0.009880064758775526 0.0020582389912158976 0.015802674624634448 0.9916758176930558 -0.07397327424792108 0.006721384422092015 0.030927712609852758
0.1059090909091 0.007184402866470376 0.03288501334036686 0.9910613403162034 -0.07842468733986285 0.0022688400011732046 0.016726910400580195 -0.0019320233736124293 -0.010459683215586007
 0.9910613403162034 -0.07842468733986285 0.007183081577609465 0.03288504755374318 -0.0019343079577633546 -0.010459534178082031 0.0022723173474137287 0.016726387770742382
 0.0022688400011732046 0.016726910400580195 -0.0019343079577633546 -0.010459534178082031 0.007183104616659503 0.03288370014760858 0.9910612706289754 -0.07842609831106395
 -0.0019320233736124293 -0.010459683215586007 0.0022723173474137287 0.016726387770742382 0.9910612706289754 -0.07842609831106395 0.0071842438847121255 0.03288354792670855
0.1062942892872 0.0072155140749893655 0.033013892139254916 0.9910200510491097 -0.07871742544786729 0.00228326226567612 0.016787512633067585 -0.0019441969304581509 -0.01049770165720763
 0.9910200510491097 -0.07871742544786729 0.0072141831303227655 0.033013926581146935 -0.0019464977377410203 -0.010497550618468495 0.002286765337454921 0.016786985270317866
 0.00228326226567612 0.016787512633067585 -0.0019464977377410203 -0.010497550618468495 0.007214206405647382 0.03301257465762493 0.9910199808705065 -0.07871884154266755
 -0.0019441969304581509 -0.01049770165720763 0.002286765337454921 0.016786985270317866 0.9910199808705065 -0.07871884154266755 0.00721535391359084 0.03301242110033165
0.11254689453939999 0.007733100531084271 0.03511386293457922 0.9903334413748006 -0.08347620917741493 0.00252416392357642 0.01777037618444327 -0.002147571323589106 -0.011114167132351685
 0.9903334413748006 -0.08347620917741493 0.007731607874186635 0.03511390132962786 -0.002150143086532047 -0.011113981517653856 0.0025280983325012586 0.017769767832518983
 0.00252416392357642 0.01777037618444327 -0.002150143086532047 -0.011113981517653856 0.00773163522631254 0.03511247660985382 0.9903333629739208 -0.08347770843532172
 -0.002147571323589106 -0.011114167132351685 0.0025280983325012586 0.017769767832518983 0.9903333629739208 -0.08347770843532172 0.007732920538904221 0.03511230017988989
0.11879949979160001 0.008274632237774884 0.03722861410124693 0.9896157104385351 -0.08824798344040294 0.0027779221563892812 0.018751505760272947 -0.0023618716281633557 -0.011729251625352934
 0.9896157104385351 -0.08824798344040294 0.008272968469731004 0.03722865694253163 -0.002364728612827108 -0.011729027362863065 0.002782313936782201 0.01875080826933762
 0.0027779221563892812 0.018751505760272947 -0.002364728612827108 -0.011729027362863065 0.008273000382132238 0.03722716044585973 0.9896156233524017 -0.08824956586706327
 -0.0023618716281633557 -0.011729251625352934 0.002782313936782201 0.01875080826933762 0.9896156233524017 -0.08824956586706327 0.00827443110514475 0.037226958831898714
0.1250521050438 0.008840451715258723 0.03935775134161066 0.9888665212782002 -0.09303242713633623 0.0030446084994468193 0.019730683815812826 -0.002587172237260101 -0.012342742237089494
 0.9888665212782002 -0.09303242713633623 0.008838607407380107 0.03935779917168982 -0.0025903285810392105 -0.012342475064230073 0.0030494838612909136 0.01972988858464697
 0.0030446084994468193 0.019730683815812826 -0.0025903285810392105 -0.012342475064230073 0.008838644405257265 0.03935623196263685 0.9888664250421036 -0.093034092739483
 -0.002587172237260101 -0.012342742237089494 0.0030494838612909136 0.01972988858464697 0.9888664250421036 -0.093034092739483 0.008840228096668396 0.03935600272489138
0.131304710296 0.009430896981292541 0.041500876400614006 0.9880855408528766 -0.09782920782398988 0.003324290094380035 0.02070768898753902 -0.0028235430942808223 -0.012954422753917704
 0.9880855408528766 -0.09782920782398988 0.009428862672637674 0.041500929812920924 -0.0028270128044967655 -0.012954108217863804 0.003329675425993187 0.02070678695452326
 0.003324290094380035 0.02070768898753902 -0.0028270128044967655 -0.012954108217863804 0.009428905325900247 0.04149929300015428 0.9880854349995396 -0.0978309566143542
 -0.0028235430942808223 -0.012954422753917704 0.003329675425993187 0.02070678695452326 0.9880854349995396 -0.0978309566143542 0.009430649492589812 0.04149903356929177
0.1375573155481 0.009917519574047242 0.0433768981131913 0.9874012850711616 -0.10235712829422977 0.003583794515771618 0.021654581335578602 -0.0030378086631708567 -0.013536387062704238
 0.9874012850711616 -0.10235712829422977 0.009915286098113077 0.043376960534525104 -0.003041612578198122 -0.013536024434372976 0.0035896999373512626 0.021653573036332238
 0.003583794515771618 0.021654581335578602 -0.003041612578198122 -0.013536024434372976 0.009915335193447014 0.04337525245667145 0.9874011691672827 -0.10235896022689904
 -0.0030378086631708567 -0.013536387062704238 0.0035896999373512626 0.021653573036332238 0.9874011691672827 -0.10235896022689904 0.009917246547765842 0.04337496285879674
0.1438099208003 0.010421432969127085 0.04524173929750072 0.9866925955699763 -0.10687228382539356 0.0038537494304044704 0.022596909212724833 -0.00326060471466626 -0.014114168920844205
 0.9866925955699763 -0.10687228382539356 0.010418990876951717 0.04524181162341951 -0.003264757884315642 -0.014113753784738498 0.003860198649103602 0.022595786291696226
 0.0038537494304044704 0.022596909212724833 -0.003264757884315642 -0.014113753784738498 0.010419047077454885 0.04524003313938141 0.9866924691532891 -0.10687419889878723
 -0.00326060471466626 -0.014114168920844205 0.003860198649103602 0.022595786291696226 0.9866924691532891 -0.10687419889878723 0.010421132921565103 0.0452397109912703
0.1500625260525 0.010942439859229366 0.04709520640962714 0.9859596747093425 -0.11137452398017635 0.004134049125279108 0.023534552252417747 -0.0034918283403794063 -0.014687655216009506
 0.9859596747093425 -0.11137452398017635 0.010939779675044286 0.04709528957856434 -0.0034963457716409526 -0.01468718297909948 0.0041410658335373236 0.023533306015730646
 0.004134049125279108 0.023534552252417747 -0.0034963457716409526 -0.01468718297909948 0.010939843686936014 0.04709344157514392 0.985959537316382 -0.11137652219352401
 -0.0034918283403794063 -0.014687655216009506 0.0041410658335373236 0.023533306015730646 0.985959537316382 -0.11137652219352401 0.010942111267609899 0.04709308440052279
0.15631513130469998 0.011480341288897498 0.04893711169555305 0.9852027261567443 -0.11586369971997261 0.004424586490445615 0.024467392416154744 -0.003731375229589301 -0.015256735481160397
 0.9852027261567443 -0.11586369971997261 0.011477453509635862 0.04893720668918553 -0.0037362718857572585 -0.015256201373713424 0.0044321943687224506 0.02446601383111584
