! Created with skrf 1.8.0 (http://scikit-rf.org).
# GHz S RI R 50.0 
!freq ReS11 ImS11 ReS12 ImS12 ReS13 ImS13
! ReS14 ImS14
! ReS21 ImS21 ReS22 ImS22 ReS23 ImS23
! ReS24 ImS24
! ReS31 ImS31 ReS32 ImS32 ReS33 ImS33
! ReS34 ImS34
! ReS41 ImS41 ReS42 ImS42 ReS43 ImS43
! ReS44 ImS44
!
0.0 0.001849713410074 0.0 0.9981502865897 0.0 7.174895783777e-05 0.0 -7.174895765954e-05 8.786713133991464e-21
 0.9981502865897 0.0 0.001849713410085 0.0 -7.174895765999e-05 8.786713134046572e-21 7.174895783701e-05 0.0
 7.174895783777e-05 0.0 -7.174895765999e-05 8.786713134046572e-21 0.001849713410084 0.0 0.9981502865897 0.0
 -7.174895765954e-05 8.786713133991464e-21 7.174895783701e-05 0.0 0.9981502865897 0.0 0.001849713410068 0.0
0.005 0.0019911654679764324 0.001514295478631321 0.9979711624861113 -0.003873393306598554 0.00010081349209133078 0.0007784209145960072 -9.79046269007407e-05 -0.0004905248686844039
 0.9979711624861113 -0.003873393306598554 0.001991174046667148 0.0015142905242669375 -9.790263215197175e-05 -0.0004905234484820579 0.0001007712023094306 0.0007784371672791845
 0.00010081349209133078 0.0007784209145960072 -9.790263215197175e-05 -0.0004905234484820579 0.0019911655547137958 0.001514228227752265 0.9979711621028495 -0.0038734603616615965
 -9.79046269007407e-05 -0.0004905248686844039 0.0001007712023094306 0.0007784371672791845 0.9979711621028495 -0.0038734603616615965 0.001991173204435454 0.0015142236756527298
0.006252605252188 0.0020285782406270453 0.0018987726485382612 0.9979234400841105 -0.004842637143800634 0.00010928164018509438 0.000973388935377494 -0.00010542883347683956 -0.0006137684898397034
 0.9979234400841105 -0.004842637143800634 0.0020285916498479738 0.001898766333864876 -0.00010542572865238779 -0.0006137667419998969 0.00010921556885086733 0.0009734100367393173
 0.00010928164018509438 0.000973388935377494 -0.00010542572865238779 -0.0006137667419998969 0.002028578448157255 0.0018986885979428154 0.9979234395571519 -0.00484272096361901
 -0.00010542883347683956 -0.0006137684898397034 0.00010921556885086733 0.0009734100367393173 0.9979234395571519 -0.00484272096361901 0.0020285904062525527 0.0018986827683909382
0.01250521050438 0.002227355351472275 0.0038367699880056147 0.9976679998644788 -0.009685685327823955 0.00015871346722517638 0.001947026026872756 -0.00014886807355918443 -0.0012302920688610458
 0.9976679998644788 -0.009685685327823955 0.0022274088816471747 0.003836756110605358 -0.00014885582775103613 -0.0012302888798201438 0.00015845005727540857 0.0019470768263007093
 0.00015871346722517638 0.001947026026872756 -0.00014885582775103613 -0.0012302888798201438 0.0022273567318022887 0.003836602271441057 0.9976679983173286 -0.009685852755251054
 -0.00014886807355918443 -0.0012302920688610458 0.00015845005727540857 0.0019470768263007093 0.9976679983173286 -0.009685852755251054 0.002227404488309055 0.003836589190502609
0.01875781575657 0.0024465432463905584 0.005801742793519397 0.9973836028631321 -0.014540850526887151 0.0002201686528173525 0.002921497094335527 -0.00020221268661430508 -0.0018486506035665497
 0.9973836028631321 -0.014540850526887151 0.002446663507035111 0.005801719972046514 -0.00020218536513481644 -0.0018486463542458182 0.00021957709558614082 0.0029215881434891257
 0.0002201686528173525 0.002921497094335527 -0.00020218536513481644 -0.0018486463542458182 0.0024465467525553036 0.00580149173355827 0.9973835997987403 -0.014541101492297195
 -0.00020221268661430508 -0.0018486506035665497 0.00021957709558614082 0.0029215881434891257 0.9973835997987403 -0.014541101492297195 0.0024466540803324693 0.005801469856428288
0.02501042100875 0.0026866215986782373 0.007790861425027708 0.9970698700650135 -0.019410401126968103 0.0002937725274442841 0.003896785090013502 -0.0002656025596798476 -0.00246851718727461
 0.9970698700650135 -0.019410401126968103 0.0026868351316147398 0.007790828152408577 -0.0002655542956354006 -0.0024685123384437994 0.00029272208263290397 0.003896928832513353
 0.0002937725274442841 0.003896785090013502 -0.0002655542956354006 -0.0024685123384437994 0.002686628184623954 0.00779052733593536 0.9970698649899012 -0.019410735651030072
 -0.0002656025596798476 -0.00246851718727461 0.00029272208263290397 0.003896928832513353 0.9970698649899012 -0.019410735651030072 0.002686818817560107 0.007790494999864181
0.03126302626094 0.002948049999589738 0.009802627090681991 0.9967264057277581 -0.02429525666498073 0.0003796499178441419 0.004872783349771385 -0.0003391726116746522 -0.0030896449313177524
 0.9967264057277581 -0.02429525666498073 0.0029483832941440773 0.009802581734843784 -0.00033909759517377567 -0.0030896400243060713 0.0003780098021946909 0.00487299412968743
 0.0003796499178441419 0.004872783349771385 -0.00033909759517377567 -0.0030896400243060713 0.002948060612030595 0.009802210340727521 0.9967263981399618 -0.024295674796706003
 -0.0003391726116746522 -0.0030896449313177524 0.0003780098021946909 0.00487299412968743 0.9967263981399618 -0.024295674796706003 0.002948358256263536 0.009802165765622322
0.037515631513130004 0.003231277128679316 0.01183603027612718 0.9963528070030363 -0.029195829350368133 0.00047792388757925304 0.005849348934792774 -0.00042305370423287655 -0.0037118136753747305
 0.9963528070030363 -0.029195829350368133 0.003231756630880967 0.011835971080091746 -0.00042294617697609957 -0.0037118093323294933 0.00047556323211763796 0.005849643012432119
 0.00047792388757925304 0.005849348934792774 -0.00042294617697609957 -0.0037118093323294933 0.0032312927137864993 0.01183553126841555 0.9963527963952056 -0.029196331186763607
 -0.00042305370423287655 -0.0037118136753747305 0.00047556323211763796 0.005849643012432119 0.9963527963952056 -0.029196331186763607 0.003231721055667936 0.011835472556478944
0.043768236765320004 0.003536744265912242 0.01389029465403607 0.9959486679019584 -0.0341122800945836 0.0005887151140021726 0.006826318861363611 -0.0005173729350408643 -0.004334813812388049
 0.9959486679019584 -0.0341122800945836 0.0035373963862128342 0.01389021973539972 -0.0005172271874802397 -0.0043348107363771655 0.0005855029514374575 0.00682671443127978
 0.0005887151140021726 0.006826318861363611 -0.0005172271874802397 -0.0043348107363771655 0.0035367657703019952 0.013889713850547358 0.9959486537589176 -0.03411286575664221
 -0.0005173729350408643 -0.004334813812388049 0.0005855029514374575 0.00682671443127978 0.9959486537589176 -0.03411286575664221 0.0035373484817915364 0.01388963898603314
0.050020842017509996 0.003864886895255172 0.015964771244874196 0.9955135813573903 -0.03904462428964353 0.0007121414896544962 0.007803516832439255 -0.0006222537124615235 -0.004958439618188501
 0.9955135813573903 -0.03904462428964353 0.0038657380146712964 0.015964678595143233 -0.0006220640820202881 -0.004958438593280373 0.0007079467573730037 0.007804034042048
 0.0007121414896544962 0.007803516832439255 -0.0006220640820202881 -0.004958438593280373 0.003864915269311261 0.015964109157737747 0.9955135631563163 -0.03904529393144746
 -0.0006222537124615235 -0.004958439618188501 0.0007079467573730037 0.007804034042048 0.9955135631563163 -0.03904529393144746 0.003865676013577304 0.015964016006013063
0.055454545454549996 0.004168802506447152 0.017783522282998825 0.9951100288253603 -0.04334382926765868 0.0008297532861736819 0.008652772205297168 -0.0007220686074702808 -0.005500738199271046
 0.9951100288253603 -0.04334382926765868 0.004169847968658391 0.017783412494578245 -0.0007218362786184663 -0.0055007396565096445 0.0008245981676317309 0.008653413016530843
 0.0008297532861736819 0.008652772205297168 -0.0007218362786184663 -0.0055007396565096445 0.004168837625187256 0.017782790013977985 0.9951100066646368 -0.043344572039976444
 -0.0007220686074702808 -0.005500738199271046 0.0008245981676317309 0.008653413016530843 0.9951100066646368 -0.043344572039976444 0.004169772299042249 0.017782679143732747
0.056273447269699996 0.0042161354945575045 0.018058886498797614 0.9950471404786484 -0.04399278367176685 0.0008483178256247512 0.008780756550361991 -0.0007378157288674179 -0.005582486008238524
 0.9950471404786484 -0.04399278367176685 0.00421721197093175 0.018058773982380028 -0.0007375765990851655 -0.005582487899512615 0.0008430093784441159 0.00878141751878491
 0.0008483178256247512 0.008780756550361991 -0.0007375765990851655 -0.005582487899512615 0.004216171692593426 0.018058143690593224 0.9950471176858515 -0.04399353748010253
 -0.0007378157288674179 -0.005582486008238524 0.0008430093784441159 0.00878141751878491 0.9950471176858515 -0.04399353748010253 0.0042171341282850475 0.018058029997503448
0.06252605252188 0.004590915920587013 0.020172113735399073 0.9945489394073614 -0.04895661483575274 0.0009973556036180155 0.00975784356157939 -0.0008641748850823203 -0.006206746771844611
 0.9945489394073614 -0.04895661483575274 0.00459224409393187 0.02017197908834481 -0.00086388068514973 -0.006206752525410044 0.00099080223306209 0.009758672398262861
 0.0009973556036180155 0.00975784356157939 -0.00086388068514973 -0.006206752525410044 0.004590960904114931 0.02017129082450275 0.9945489114783246 -0.04895745302474784
 -0.0008641748850823203 -0.006206746771844611 0.00099080223306209 0.009758672398262861 0.9945489114783246 -0.04895745302474784 0.004592148689719116 0.020171154215152434
0.06877865777407 0.004989649578643758 0.02230395615244606 0.9940185739637734 -0.053935926190546116 0.0011593627566418008 0.010734576372364822 -0.001001443185404375 -0.006831013545457442
 0.9940185739637734 -0.053935926190546116 0.004991255776059766 0.02230379698113645 -0.0010010883899854224 -0.0068310241884488605 0.0011514332148106193 0.01073559919539813
 0.0011593627566418008 0.010734576372364822 -0.0010010883899854224 -0.0068310241884488605 0.004989704318103301 0.022303053807676502 0.9940185403417433 -0.05393684900700514
 -0.001001443185404375 -0.006831013545457442 0.0011514332148106193 0.01073559919539813 0.9940185403417433 -0.05393684900700514 0.004991141116124569 0.022302891785231323
0.07503126302626001 0.005412753458792903 0.02445393605502892 0.9934556421659599 -0.05893048870615142 0.0013344434662809054 0.011710747176486722 -0.0011497286150150285 -0.007455075184713517
 0.9934556421659599 -0.05893048870615142 0.0054146639999894785 0.024453749834333516 -0.0011493077444176244 -0.007455091825252307 0.0013250064934244288 0.011711992130439436
 0.0013344434662809054 0.011710747176486722 -0.0011493077444176244 -0.007455091825252307 0.00541281893550204 0.024452954998293988 0.9934556022802911 -0.05893149642664989
 -0.0011497286150150285 -0.007455075184713517 0.0013250064934244288 0.011711992130439436 0.9934556022802911 -0.05893149642664989 0.005414528416490099 0.02445276494242364
0.08128386827845 0.005860640090532291 0.026621587687227326 0.9928597446714479 -0.06394004306992616 0.0015226979704238502 0.012686142365199635 -0.0013091350065519889 -0.008078717365078657
 0.9928597446714479 -0.06394004306992616 0.0058628812922856275 0.02662137175873364 -0.0013086426270039683 -0.008078741192236621 0.001511622324990776 0.012687639638506332
 0.0015226979704238502 0.012686142365199635 -0.0013086426270039683 -0.008078741192236621 0.005860717298691678 0.026620528697131014 0.9928596979364761 -0.06394113599689223
 -0.0013091350065519889 -0.008078717365078657 0.001511622324990776 0.012687639638506332 0.9928596979364761 -0.06394113599689223 0.005862723144800538 0.026620307862396324
0.08753647353064001 0.006333717441015918 0.02880645231960091 0.9922304851687845 -0.06896430460026376 0.001724222378460995 0.013660542895304743 -0.001479761898334046 -0.008701722335905606
 0.9922304851687845 -0.06896430460026376 0.006336315622345564 0.028806203889326903 -0.001479192622415384 -0.008701754619624878 0.001711376869910903 0.013662324736962096
 0.001724222378460995 0.013660542895304743 -0.001479192622415384 -0.008701754619624878 0.006333807390090491 0.02880531622462612 0.9922304309825771 -0.0689654830684318
 -0.001479761898334046 -0.008701722335905606 0.001711376869910903 0.013662324736962096 0.9922304309825771 -0.0689654830684318 0.0063361332992479145 0.02880506173854413
0.09378907878283 0.0068323887775297125 0.031008074724753466 0.9915674707373585 -0.07400296678541461 0.0019391084910368457 0.014633724579933163 -0.0016617043882757173 -0.009323868763287287
 0.9915674707373585 -0.07400296678541461 0.006835370264371596 0.03100779086076443 -0.0016610528754535982 -0.009323910854301867 0.001924362014330956 0.01463582531559197
 0.0019391084910368457 0.014633724579933163 -0.0016610528754535982 -0.009323910854301867 0.006832492493777284 0.031006862409160466 0.991567408480347 -0.07400423115541778
 -0.0016617043882757173 -0.009323868763287287 0.001924362014330956 0.01463582531559197 0.991567408480347 -0.07400423115541778 0.006835162183535247 0.03100657126998843
0.100041684035 0.0073570525003247 0.03322600062132982 0.9908703121814381 -0.07905570386783173 0.0021674436242381887 0.0156054583216914 -0.0018550529833966283 -0.009944931642432193
 0.9908703121814381 -0.07905570386783173 0.007360443630221687 0.033225678251060216 -0.0018543139406588713 -0.009944984972152588 0.0021506651961970507 0.015607914369070289
 0.0021674436242381887 0.0156054583216914 -0.0018543139406588713 -0.009944984972152588 0.007357171029398129 0.03322471301938947 0.9908702412151835 -0.079057054531415
 -0.0018550529833966283 -0.009944931642432193 0.0021506651961970507 0.015607914369070289 0.9908702412151835 -0.079057054531415 0.007360208240401066 0.03322438209392025
0.1059090909091 0.007873384006291912 0.03532171117478358 0.9901847059717779 -0.08380965730475987 0.0023940173583635593 0.01651580227371712 -0.002046940321805335 -0.010526544114071529
 0.9901847059717779 -0.08380965730475987 0.00787718351121079 0.03532134974815505 -0.002046114370602657 -0.010526609363729877 0.0023752131733604195 0.01651862674142775
 0.0023940173583635593 0.01651580227371712 -0.002046114370602657 -0.010526609363729877 0.007873517405520248 0.035320353822258406 0.9901846262338301 -0.08381108932566109
 -0.002046940321805335 -0.010526544114071529 0.0023752131733604195 0.01651862674142775 0.9901846262338301 -0.08381108932566109 0.0078769211120015 0.03531998259244005
0.1062942892872 0.00790810195712375 0.035459774768038244 0.9901386243509003 -0.084122172792975 0.002409310436128777 0.016575510314618666 -0.0020598934477229695 -0.010564682253338512
 0.9901386243509003 -0.084122172792975 0.007911929084271045 0.03545941067535934 -0.0020590616303504633 -0.010564748333726743 0.002390369233077309 0.0165783601981106
 0.002409310436128777 0.016575510314618666 -0.0020590616303504633 -0.010564748333726743 0.00790823636591133 0.03545841286818456 0.9901385440162694 -0.08412361016808866
 -0.0020598934477229695 -0.010564682253338512 0.002390369233077309 0.0165783601981106 0.9901385440162694 -0.08412361016808866 0.007911664865699303 0.0354580388890286
0.11254689453939999 0.008485925241309167 0.037708939514344016 0.9893720264466452 -0.0892020147158475 0.0026647867564144065 0.017543642220061204 -0.002276306648196599 -0.011182888154681516
 0.9893720264466452 -0.0892020147158475 0.008490214740337189 0.03770853033634153 -0.0022753768603983294 -0.011182968578066351 0.0026435521534022093 0.017546926584613463
 0.0026647867564144065 0.017543642220061204 -0.0022753768603983294 -0.011182968578066351 0.008486076619909862 0.037707504355322156 0.9893719360632919 -0.08920353924969779
 -0.002276306648196599 -0.011182888154681516 0.0026435521534022093 0.017546926584613463 0.9893719360632919 -0.08920353924969779 0.008489920206730965 0.037707083918117695
0.11879949979160001 0.009090904978787067 0.0399730336927745 0.9885701423207283 -0.09429485618122974 0.0029339454178641537 0.01850961133011054 -0.002504368399968442 -0.011799313202670159
 0.9885701423207283 -0.09429485618122974 0.009095683250416261 0.03997257591622343 -0.002503335495858082 -0.01179940964157964 0.0029102870291678276 0.018513372954191868
 0.0029339454178641537 0.01850961133011054 -0.002503335495858082 -0.01179940964157964 0.009091074443038394 0.039971526368590964 0.9885700411848347 -0.09429646834432764
 -0.002504368399968442 -0.011799313202670159 0.0029102870291678276 0.018513372954191868 0.9885700411848347 -0.09429646834432764 0.009095356949231545 0.03997105592896265
0.1250521050438 0.0097234181063224 0.04225159176749117 0.9877326007672278 -0.09940031006266054 0.0032168540904126074 0.019473170722080553 -0.002744149311589633 -0.01241371759124615
 0.9877326007672278 -0.09940031006266054 0.009728711580934147 0.042251081725149145 -0.0027430081959203883 -0.01241383179821757 0.0031906418109808594 0.019477454529903793
 0.0032168540904126074 0.019473170722080553 -0.0027430081959203883 -0.01241383179821757 0.009723606799355114 0.04225001341906335 0.987732488150549 -0.09940201035628
 -0.002744149311589633 -0.01241371759124615 0.0031906418109808594 0.019477454529903793 0.987732488150549 -0.09940201035628 0.009728352095185723 0.04224948928921819
0.131304710296 0.010383835642158293 0.04454414315488335 0.9868590358091242 -0.1045179763452577 0.0035135751170389255 0.020434069406332623 -0.0029957146303726746 -0.013025857911598764
 0.9868590358091242 -0.1045179763452577 0.010389670784555207 0.04454357702143693 -0.0029944602595067017 -0.013025991718916505 0.0034846791651034262 0.020438922479096077
 0.0035135751170389255 0.020434069406332623 -0.0029944602595067017 -0.013025991718916505 0.010384044736972428 0.04454249497452653 0.986858910957618 -0.10451976529568355
 -0.0029957146303726746 -0.013025857911598764 0.0034846791651034262 0.020438922479096077 0.986858910957618 -0.10451976529568355 0.010389276733865528 0.0445419133197492
0.1375573155481 0.010931787570076656 0.046552941030924624 0.9860898984300245 -0.10934997626551123 0.003789819026004583 0.0213639262020213 -0.003224815463458084 -0.013607362734819224
 0.9860898984300245 -0.10934997626551123 0.01093819382923442 0.04655232663136126 -0.0032234405885893974 -0.013607516543315448 0.0037581700320376346 0.021369346616805514
 0.003789819026004583 0.0213639262020213 -0.0032234405885893974 -0.013607516543315448 0.010932019320484094 0.046551223326398376 0.9860897607577429 -0.10935185419207338
 -0.003224815463458084 -0.013607362734819224 0.0037581700320376346 0.021369346616805514 0.9860897607577429 -0.10935185419207338 0.010937762459295678 0.04655059341880601
0.1438099208003 0.011499319178178709 0.048549127812012254 0.9852930880144716 -0.11416764951302594 0.0040771377219318726 0.02228871146419484 -0.003462976284971329 -0.014184212614135579
 0.9852930880144716 -0.11416764951302594 0.011506323542067976 0.04854846200456299 -0.0034614755394368883 -0.014184388240184632 0.004042617242357751 0.022294742821548395
 0.0040771377219318726 0.02228871146419484 -0.0034614755394368883 -0.014184388240184632 0.011499574996409887 0.048547341744315325 0.9852929367649143 -0.11416961692923984
 -0.003462976284971329 -0.014184212614135579 0.004042617242357751 0.022294742821548395 0.9852929367649143 -0.11416961692923984 0.01150585327506594 0.0485466606029807
0.1500625260525 0.012086197562059295 0.05053247614119018 0.9844688426942644 -0.11897081424483479 0.004375410094386151 0.023208289345117275 -0.0037100794288973406 -0.01475628097648881
 0.9844688426942644 -0.11897081424483479 0.012093827072488766 0.050531755608955876 -0.0037084474689174176 -0.01475648030851105 0.004337900686153524 0.023214976815963663
 0.004375410094386151 0.023208289345117275 -0.0037084474689174176 -0.01475648030851105 0.012086478902012704 0.0505306229098195 0.9844686770890642 -0.11897287168289856
 -0.0037100794288973406 -0.01475628097648881 0.004337900686153524 0.023214976815963663 0.9844686770890642 -0.11897287168289856 0.012093316349618846 0.05052988739378986
0.15631513130469998 0.012692187769083839 0.05250276546639342 0.9836174022472387 -0.123759290710062 0.004684513371065561 0.024122526830336454 -0.003966005575994871 -0.01532344436167674
 0.9836174022472387 -0.123759290710062 0.012700469523080219 0.052501986713812614 -0.003964237081339851 -0.015323669359579089 0.004643898612041556 0.024129917133352448
