! Created with skrf 1.8.0 (http://scikit-rf.org).
# GHz S RI R 50.0 
!freq ReS11 ImS11 ReS12 ImS12 ReS13 ImS13
! ReS14 ImS14
! ReS21 ImS21 ReS22 ImS22 ReS23 ImS23
! ReS24 ImS24
! ReS31 ImS31 ReS32 ImS32 ReS33 ImS33
! ReS34 ImS34
! ReS41 ImS41 ReS42 ImS42 ReS43 ImS43
! ReS44 ImS44
!
0.0 0.001732346228678 0.0 0.9982676537401 0.0 6.679231025473e-05 0.0 -6.679231025719e-05 8.179698896412466e-21
 0.9982676537401 0.0 0.001732346228672 0.0 -6.679231025635e-05 8.179698896309595e-21 6.679231025881e-05 0.0
 6.679231025473e-05 0.0 -6.679231025635e-05 8.179698896309595e-21 0.001732346232913 0.0 0.9982676537443 0.0
 -6.679231025719e-05 8.179698896412466e-21 6.679231025881e-05 0.0 0.9982676537443 0.0 0.001732346232953 0.0
0.005 0.0018643960811750451 0.001423031104490979 0.998100524486827 -0.003627811171692974 9.28940805709089e-05 0.0006973824179548295 -9.04411868811684e-05 -0.0004443561734737008
 0.998100524486827 -0.003627811171692974 0.0018644005318942244 0.0014230284543320197 -9.04406411521811e-05 -0.000444355693366823 9.288456507875977e-05 0.0006973862668168804
 9.28940805709089e-05 0.0006973824179548295 -9.04406411521811e-05 -0.000444355693366823 0.0018643970602042234 0.001423097754643957 0.9981005248647806 -0.003627744108695531
 -9.04411868811684e-05 -0.0004443561734737008 9.288456507875977e-05 0.0006973862668168804 0.9981005248647806 -0.003627744108695531 0.0018644002980594103 0.001423095920211657
0.006252605252188 0.0018992083615387333 0.0017843318862830625 0.9980561639940051 -0.004535619432418203 0.00010042771831808544 0.000872073605947425 -9.718740977728753e-05 -0.0005560004060399221
 0.9980561639940051 -0.004535619432418203 0.0018992153185574971 0.001784328458431778 -9.718656105505445e-05 -0.0005559998128824923 0.00010041285400667931 0.0008720785688735884
 0.00010042771831808544 0.000872073605947425 -9.718656105505445e-05 -0.0005559998128824923 0.0018992098158956048 0.001784415187057622 0.9980561645085577 -0.00453553560390898
 -9.718740977728753e-05 -0.0005560004060399221 0.00010041285400667931 0.0008720785688735884 0.9980561645085577 -0.00453553560390898 0.00189921487612416 0.0017844127925745702
0.01250521050438 0.0020835127168135465 0.003605535434492194 0.99781966130618 -0.009071796977515137 0.0001440362217310084 0.0017445521988991345 -0.00013583585136833288 -0.0011145451966998938
 0.99781966130618 -0.009071796977515137 0.002083540497401685 0.003605527387922578 -0.00013583251260042197 -0.0011145440869194127 0.0001439770293965308 0.001744563805980735
 0.0001440362217310084 0.0017445521988991345 -0.00013583251260042197 -0.0011145440869194127 0.0020835179578426533 0.003605701645186408 0.9978196627909083 -0.009071629554798127
 -0.00013583585136833288 -0.0011145451966998938 0.0001439770293965308 0.001744563805980735 0.9978196627909083 -0.009071629554798127 0.0020835381482839635 0.0036056958178534914
0.01875781575657 0.0022856987706249845 0.005452175917230925 0.997557825261233 -0.013619522202556146 0.00019772554217482922 0.002617948393194687 -0.00018286268653990083 -0.0016748569864342036
 0.997557825261233 -0.013619522202556146 0.0022857612004713477 0.005452161926876857 -0.00018285524937141224 -0.0016748554508947012 0.00019759276794581795 0.002617968738216746
 0.00019772554217482922 0.002617948393194687 -0.00018285524937141224 -0.0016748554508947012 0.002285710132741491 0.005452424719451081 0.9975578281784558 -0.013619271244094906
 -0.00018286268653990083 -0.0016748569864342036 0.00019759276794581795 0.002617968738216746 0.9975578281784558 -0.013619271244094906 0.0022857554754593455 0.005452414332479871
0.02501042100875 0.002506190754304027 0.007321636719405846 0.9972703217528797 -0.01818095176385686 0.00026160426893746114 0.0034922591768342492 -0.00023838841152487854 -0.0022366662867059606
 0.9972703217528797 -0.01818095176385686 0.002506301632105409 0.007321615326448297 -0.0002383752896974839 -0.0022366644323147927 0.0002613687627749987 0.0034922907410373056
 0.00026160426893746114 0.0034922591768342492 -0.0002383752896974839 -0.0022366644323147927 0.002506210570485758 0.0073219677637323104 0.9972703265686298 -0.018180617255902958
 -0.00023838841152487854 -0.0022366662867059606 0.0002613687627749987 0.0034922907410373056 0.9972703265686298 -0.018180617255902958 0.002506291049528317 0.0073219516016297375
0.03126302626094 0.002745395358732599 0.009212547976439682 0.9969568010551167 -0.02275698074967751 0.0003357808168876366 0.004367405111953953 -0.0003025297324123734 -0.0027997723382793367
 0.9969568010551167 -0.02275698074967751 0.002745568460509172 0.00921251758715016 -0.00030250935803495727 -0.002799770288168053 0.0003354134995406343 0.004367450762831013
 0.0003357808168876366 0.004367405111953953 -0.00030250935803495727 -0.002799770288168053 0.0027454259558954 0.009212960852963883 0.9969568082357766 -0.022756562635394134
 -0.0003025297324123734 -0.0027997723382793367 0.0003354134995406343 0.004367450762831013 0.9969568082357766 -0.022756562635394134 0.00274555152092082 0.009212937610485188
0.037515631513130004 0.0030037100473715604 0.011123998872938403 0.9966169064818858 -0.027348030320189967 0.0004203624267728443 0.005243275967707488 -0.00037540032098840173 -0.003363997504542069
 0.9966169064818858 -0.027348030320189967 0.003003959128439951 0.011123957757484496 -0.0003753711426329936 -0.0033639953980372215 0.00041983427494481264 0.005243338960440848
 0.0004203624267728443 0.005243275967707488 -0.0003753711426329936 -0.0033639953980372215 0.003003753751354101 0.011124493085158808 0.9966169165016417 -0.027347528525033582
 -0.00037540032098840173 -0.003363997504542069 0.00041983427494481264 0.005243338960440848 0.9966169165016417 -0.027347528525033582 0.0030039343192797083 0.011124461366930405
0.043768236765320004 0.0032815262678375285 0.0130552978628329 0.9962502779483117 -0.03195428741460419 0.0005154546777207979 0.006119744604177089 -0.0004571110625867915 -0.003929173414010272
 0.9962502779483117 -0.03195428741460419 0.0032818650637015754 0.013055244153973009 -0.0004570715441069286 -0.003929171406592217 0.0005147367167377594 0.006119828583838385
 0.0005154546777207979 0.006119744604177089 -0.0004570715441069286 -0.003929171406592217 0.003281585399775744 0.013055872851933447 0.9962502912873819 -0.031953701821493735
 -0.0004571110625867915 -0.003929173414010272 0.0005147367167377594 0.006119828583838385 0.9962502912873819 -0.031953701821493735 0.003281830855837239 0.013055831171767429
0.050020842017509996 0.0035792309186162418 0.015005873640546853 0.9958565537895181 -0.03657580370648255 0.0006211611759721651 0.006996672715131656 -0.0005477701273805329 -0.004495135247817888
 0.9958565537895181 -0.03657580370648255 0.003579673144869525 0.015005805332516492 -0.0005477187471392244 -0.0044951335110577344 0.0006202244764975569 0.006996781719309031
 0.0006211611759721651 0.006996672715131656 -0.0005477187471392244 -0.0044951335110577344 0.003579307793665165 0.015006528772595151 0.9958565709359778 -0.03657513416794978
 -0.0005477701273805329 -0.004495135247817888 0.0006202244764975569 0.006996781719309031 0.9958565709359778 -0.03657513416794978 0.0035796279915803753 0.015006475553166929
0.055454545454549996 0.0038543947347643424 0.016716248847677452 0.9954921093420367 -0.040604408174907236 0.0007217222067605632 0.0077590092473510865 -0.0006339046963545656 -0.0049874840963044465
 0.9954921093420367 -0.040604408174907236 0.003854937968537658 0.016716166115134056 -0.0006338417829581984 -0.004987482746542678 0.0007205719575405967 0.007759143584493222
 0.0007217222067605632 0.0077590092473510865 -0.0006338417829581984 -0.004987482746542678 0.0038544889034516938 0.016716973048202452 0.9954921301999531 -0.04060366554658344
 -0.0006339046963545656 -0.0049874840963044465 0.0007205719575405967 0.007759143584493222 0.9954921301999531 -0.04060366554658344 0.0038548820328693618 0.01671690844854433
0.056273447269699996 0.003897207089019851 0.016975226497220292 0.9954353718602028 -0.04121254417742098 0.0007375833255002617 0.007873913651281355 -0.0006474829583112785 -0.0050617189523018
 0.9954353718602028 -0.04121254417742098 0.0038977664414880137 0.01697514144453091 -0.0006474182086071506 -0.005061717673798745 0.0007363990029994332 0.007874052112789832
 0.0007375833255002617 0.007873913651281355 -0.0006474182086071506 -0.005061717673798745 0.003897304014867042 0.01697596105739415 0.9954353933104995 -0.041211790520934204
 -0.0006474829583112785 -0.0050617189523018 0.0007363990029994332 0.007874052112789832 0.9954353933104995 -0.041211790520934204 0.003897708777602413 0.01697589462959504
0.06252605252188 0.004235834434624597 0.018962901597755988 0.9949863702730114 -0.04586441377560362 0.0008648201363815479 0.008751313988160979 -0.000756352219900232 -0.005628759713352757
 0.9949863702730114 -0.04586441377560362 0.004236524589037378 0.01896279751394877 -0.0007562726066309683 -0.005628759096664721 0.0008633593518164215 0.008751486737824325
 0.0008648201363815479 0.008751313988160979 -0.0007562726066309683 -0.005628759096664721 0.004235953710916982 0.01896371479617226 0.9949863965341913 -0.04586357579721253
 -0.000756352219900232 -0.005628759713352757 0.0008633593518164215 0.008751486737824325 0.9949863965341913 -0.04586357579721253 0.00423645283032308 0.018963633398710038
0.06877865777407 0.004595489358137474 0.020968473055144737 0.9945091879487508 -0.050531273284018866 0.001002968056850681 0.009628714465523176 -0.0008744777215011695 -0.006196091066253464
 0.9945091879487508 -0.050531273284018866 0.004596323969294318 0.020968347511621247 -0.0008743817638079722 -0.006196091330825842 0.0010012020187353018 0.009628926734966476
 0.001002968056850681 0.009628714465523176 -0.0008743817638079722 -0.006196091330825842 0.004595633273481206 0.020969364023985016 0.994509219537886 -0.05053035075079942
 -0.0008744777215011695 -0.006196091066253464 0.0010012020187353018 0.009628926734966476 0.994509219537886 -0.05053035075079942 0.004596236510469132 0.02096926580291213
0.07503126302626001 0.004976545068750762 0.02299153382875443 0.9940034650493896 -0.05521294937274979 0.001152120817596808 0.010505950597609335 -0.001001956326749806 -0.006763544342035115
 0.9940034650493896 -0.05521294937274979 0.00497753777033057 0.022991384253531266 -0.001001842556834265 -0.006763545723133925 0.0011500207849206997 0.01050620802205737
 0.001152120817596808 0.010505950597609335 -0.001001842556834265 -0.006763545723133925 0.004976715900679219 0.022992501620954606 0.9940035024968386 -0.055211942023704094
 -0.001001956326749806 -0.006763544342035115 0.0011500207849206997 0.01050620802205737 0.9940035024968386 -0.055211942023704094 0.004977432985262903 0.02299238462915162
0.08128386827845 0.005379371572542025 0.02503168901748851 0.9934688433477177 -0.05990924126463203 0.0013123692845583568 0.011382853091712582 -0.0011388818533258139 -0.00733094831331263
 0.9934688433477177 -0.05990924126463203 0.005380535975979605 0.025031512694031473 -0.0011387488162830793 -0.007330951061954789 0.0013099065700978177 0.011383161712697966
 0.0013123692845583568 0.011382853091712582 -0.0011387488162830793 -0.007330951061954789 0.0053795715847477325 0.025032732605832487 0.9934688871965809 -0.05990814881134524
 -0.0011388818533258139 -0.00733094831331263 0.0013099065700978177 0.011383161712697966 0.9934688871965809 -0.05990814881134524 0.005380412215466131 0.025032594802538673
0.08753647353064001 0.005804335608363469 0.027088551224555293 0.9929049665468876 -0.06461992533874752 0.001483801316940433 0.012259248148280479 -0.0012853449659785345 -0.007898128966494559
 0.9929049665468876 -0.06461992533874752 0.005805685302161975 0.027088345290578426 -0.001285191219627431 -0.007898133349388034 0.00148094729153802 0.012259614416371613
 0.001483801316940433 0.012259248148280479 -0.001285191219627431 -0.007898133349388034 0.00580456704953909 0.02708966950234284 0.9929050173549535 -0.0646187474645202
 -0.0012853449659785345 -0.007898128966494559 0.00148094729153802 0.012259614416371613 0.9929050173549535 -0.0646187474645202 0.005805540893776378 0.027089508752630023
0.09378907878283 0.0062518005531707775 0.029161737250802466 0.992311480573172 -0.06934475841461235 0.001666501629046594 0.013134957693734529 -0.0014414330652880599 -0.008464909349569396
 0.992311480573172 -0.06934475841461235 0.006253349101852871 0.02916149869703075 -0.0014412571800815996 -0.008464915649037699 0.0016632277256547236 0.013135388471088697
 0.001666501629046594 0.013134957693734529 -0.0014412571800815996 -0.008464915649037699 0.006252065655062703 0.029162929029774375 0.992311538914001 -0.06934349477630788
 -0.0014414330652880599 -0.008464909349569396 0.0016632277256547236 0.013135388471088697 0.992311538914001 -0.06934349477630788 0.006253182348574348 0.02916274310404361
0.100041684035 0.0067221263009537 0.03125086568430621 0.9916880338479227 -0.07408348015005592 0.0018605516544455353 0.014009799560774508 -0.0016072301727623197 -0.009031109480757565
 0.9916880338479227 -0.07408348015005592 0.00672388724418569 0.03125059135329405 -0.001607030731714876 -0.009031117994678355 0.001856829373254189 0.014010302123720739
 0.0018605516544455353 0.014009799560774508 -0.001607030731714876 -0.009031117994678355 0.0067224272765671195 0.031252129694936806 0.9916881003119516 -0.0740821303778324
 -0.0016072301727623197 -0.009031109480757565 0.001856829373254189 0.014010302123720739 0.9916881003119516 -0.0740821303778324 0.006723696423155686 0.03125191626839356
0.1059090909091 0.007184586194017851 0.0332254508033815 0.991075435479464 -0.07854265409368787 0.002053039005368659 0.014829790988961098 -0.0017717151877317536 -0.00956173748383684
 0.991075435479464 -0.07854265409368787 0.007186558738173637 0.03322513989447446 -0.0017714923644696439 -0.009561748360493196 0.0020488701132091685 0.014830367903904101
 0.002053039005368659 0.014829790988961098 -0.0017714923644696439 -0.009561748360493196 0.007184922828009309 0.03322678137163141 0.991075510119378 -0.07854122313076457
 -0.0017717151877317536 -0.00956173748383684 0.0020488701132091685 0.014830367903904101 0.991075510119378 -0.07854122313076457 0.00718634374151178 0.03322653993886084
0.1062942892872 0.007215669124161248 0.03335555508120179 0.9910342775448537 -0.0788358148581676 0.0020660294123590064 0.014883587641795037 -0.0017828168138548132 -0.009596546292656256
 0.9910342775448537 -0.0788358148581676 0.0072176559757119105 0.033355241666089816 -0.0017825924125239527 -0.009596557334388873 0.0020618303257877446 0.014884169683265426
 0.0020660294123590064 0.014883587641795037 -0.0017825924125239527 -0.009596557334388873 0.007216008166210309 0.03335688997669829 0.9910343527405215 -0.07883437855133615
 -0.0017828168138548132 -0.009596546292656256 0.0020618303257877446 0.014884169683265426 0.9910343527405215 -0.07883437855133615 0.007217439337386532 0.03335664662884335
0.11254689453939999 0.0077327815205674305 0.03547542260411772 0.9903498658365807 -0.08360147287698902 0.002283009375505535 0.015756132022514233 -0.001968269899227803 -0.010161033604911798
 0.9903498658365807 -0.08360147287698902 0.007735007767271815 0.03547506664741377 -0.0019680191456103503 -0.01016104750322596 0.0022783051335324143 0.015756801654398325
 0.002283009375505535 0.015756132022514233 -0.0019680191456103503 -0.01016104750322596 0.007733160799494816 0.03547682695191745 0.990349950392078 -0.08359994961277711
 -0.001968269899227803 -0.010161033604911798 0.0022783051335324143 0.015756801654398325 0.990349950392078 -0.08359994961277711 0.007734763534435128 0.03547655116595221
0.11879949979160001 0.008273812050758979 0.03761008295053724 0.9896344561355862 -0.08838015166030876 0.002511562339254533 0.016627239099001247 -0.0021636626047948663 -0.010724382122366594
 0.9896344561355862 -0.08838015166030876 0.008276291151088253 0.03760968084291275 -0.0021633841193209797 -0.010724399221408401 0.0025063246750251303 0.016628004854407442
 0.002511562339254533 0.016627239099001247 -0.0021633841193209797 -0.010724399221408401 0.008274233712780871 0.03761155523977919 0.9896345506992381 -0.08837854098645913
 -0.0021636626047948663 -0.010724382122366594 0.0025063246750251303 0.016628004854407442 0.9896345506992381 -0.08837854098645913 0.00827601751762305 0.03761124440208603
0.1250521050438 0.008839105165531635 0.03975914752499587 0.9888877093273319 -0.09317153663552451 0.0027517552921260627 0.017496711688838186 -0.002369064250912392 -0.011286399448134915
 0.9888877093273319 -0.09317153663552451 0.008841850548489712 0.039758695504111104 -0.002368756666443908 -0.011286420107306634 0.002745956027863731 0.017497582524246116
 0.0027517552921260627 0.017496711688838186 -0.002368756666443908 -0.011286420107306634 0.008839571330796906 0.03976068616369944 0.9888878145695862 -0.09316983807340856
 -0.002369064250912392 -0.011286399448134915 0.002745956027863731 0.017497582524246116 0.9888878145695862 -0.09316983807340856 0.00884154567827666 0.039760337563256705
0.131304710296 0.009429001027188777 0.041922223787133395 0.9881092900011775 -0.09797530189711434 0.0030036512872255684 0.0183643491370004 -0.002584540181641925 -0.011846890110970069
 0.9881092900011775 -0.09797530189711434 0.009432026091269936 0.041921717936325126 -0.002584202143404005 -0.01184691470491818 0.0029972623401605235 0.018365334434306196
 0.0030036512872255684 0.0183643491370004 -0.002584202143404005 -0.01184691470491818 0.009429513787934983 0.04192382709914968 0.9881094066152937 -0.09797351494516558
 -0.002584540181641925 -0.011846890110970069 0.0029972623401605235 0.018365334434306196 0.9881094066152937 -0.09797351494516558 0.009431688117107543 0.04192343792696783
0.1375573155481 0.009914704908140363 0.043819276543410536 0.987428060326911 -0.10251131344535624 0.0032370431653316874 0.019203234867817356 -0.0027798927614315497 -0.012378956862937614
 0.987428060326911 -0.10251131344535624 0.009918022763024741 0.043818724172432266 -0.0027795220742890354 -0.012378985451887705 0.003230042191515137 0.019204334289200247
 0.0032370431653316874 0.019203234867817356 -0.0027795220742890354 -0.012378985451887705 0.009915265537213854 0.043820943422344986 0.987428188853671 -0.102509437796195
 -0.0027798927614315497 -0.012378956862937614 0.003230042191515137 0.019204334289200247 0.987428188853671 -0.102509437796195 0.009917650902248479 0.04382052126099862
0.1438099208003 0.010417705259517768 0.0457052647998486 0.986722486511617 -0.10703469820582079 0.0034798089963675154 0.02003797615977793 -0.002982996809069435 -0.012907203566110205
 0.986722486511617 -0.10703469820582079 0.010421329186003626 0.04570466283938444 -0.00298259198528951 -0.012907236527565664 0.003472169090090463 0.020039198523362788
 0.0034798089963675154 0.02003797615977793 -0.00298259198528951 -0.012907236527565664 0.010418315661707468 0.045706993549995495 0.9867226276461261 -0.10703273336673758
 -0.002982996809069435 -0.012907203566110205 0.003472169090090463 0.020039198523362788 0.9867226276461261 -0.10703273336673758 0.010420921722250323 0.04570653637871918
0.1500625260525 0.010937808301857099 0.04757999799519017 0.9859927671401477 -0.11154530962790267 0.0037318532382716995 0.020868464422283847 -0.0031937592187521622 -0.013431528334647514
 0.9859927671401477 -0.11154530962790267 0.01094175154479136 0.04757934324507233 -0.0031933187725766915 -0.013431566061647793 0.0037235476502742487 0.020869818879932764
 0.0037318532382716995 0.020868464422283847 -0.0031933187725766915 -0.013431566061647793 0.010938470345702334 0.047581786857475196 0.985992921597197 -0.11154325508693637
 -0.0031937592187521622 -0.013431528334647514 0.0037235476502742487 0.020869818879932764 0.985992921597197 -0.11154325508693637 0.010941306744136054 0.0475812925644667
0.15631513130469998 0.011474818684544566 0.04944329123934737 0.9852391020226672 -0.11604300243155288 0.0039930790991301495 0.02169459317623971 -0.0034120856328385737 -0.013951831640010374
 0.9852391020226672 -0.11604300243155288 0.011479094451818342 0.04944258036910955 -0.003411608080502345 -0.013951874541155639 0.003984081239921748 0.021696089210209896
