! Created with skrf 1.8.0 (http://scikit-rf.org).
# GHz S RI R 50.0 
!freq ReS11 ImS11 ReS12 ImS12 ReS13 ImS13
! ReS14 ImS14
! ReS21 ImS21 ReS22 ImS22 ReS23 ImS23
! ReS24 ImS24
! ReS31 ImS31 ReS32 ImS32 ReS33 ImS33
! ReS34 ImS34
! ReS41 ImS41 ReS42 ImS42 ReS43 ImS43
! ReS44 ImS44
!
0.0 0.001602831430237 0.0 0.9983971685499 0.0 6.15849890106e-05 0.0 -6.158498856641e-05 7.541985912338036e-21
 0.9983971685499 0.0 0.001602831430232 0.0 -6.158498856639e-05 7.541985912335587e-21 6.158498901041e-05 0.0
 6.15849890106e-05 0.0 -6.158498856639e-05 7.541985912335587e-21 0.001602831440184 0.0 0.9983971685598 0.0
 -6.158498856641e-05 7.541985912338036e-21 6.158498901041e-05 0.0 0.9983971685598 0.0 0.001602831440175 0.0
0.005 0.001724617770197599 0.0013173937152951539 0.998243095269693 -0.0033569817621877385 8.537264685241814e-05 0.0006404599836974714 -8.316460412720767e-05 -0.00040862478008726227
 0.998243095269693 -0.0033569817621877385 0.0017246237985805671 0.001317390157107263 -8.316316465506517e-05 -0.00040862363363706637 8.53550045309939e-05 0.0006404669152148427
 8.537264685241814e-05 0.0006404599836974714 -8.316316465506517e-05 -0.00040862363363706637 0.001724619092176164 0.0013174601711225117 0.9982430956303314 -0.0033569146949017107
 -8.316460412720767e-05 -0.00040862478008726227 8.53550045309939e-05 0.0006404669152148427 0.9982430956303314 -0.0033569146949017107 0.0017246231906137034 0.0013174578296180754
0.006252605252188 0.0017566087815471631 0.001651888001064976 0.9982023648275536 -0.004197037228465881 9.217887964925269e-05 0.0008009007355590202 -8.926980514675356e-05 -0.0005112975746500379
 0.9982023648275536 -0.004197037228465881 0.0017566182047960483 0.0016518834278008378 -8.926756553463892e-05 -0.0005112961603380886 9.215131771409813e-05 0.0008009097018446555
 9.217887964925269e-05 0.0008009007355590202 -8.926756553463892e-05 -0.0005112961603380886 0.0017566107787862965 0.0016519710519648143 0.9982023653215975 -0.004196953404489481
 -8.926980514675356e-05 -0.0005112975746500379 9.215131771409813e-05 0.0008009097018446555 0.9982023653215975 -0.004196953404489481 0.0017566171843140738 0.0016519680109250803
0.01250521050438 0.0019253080819451151 0.0033380699808411842 0.9979861526576954 -0.008394785429234495 0.00013126583628900746 0.0016022610567882868 -0.0001239766071694685 -0.0010250057798191646
 0.9979861526576954 -0.008394785429234495 0.0019253457095412922 0.0033380595398446082 -0.00012396778497890374 -0.0010250031571373331 0.00013115600394276203 0.0016022822822378841
 0.00013126583628900746 0.0016022610567882868 -0.00012396778497890374 -0.0010250031571373331 0.0019253154977618829 0.0033382357266558953 0.9979861540673862 -0.00839461801950866
 -0.0001239766071694685 -0.0010250057798191646 0.00013115600394276203 0.0016022822822378841 0.9979861540673862 -0.00839461801950866 0.0019253410618249582 0.0033382284833704677
0.01875781575657 0.002109308387944231 0.005047993630926574 0.997748255492517 -0.012603441887790981 0.0001789392462080728 0.0024045665720341543 -0.00016581323023408734 -0.0015404303009169272
 0.997748255492517 -0.012603441887790981 0.002109392943432864 0.005047975884512349 -0.0001657935620222451 -0.0015404267159983187 0.00017869270293034332 0.0024046040628276856
 0.0001789392462080728 0.0024045665720341543 -0.0001657935620222451 -0.0015404267159983187 0.002109324640377322 0.005048241802771911 0.9977482582426171 -0.01260319096206388
 -0.00016581323023408734 -0.0015404303009169272 0.00017869270293034332 0.0024046040628276856 0.9977482582426171 -0.01260319096206388 0.0021093820614039834 0.005048229112860038
0.02501042100875 0.0023089769246150285 0.00677926672149701 0.9974883855067658 -0.016825032011344023 0.00023529342909503804 0.0032078322831596024 -0.00021488407652113693 -0.0020573412936043885
 0.9974883855067658 -0.016825032011344023 0.0023091270946787807 0.006779240091289238 -0.00021484935169736673 -0.002057337037136767 0.00023485582110259584 0.003207890723175278
 0.00023529342909503804 0.0032078322831596024 -0.00021484935169736673 -0.002057337037136767 0.002309005425008192 0.006779597018592742 0.9974883900203521 -0.016824697590873145
 -0.00021488407652113693 -0.0020573412936043885 0.00023485582110259584 0.003207890723175278 0.9974883900203521 -0.016824697590873145 0.0023091073608466507 0.006779577554678582
0.03126302626094 0.0025246657869694576 0.008530651574824128 0.9972062405695608 -0.021060414826942576 0.00030042288867605186 0.004012003816305532 -0.00027129061760657925 -0.002575572160327732
 0.9972062405695608 -0.021060414826942576 0.002524900228992736 0.008530614341073568 -0.00027123666961100884 -0.0025755675680602217 0.0002997398921721134 0.004012088567878362
 0.00030042288867605186 0.004012003816305532 -0.00027123666961100884 -0.0025755675680602217 0.0025247099461030904 0.00853106365179871 0.997206247273342 -0.021059996896757038
 -0.00027129061760657925 -0.002575572160327732 0.0002997398921721134 0.004012088567878362 0.997206247273342 -0.021059996896757038 0.002524869018458938 0.008531036003145226
0.037515631513130004 0.0027567193837397183 0.010301336198050274 0.9969015119439225 -0.025310011784654803 0.0003744214637655806 0.0048169991066344545 -0.0003351320538724277 -0.0030949778729968324
 0.9969015119439225 -0.025310011784654803 0.0027570567291667412 0.010301286498544237 -0.0003350547555070934 -0.0030949733258419884 0.0003734387590915882 0.004817116215187014
 0.0003744214637655806 0.0048169991066344545 -0.0003350547555070934 -0.0030949733258419884 0.0027567826096768604 0.010301829647068779 0.9969015212674555 -0.02530951031085205
 -0.0003351320538724277 -0.0030949778729968324 0.0003734387590915882 0.004817116215187014 0.9969015212674555 -0.02530951031085205 0.002757011407482751 0.010301792319184022
0.043768236765320004 0.0030054773088024453 0.012090712453013857 0.9965738874166953 -0.029574028513627088 0.00045738191938025116 0.005622721066430678 -0.0004065055421863359 -0.003615422312027935
 0.9965738874166953 -0.029574028513627088 0.0030059361661349897 0.0120906482819731 -0.00040640080302218663 -0.0036154182360682912 0.00045604517852006345 0.005622877266299803
 0.00045738191938025116 0.005622721066430678 -0.00040640080302218663 -0.0036154182360682912 0.003005563007452982 0.012091286817040992 0.996573899793914 -0.029573443429406893
 -0.0004065055421863359 -0.003615422312027935 0.00045604517852006345 0.005622877266299803 0.996573899793914 -0.029573443429406893 0.0030058740885462467 0.012091238231407902
0.050020842017509996 0.0032712756702833945 0.013898284407026743 0.9962230528895183 -0.03385254639542278 0.0005493956936182395 0.006429062826469421 -0.0004855062698226007 -0.00413677303440697
 0.9962230528895183 -0.03385254639542278 0.0032718746261190495 0.01389820361397557 -0.0004853700343533097 -0.004136769900868903 0.0005476505744952875 0.0064292655472229145
 0.0005493956936182395 0.006429062826469421 -0.0004853700343533097 -0.004136769900868903 0.0032713872426373323 0.013898939153369089 0.9962230687574856 -0.03385187762697235
 -0.0004855062698226007 -0.00413677303440697 0.0005476505744952875 0.0064292655472229145 0.9962230687574856 -0.03385187762697235 0.0032717931356228427 0.013898877647084154
0.055454545454549996 0.0035163603404153006 0.01548356216409194 0.9958990730319858 -0.037582487895679174 0.0006367807355075911 0.007130213157339198 -0.0005604269980074014 -0.004590476626986254
 0.9958990730319858 -0.037582487895679174 0.0035170961247904596 0.015483465066307692 -0.0005602601240504598 -0.0045904747301601795 0.0006346365786866982 0.007130462884774687
 0.0006367807355075911 0.007130213157339198 -0.0005602601240504598 -0.0045904747301601795 0.0035164971579636473 0.01548428629138692 0.9958990922936454 -0.03758174631955011
 -0.0005604269980074014 -0.004590476626986254 0.0006346365786866982 0.007130462884774687 0.9958990922936454 -0.03758174631955011 0.003516995597882691 0.015484212140456158
0.056273447269699996 0.0035544477674898703 0.015723623311993385 0.9958486933218372 -0.0381455675107138 0.0006505527133208079 0.007235910310060359 -0.0005722274589704584 -0.004658898712579928
 0.9958486933218372 -0.0381455675107138 0.0035552053880029905 0.015723523600563356 -0.0005720557055510001 -0.004658897037784814 0.0006483448581243337 0.0072361676830758484
 0.0006505527133208079 0.007235910310060359 -0.0005720557055510001 -0.004658897037784814 0.0035545886118919052 0.01572435785457144 0.9958487131240995 -0.03814481495427749
 -0.0005722274589704584 -0.004658898712579928 0.0006483448581243337 0.0072361676830758484 0.9958487131240995 -0.03814481495427749 0.003555101816807551 0.01572428168007941
0.06252605252188 0.0038553244503693224 0.01756634288936339 0.995450493361137 -0.042453039283579075 0.0007609412443458137 0.00804314364716367 -0.0006667603354149533 -0.005181667737553126
 0.995450493361137 -0.042453039283579075 0.0038562592819507157 0.017566221816051577 -0.0006665490754214649 -0.005181668082856781 0.0007582162809996844 0.008043464512256585
 0.0007609412443458137 0.00804314364716367 -0.0006665490754214649 -0.005181668082856781 0.0038554979597676562 0.017567156574208004 0.9954505175466962 -0.04245220281933566
 -0.0006667603354149533 -0.005181667737553126 0.0007582162809996844 0.008043464512256585 0.9954505175466962 -0.04245220281933566 0.00385613094937624 0.017567063898929685
0.06877865777407 0.004174234300693467 0.01942608457474746 0.9950281377987994 -0.046774869170494456 0.0008806477604311813 0.008850638026938983 -0.0007691940774614145 -0.005704947388163353
 0.9950281377987994 -0.046774869170494456 0.004175364870693415 0.019425939547633077 -0.0007689393547482995 -0.005704950359890454 0.0008773513057846459 0.008851031939054683
 0.0008806477604311813 0.008850638026938983 -0.0007689393547482995 -0.005704950359890454 0.004174443862068329 0.019426976680065714 0.9950281668231657 -0.04677394866195309
 -0.0007691940774614145 -0.005704947388163353 0.0008773513057846459 0.008851031939054683 0.9950281668231657 -0.04677394866195309 0.004175209082891045 0.0194268655860249
0.07503126302626001 0.004511503712021191 0.021302508167368294 0.9945813119295174 -0.05111093394977047 0.0010097568237823198 0.009658264240265193 -0.0008796157516084359 -0.006228603315407907
 0.9945813119295174 -0.05111093394977047 0.004512848529171304 0.02130233644484607 -0.0008793136421741039 -0.006228609564786372 0.0010058344882453586 0.00965874147611866
 0.0010097568237823198 0.009658264240265193 -0.0008793136421741039 -0.006228609564786372 0.004511752705520349 0.021303477909125002 0.9945813462553617 -0.0511099292375108
 -0.0008796157516084359 -0.006228603315407907 0.0010058344882453586 0.00965874147611866 0.9945813462553617 -0.0511099292375108 0.004512662578400364 0.021303346392607704
0.08128386827845 0.004867456903091782 0.02319528561309468 0.9941097018475942 -0.05546108588281566 0.0011483509721709137 0.010465889050668482 -0.000998110240350996 -0.0067524992035521226
 0.9941097018475942 -0.05546108588281566 0.004869034457652107 0.0231950843025331 -0.0009977568520721841 -0.006752509426635938 0.001143748365460578 0.010466460615366917
 0.0011483509721709137 0.010465889050668482 -0.0009977568520721841 -0.006752509426635938 0.004867748701379349 0.023196332138054686 0.9941097419459244 -0.05545999679106208
 -0.000998110240350996 -0.0067524992035521226 0.001143748365460578 0.010466460615366917 0.9941097419459244 -0.05545999679106208 0.004868815622370055 0.02319617810914006
0.08753647353064001 0.005242415888486162 0.025104096713137864 0.9936129947054794 -0.05982515695612309 0.001296510610546374 0.011273375453293464 -0.001124760164002097 -0.007276496548690839
 0.9936129947054794 -0.05982515695612309 0.0052442446529127025 0.025103862769474142 -0.001124351636555102 -0.00727651148627992 0.0012911733485222114 0.011274053086805694
 0.001296510610546374 0.011273375453293464 -0.001124351636555102 -0.00727651148627992 0.005242753855059063 0.025105219099395795 0.9936130410556365 -0.05982398329164824
 -0.001124760164002097 -0.007276496548690839 0.0012911733485222114 0.011274053086805694 0.9936130410556365 -0.05982398329164824 0.005243990196187095 0.025105040381491247
0.09378907878283 0.0056367004189063815 0.02702862604064949 0.9930908789450575 -0.06420296192140554 0.0014543139057543706 0.012080582871953311 -0.0012596457985395134 -0.00780045450473025
 0.9930908789450575 -0.06420296192140554 0.005638798847704639 0.0270283562650986 -0.0012591783033339143 -0.007800474942289853 0.0014481876176963217 0.012081379055613687
 0.0014543139057543706 0.012080582871953311 -0.0012591783033339143 -0.007800474942289853 0.005637087907655996 0.027029823301740627 0.9930909320361593 -0.06420170346900975
 -0.0012596457985395134 -0.00780045450473025 0.0014481876176963217 0.012081379055613687 0.9930909320361593 -0.06420170346900975 0.0056385060174498425 0.02702961763115626
0.100041684035 0.0060506278997476725 0.028968560706976707 0.9925430445112552 -0.06859430049302423 0.0016218366831986467 0.01288736730880961 -0.0014028449901636764 -0.00832422978266418
 0.9925430445112552 -0.06859430049302423 0.006053014429565958 0.028968251745457297 -0.001402314730325566 -0.008324256550233356 0.001614867019942608 0.01288829527155384
 0.0016218366831986467 0.01288736730880961 -0.001402314730325566 -0.008324256550233356 0.006051068253364577 0.028969831782209212 0.9925431048423935 -0.06859295702476124
 -0.0014028449901636764 -0.00832422978266418 0.001614867019942608 0.01288829527155384 0.9925431048423935 -0.06859295702476124 0.006052680457853948 0.028969596807553604
0.1059090909091 0.006457200585233796 0.030802716645568974 0.9920052944516811 -0.07272722449882384 0.0017879442042271778 0.01364393306945172 -0.0015448504682052052 -0.008815441338668037
 0.9920052944516811 -0.07272722449882384 0.006459874219597541 0.030802367722123043 -0.0015442578855614333 -0.008815474840811233 0.0017801337196857669 0.013644997395912057
 0.0017879442042271778 0.01364393306945172 -0.0015442578855614333 -0.008815474840811233 0.0064576935762638635 0.030804055964353618 0.9920053620407159 -0.07272580102565934
 -0.0015448504682052052 -0.008815441338668037 0.0017801337196857669 0.013644997395912057 0.9920053620407159 -0.07272580102565934 0.006459499108794009 0.030803791273778445
0.1062942892872 0.006484513293933238 0.030923588661839755 0.9919691830536234 -0.07299895901824005 0.0017991523247178941 0.013693581468643513 -0.0015544330678107056 -0.00884767658101715
 0.9919691830536234 -0.07299895901824005 0.006487206343987633 0.030923237003587175 -0.0015538362783141 -0.008847710553110818 0.0017912849673604938 0.01369465519325951
 0.0017991523247178941 0.013693581468643513 -0.0015538362783141 -0.008847710553110818 0.006485009842924762 0.030924932425737447 0.991969251134954 -0.07299753028368733
 -0.0015544330678107056 -0.00884767658101715 0.0017912849673604938 0.01369465519325951 0.991969251134954 -0.07299753028368733 0.006486828446104907 0.030924665707377806
0.11254689453939999 0.0069386690121827806 0.03289339741955398 0.9913689881184983 -0.07741671172870955 0.0019863316678609727 0.014499074859886208 -0.0017144827538033598 -0.00937064654563718
 0.9913689881184983 -0.07741671172870955 0.0069416869836597455 0.0328929993956027 -0.0017138157015378214 -0.009370688641150671 0.001977512336650605 0.01450030908902977
 0.0019863316678609727 0.014499074859886208 -0.0017138157015378214 -0.009370688641150671 0.00693922507389197 0.03289481267401977 0.9913690644720138 -0.07741519746241587
 -0.0017144827538033598 -0.00937064654563718 0.001977512336650605 0.01450030908902977 0.9913690644720138 -0.07741519746241587 0.006941262358089845 0.03289451168352397
0.11879949979160001 0.007413404794073044 0.03487767304727011 0.9907421553359149 -0.08184732173740114 0.0021834429055782125 0.015303693884223202 -0.0018830640730947972 -0.009892988747105626
 0.9907421553359149 -0.08184732173740114 0.0074167660705574635 0.03487722482890604 -0.0018823230570232823 -0.009893039929205007 0.0021736173696609417 0.015305104126375547
 0.0021834429055782125 0.015303693884223202 -0.0018823230570232823 -0.009893039929205007 0.007414023670837392 0.03487915852529943 0.9907422404954919 -0.08184572165494156
 -0.0018830640730947972 -0.009892988747105626 0.0021736173696609417 0.015305104126375547 0.9907422404954919 -0.08184572165494156 0.0074162918978324804 0.034878820644675596
0.1250521050438 0.00790902758051937 0.036876099385762064 0.9900883825996312 -0.08629054181039376 0.0023905514868683727 0.016107281919063483 -0.0020602442615696008 -0.010414549671512474
 0.9900883825996312 -0.08629054181039376 0.00791275052790112 0.03687559698286472 -0.002059425612956849 -0.010414610947513541 0.0023796655742309193 0.01610888445420282
 0.0023905514868683727 0.016107281919063483 -0.002059425612956849 -0.010414610947513541 0.007909712559273606 0.036877653750572184 0.9900884771130737 -0.08628885560905396
 -0.0020602442615696008 -0.010414549671512474 0.0023796655742309193 0.01610888445420282 0.9900884771130737 -0.08628885560905396 0.007912223970705673 0.03687727627165762
0.131304710296 0.00842584138190228 0.038888357424156375 0.98940737024735 -0.09074611499277069 0.0026077200178968645 0.016909679391457752 -0.0022460876737598555 -0.010935173226124306
 0.98940737024735 -0.09074611499277069 0.008429944347939037 0.038887796683665925 -0.002245187756270032 -0.010935245647389059 0.002595719625482194 0.016911491276761358
 0.0026077200178968645 0.016909679391457752 -0.002245187756270032 -0.010935245647389059 0.00842659573212256 0.038889979266141246 0.9894074746758221 -0.0907443423543531
 -0.0022460876737598555 -0.010935173226124306 0.002595719625482194 0.016911491276761358 0.9894074746758221 -0.0907443423543531 0.008429362549979743 0.03888955938981428
0.1375573155481 0.008847443723377575 0.04065372480886766 0.9888155740825306 -0.09495325057698248 0.0028079814958257665 0.01768539835989819 -0.002413643075426869 -0.011429381670467292
 0.9888155740825306 -0.09495325057698248 0.008851945173128841 0.04065311371390527 -0.0024126563686108177 -0.011429465358460945 0.002794831599693364 0.017687417805315662
 0.0028079814958257665 0.01768539835989819 -0.0024126563686108177 -0.011429465358460945 0.008848269995464337 0.040655413089882284 0.9888156888868798 -0.09495139132020665
 -0.002413643075426869 -0.011429381670467292 0.002794831599693364 0.017687417805315662 0.9888156888868798 -0.09495139132020665 0.008851306174240497 0.04065495962627119
0.1438099208003 0.009283963141998117 0.04240952622638305 0.988202830620273 -0.09914941250425806 0.003016309589796127 0.018457720837167485 -0.002587874670330991 -0.011920457752681553
 0.988202830620273 -0.09914941250425806 0.009288881387972635 0.04240886151209019 -0.0025867972455741154 -0.011920553748858006 0.003001959637240493 0.01845996364378483
 0.003016309589796127 0.018457720837167485 -0.0025867972455741154 -0.011920553748858006 0.009284864452115484 0.04241127951502141 0.9882029563610258 -0.09914746631825032
 -0.002587874670330991 -0.011920457752681553 0.003001959637240493 0.01845996364378483 0.9882029563610258 -0.09914746631825032 0.009288182466599995 0.04241079053832981
0.1500625260525 0.009735241896452047 0.04415560591808831 0.9875693018912547 -0.10333448686303996 0.0032326290235873034 0.01922656040404202 -0.002768709113586764 -0.012408319834789792
 0.9875693018912547 -0.10333448686303996 0.009740595230449484 0.04415488417497662 -0.002767537050915285 -0.01240842922260272 0.0032170287478571705 0.01922904296141518
 0.0032326290235873034 0.01922656040404202 -0.002767537050915285 -0.01240842922260272 0.009736221336279315 0.044157422726810044 0.9875694391409333 -0.1033324534252774
 -0.002768709113586764 -0.012408319834789792 0.0032170287478571705 0.01922904296141518 0.9875694391409333 -0.1033324534252774 0.009739833657083898 0.044156896219937035
0.15631513130469998 0.010201121082026544 0.04589181278472299 0.9869151507971571 -0.10750836034525672 0.003456863600588833 0.019991832188036063 -0.002956072131693323 -0.012892888050517979
