! Created with skrf 1.8.0 (http://scikit-rf.org).
# GHz S RI R 50.0 
!freq ReS11 ImS11 ReS12 ImS12 ReS13 ImS13
! ReS14 ImS14
! ReS21 ImS21 ReS22 ImS22 ReS23 ImS23
! ReS24 ImS24
! ReS31 ImS31 ReS32 ImS32 ReS33 ImS33
! ReS34 ImS34
! ReS41 ImS41 ReS42 ImS42 ReS43 ImS43
! ReS44 ImS44
!
0.0 0.001723858273329 0.0 0.9982761417238 0.0 6.662239604383e-05 0.0 -6.662239586544e-05 8.158890384813894e-21
 0.9982761417238 0.0 0.001723858273345 0.0 -6.662239586562e-05 8.158890384835939e-21 6.662239604242e-05 0.0
 6.662239604383e-05 0.0 -6.662239586562e-05 8.158890384835939e-21 0.001723858273345 0.0 0.9982761417238 0.0
 -6.662239586544e-05 8.158890384813894e-21 6.662239604242e-05 0.0 0.9982761417238 0.0 0.001723858273346 0.0
0.005 0.0018552622384129724 0.0014129151557390105 0.9981098082546552 -0.0036102453696247234 9.321703941822334e-05 0.0007147629622558865 -9.056225258264842e-05 -0.0004519172125431717
 0.9981098082546552 -0.0036102453696247234 0.0018552855600211427 0.0014129014569881097 -9.056363606970856e-05 -0.0004519181804895395 9.306857364129325e-05 0.0007148194956151186
 9.321703941822334e-05 0.0007147629622558865 -9.056363606970856e-05 -0.0004519181804895395 0.0018552623825835307 0.0014129822930151203 0.9981098086314563 -0.003610178298334453
 -9.056225258264842e-05 -0.0004519172125431717 9.306857364129325e-05 0.0007148194956151186 0.9981098086314563 -0.003610178298334453 0.001855286160456438 0.001412968453867801
0.006252605252188 0.0018898944507843448 0.001771663222163804 0.9980656667020009 -0.0045136605504097526 0.00010091361385522877 0.0008937974303479095 -9.73927704563998e-05 -0.0005654661429796751
 0.9980656667020009 -0.0045136605504097526 0.0018899309073795033 0.0017716458252523177 -9.7394924000263e-05 -0.0005654673340583512 0.00010068165138527645 0.0008938708835750542
 0.00010091361385522877 0.0008937974303479095 -9.7394924000263e-05 -0.0005654673340583512 0.0018898945930091685 0.0017717471156060555 0.9980656672074805 -0.004513576727414548
 -9.73927704563998e-05 -0.0005654661429796751 0.00010068165138527645 0.0008938708835750542 0.9980656672074805 -0.004513576727414548 0.0018899317618627605 0.0017717295590912842
0.01250521050438 0.0020731892264532503 0.003580063397806071 0.9978303752369847 -0.009027906218590634 0.00014557176414749048 0.0017879265651347064 -0.0001365311113279046 -0.0011335432999017515
 0.9978303752369847 -0.009027906218590634 0.0020733348096470894 0.003580025835997377 -0.00013653960712565823 -0.0011335454721863574 0.0001446467728901488 0.0017881037528134028
 0.00014557176414749048 0.0017879265651347064 -0.00013653960712565823 -0.0011335454721863574 0.0020731892618790176 0.003580230802436489 0.9978303767175328 -0.009027738806876446
 -0.0001365311113279046 -0.0011335432999017515 0.0001446467728901488 0.0017881037528134028 0.9978303767175328 -0.009027738806876446 0.0020733376702434326 0.0035801930812246084
0.01875781575657 0.0022741786967050144 0.005413817780161111 0.9975699494755069 -0.013553678289817133 0.00020070511482198075 0.0026829336944696274 -0.00018416444798573668 -0.0017034142667837044
 0.9975699494755069 -0.013553678289817133 0.002274505851716661 0.005413757055496252 -0.00018418340585917896 -0.0017034171618398911 0.00019862728159163862 0.0026832513302681585
 0.00020070511482198075 0.0026829336944696274 -0.00018418340585917896 -0.0017034171618398911 0.0022741783636585438 0.005414068419768097 0.9975699523811884 -0.013553427348763109
 -0.00018416444798573668 -0.0017034142667837044 0.00019862728159163862 0.0026832513302681585 0.9975699523811884 -0.013553427348763109 0.0022745118297573925 0.005414007696910892
0.02501042100875 0.0024932838563307084 0.00727032241103326 0.9972840580422151 -0.018093124598374054 0.0002664235650010651 0.0035788193128450216 -0.0002404150606796562 -0.0022747999118316437
 0.9972840580422151 -0.018093124598374054 0.002493864898491283 0.007270235321252718 -0.0002404485546249349 -0.0022748032188337273 0.00026273296999063486 0.0035793203495095437
 0.0002664235650010651 0.0035788193128450216 -0.0002404485546249349 -0.0022748032188337273 0.002493282904275692 0.00727065599886189 0.9972840628315409 -0.018092790128134785
 -0.0002404150606796562 -0.0022747999118316437 0.00026273296999063486 0.0035793203495095437 0.9972840628315409 -0.018092790128134785 0.0024938750930951614 0.007270569235778451
0.03126302626094 0.0027309082455782407 0.009148214588490518 0.9969723540286771 -0.022647137051068578 0.0003428370949069357 0.004475503132620796 -0.00030540132321194534 -0.0028474940888944473
 0.9969723540286771 -0.022647137051068578 0.0027318154023275453 0.009148097731772335 -0.0003054533889029396 -0.0028474974440618993 0.00033707330511208367 0.004476236799818694
 0.0003428370949069357 0.004475503132620796 -0.0003054533889029396 -0.0028474974440618993 0.0027309064307252584 0.00914863079954338 0.9969723611669478 -0.022646719019604786
 -0.00030540132321194534 -0.0028474940888944473 0.00033707330511208367 0.004476236799818694 0.9969723611669478 -0.022646719019604786 0.002731830898227647 0.009148514761425003
0.037515631513130004 0.002987446238514891 0.011046588616289012 0.9966344836193016 -0.027216135818463903 0.00043005461466045537 0.00537287240451352 -0.00037923850285533924 -0.0034213153323632934
 0.9966344836193016 -0.027216135818463903 0.002988751677975643 0.011046438393481118 -0.00037931314138656336 -0.0034213183187781692 0.0004217565125293112 0.005373894270557773
 0.00043005461466045537 0.00537287240451352 -0.00037931314138656336 -0.0034213183187781692 0.0029874433169148583 0.011047087085282323 0.996634493574197 -0.027215634163415433
 -0.00037923850285533924 -0.0034213153323632934 0.0004217565125293112 0.005373894270557773 0.996634493574197 -0.027215634163415433 0.0029887735396094428 0.011046938343398299
0.043768236765320004 0.0032632862190825904 0.01296475715985653 0.9962700896111429 -0.03180030790824292 0.0005281834071629059 0.006270796624330838 -0.00046203903038771445 -0.003996092173629802
 0.9962700896111429 -0.03180030790824292 0.0032650620733523056 0.012964569775473498 -0.00046214021021553654 -0.003996094321118132 0.0005168891206758068 0.006272168665299634
 0.0005281834071629059 0.006270796624330838 -0.00046214021021553654 -0.003996094321118132 0.0032632819465566515 0.01296533747345818 0.996270102855648 -0.03179972254426658
 -0.00046203903038771445 -0.003996092173629802 0.0005168891206758068 0.006272168665299634 0.996270102855648 -0.03179972254426658 0.0032650913469956817 0.012965152406317394
0.050020842017509996 0.0035588120506013627 0.014902152603637276 0.9958788132322304 -0.036399705735955835 0.0006373287842872819 0.007169133603545711 -0.0005539125781051974 -0.004571657099698365
 0.9958788132322304 -0.036399705735955835 0.0035611304367956717 0.014901924065946254 -0.0005540442363358662 -0.004571657884756038 0.000622575670295689 0.007170924275176018
 0.0006373287842872819 0.007169133603545711 -0.0005540442363358662 -0.004571657884756038 0.0035588061823612744 0.014902814317658239 0.995878830246273 -0.036399036537314064
 -0.0005539125781051974 -0.004571657099698365 0.000622575670295689 0.007170924275176018 0.995878830246273 -0.036399036537314064 0.003561168150461403 0.014902589111256602
0.055454545454549996 0.0038319155441988682 0.016601035860462163 0.9955166714114106 -0.040409062299139493 0.000741206360566521 0.007950033881522552 -0.0006412049780460346 -0.005072351157754203
 0.9955166714114106 -0.040409062299139493 0.0038347639775269536 0.016600768164753303 -0.0006413662964748971 -0.005072350292215766 0.0007230711112696846 0.007952249037585684
 0.000741206360566521 0.007950033881522552 -0.0006413662964748971 -0.005072350292215766 0.003831908087797483 0.01660176790429386 0.995516692096407 -0.040408320136917954
 -0.0006412049780460346 -0.005072351157754203 0.0007230711112696846 0.007952249037585684 0.995516692096407 -0.040408320136917954 0.003834809845537323 0.01660150456834137
0.056273447269699996 0.0038744038060849963 0.016858278675916296 0.995460295225695 -0.0410142954318399 0.0007575938337886493 0.00806773247174551 -0.000654966054744001 -0.005147843586283157
 0.995460295225695 -0.0410142954318399 0.003877336845222148 0.01685800479643411 -0.0006551320977704156 -0.005147842432027647 0.0007389184948507714 0.008070016782323587
 0.0007575938337886493 0.00806773247174551 -0.0006551320977704156 -0.005147842432027647 0.0038743960937513084 0.016859021284976534 0.9954603164959188 -0.041013542262516196
 -0.000654966054744001 -0.005147843586283157 0.0007389184948507714 0.008070016782323587 0.9954603164959188 -0.041013542262516196 0.00387738400720703 0.01685875193230083
0.06252605252188 0.004210438146281591 0.01883268380959145 0.9950141765881981 -0.04564398341725817 0.0008890792157278254 0.008966435324799094 -0.0007653035548023136 -0.0057244844920268595
 0.9950141765881981 -0.04564398341725817 0.004214057982377252 0.018832360201711064 -0.0007655078586977255 -0.0057244807681609295 0.0008660175379792377 0.008969294908216907
 0.0008890792157278254 0.008966435324799094 -0.0007655078586977255 -0.0057244807681609295 0.004210428337549084 0.01883350677141046 0.9950142026101317 -0.04564314610657173
 -0.0007653035548023136 -0.0057244844920268595 0.0008660175379792377 0.008969294908216907 0.9950142026101317 -0.04564314610657173 0.004214115581520121 0.018833189071159193
0.06877865777407 0.004567288498209286 0.020824945305947275 0.9945400991128857 -0.05028863218497279 0.0010318829830885648 0.009865078224170425 -0.0008850262842974722 -0.006301411108868936
 0.9945400991128857 -0.05028863218497279 0.004571667315675843 0.020824567383057886 -0.0008852726948971214 -0.0063014041316485385 0.0010039701900366018 0.009868601412595306
 0.0010318829830885648 0.009865078224170425 -0.0008852726948971214 -0.0063014041316485385 0.004567276334691339 0.02082584802695962 0.9945401303912241 -0.050287710541836186
 -0.0008850262842974722 -0.006301411108868936 0.0010039701900366018 0.009868601412595306 0.9945401303912241 -0.050287710541836186 0.0045717363206825385 0.020825477581688304
0.07503126302626001 0.004945325116918662 0.022834659276637775 0.9940377058218542 -0.05494807030925919 0.0011861004180702612 0.010763491844707034 -0.0010142324711266391 -0.0068784525715216175
 0.9940377058218542 -0.05494807030925919 0.0049505351587006054 0.022834222249548626 -0.0010145248040486202 -0.006878441603746733 0.0011528711360781802 0.010767773740528185
 0.0011861004180702612 0.010763491844707034 -0.0010145248040486202 -0.006878441603746733 0.00494531033268102 0.022835641113465102 0.9940377428714798 -0.05494706412069394
 -0.0010142324711266391 -0.0068784525715216175 0.0011528711360781802 0.010767773740528185 0.9940377428714798 -0.05494706412069394 0.004950616517059438 0.02283521332696517
0.08128386827845 0.00534491507377993 0.024861433960282956 0.9935066413289426 -0.05962209908966949 0.0013518238796958414 0.011661501908294904 -0.001153017263891066 -0.007455435488963067
 0.9935066413289426 -0.05962209908966949 0.005351028659027097 0.02486093283386154 -0.0011533593043326308 -0.007455419739976718 0.001312812212695951 0.01166664445511232
 0.0013518238796958414 0.011661501908294904 -0.0011533593043326308 -0.007455419739976718 0.005344897393492036 0.024862494225831953 0.9935066846758527 -0.05962100811479571
 -0.001153017263891066 -0.007455435488963067 0.001312812212695951 0.01166664445511232 0.9935066846758527 -0.05962100811479571 0.005351123296547163 0.024862004299776065
0.08753647353064001 0.005766422196031076 0.02690488511883178 0.9929465521588764 -0.06431049712408338 0.0015291426551912088 0.012558929511290843 -0.0013014726264504342 -0.00803218369028158
 0.9929465521588764 -0.06431049712408338 0.00577351173752403 0.02690431468810634 -0.0013018681289509802 -0.008032162315985171 0.001483882266955593 0.012565041563728358
 0.0015291426551912088 0.012558929511290843 -0.0013018681289509802 -0.008032162315985171 0.005766401333847025 0.02690602307506319 0.9929466023416945 -0.06430932110147902
 -0.0013014726264504342 -0.00803218369028158 0.001483882266955593 0.012565041563728358 0.9929466023416945 -0.06430932110147902 0.005773620557979543 0.02690546600505361
0.09378907878283 0.006210206972483522 0.02896463273945241 0.9923570870375016 -0.06901302358581231 0.0017181428184219498 0.013455591359467778 -0.0014596872249806418 -0.008608518071315715
 0.9923570870375016 -0.06901302358581231 0.006218344994356336 0.028963987584872446 -0.0014601399131152896 -0.008608490174189201 0.0016661670212780137 0.01346278875172253
 0.0017181428184219498 0.013455591359467778 -0.0014601399131152896 -0.008608490174189201 0.006210182630100906 0.02896584760165391 0.9923571446079169 -0.06901176222936288
 -0.0014596872249806418 -0.008608518071315715 0.0016661670212780137 0.01346278875172253 0.9923571446079169 -0.06901176222936288 0.00621846887827424 0.028965218172435445
0.100041684035 0.006676626434096663 0.03104029863287201 0.9917378971599412 -0.07372942061385095 0.001918907089505491 0.014351299964370791 -0.0016277463136278936 -0.009184256488392602
 0.9917378971599412 -0.07372942061385095 0.006685885589471668 0.031039573114919162 -0.001628259879572836 -0.009184221117543584 0.0018597489385773624 0.014359705577226383
 0.001918907089505491 0.014351299964370791 -0.001628259879572836 -0.009184221117543584 0.006676598299075228 0.03104158957087715 0.9917379626840069 -0.07372807361190768
 -0.0016277463136278936 -0.009184256488392602 0.0018597489385773624 0.014359705577226383 0.9917379626840069 -0.07372807361190768 0.00668602539376924 0.031040882350744942
0.1059090909091 0.007135212513470191 0.033002231560325765 0.9911295104729396 -0.07816763103279421 0.0021180730141831246 0.015190789967661518 -0.001794478245512075 -0.009723818934572102
 0.9911295104729396 -0.07816763103279421 0.007145589941187919 0.033001425299372576 -0.0017950522684951008 -0.009723775638098089 0.0020517501627145053 0.015200447460753871
 0.0021180730141831246 0.015190789967661518 -0.0017950522684951008 -0.009723775638098089 0.00713518052135069 0.0330035930855965 0.9911295839890677 -0.07816620336197334
 -0.001794478245512075 -0.009723818934572102 0.0020517501627145053 0.015200447460753871 0.9911295839890677 -0.07816620336197334 0.007145745442502682 0.033002807728608016
0.1062942892872 0.007166034017030412 0.03313150463876882 0.9910886364456147 -0.07845941510628486 0.0021315146978715415 0.015245863800633945 -0.0018057316164588192 -0.009759213699823743
 0.9910886364456147 -0.07845941510628486 0.0071764871056552906 0.03313069289169949 -0.0018063097206045728 -0.009759169851033159 0.002064707090197314 0.015255607626972086
 0.0021315146978715415 0.015245863800633945 -0.0018063097206045728 -0.009759169851033159 0.007166001761323938 0.033132870770743346 0.9910887105045988 -0.07845798212810862
 -0.0018057316164588192 -0.009759213699823743 0.002064707090197314 0.015255607626972086 0.9910887105045988 -0.07845798212810862 0.0071766436625025996 0.03313208010534869
0.11254689453939999 0.00767877941206167 0.03523787125133612 0.9904089617834778 -0.08320272010399979 0.0023560412467146076 0.016139087445518396 -0.0019937212082874064 -0.010333201333977266
 0.9904089617834778 -0.08320272010399979 0.007690499397886192 0.035236967176306824 -0.001994367478704323 -0.010333147949764275 0.002281117024827444 0.016150306654098587
 0.0023560412467146076 0.016139087445518396 -0.001994367478704323 -0.010333147949764275 0.007678742689956423 0.03523931165012795 0.9904090449750873 -0.08320120079400223
 -0.0019937212082874064 -0.010333201333977266 0.002281117024827444 0.016150306654098587 0.9904090449750873 -0.08320120079400223 0.007690673514433545 0.03523843165527515
0.11879949979160001 0.008215208402487325 0.03735901656424723 0.9896985332685458 -0.0879590358656911 0.0025925585789564032 0.017030771702465943 -0.0021917893941211645 -0.010906027882325054
 0.9896985332685458 -0.0879590358656911 0.008228268431899197 0.037358013821470276 -0.00219250742610248 -0.010905963852059245 0.002509050638399507 0.017043610699890594
 0.0025925585789564032 0.017030771702465943 -0.00219250742610248 -0.010905963852059245 0.008215166849596521 0.037360530254588575 0.9896986262080097 -0.0879574298465844
 -0.0021917893941211645 -0.010906027882325054 0.002509050638399507 0.017043610699890594 0.9896986262080097 -0.0879574298465844 0.008228460889049135 0.03735955480838821
0.1250521050438 0.008775662695078837 0.039494555448020156 0.9889570144345659 -0.09272805072142548 0.0028411346450921294 0.017920713715326282 -0.0024000065875019404 -0.011477498710968051
 0.9889570144345659 -0.09272805072142548 0.008790136114130463 0.03949344744829137 -0.002400799942957586 -0.011477422870948814 0.0027485760458136202 0.01793532420614965
 0.0028411346450921294 0.017920713715326282 -0.002400799942957586 -0.011477422870948814 0.008775615925671991 0.039496141406915354 0.988957117755218 -0.09272635759446098
 -0.0024000065875019404 -0.011477498710968051 0.0027485760458136202 0.01793532420614965 0.988957117755218 -0.09272635759446098 0.00879034766579024 0.03949506414099159
0.131304710296 0.009360479742476117 0.041644098892925745 0.9881840724807276 -0.09750944177186809 0.0031018333715675532 0.018808707076249764 -0.002618439189090734 -0.012047416087611267
 0.9881840724807276 -0.09750944177186809 0.009376440115367545 0.04164287878811393 -0.002619311395979626 -0.01204732722118263 0.002999757452810276 0.01882524812103489
 0.0031018333715675532 0.018808707076249764 -0.002619311395979626 -0.01204732722118263 0.009360427348749013 0.04164575605236195 0.9881841868357127 -0.09750766111488213
 -0.002618439189090734 -0.012047416087611267 0.002999757452810276 0.01882524812103489 0.9881841868357127 -0.09750766111488213 0.009376671487916795 0.04164457034222829
0.1375573155481 0.009841697228294399 0.043528507697174375 0.9875077339520063 -0.10202397904959264 0.0033438484269285138 0.019667764474398674 -0.002816404000534632 -0.012588731225832301
 0.9875077339520063 -0.10202397904959264 0.009859222654632273 0.04352719338976106 -0.0028173600541924067 -0.012588629119491658 0.003232023097275899 0.01968622305341928
 0.0033438484269285138 0.019667764474398674 -0.0028173600541924067 -0.012588629119491658 0.00984163780752615 0.043530235744477924 0.9875078598613698 -0.10202211061165749
 -0.002816404000534632 -0.012588731225832301 0.003232023097275899 0.01968622305341928 0.9875078598613698 -0.10202211061165749 0.009859475801922335 0.0435289584650056
0.1438099208003 0.010340028225674624 0.045401922674937305 0.9868072430085152 -0.10652596310036637 0.003595607436865895 0.020522556753199677 -0.0030222325728743145 -0.013126186692390266
 0.9868072430085152 -0.10652596310036637 0.0103591931998449 0.04540050864209779 -0.0030232762169512496 -0.013126070146950403 0.0034736087299130623 0.02054307939410428
 0.003595607436865895 0.020522556753199677 -0.0030232762169512496 -0.013126070146950403 0.010339961156927747 0.0454037205685604 0.9868073811259532 -0.10652400646972097
 -0.0030222325728743145 -0.013126186692390266 0.0034736087299130623 0.02054307939410428 0.9868073811259532 -0.10652400646972097 0.010359469031554913 0.04540234628229798
0.1500625260525 0.010855280372472435 0.04726415497681461 0.9860827967145861 -0.1110152486292781 0.003857012405664344 0.021372971402460417 -0.0032358308291989685 -0.013659679299170608
 0.9860827967145861 -0.1110152486292781 0.010876159607167406 0.04726263534817966 -0.0032369657925649495 -0.013659547067943542 0.0037244193175412234 0.021395709980443666
 0.003857012405664344 0.021372971402460417 -0.0032369657925649495 -0.013659547067943542 0.010855205000924042 0.0472660216379302 0.9860829477100795 -0.11101320338007221
 -0.0032358308291989685 -0.013659679299170608 0.0037244193175412234 0.021395709980443666 0.9860829477100795 -0.11101320338007221 0.010876459020910157 0.047264544556532305
0.15631513130469998 0.011387259742002952 0.049115021386355706 0.9853345933537948 -0.11549169159880121 0.004127964050906489 0.022218898063684864 -0.003457103427121108 -0.014189108245079641
