! Created with skrf 1.8.0 (http://scikit-rf.org).
# GHz S RI R 50.0 
!freq ReS11 ImS11 ReS12 ImS12 ReS13 ImS13
! ReS14 ImS14
! ReS21 ImS21 ReS22 ImS22 ReS23 ImS23
! ReS24 ImS24
! ReS31 ImS31 ReS32 ImS32 ReS33 ImS33
! ReS34 ImS34
! ReS41 ImS41 ReS42 ImS42 ReS43 ImS43
! ReS44 ImS44
!
0.0 0.001579397454095 0.0 0.9984206025459 0.0 6.131247070575e-05 0.0 -6.131247097245e-05 7.50861213242259e-21
 0.9984206025459 0.0 0.00157939745411 0.0 -6.131247097276e-05 7.508612132460554e-21 6.131247070658e-05 0.0
 6.131247070575e-05 0.0 -6.131247097276e-05 7.508612132460554e-21 0.001579397441322 0.0 0.9984206025331 0.0
 -6.131247097245e-05 7.50861213242259e-21 6.131247070658e-05 0.0 0.9984206025331 0.0 0.00157939744132 0.0
0.005 0.001699473421059994 0.0012857644668088399 0.9982686402994518 -0.0033086865131588105 8.696672377165404e-05 0.0007127761213342918 -8.417547651972591e-05 -0.00044088531799476395
 0.9982686402994518 -0.0033086865131588105 0.0016994959990310865 0.001285751240126522 -8.41730940019261e-05 -0.00044088345699976663 8.683401377948327e-05 0.000712826622985123
 8.696672377165404e-05 0.0007127761213342918 -8.41730940019261e-05 -0.00044088345699976663 0.00169947515545031 0.0012858306769836956 0.9982686406639792 -0.0033086194641999173
 -8.417547651972591e-05 -0.00044088531799476395 8.683401377948327e-05 0.000712826622985123 0.9982686406639792 -0.0033086194641999173 0.0016994949931657256 0.0012858191297862363
0.006252605252188 0.0017309968001106332 0.0016122876827534 0.998228482625077 -0.004136664652587378 9.433280048940769e-05 0.0008912947696053787 -9.0652785630157e-05 -0.0005516830000234265
 0.998228482625077 -0.004136664652587378 0.0017310320942222986 0.0016122709049168494 -9.064907848654032e-05 -0.0005516807048862165 9.412545322451126e-05 0.0008913603576234427
 9.433280048940769e-05 0.0008912947696053787 -9.064907848654032e-05 -0.0005516807048862165 0.0017309994337730585 0.0016123704480301977 0.9982284831168167 -0.0041365808346719825
 -9.0652785630157e-05 -0.0005516830000234265 9.412545322451126e-05 0.0008913603576234427 0.9982284831168167 -0.0041365808346719825 0.0017310304434548865 0.0016123557791490576
0.01250521050438 0.0018971240440243842 0.0032585282393900873 0.9980153951184592 -0.008274127771852787 0.00013676849200387035 0.0017828086613938942 -0.00012752345750913788 -0.001106051714407198
 0.9980153951184592 -0.008274127771852787 0.0018972649836877967 0.003258492217198028 -0.00012750885088496302 -0.0011060474653433934 0.00013594162645967642 0.0017829664221844415
 0.00013676849200387035 0.0017828086613938942 -0.00012750885088496302 -0.0011060474653433934 0.0018971339958819577 0.00325869346249466 0.998015396511409 -0.00827396039350811
 -0.00012752345750913788 -0.001106051714407198 0.00013594162645967642 0.0017829664221844415 0.998015396511409 -0.00827396039350811 0.0018972578154352955 0.003258661779099188
0.01875781575657 0.0020781500588875164 0.004928304993146234 0.997781069613941 -0.012422456745571 0.00018871749042747682 0.0026751717609419757 -0.00017204058009568935 -0.001662250903342382
 0.997781069613941 -0.012422456745571 0.002078466776716976 0.004928247068907092 -0.00017200801085980941 -0.0016622451076781538 0.00018685999829793138 0.0026754535657284506
 0.00018871749042747682 0.0026751717609419757 -0.00017200801085980941 -0.0016622451076781538 0.0020781720115926865 0.004928552495681093 0.9977810723219289 -0.01242220590773508
 -0.00017204058009568935 -0.001662250903342382 0.00018685999829793138 0.0026754535657284506 0.9977810723219289 -0.01242220590773508 0.0020784502357275134 0.004928501336069801
0.02501042100875 0.002274434267350721 0.006619257260754077 0.9975252248615822 -0.01658365144214305 0.0002502797007963437 0.003568421980463904 -0.00022431612572590355 -0.002220011056481431
 0.9975252248615822 -0.01658365144214305 0.0022749967699457426 0.006619174610974277 -0.00022425861645348913 -0.002220004194828147 0.0002469803069930092 0.0035688648111007726
 0.0002502797007963437 0.003568421980463904 -0.00022425861645348913 -0.002220004194828147 0.0022744728979199494 0.006619586856165422 0.9975252292933111 -0.016583317228065577
 -0.00022431612572590355 -0.002220011056481431 0.0002469803069930092 0.0035688648111007726 0.9975252292933111 -0.016583317228065577 0.0022749669981227353 0.006619513664285963
0.03126302626094 0.0024863211755394438 0.008330164237716948 0.9972475655688713 -0.020758560307665597 0.00032155563155191337 0.004462510384623176 -0.00028445867835580465 -0.002779142992099076
 0.9972475655688713 -0.020758560307665597 0.0024871993832010623 0.00833005387779548 -0.00028436932280661323 -0.0027791356192167845 0.00031640251616628286 0.00446315636421734
 0.00032155563155191337 0.004462510384623176 -0.00028436932280661323 -0.0027791356192167845 0.002486381161183138 0.0083305757294884 0.9972475721321268 -0.02075814278439423
 -0.00028445867835580465 -0.002779142992099076 0.00031640251616628286 0.00446315636421734 0.9972475721321268 -0.02075814278439423 0.002487152521674305 0.008330477859953552
0.037515631513130004 0.0027141476974754048 0.010060225424305694 0.9969477899725664 -0.02494759988090194 0.0004026452668084312 0.005357353721051938 -0.00035257427117640433 -0.0033394853263890144
 0.9969477899725664 -0.02494759988090194 0.0027154114709517186 0.01006008421049593 -0.0003524462268633846 -0.0033394780714084494 0.0003952258978064321 0.00535825016585302
 0.0004026452668084312 0.005357353721051938 -0.0003524462268633846 -0.0033394780714084494 0.0027142337173601512 0.010060718591015833 0.9969477990745572 -0.024947099113618223
 -0.00035257427117640433 -0.0033394853263890144 0.0003952258978064321 0.00535825016585302 0.9969477990745572 -0.024947099113618223 0.002715343660297085 0.010060593311985833
0.043768236765320004 0.002958245984453161 0.011808841651733893 0.9966255929195005 -0.029150973697868333 0.0004936475429429683 0.006252850385082365 -0.00042876668077405325 -0.003900888514183189
 0.9966255929195005 -0.029150973697868333 0.00295996514632112 0.011808666282118171 -0.00042859316450261683 -0.0039008820806903928 0.0004835485988252535 0.006254049863013995
 0.0004936475429429683 0.006252850385082365 -0.00042859316450261683 -0.0039008820806903928 0.0029583627182267914 0.011809416252671517 0.9966256049651453 -0.029150389743732765
 -0.00042876668077405325 -0.003900888514183189 0.0004835485988252535 0.006254049863013995 0.9966256049651453 -0.029150389743732765 0.002959872524681535 0.011809260747614984
0.050020842017509996 0.0032189447303039628 0.013575524582078554 0.9962806674287004 -0.03336876272137529 0.0005946600362295087 0.007148887019669717 -0.0005131375300344961 -0.004463208258578862
 0.9962806674287004 -0.03336876272137529 0.0032211890837447895 0.01357531159667946 -0.0005129118151274023 -0.004463203424597773 0.0005814673763157267 0.0071504474115009755
 0.0005946600362295087 0.007148887019669717 -0.0005129118151274023 -0.004463203424597773 0.003219096859675108 0.01357618034533975 0.9962806828218408 -0.033368095640651844
 -0.0005131375300344961 -0.004463208258578862 0.0005814673763157267 0.0071504474115009755 0.9962806828218408 -0.033368095640651844 0.0032210677878137433 0.013575991714423169
0.055454545454549996 0.003459234620467835 0.01512516909196547 0.9959622193504775 -0.03704585969293247 0.0006906470691572761 0.007927914060766768 -0.0005931775715663198 -0.004952514993626791
 0.9959622193504775 -0.03704585969293247 0.003461992067929307 0.01512492048438849 -0.0005929010740078612 -0.004952512239323078 0.0006744289067717529 0.007929839277087578
 0.0006906470691572761 0.007927914060766768 -0.0005929010740078612 -0.004952512239323078 0.0034594213140509045 0.015125895143161407 0.9959622379800923 -0.03704512042308597
 -0.0005931775715663198 -0.004952514993626791 0.0006744289067717529 0.007929839277087578 0.9959622379800923 -0.03704512042308597 0.003461842715423022 0.015125675305610615
0.056273447269699996 0.003496569839357134 0.015359852291223287 0.9959127056202991 -0.03760096968904389 0.0007057787388460785 0.008045341761621484 -0.0006057863101844026 -0.005026302278556858
 0.9959127056202991 -0.03760096968904389 0.0034994091855025966 0.01535959807164985 -0.0006055017245606792 -0.005026299896531973 0.0006890774028570865 0.008047326323292902
 0.0007057787388460785 0.008045341761621484 -0.0006055017245606792 -0.005026299896531973 0.003496762048810297 0.015360588915408506 0.9959127247638709 -0.03760021954272905
 -0.0006057863101844026 -0.005026302278556858 0.0006890774028570865 0.008047326323292902 0.9959127247638709 -0.03760021954272905 0.003499255351389712 0.015360364176104285
0.06252605252188 0.0037914447807194996 0.01716144485341417 0.9955213993345335 -0.04184754346322673 0.0008270978851903075 0.008942086022420092 -0.000706810355871887 -0.005590028546800771
 0.9955213993345335 -0.04184754346322673 0.0037949489349233933 0.017161145621897352 -0.0007064602807677721 -0.0055900295435544435 0.0008064721116115538 0.008944563447757795
 0.0008270978851903075 0.008942086022420092 -0.0007064602807677721 -0.0055900295435544435 0.003791681756623179 0.017162262005575274 0.9955214226299172 -0.04184671031445999
 -0.000706810355871887 -0.005590028546800771 0.0008064721116115538 0.008944563447757795 0.9955214226299172 -0.04184671031445999 0.003794758697496141 0.017161998092856574
0.06877865777407 0.0041038907667065635 0.018979949779133466 0.9951064405805571 -0.046108393532318784 0.0009587098008704091 0.009838985560163879 -0.0008163047983362988 -0.006154244241460149
 0.9951064405805571 -0.046108393532318784 0.0041081295745493155 0.018979601597041273 -0.0008158826673992271 -0.006154249618136296 0.0009337430590219652 0.00984203004358392
 0.0009587098008704091 0.009838985560163879 -0.0008158826673992271 -0.006154249618136296 0.004104177197385035 0.01898084709847879 0.9951064684274679 -0.046107477441798654
 -0.0008163047983362988 -0.006154244241460149 0.0009337430590219652 0.00984203004358392 0.9951064684274679 -0.046107477441798654 0.00410789906795886 0.018980540864522798
0.07503126302626001 0.004434226830972161 0.020815032796928343 0.9946675218876273 -0.05038339917283298 0.0011007047686556856 0.010735901163531243 -0.0009343625015781729 -0.006718805091260495
 0.9946675218876273 -0.05038339917283298 0.004439270183786751 0.020814631562839785 -0.0009338618003566164 -0.0067188159232625605 0.0010709798009882485 0.010739592462411816
 0.0011007047686556856 0.010735901163531243 -0.0009338618003566164 -0.0067188159232625605 0.004434567407646788 0.02081600988669624 0.994667554684785 -0.05038240020636667
 -0.0009343625015781729 -0.006718805091260495 0.0010709798009882485 0.010739592462411816 0.994667554684785 -0.05038240020636667 0.004438995542381573 0.020815658100023157
0.08128386827845 0.004782769843126553 0.022666371710971075 0.9942043365979416 -0.05467241554189692 0.001253170903248719 0.01163268911329928 -0.0010610739893497025 -0.007283564948641273
 0.9942043365979416 -0.05467241554189692 0.004788687693897314 0.022665913158103197 -0.0010604882548829909 -0.007283582385561828 0.0012182697756007177 0.011637112609844158
 0.001253170903248719 0.01163268911329928 -0.0010604882548829909 -0.007283582385561828 0.00478316925870246 0.02266742813964437 0.9942043747423011 -0.05467133376832878
 -0.0010610739893497025 -0.007283564948641273 0.0012182697756007177 0.011637112609844158 0.9942043747423011 -0.05467133376832878 0.004788365051876593 0.022667027483770637
0.08753647353064001 0.005149834479985891 0.024533652160236643 0.9937165791190307 -0.05897527787377938 0.0014161940318873942 0.012529201509115816 -0.0011965273655812722 -0.007848375503341462
 0.9937165791190307 -0.05897527787377938 0.005156696858242152 0.02453313185344073 -0.0011958501862004076 -0.007848400768889447 0.001375698190101761 0.012534448271621085
 0.0014161940318873942 0.012529201509115816 -0.0011958501862004076 -0.007848400768889447 0.005150297429701808 0.0245347874644386 0.9937166230062414 -0.05897411336140955
 -0.0011965273655812722 -0.007848375503341462 0.001375698190101761 0.012534448271621085 0.9937166230062414 -0.05897411336140955 0.00515632235089913 0.02453433453597012
0.09378907878283 0.005535733167869366 0.026416564592264574 0.993203945151353 -0.06329180446831088 0.0015898575797527587 0.013425286511886588 -0.0013408082292155794 -0.008413086086403967
 0.993203945151353 -0.06329180446831088 0.0055436101952554325 0.02641597792448194 -0.001340033244473617 -0.008413120478320575 0.0015433479116855452 0.013431453355176986
 0.0015898575797527587 0.013425286511886588 -0.001340033244473617 -0.008413120478320575 0.00553626434860348 0.026417778273223693 0.9932039951755911 -0.06329055728767087
 -0.0013408082292155794 -0.008413086086403967 0.0015433479116855452 0.013431453355176986 0.9932039951755911 -0.06329055728767087 0.005543179959090137 0.02641726957944798
0.100041684035 0.005940776002417976 0.028314802050592735 0.9926661318972563 -0.06762179887232823 0.0017742424575476054 0.014320788531264407 -0.0014939995859007018 -0.008977543535111585
 0.9926661318972563 -0.06762179887232823 0.0059497379082652175 0.028314144238636593 -0.0014931204866719143 -0.008977588425066171 0.0017212993600876452 0.014327978076292571
 0.0017742424575476054 0.014320788531264407 -0.0014931204866719143 -0.008977588425066171 0.005941380112878841 0.028316093569678562 0.9926661884508282 -0.06762046909985975
 -0.0014939995859007018 -0.008977543535111585 0.0017212993600876452 0.014327978076292571 0.9926661884508282 -0.06762046909985975 0.0059492480813796945 0.028315525525557692
0.1059090909091 0.006338551237356794 0.03010976189584386 0.9921382826790835 -0.07169710168757035 0.001957088812149229 0.015160450216689693 -0.001645929006973294 -0.009506858059200134
 0.9921382826790835 -0.07169710168757035 0.0063485951686691475 0.030109032811368147 -0.0016449465150115956 -0.009506914113746058 0.0018977266237604946 0.015168698014952858
 0.001957088812149229 0.015160450216689693 -0.0016449465150115956 -0.009506914113746058 0.006339228059149467 0.030111125938706653 0.992138345715079 -0.07169569447923195
 -0.001645929006973294 -0.009506858059200134 0.0018977266237604946 0.015168698014952858 0.992138345715079 -0.07169569447923195 0.006348045912125742 0.03011049885459887
0.1062942892872 0.0063652706546944715 0.030228058501340704 0.9921028382587981 -0.07196505152888535 0.0019694269518338017 0.01521554837152491 -0.001656181756830482 -0.009541592105796049
 0.9921028382587981 -0.07196505152888535 0.006375387791296841 0.030227324581203453 -0.0016551922853450262 -0.009541648939297816 0.0019096304014414645 0.01522386910393759
 0.0019694269518338017 0.01521554837152491 -0.0016551922853450262 -0.009541648939297816 0.006365952394693899 0.030229427287412573 0.9921029017324152 -0.07196363923885803
 -0.001656181756830482 -0.009541592105796049 0.0019096304014414645 0.01522386910393759 0.9921029017324152 -0.07196363923885803 0.006374834514235429 0.030228796211940655
0.11254689453939999 0.006809522262853216 0.03215602757547652 0.9915137650249314 -0.07632134101762218 0.0021754866160189103 0.016109403359451924 -0.001827432285659258 -0.010105073410958976
 0.9915137650249314 -0.07632134101762218 0.006820865121296356 0.032155212396999415 -0.0018263262358236558 -0.010105143707223678 0.0021084162434540543 0.016118969687209356
 0.0021754866160189103 0.016109403359451924 -0.0018263262358236558 -0.010105143707223678 0.006810286333903452 0.032157473017045975 0.9915138358076944 -0.07631984628921235
 -0.001827432285659258 -0.010105073410958976 0.0021084162434540543 0.016118969687209356 0.9915138358076944 -0.07631984628921235 0.006820244537503086 0.032156775129128436
0.11879949979160001 0.007273833317655971 0.03409840158008839 0.9908986150552015 -0.0806904350338327 0.0023924941631224272 0.017002187448937528 -0.002007825843828733 -0.010667826386246814
 0.9908986150552015 -0.0806904350338327 0.00728647254297918 0.034097499801085 -0.002006597061367822 -0.010667911738099115 0.002317729331296185 0.017013119758679893
 0.0023924941631224272 0.017002187448937528 -0.002006597061367822 -0.010667911738099115 0.007274684421577547 0.03409992302844883 0.9908986935342172 -0.08068885794722323
 -0.002007825843828733 -0.010667826386246814 0.002317729331296185 0.017013119758679893 0.9908986935342172 -0.08068885794722323 0.007285780799149501 0.03409915444205677
0.1250521050438 0.007758503537122666 0.03605487072531631 0.9902570934556336 -0.08507209115912331 0.0026205193592933147 0.017893731316968566 -0.002197434134658792 -0.011229687272564627
 0.9902570934556336 -0.08507209115912331 0.0077725099444757315 0.036053876804943354 -0.0021960765174564964 -0.011229789346295808 0.0025376392441397735 0.01790615602930417
 0.0026205193592933147 0.017893731316968566 -0.0021960765174564964 -0.011229789346295808 0.007759446376580745 0.036056467490546425 0.9902571800163078 -0.08507043179872033
 -0.002197434134658792 -0.011229687272564627 0.0025376392441397735 0.01790615602930417 0.9902571800163078 -0.08507043179872033 0.007771743191549285 0.036055624209295374
0.131304710296 0.008263829737665759 0.03802512251022959 0.9895889077538584 -0.08946605748102364 0.002859628918114618 0.018783862450445086 -0.0023963257964980805 -0.011790489614141655
 0.9895889077538584 -0.08946605748102364 0.00827927432789006 0.038024030701787816 -0.0023948332950960065 -0.011790610149331086 0.002768212592437338 0.018797912073797416
 0.002859628918114618 0.018783862450445086 -0.0023948332950960065 -0.011790610149331086 0.008264869015591252 0.03802679386349184 0.9895890027794784 -0.0894643159324004
 -0.0023963257964980805 -0.011790489614141655 0.002768212592437338 0.018797912073797416 0.9895890027794784 -0.0894643159324004 0.00827842872123671 0.0380258717745334
0.1375573155481 0.008675660555665363 0.03975056509747748 0.9890082588210274 -0.09361368086668562 0.0030806726164649746 0.01964640949161055 -0.0025754644963356123 -0.012324010632646588
 0.9890082588210274 -0.09361368086668562 0.008692618434079811 0.03974939190154716 -0.0025738280507633083 -0.012324149797279665 0.0029805108738849306 0.019662066061470574
 0.0030806726164649746 0.01964640949161055 -0.0025738280507633083 -0.012324149797279665 0.008676800258176031 0.03975231049247207 0.9890083626897721 -0.09361185723795803
 -0.0025754644963356123 -0.012324010632646588 0.0029805108738849306 0.019662066061470574 0.9890083626897721 -0.09361185723795803 0.008691690861537631 0.0397513274325916
0.1438099208003 0.009102006649583237 0.04146657830833186 0.988407104265777 -0.09775047180267793 0.0033106616095348674 0.02050527885150084 -0.002761771932685211 -0.012854215369044976
 0.988407104265777 -0.09775047180267793 0.009120549658821977 0.041465319254939334 -0.002759985026954843 -0.012854374879267116 0.0032013716126270127 0.020522663761406993
 0.0033106616095348674 0.02050527885150084 -0.002759985026954843 -0.012854374879267116 0.009103251353026648 0.04146839702789646 0.9884072173560202 -0.09774856618956229
 -0.002761771932685211 -0.012854215369044976 0.0032013716126270127 0.020522663761406993 0.9884072173560202 -0.09774856618956229 0.009119536415288652 0.04146735017381592
0.1500625260525 0.009542712914567358 0.04317300932556646 0.987785603478495 -0.10187631812482405 0.0035495147240185024 0.021360376054230277 -0.002955170175041454 -0.013381016333650832
 0.987785603478495 -0.10187631812482405 0.009562913089071291 0.04317165966727909 -0.0029532263073523916 -0.013381197974776058 0.0034307159821278855 0.021379615130467006
 0.0035495147240185024 0.021360376054230277 -0.0029532263073523916 -0.013381197974776058 0.00954406718780824 0.0431749006240834 0.9877857261664691 -0.10187433062707786
 -0.002955170175041454 -0.013381016333650832 0.0034307159821278855 0.021379615130467006 0.9877857261664691 -0.10187433062707786 0.009561810483078843 0.043173786940841744
0.15631513130469998 0.009997623081369273 0.04486970993285028 0.9871439167298756 -0.10599110826614257 0.0037971497901781335 0.02221160826289745 -0.0031555802997993367 -0.013904327936798912
 0.9871439167298756 -0.10599110826614257 0.010019552653182195 0.04486826463661616 -0.003153472982747714 -0.013904533562955958 0.00366846419597052 0.02223283171733833
