! Created with skrf 1.8.0 (http://scikit-rf.org).
# GHz S RI R 50.0 
!freq ReS11 ImS11 ReS12 ImS12 ReS13 ImS13
! ReS14 ImS14
! ReS21 ImS21 ReS22 ImS22 ReS23 ImS23
! ReS24 ImS24
! ReS31 ImS31 ReS32 ImS32 ReS33 ImS33
! ReS34 ImS34
! ReS41 ImS41 ReS42 ImS42 ReS43 ImS43
! ReS44 ImS44
!
0.0 0.001541147791098 0.0 0.9984588522032 0.0 5.974836586434e-05 0.0 -5.974836568604e-05 7.317064479169444e-21
 0.9984588522032 0.0 0.001541147791095 0.0 -5.974836568668e-05 7.317064479247821e-21 5.974836586363e-05 0.0
 5.974836586434e-05 0.0 -5.974836568668e-05 7.317064479247821e-21 0.001541147789688 0.0 0.9984588522018 0.0
 -5.974836568604e-05 7.317064479169444e-21 5.974836586363e-05 0.0 0.9984588522018 0.0 0.001541147789654 0.0
0.005 0.0016582109168307771 0.001255025404571605 0.9983107355050931 -0.0032286654447235058 8.456712733871433e-05 0.0006927911509481988 -8.193722678401005e-05 -0.0004288313351182626
 0.9983107355050931 -0.0032286654447235058 0.0016582130847183929 0.001255024061028924 -8.193734720034505e-05 -0.00042883135762930786 8.456782130160625e-05 0.0006927910973268555
 8.456712733871433e-05 0.0006927911509481988 -8.193734720034505e-05 -0.00042883135762930786 0.0016582115519107477 0.0012550922461274485 0.9983107358585508 -0.003228598391344482
 -8.193722678401005e-05 -0.0004288313351182626 8.456782130160625e-05 0.0006927910973268555 0.9983107358585508 -0.003228598391344482 0.001658213159517796 0.001255091331784876
0.006252605252188 0.0016889132281558785 0.0015737454892527417 0.9982716416849982 -0.004036623950770302 9.165587135629029e-05 0.0008663087268600068 -8.820701271009044e-05 -0.0005366014391848944
 0.9982716416849982 -0.004036623950770302 0.0016889166170711823 0.0015737437252573122 -8.820720064243317e-05 -0.0005366014654585186 9.165695809613619e-05 0.0008663086237660936
 9.165587135629029e-05 0.0008663087268600068 -8.820720064243317e-05 -0.0005366014654585186 0.0016889141439113044 0.0015738290310893452 0.9982716421601936 -0.0040365401401149794
 -8.820701271009044e-05 -0.0005366014391848944 9.165695809613619e-05 0.0008663086237660936 0.9982716421601936 -0.0040365401401149794 0.0016889166561024388 0.0015738278163141696
0.01250521050438 0.0018505379223345733 0.00318066960465903 0.9980644714991468 -0.008074081136798165 0.0001322983709454325 0.0017328744058737137 -0.00012380805233176654 -0.0010758363436949928
 0.9980644714991468 -0.008074081136798165 0.0018505514584146988 0.003180665206364401 -0.00012380879977017377 -0.001075836374896532 0.00013230278043596268 0.0017328738354257926
 0.0001322983709454325 0.0017328744058737137 -0.00012380879977017377 -0.001075836374896532 0.001850541058919903 0.0031808364124729194 0.9980644728670521 -0.00807391376195718
 -0.00012380805233176654 -0.0010758363436949928 0.00013230278043596268 0.0017328738354257926 0.9980644728670521 -0.00807391376195718 0.0018505510786866496 0.0031808332481435145
0.01875781575657 0.0020263756907459873 0.0048106157143732575 0.9978370835970335 -0.012122203049098714 0.00018176983045440042 0.0026003155874104226 -0.00016666217016780537 -0.0016168803868265766
 0.9978370835970335 -0.012122203049098714 0.0020264061158740583 0.0048106077283178806 -0.00016666384642217432 -0.0016168803950102615 0.00018177991194525704 0.0026003141581646015
 0.00018176983045440042 0.0026003155874104226 -0.00016666384642217432 -0.0016168803950102615 0.0020263823337732267 0.004810865644939587 0.9978370862462025 -0.0121219522498051
 -0.00016666217016780537 -0.0016168803868265766 0.00018177991194525704 0.0026003141581646015 0.9978370862462025 -0.0121219522498051 0.0020264048269435417 0.004810859737103664
0.02501042100875 0.0022167698172231975 0.006461288213410328 0.9975892097374417 -0.0161829494386467 0.00024016554201054758 0.003468676855002063 -0.00021687625003856417 -0.0021594771553322236
 0.9975892097374417 -0.0161829494386467 0.0022168238607912128 0.006461275601029335 -0.00021687922302307823 -0.0021594771057326175 0.00024018374664546932 0.0034686741378251312
 0.00024016554201054758 0.003468676855002063 -0.00021687922302307823 -0.0021594771057326175 0.0022167812681492304 0.006461621186282439 0.9975892140615729 -0.01618261531755831
 -0.00021687625003856417 -0.0021594771553322236 0.00024018374664546932 0.0034686741378251312 0.9975892140615729 -0.01618261531755831 0.002216821174111248 0.0064616116799807175
0.03126302626094 0.002422049362879316 0.008131504056211046 0.9973205680430409 -0.020257156753527277 0.00030758128228134486 0.004337918770250538 -0.0002745540465163416 -0.002703448221117216
 0.9973205680430409 -0.020257156753527277 0.0024221337428105335 0.008131485692629725 -0.00027455868298045604 -0.0027034480720899263 0.00030761015839916617 0.004337914295133585
 0.00030758128228134486 0.004337918770250538 -0.00027455868298045604 -0.0027034480720899263 0.0024220669329966618 0.008131920018256055 0.9973205744338998 -0.020256739411486237
 -0.0002745540465163416 -0.002703448221117216 0.00030761015839916617 0.004337914295133585 0.9973205744338998 -0.020256739411486237 0.002422129165650171 0.008131905996523978
0.037515631513130004 0.002642536224539105 0.009820490582287691 0.9970308702878612 -0.024345240252839528 0.00038411235296006725 0.0052079687842473054 -0.00033979697973608757 -0.0032486422353235813
 0.9970308702878612 -0.024345240252839528 0.0026426576466487563 0.009820465255177482 -0.0003398036452712599 -0.003248641938262388 0.00038415454300913385 0.00520796203799156
 0.00038411235296006725 0.0052079687842473054 -0.0003398036452712599 -0.003248641938262388 0.0026425612325349864 0.009820989493376576 0.9970308791323863 -0.024344739802889974
 -0.00033979697973608757 -0.0032486422353235813 0.00038415454300913385 0.00520796203799156 0.9970308791323863 -0.024344739802889974 0.002642650680232546 0.009820969976554829
0.043768236765320004 0.0028785478621294 0.011527671837152559 0.9967198248565776 -0.028447407616349507 0.00046985312751522093 0.006078736709070449 -0.0004127044228834079 -0.003794919460910574
 0.9967198248565776 -0.028447407616349507 0.0028787130196398334 0.011527638245848824 -0.00041271348192242194 -0.003794918960197545 0.0004699113655332005 0.006078727133244745
 0.00046985312751522093 0.006078736709070449 -0.00041271348192242194 -0.003794918960197545 0.002878581637952153 0.01152825368407059 0.996719836539655 -0.028446824169556097
 -0.0004127044228834079 -0.003794919460910574 0.0004699113655332005 0.006078727133244745 0.996719836539655 -0.028446824169556097 0.002878703163221244 0.011528227629285258
0.050020842017509996 0.0031303985651165373 0.013252580289078672 0.9963871382444296 -0.0325637471568852 0.0005648967790963539 0.006950121129815234 -0.000493373806693908 -0.004342145366445265
 0.9963871382444296 -0.0325637471568852 0.003130614137554977 0.013252537043646264 -0.000493385622399291 -0.004342144599390835 0.0005649738886818641 0.006950108118842329
 0.0005648967790963539 0.006950121129815234 -0.000493385622399291 -0.004342144599390835 0.0031304424469447522 0.01325324507171126 0.9963871531460233 -0.0325630808358603
 -0.000493373806693908 -0.004342145366445265 0.0005649738886818641 0.006950108118842329 0.9963871531460233 -0.0325630808358603 0.003130600886188277 0.01325321137231511
0.055454545454549996 0.0033623699062586393 0.014765660917004528 0.9960802194962949 -0.036152491425376555 0.0006551189845110524 0.0077077963793324615 -0.0005698558182625384 -0.004818368823535952
 0.9960802194962949 -0.036152491425376555 0.003362634704019931 0.014765608083002776 -0.0005698703235106631 -0.004818367768565172 0.0006552148552111081 0.0077077798532963985
 0.0006551189845110524 0.0077077963793324615 -0.0005698703235106631 -0.004818367768565172 0.0033624236657754025 0.014766397782241883 0.9960802375004842 -0.03615175319354228
 -0.0005698558182625384 -0.004818368823535952 0.0006552148552111081 0.0077077798532963985 0.9960802375004842 -0.03615175319354228 0.0033626180912374776 0.014766356490885736
0.056273447269699996 0.003398400099617246 0.014994813462247935 0.9960325159429487 -0.036694271117687194 0.0006693350877544415 0.007822012532393082 -0.000581900642805829 -0.004890187507250566
 0.9960325159429487 -0.036694271117687194 0.003398672751834152 0.01499475908256092 -0.000581915577028728 -0.004890186404025647 0.0006694339800602365 0.007821995431690374
 0.0006693350877544415 0.007822012532393082 -0.000581915577028728 -0.004890186404025647 0.0033984554364661027 0.01499556119248414 0.9960325344391068 -0.03669352205735563
 -0.000581900642805829 -0.004890187507250566 0.0006694339800602365 0.007821995431690374 0.9960325344391068 -0.03669352205735563 0.003398655599137869 0.014995518677645484
0.06252605252188 0.003682862054578641 0.01675401012677062 0.9956556630274832 -0.040838939415771325 0.0007832582871640933 0.008694295039786656 -0.0006783785057098539 -0.005438913801828733
 0.9956556630274832 -0.040838939415771325 0.0036831984354512783 0.01675394304180188 -0.0006783969188453497 -0.005438912285430438 0.0007833819590548559 0.008694273144007909
 0.0007832582871640933 0.008694295039786656 -0.0006783969188453497 -0.005438912285430438 0.0036829302056964066 0.016754840830459767 0.9956556854897386 -0.04083810776107913
 -0.0006783785057098539 -0.005438913801828733 0.0007833819590548559 0.008694273144007909 0.9956556854897386 -0.04083810776107913 0.003683176873775231 0.016754788264680433
0.06877865777407 0.003984092020404272 0.01852983608152552 0.995256284581826 -0.044997673796383204 0.000906754932495241 0.009566847442217917 -0.000782898991628131 -0.005988191518734696
 0.995256284581826 -0.044997673796383204 0.003984498761741477 0.018529754628490804 -0.0007829212425229409 -0.005988189504925781 0.0009069064648310457 0.009566819993476272
 0.000906754932495241 0.009566847442217917 -0.0007829212425229409 -0.005988189504925781 0.003984174356273005 0.01853074980076593 0.9952563113771467 -0.044996759699758616
 -0.000782898991628131 -0.005988191518734696 0.0009069064648310457 0.009566819993476272 0.9952563113771467 -0.044996759699758616 0.003984472283522473 0.018530685883518767
0.07503126302626001 0.004302395672203192 0.020321975156748887 0.9948340860303004 -0.049170366772323074 0.0010399117813644967 0.010439543856201477 -0.0008955516627880241 -0.006537886639058558
 0.9948340860303004 -0.049170366772323074 0.004302879387013405 0.02032187758038599 -0.0008955781085723122 -0.0065378840363257374 0.0010400943371563934 0.010439510042365452
 0.0010399117813644967 0.010439543856201477 -0.0008955781085723122 -0.0065378840363257374 0.0043024935739187165 0.020322971943640883 0.9948341175200736 -0.04916937039947881
 -0.0008955516627880241 -0.006537886639058558 0.0010400943371563934 0.010439510042365452 0.9948341175200736 -0.04916937039947881 0.004302847485084986 0.020322895309005145
0.08128386827845 0.004638076788406096 0.022130123221701724 0.994388773410195 -0.05335688756290688 0.0011828136825708128 0.011312254173297405 -0.0010164239821097377 -0.007087863434059461
 0.994388773410195 -0.05335688756290688 0.004638644069824188 0.0221300076735681 -0.0010164549780932453 -0.007087860143572425 0.0011830305052187126 0.011312213126276416
 0.0011828136825708128 0.011312254173297405 -0.0010164549780932453 -0.007087860143572425 0.004638191648679454 0.02213120313630174 0.9943888099504001 -0.05335580909455942
 -0.0010164239821097377 -0.007087863434059461 0.0011830305052187126 0.011312213126276416 0.9943888099504001 -0.05335580909455942 0.004638606238736127 0.022131112352565
0.08753647353064001 0.004991437231107036 0.02395398404035168 0.9939200536082966 -0.057557086190333756 0.0013355434702868034 0.012184844366744588 -0.0011456012409698482 -0.007637984189934825
 0.9939200536082966 -0.057557086190333756 0.0049920946507513286 0.023953848578135553 -0.0011456371404861983 -0.007637980105510921 0.001335797881996366 0.012184795160858809
 0.0013355434702868034 0.012184844366744588 -0.0011456371404861983 -0.007637980105510921 0.004991570454192132 0.02395514715817807 0.9939200955488922 -0.05755592581430837
 -0.0011456012409698482 -0.007637984189934825 0.001335797881996366 0.012184795160858809 0.9939200955488922 -0.05755592581430837 0.004992050387398226 0.023955040727574817
0.09378907878283 0.005362776896684027 0.02579326631905614 0.9934276345722066 -0.06177079638957905 0.0014981818612476235 0.013057176726846222 -0.0012831664828769993 -0.008188109008995147
 0.9934276345722066 -0.06177079638957905 0.0053635310032475545 0.02579310890595258 -0.001283207637138824 -0.0081881040170579 0.0014984772610391187 0.013057118377146012
 0.0014981818612476235 0.013057176726846222 -0.001283207637138824 -0.0081881040170579 0.005362929898697002 0.025794512725116105 0.9934276822566441 -0.06176955430634729
 -0.0012831664828769993 -0.008188109008995147 0.0014984772610391187 0.013057118377146012 0.9934276822566441 -0.06176955430634729 0.005363479807787497 0.02579438908350847
0.100041684035 0.005752393646614229 0.027647681536891903 0.9929112255042152 -0.0659978377415831 0.0016708073542361164 0.013929110034450489 -0.0014292004233365818 -0.008738095678121978
 0.9929112255042152 -0.0659978377415831 0.00575325096398822 0.027647500040969022 -0.0014292471812612263 -0.008738089657680874 0.001671147216256466 0.013929041495127097
 0.0016708073542361164 0.013929110034450489 -0.0014292471812612263 -0.008738089657680874 0.005752567855776143 0.02764901132595411 0.9929112792693422 -0.06599651416358474
 -0.0014292004233365818 -0.008738095678121978 0.001671147216256466 0.013929041495127097 0.9929112792693422 -0.06599651416358474 0.0057531923409497076 0.02764886884255576
0.1059090909091 0.006134893922862944 0.029401360776555696 0.9924045539177562 -0.06997642050941834 0.001841949122470355 0.014746835276446154 -0.0015740097612048564 -0.009253945392327616
 0.9924045539177562 -0.06997642050941834 0.006135854002977685 0.029401154657264134 -0.0015740620927524106 -0.009253938290071102 0.0018423339326590676 0.014746756168462443
 0.001841949122470355 0.014746835276446154 -0.0015740620927524106 -0.009253938290071102 0.006135089342787804 0.029402768906072428 0.9924046136888208 -0.06997502066122699
 -0.0015740097612048564 -0.009253945392327616 0.0018423339326590676 0.014746756168462443 0.9924046136888208 -0.06997502066122699 0.00613578796386428 0.02940260719885
0.1062942892872 0.0061605832224985516 0.02951694232100148 0.99237053704397 -0.07023801726729663 0.0018534961313367965 0.014800499701388092 -0.0015837813670432513 -0.009287799575716717
 0.99237053704397 -0.07023801726729663 0.006161550248622351 0.029516734514643084 -0.0015838340751198581 -0.009287792398331152 0.001853884003095996 0.014800419864153279
 0.0018534961313367965 0.014800499701388092 -0.0015838340751198581 -0.009287792398331152 0.006160780079560763 0.029518355596841118 0.9923705972194735 -0.07023661241923719
 -0.0015837813670432513 -0.009287799575716717 0.001853884003095996 0.014800419864153279 0.9923705972194735 -0.07023661241923719 0.006161483707699166 0.029518192573961176
0.11254689453939999 0.006587639151195981 0.03140076120524348 0.9918052814429072 -0.07449113064487603 0.00204632196029195 0.015671197884346164 -0.0017469851231851673 -0.009837073610802369
 0.9918052814429072 -0.07449113064487603 0.006588722356035281 0.03140052476462819 -0.0017470441252968065 -0.00983706514056971 0.0020467614607358503 0.015671105576895605
 0.00204632196029195 0.015671197884346164 -0.0017470441252968065 -0.00983706514056971 0.006587860109323809 0.03140225808102698 0.9918053483504314 -0.07448964476285677
 -0.0017469851231851673 -0.009837073610802369 0.0020467614607358503 0.015671105576895605 0.9918053483504314 -0.07448964476285677 0.006588647412823537 0.03140207275384459
0.11879949979160001 0.007033852638886609 0.033298849663419866 0.9912151727313957 -0.07875696315873541 0.0022493560975782225 0.016541053585053426 -0.0019188849191410914 -0.010385768181546292
 0.9912151727313957 -0.07875696315873541 0.007035058462971138 0.03329858216798791 -0.0019189505564148619 -0.010385758275080237 0.0022498509153228968 0.016540947569535273
 0.0022493560975782225 0.016541053585053426 -0.0019189505564148619 -0.010385758275080237 0.00703409916425859 0.03330043026236818 0.9912152466850009 -0.07875539648907036
 -0.0019188849191410914 -0.010385768181546292 0.0022498509153228968 0.016540947569535273 0.9912152466850009 -0.07875539648907036 0.007034974640227714 0.033300220798767655
0.1250521050438 0.0074995124597197205 0.03521091735415905 0.9905999268830792 -0.08303529044350727 0.0024626671922565965 0.01740991273507006 -0.0020995513130400217 -0.01093373115505616
 0.9905999268830792 -0.08303529044350727 0.007500847312217105 0.035210616286181384 -0.002099623923637083 -0.010933719661461906 0.002463221083597423 0.01740979170654802
 0.0024626671922565965 0.01740991273507006 -0.002099623923637083 -0.010933719661461906 0.007499786031460197 0.035212581805668774 0.9906000081881332 -0.0830336432461369
 -0.0020995513130400217 -0.01093373115505616 0.002463221083597423 0.01740979170654802 0.9906000081881332 -0.0830336432461369 0.007500754140550732 0.035212346306024454
0.131304710296 0.00798490483770895 0.03713667151294186 0.9899592619752579 -0.08732587908784781 0.00268632119047961 0.01827761827491255 -0.002289052105201604 -0.011480807858674315
 0.9899592619752579 -0.08732587908784781 0.007986375094857417 0.03713633425710303 -0.0022891320242148187 -0.01148079461957633 0.0026869379774295166 0.018277480859884763
 0.00268632119047961 0.01827761827491255 -0.0022891320242148187 -0.01148079461957633 0.007985206948454789 0.037138419955951164 0.989959350928196 -0.08732415163240669
 -0.002289052105201604 -0.011480807858674315 0.0026869379774295166 0.018277480859884763 0.989959350928196 -0.08732415163240669 0.007986272113829395 0.03713815645301493
0.1375573155481 0.008379441659071145 0.038823356721826505 0.989403814315252 -0.0913759133565759 0.0028923311694249703 0.019118396378081645 -0.0024594019329691095 -0.012001246921023473
 0.989403814315252 -0.0913759133565759 0.008381053256983817 0.0388229892133552 -0.0024594894579799084 -0.01200123191117193 0.0028930050589019455 0.019118242959202187
 0.0028923311694249703 0.019118396378081645 -0.0024594894579799084 -0.01200123191117193 0.008379772860974959 0.03882518971134638 0.9894039112505976 -0.09137410588146862
 -0.0024594019329691095 -0.012001246921023473 0.0028930050589019455 0.019118242959202187 0.9894039112505976 -0.09137410588146862 0.008380940888770488 0.03882490394481271
0.1438099208003 0.008787860108751756 0.04050102605738867 0.9888288157531836 -0.0954155760640755 0.0031066696383346614 0.01995578583990885 -0.0026365756894965093 -0.01251857605405386
 0.9888288157531836 -0.0954155760640755 0.008789619288116083 0.04050062637823679 -0.0026366711445661682 -0.012518559122497722 0.003107402815194053 0.019955615288717365
 0.0031066696383346614 0.01995578583990885 -0.0026366711445661682 -0.012518559122497722 0.008788221745136032 0.04050294380797014 0.98882892096116 -0.09541368885057007
 -0.0026365756894965093 -0.01251857605405386 0.003107402815194053 0.019955615288717365 0.98882892096116 -0.09541368885057007 0.00878949724660269 0.04050263443248944
0.1500625260525 0.009210014898203707 0.04216953601510527 0.9882344157992964 -0.09944476384575376 0.0033292625505812294 0.020789701206565713 -0.0028205011867025237 -0.013032713910321063
 0.9882344157992964 -0.09944476384575376 0.009211927861934985 0.04216910217077151 -0.002820604892535723 -0.01303269490046227 0.003330057150799949 0.020789512364996897
 0.0033292625505812294 0.020789701206565713 -0.002820604892535723 -0.01303269490046227 0.009210408314571686 0.04217153875291852 0.9882345295614048 -0.09944279718494345
 -0.0028205011867025237 -0.013032713910321063 0.003330057150799949 0.020789512364996897 0.9882345295614048 -0.09944279718494345 0.009211795880819296 0.04217120436620543
0.15631513130469998 0.00964575968473788 0.04382874741663525 0.9876207647503011 -0.10346337376759873 0.0035600349769312404 0.021620058482785268 -0.0030111053366561925 -0.013543580876376582
 0.9876207647503011 -0.10346337376759873 0.00964783259747438 0.04382827733699329 -0.0030112176105218944 -0.013543559626046198 0.00356089308690713 0.02161985016417759
