! Created with skrf 1.8.0 (http://scikit-rf.org).
# GHz S RI R 50.0 
!freq ReS11 ImS11 ReS12 ImS12 ReS13 ImS13
! ReS14 ImS14
! ReS21 ImS21 ReS22 ImS22 ReS23 ImS23
! ReS24 ImS24
! ReS31 ImS31 ReS32 ImS32 ReS33 ImS33
! ReS34 ImS34
! ReS41 ImS41 ReS42 ImS42 ReS43 ImS43
! ReS44 ImS44
!
0.0 0.001345536628777 0.0 0.9986544633712 0.0 5.171227843262e-05 0.0 -5.171227841121e-05 6.3329276232905105e-21
 0.9986544633712 0.0 0.001345536628795 0.0 -5.17122784111e-05 6.3329276232770395e-21 5.171227843409e-05 0.0
 5.171227843262e-05 0.0 -5.17122784111e-05 6.3329276232770395e-21 0.001345536628084 0.0 0.9986544633705 0.0
 -5.171227841121e-05 6.3329276232905105e-21 5.171227843409e-05 0.0 0.9986544633705 0.0 0.001345536628112 0.0
0.005 0.001447207111754794 0.0010984065647283983 0.9985259054139313 -0.002819343889911391 7.258849208569758e-05 0.0005860630209187483 -7.042427262996984e-05 -0.00036511674867006406
 0.9985259054139313 -0.002819343889911391 0.001447219041674244 0.0010983996817768397 -7.04214505339881e-05 -0.0003651146829116178 7.250280431554974e-05 0.0005860953081185447
 7.258849208569758e-05 0.0005860630209187483 -7.04214505339881e-05 -0.0003651146829116178 0.001447208377092081 0.0010984731478258577 0.9985259057511054 -0.0028192768187495134
 -7.042427262996984e-05 -0.00036511674867006406 7.250280431554974e-05 0.0005860953081185447 0.9985259057511054 -0.0028192768187495134 0.0014472184445548622 0.001098467235227677
0.006252605252188 0.0014737227662607322 0.0013773625754684722 0.9984921873027093 -0.003524893796112373 7.8476356929721e-05 0.0007328642134070142 -7.564015578446046e-05 -0.00045688053012539655
 0.9984921873027093 -0.003524893796112373 0.0014737414149577242 0.001377353929375657 -7.563576349743509e-05 -0.00045687798449167813 7.834247260578411e-05 0.0007329061631399473
 7.8476356929721e-05 0.0007328642134070142 -7.563576349743509e-05 -0.00045687798449167813 0.001473724673071039 0.0013774457924339448 0.9984921877593177 -0.00352480997378839
 -7.564015578446046e-05 -0.00045688053012539655 7.834247260578411e-05 0.0007329061631399473 0.9984921877593177 -0.00352480997378839 0.0014737404113732433 0.0013774383442302469
0.01250521050438 0.0016124371118283244 0.0027838988202234247 0.9983147265994365 -0.007050747364663148 0.00011183804352724626 0.001466088270028164 -0.00010487358275773421 -0.0009160874365254023
 0.9983147265994365 -0.007050747364663148 0.0016125115710182035 0.002783881117225909 -0.00010485626209278332 -0.0009160827433990869 0.00011130399927623362 0.0014661891536081489
 0.00011183804352724626 0.001466088270028164 -0.00010485626209278332 -0.0009160827433990869 0.0016124441690735171 0.0027840650396614036 0.9983147278771571 -0.007050579958335228
 -0.00010487358275773421 -0.0009160874365254023 0.00011130399927623362 0.0014661891536081489 0.9983147278771571 -0.007050579958335228 0.0016125070245020959 0.002784049591361664
0.01875781575657 0.0017619521869843774 0.004210774603938596 0.9981218824923664 -0.010586176510979425 0.00015186903999663326 0.0022002004473837006 -0.00013949619685997642 -0.0013769568824725327
 0.9981218824923664 -0.010586176510979425 0.0017621194853990564 0.0042107474058544645 -0.000139457554849764 -0.0013769505110257237 0.00015066902484608136 0.0022003801846780698
 0.00015186903999663326 0.0022002004473837006 -0.000139457554849764 -0.0013769505110257237 0.001761967599778937 0.004211023721564765 0.9981218849423462 -0.010585925587052823
 -0.00013949619685997642 -0.0013769568824725327 0.00015066902484608136 0.0022003801846780698 0.9981218849423462 -0.010585925587052823 0.0017621088596021487 0.004210999723596504
0.02501042100875 0.0019225340620504078 0.005656019169700217 0.9979134492585877 -0.014132926485140635 0.00019864245756448062 0.0029352553689618952 -0.00017958938425630526 -0.0018392947466448915
 0.9979134492585877 -0.014132926485140635 0.0019228311478152137 0.005655982030032586 -0.0001795211219964483 -0.0018392872453679612 0.00019651033994510606 0.002935536714042476
 0.00019864245756448062 0.0029352553689618952 -0.0001795211219964483 -0.0018392872453679612 0.0019225610222698415 0.0056563510616347325 0.9979134532398091 -0.014132592069551326
 -0.00017958938425630526 -0.0018392947466448915 0.00019651033994510606 0.002935536714042476 0.9979134532398091 -0.014132592069551326 0.0019228119243368759 0.005656317982131659
0.03126302626094 0.0020944376349821252 0.0071186340569930825 0.9976892096372961 -0.01769176303378555 0.0002522321983631118 0.0036712387294959847 -0.00022523251818567638 -0.002302971843483117
 0.9976892096372961 -0.01769176303378555 0.0020949013988515778 0.007118586525781322 -0.000225126414422316 -0.0023029638413434176 0.0002489012768788501 0.0036716472906280235
 0.0002522321983631118 0.0036712387294959847 -0.000225126414422316 -0.0023029638413434176 0.002094479315109769 0.007119048577355747 0.9976892155090226 -0.01769134511438563
 -0.00022523251818567638 -0.002302971843483117 0.0002489012768788501 0.0036716472906280235 0.9976892155090226 -0.01769134511438563 0.002094871066982754 0.007119005906554239
0.037515631513130004 0.0022779124505107455 0.008597980158595333 0.9974489407799431 -0.021263085290642327 0.0003127121892417783 0.004408109335627018 -0.00027650356102656667 -0.0027678818695735944
 0.9974489407799431 -0.021263085290642327 0.002278579740699528 0.008597921785283926 -0.00027635146372249127 -0.002767874076462092 0.0003079150748876208 0.004408673607446314
 0.0003127121892417783 0.004408109335627018 -0.00027635146372249127 -0.002767874076462092 0.002277972006446161 0.008598477117159248 0.9974489489050057 -0.021262583839363993
 -0.00027650356102656667 -0.0027678818695735944 0.0003079150748876208 0.004408673607446314 0.9974489489050057 -0.021262583839363993 0.002278535798584483 0.008598424370189034
0.043768236765320004 0.0024732049576558397 0.010093591201158887 0.9971924166427328 -0.024847112236013772 0.0003801560303665579 0.005145811894116663 -0.0003334792901384233 -0.0032339286045493273
 0.9971924166427328 -0.024847112236013772 0.002474112592439723 0.01009352153674679 -0.0003332731115616911 -0.0032339218115195354 0.0003736245854461032 0.005146563293728337
 0.0003801560303665579 0.005145811894116663 -0.0003332731115616911 -0.0032339218115195354 0.0024732855274889787 0.01009417037579665 0.997192427386153 -0.0248465271960376
 -0.0003334792901384233 -0.0032339286045493273 0.0003736245854461032 0.005146563293728337 0.997192427386153 -0.0248465271960376 0.002474052543967084 0.01009410709500013
0.050020842017509996 0.002680559565349491 0.01160509665793424 0.9969194091789753 -0.02844395972186858 0.0004546367926710961 0.00588428229078537 -0.0003962353880498825 -0.0037010206227046103
 0.9969194091789753 -0.02844395972186858 0.0026817443439353873 0.011605015256624147 -0.0003959671015624086 -0.0037010157021317176 0.00044610209918890967 0.005885255195535507
 0.0004546367926710961 0.00588428229078537 -0.0003959671015624086 -0.0037010157021317176 0.002680664270180872 0.011605757779539743 0.9969194229095112 -0.028443291022404216
 -0.0003962353880498825 -0.0037010206227046103 0.00044610209918890967 0.005885255195535507 0.9969194229095112 -0.028443291022404216 0.002681665698660553 0.01160568353636008
0.055454545454549996 0.0028707415977944645 0.01293130508039614 0.9966685928351782 -0.03158018146259094 0.0005251339234948705 0.006526604507809855 -0.00045552468346762474 -0.004107717318891258
 0.9966685928351782 -0.03158018146259094 0.002872197100705407 0.012931213120866234 -0.000455195950578234 -0.0041077147972651655 0.0005146393356647418 0.00652780015392741
 0.0005251339234948705 0.006526604507809855 -0.000455195950578234 -0.0041077147972651655 0.002870869798398323 0.012932037166886994 0.9966686094647828 -0.031579439986327854
 -0.00045552468346762474 -0.004107717318891258 0.0005146393356647418 0.00652780015392741 0.9966686094647828 -0.031579439986327854 0.002872100275657267 0.012931953072858432
0.056273447269699996 0.0029002191917146965 0.013132183910754726 0.9966296890281618 -0.032053678247697545 0.0005362268800916057 0.006623450172063691 -0.0004648464724695954 -0.004169068703676213
 0.9966296890281618 -0.032053678247697545 0.0029017179040486843 0.013132090331348033 -0.00046450811045181954 -0.004169066609373774 0.0005254192261605243 0.006624681958116809
 0.0005362268800916057 0.006623450172063691 -0.00046450811045181954 -0.004169066609373774 0.0029003511356736783 0.013132926671541163 0.9966297061189351 -0.03205292579525311
 -0.0004648464724695954 -0.004169068703676213 0.0005254192261605243 0.006624681958116809 0.9966297061189351 -0.03205292579525311 0.0029016181762007006 0.013132841068184487
0.06252605252188 0.003132425570789282 0.014674577449677415 0.9963230259654681 -0.03567627369965234 0.0006249979227391375 0.007363240370635579 -0.0005393860974083729 -0.004637984400948254
 0.9963230259654681 -0.03567627369965234 0.0031342750073159384 0.014674471256616056 -0.0005389697498041731 -0.004637986168272256 0.0006116468006544482 0.007364771451957578
 0.0006249979227391375 0.007363240370635579 -0.0005389697498041731 -0.004637986168272256 0.0031325878402758485 0.014675401494605741 0.9963230467938322 -0.03567543738635268
 -0.0005393860974083729 -0.004637984400948254 0.0006116468006544482 0.007364771451957578 0.9963230467938322 -0.03567543738635268 0.00313415171447292 0.014675304165347278
0.06877865777407 0.003377419421356903 0.01623202646257805 0.995999189215291 -0.03931171970134156 0.0007210206892989624 0.008103573747171508 -0.0006199267354090226 -0.005107679196378975
 0.995999189215291 -0.03931171970134156 0.0033796563821883144 0.01623190722685631 -0.0006194245487867121 -0.0051076859423034 0.0007048548019513611 0.008105447614757715
 0.0007210206892989624 0.008103573747171508 -0.0006194245487867121 -0.0051076859423034 0.003377615085477296 0.016232931393049113 0.9959992141639376 -0.039310799400805604
 -0.0006199267354090226 -0.005107679196378975 0.0007048548019513611 0.008105447614757715 0.9959992141639376 -0.039310799400805604 0.0033795070449085356 0.0162328220055019
0.07503126302626001 0.00363544053893362 0.017804296981325074 0.9956579476916293 -0.042959965410100845 0.0008243650093643146 0.00884436772799996 -0.0007065397498610317 -0.005578063961085081
 0.9956579476916293 -0.042959965410100845 0.003638101843002425 0.017804164281051974 -0.0007059439267808392 -0.005578076884274347 0.0008051122825335059 0.00884663098915817
 0.0008243650093643146 0.00884436772799996 -0.0007059439267808392 -0.005578076884274347 0.003635672648708974 0.01780528235560245 0.9956579771489242 -0.042958960976648246
 -0.0007065397498610317 -0.005578063961085081 0.0008051122825335059 0.00884663098915817 0.9956579771489242 -0.042958960976648246 0.0036379239835702 0.017805160611650054
0.08128386827845 0.003906727837487639 0.019391166639583363 0.9952990701897387 -0.04662094070369815 0.0009350997021926327 0.009585536659990424 -0.0007992953600316467 -0.006049048601512722
 0.9952990701897387 -0.04662094070369815 0.003909850331840278 0.019391020060352256 -0.0007985981586935942 -0.006049068982377612 0.0009124873018922577 0.009588239077595227
 0.0009350997021926327 0.009585536659990424 -0.0007985981586935942 -0.006049068982377612 0.003906999425771632 0.01939223196880901 0.9952991045504621 -0.04661985197608897
 -0.0007992953600316467 -0.006049048601512722 0.0009124873018922577 0.009588239077595227 0.9952991045504621 -0.04661985197608897 0.00390964147351127 0.01939209760533173
0.08753647353064001 0.00419151935931917 0.02099242105334722 0.9949223255495107 -0.05029455974710504 0.001053292510049431 0.010326992060167824 -0.0008982626011069613 -0.006520541813321471
 0.9949223255495107 -0.05029455974710504 0.004195139927838547 0.020992260188420434 -0.0008974563351379449 -0.0065205710140670585 0.0010270468633847402 0.01033018659179652
 0.001053292510049431 0.010326992060167824 -0.0008974563351379449 -0.0065205710140670585 0.004191833440215461 0.02099356580391692 0.9949223652149559 -0.05029338654578256
 -0.0008982626011069613 -0.006520541813321471 0.0010270468633847402 0.01033018659179652 0.9949223652149559 -0.05029338654578256 0.004194897594084505 0.02099341859327133
0.09378907878283 0.00449005226109629 0.022607851237999847 0.9945274827967566 -0.053980723525164934 0.0011790100336739316 0.011068642791735516 -0.001003509281008236 -0.006992450911415681
 0.9945274827967566 -0.053980723525164934 0.004494207834045533 0.022607675688151432 -0.0010025863194593869 -0.006992490376072842 0.0011488568530362501 0.011072385628698006
 0.0011790100336739316 0.011068642791735516 -0.0010025863194593869 -0.006992490376072842 0.00449041182973654 0.02260907482888175 0.9945275281755988 -0.05397946565472919
 -0.001003509281008236 -0.006992450911415681 0.0011488568530362501 0.011072385628698006 0.9945275281755988 -0.05397946565472919 0.00449392954756824 0.022608914579234456
0.100041684035 0.004802562785072839 0.02423725170199578 0.9941143112723236 -0.05767932170163996 0.0013123176701859381 0.011810395198368625 -0.0011151019340899211 -0.007464681704513675
 0.9941143112723236 -0.05767932170163996 0.004807290347929058 0.02423706107524794 -0.0011140547015067559 -0.007464732958970555 0.0012779819799921429 0.011814745804449137
 0.0013123176701859381 0.011810395198368625 -0.0011140547015067559 -0.007464732958970555 0.0048029708170396505 0.024238553506821133 0.9941143627814298 -0.05767797894842336
 -0.0011151019340899211 -0.007464681704513675 0.0012779819799921429 0.011814745804449137 0.9941143627814298 -0.05767797894842336 0.004806973630041616 0.024238380062176254
0.1059090909091 0.005108742863582685 0.025778795804277832 0.9937097187153032 -0.06116126573760284 0.0014443730168189506 0.012506458081733523 -0.0012256495045199875 -0.007908027490671383
 0.9937097187153032 -0.06116126573760284 0.005114040873732998 0.02577859067885298 -0.0012244788165989584 -0.007908091269293545 0.0014058618104895771 0.012511436045354119
 0.0014443730168189506 0.012506458081733523 -0.0012244788165989584 -0.007908091269293545 0.005109199061863277 0.02578017039358796 0.9937097763636978 -0.06115984312101647
 -0.0012256495045199875 -0.007908027490671383 0.0014058618104895771 0.012511436045354119 0.9937097763636978 -0.06115984312101647 0.00511368583549427 0.025779984456748326
0.1062942892872 0.005129286217400559 0.025880419022776567 0.9936825807512467 -0.06139023399893585 0.0014532795516401032 0.012552153205865706 -0.0012331057732142695 -0.007937138404997098
 0.9936825807512467 -0.06139023399893585 0.005134622820415476 0.02588021293375015 -0.001231926749868092 -0.007937203056989424 0.0014144857174208342 0.012557174355955353
 0.0014532795516401032 0.012552153205865706 -0.001231926749868092 -0.007937203056989424 0.005129745668404711 0.025881798368401623 0.9936826388159089 -0.06138880613217856
 -0.0012331057732142695 -0.007937138404997098 0.0014144857174208342 0.012557174355955353 0.9936826388159089 -0.06138880613217856 0.005134265189866706 0.025881611608435204
0.11254689453939999 0.005470456837900083 0.027537150753737298 0.9932320615548788 -0.06511333124982643 0.0016019584847004353 0.013293818401213053 -0.0013575846399110554 -0.008409723564383083
 0.9932320615548788 -0.06511333124982643 0.005476439605220775 0.02753692882279438 -0.0013562663620246764 -0.008409803303508467 0.0015584302442682824 0.013299576219516576
 0.0016019584847004353 0.013293818401213053 -0.0013562663620246764 -0.008409803303508467 0.005470970643133677 0.027538606919618545 0.9932321266093758 -0.06511181802214536
 -0.0013575846399110554 -0.008409723564383083 0.0015584302442682824 0.013299576219516576 0.9932321266093758 -0.06511181802214536 0.005476038577679958 0.027538406759249377
0.11879949979160001 0.005826307862650648 0.029207244566761246 0.992762524659025 -0.06884847621700642 0.0017584158908125812 0.01403529010091565 -0.0014886009531921848 -0.008882338022325563
 0.992762524659025 -0.06884847621700642 0.005832974001874958 0.029207006418938322 -0.0014871360133128096 -0.008882434620018843 0.001709876387262204 0.014041854098932917
 0.0017584158908125812 0.01403529010091565 -0.0014871360133128096 -0.008882434620018843 0.005826878936314028 0.029208776783518294 0.9927625971473287 -0.06884687736558048
 -0.0014886009531921848 -0.008882338022325563 0.001709876387262204 0.014041854098932917 0.9927625971473287 -0.06884687736558048 0.005832527088849176 0.029208563172156126
0.1250521050438 0.006197071380611385 0.030890497578758957 0.9922737417972757 -0.07259552423175682 0.001922711746666059 0.014776465402960062 -0.0016262156573177604 -0.009354880875073138
 0.9922737417972757 -0.07259552423175682 0.006204458192246648 0.030890242842326155 -0.0016245967047299672 -0.009354996184571772 0.0018688835631050498 0.014783908517095896
 0.001922711746666059 0.014776465402960062 -0.0016245967047299672 -0.009354996184571772 0.006197702615484672 0.030892105031795066 0.9922738221735999 -0.0725938394745514
 -0.0016262156573177604 -0.009354880875073138 0.0018688835631050498 0.014783908517095896 0.9922738221735999 -0.0725938394745514 0.006203962900318582 0.030891877952469508
0.131304710296 0.00658297828584599 0.032586705813252306 0.9917654855633204 -0.07635432370121834 0.0020949045247182978 0.015517239237646365 -0.0017704881688403817 -0.009827249448117597
 0.9917654855633204 -0.07635432370121834 0.006591123173024247 0.03258643411811581 -0.0017687079100007124 -0.009827385404423013 0.002035509720549935 0.015525637866441094
 0.0020949045247182978 0.015517239237646365 -0.0017687079100007124 -0.009827385404423013 0.00658367255259133 0.03258838763823162 0.9917655742929165 -0.0763525527414036
 -0.0017704881688403817 -0.009827249448117597 0.002035509720549935 0.015525637866441094 0.9917655742929165 -0.0763525527414036 0.006590577003110409 0.03258814710630368
0.1375573155481 0.006891063087632839 0.03407342589280512 0.9913307513710626 -0.07990240155805342 0.0022522497593469104 0.016234593476376485 -0.0018987547208267448 -0.010276392133176469
 0.9913307513710626 -0.07990240155805342 0.0069000075545344285 0.0340731398483056 -0.001896802720491846 -0.010276548716159123 0.002187160823376239 0.016243929246518032
 0.0022522497593469104 0.016234593476376485 -0.001896802720491846 -0.010276548716159123 0.006891824361813402 0.03407518062162804 0.9913308488362331 -0.0799005442189808
 -0.0018987547208267448 -0.010276392133176469 0.002187160823376239 0.016243929246518032 0.9913308488362331 -0.0799005442189808 0.006899407046859791 0.03407493102541033
0.1438099208003 0.007209816558620266 0.03555306350704727 0.9908810306061475 -0.08344226140463955 0.0024159692140119093 0.016949527047561922 -0.0020321729512468023 -0.010723343431648604
 0.9908810306061475 -0.08344226140463955 0.007219598820578392 0.035552762692973625 -0.002030041431665323 -0.010723522518026557 0.0023449346834024908 0.0169598690783524
 0.0024159692140119093 0.016949527047561922 -0.002030041431665323 -0.010723522518026557 0.007210647879900876 0.035554890163709746 0.9908811372707265 -0.08344031739407955
 -0.0020321729512468023 -0.010723343431648604 0.0023449346834024908 0.0169598690783524 0.9908811372707265 -0.08344031739407955 0.007218941293025731 0.035554631631932176
0.1500625260525 0.0075391363384369105 0.03702551771619275 0.9904164289288783 -0.08697383870100163 0.0025860133844489656 0.01766198258419022 -0.002170695214963105 -0.011168049189174767
 0.9904164289288783 -0.08697383870100163 0.007549794741770625 0.03702520165164609 -0.0021683764151417158 -0.011168252730263147 0.0025087830472030497 0.017673402503068817
 0.0025860133844489656 0.01766198258419022 -0.0021683764151417158 -0.011168252730263147 0.007540040738823868 0.037027415283958906 0.9904165452662237 -0.0869718077142262
 -0.002170695214963105 -0.011168049189174767 0.0025087830472030497 0.017673402503068817 0.9904165452662237 -0.0869718077142262 0.007549077495171333 0.037027147911884065
0.15631513130469998 0.007878919456504697 0.03849069075174447 0.9899370524076335 -0.09049706868165346 0.0027623322562059854 0.018371903564601434 -0.0023142733463925045 -0.011610456315345135
