! Created with skrf 1.8.0 (http://scikit-rf.org).
# GHz S RI R 50.0 
!freq ReS11 ImS11 ReS12 ImS12 ReS13 ImS13
! ReS14 ImS14
! ReS21 ImS21 ReS22 ImS22 ReS23 ImS23
! ReS24 ImS24
! ReS31 ImS31 ReS32 ImS32 ReS33 ImS33
! ReS34 ImS34
! ReS41 ImS41 ReS42 ImS42 ReS43 ImS43
! ReS44 ImS44
!
0.0 0.0016949418356 0.0 0.9983050581502 0.0 6.536536121837e-05 0.0 -6.53653613071e-05 8.004948049985027e-21
 0.9983050581502 0.0 0.001694941835611 0.0 -6.536536130732e-05 8.004948050011969e-21 6.53653612184e-05 0.0
 6.536536121837e-05 0.0 -6.536536130732e-05 8.004948050011969e-21 0.001694941839864 0.0 0.9983050581544 0.0
 -6.53653613071e-05 8.004948049985027e-21 6.53653612184e-05 0.0 0.9983050581544 0.0 0.001694941839865 0.0
0.005 0.001824025599282247 0.0013911705967173914 0.9981416809515293 -0.0035496130632264034 9.114830126828547e-05 0.0006903849005820348 -8.860471966137867e-05 -0.0004384787720051426
 0.9981416809515293 -0.0035496130632264034 0.0018240570155135256 0.001391152298375088 -8.860474787093152e-05 -0.0004384788624393752 9.094526402541616e-05 0.0006904621556574836
 9.114830126828547e-05 0.0006903849005820348 -8.860474787093152e-05 -0.0004384788624393752 0.0018240248479441882 0.0013911038030011427 0.9981416805737148 -0.0035496801319674924
 -8.860471966137867e-05 -0.0004384787720051426 9.094526402541616e-05 0.0006904621556574836 0.9981416805737148 -0.0035496801319674924 0.0018240570143420974 0.0013910849564199243
0.006252605252188 0.0018580172049277523 0.0017443929077358368 0.9980983649809572 -0.0044378595873279915 9.860029690717793e-05 0.0008633196491552124 -9.522063258161497e-05 -0.000548650235199084
 0.9980983649809572 -0.0044378595873279915 0.0018580663138396119 0.0017443696944621253 -9.522067593528772e-05 -0.0005486503481815657 9.828307095977559e-05 0.0008634200249533311
 9.860029690717793e-05 0.0008633196491552124 -9.522067593528772e-05 -0.0005486503481815657 0.001858016120125256 0.0017443094355984907 0.998098364480345 -0.004437943411248408
 -9.522063258161497e-05 -0.000548650235199084 9.828307095977559e-05 0.0008634200249533311 0.998098364480345 -0.004437943411248408 0.0018580664026937627 0.001744285523123794
0.01250521050438 0.0020377532401248152 0.0035249316988588573 0.9978677080148718 -0.008876332472465201 0.00014178862002926023 0.001727013745338065 -0.00013305098056988707 -0.0010998414033568447
 0.9978677080148718 -0.008876332472465201 0.002037949326312154 0.003524881829992175 -0.00013305114478416388 -0.0010998416295402332 0.00014052359717314664 0.001727255814676104
 0.00014178862002926023 0.001727013745338065 -0.00013305114478416388 -0.0010998416295402332 0.002037749445885119 0.003524765099535142 0.9978677065604235 -0.008876499868236428
 -0.00013305098056988707 -0.0010998414033568447 0.00014052359717314664 0.001727255814676104 0.9978677065604235 -0.008876499868236428 0.002037950235111015 0.0035247136817605053
0.01875781575657 0.002234571951761292 0.005330434719244534 0.9976127795929366 -0.013326181464011483 0.00019503398934356863 0.002591600517274823 -0.0001789777643701137 -0.0016528001385009326
 0.9976127795929366 -0.013326181464011483 0.002235012553148328 0.005330354462222585 -0.00017897812139791127 -0.0016528004805800981 0.00019219226202353323 0.0025920342585115403
 0.00019503398934356863 0.002591600517274823 -0.00017897812139791127 -0.0016528004805800981 0.002234563836051291 0.0053301852132505495 0.997612776747657 -0.013326432338051761
 -0.0001789777643701137 -0.0016528001385009326 0.00019219226202353323 0.0025920342585115403 0.997612776747657 -0.013326432338051761 0.0022350150377393636 0.005330102374914029
0.02501042100875 0.0024488810818621065 0.00715834992698856 0.9973332591040149 -0.01778952582660899 0.00025844188646858467 0.0034570807975489236 -0.0002331180034096627 -0.002207263256390348
 0.9973332591040149 -0.01778952582660899 0.002449663537010596 0.007158235295140684 -0.0002331186214243858 -0.002207263719311638 0.0002533943465858798 0.0034577645875539247
 0.00025844188646858467 0.0034570807975489236 -0.0002331186214243858 -0.002207263719311638 0.0024488670225197556 0.0071580177249287455 0.9973332544249733 -0.01778986012939283
 -0.0002331180034096627 -0.002207263256390348 0.0002533943465858798 0.0034577645875539247 0.9973332544249733 -0.01778986012939283 0.002449668356674368 0.007157899264616683
0.03126302626094 0.0026810714967614117 0.009007345655940994 0.9970288106847257 -0.022267250508827146 0.0003321180127039533 0.0043233788606172 -0.0002955851107698327 -0.0027630367968390873
 0.9970288106847257 -0.022267250508827146 0.0026822930023528576 0.009007192415859096 -0.00029558605486310454 -0.002763037387820375 0.0003242347881445394 0.0043243795269490935
 0.0003321180127039533 0.0043233788606172 -0.00029558605486310454 -0.002763037387820375 0.0026810498680445733 0.00900693098650564 0.9970288037288155 -0.022267668207313917
 -0.0002955851107698327 -0.0027630367968390873 0.0003242347881445394 0.0043243795269490935 0.9970288037288155 -0.022267668207313917 0.0026823009262208902 0.00900677242366806
0.037515631513130004 0.002931525269400066 0.010876539731135415 0.9966990916146574 -0.02675977696725142 0.00041616715921766293 0.005190388229454489 -0.00036648964495192944 -0.0033199502225914387
 0.9966990916146574 -0.02675977696725142 0.002933282920224187 0.010876343406317773 -0.00036649097758280374 -0.0033199509511692244 0.00040481737180926786 0.005191781135231567
 0.00041616715921766293 0.005190388229454489 -0.00036649097758280374 -0.0033199509511692244 0.0029314944437500282 0.010876042840312112 0.9966990819395298 -0.026760278045973425
 -0.00036648964495192944 -0.0033199502225914387 0.00040481737180926786 0.005191781135231567 0.9966990819395298 -0.026760278045973425 0.0029332947284561534 0.010875839418545592
0.043768236765320004 0.003200618792406719 0.012765264846861378 0.9963437557474196 -0.03126729771607026 0.0005106926685142403 0.006057985601027069 -0.00044593956051363395 -0.003877842509922556
 0.9963437557474196 -0.03126729771607026 0.00320300961340935 0.012765020719795546 -0.00044594134177525354 -0.0038778433880230735 0.0004952443296923806 0.0060598547398124395
 0.0005106926685142403 0.006057985601027069 -0.00044594134177525354 -0.0038778433880230735 0.0032005771381002136 0.012764686009067404 0.9963437429088092 -0.031267882166526956
 -0.00044593956051363395 -0.003877842509922556 0.0004952443296923806 0.0060598547398124395 0.9963437429088092 -0.031267882166526956 0.0032030260946531498 0.012764432697570978
0.050020842017509996 0.0034887242069754783 0.014672971647457136 0.9959624552655695 -0.03578987317269786 0.0006157961002379015 0.006926036612078391 -0.0005340402841803789 -0.004436556405193797
 0.9959624552655695 -0.03578987317269786 0.003491845182452645 0.014672674760375766 -0.0005340425721126407 -0.0044365574471784235 0.0005956160802545658 0.006928474706763784
 0.0006157961002379015 0.006926036612078391 -0.0005340425721126407 -0.0044365574471784235 0.0034886700904863182 0.014672311163870364 0.9959624388181323 -0.035790540995412436
 -0.0005340402841803789 -0.004436556405193797 0.0005956160802545658 0.006928474706763784 0.9959624388181323 -0.035790540995412436 0.0034918671350435892 0.014672002657796397
0.055454545454549996 0.003754822889347021 0.01634586885312981 0.9956097365401343 -0.039732337386445625 0.000715802091992488 0.007680657086284804 -0.0006177079744836244 -0.00492264158104398
 0.9956097365401343 -0.039732337386445625 0.0037586571428026567 0.0163455219030641 -0.0006177107484193022 -0.0049226427790438525 0.0006909950422272757 0.007683671778432946
 0.000715802091992488 0.007680657086284804 -0.0006177107484193022 -0.0049226427790438525 0.003754756614276793 0.016345137680025875 0.9956097165931086 -0.039733077672147656
 -0.0006177079744836244 -0.00492264158104398 0.0006909950422272757 0.007683671778432946 0.9956097165931086 -0.039733077672147656 0.0037586845050750035 0.01634477668677485
0.056273447269699996 0.0037962101263827597 0.016599181126773117 0.9955548417333061 -0.040327479187432784 0.0007315769897519882 0.00779439867197627 -0.0006308947107555293 -0.004995935620430077
 0.9955548417333061 -0.040327479187432784 0.003800158226708727 0.016598826281590776 -0.0006308975615452944 -0.00499593684315101 0.0007060310310511684 0.007797507275242335
 0.0007315769897519882 0.00779439867197627 -0.0006308975615452944 -0.00499593684315101 0.0037961419116448744 0.016598439323439303 0.9955548212294134 -0.04032823039427666
 -0.0006308947107555293 -0.004995935620430077 0.0007060310310511684 0.007797507275242335 0.9955548212294134 -0.04032823039427666 0.0038001864573886978 0.0165980700433237
0.06252605252188 0.004123442007616031 0.018543458474266528 0.9951205668044554 -0.04488003313159511 0.0008581326536042257 0.008662922527711912 -0.0007366031571722305 -0.005555823303122347
 0.9951205668044554 -0.04488003313159511 0.0041283142147444316 0.018543040231564206 -0.0007366066253287883 -0.005555824725973445 0.0008265854140425254 0.008666812122869391
 0.0008581326536042257 0.008662922527711912 -0.0007366066253287883 -0.005555824725973445 0.004123358057970791 0.018542635704765175 0.9951205417950603 -0.04488086774339365
 -0.0007366031571722305 -0.005555823303122347 0.0008265854140425254 0.008666812122869391 0.9951205417950603 -0.04488086774339365 0.004128349540120241 0.01854219979505848
0.06877865777407 0.004470782331487235 0.020505397482618853 0.9946592827433651 -0.04944740943020917 0.0009955580196910473 0.009531453207915928 -0.0008512632943401497 -0.006116061133696572
 0.9946592827433651 -0.04944740943020917 0.004476675664616049 0.020504910159718674 -0.0008512674329733068 -0.00611606277865861 0.000957373136634944 0.009536243309464539
 0.0009955580196910473 0.009531453207915928 -0.0008512674329733068 -0.00611606277865861 0.004470681009638909 0.020504494132377944 0.994659252776897 -0.04944832747287941
 -0.0008512632943401497 -0.006116061133696572 0.000957373136634944 0.009536243309464539 0.994659252776897 -0.04944832747287941 0.004476718909455078 0.020503985459130538
0.07503126302626001 0.004838590670881111 0.022484610672916253 0.9941706428386702 -0.05402944938428883 0.001143945473093165 0.010399830629734031 -0.0009749700642015088 -0.006676488767070017
 0.9941706428386702 -0.05402944938428883 0.004845602210419889 0.022484048341189843 -0.000974974925085163 -0.006676490658754543 0.0010984856434537427 0.010405649883167258
 0.001143945473093165 0.010399830629734031 -0.000974974925085163 -0.006676490658754543 0.004838470339374557 0.02248362715410026 0.9941706074607197 -0.05403045089430704
 -0.0009749700642015088 -0.006676488767070017 0.0010984856434537427 0.010405649883167258 0.9941706074607197 -0.05403045089430704 0.004845654208441757 0.022483039301680954
0.08128386827845 0.005227223685642487 0.024480722716651204 0.9936543017489777 -0.05862596770403559 0.0013033847116561204 0.011267890014460227 -0.0011078155869691537 -0.007236943472645048
 0.9936543017489777 -0.05862596770403559 0.005235450598493232 0.024480079197829387 -0.0011078212208039454 -0.0072369456383339 0.0012500117844861938 0.011274876294978977
 0.0013033847116561204 0.011267890014460227 -0.0011078212208039454 -0.0072369456383339 0.005227082707832739 0.024479659476224182 0.9936542605020392 -0.05862705272058875
 -0.0011078155869691537 -0.007236943472645048 0.0012500117844861938 0.011274876294978977 0.9936542605020392 -0.05862705272058875 0.0052355121915960545 0.024478985743314936
0.08753647353064001 0.0056370350701070455 0.026493365906286676 0.9931099158056321 -0.06323675700152387 0.0014739626076665463 0.012135462187389652 -0.001249889062352774 -0.007797259897474262
 0.9931099158056321 -0.06323675700152387 0.0056465746340499 0.02649263476790067 -0.0012498955189322047 -0.007797262367148537 0.0014120376868216901 0.012143762697361473
 0.0014739626076665463 0.012135462187389652 -0.0012498955189322047 -0.007797262367148537 0.005636871811365124 0.026492223419571803 0.9931098682293964 -0.0632379255733968
 -0.001249889062352774 -0.007797259897474262 0.0014120376868216901 0.012143762697361473 0.9931098682293964 -0.0632379255733968 0.005646646672789643 0.02649145681416956
0.09378907878283 0.006068375469035557 0.028522176910312273 0.9925371432879172 -0.06786159100764014 0.00165576307379109 0.013002373802465297 -0.0014012766660687597 -0.00835726991225294
 0.9925371432879172 -0.06786159100764014 0.006079325097082258 0.02852135146023806 -0.001401283994386987 -0.00835727271862716 0.001584646629298607 0.013012145167264559
 0.00165576307379109 0.013002373802465297 -0.001401283994386987 -0.00835727271862716 0.006068188296520132 0.02852095568441233 0.9925370889176961 -0.0678628431898893
 -0.0014012766660687597 -0.00835726991225294 0.001584646629298607 0.013012145167264559 0.9925370889176961 -0.0678628431898893 0.0060794084399901 0.02852008891796752
0.100041684035 0.00652159236761277 0.030566794412565934 0.9919356446765382 -0.07250022691357047 0.0018488669322065986 0.013868447522549029 -0.0015620614429009297 -0.008916802509438436
 0.9919356446765382 -0.07250022691357047 0.006534049632897254 0.030565867692531928 -0.0015620696914074512 -0.008916805687981871 0.0017679189189354955 0.013879855884762034
 0.0018488669322065986 0.013868447522549029 -0.0015620696914074512 -0.008916805687981871 0.006521379652013239 0.030565494984345448 0.9919355830442573 -0.07250156276991859
 -0.0015620614429009297 -0.008916802509438436 0.0017679189189354955 0.013879855884762034 0.9919355830442573 -0.07250156276991859 0.006534145146561743 0.030564520464904366
0.1059090909091 0.006967091448090925 0.03249950527386528 0.9913447756634334 -0.0768654181357655 0.0020404239037392193 0.014680242448688454 -0.0017215586610779556 -0.009441275389726705
 0.9913447756634334 -0.0768654181357655 0.006981052377047505 0.03249847695062233 -0.001721567816748879 -0.009441278952242062 0.0019496675432909727 0.014693346623127128
 0.0020404239037392193 0.014680242448688454 -0.001721567816748879 -0.009441278952242062 0.00696685328474193 0.03249813297981748 0.991344706787052 -0.07686683257321411
 -0.0017215586610779556 -0.009441275389726705 0.0019496675432909727 0.014693346623127128 0.991344706787052 -0.07686683257321411 0.006981160107078349 0.03249705016370567
0.1062942892872 0.006997029965251969 0.03262685733568944 0.9913050828948524 -0.07715240713746317 0.002053351785790974 0.014733502165674794 -0.001732323197509464 -0.009475683743309404
 0.9913050828948524 -0.07715240713746317 0.007011092625769214 0.032625822113825656 -0.001732332414213781 -0.009475687332265696 0.001961931768933698 0.014746723277366855
 0.002053351785790974 0.014733502165674794 -0.001732332414213781 -0.009475687332265696 0.006996790081185923 0.03262548027569438 0.9913050135281604 -0.07715382673651514
 -0.001732323197509464 -0.009475683743309404 0.001961931768933698 0.014746723277366855 0.9913050135281604 -0.07715382673651514 0.007011201184872634 0.03262439010009502
0.11254689453939999 0.007495029035980047 0.034702003488872354 0.9906451235404488 -0.0818178606763742 0.0022692918912836746 0.015597352833522473 -0.0019121383833646738 -0.01003373669584826
 0.9906451235404488 -0.0818178606763742 0.007510795059450143 0.034700852251285434 -0.0019121486160101943 -0.010033740736261974 0.0021667591774657104 0.015612572146574358
 0.0022692918912836746 0.015597352833522473 -0.0019121486160101943 -0.010033740736261974 0.007494760362715061 0.03470054940102636 0.9906450459620624 -0.08181936409214792
 -0.0019121383833646738 -0.01003373669584826 0.0021667591774657104 0.015612572146574358 0.9906450459620624 -0.08181936409214792 0.007510917546168029 0.03469933534608303
0.11879949979160001 0.00801592677773657 0.03679186853198657 0.9899554351080267 -0.08649630415157786 0.0024967580335331805 0.01645981102411346 -0.002101579990586934 -0.010590781466744949
 0.9899554351080267 -0.08649630415157786 0.008033494366624237 0.03679059347318493 -0.00210159128688072 -0.010590786002438594 0.0023824718075242638 0.01647722377830226
 0.0024967580335331805 0.01645981102411346 -0.00210159128688072 -0.010590786002438594 0.008015627700059966 0.036790338049729025 0.9899553488358638 -0.08649789146746706
 -0.002101579990586934 -0.010590781466744949 0.0023824718075242638 0.01647722377830226 0.9899553488358638 -0.08649789146746706 0.008033631670639087 0.03678899156242802
0.1250521050438 0.008560056653848281 0.03889608514934508 0.9892356892089215 -0.09118744265430363 0.0027358174014580163 0.01732068473741438 -0.0023007174327368913 -0.011146635178554529
 0.9892356892089215 -0.09118744265430363 0.00857952427029325 0.03889467816177199 -0.0023007298404307446 -0.011146640256186153 0.0026091368676909375 0.017340496046303253
 0.0027358174014580163 0.01732068473741438 -0.0023007298404307446 -0.011146640256186153 0.008559725563225666 0.03889447894076157 0.9892355937558563 -0.09118911395814926
 -0.0023007174327368913 -0.011146635178554529 0.0026091368676909375 0.017340496046303253 0.9892355937558563 -0.09118911395814926 0.008579677288903255 0.03889299112738829
0.131304710296 0.009127748228123529 0.04101428241105875 0.9884855607856545 -0.09589097041429931 0.0029865334647490717 0.018179778572459896 -0.0025096164332614095 -0.011701111999070068
 0.9884855607856545 -0.09589097041429931 0.009149214619156465 0.041012735073350653 -0.0025096300003625205 -0.011701117668084285 0.002846817993610608 0.018202203506830043
 0.0029865334647490717 0.018179778572459896 -0.0025096300003625205 -0.011701117668084285 0.009127383523048932 0.041012601174949675 0.988485455658529 -0.09589272580233167
 -0.0025096164332614095 -0.011701111999070068 0.002846817993610608 0.018202203506830043 0.988485455658529 -0.09589272580233167 0.009149384256621842 0.04101096278913235
0.1375573155481 0.009593828568659606 0.04287180164251745 0.9878302814971163 -0.10033214867763196 0.0032191791757050473 0.019010576810909945 -0.0026987174205664144 -0.012227601647086733
 0.9878302814971163 -0.10033214867763196 0.009617401205794232 0.04287013648113399 -0.002698732413443809 -0.012227607920090424 0.003066111579172191 0.019035595850389612
 0.0032191791757050473 0.019010576810909945 -0.002698732413443809 -0.012227607920090424 0.00959342957488742 0.04287004555371408 0.9878301662559614 -0.1003339881665863
 -0.0026987174205664144 -0.012227601647086733 0.003066111579172191 0.019035595850389612 0.9878301662559614 -0.1003339881665863 0.009617587341605999 0.042868279215919874
0.1438099208003 0.010076463764235937 0.04471869180123025 0.9871516466576489 -0.10476117639314893 0.0034612008580293782 0.019837313315410283 -0.0028953338876904836 -0.012750439159728335
 0.9871516466576489 -0.10476117639314893 0.010102243114115715 0.04471690196361714 -0.002895350393720814 -0.01275044607949835 0.003294199086559011 0.019865124418275752
 0.0034612008580293782 0.019837313315410283 -0.002895350393720814 -0.01275044607949835 0.010076029057462327 0.044716861523003644 0.9871515208129997 -0.1047631000681696
 -0.0028953338876904836 -0.012750439159728335 0.003294199086559011 0.019865124418275752 0.9871515208129997 -0.1047631000681696 0.010102446476323286 0.04471495963600604
0.1500625260525 0.010575470374238198 0.04655477263308596 0.9864498442153277 -0.10917791646887104 0.003712506164036788 0.020659881319438883 -0.003099377691371335 -0.013269527525891629
 0.9864498442153277 -0.10917791646887104 0.01060355722233287 0.04655285082207087 -0.003099395800701182 -0.013269535136350982 0.003530992047216425 0.02069068969096063
 0.003712506164036788 0.020659881319438883 -0.003099395800701182 -0.013269535136350982 0.010574998548080366 0.046552868852093636 0.9864497072734941 -0.10917992441822862
 -0.003099377691371335 -0.013269527525891629 0.003530992047216425 0.02069068969096063 0.9864497072734941 -0.10917992441822862 0.010603778533566924 0.04655082334848918
0.15631513130469998 0.011090663499886222 0.04837986926476025 0.9857250632420986 -0.11358223288871949 0.003973001549228533 0.02147817605696978 -0.0033107595185350672 -0.013784771940819748
 0.9857250632420986 -0.11358223288871949 0.011121158958857723 0.04837780772437172 -0.0033107793241652804 -0.013784780286891932 0.003776400859909488 0.021512194068606896
