! Created with skrf 1.8.0 (http://scikit-rf.org).
# GHz S RI R 50.0 
!freq ReS11 ImS11 ReS12 ImS12 ReS13 ImS13
! ReS14 ImS14
! ReS21 ImS21 ReS22 ImS22 ReS23 ImS23
! ReS24 ImS24
! ReS31 ImS31 ReS32 ImS32 ReS33 ImS33
! ReS34 ImS34
! ReS41 ImS41 ReS42 ImS42 ReS43 ImS43
! ReS44 ImS44
!
0.0 0.001399654073375 0.0 0.9986003459266 0.0 5.400525153174e-05 0.0 -5.400525188712e-05 6.613735886070807e-21
 0.9986003459266 0.0 0.001399654073401 0.0 -5.400525188741e-05 6.613735886106321e-21 5.400525153223e-05 0.0
 5.400525153174e-05 0.0 -5.400525188741e-05 6.613735886106321e-21 0.00139965405207 0.0 0.9986003459053 0.0
 -5.400525188712e-05 6.613735886070807e-21 5.400525153223e-05 0.0 0.9986003459053 0.0 0.001399654052083 0.0
0.005 0.001505588187212961 0.0011405240245262443 0.9984663727667756 -0.002932601224459607 7.617105328831079e-05 0.0006241637898849074 -7.383621172292319e-05 -0.0003867617059317662
 0.9984663727667756 -0.002932601224459607 0.001505591670276781 0.001140521997172412 -7.38406384220759e-05 -0.0003867650975577149 7.614377595349321e-05 0.0006241742980889931
 7.617105328831079e-05 0.0006241637898849074 -7.38406384220759e-05 -0.0003867650975577149 0.0015055856287095755 0.0011404582819643377 0.9984663724228111 -0.0029326682842419774
 -7.383621172292319e-05 -0.0003867617059317662 7.614377595349321e-05 0.0006241742980889931 0.9984663724228111 -0.0029326682842419774 0.0015055935435534834 0.0011404536216216869
0.006252605252188 0.0015332605103312458 0.0014301795468472315 0.9984311711936923 -0.0036664883865497747 8.244137515869386e-05 0.000780500823308189 -7.938587941638307e-05 -0.00048396561095423045
 0.9984311711936923 -0.0036664883865497747 0.0015332659544169322 0.0014301769130773679 -7.93927678580505e-05 -0.00048396979343575715 8.23987580530076e-05 0.0007805144418355565
 8.244137515869386e-05 0.000780500823308189 -7.93927678580505e-05 -0.00048396979343575715 0.0015332565794918987 0.0014300973744880954 0.9984311707249721 -0.0036665722086053894
 -7.938587941638307e-05 -0.00048396561095423045 8.23987580530076e-05 0.0007805144418355565 0.9984311707249721 -0.0036665722086053894 0.0015332689519534288 0.0014300914447949527
0.01250521050438 0.001678287533575342 0.002890661272509353 0.99824553893528 -0.007333916416790777 0.00011807076462593695 0.0015613166474001707 -0.0001106092395076752 -0.0009703787657908037
 0.99824553893528 -0.007333916416790777 0.001678309266523085 0.0028906550125698998 -0.00011063638848971268 -0.0009703865096179278 0.00011790085623224872 0.0015613490814699175
 0.00011807076462593695 0.0015613166474001707 -0.00011063638848971268 -0.0009703865096179278 0.0016782724049939886 0.0028904972280526355 0.9982455376341269 -0.007334083814311123
 -0.0001106092395076752 -0.0009703787657908037 0.00011790085623224872 0.0015613490814699175 0.9982455376341269 -0.007334083814311123 0.0016783218110170291 0.0028904842966499954
0.01875781575657 0.0018350293686270345 0.004372244365088278 0.9980432345147371 -0.011011238946622266 0.00016097175576867316 0.002343017934691762 -0.00014776734847956057 -0.0014585141775705556
 0.9980432345147371 -0.011011238946622266 0.001835078193899564 0.004372233464031683 -0.00014782789585704136 -0.001458524751884118 0.00016059016370703627 0.0023430753516464303
 0.00016097175576867316 0.002343017934691762 -0.00014782789585704136 -0.001458524751884118 0.001834995790208591 0.004371998667631383 0.9980432320120884 -0.011011489819142002
 -0.00014776734847956057 -0.0014585141775705556 0.00016059016370703627 0.0023430753516464303 0.9980432320120884 -0.011011489819142002 0.0018351068130692534 0.0043719775382378475
0.02501042100875 0.002003772764874444 0.005872868872687015 0.9978240354939939 -0.014700261892039726 0.00021122397134653496 0.003125660324176896 -0.0001909494475556733 -0.0019481568466753836
 0.9978240354939939 -0.014700261892039726 0.0020038594556778767 0.0058728522933879975 -0.00019105637664406516 -0.0019481693975520484 0.00021054631781769286 0.0031257498173663015
 0.00021122397134653496 0.003125660324176896 -0.00019105637664406516 -0.0019481693975520484 0.002003713498114286 0.005872541746081554 0.9978240314241561 -0.014700596196133724
 -0.0001909494475556733 -0.0019481568466753836 0.00021054631781769286 0.0031257498173663015 0.9978240314241561 -0.014700596196133724 0.002003910673495635 0.005872511105177265
0.03126302626094 0.0021847924966330646 0.007391486156090764 0.997587707309108 -0.01840177174382138 0.00026890772967200964 0.003909224439914904 -0.00024024241548618267 -0.0024391622284529887
 0.997587707309108 -0.01840177174382138 0.002184927800774096 0.007391462839624736 -0.00024040858185794193 -0.0024391757771756273 0.00026784956644331973 0.003909354032130096
 0.00026890772967200964 0.003909224439914904 -0.00024040858185794193 -0.0024391757771756273 0.0021847003095106115 0.0073910778784434285 0.9975877013049034 -0.018402189443796443
 -0.00024024241548618267 -0.0024391622284529887 0.00026784956644331973 0.003909354032130096 0.9975877013049034 -0.018402189443796443 0.0021850081367403937 0.007391036295594899
0.037515631513130004 0.002378357520484676 0.00892742116867463 0.9973340095850574 -0.02211617323157578 0.0003341032364275803 0.004693661591590837 -0.0002957314480617875 -0.0029314105247028534
 0.9973340095850574 -0.02211617323157578 0.002378552163594614 0.008927390034747011 -0.0002959695932626862 -0.0029314239671897327 0.00033258000475991806 0.004693840243428772
 0.0003341032364275803 0.004693661591590837 -0.0002959695932626862 -0.0029314239671897327 0.0023782251879470215 0.008926932071473945 0.9973340012798622 -0.022116674300913432
 -0.0002957314480617875 -0.0029314105247028534 0.00033258000475991806 0.004693840243428772 0.9973340012798622 -0.022116674300913432 0.002378668136597623 0.008926877998863303
0.043768236765320004 0.002584733360884749 0.010480178374739272 0.997062698680798 -0.025843683341975673 0.0004068902087149424 0.00547890767068162 -0.0003575003132211176 -0.0034247927800316593
 0.997062698680798 -0.025843683341975673 0.002584998049309078 0.010480138322146122 -0.0003578230729932493 -0.003424804886596078 0.0004048172185902568 0.005479145290463547
 0.0004068902087149424 0.00547890767068162 -0.0003578230729932493 -0.003424804886596078 0.0025845536621561106 0.010479608834295528 0.9970626877065905 -0.025844267772696283
 -0.0003575003132211176 -0.0034247927800316593 0.0004048172185902568 0.005479145290463547 0.9970626877065905 -0.025844267772696283 0.002585156176637369 0.010479540605995097
0.050020842017509996 0.0028041832206846273 0.012049361545933253 0.9967735289616633 -0.02958441145711985 0.000487347657603663 0.006264888881890418 -0.00042563144942556425 -0.0039192051442604355
 0.9967735289616633 -0.02958441145711985 0.002804528644197548 0.012049311452930629 -0.00042605135902445143 -0.0039192145594817394 0.0004846400770693176 0.00626519633625014
 0.000487347657603663 0.006264888881890418 -0.00042605135902445143 -0.0039192145594817394 0.002803948940907472 0.012048711997898668 0.9967735149504066 -0.02958507924600129
 -0.00042563144942556425 -0.0039192051442604355 0.0004846400770693176 0.00626519633625014 0.9967735149504066 -0.02958507924600129 0.0028047354441189274 0.012048627829022345
0.055454545454549996 0.003005712603388993 0.013426106911425477 0.9965075364513674 -0.03284598536056819 0.0005635577044689657 0.006948464885223056 -0.0004900694648902328 -0.004349622132382236
 0.9965075364513674 -0.03284598536056819 0.003006136858163582 0.013426047166507735 -0.0004905839054387154 -0.004349628010294572 0.0005602296378879419 0.006948842605473275
 0.0005635577044689657 0.006948464885223056 -0.0004905839054387154 -0.004349628010294572 0.0030054250345916207 0.01342538823083407 0.9965075195006784 -0.03284672559545611
 -0.0004900694648902328 -0.004349622132382236 0.0005602296378879419 0.006948842605473275 0.9965075195006784 -0.03284672559545611 0.0030063912493454824 0.013425288666414207
0.056273447269699996 0.0030369685610935233 0.013634634386597018 0.996466253543192 -0.033338398664164486 0.0005755537358455378 0.00705152456641358 -0.0005002059988322237 -0.004414546044927028
 0.996466253543192 -0.033338398664164486 0.003037405394893224 0.013634573111476964 -0.0005007354965800592 -0.004414551287610235 0.000572126586276122 0.007051913691219578
 0.0005755537358455378 0.00705152456641358 -0.0005007354965800592 -0.004414551287610235 0.0030366724892323857 0.013633905323925248 0.996466236125224 -0.033339149815763525
 -0.0005002059988322237 -0.004414546044927028 0.000572126586276122 0.007051913691219578 0.996466236125224 -0.033339149815763525 0.003037667385375098 0.013633803309593094
0.06252605252188 0.0032833494169593204 0.015235698898614307 0.9961406247740626 -0.03710563932712701 0.0006715856204687485 0.007838728737724681 -0.0005813038044725883 -0.0049107146496969655
 0.9961406247740626 -0.03710563932712701 0.003283888324163076 0.015235625279999016 -0.0005819552342662506 -0.004910714112833235 0.0006673537761018269 0.007839212349123884
 0.0006715856204687485 0.007838728737724681 -0.0005819552342662506 -0.004910714112833235 0.0032829843469502364 0.015234890872628044 0.9961406035785635 -0.03710647385345244
 -0.0005813038044725883 -0.0049107146496969655 0.0006673537761018269 0.007839212349123884 0.9961406035785635 -0.03710647385345244 0.003284212024240484 0.015234768986974912
0.06877865777407 0.0035435845709624212 0.016852282469446495 0.9957963945806013 -0.04088609393743505 0.0007755194138302527 0.008626411008322529 -0.0006690033881986845 -0.005407609940393519
 0.9957963945806013 -0.04088609393743505 0.0035442362047779503 0.01685219532667598 -0.0006697890012108562 -0.00540760189115911 0.0007703976038560877 0.00862700291388773
 0.0007755194138302527 0.008626411008322529 -0.0006697890012108562 -0.00540760189115911 0.003543143301215597 0.016851396091409412 0.9957963692351807 -0.040887011857368406
 -0.0006690033881986845 -0.005407609940393519 0.0007703976038560877 0.00862700291388773 0.9957963692351807 -0.040887011857368406 0.0035446281342977936 0.016851252186375853
0.07503126302626001 0.003817931643300082 0.018484129692438907 0.9954333147291882 -0.044679697234958626 0.0008874300553365877 0.009414477172468128 -0.0007633819164892268 -0.005905130133909377
 0.9954333147291882 -0.044679697234958626 0.003818706649342871 0.018484027825821495 -0.0007643138724044407 -0.0059051127136649315 0.0008813328681984007 0.009415192182354488
 0.0008874300553365877 0.009414477172468128 -0.0007643138724044407 -0.0059051127136649315 0.0038174069775395235 0.018483165636049508 0.9954332848599393 -0.044680698572539916
 -0.0007633819164892268 -0.005905130133909377 0.0008813328681984007 0.009415192182354488 0.9954332848599393 -0.044680698572539916 0.003819173329369867 0.01848299744028739
0.08128386827845 0.004106647129606401 0.020130996923821583 0.9950511370406983 -0.04848636359512734 0.0010073912408957418 0.010202829595841324 -0.0008645151574989164 -0.006403172299192823
 0.9950511370406983 -0.04848636359512734 0.004107556147823134 0.02013087911498911 -0.0008656055252417163 -0.006403143523528489 0.0010002331300874349 0.010203683533898264
 0.0010073912408957418 0.010202829595841324 -0.0008656055252417163 -0.006403143523528489 0.004106031876318718 0.02012995592334008 0.995051102271463 -0.04848744838240021
 -0.0008645151574989164 -0.006403172299192823 0.0010002331300874349 0.010203683533898264 0.995051102271463 -0.04848744838240021 0.004108104100364455 0.020129761040812478
0.08753647353064001 0.004409986401678886 0.021792648514326763 0.9946496135696421 -0.05230599074473113 0.0011354753449691081 0.010991367489107999 -0.0009724774340512973 -0.006901632093453203
 0.9946496135696421 -0.05230599074473113 0.0044110400689829155 0.02179251352629234 -0.0009737381923182048 -0.006901589852206773 0.0011271706362653855 0.010992377203989396
 0.0011354753449691081 0.010991367489107999 -0.0009737381923182048 -0.006901589852206773 0.004409273375221026 0.02179153136875245 0.9946495735224526 -0.052307159018351826
 -0.0009724774340512973 -0.006901632093453203 0.0011271706362653855 0.010992377203989396 0.9946495735224526 -0.052307159018351826 0.004411675817351323 0.021791307277526435
0.09378907878283 0.004728203687641085 0.023468854115844665 0.994228496766418 -0.05613846240587326 0.0012717533472865893 0.011779987103817523 -0.0010873415710451687 -0.007400403579315411
 0.994228496766418 -0.05613846240587326 0.004729412639787304 0.02346870069324898 -0.0010887846084778408 -0.0074003456366455445 0.0012622162468898378 0.011781170479959956
 0.0012717533472865893 0.011779987103817523 -0.0010887846084778408 -0.0074003456366455445 0.004727385708068158 0.023467661689740866 0.9942284510606014 -0.05613971420729196
 -0.0010873415710451687 -0.007400403579315411 0.0012622162468898378 0.011781170479959956 0.9942284510606014 -0.05613971420729196 0.0047301427086328856 0.023467405740451124
0.100041684035 0.005061552031118071 0.025159386713728155 0.9937875396205071 -0.0599836502180272 0.0014162947599427544 0.012568581881127075 -0.0012091788411250507 -0.007899379092464513
 0.9937875396205071 -0.0599836502180272 0.005062926905343037 0.025159213582825284 -0.001210815956445928 -0.007899303086902657 0.001405439363554145 0.012569957849690559
 0.0014162947599427544 0.012568581881127075 -0.001210815956445928 -0.007899303086902657 0.0050606219248996425 0.025158119935248253 0.9937874878729364 -0.05998498559619328
 -0.0012091788411250507 -0.007899379092464513 0.001405439363554145 0.012569957849690559 0.9937874878729364 -0.05998498559619328 0.005063757820073826 0.02515782934974126
0.1059090909091 0.005388349951643371 0.026758601899345213 0.9933554840935519 -0.06360339266579483 0.001559507596651863 0.013308474559061693 -0.0013299142608978354 -0.008367702747773131
 0.9933554840935519 -0.06360339266579483 0.005389890203710821 0.02675840909951048 -0.0013317441482768098 -0.008367607532549587 0.0015473369005110497 0.013310049414772302
 0.001559507596651863 0.013308474559061693 -0.0013317441482768098 -0.008367607532549587 0.00538730810841169 0.02675726625270405 0.9933554263254898 -0.06360480652105663
 -0.0013299142608978354 -0.008367702747773131 0.0015473369005110497 0.013310049414772302 0.9933554263254898 -0.06360480652105663 0.005390821687595789 0.026756940521929153
0.1062942892872 0.005410283240642747 0.026864021135844005 0.9933264957968165 -0.06384141518683033 0.0015691675569129279 0.013357042563004707 -0.001338058907063766 -0.008398449150304391
 0.9933264957968165 -0.06384141518683033 0.0054118346776888164 0.026863827004567672 -0.0013399018089004697 -0.008398352594852838 0.0015569078595894094 0.013358631112680212
 0.0015691675569129279 0.013357042563004707 -0.0013399018089004697 -0.008398352594852838 0.005409233841106105 0.02686268100062569 0.9933264376214692 -0.06384283419527091
 -0.001338058907063766 -0.008398449150304391 0.0015569078595894094 0.013358631112680212 0.9933264376214692 -0.06384283419527091 0.005412772964920358 0.026862352870346343
0.11254689453939999 0.005774647826949016 0.0285825329217076 0.9928451197628341 -0.0677116087769385 0.0017304381034341171 0.014145257287276853 -0.0014740497631693433 -0.008897502380310281
 0.9928451197628341 -0.0677116087769385 0.005776386473544198 0.02858231647953564 -0.0014761100698221323 -0.00889738266253893 0.0017166880101442362 0.014147079474967331
 0.0017304381034341171 0.014145257287276853 -0.0014761100698221323 -0.00889738266253893 0.005773471974981655 0.028581120490675283 0.9928450547710073 -0.06771311147674013
 -0.0014740497631693433 -0.008897502380310281 0.0017166880101442362 0.014147079474967331 0.9928450547710073 -0.06771311147674013 0.0057774386611387 0.02858075177505419
0.11879949979160001 0.006154894934826919 0.030314697432935276 0.9923431669127075 -0.07159407376730131 0.0019001710866181176 0.014933111660159537 -0.0016172176746115016 -0.009396425474509874
 0.9923431669127075 -0.07159407376730131 0.00615683144614128 0.030314457350743583 -0.0016195069137221168 -0.009396279856675913 0.001884844423441283 0.014935189621599168
 0.0019001710866181176 0.014933111660159537 -0.0016195069137221168 -0.009396279856675913 0.006153585479002403 0.030313213836803223 0.9923430947119493 -0.07159566022345808
 -0.0016172176746115016 -0.009396425474509874 0.001884844423441283 0.014935189621599168 0.9923430947119493 -0.07159566022345808 0.006158004062459442 0.030312801361565552
0.1250521050438 0.006551272267157457 0.032060289156179825 0.9918203936849201 -0.07548864491818695 0.0020784294462406487 0.015720488822124706 -0.00176762711581621 -0.009895103154389174
 0.9918203936849201 -0.07548864491818695 0.006553417309016533 0.032060024086091335 -0.0017701567239313146 -0.009894928773576794 0.0020614399720525188 0.015722845782252644
 0.0020784294462406487 0.015720488822124706 -0.0017701567239313146 -0.009894928773576794 0.006549822064787601 0.03205873559480297 0.9918203138795472 -0.0754903152010625
 -0.00176762711581621 -0.009895103154389174 0.0020614399720525188 0.015722845782252644 0.9918203138795472 -0.0754903152010625 0.00655471688319411 0.0320582760502795
0.131304710296 0.006964026004885959 0.0338190811442989 0.9912765576798852 -0.07939514950431086 0.0022652743058004673 0.01650726950348016 -0.0019253407078949813 -0.010393418149841549
 0.9912765576798852 -0.07939514950431086 0.0069663902563038 0.033818789719292204 -0.0019281220298843313 -0.010393212018105004 0.002246535724484481 0.016509929786757124
 0.0022652743058004673 0.01650726950348016 -0.0019281220298843313 -0.010393212018105004 0.006962427922293072 0.03381745888554622 0.9912764698705215 -0.07939690369169448
 -0.0019253407078949813 -0.010393418149841549 0.002246535724484481 0.016509929786757124 0.9912764698705215 -0.07939690369169448 0.006967823318132649 0.03381694882467508
0.1375573155481 0.0072954225465515265 0.03536002556020627 0.9908094274665376 -0.08308250529318888 0.002436317858129664 0.017269505347081233 -0.002065991299377002 -0.010867420542868319
 0.9908094274665376 -0.08308250529318888 0.007298018398309353 0.03535971665317018 -0.002069041035138675 -0.010867182637682316 0.0024157823553621247 0.01727246384326446
 0.002436317858129664 0.017269505347081233 -0.002069041035138675 -0.010867182637682316 0.007293669870449823 0.03535833600493449 0.9908093312907913 -0.08308434340306992
 -0.002065991299377002 -0.010867420542868319 0.0024157823553621247 0.01727246384326446 0.9908093312907913 -0.08308434340306992 0.007299590989503583 0.03535778185283939
0.1438099208003 0.0076383536245836214 0.03689337361303211 0.9903260899350119 -0.08676106684688102 0.0026142846961815735 0.01802905043518485 -0.0022122894579458276 -0.011338972293547009
 0.9903260899350119 -0.08676106684688102 0.007641192046320514 0.036893046638357026 -0.002215619785620228 -0.011338699700345525 0.0025918728642324064 0.018032329325233975
 0.0026142846961815735 0.01802905043518485 -0.002215619785620228 -0.011338699700345525 0.007636439308795708 0.036891618083358085 0.9903259849961337 -0.0867629889488866
 -0.0022122894579458276 -0.011338972293547009 0.0025918728642324064 0.018032329325233975 0.9903259849961337 -0.0867629889488866 0.007642910609555129 0.03689101707592748
0.1500625260525 0.0079927057954427 0.038419013295199804 0.9898266621498589 -0.09043075954499594 0.0027991186734359825 0.01878583970536771 -0.002364180741609087 -0.011808011587898258
 0.9898266621498589 -0.09043075954499594 0.007995797782592583 0.0384186676281187 -0.002367803816102377 -0.011807701275575094 0.0027747514987553562 0.018789461984808672
 0.0027991186734359825 0.01878583970536771 -0.002367803816102377 -0.011807701275575094 0.007990622806899907 0.038417193166267904 0.9898265480482293 -0.09043276571214119
 -0.002364180741609087 -0.011808011587898258 0.0027747514987553562 0.018789461984808672 0.9898265480482293 -0.09043276571214119 0.00799766875562963 0.03841654241073505
0.15631513130469998 0.008358364893894995 0.03993683606684787 0.989311261679828 -0.09409150869922411 0.0029907630332076563 0.019539809096837297 -0.0025216100850256806 -0.012274477858057832
