! Created with skrf 1.8.0 (http://scikit-rf.org).
# GHz S RI R 50.0 
!freq ReS11 ImS11 ReS12 ImS12 ReS13 ImS13
! ReS14 ImS14
! ReS21 ImS21 ReS22 ImS22 ReS23 ImS23
! ReS24 ImS24
! ReS31 ImS31 ReS32 ImS32 ReS33 ImS33
! ReS34 ImS34
! ReS41 ImS41 ReS42 ImS42 ReS43 ImS43
! ReS44 ImS44
!
0.0 0.001727941217855 0.0 0.9982720587821 0.0 6.715130185202e-05 0.0 -6.715130194094e-05 8.223662698054963e-21
 0.9982720587821 0.0 0.001727941217863 0.0 -6.715130194091e-05 8.223662698051288e-21 6.71513018523e-05 0.0
 6.715130185202e-05 0.0 -6.715130194091e-05 8.223662698051288e-21 0.001727941207904 0.0 0.9982720587722 0.0
 -6.715130194094e-05 8.223662698054963e-21 6.71513018523e-05 0.0 0.9982720587722 0.0 0.001727941207917 0.0
0.005 0.0018597641008577153 0.0014094216585667407 0.9981051774401931 -0.003619170719299583 9.497355189778755e-05 0.0007615900895125591 -9.206948867248989e-05 -0.0004741283533986527
 0.9981051774401931 -0.003619170719299583 0.0018597626216223647 0.0014094225966085016 -9.207058554705689e-05 -0.00047412925258817824 9.497309891282491e-05 0.0007615901981042506
 9.497355189778755e-05 0.0007615900895125591 -9.207058554705689e-05 -0.00047412925258817824 0.0018597636266873103 0.0014094892593596307 0.9981051778157527 -0.0036191036596888364
 -9.206948867248989e-05 -0.0004741283533986527 9.497309891282491e-05 0.0007615901981042506 0.9981051778157527 -0.0036191036596888364 0.0018597638387900651 0.0014094891073216764
0.006252605252188 0.0018945172564120971 0.0017673131365464935 0.9980608760215601 -0.00452482129056259 0.00010301907998486014 0.0009523349013936745 -9.919185972217376e-05 -0.0005932672761383091
 0.9980608760215601 -0.00452482129056259 0.001894514943565503 0.001767314340308505 -9.919356608248179e-05 -0.000593268385794576 0.00010301837151808069 0.0009523350523589865
 0.00010301907998486014 0.0009523349013936745 -9.919356608248179e-05 -0.000593268385794576 0.0018945164396439466 0.0017673976401784133 0.9980608765337854 -0.004524737466138789
 -9.919185972217376e-05 -0.0005932672761383091 0.00010301837151808069 0.0009523350523589865 0.9980608765337854 -0.004524737466138789 0.0018945167716507491 0.0017673974683867519
0.01250521050438 0.002078512891435275 0.003571511222038322 0.9978246502037216 -0.009050255906376797 0.00014966978720882225 0.0019048810806142089 -0.00014007018131053972 -0.001189309058877915
 0.9978246502037216 -0.009050255906376797 0.0020785036479597017 0.003571513959927743 -0.00014007690026989037 -0.0011893111203771136 0.00014966693963779865 0.0019048815411933074
 0.00014966978720882225 0.0019048810806142089 -0.00014007690026989037 -0.0011893111203771136 0.002078509057686945 0.003571680002611231 0.9978246516877163 -0.009050088495947052
 -0.00014007018131053972 -0.001189309058877915 0.00014966693963779865 0.0019048815411933074 0.9978246516877163 -0.009050088495947052 0.0020785103903424402 0.0035716798411349763
0.01875781575657 0.002280367367972858 0.005401170267231784 0.9975630611869093 -0.013587277308448177 0.00020721726448924465 0.0028582713708293554 -0.00018992053841271065 -0.0017872090713784287
 0.9975630611869093 -0.013587277308448177 0.0022803465806606206 0.00540117492682935 -0.00018993551384275046 -0.0017872118953058981 0.00020721081330403918 0.0028582723220548826
 0.00020721726448924465 0.0028582713708293554 -0.00018993551384275046 -0.0017872118953058981 0.0022803583075331644 0.005401423241578645 0.9975630640998907 -0.01358702637291828
 -0.00018992053841271065 -0.0017872090713784287 0.00020721081330403918 0.0028582723220548826 0.9975630640998907 -0.01358702637291828 0.0022803613153213505 0.005401423272555081
0.02501042100875 0.0025005046628178186 0.007253673992787346 0.9972757752472362 -0.018138036361075097 0.0002757766128009151 0.0038125205580706928 -0.0002488718794011107 -0.00238666081242827
 0.9972757752472362 -0.018138036361075097 0.002500467718793046 0.007253681018258199 -0.0002488983135571737 -0.0023866641744097637 0.00027576505695043046 0.0038125222066168743
 0.0002757766128009151 0.0038125205580706928 -0.0002488983135571737 -0.0023866641744097637 0.0025004881597480333 0.0072540110928343594 0.9972757800521044 -0.01813770191116754
 -0.0002488718794011107 -0.00238666081242827 0.00027576505695043046 0.0038125222066168743 0.9972757800521044 -0.01813770191116754 0.002500493524468689 0.007254011499659078
0.03126302626094 0.0027393311279819235 0.009127651360433232 0.9969624431104098 -0.022703423784030372 0.0003554629171345976 0.004767552232386527 -0.00031704885891210854 -0.0029874407548965043
 0.9969624431104098 -0.022703423784030372 0.0027392734138408656 0.009127661253107657 -0.00031708991942157186 -0.002987444395251188 0.0003554447162512072 0.004767554812260932
 0.0003554629171345976 0.004767552232386527 -0.00031708991942157186 -0.002987444395251188 0.002739304952183116 0.009128072520365136 0.9969624502699502 -0.022703005793077227
 -0.00031704885891210854 -0.0029874407548965043 0.0003554447162512072 0.004767554812260932 0.9969624502699502 -0.022703005793077227 0.002739313363648767 0.009128073487802037
0.037515631513130004 0.0029972438065910614 0.011022189765604826 0.9966227086223267 -0.02728385690241599 0.0004463900833131521 0.005723253535044587 -0.0003945727529767508 -0.0035893536301618368
 0.9966227086223267 -0.02728385690241599 0.0029971607083895003 0.011022203084673365 -0.0003946315764032736 -0.0035893572538564394 0.00044636365468398326 0.005723257309191638
 0.0004463900833131521 0.005723253535044587 -0.0003946315764032736 -0.0035893572538564394 0.00299720571861259 0.011022694911383843 0.9966227186058569 -0.027283355317000112
 -0.0003945727529767508 -0.0035893536301618368 0.00044636365468398326 0.005723257309191638 0.9966227186058569 -0.027283355317000112 0.0029972178751738214 0.011022696625523213
0.043768236765320004 0.0032746336352121575 0.012936595576395366 0.9962562123072516 -0.03187951903965414 0.0005486702747714841 0.006679491820921153 -0.00048156177132452056 -0.0041922157964988695
 0.9962562123072516 -0.03187951903965414 0.0032745205388950106 0.012936612939696026 -0.00048164146530832474 -0.004192219073174406 0.0005486339903472996 0.006679497082849341
 0.0005486702747714841 0.006679491820921153 -0.00048164146530832474 -0.004192219073174406 0.0032745813812775086 0.012937184624558182 0.9962562255880721 -0.031878933780957776
 -0.00048156177132452056 -0.0041922157964988695 0.0005486339903472996 0.006679497082849341 0.9962562255880721 -0.031878933780957776 0.0032745979903342944 0.012937187272770897
0.050020842017509996 0.0035718869119451845 0.014870295208834806 0.9958625931967469 -0.0364904583735358 0.0006624135647098285 0.007636121550527575 -0.0005781311517303827 -0.004795848381644836
 0.9958625931967469 -0.0364904583735358 0.0035717392041105353 0.014870317293483117 -0.0005782347963850195 -0.0047958509456639655 0.0006623657480591751 0.0076361286259730545
 0.0006624135647098285 0.007636121550527575 -0.0005782347963850195 -0.0047958509456639655 0.0035718182249305556 0.014870968064530771 0.9958626102539048 -0.03648978933956132
 -0.0005781311517303827 -0.004795848381644836 0.0006623657480591751 0.0076361286259730545 0.9958626102539048 -0.03648978933956132 0.003571840003296039 0.01487097183533286
0.055454545454549996 0.003846637645559203 0.016566016495490155 0.9954982185806512 -0.04050988309958729 0.0007706530954331947 0.008467659456086041 -0.0006699205632199435 -0.005320911247988661
 0.9954982185806512 -0.04050988309958729 0.0038464561137656218 0.016566043279690263 -0.0006700475024515198 -0.005320912868400985 0.0007705938555701285 0.008467668398424642
 0.0007706530954331947 0.008467659456086041 -0.0006700475024515198 -0.005320912868400985 0.0038465528249878667 0.01656676209967759 0.9954982393138117 -0.04050914115862954
 -0.0006699205632199435 -0.005320911247988661 0.0007705938555701285 0.008467668398424642 0.9954982393138117 -0.04050914115862954 0.0038465796858056195 0.016566766999940037
0.056273447269699996 0.0038893860325467985 0.01682278654123756 0.9954414899297143 -0.041116636456984136 0.0007877276784825034 0.00859298767707006 -0.0006843931617208877 -0.005400073936071844
 0.9954414899297143 -0.041116636456984136 0.0038891991012559588 0.016822814084458033 -0.0006845238105072168 -0.005400075386594511 0.0007876666016731982 0.008592996925763593
 0.0007877276784825034 0.00859298767707006 -0.0006845238105072168 -0.005400075386594511 0.0038892986304695574 0.01682354309979343 0.9954415112491506 -0.041115883521270026
 -0.0006843931617208877 -0.005400073936071844 0.0007876666016731982 0.008592996925763593 0.9954415112491506 -0.041115883521270026 0.003889326305337305 0.016823548182698312
0.06252605252188 0.004227509864151223 0.018793612232675432 0.9949925414968308 -0.045757954840828105 0.0009247177840414742 0.009549927525474546 -0.0008004570498246922 -0.006004714601134686
 0.9949925414968308 -0.045757954840828105 0.0042272790999248275 0.01879364603244723 -0.0008006177302810712 -0.00600471450218221 0.0009246416645047261 0.009549939342959923
 0.0009247177840414742 0.009549927525474546 -0.0008006177302810712 -0.00600471450218221 0.004227401449886701 0.01879445238152554 0.9949925675716668 -0.04575711785080088
 -0.0008004570498246922 -0.006004714601134686 0.0009246416645047261 0.009549939342959923 0.9949925675716668 -0.04575711785080088 0.004227435758659008 0.018794458966893943
0.06877865777407 0.004586633921202613 0.020782343814429203 0.9945153877914413 -0.05041427093076991 0.0010734863078339046 0.010506771919090104 -0.000926428969536234 -0.00660959103694124
 0.9945153877914413 -0.05041427093076991 0.004586354717975327 0.020782384730297265 -0.0009266226836643743 -0.006609588917471129 0.0010733933051044497 0.010506786738682378
 0.0010734863078339046 0.010506771919090104 -0.0009266226836643743 -0.006609588917471129 0.004586502182154454 0.020783267426432175 0.9945154191239621 -0.05041334971485175
 -0.000926428969536234 -0.00660959103694124 0.0010733933051044497 0.010506786738682378 0.9945154191239621 -0.05041334971485175 0.0045865438734031165 0.020783275705308798
0.07503126302626001 0.00496713042585057 0.022788571609817936 0.9940096700497997 -0.05508540802427595 0.0012341327661156169 0.011463345908523562 -0.0010624118857966885 -0.007214521756074997
 0.9940096700497997 -0.05508540802427595 0.0049667981823518165 0.022788620563506078 -0.0010626416104504998 -0.007214517110054546 0.0012340209787124856 0.011463364203307836
 0.0012341327661156169 0.011463345908523562 -0.0010626416104504998 -0.007214517110054546 0.004966973032426047 0.022789578545001563 0.9940097071513385 -0.055084402390496175
 -0.0010624118857966885 -0.007214521756074997 0.0012340209787124856 0.011463364203307836 0.9940097071513385 -0.055084402390496175 0.004967022866055187 0.022789588709014208
0.08128386827845 0.005369368291380316 0.024811898029907332 0.9934750312195203 -0.059771161980465524 0.0014067536061073865 0.01241946926983163 -0.0012085054704970954 -0.007819322696083783
 0.9934750312195203 -0.059771161980465524 0.005368978411928096 0.024811956006114123 -0.001208774157490362 -0.007819314982580214 0.001406621068074798 0.012419491554816144
 0.0014067536061073865 0.01241946926983163 -0.001208774157490362 -0.007819314982580214 0.005369182896905351 0.02481298814094083 0.9934750746117924 -0.05977007171153441
 -0.0012085054704970954 -0.007819322696083783 0.001406621068074798 0.012419491554816144 0.9934750746117924 -0.05977007171153441 0.005369241645004596 0.024813000382003576
0.08753647353064001 0.005793713058471019 0.026851932952106236 0.9929111162849878 -0.0644713058165394 0.00159144205271088 0.01337495686481852 -0.0013648059906199506 -0.008423806938584194
 0.9929111162849878 -0.0644713058165394 0.005793260954591768 0.02685200099910954 -0.0013651165669449708 -0.008423795581827187 0.001591286730516646 0.013374983699104684
 0.00159144205271088 0.01337495686481852 -0.0013651165669449708 -0.008423795581827187 0.005793497298114664 0.026853106079289996 0.9929111665009723 -0.06447013067527602
 -0.0013648059906199506 -0.008423806938584194 0.001591286730516646 0.013374983699104684 0.9929111665009723 -0.06447013067527602 0.005793565745257513 0.02685312058956081
0.09378907878283 0.006240526796496503 0.02890829042533177 0.9923175725624305 -0.06918559298735262 0.0017882879605670531 0.014329618911447742 -0.0015314061905363518 -0.009027784526822262
 0.9923175725624305 -0.06918559298735262 0.006240007888095114 0.02890836965570996 -0.0015317615584161093 -0.009027768916296948 0.0017881077497225411 0.014329650900614903
 0.0017882879605670531 0.014329618911447742 -0.0015317615584161093 -0.009027768916296948 0.006240278287061568 0.0289095463981291 0.9923176301471694 -0.0691843327157561
 -0.0015314061905363518 -0.009027784526822262 0.0017881077497225411 0.014329650900614903 0.9923176301471694 -0.0691843327157561 0.006240357230759021 0.028909563369757158
0.100041684035 0.006710167980630071 0.03098058625247329 0.9916940499738818 -0.07391375979802976 0.0019973776684105897 0.01528326119881692 -0.0017083951711943128 -0.009631062347819632
 0.9916940499738818 -0.07391375979802976 0.006709577697144395 0.030980677843787635 -0.0017087982080642413 -0.009631041838352564 0.0019971703899596955 0.01528329899731452
 0.0019973776684105897 0.01528326119881692 -0.0017087982080642413 -0.009631041838352564 0.00670988431929121 0.030981924893197614 0.991694115485864 -0.07391241411427017
 -0.0017083951711943128 -0.009631062347819632 0.0019971703899596955 0.01528329899731452 0.991694115485864 -0.07391241411427017 0.006709974570801402 0.030981944518135678
0.1059090909091 0.007171953781210515 0.03293936958181848 0.9910813653775976 -0.07836301786880218 0.002204795483036147 0.016177049147043362 -0.0018840051043287436 -0.010196363310097638
 0.9910813653775976 -0.07836301786880218 0.00717129237285339 0.032939473901948825 -0.0018844554684006524 -0.010196337585913954 0.0022045607535408325 0.016177093037974193
 0.002204795483036147 0.016177049147043362 -0.0018844554684006524 -0.010196337585913954 0.007171634930702956 0.03294078562399826 0.991081438848721 -0.07836159176337225
 -0.0018840051043287436 -0.010196363310097638 0.0022045607535408325 0.016177093037974193 0.991081438848721 -0.07836159176337225 0.007171736543534671 0.032940807913059325
0.1062942892872 0.007202991349801426 0.03306843619779596 0.9910402013076821 -0.07865552720220396 0.0022187938561424726 0.016235685265246314 -0.0018958582660028864 -0.010233444060495355
 0.9910402013076821 -0.07865552720220396 0.007202325131836391 0.03306854139319415 -0.0018963118245157863 -0.010233417972333823 0.0022185572533480634 0.01623572957894744
 0.0022187938561424726 0.016235685265246314 -0.0018963118245157863 -0.010233417972333823 0.007202670114047245 0.033069857315217825 0.991040275319212 -0.078654095807571
 -0.0018958582660028864 -0.010233444060495355 0.0022185572533480634 0.01623572957894744 0.991040275319212 -0.078654095807571 0.007202772498534582 0.03306987978508113
0.11254689453939999 0.007719347752480002 0.03517145461047778 0.9903556824677349 -0.08341060219477876 0.002452615403465257 0.017186688551205205 -0.002093876915146087 -0.010834730058306331
 0.9903556824677349 -0.08341060219477876 0.00771860105351526 0.035171574719321044 -0.0020943838231898136 -0.010834697677221707 0.002452347138632897 0.017186740140045544
 0.002452615403465257 0.017186688551205205 -0.0020943838231898136 -0.010834697677221707 0.007718986498997561 0.035172958007618556 0.9903557655662141 -0.08340908476670383
 -0.002093876915146087 -0.010834730058306331 0.002452347138632897 0.017186740140045544 0.9903557655662141 -0.08340908476670383 0.007719101856332554 0.03517298351345438
0.11879949979160001 0.0082595839806159 0.03728925337158979 0.9896401527156402 -0.08817867889257133 0.0026989172507851126 0.01813606453452274 -0.0023025285383698013 -0.01143471745908531
 0.9896401527156402 -0.08817867889257133 0.008258752267754771 0.037289389770132644 -0.0023030915988682932 -0.011434678036444344 0.0026986149014008444 0.01813612421528462
 0.0026989172507851126 0.01813606453452274 -0.0023030915988682932 -0.011434678036444344 0.00825918024479565 0.0372908388433591 0.989640245504623 -0.08817707508777034
 -0.0023025285383698013 -0.01143471745908531 0.0026986149014008444 0.01813612421528462 0.989640245504623 -0.08817707508777034 0.008259309430095176 0.03729086757545937
0.1250521050438 0.008824042595705718 0.03942144107026791 0.9888932749078171 -0.09295943939716378 0.0029577702604626594 0.019083602856570944 -0.002521886407207831 -0.012033200113564353
 0.9888932749078171 -0.09295943939716378 0.008823121352131855 0.03942159520212133 -0.0025225083981100676 -0.01203315286644277 0.0029574313161014228 0.019083671505725895
 0.0029577702604626594 0.019083602856570944 -0.0025225083981100676 -0.01203315286644277 0.008823593890776155 0.03942310840213432 0.9888933780075919 -0.09295774885376816
 -0.002521886407207831 -0.012033200113564353 0.0029574313161014228 0.019083671505725895 0.9888933780075919 -0.09295774885376816 0.00882373777506893 0.03942314054981734
0.131304710296 0.009413061747768028 0.04156762235038877 0.9881147157266132 -0.09775255449868893 0.003229241080476941 0.020029089440553923 -0.0027520195164584178 -0.012629968631440032
 0.9881147157266132 -0.09775255449868893 0.009412046473680694 0.04156779572722741 -0.0027527031906120257 -0.012629912742711325 0.003228862939030748 0.020029167997311848
 0.003229241080476941 0.020029089440553923 -0.0027527031906120257 -0.012629912742711325 0.009412565564486242 0.04156937132226789 0.988114829775548 -0.09775077683324183
 -0.0027520195164584178 -0.012629968631440032 0.003228862939030748 0.020029167997311848 0.988114829775548 -0.09775077683324183 0.009412725035013825 0.04156940707369708
0.1375573155481 0.009898303710339585 0.04344731920441152 0.9874328798468636 -0.10227743868716777 0.003481032295180578 0.020944889270811534 -0.0029606400474069747 -0.013197417487762939
 0.9874328798468636 -0.10227743868716777 0.009897191081601654 0.04344751056213902 -0.002961389667486644 -0.013197352828606476 0.0034806155246777707 0.020944977720688828
 0.003481032295180578 0.020944889270811534 -0.002961389667486644 -0.013197352828606476 0.009897758557176919 0.0434491493599644 0.987433005358918 -0.10227557367643764
 -0.0029606400474069747 -0.013197417487762939 0.0034806155246777707 0.020944977720688828 0.987433005358918 -0.10227557367643764 0.00989793386081046 0.043449186840502536
0.1438099208003 0.010400796979243539 0.04531589444820239 0.9867266940185117 -0.10678962937374326 0.0037429617688044267 0.02185627033699881 -0.0031775627807247224 -0.013760802694854938
 0.9867266940185117 -0.10678962937374326 0.010399582733352453 0.04531610508385416 -0.0031783813348101 -0.013760728449690705 0.0037425042081748582 0.021856369538606715
 0.0037429617688044267 0.02185627033699881 -0.0031783813348101 -0.013760728449690705 0.010400200497701153 0.04531780550752329 0.9867268316322012 -0.10678767664496552
 -0.0031775627807247224 -0.013760802694854938 0.0037425042081748582 0.021856369538606715 0.9867268316322012 -0.10678767664496552 0.010400392431584336 0.04531784473186126
0.1500625260525 0.010920345969613113 0.04717315595266041 0.9859963587204936 -0.1112889779126719 0.004014927470927725 0.02276311649839686 -0.0034026881808671395 -0.014320014770725179
 0.9859963587204936 -0.1112889779126719 0.010919025874386895 0.047173387214122904 -0.003403578650947902 -0.014319930090757882 0.004014426907178815 0.022763227356275725
 0.004014927470927725 0.02276311649839686 -0.003403578650947902 -0.014319930090757882 0.01091969579094577 0.0471751476257607 0.9859965090892295 -0.11128693707925343
 -0.0034026881808671395 -0.014320014770725179 0.004014426907178815 0.022763227356275725 0.9859965090892295 -0.11128693707925343 0.010919905160917606 0.04717518860990985
0.15631513130469998 0.01145675347932588 0.049018917323475845 0.9852420757053121 -0.11577533700013645 0.004296826036072337 0.02366531385586786 -0.0036359153645456822 -0.014874946776481929
 0.9852420757053121 -0.11577533700013645 0.01145532333341879 0.04901917060897732 -0.0036368807264364495 -0.01487485077981595 0.004296280201747593 0.023665437321990054
