! Created with skrf 1.8.0 (http://scikit-rf.org).
# GHz S RI R 50.0 
!freq ReS11 ImS11 ReS12 ImS12 ReS13 ImS13
! ReS14 ImS14
! ReS21 ImS21 ReS22 ImS22 ReS23 ImS23
! ReS24 ImS24
! ReS31 ImS31 ReS32 ImS32 ReS33 ImS33
! ReS34 ImS34
! ReS41 ImS41 ReS42 ImS42 ReS43 ImS43
! ReS44 ImS44
!
0.0 0.001524215055593 0.0 0.9984757849283 0.0 5.881621059545e-05 0.0 -5.881621025102e-05 7.202908362188939e-21
 0.9984757849283 0.0 0.001524215055542 0.0 -5.881621024991e-05 7.202908362053003e-21 5.881621059381e-05 0.0
 5.881621059545e-05 0.0 -5.881621024991e-05 7.202908362053003e-21 0.001524215063654 0.0 0.9984757849363 0.0
 -5.881621025102e-05 7.202908362188939e-21 5.881621059381e-05 0.0 0.9984757849363 0.0 0.001524215063653 0.0
0.005 0.0016398932118476836 0.0012458919665939146 0.998329454836364 -0.003192985314890286 8.248545292417189e-05 0.000654366681319971 -8.011891356468303e-05 -0.0004096341947137475
 0.998329454836364 -0.003192985314890286 0.0016398850366944081 0.0012458968032437717 -8.011961040332262e-05 -0.0004096347835235516 8.252293820451665e-05 0.0006543522592514793
 8.248545292417189e-05 0.000654366681319971 -8.011961040332262e-05 -0.0004096347835235516 0.0016398929275009938 0.001245959437192739 0.998329455182537 -0.0031929182565603653
 -8.011891356468303e-05 -0.0004096341947137475 8.252293820451665e-05 0.0006543522592514793 0.998329455182537 -0.0031929182565603653 0.0016398860098614785 0.001245963447272764
0.006252605252188 0.0016702174971436206 0.0015622731423628555 0.9982908587566456 -0.003992015518203578 8.92254673591087e-05 0.0008182742659502914 -8.612530970967775e-05 -0.0005125746900860252
 0.9982908587566456 -0.003992015518203578 0.001670204717821748 0.0015622793237809048 -8.612639362533672e-05 -0.0005125754172366996 8.928403284890644e-05 0.0008182555644667731
 8.92254673591087e-05 0.0008182742659502914 -8.612639362533672e-05 -0.0005125754172366996 0.0016702169960389538 0.0015623574759544465 0.9982908592417015 -0.0039919317045439655
 -8.612530970967775e-05 -0.0005125746900860252 8.928403284890644e-05 0.0008182555644667731 0.9982908592417015 -0.0039919317045439655 0.0016702061833325775 0.0015623626126945794
0.01250521050438 0.0018297660027926236 0.003157334653665713 0.9980864762865743 -0.007984855762404314 0.00012776154987498937 0.0016369023198852866 -0.00012016103044854354 -0.0010276502261028495
 0.9980864762865743 -0.007984855762404314 0.0018297149705607681 0.003157348399326738 -0.00012016529696742931 -0.0010276515839283695 0.00012799504112546287 0.0016368576346666094
 0.00012776154987498937 0.0016369023198852866 -0.00012016529696742931 -0.0010276515839283695 0.0018297634231171517 0.0031575031365636014 0.998086477652775 -0.00798468836411104
 -0.00012016103044854354 -0.0010276502261028495 0.00012799504112546287 0.0016368576346666094 0.998086477652775 -0.00798468836411104 0.0018297202577247105 0.0031575146652059994
0.01875781575657 0.002003206107486436 0.004775151054194785 0.9978623853679088 -0.01198824244239691 0.00017451405134090466 0.002456441701646172 -0.00016102770381299804 -0.0015444781524242886
 0.9978623853679088 -0.01198824244239691 0.0020030914271417983 0.004775173870890098 -0.0001610372112959734 -0.0015444800278165837 0.00017503843399822524 0.002456362307892546
 0.00017451405134090466 0.002456441701646172 -0.0001610372112959734 -0.0015444800278165837 0.0020031998733643624 0.004775403627319028 0.9978623880173879 -0.011987991563743201
 -0.00016102770381299804 -0.0015444781524242886 0.00017503843399822524 0.002456362307892546 0.9978623880173879 -0.011987991563743201 0.002003102897637539 0.00477542288731787
0.02501042100875 0.0021908733246434756 0.00641345825441872 0.9976183239969227 -0.016004117582303166 0.000229573494749267 0.0032769304820168326 -0.00020882629698801226 -0.0020628238012574867
 0.9976183239969227 -0.016004117582303166 0.002190669649627799 0.006413491766984381 -0.000208843076956115 -0.0020628260622540147 0.00023050469629659783 0.0032768062721948337
 0.000229573494749267 0.0032769304820168326 -0.000208843076956115 -0.0020628260622540147 0.0021908618494019465 0.006413794917163426 0.9976183283277005 -0.016003783268752365
 -0.00020882629698801226 -0.0020628238012574867 0.00023050469629659783 0.0032768062721948337 0.9976183283277005 -0.016003783268752365 0.0021906896627128143 0.006413823327542337
0.03126302626094 0.002393089274374965 0.008071091868181819 0.9973540166878221 -0.020033313173102855 0.0002930307755972973 0.004098330629340088 -0.00026365494621453933 -0.002582522973647204
 0.9973540166878221 -0.020033313173102855 0.0023927712958729994 0.008071137819087401 -0.0002636810080113013 -0.0025825254692082252 0.00029448479251208875 0.004098150108401895
 0.0002930307755972973 0.004098330629340088 -0.0002636810080113013 -0.0025825254692082252 0.0023930709675243993 0.008071512638571015 0.9973540231017932 -0.020032895451084585
 -0.00026365494621453933 -0.002582522973647204 0.00029448479251208875 0.004098150108401895 0.9973540231017932 -0.020032895451084585 0.0023928022157658187 0.00807155169727516
0.037515631513130004 0.002610168644913803 0.009747293254945472 0.9970691816540906 -0.02407624506886461 0.00036497632529132793 0.004920574066225899 -0.0003256096740528631 -0.0031034358891721564
 0.9970691816540906 -0.02407624506886461 0.002609711085053702 0.009747353504511662 -0.0003256470072255499 -0.003103438449127229 0.000367069268748555 0.004920324340216258
 0.00036497632529132793 0.004920574066225899 -0.0003256470072255499 -0.003103438449127229 0.0026101419049689907 0.009747798163527225 0.99706919055021 -0.02407574395190246
 -0.0003256096740528631 -0.0031034358891721564 0.000367069268748555 0.004920324340216258 0.99706919055021 -0.02407574395190246 0.0026097552741777418 0.009747849447193835
0.043768236765320004 0.0028424218650756274 0.011441498344189546 0.9967635336998814 -0.028133124092240287 0.00044549971607703585 0.005743576682637708 -0.0003947846455720944 -0.003625433175398294
 0.9967635336998814 -0.028133124092240287 0.002841799471879129 0.01144157487104704 -0.00039483522131818194 -0.003625435610468475 0.0004483478310958528 0.005743243445351869
 0.00044549971607703585 0.005743576682637708 -0.00039483522131818194 -0.003625435610468475 0.0028423850851941133 0.011442087429853998 0.9967635454805339 -0.028132539585231837
 -0.0003947846455720944 -0.003625433175398294 0.0004483478310958528 0.005743243445351869 0.9967635454805339 -0.028132539585231837 0.0028418592964178624 0.011442152593688948
0.050020842017509996 0.0030901563521734624 0.013153250343973352 0.9964367856900619 -0.032204043253965184 0.0005346894216187328 0.006567244120021356 -0.00047127226046891674 -0.004148390087241994
 0.9964367856900619 -0.032204043253965184 0.00308934389577621 0.013153345245690371 -0.00047133803264194635 -0.004148392189059182 0.0005384090923650937 0.006566811638902001
 0.0005346894216187328 0.006567244120021356 -0.00047133803264194635 -0.004148392189059182 0.003090107916369456 0.013153923660310735 0.9964368007572595 -0.032203375346928555
 -0.00047127226046891674 -0.004148390087241994 0.0005384090923650937 0.006566811638902001 0.9964368007572595 -0.032203375346928555 0.003089421721276883 0.013154004438211112
0.055454545454549996 0.003318254775535657 0.014654759087608956 0.9961354721193068 -0.035753213017219065 0.0006193038460335323 0.007283497114776192 -0.0005437515271994918 -0.004603539318366786
 0.9961354721193068 -0.035753213017219065 0.0033172566733054246 0.01465487175401973 -0.000543832079322846 -0.0046035409465663936 0.0006238755488967815 0.007282964492437753
 0.0006193038460335323 0.007283497114776192 -0.000543832079322846 -0.0046035409465663936 0.0033181948929422622 0.01465550564906454 0.9961354903713722 -0.03575247262224957
 -0.0005437515271994918 -0.004603539318366786 0.0006238755488967815 0.007282964492437753 0.9961354903713722 -0.03575247262224957 0.0033173520647541187 0.014655601465355331
0.056273447269699996 0.0033536771491445056 0.014882156919668587 0.9960886494124679 -0.03628902050350599 0.0006326326449222466 0.007391474612148066 -0.0005551631733237373 -0.00467218367211365
 0.9960886494124679 -0.03628902050350599 0.0033526494183836082 0.014882272413475253 -0.0005552460790964504 -0.004672185213267313 0.000637340391334086 0.007390925713953644
 0.0006326326449222466 0.007391474612148066 -0.0005552460790964504 -0.004672185213267313 0.003353615434494767 0.01488291452572706 0.9960886681707958 -0.03628826918091696
 -0.0005551631733237373 -0.00467218367211365 0.000637340391334086 0.007390925713953644 0.9960886681707958 -0.03628826918091696 0.0033527476117843178 0.014883012730349155
0.06252605252188 0.0036332872678683068 0.016627866634327942 0.9957188361497673 -0.04038802222039741 0.0007394151810686421 0.008216160547720659 -0.0006465462755353528 -0.005196691216660836
 0.9957188361497673 -0.04038802222039741 0.0036320190673979945 0.0166280050579476 -0.0006466482359084582 -0.005196691950734729 0.00074522764996512 0.00821547660416061
 0.0007394151810686421 0.008216160547720659 -0.0006466482359084582 -0.005196691950734729 0.0036332106445456764 0.016628708600453502 0.9957188590062376 -0.0403871874555216
 -0.0006465462755353528 -0.005196691216660836 0.00074522764996512 0.00821547660416061 0.9957188590062376 -0.0403871874555216 0.003632139996415913 0.016628826123552827
0.06877865777407 0.003929287870239781 0.01839005491256677 0.9953270570928606 -0.0445009771858906 0.0008551212982238029 0.00904118940318274 -0.0007455086564293953 -0.005721789327103254
 0.9953270570928606 -0.0445009771858906 0.003927754017695811 0.018390218725207085 -0.0007456315766136316 -0.005721788988717533 0.0008621552504210501 0.009040350316660721
 0.0008551212982238029 0.00904118940318274 -0.0007456315766136316 -0.005721788988717533 0.003929194700130622 0.018390981316673792 0.9953270844562537 -0.04450005894459403
 -0.0007455086564293953 -0.005721789327103254 0.0008621552504210501 0.009040350316660721 0.9953270844562537 -0.04450005894459403 0.003927900048834662 0.01839112012946173
0.07503126302626001 0.004241978350585417 0.02016841513536659 0.9949130236598807 -0.04862778542748373 0.0009798336296573912 0.009866444340023664 -0.0008521355512376258 -0.006247353349167932
 0.9949130236598807 -0.04862778542748373 0.00424015367415294 0.020168606918745963 -0.0008522813209173044 -0.006247351654015562 0.0009882059239999445 0.009865428529583024
 0.0009798336296573912 0.009866444340023664 -0.0008522813209173044 -0.006247351654015562 0.00424186698848963 0.020169426063922885 0.9949130559417318 -0.048626783667426024
 -0.0008521355512376258 -0.006247353349167932 0.0009882059239999445 0.009865428529583024 0.9949130559417318 -0.048626783667426024 0.0042403271734530335 0.02016958821759374
0.08128386827845 0.004571656360873774 0.021962652717743825 0.9944764477602271 -0.05276832408526818 0.0011136330727638808 0.01069180460389784 -0.0009665102800496326 -0.006773256990570347
 0.9944764477602271 -0.05276832408526818 0.004569515696650168 0.021962875177303026 -0.0009666807736289565 -0.006773253635464287 0.0011234606478674795 0.01069058899142594
 0.0011136330727638808 0.01069180460389784 -0.0009666807736289565 -0.006773253635464287 0.004571525153944594 0.02196374826708813 0.9944764853748462 -0.05276723875471578
 -0.0009665102800496326 -0.006773256990570347 0.0011234606478674795 0.01069058899142594 0.9944764853748462 -0.05276723875471578 0.004569719028205914 0.021963935893429223
0.08753647353064001 0.004918617793371936 0.023772481020416524 0.9940170420210561 -0.05692245144906966 0.0012565986921787193 0.01151714580744083 -0.001088714181118437 -0.007299372064331636
 0.9940170420210561 -0.05692245144906966 0.0049161359832018215 0.0237727369866109 -0.0010889112578948404 -0.007299366727240259 0.0012679985461704218 0.011515705804164715
 0.0012565986921787193 0.01151714580744083 -0.0010889112578948404 -0.007299366727240259 0.004918465081662116 0.023773661291673423 0.9940170853860033 -0.05692128249215742
 -0.001088714181118437 -0.007299372064331636 0.0012679985461704218 0.011515705804164715 0.9940170853860033 -0.05692128249215742 0.004916371508970097 0.023773876603855215
0.09378907878283 0.00528315673723062 0.025597618413409236 0.9935345199900943 -0.061090009848745915 0.001408807625642896 0.012342340137698712 -0.001218826539836326 -0.00782556831218708
 0.9935345199900943 -0.061090009848745915 0.00528030862607707 0.025597910843122497 -0.0012190520440729937 -0.0078255606522825 0.0014218967944212076 0.012340649631040054
 0.001408807625642896 0.012342340137698712 -0.0012190520440729937 -0.0078255606522825 0.00528298085357098 0.02559888352065243 0.993534569526658 -0.06108875719750193
 -0.001218826539836326 -0.00782556831218708 0.0014218967944212076 0.012340649631040054 0.993534569526658 -0.06108875719750193 0.0052805787055488695 0.025599128814027247
0.100041684035 0.005665565414617321 0.02743778614507522 0.993028596322051 -0.06527082774452599 0.00157033499210276 0.013167256512825019 -0.0013569245142024521 -0.008351713283526626
 0.993028596322051 -0.06527082774452599 0.005662325848718441 0.027438118123162884 -0.0013571802753182167 -0.008351702941211734 0.001585230526069242 0.013165287853642307
 0.00157033499210276 0.013167256512825019 -0.0013571802753182167 -0.008351702941211734 0.005665364684767953 0.027439136207464066 0.9930286524552415 -0.0652694913269048
 -0.0013569245142024521 -0.008351713283526626 0.001585230526069242 0.013165287853642307 0.9930286524552415 -0.0652694913269048 0.005662632837487563 0.027439413860679045
0.1059090909091 0.006040926327820297 0.029178011116591508 0.9925323040297738 -0.06920597768037805 0.0017304513694954224 0.013940980715661076 -0.0014938444434621947 -0.00884527791491668
 0.9925323040297738 -0.06920597768037805 0.006037296544929105 0.029178383127726883 -0.0014941302480556264 -0.008845264711720794 0.0017471484331331518 0.013938724513595813
 0.0017304513694954224 0.013940980715661076 -0.0014941302480556264 -0.008845264711720794 0.0060407007531520975 0.029179441017494114 0.9925323667432655 -0.06920456258366857
 -0.0014938444434621947 -0.00884527791491668 0.0017471484331331518 0.013938724513595813 0.9925323667432655 -0.06920456258366857 0.00603764030768815 0.02917975127549585
0.1062942892872 0.006066134102327141 0.029292706723666753 0.9924989869527235 -0.06946472131036706 0.001741253800817181 0.013991760707943824 -0.001503083058176361 -0.008877672250238946
 0.9924989869527235 -0.06946472131036706 0.006062477926621599 0.02929308146460355 -0.0015033708907444836 -0.008877658847199795 0.0017580727404819829 0.013989484698151188
 0.001741253800817181 0.013991760707943824 -0.0015033708907444836 -0.008877658847199795 0.00606590684470074 0.029294141870007857 0.9924990501115674 -0.06946330104585764
 -0.001503083058176361 -0.008877672250238946 0.0017580727404819829 0.013989484698151188 0.9924990501115674 -0.06946330104585764 0.006062824175963258 0.029294454346093506
0.11254689453939999 0.0064851510411626885 0.031162102691043195 0.9919454092653732 -0.07367149563091055 0.0019216348614727015 0.014815715458107124 -0.0016573748429821824 -0.009403308149502269
 0.9919454092653732 -0.07367149563091055 0.006481053097250061 0.031162523540745085 -0.0016576965468006676 -0.00940329128874433 0.001940494211970169 0.014813101338695865
 0.0019216348614727015 0.014815715458107124 -0.0016576965468006676 -0.00940329128874433 0.006484895567236987 0.031163623059901974 0.9919454798832628 -0.07366999143067945
 -0.0016573748429821824 -0.009403308149502269 0.001940494211970169 0.014813101338695865 0.9919454798832628 -0.07366999143067945 0.006481440953558397 0.031163972907541714
0.11879949979160001 0.00692290233777414 0.03304569566734767 0.9913675822510799 -0.07789094563359013 0.002111546694945478 0.01563898054568541 -0.0018198701769893057 -0.009928481547264363
 0.9913675822510799 -0.07789094563359013 0.006918337461920324 0.033046166105045315 -0.0018202275371399501 -0.00992846081315107 0.002132563399515876 0.015635995985307592
 0.002111546694945478 0.01563898054568541 -0.0018202275371399501 -0.00992846081315107 0.0069226169523138046 0.033047301404493926 0.9913676607665194 -0.0778893574032387
 -0.0018198701769893057 -0.009928481547264363 0.002132563399515876 0.015635995985307592 0.9913676607665194 -0.0778893574032387 0.006918769265828223 0.033047691259515115
0.1250521050438 0.007379671858925097 0.034943205594422155 0.9907652266654803 -0.08212285682808097 0.0023110554445989638 0.016461412877395568 -0.0019906369244645965 -0.010453050617573177
 0.9907652266654803 -0.08212285682808097 0.007374614879711509 0.03494372923475537 -0.001991031711311525 -0.01045302557586338 0.002334346357140426 0.016458023961307508
 0.0023110554445989638 0.016461412877395568 -0.001991031711311525 -0.01045302557586338 0.0073793548597955155 0.034944896856950375 0.9907653135217267 -0.08212118446365936
 -0.0019906369244645965 -0.010453050617573177 0.002334346357140426 0.016458023961307508 0.9907653135217267 -0.08212118446365936 0.007375092965361976 0.03494532944387083
0.131304710296 0.007855741120130655 0.03685435013827016 0.9901380651813331 -0.08636700589296763 0.0025202247879848342 0.017282866553856687 -0.002169740423311286 -0.01097687113464209
 0.9901380651813331 -0.08636700589296763 0.007850166856524786 0.036854930733457754 -0.002170174392537979 -0.010976841332532856 0.0025459066448463683 0.017279037773430324
 0.0025202247879848342 0.017282866553856687 -0.002170174392537979 -0.010976841332532856 0.007855390798302962 0.036856127090581996 0.9901381608270956 -0.08636524928541135
 -0.002169740423311286 -0.01097687113464209 0.0025459066448463683 0.017279037773430324 0.9901381608270956 -0.08636524928541135 0.007850693550543044 0.03685660522431662
0.1375573155481 0.008242065486561069 0.03852947332462956 0.9895951891004229 -0.09037367007714267 0.002712496056368995 0.018078143025234313 -0.00233060003700436 -0.011474783331031047
 0.9895951891004229 -0.09037367007714267 0.008235947776892884 0.03853010162388572 -0.002331075941402844 -0.011474748741676508 0.002740632381009576 0.018073880051070905
 0.002712496056368995 0.018078143025234313 -0.002331075941402844 -0.011474748741676508 0.008241681008648501 0.03853133587899666 0.9895952939357041 -0.09037182919126951
 -0.00233060003700436 -0.011474783331031047 0.002740632381009576 0.018073880051070905 0.9895952939357041 -0.09037182919126951 0.008236524618308297 0.038531850010070236
0.1438099208003 0.008641980347437468 0.04019580016384236 0.9890332330260263 -0.09437021038005343 0.0029125281507110653 0.018870252158108974 -0.002497895955201572 -0.011969770110672151
 0.9890332330260263 -0.09437021038005343 0.00863529387127682 0.04019647901514647 -0.002498415708804801 -0.011969730285075727 0.002943225894541819 0.018865522482959692
 0.0029125281507110653 0.018870252158108974 -0.002498415708804801 -0.011969730285075727 0.008641560154304815 0.04019774845663372 0.9890333474967224 -0.09436828511504937
 -0.002497895955201572 -0.011969770110672151 0.002943225894541819 0.018865522482959692 0.9890333474967224 -0.09436828511504937 0.008635923034329963 0.04019830054031231
0.1500625260525 0.00905534560362686 0.04185319217840868 0.9884523411474717 -0.09835652845428183 0.0031202523580038753 0.019659114816627712 -0.002671560859623522 -0.01246175571241805
 0.9884523411474717 -0.09835652845428183 0.009048065029637564 0.04185392457066068 -0.002672126374283068 -0.012461710183171208 0.0031536177426875612 0.01965388476543447
 0.0031202523580038753 0.019659114816627712 -0.002672126374283068 -0.012461710183171208 0.009054888140241895 0.041855226351752074 0.9884524657038005 -0.09835451870455944
 -0.002671560859623522 -0.01246175571241805 0.0031536177426875612 0.01965388476543447 0.9884524657038005 -0.09835451870455944 0.00904874867273251 0.04185581845106798
0.15631513130469998 0.009482020167927183 0.04350151507543033 0.9878526583812185 -0.10233252627896802 0.003335599158504508 0.02044465320727415 -0.0028515266047376706 -0.012950665973259006
 0.9878526583812185 -0.10233252627896802 0.009474120153730649 0.0435023041398301 -0.0028521397901900593 -0.012950614254582497 0.0033717376623972157 0.02043888795198213
