! Created with skrf 1.8.0 (http://scikit-rf.org).
# GHz S RI R 50.0 
!freq ReS11 ImS11 ReS12 ImS12 ReS13 ImS13
! ReS14 ImS14
! ReS21 ImS21 ReS22 ImS22 ReS23 ImS23
! ReS24 ImS24
! ReS31 ImS31 ReS32 ImS32 ReS33 ImS33
! ReS34 ImS34
! ReS41 ImS41 ReS42 ImS42 ReS43 ImS43
! ReS44 ImS44
!
0.0 0.001204985488468 0.0 0.998795014492 0.0 4.612885995797e-05 0.0 -4.612886012461e-05 5.649156089991962e-21
 0.998795014492 0.0 0.001204985488477 0.0 -4.612886012501e-05 5.649156090040948e-21 4.612885995857e-05 0.0
 4.612885995797e-05 0.0 -4.612886012501e-05 5.649156090040948e-21 0.001204985498238 0.0 0.9987950145018 0.0
 -4.612886012461e-05 5.649156089991962e-21 4.612885995857e-05 0.0 0.9987950145018 0.0 0.001204985498229 0.0
0.005 0.0012957266414624212 0.000982227159848446 0.9986803197354382 -0.0025253211446136384 6.481277038857618e-05 0.0005331290276207217 -6.28516224901519e-05 -0.0003304413262171383
 0.9986803197354382 -0.0025253211446136384 0.0012957341339819304 0.000982222813704857 -6.285262449200149e-05 -0.00033044213305458506 6.47503755571032e-05 0.0005331525171167274
 6.481277038857618e-05 0.0005331290276207217 -6.285262449200149e-05 -0.00033044213305458506 0.0012957256252966733 0.000982160537257232 0.9986803194092525 -0.002525388208968731
 -6.28516224901519e-05 -0.0003304413262171383 6.47503755571032e-05 0.0005331525171167274 0.9986803194092525 -0.002525388208968731 0.0012957345041130742 0.000982155314128646
0.006252605252188 0.001319297832551263 0.0012316989065344554 0.9986503723244876 -0.003157306147956363 7.002763302865639e-05 0.0006666723243670803 -6.746918042520989e-05 -0.0004134982023214851
 0.9986503723244876 -0.003157306147956363 0.0013193095449685283 0.0012316934394875215 -6.747073934938502e-05 -0.0004134991983481292 6.993014228755609e-05 0.000666702832449254
 7.002763302865639e-05 0.0006666723243670803 -6.747073934938502e-05 -0.0004134991983481292 0.0013192963191797304 0.0012316156471285187 0.9986503718899844 -0.0031573899666530424
 -6.746918042520989e-05 -0.0004134982023214851 6.993014228755609e-05 0.000666702832449254 0.9986503718899844 -0.0031573899666530424 0.001319310199392502 0.0012316090758724002
0.01250521050438 0.0014420574805655284 0.002489688053433022 0.9984935333818008 -0.006315634290601923 9.928325714139747e-05 0.0013337012845131644 -9.311088649655857e-05 -0.0008291724730454209
 0.9984935333818008 -0.006315634290601923 0.0014421042484031108 0.0024896767923892355 -9.311702707528728e-05 -0.0008291743305425645 9.889436315373764e-05 0.001333774461702796
 9.928325714139747e-05 0.0013337012845131644 -9.311702707528728e-05 -0.0008291743305425645 0.0014420519659790183 0.00248952185935272 0.9984935321777944 -0.006315801699659544
 -9.311088649655857e-05 -0.0008291724730454209 9.889436315373764e-05 0.001333774461702796 0.9984935321777944 -0.006315801699659544 0.0014421074006345745 0.002489508300230019
0.01875781575657 0.0015734850330569275 0.003766069093709098 0.9983243368605621 -0.009482722990896801 0.00013395480683089743 0.0020015907093303927 -0.00012312285961919433 -0.001246419442949593
 0.9983243368605621 -0.009482722990896801 0.0015735901195366437 0.0037660517148575216 -0.0001231365495695672 -0.001246422007994439 0.00013308090730127523 0.002001720640934217
 0.00013395480683089743 0.0020015907093303927 -0.0001231365495695672 -0.001246422007994439 0.0015734730582787845 0.0037658201964158567 0.9983243345763205 -0.0094829739231067
 -0.00012312285961919433 -0.001246419442949593 0.00013308090730127523 0.002001720640934217 0.9983243345763205 -0.0094829739231067 0.001573597641256771 0.003765799203523266
0.02501042100875 0.0017137970000023625 0.005059094339258813 0.998142617078187 -0.012660154943204013 0.0001741025128261637 0.0026704053509992672 -0.00015757236051891166 -0.0016650719247937541
 0.998142617078187 -0.012660154943204013 0.001713983621326606 0.005059070534054167 -0.00015759653137629206 -0.0016650750209262772 0.00017254974394792708 0.0026706079709474945
 0.0001741025128261637 0.0026704053509992672 -0.00015759653137629206 -0.0016650750209262772 0.001713776095840595 0.005058762985715271 0.9981426133891382 -0.012660489382893715
 -0.00015757236051891166 -0.0016650719247937541 0.00017254974394792708 0.0026706079709474945 0.9981426133891382 -0.012660489382893715 0.0017139973783946915 0.00505873409795121
0.03126302626094 0.001863200561976732 0.006367887980052651 0.9979481983286651 -0.015848635729470505 0.00021978744237735633 0.0033401463832033284 -0.00019652509710637816 -0.002085023366813266
 0.9979481983286651 -0.015848635729470505 0.001863491901383241 0.0063678574587186934 -0.00019656265057174134 -0.002085026794652575 0.00021736149644670266 0.003340439486067834
 0.00021978744237735633 0.0033401463832033284 -0.00019656265057174134 -0.002085026794652575 0.0018631682634196972 0.006367474454206097 0.9979481929111851 -0.01584905369143792
 -0.00019652509710637816 -0.002085023366813266 0.00021736149644670266 0.003340439486067834 0.9979481929111851 -0.01584905369143792 0.0018635137700015907 0.006367437198442205
0.037515631513130004 0.002021898574852103 0.007691896832448191 0.9977408999744147 -0.019048543027173667 0.00027107085537051253 0.004010790411356883 -0.00024004575930580683 -0.0025061888276985134
 0.9977408999744147 -0.019048543027173667 0.002022317791631579 0.00769185932614477 -0.0002400995705808205 -0.002506192364801156 0.0002675768942382693 0.004011193673049941
 0.00027107085537051253 0.004010790411356883 -0.0002400995705808205 -0.002506192364801156 0.002021852418123536 0.007691401458441165 0.9977408925019894 -0.019049044553805586
 -0.00024004575930580683 -0.0025061888276985134 0.0002675768942382693 0.004011193673049941 0.9977408925019894 -0.019049044553805586 0.002022349656121823 0.007691355351540655
0.043768236765320004 0.00219009150929577 0.009030723215965916 0.9975205384741274 -0.022260093683070876 0.00032801392160631496 0.004682301332572374 -0.0002881982185686396 -0.0029284931033874305
 0.9975205384741274 -0.022260093683070876 0.0021906617462747334 0.009030678478551858 -0.0002882711383732134 -0.0029284965042174625 0.000323256531042908 0.004682836333723464
 0.00032801392160631496 0.004682301332572374 -0.0002882711383732134 -0.0029284965042174625 0.002190029031472969 0.009030146366178857 0.9975205286162989 -0.0222606788367943
 -0.0002881982185686396 -0.0029284931033874305 0.000323256531042908 0.004682836333723464 0.9975205286162989 -0.0222606788367943 0.0021907054989923442 0.009030090916247598
0.050020842017509996 0.00236797835492762 0.010384055875101255 0.9972869283771876 -0.025483412740073073 0.0003906775581088229 0.005354635233686864 -0.00034104561566484744 -0.0033518658166256108
 0.9972869283771876 -0.025483412740073073 0.002368722745018271 0.010384003684673248 -0.0003411404715838622 -0.0033518688125388713 0.00038446072385961953 0.005355325484168891
 0.0003906775581088229 0.005354635233686864 -0.0003411404715838622 -0.0033518688125388713 0.0023678970961359554 0.010383397968737112 0.9972869158006978 -0.025484081605299577
 -0.00034104561566484744 -0.0033518658166256108 0.00038446072385961953 0.005355325484168891 0.9972869158006978 -0.025484081605299577 0.0023687802887783385 0.010383332676194661
0.055454545454549996 0.002530593846660514 0.0115717219492349 0.9970730096042808 -0.028294185232342294 0.0004498270018172973 0.005939543925422855 -0.00039083298412732155 -0.003720604422323151
 0.9970730096042808 -0.028294185232342294 0.002531508364136433 0.011571663121520616 -0.000390949182240309 -0.0037206068302413973 0.00044218220460766247 0.005940389702369354
 0.0004498270018172973 0.005939543925422855 -0.000390949182240309 -0.0037206068302413973 0.0025304942703757846 0.011570993979956756 0.9970729943908028 -0.028294926930474983
 -0.00039083298412732155 -0.003720604422323151 0.00044218220460766247 0.005940389702369354 0.9970729943908028 -0.028294926930474983 0.0025315794455685464 0.01157091972283464
0.056273447269699996 0.0025557571040875026 0.011751636080945569 0.9970398828990785 -0.028718567283845007 0.00045912232233625313 0.0060277427866814535 -0.00039865039597551015 -0.0037762390100686536
 0.9970398828990785 -0.028718567283845007 0.0025566987756289045 0.011751576241179609 -0.00039876999335147696 -0.003776241309325817 0.00045124941880028447 0.006028613750678746
 0.00045912232233625313 0.0060277427866814535 -0.00039876999335147696 -0.003776241309325817 0.002555654606630827 0.011750897583074597 0.9970398672662037 -0.028719319968390326
 -0.00039865039597551015 -0.0037762390100686536 0.00045124941880028447 0.006028613750678746 0.9970398672662037 -0.028719319968390326 0.0025567720231958095 0.011750821941490911
0.06252605252188 0.002753625019264141 0.013133238983795002 0.9967792142835603 -0.03196558503885909 0.0005334083317730134 0.006701570565454623 -0.00046107431908297983 -0.0042015458191178015
 0.9967792142835603 -0.03196558503885909 0.0027547871023611815 0.013133171325057329 -0.0004612214417745063 -0.004201547106886567 0.0005236821195500287 0.006702649686815749
 0.0005334083317730134 0.006701570565454623 -0.0004612214417745063 -0.004201547106886567 0.002753498828648017 0.013132420416096299 0.9967791952518027 -0.031966421663645966
 -0.00046107431908297983 -0.0042015458191178015 0.0005236821195500287 0.006702649686815749 0.9967791952518027 -0.031966421663645966 0.0027548779768419595 0.013132333912884693
0.06877865777407 0.00296177879058262 0.014528662509782946 0.9965047340553576 -0.03522446542096358 0.0006135951989479066 0.007376061828629224 -0.0005283784536357781 -0.004627719679930901
 0.9965047340553576 -0.03522446542096358 0.0029631844220217736 0.014528586890271242 -0.0005285558644882653 -0.0046277196183059175 0.0006018178279664139 0.007377378556364013
 0.0006135951989479066 0.007376061828629224 -0.0005285558644882653 -0.0046277196183059175 0.0029616264561446995 0.014527764436574083 0.9965047112769315 -0.03522538613449684
 -0.0005283784536357781 -0.004627719679930901 0.0006018178279664139 0.007377378556364013 0.9965047112769315 -0.03522538613449684 0.0029632948577153367 0.014527666553581226
0.07503126302626001 0.003180414625696113 0.015937720305754872 0.9962162532079232 -0.03849518654289004 0.0006997419758619358 0.008051157009839063 -0.000600623162176814 -0.005054693831309059
 0.9962162532079232 -0.03849518654289004 0.003182086954405687 0.015937636612384093 -0.0006008336033684978 -0.005054692059335385 0.0006857149931552653 0.008052742823619466
 0.0006997419758619358 0.008051157009839063 -0.0006008336033684978 -0.005054692059335385 0.0031802337012203532 0.01593674334824365 0.996216226329598 -0.038496191507455264
 -0.000600623162176814 -0.005054693831309059 0.0006857149931552653 0.008052742823619466 0.996216226329598 -0.038496191507455264 0.0031822188974977386 0.015936633562088312
0.08128386827845 0.0034097282983773704 0.017360237056064785 0.9959135823518195 -0.04177770984904386 0.000791907102385946 0.008726794049225115 -0.0006778680816543557 -0.005482400976732429
 0.9959135823518195 -0.04177770984904386 0.003411690490819898 0.017360145205250265 -0.0006781142750631171 -0.0054823971104209866 0.0007754314631074835 0.00872868248490338
 0.000791907102385946 0.008726794049225115 -0.0006781142750631171 -0.0054823971104209866 0.0034095163428958714 0.017359181884586742 0.995913551013967 -0.04177879924886654
 -0.0006778680816543557 -0.005482400976732429 0.0007754314631074835 0.00872868248490338 0.995913551013967 -0.04177879924886654 0.003411845899513638 0.01735905966701494
0.08753647353064001 0.0036499151690565865 0.01879604523335341 0.9955965318362741 -0.04507198331756738 0.0008901483597942844 0.009402908616575136 -0.0007601720982093176 -0.005910773056278481
 0.9955965318362741 -0.04507198331756738 0.0036521904144362445 0.018795945171663005 -0.0007604567455709767 -0.005910766688628346 0.0008710244409283314 0.009405135291607756
 0.0008901483597942844 0.009402908616575136 -0.0007604567455709767 -0.005910766688628346 0.003649669747258956 0.018794912573043915 0.995596495672285 -0.04507315735358264
 -0.0007601720982093176 -0.005910773056278481 0.0008710244409283314 0.009405135291607756 0.995596495672285 -0.04507315735358264 0.003652371259526247 0.018794777391030457
0.09378907878283 0.0039011701873246326 0.020244982784878775 0.9952649118550957 -0.04837794372834116 0.000994522825520869 0.010079434273068915 -0.0008475933198862215 -0.006339741081446258
 0.9952649118550957 -0.04837794372834116 0.0039037817029696064 0.020244874489627484 -0.000847919102996146 -0.006339731782477083 0.0009725504418950928 0.010082036911843133
 0.000994522825520869 0.010079434273068915 -0.000847919102996146 -0.006339731782477083 0.0039008888707637423 0.02024377341215468 0.9952648704912412 -0.04837920262208337
 -0.0008475933198862215 -0.006339741081446258 0.0009725504418950928 0.010082036911843133 0.9952648704912412 -0.04837920262208337 0.0039039899685497483 0.02024362472801426
0.100041684035 0.00416368788128145 0.021706891421702963 0.994918532541038 -0.05169551832986196 0.0011050868296721564 0.010756302590117672 -0.0009401890470150179 -0.006769235014492209
 0.994918532541038 -0.05169551832986196 0.004166658917802026 0.02170677490130389 -0.0009405586278237721 -0.006769222331265238 0.001080065251734276 0.010759321049138975
 0.0011050868296721564 0.010756302590117672 -0.0009405586278237721 -0.006769222331265238 0.004163368248657155 0.021705606167203125 0.9949184855954966 -0.05169686232088441
 -0.0009401890470150179 -0.006769235014492209 0.001080065251734276 0.010759321049138975 0.9949184855954966 -0.05169686232088441 0.00416689660152301 0.02170544343838791
0.1059090909091 0.004420449068341806 0.023090395870166692 0.9945798997314304 -0.05481920110396793 0.0012145182228613341 0.011391720736257768 -0.0010318367776127831 -0.007172684438600153
 0.9945798997314304 -0.05481920110396793 0.004423778657849593 0.023090271666954144 -0.001032249861339321 -0.007172668147241425 0.0011864522704260621 0.011395167568783468
 0.0012145182228613341 0.011391720736257768 -0.001032249861339321 -0.007172668147241425 0.004420091285490496 0.023089040211596835 0.9945798471934314 -0.05482062518488288
 -0.0010318367776127831 -0.007172684438600153 0.0011864522704260621 0.011395167568783468 0.9945798471934314 -0.05482062518488288 0.0044240457770409695 0.023088863805416093
0.1062942892872 0.004437662335648411 0.023181615346120434 0.9945572040506143 -0.05502462606934889 0.001221895912687683 0.011433443237018915 -0.001038015740503695 -0.007199183680660063
 0.9945572040506143 -0.05502462606934889 0.004441016182684723 0.023181490640369853 -0.0010384317612211888 -0.007199167137311065 0.0011936238860736554 0.011436919529916649
 0.001221895912687683 0.011433443237018915 -0.0010384317612211888 -0.007199167137311065 0.004437301974020022 0.02318025509363463 0.9945571511331192 -0.055026055416684524
 -0.001038015740503695 -0.007199183680660063 0.0011936238860736554 0.011436919529916649 0.9945571511331192 -0.055026055416684524 0.00444128529651497 0.02318007777255432
0.11254689453939999 0.004723287164291699 0.0246690002616124 0.9941807366449563 -0.05836517854219976 0.0013450047836722405 0.012110784050612267 -0.0011411289889309408 -0.0076295146999890125
 0.9941807366449563 -0.05836517854219976 0.004727047155525945 0.024668867441868775 -0.0011415940720836874 -0.007629493797757058 0.0013132805499806238 0.012114762373047334
 0.0013450047836722405 0.012110784050612267 -0.0011415940720836874 -0.007629493797757058 0.00472288366963048 0.024667565948629868 0.9941806773563151 -0.05836669352408557
 -0.0011411289889309408 -0.0076295146999890125 0.0013132805499806238 0.012114762373047334 0.9941806773563151 -0.05836669352408557 0.004727349726019094 0.02466737348229097
0.11879949979160001 0.0050207554752271346 0.02616889261062302 0.9937889407654216 -0.061717080715550245 0.0014744672787574762 0.012788251090257875 -0.0012495834745829574 -0.008060154435757274
 0.9937889407654216 -0.061717080715550245 0.005024944994361849 0.026168751779712698 -0.0012501002230310841 -0.008060128653021005 0.0014390885979693939 0.012792777844437702
 0.0014744672787574762 0.012788251090257875 -0.0012501002230310841 -0.008060128653021005 0.005020306453285421 0.026167385230898708 0.9937888746967644 -0.06171868162712502
 -0.0012495834745829574 -0.008060154435757274 0.0014390885979693939 0.012792777844437702 0.9937888746967644 -0.06171868162712502 0.005025283063331766 0.026167177060314562
0.1250521050438 0.005330259832070569 0.027681138964540292 0.9933816271066357 -0.06508023150126387 0.0016103363203152643 0.013465768680685568 -0.0013634329383019274 -0.008491027956647768
 0.9933816271066357 -0.06508023150126387 0.005334902317990161 0.027680990256653583 -0.0013640039352696874 -0.008490996748958916 0.001571100493930119 0.013470892499870792
 0.0016103363203152643 0.013465768680685568 -0.0013640039352696874 -0.008490996748958916 0.005329762899354648 0.027679559564807287 0.9933815538389121 -0.06508191865819016
 -0.0013634329383019274 -0.008491027956647768 0.001571100493930119 0.013470892499870792 0.9933815538389121 -0.06508191865819016 0.005335277942936555 0.02767933512440631
0.131304710296 0.005651992211090753 0.02920558553601906 0.9929586066874659 -0.06845452420888662 0.001752663875678976 0.014143259450867756 -0.0014827301437310833 -0.008922059004919889
 0.9929586066874659 -0.06845452420888662 0.005657111163856997 0.02920542911636322 -0.0014833579528159917 -0.008922021805037343 0.0017093677713234268 0.014149031223459762
 0.001752663875678976 0.014143259450867756 -0.0014833579528159917 -0.008922021805037343 0.0056514449957050855 0.02920393521810964 0.9929585257906614 -0.06845629794535645
 -0.0014827301437310833 -0.008922059004919889 0.0017093677713234268 0.014149031223459762 0.9929585257906614 -0.06845629794535645 0.0056575264184567904 0.029203693934917074
0.1375573155481 0.005905067516394656 0.030541579460674127 0.9926007865627842 -0.07163929324631883 0.001881625659897013 0.014799506983273793 -0.001587708214798232 -0.009332005781295871
 0.9926007865627842 -0.07163929324631883 0.0059106886079139335 0.030541418039218365 -0.0015883967026108126 -0.009331962666886458 0.0018341770957321227 0.01480591037952519
 0.001881625659897013 0.014799506983273793 -0.0015883967026108126 -0.009331962666886458 0.005904468205550365 0.030539859072491963 0.9926006976916423 -0.07164115377052838
 -0.001587708214798232 -0.009332005781295871 0.0018341770957321227 0.01480591037952519 0.9926006976916423 -0.07164115377052838 0.005911144859758123 0.030539603247618046
0.1438099208003 0.0061667655030985405 0.03187166543521099 0.9922308745560946 -0.0748171613483776 0.0020158060064367623 0.015453854604481673 -0.0016969060779802331 -0.009740237518006805
 0.9922308745560946 -0.0748171613483776 0.006172912665172132 0.031871499223727694 -0.0016976580147490064 -0.00974018794176587 0.0019640213334459647 0.015460935251416218
 0.0020158060064367623 0.015453854604481673 -0.0016976580147490064 -0.00974018794176587 0.006166111842952376 0.031869876106047336 0.9922307772821083 -0.07481910899346376
 -0.0016969060779802331 -0.009740237518006805 0.0019640213334459647 0.015460935251416218 0.9922307772821083 -0.07481910899346376 0.006173411883521538 0.03186960522791108
0.1500625260525 0.006437008007915102 0.03319576665128894 0.9918489516201233 -0.0779880849455585 0.00215516787028135 0.016106260116970313 -0.0018102881201281825 -0.010146713924882379
 0.9918489516201233 -0.0779880849455585 0.006443705246172252 0.03319559584689431 -0.0018111062729896084 -0.010146657317722331 0.002098864323129789 0.01611406527105381
 0.00215516787028135 0.016106260116970313 -0.0018111062729896084 -0.010146657317722331 0.006436297762635352 0.03319390955759918 0.9918488455054054 -0.07799012005611092
 -0.0018102881201281825 -0.010146713924882379 0.002098864323129789 0.01611406527105381 0.9918488455054054 -0.07799012005611092 0.006444249407952797 0.033193623071952574
0.15631513130469998 0.006715716471504029 0.034513808836677144 0.9914550989424372 -0.08115201996937776 0.002299673870936413 0.016756681877657872 -0.001927818381639601 -0.010551395472533082
