! Created with skrf 1.8.0 (http://scikit-rf.org).
# GHz S RI R 50.0 
!freq ReS11 ImS11 ReS12 ImS12 ReS13 ImS13
! ReS14 ImS14
! ReS21 ImS21 ReS22 ImS22 ReS23 ImS23
! ReS24 ImS24
! ReS31 ImS31 ReS32 ImS32 ReS33 ImS33
! ReS34 ImS34
! ReS41 ImS41 ReS42 ImS42 ReS43 ImS43
! ReS44 ImS44
!
0.0 0.00143845687938 0.0 0.9985615430894 0.0 5.542260698241e-05 0.0 -5.542260733776e-05 6.78731186765884e-21
 0.9985615430894 0.0 0.001438456879392 0.0 -5.542260733799e-05 6.787311867687007e-21 5.542260698277e-05 0.0
 5.542260698241e-05 0.0 -5.542260733799e-05 6.787311867687007e-21 0.001438456895008 0.0 0.998561543105 0.0
 -5.542260733776e-05 6.78731186765884e-21 5.542260698277e-05 0.0 0.998561543105 0.0 0.001438456895009 0.0
0.005 0.0015473928286860675 0.001174903851230827 0.9984237580484352 -0.0030136116283526796 7.784432901444168e-05 0.0006235017074951854 -7.551411170876882e-05 -0.0003891789706347249
 0.9984237580484352 -0.0030136116283526796 0.0015474126453377105 0.0011748923397711174 -7.551212054325153e-05 -0.00038917753452672675 7.772372244945557e-05 0.0006235475588302403
 7.784432901444168e-05 0.0006235017074951854 -7.551212054325153e-05 -0.00038917753452672675 0.001547393037456053 0.0011748365249467441 0.9984237577027082 -0.003013678692442839
 -7.551411170876882e-05 -0.0003891789706347249 7.772372244945557e-05 0.0006235475588302403 0.9984237577027082 -0.003013678692442839 0.0015474117507839008 0.0011748255435147308
0.006252605252188 0.001575877066639914 0.0014732731737590672 0.9983875132103107 -0.0037677657406782 8.421371047354787e-05 0.0007796779194674879 -8.114875179803652e-05 -0.00048698478307709344
 0.9983875132103107 -0.0037677657406782 0.0015759080432948824 0.001473258574254435 -8.114565261098168e-05 -0.00048698301408055966 8.402527220865939e-05 0.0007797374458704974
 8.421371047354787e-05 0.0007796779194674879 -8.114565261098168e-05 -0.00048698301408055966 0.0015758774618805937 0.0014731890321215612 0.9983875127390673 -0.003767849564562011
 -8.114875179803652e-05 -0.00048698478307709344 8.402527220865939e-05 0.0007797374458704974 0.9983875127390673 -0.003767849564562011 0.0015759067147704004 0.0014731750806068122
0.01250521050438 0.0017253218730408813 0.0029776110952155826 0.9981961395856199 -0.007536430851574637 0.00012054760097318153 0.0015597008857515548 -0.00011291530932372902 -0.0009763968803190727
 0.9981961395856199 -0.007536430851574637 0.0017254455554676805 0.0029775797810289817 -0.00011290308611322617 -0.0009763936285140735 0.0001197961094153928 0.0015598436951808846
 0.00012054760097318153 0.0015597008857515548 -0.00011290308611322617 -0.0009763936285140735 0.0017253240001063792 0.002977443170697665 0.9981961382589918 -0.0075365982560707725
 -0.00011291530932372902 -0.0009763968803190727 0.0001197961094153928 0.0015598436951808846 0.9981961382589918 -0.0075365982560707725 0.0017254408167371698 0.0029774130120171606
0.01875781575657 0.0018871009639852686 0.00450355699391741 0.9979871963537729 -0.01131518784521823 0.00016450485942364073 0.0023406152716683023 -0.00015081669676267765 -0.0014675252794381294
 0.9979871963537729 -0.01131518784521823 0.001887378867786257 0.004503506696610501 -0.00015078942489141605 -0.0014675208860200368 0.00016281661197711428 0.0023408695207629802
 0.00016450485942364073 0.0023406152716683023 -0.00015078942489141605 -0.0014675208860200368 0.0018871061563004716 0.004503305504480238 0.9979871937963184 -0.011315438765952725
 -0.00015081669676267765 -0.0014675252794381294 0.00016281661197711428 0.0023408695207629802 0.9979871937963184 -0.011315438765952725 0.0018873686665374658 0.004503256744272232
0.02501042100875 0.0020615157418582926 0.006048988888103384 0.9977604492209636 -0.015105885722023624 0.00021616772366847526 0.003122467032968145 -0.00019494453032006882 -0.0019601546486554956
 0.9977604492209636 -0.015105885722023624 0.0020620092499885833 0.006048917208783418 -0.0001948963511286852 -0.001960149515593295 0.00021316880508308032 0.003122865115977034
 0.00021616772366847526 0.003122467032968145 -0.0001948963511286852 -0.001960149515593295 0.0020615253169545423 0.006048654056774528 0.9977604450487553 -0.015106220129150194
 -0.00019494453032006882 -0.0019601546486554956 0.00021316880508308032 0.003122865115977034 0.9977604450487553 -0.015106220129150194 0.0020619915439261454 0.006048584182098505
0.03126302626094 0.0022488550560652246 0.007612823421659556 0.9975156513350449 -0.01890932610958612 0.00027561918407584995 0.003905229038586225 -0.0002453880083136907 -0.0024541379248155006
 0.9975156513350449 -0.01890932610958612 0.00224962545258065 0.007612727835605126 -0.0002453131177967772 -0.002454132515649656 0.00027093511495145106 0.0039058076115462176
 0.00027561918407584995 0.003905229038586225 -0.0002453131177967772 -0.002454132515649656 0.0022488703267175584 0.007612405472782027 0.9975156451643404 -0.018909744011879396
 -0.0002453880083136907 -0.0024541379248155006 0.00027093511495145106 0.0039058076115462176 0.9975156451643404 -0.018909744011879396 0.0022495982173930894 0.0076123118564961735
0.037515631513130004 0.002449401617267241 0.009194360761260135 0.997252549869342 -0.022725918308403203 0.0003429420936351451 0.004688845478182865 -0.0003022345811034391 -0.002949351893720652
 0.997252549869342 -0.022725918308403203 0.0024505101096085943 0.009194238620333068 -0.0003021272241198508 -0.0029493467338807147 0.00033619767010484736 0.004689645502159089
 0.0003429420936351451 0.004688845478182865 -0.0003021272241198508 -0.0029493467338807147 0.00244942389131026 0.009193859940401537 0.9972525413145183 -0.022726419733622796
 -0.0003022345811034391 -0.002949351893720652 0.00033619767010484736 0.004689645502159089 0.9972525413145183 -0.022726419733622796 0.002450471337340276 0.009193739843445929
0.043768236765320004 0.0026634344666185725 0.010793085255359347 0.9969708886644671 -0.02655587856708188 0.0004182187644621873 0.005473245350040927 -0.00036557018980721987 -0.003445683694641424
 0.9969708886644671 -0.02655587856708188 0.002664942203345186 0.010792933789508288 -0.00036542465677348406 -0.003445679371611726 0.0004090379792774299 0.005474312140321216
 0.0004182187644621873 0.005473245350040927 -0.00036542465677348406 -0.003445679371611726 0.0026634650473257608 0.010792501829319201 0.9969708773365442 -0.026556463562204903
 -0.00036557018980721987 -0.003445683694641424 0.0004090379792774299 0.005474312140321216 0.9969708773365442 -0.026556463562204903 0.0026648899010527833 0.010792352402262555
0.050020842017509996 0.002891230133159808 0.01240858305609066 0.9966704095621092 -0.030399312392705064 0.0005015307263557761 0.0062583480424364775 -0.0004354793612002889 -0.003943025233863584
 0.9966704095621092 -0.030399312392705064 0.0028931982186901984 0.012408399374358737 -0.00043528998595233757 -0.003943022397299026 0.0004895367330274002 0.0062597313201605545
 0.0005015307263557761 0.0062583480424364775 -0.00043528998595233757 -0.003943022397299026 0.0028912703203439766 0.012407917311063771 0.996670395068536 -0.030399981025863453
 -0.0004354793612002889 -0.003943025233863584 0.0004895367330274002 0.0062597313201605545 0.996670395068536 -0.030399981025863453 0.0028931304087570216 0.012407735595139992
0.055454545454549996 0.0031005818819815102 0.01382584671104609 0.9963938002571152 -0.03375034365209917 0.0005805195945488516 0.006941129042187897 -0.0005016356905052325 -0.004375967738516868
 0.9963938002571152 -0.03375034365209917 0.003102999625037624 0.013825632591413067 -0.0005014036461279682 -0.00437596676968842 0.0005657741335213511 0.006942831198215121
 0.0005805195945488516 0.006941129042187897 -0.0005014036461279682 -0.00437596676968842 0.003100631472030574 0.01382510967514351 0.9963937826911454 -0.033751085041828485
 -0.0005016356905052325 -0.004375967738516868 0.0005657741335213511 0.006942831198215121 0.9963937826911454 -0.033751085041828485 0.003102916745198847 0.013824897411945624
0.056273447269699996 0.0031330632307078376 0.01404050166172284 0.9963508531825868 -0.034256254940867537 0.0005929585613826711 0.0070440660659830765 -0.0005120452334634213 -0.004441270449837479
 0.9963508531825868 -0.034256254940867537 0.0031355527392899194 0.01404028275274835 -0.0005118063919025969 -0.0044412698116532996 0.0005777736647226663 0.00704582001088572
 0.0005929585613826711 0.0070440660659830765 -0.0005118063919025969 -0.0044412698116532996 0.003133114322749696 0.014039753904220308 0.9963508351273943 -0.034257007300627994
 -0.0005120452334634213 -0.004441270449837479 0.0005777736647226663 0.00704582001088572 0.9963508351273943 -0.034257007300627994 0.0031354674604893626 0.014039536832002217
0.06252605252188 0.0033892067839010136 0.015688527696040063 0.9960119594337707 -0.038126693170643274 0.0006925817753648767 0.00783030655813218 -0.000595349548287025 -0.004940313808987147
 0.9960119594337707 -0.038126693170643274 0.0033922787726084307 0.015688270428194262 -0.0005950556575278377 -0.004940316143419128 0.0006738274388866405 0.007832489861770257
 0.0006925817753648767 0.00783030655813218 -0.0005950556575278377 -0.004940316143419128 0.003389270076916171 0.015687698259620488 0.9960119374153713 -0.038127529359283485
 -0.000595349548287025 -0.004940313808987147 0.0006738274388866405 0.007832489861770257 0.9960119374153713 -0.038127529359283485 0.0033921740781473046 0.015687442655307242
0.06877865777407 0.0036599324040001288 0.01735237364707431 0.9956534678742625 -0.04201057904255331 0.0008004786899262524 0.008616972173346792 -0.0006854726233193221 -0.005440049418865856
 0.9956534678742625 -0.04201057904255331 0.0036636479248599147 0.01735207476828749 -0.0006851181410691501 -0.005440055562535885 0.0007777755554088542 0.008619648092428852
 0.0008004786899262524 0.008616972173346792 -0.0006851181410691501 -0.005440055562535885 0.00366000919411901 0.0173514628885135 0.9956534414858336 -0.042011499180027105
 -0.0006854726233193221 -0.005440049418865856 0.0007777755554088542 0.008619648092428852 0.9956534414858336 -0.042011499180027105 0.003663521884382275 0.017351165467880847
0.07503126302626001 0.003945510378956914 0.019031769467599643 0.9952751179930586 -0.045907837857735764 0.0009167263458575558 0.009403961659044637 -0.0007824933131405208 -0.00594037045876208
 0.9952751179930586 -0.045907837857735764 0.00394993049180942 0.01903142560473334 -0.0007820727374772317 -0.005940381310717919 0.0008896942621439534 0.009407198068667154
 0.0009167263458575558 0.009403961659044637 -0.0007820727374772317 -0.005940381310717919 0.003945601963335119 0.0190307777684823 0.9952750868225082 -0.0459088420800564
 -0.0007824933131405208 -0.00594037045876208 0.0008896942621439534 0.009407198068667154 0.9952750868225082 -0.0459088420800564 0.003949781190998322 0.019030435138535192
0.08128386827845 0.004246209707313688 0.020726456977834085 0.9948766494367774 -0.04981837379821748 0.0010414004150921285 0.010191170233294631 -0.0008864889616862694 -0.006441168811916834
 0.9948766494367774 -0.04981837379821748 0.004251395491139251 0.020726064635833444 -0.000885996830828416 -0.006441185333670479 0.0010096584734979814 0.010195039679893568
 0.0010414004150921285 0.010191170233294631 -0.000885996830828416 -0.006441185333670479 0.004246317384328694 0.020725384741956662 0.9948766130652273 -0.049819462260084844
 -0.0008864889616862694 -0.006441168811916834 0.0010096584734979814 0.010195039679893568 0.9948766130652273 -0.049819462260084844 0.004251221031859304 0.020724993400188976
0.08753647353064001 0.004562298095259681 0.02243618600042198 0.9944578022036669 -0.05374207373854697 0.0011745751160966897 0.010978489852983971 -0.000997535349979547 -0.006942334810777651
 0.9944578022036669 -0.05374207373854697 0.004568310660807344 0.02243574156095209 -0.0009969662423564526 -0.0069423580263297474 0.001137741691923691 0.010983069606884369
 0.0011745751160966897 0.010978489852983971 -0.0009969662423564526 -0.0069423580263297474 0.004562423166533557 0.022435033657553453 0.9944577602053303 -0.053743246609546026
 -0.000997535349979547 -0.006942334810777651 0.001137741691923691 0.010983069606884369 0.9944577602053303 -0.053743246609546026 0.004568109161798576 0.022434589990908395
0.09378907878283 0.004894041929911513 0.02416071159221221 0.9940183168151097 -0.05767880996441036 0.00131632313421276 0.011765809404139575 -0.0011157066386515652 -0.007443757063699181
 0.9940183168151097 -0.05767880996441036 0.0049009424312794715 0.024160211312040818 -0.0011150551729319548 -0.007443788059552209 0.0012740159326288206 0.011771181511673317
 0.00131632313421276 0.011765809404139575 -0.0011150551729319548 -0.007443788059552209 0.004894185700260707 0.024159479597477957 0.9940182687566957 -0.05768006742946334
 -0.0011157066386515652 -0.007443757063699181 0.0012740159326288206 0.011771181511673317 0.9940182687566957 -0.05768006742946334 0.004900712028051818 0.02415897988089502
0.100041684035 0.0052417062328397965 0.025899792024699334 0.9935579344723311 -0.061628442146433544 0.001466715542217172 0.01255301485183653 -0.0012410753089920192 -0.00794532232582022
 0.9935579344723311 -0.061628442146433544 0.005249555879588373 0.02589923203364638 -0.0012403361443411745 -0.007945362250978657 0.001418551648368779 0.012559266186820546
 0.001466715542217172 0.01255301485183653 -0.0012403361443411745 -0.007945362250978657 0.005241870012094577 0.025898480853823173 0.9935578799125722 -0.061629784410583456
 -0.0012410753089920192 -0.00794532232582022 0.001418551648368779 0.012559266186820546 0.9935578799125722 -0.061629784410583456 0.005249294725109339 0.025897921248486628
0.1059090909091 0.005582666627453339 0.02754475817792102 0.9931066791134153 -0.06534634699696262 0.0016157666720185264 0.013291515846909942 -0.0013653294858471047 -0.008416015613906138
 0.9931066791134153 -0.06534634699696262 0.005591462675933818 0.02754413851938355 -0.0013645032038801198 -0.00841606501894988 0.0015617581315789358 0.013298675599341935
 0.0016157666720185264 0.013291515846909942 -0.0013645032038801198 -0.00841606501894988 0.005582850379315544 0.027543373166997082 0.9931066180436676 -0.06534776903287992
 -0.0013653294858471047 -0.008416015613906138 0.0015617581315789358 0.013298675599341935 0.9931066180436676 -0.06534776903287992 0.005591171000629266 0.027542753767781893
0.1062942892872 0.005605554601539443 0.027653187252190306 0.9930763972028498 -0.06559081883082728 0.0016258217238390037 0.013339989350350571 -0.001373712100462046 -0.008446915413509396
 0.9930763972028498 -0.06559081883082728 0.005614414670734557 0.027652563550666243 -0.0013728799367429064 -0.008446965479475588 0.0015714176563911386 0.013347211664955056
 0.0016258217238390037 0.013339989350350571 -0.0013728799367429064 -0.008446965479475588 0.005605739705216913 0.02765179740943538 0.9930763356916842 -0.065592246111022
 -0.001373712100462046 -0.008446915413509396 0.0015714176563911386 0.013347211664955056 0.9930763356916842 -0.065592246111022 0.0056141209357694925 0.027651173960554474
0.11254689453939999 0.005985849140089195 0.029420657751831496 0.9925734479988617 -0.06956577856216206 0.0017937092973577564 0.014126613337065629 -0.0015136859471788844 -0.0089484191389829
 0.9925734479988617 -0.06956577856216206 0.005995780988413615 0.029419966207977866 -0.001512755525325641 -0.008948480619727098 0.001732681065163535 0.014134903312001571
 0.0017937092973577564 0.014126613337065629 -0.001512755525325641 -0.008948480619727098 0.005986056890196695 0.029419189764186608 0.9925733790767085 -0.06956729109292058
 -0.0015136859471788844 -0.0089484191389829 0.001732681065163535 0.014134903312001571 0.9925733790767085 -0.06956729109292058 0.005995452861357156 0.029418498398487872
0.11879949979160001 0.0063828503814770616 0.031201963613905283 0.9920488309502308 -0.07355315076054877 0.001970444040294117 0.014912764608639495 -0.001661063912593508 -0.009449714266712496
 0.9920488309502308 -0.07355315076054877 0.00639391545742902 0.031201199960361713 -0.0016600300149348683 -0.009449788498645147 0.0019024072020051358 0.014922223902558474
 0.001970444040294117 0.014912764608639495 -0.0016600300149348683 -0.009449788498645147 0.006383082108099085 0.031200418032095178 0.99204875414786 -0.07355474879272973
 -0.001661063912593508 -0.009449714266712496 0.0019024072020051358 0.014922223902558474 0.99204875414786 -0.07355474879272973 0.006393551145612593 0.03119965455483105
0.1250521050438 0.006796817204513379 0.03299686382424332 0.9915022913744597 -0.0775527564114468 0.002156089814575428 0.01569831838571646 -0.001815911123113635 -0.009950679485368367
 0.9915022913744597 -0.0775527564114468 0.006809077060297792 0.0329960236544689 -0.0018147685737920844 -0.009950767867292792 0.002080659540693515 0.015709053683801488
 0.002156089814575428 0.01569831838571646 -0.0018147685737920844 -0.009950767867292792 0.006797074246184516 0.03299524122375537 0.9915022062119851 -0.07755444021094691
 -0.001815911123113635 -0.009950679485368367 0.002080659540693515 0.015709053683801488 0.9915022062119851 -0.07755444021094691 0.006808674789779373 0.03299440131529683
0.131304710296 0.007228006744457961 0.03480511569174352 0.9909335759431471 -0.08156440861502355 0.0023507084918642906 0.016483147373013363 -0.001978290700816407 -0.010451191388632755
 0.9909335759431471 -0.08156440861502355 0.007241523048765704 0.03480419445582711 -0.001977034366214268 -0.010451295381678943 0.002267499629428718 0.016495270434637582
 0.0023507084918642906 0.016483147373013363 -0.001977034366214268 -0.010451295381678943 0.007228290449540131 0.034803416670938114 0.9909334819296146 -0.08156617846429047
 -0.001978290700816407 -0.010451191388632755 0.002267499629428718 0.016495270434637582 0.9909334819296146 -0.08156617846429047 0.007241081064806567 0.034802495883062216
0.1375573155481 0.0075751918403658474 0.03639000796471975 0.9904439480864999 -0.08535136061407636 0.0025294629316587685 0.01724309733983348 -0.0021234687761563357 -0.01092704581521866
 0.9904439480864999 -0.08535136061407636 0.0075900317875803565 0.03638902066029143 -0.0021220913476629934 -0.010927165482563277 0.0024382849788084763 0.01725658634193125
 0.0025294629316587685 0.01724309733983348 -0.0021220913476629934 -0.010927165482563277 0.007575504494388243 0.036388232420319085 0.9904438448155828 -0.0853532166782292
 -0.0021234687761563357 -0.01092704581521866 0.0024382849788084763 0.01725658634193125 0.9904438448155828 -0.0853532166782292 0.007589547248543708 0.036387247081254834
0.1438099208003 0.007934499587413607 0.037966957084349925 0.989937258450386 -0.08912913431675758 0.00271545917772235 0.018000213587612033 -0.002274469342098548 -0.011400340829383977
 0.989937258450386 -0.08912913431675758 0.007950725878083332 0.03796590031611589 -0.0022729653548326707 -0.01140047759452468 0.002615961724570682 0.018015170282199667
 0.00271545917772235 0.018000213587612033 -0.0022729653548326707 -0.01140047759452468 0.007934842723481135 0.037965105574297275 0.9899371454321303 -0.08913107687227922
 -0.002274469342098548 -0.011400340829383977 0.002615961724570682 0.018015170282199667 0.9899371454321303 -0.08913107687227922 0.007950196859333403 0.03796405253040716
0.1500625260525 0.008305808941420493 0.03953584357821681 0.989413631728289 -0.09289764855757304 0.002908637474879996 0.01875442651618553 -0.0024312350728017186 -0.011871011455939402
 0.989413631728289 -0.09289764855757304 0.008323484426114471 0.039534713740268394 -0.0024295990760618146 -0.01187116679887638 0.002800472062549453 0.018770956353893493
 0.002908637474879996 0.01875442651618553 -0.0024295990760618146 -0.01187116679887638 0.008306184113619698 0.039533916678134724 0.9894135084636861 -0.09289967789316955
 -0.0024312350728017186 -0.011871011455939402 0.002800472062549453 0.018770956353893493 0.9894135084636861 -0.09289967789316955 0.00832290900828289 0.03953279258043202
0.15631513130469998 0.00868899806454811 0.04109655163912774 0.9888731931734955 -0.0966568222072377 0.003108937403305814 0.019505667623160437 -0.002593707974237266 -0.012338994041153517
