! Created with skrf 1.8.0 (http://scikit-rf.org).
# GHz S RI R 50.0 
!freq ReS11 ImS11 ReS12 ImS12 ReS13 ImS13
! ReS14 ImS14
! ReS21 ImS21 ReS22 ImS22 ReS23 ImS23
! ReS24 ImS24
! ReS31 ImS31 ReS32 ImS32 ReS33 ImS33
! ReS34 ImS34
! ReS41 ImS41 ReS42 ImS42 ReS43 ImS43
! ReS44 ImS44
!
0.0 0.001504258482476 0.0 0.9984957414983 0.0 5.773031772077e-05 0.0 -5.773031712764e-05 7.069924808412596e-21
 0.9984957414983 0.0 0.001504258482517 0.0 -5.773031712816e-05 7.069924808476276e-21 5.773031772305e-05 0.0
 5.773031772077e-05 0.0 -5.773031712816e-05 7.069924808476276e-21 0.001504258492091 0.0 0.9984957415079 0.0
 -5.773031712764e-05 7.069924808412596e-21 5.773031772305e-05 0.0 0.9984957415079 0.0 0.001504258492101 0.0
0.005 0.001618305158002732 0.0012348898059169494 0.9983515085016901 -0.0031509461080821656 8.009776806409606e-05 0.000610651234532511 -7.802261647827208e-05 -0.00038774510086302794
 0.9983515085016901 -0.0031509461080821656 0.0016182939599843136 0.0012348964072248433 -7.802391095112833e-05 -0.0003877461354854682 8.016473991297595e-05 0.000610625804006
 8.009776806409606e-05 0.000610651234532511 -7.802391095112833e-05 -0.0003877461354854682 0.0016183046294760768 0.0012349574170254889 0.9983515088566247 -0.0031508790528706455
 -7.802261647827208e-05 -0.00038774510086302794 8.016473991297595e-05 0.000610625804006 0.9983515088566247 -0.0031508790528706455 0.0016182951948902947 0.0012349629041349653
0.006252605252188 0.0016481836727966393 0.0015484551606053212 0.9983134953275017 -0.00393945675102211 8.644528328140463e-05 0.0007636252716708306 -8.372926936679422e-05 -0.00048517875856865717
 0.9983134953275017 -0.00393945675102211 0.0016481661674757385 0.0015484635230673587 -8.373128335654713e-05 -0.00048518003515976343 8.654992164309209e-05 0.0007635922430842824
 8.644528328140463e-05 0.0007636252716708306 -8.373128335654713e-05 -0.00048518003515976343 0.0016481827721862837 0.0015485396790350066 0.9983134958084607 -0.003939372931458227
 -8.372926936679422e-05 -0.00048517875856865717 8.654992164309209e-05 0.0007635922430842824 0.9983134958084607 -0.003939372931458227 0.0016481680243266386 0.0015485466381944793
0.01250521050438 0.0018052812309885796 0.003129241457551878 0.9981123701050048 -0.007879728156553642 0.00012262246314108258 0.0015277118984222979 -0.00011598654980707556 -0.0009727067672320013
 0.9981123701050048 -0.007879728156553642 0.0018052113228859763 0.0031292593085881742 -0.00011599448305790492 -0.0009727091380818565 0.00012303976929108396 0.0015276324883264772
 0.00012262246314108258 0.0015277118984222979 -0.00011599448305790492 -0.0009727091380818565 0.001805277058422288 0.0031294102953185873 0.9981123714570571 -0.007879560755996112
 -0.00011598654980707556 -0.0009727067672320013 0.00012303976929108396 0.0015276324883264772 0.9981123714570571 -0.007879560755996112 0.0018052181740453083 0.003129425217772366
0.01875781575657 0.0019758871608144706 0.0047324699444552904 0.9978921205736473 -0.011830406480919087 0.0001663463017994574 0.002292748119615258 -0.0001545993657183893 -0.0014619214702960202
 0.9978921205736473 -0.011830406480919087 0.0019757300578718243 0.0047324985225183965 -0.00015461705210414965 -0.0014619247197002014 0.0001672838111589754 0.0022926064246839473
 0.0001663463017994574 0.002292748119615258 -0.00015461705210414965 -0.0014619247197002014 0.0019758773514805743 0.004732723050015768 0.9978921231946493 -0.011830155594452428
 -0.0001545993657183893 -0.0014619214702960202 0.0001672838111589754 0.0022926064246839473 0.9978921231946493 -0.011830155594452428 0.0019757450448845103 0.004732747000579113
0.02501042100875 0.0021603279649493206 0.006355913303317817 0.9976524919563023 -0.015793412538418268 0.00021770182012620425 0.0030587644686991176 -0.0001996620365629809 -0.0019526127796534393
 0.9976524919563023 -0.015793412538418268 0.0021600489356460666 0.006355953945596573 -0.00019969326265004218 -0.0019526166545655295 0.00021936719318975197 0.0030585421222062204
 0.00021770182012620425 0.0030587644686991176 -0.00019969326265004218 -0.0019526166545655295 0.002160310142525193 0.006356250676695293 0.9976524962372937 -0.015793078212339367
 -0.0001996620365629809 -0.0019526127796534393 0.00021936719318975197 0.0030585421222062204 0.9976524962372937 -0.015793078212339367 0.002160075192135722 0.006356284769476904
0.03126302626094 0.002358916652393034 0.00799842882411624 0.9973932162078657 -0.019769572675107698 0.0002767743029581762 0.0038257243494152545 -0.0002512663894250489 -0.0024446325603224347
 0.9973932162078657 -0.019769572675107698 0.0023584810066563902 0.007998482964133587 -0.0002513149024951054 -0.00244463676987722 0.0002793755170242814 0.0038254005062616663
 0.0002767743029581762 0.0038257243494152545 -0.0002513149024951054 -0.00244463676987722 0.0023588884381327605 0.007998850489813112 0.997393222543945 -0.019769154933958963
 -0.0002512663894250489 -0.0024446325603224347 0.0002793755170242814 0.0038254005062616663 0.997393222543945 -0.019769154933958963 0.0023585216699511186 0.007998895885526713
0.037515631513130004 0.002571959550860022 0.009659274078798616 0.9971140190351984 -0.02375930303239169 0.00034364859364008875 0.004593564606150919 -0.00030950238226746786 -0.0029378540655799696
 0.9971140190351984 -0.02375930303239169 0.002571332628338285 0.009659343245239144 -0.00030957189455630855 -0.002937858280983101 0.00034739402887613315 0.004593115917418132
 0.00034364859364008875 0.004593564606150919 -0.00030957189455630855 -0.002937858280983101 0.0025719185577110946 0.009659780078264438 0.9971140278203142 -0.023758801886589583
 -0.00030950238226746786 -0.0029378540655799696 0.00034739402887613315 0.004593115917418132 0.9971140278203142 -0.023758801886589583 0.0025713908336423424 0.009659837982550308
0.043768236765320004 0.0027997589283117468 0.011337898665176252 0.9968146227233489 -0.027762817732315884 0.00041840875494721883 0.005362207859527351 -0.0003744583281288619 -0.003432159601875403
 0.9968146227233489 -0.027762817732315884 0.0027989060887005897 0.01133798448138007 -0.0003745525193084495 -0.003432163456377009 0.00042350723544755733 0.005361608443791801
 0.00041840875494721883 0.005362207859527351 -0.0003745525193084495 -0.003432163456377009 0.0027997027633084284 0.01133848905514821 0.9968146343532567 -0.027762233179913248
 -0.0003744583281288619 -0.003432159601875403 0.00042350723544755733 0.005361608443791801 0.9968146343532567 -0.027762233179913248 0.002798984971852775 0.011338560717416561
0.050020842017509996 0.0030426142149566466 0.013033858144141411 0.9964947475653803 -0.03178021486771693 0.0005011378646894779 0.006131567593893 -0.0004462209718660462 -0.00392743544216047
 0.9964947475653803 -0.03178021486771693 0.003041500830183772 0.013033962327877827 -0.00044634349065802726 -0.003927438531064378 0.0005077986757555889 0.006130789007221375
 0.0005011378646894779 0.006131567593893 -0.00044634349065802726 -0.003927438531064378 0.0030425404788306533 0.01303453299941714 0.996494762437879 -0.03177954689181565
 -0.0004462209718660462 -0.00392743544216047 0.0005077986757555889 0.006130789007221375 0.996494762437879 -0.03177954689181565 0.0030416035271918994 0.013034619711919103
0.055454545454549996 0.003266120945135342 0.014521479560018272 0.9961999169229006 -0.03528274914965938 0.0005795673982202396 0.006800674189703417 -0.0005141789606019059 -0.004358545954527248
 0.9961999169229006 -0.03528274914965938 0.0032647530203402894 0.014521601174112504 -0.0005143290369776438 -0.004358548019994249 0.0005877562473305924 0.006799714784907239
 0.0005795673982202396 0.006800674189703417 -0.0005143290369776438 -0.004358548019994249 0.003266029985039722 0.01452222788519627 0.9961999349373942 -0.035282008658819836
 -0.0005141789606019059 -0.004358545954527248 0.0005877562473305924 0.006799714784907239 0.9961999349373942 -0.035282008658819836 0.0032648789582524294 0.014522328759047298
0.056273447269699996 0.003300822633286593 0.01474677179952772 0.9961541127027064 -0.03581151867054234 0.0005919178635014347 0.0069015506727125335 -0.0005248755082583576 -0.004423569313401759
 0.9961541127027064 -0.03581151867054234 0.0032994140800032103 0.014746896163052008 -0.0005250299735668197 -0.004423571194097494 0.0006003507541197126 0.006900561878053405
 0.0005919178635014347 0.0069015506727125335 -0.0005250299735668197 -0.004423571194097494 0.0033007289197412417 0.014747531204398175 0.9961541312172074 -0.03581076724805899
 -0.0005248755082583576 -0.004423569313401759 0.0006003507541197126 0.006900561878053405 0.9961541312172074 -0.03581076724805899 0.003299543725998802 0.014747634301584434
0.06252605252188 0.003574679536291927 0.016476299410521075 0.9957924366777647 -0.039856702669942644 0.0006908294357208459 0.007672058696441674 -0.000610505562453116 -0.004920449044480183
 0.9957924366777647 -0.039856702669942644 0.0035729411891226043 0.016476445860861666 -0.0006106955641362332 -0.004920449236474106 0.0007012446117910699 0.007670826032791811
 0.0006908294357208459 0.007672058696441674 -0.0006106955641362332 -0.004920449236474106 0.003574563432071175 0.01647714346251556 0.9957924592358685 -0.03985586776804176
 -0.000610505562453116 -0.004920449044480183 0.0007012446117910699 0.007670826032791811 0.9957924592358685 -0.03985586776804176 0.0035731009180278127 0.01647726432061926
0.06877865777407 0.003864478587978974 0.018222127401248688 0.9954094378315506 -0.043915703476146394 0.0007979519032586151 0.008442988834825346 -0.0007031931544481958 -0.005417961742972231
 0.9954094378315506 -0.043915703476146394 0.0038623758130910293 0.018222297940693424 -0.0007034222538723652 -0.005417959727927558 0.0008105600140157166 0.008441475986385696
 0.0007979519032586151 0.008442988834825346 -0.0007034222538723652 -0.005417959727927558 0.0038643376729934785 0.018223056209947425 0.9954094648375695 -0.04391478505367895
 -0.0007031931544481958 -0.005417961742972231 0.0008105600140157166 0.008441475986385696 0.9954094648375695 -0.04391478505367895 0.0038625687572485055 0.018223196246730654
0.07503126302626001 0.004170511849635856 0.01998396006551525 0.9950048346113118 -0.04798842949306903 0.0009133631298189712 0.009214234345915933 -0.0008030186507929189 -0.005915993288840575
 0.9950048346113118 -0.04798842949306903 0.004168009998001867 0.01998415679234287 -0.0008032903812097245 -0.0059159885106204076 0.0009283752490850985 0.00921240231133535
 0.0009133631298189712 0.009214234345915933 -0.0008032903812097245 -0.0059159885106204076 0.0041703436970332375 0.019984973756556647 0.9950048664726171 -0.04798742749673728
 -0.0008030186507929189 -0.005915993288840575 0.0009283752490850985 0.00921240231133535 0.9950048664726171 -0.04798742749673728 0.00416823928787652 0.01998513443131333
0.08128386827845 0.0044930698085169285 0.021761513722655394 0.9945783458236425 -0.05207476670359147 0.0010371394304114767 0.009985684927455786 -0.0009100607087526501 -0.0064144279996105145
 0.9945783458236425 -0.05207476670359147 0.00449013420989049 0.021761738831975977 -0.0009103785755845393 -0.00641441986431967 0.0010547670340667272 0.009983491989280892
 0.0010371394304114767 0.009985684927455786 -0.0009103785755845393 -0.00641441986431967 0.00449287198412457 0.021762612431462297 0.9945783829503416 -0.05207368107449438
 -0.0009100607087526501 -0.0064144279996105145 0.0010547670340667272 0.009983491989280892 0.9945783829503416 -0.05207368107449438 0.004490402972796808 0.021762795245209358
0.08753647353064001 0.004832441365699691 0.023554512675697255 0.9941296908500116 -0.056174582657080106 0.0011693554842842904 0.010757226964930684 -0.0010243962154057062 -0.006913148402878817
 0.9941296908500116 -0.056174582657080106 0.004829037322350373 0.023554768460647055 -0.0010247636964294295 -0.00691313627891894 0.0011898104244762264 0.010754628659314322
 0.0011693554842842904 0.010757226964930684 -0.0010247636964294295 -0.00691313627891894 0.004832211428731424 0.023555696550201316 0.9941297336562019 -0.05617341332825338
 -0.0010243962154057062 -0.006913148402878817 0.0011898104244762264 0.010754628659314322 0.9941297336562019 -0.05617341332825338 0.004829348682391136 0.023555903046096605
0.09378907878283 0.005188913798216491 0.025362686328456247 0.993658589840641 -0.06028772930260959 0.0013100842504351628 0.011528743713544377 -0.001146100222574792 -0.007412035079115583
 0.993658589840641 -0.06028772930260959 0.005185006578635861 0.025362975181494673 -0.0011465207680221026 -0.0074120182972309875 0.001333578727074185 0.011525692800262602
 0.0013100842504351628 0.011528743713544377 -0.0011465207680221026 -0.0074120182972309875 0.00518864930095021 0.025363955533686963 0.9936586387442272 -0.06028647619465885
 -0.001146100222574792 -0.007412035079115583 0.001333578727074185 0.011525692800262602 0.9936586387442272 -0.06028647619465885 0.005185363655904152 0.02536418729762118
0.100041684035 0.005562772701441933 0.02718576707011434 0.9931647638911095 -0.06441404505941815 0.0014593968844996527 0.01230011543323996 -0.001275245878930478 -0.007910966555637097
 0.9931647638911095 -0.06441404505941815 0.0055583275340429835 0.02718609148462672 -0.0012757229115323634 -0.007910944408967963 0.0014861434145461842 0.01229656186613924
 0.0014593968844996527 0.01230011543323996 -0.0012757229115323634 -0.007910944408967963 0.005562471189239871 0.02718712177992805 0.993164819314172 -0.06441270808913352
 -0.001275245878930478 -0.007910966555637097 0.0014861434145461842 0.01229656186613924 0.993164819314172 -0.06441270808913352 0.005558733443861595 0.02718738044147281
0.1059090909091 0.005929665300866428 0.028909855658403087 0.9926804450610989 -0.06829797745954673 0.0016073796186092276 0.0130237248820142 -0.0014032669066879062 -0.008379091496531989
 0.9926804450610989 -0.06829797745954673 0.005924683661051236 0.028910215802711876 -0.0014038000349529843 -0.008379063639258534 0.0016373713913126816 0.013019651586012612
 0.0016073796186092276 0.0130237248820142 -0.0014038000349529843 -0.008379063639258534 0.005929326815411014 0.028911290777807415 0.9926805069898652 -0.06829656170783925
 -0.0014032669066879062 -0.008379091496531989 0.0016373713913126816 0.013019651586012612 0.9926805069898652 -0.06829656170783925 0.005925138223309104 0.02891157620179422
0.1062942892872 0.005954301916700979 0.029023488679814025 0.992647935207971 -0.06855335637278208 0.0016173626567369658 0.013071219500672486 -0.0014119043598708428 -0.008409819228200876
 0.992647935207971 -0.06855335637278208 0.005949283983683696 0.0290238512518346 -0.001412441274881799 -0.00840979097234629 0.0016475740414189882 0.013067110398447991
 0.0016173626567369658 0.013071219500672486 -0.001412441274881799 -0.00840979097234629 0.00595396092791873 0.029024929085178185 0.9926479975769062 -0.06855193544505096
 -0.0014119043598708428 -0.008409819228200876 0.0016475740414189882 0.013067110398447991 0.9926479975769062 -0.06855193544505096 0.005949741835636955 0.029025216318604108
0.11254689453939999 0.006363783448479634 0.030875585118793444 0.9921078272661938 -0.07270547888710416 0.0017840488706228814 0.01384193049702876 -0.0015561447957102496 -0.008908467311131549
 0.9921078272661938 -0.07270547888710416 0.006358157879398261 0.030875988549109938 -0.001556744960832408 -0.008908432164207045 0.0018179381609113696 0.013837210114527446
 0.0017840488706228814 0.01384193049702876 -0.001556744960832408 -0.008908432164207045 0.006363400514659312 0.03087711142119619 0.9921078970125238 -0.07270397390189742
 -0.0015561447957102496 -0.008908467311131549 0.0018179381609113696 0.013837210114527446 0.9921078970125238 -0.07270397390189742 0.006358670777094369 0.030877428946869286
0.11879949979160001 0.006791497372032656 0.03274178957562891 0.9915441649614161 -0.0768702183719685 0.0019595207818691616 0.014612120283652897 -0.0017080341985142987 -0.009406782804449943
 0.9915441649614161 -0.0768702183719685 0.006785229237866231 0.03274223667195129 -0.0017087009538944197 -0.00940673994714776 0.0019973012423017086 0.014606729983595546
 0.0019595207818691616 0.014612120283652897 -0.0017087009538944197 -0.00940673994714776 0.006791070018134179 0.03274340199309172 0.9915442425217363 -0.07686862921856875
 -0.0017080341985142987 -0.009406782804449943 0.0019973012423017086 0.014606729983595546 0.9915442425217363 -0.07686862921856875 0.006785800277835271 0.032743751579015004
0.1250521050438 0.007237721735496074 0.03462183372760165 0.9909566747573243 -0.08104737143711169 0.0021438415179484884 0.015381658070900988 -0.001867637387810942 -0.009904635472340455
 0.9909566747573243 -0.08104737143711169 0.007230776041945272 0.03462232740716362 -0.001868374045880597 -0.009904584048008614 0.00218572658893486 0.015375536296230745
 0.0021438415179484884 0.015381658070900988 -0.001868374045880597 -0.009904584048008614 0.0072372474796320654 0.03462353249064015 0.9909567605739502 -0.08104569799849352
 -0.001867637387810942 -0.009904635472340455 0.00218572658893486 0.015375536296230745 0.9909567605739502 -0.08104569799849352 0.007231408312931337 0.034623915954378706
0.131304710296 0.007702732455282474 0.03651544714047382 0.9903450848314872 -0.08523672611521364 0.00233707199782399 0.016150410475970753 -0.002035016915402606 -0.010401892837650053
 0.9903450848314872 -0.08523672611521364 0.007695074136659964 0.03651599043272162 -0.0020358267607936947 -0.010401831952348374 0.0023832752565782845 0.016143492722614
 0.00233707199782399 0.016150410475970753 -0.0020358267607936947 -0.010401831952348374 0.007702208808816394 0.03651723249531953 0.990345179352325 -0.08523496826519797
 -0.002035016915402606 -0.010401892837650053 0.0023832752565782845 0.016143492722614 0.990345179352325 -0.08523496826519797 0.007695770718767984 0.036517651706057565
0.1375573155481 0.00807929263214837 0.038176597290132036 0.9898166769684641 -0.08919218956514571 0.002514273728907093 0.01689385208458852 -0.0021851828543456484 -0.010874082139977386
 0.9898166769684641 -0.08919218956514571 0.008070885094903465 0.03817718349497555 -0.002186070865971749 -0.010874011734536178 0.0025648993314182776 0.016886149040782054
 0.002514273728907093 0.01689385208458852 -0.002186070865971749 -0.010874011734536178 0.008078717920784467 0.038178469309178203 0.9898167805901403 -0.08919034725461704
 -0.0021851828543456484 -0.010874082139977386 0.0025648993314182776 0.016886149040782054 0.9898167805901403 -0.08919034725461704 0.008071648347629018 0.03817891688556036
0.1438099208003 0.008469093811687905 0.03982920338940158 0.9892697308120438 -0.09313781135448859 0.0026986145376155526 0.01763437408909699 -0.0023413483122970606 -0.01134355393111691
 0.9892697308120438 -0.09313781135448859 0.008459901686754843 0.03982983501450612 -0.0023423180398774415 -0.011343473124170994 0.0027538564791313135 0.017625826858715343
 0.0026986145376155526 0.01763437408909699 -0.0023423180398774415 -0.011343473124170994 0.008468465685042554 0.03983116229980892 0.9892698439798575 -0.09313588446640188
 -0.0023413483122970606 -0.01134355393111691 0.0027538564791313135 0.017625826858715343 0.9892698439798575 -0.09313588446640188 0.008460734548200762 0.03983163960726214
0.1500625260525 0.008872001786771751 0.041473132722256084 0.98870438454564 -0.097073498743984 0.002890031548663554 0.018371904438622855 -0.0025034514329249843 -0.011810238743031219
 0.98870438454564 -0.097073498743984 0.008861989634102127 0.04147381241701208 -0.0025045064198719645 -0.011810146617593189 0.002950082687083079 0.018362451980794763
 0.002890031548663554 0.018371904438622855 -0.0025045064198719645 -0.011810146617593189 0.008871317897994056 0.04147517876125009 0.9887045077100067 -0.09707148715555795
 -0.0025034514329249843 -0.011810238743031219 0.002950082687083079 0.018362451980794763 0.9887045077100067 -0.09707148715555795 0.008862895025882063 0.041475687262806274
0.15631513130469998 0.009287881435659041 0.04310825658809825 0.9881207770144439 -0.10099915921671311 0.0030884611612133966 0.019106372298399652 -0.002671429614146889 -0.012274068554171721
