! Created with skrf 1.8.0 (http://scikit-rf.org).
# GHz S RI R 50.0 
!freq ReS11 ImS11 ReS12 ImS12 ReS13 ImS13
! ReS14 ImS14
! ReS21 ImS21 ReS22 ImS22 ReS23 ImS23
! ReS24 ImS24
! ReS31 ImS31 ReS32 ImS32 ReS33 ImS33
! ReS34 ImS34
! ReS41 ImS41 ReS42 ImS42 ReS43 ImS43
! ReS44 ImS44
!
0.0 0.00159134538367 0.0 0.9984086546135 0.0 6.184016330861e-05 0.0 -6.184016348662e-05 7.573235827263821e-21
 0.9984086546135 0.0 0.001591345383696 0.0 -6.184016348688e-05 7.573235827295662e-21 6.184016330962e-05 0.0
 6.184016330861e-05 0.0 -6.184016348688e-05 7.573235827295662e-21 0.001591345383682 0.0 0.9984086546135 0.0
 -6.184016348662e-05 7.573235827263821e-21 6.184016330962e-05 0.0 0.9984086546135 0.0 0.001591345383692 0.0
0.005 0.0017123903479501037 0.0012946905414826602 0.9982554754892056 -0.003333656308621277 8.777095969817399e-05 0.0007238913014660101 -8.501076301197999e-05 -0.00044691295991837585
 0.9982554754892056 -0.003333656308621277 0.0017123841830307344 0.0012946941216921244 -8.500819738974928e-05 -0.0004469109603844503 8.782720106392614e-05 0.0007238700497793999
 8.777095969817399e-05 0.0007238913014660101 -8.500819738974928e-05 -0.0004469109603844503 0.0017123914399682515 0.0012946225953803206 0.9982554751236405 -0.0033337233735234104
 -8.501076301197999e-05 -0.00044691295991837585 8.782720106392614e-05 0.0007238700497793999 0.9982554751236405 -0.0033337233735234104 0.0017123823710839385 0.0012946279497072705
0.006252605252188 0.0017441835163356056 0.001623482495505513 0.9982149799656672 -0.0041678816267870554 9.519771771047336e-05 0.0009051925687674703 -9.158150383372297e-05 -0.0005592258269693091
 0.9982149799656672 -0.0041678816267870554 0.0017441738791162135 0.001623487009626942 -9.157751173942489e-05 -0.0005592233611004283 9.528559157820054e-05 0.0009051649419722474
 9.519771771047336e-05 0.0009051925687674703 -9.157751173942489e-05 -0.0005592233611004283 0.0017441853001754213 0.001623397573940434 0.9982149794703821 -0.004167965447684154
 -9.158150383372297e-05 -0.0005592258269693091 9.528559157820054e-05 0.0009051649419722474 0.9982149794703821 -0.004167965447684154 0.0017441711226991543 0.0016234043151323026
0.01250521050438 0.0019118215869489905 0.0032811646342416076 0.9980000067033837 -0.0083365540490782 0.00013788625938166647 0.001810601138676886 -0.0001290176132507621 -0.001121170882053519
 0.9980000067033837 -0.0083365540490782 0.0019117831026639214 0.003281174026538412 -0.00012900188352069086 -0.0011211663185522816 0.00013823674209245037 0.001810534425185518
 0.00013788625938166647 0.001810601138676886 -0.00012900188352069086 -0.0011211663185522816 0.0019118292820357792 0.003280995044728334 0.9980000052867665 -0.008336721469034762
 -0.0001290176132507621 -0.001121170882053519 0.00013823674209245037 0.001810534425185518 0.9980000052867665 -0.008336721469034762 0.0019117726560443418 0.0032810090120424396
0.01875781575657 0.002094635861604967 0.004962547043212363 0.9977634604360597 -0.012516158793235537 0.00019000624488534822 0.002716872479020442 -0.00017426696226766585 -0.0016849598073725846
 0.9977634604360597 -0.012516158793235537 0.002094549380790973 0.00496256165189931 -0.00017423188831511196 -0.001684953586395263 0.00019079370936762313 0.0027167529636130485
 0.00019000624488534822 0.002716872479020442 -0.00017423188831511196 -0.001684953586395263 0.0020946535941693354 0.004962292906738744 0.99776345766938 -0.01251640977573327
 -0.00017426696226766585 -0.0016849598073725846 0.00019079370936762313 0.0027167529636130485 0.99776345766938 -0.01251640977573327 0.002094526323939979 0.004962314638406875
0.02501042100875 0.0022929908769926026 0.006665247996067741 0.997505055711788 -0.016708707960820603 0.00025165926408599623 0.0036240477467537114 -0.00022744372253118942 -0.0022503160983972036
 0.997505055711788 -0.016708707960820603 0.002292837281651113 0.006665268123620832 -0.00022738179004999848 -0.002250308739713689 0.00025305822732610137 0.003623859524595772
 0.00025165926408599623 0.0036240477467537114 -0.00022738179004999848 -0.002250308739713689 0.002293022781258343 0.006664909435531776 0.9975050511646109 -0.01670904252214923
 -0.00022744372253118942 -0.0022503160983972036 0.00025305822732610137 0.003623859524595772 0.9975050511646109 -0.01670904252214923 0.0022927967055848177 0.0066649395095075975
0.03126302626094 0.0025072360647296755 0.008388034300194505 0.9972244929283973 -0.020915053310902505 0.0003229472206027573 0.004532079310867099 -0.00028865855665337375 -0.0028170453498823633
 0.9972244929283973 -0.020915053310902505 0.0025069962548296353 0.00838806021035477 -0.00028856232799763217 -0.0028170374537972746 0.0003251324972265392 0.004531804272257825
 0.0003229472206027573 0.004532079310867099 -0.00028856232799763217 -0.0028170374537972746 0.0025072862815465535 0.008387611451340192 0.9972244861630629 -0.020915471509398185
 -0.00028865855665337375 -0.0028170453498823633 0.0003251324972265392 0.004531804272257825 0.9972244861630629 -0.020915471509398185 0.0025069332562843243 0.008387650482589395
0.037515631513130004 0.002737713133927458 0.010130096209491894 0.9969214659804001 -0.025135611286895267 0.0004039713269292109 0.005440884464059355 -0.0003580194745243907 -0.0033849815604439955
 0.9969214659804001 -0.025135611286895267 0.002737368017236632 0.010130128125139838 -0.00035788158077651043 -0.0033849738080370044 0.0004071180956388484 0.005440502270853889
 0.0004039713269292109 0.005440884464059355 -0.00035788158077651043 -0.0033849738080370044 0.002737785817226492 0.01012958921273991 0.9969214565549693 -0.02513611323091891
 -0.0003580194745243907 -0.0033849815604439955 0.0004071180956388484 0.005440502270853889 0.9969214565549693 -0.02513611323091891 0.002737277703051577 0.010129637852091655
0.043768236765320004 0.002984758933414238 0.011890826746065914 0.9965956653838185 -0.029370583625274324 0.0004948316302553515 0.0063503617559950475 -0.00043563213463955973 -0.003953970811191291
 0.9965956653838185 -0.029370583625274324 0.0029842894165433608 0.011890864847654515 -0.0004354452708878642 -0.0039539639643902036 0.0004991154628961631 0.006349849815552494
 0.0004948316302553515 0.0063503617559950475 -0.0004354452708878642 -0.0039539639643902036 0.002984858249728016 0.011890235767389786 0.996595652849047 -0.029371169452129003
 -0.00043563213463955973 -0.003953970811191291 0.0004991154628961631 0.006349849815552494 0.996595652849047 -0.029371169452129003 0.0029841669022578035 0.01189029470100985
0.050020842017509996 0.003248706768138572 0.013669730526092577 0.9962467798598127 -0.03362004845912802 0.0005956267229411186 0.00726039775030595 -0.0005215999505967247 -0.004523864522229755
 0.9962467798598127 -0.03362004845912802 0.0032480937485814534 0.013669774950352508 -0.0005213568729471407 -0.004523859423799657 0.0006012235938822792 0.007259731188407335
 0.0005956267229411186 0.00726039775030595 -0.0005213568729471407 -0.004523859423799657 0.003248836898201764 0.013669055749192667 0.9962467637578308 -0.0336207183424809
 -0.0005215999505967247 -0.004523864522229755 0.0006012235938822792 0.007259731188407335 0.9962467637578308 -0.0336207183424809 0.003247934159410718 0.013669125698452541
0.055454545454549996 0.003492068652601897 0.015230076693095828 0.9959245975772754 -0.03732473272286996 0.0006913643016122335 0.008051605677577844 -0.0006031726399508971 -0.005019740141183065
 0.9959245975772754 -0.03732473272286996 0.0034913153981638756 0.01523012668823394 -0.0006028748736598723 -0.005019737309322355 0.0006982454658267435 0.008050782751414454
 0.0006913643016122335 0.008051605677577844 -0.0006028748736598723 -0.005019737309322355 0.00349222896839983 0.015229329257078638 0.9959245779962314 -0.03732547582182096
 -0.0006031726399508971 -0.005019740141183065 0.0006982454658267435 0.008050782751414454 0.9959245779962314 -0.03732547582182096 0.003491119639598661 0.015229409392607758
0.056273447269699996 0.003529887072684775 0.015466378997716612 0.9958744972780464 -0.03788400501151521 0.0007064535349033261 0.008170870329662076 -0.0006160241102943267 -0.005094516164610529
 0.9958744972780464 -0.03788400501151521 0.003529111430884308 0.015466429836587888 -0.0006157176338699096 -0.005094513738112771 0.0007135398180331202 0.008170021963073554
 0.0007064535349033261 0.008170870329662076 -0.0006157176338699096 -0.005094513738112771 0.003530052213311948 0.015465620625730371 0.9958744771417458 -0.03788475915939171
 -0.0006160241102943267 -0.005094516164610529 0.0007135398180331202 0.008170021963073554 0.9958744771417458 -0.03788475915939171 0.0035289099033290485 0.015465702347419664
0.06252605252188 0.003828627762987351 0.017280385837737423 0.9954785052828764 -0.04216239813399322 0.0008274071655125585 0.009081650534288615 -0.0007190035512979135 -0.005665779443364342
 0.9954785052828764 -0.04216239813399322 0.0038276703549077746 0.01728044313753494 -0.0007186265489208571 -0.005665780693101008 0.0008361596237221602 0.009080590843192097
 0.0008274071655125585 0.009081650534288615 -0.0007186265489208571 -0.005665780693101008 0.0038288321283206435 0.01727954409846221 0.9954784806346068 -0.042163236782939206
 -0.0007190035512979135 -0.005665779443364342 0.0008361596237221602 0.009080590843192097 0.9954784806346068 -0.042163236782939206 0.003827422037773994 0.01727963838524325
0.06877865777407 0.004145254417603043 0.01911139228523238 0.9950584917531033 -0.046455132912644276 0.0009585807387513677 0.00999260365024599 -0.0008306349104348125 -0.006237507235794084
 0.9950584917531033 -0.046455132912644276 0.004144096067082538 0.019111456046141357 -0.0008301803117046248 -0.006237513246739828 0.0009691765073655751 0.009991300750799873
 0.0009585807387513677 0.00999260365024599 -0.0008301803117046248 -0.006237513246739828 0.004145502240533449 0.019110467423824096 0.9950584621035984 -0.04645605633461597
 -0.0008306349104348125 -0.006237507235794084 0.0009691765073655751 0.009991300750799873 0.9950584621035984 -0.04645605633461597 0.0041437961230832675 0.01911057510494212
0.07503126302626001 0.0044800903538087045 0.020959057846871812 0.9946141451604598 -0.05076208390816502 0.0011000652710961827 0.010903589912168521 -0.0009510124579467188 -0.0068095509208044094
 0.9946141451604598 -0.05076208390816502 0.004478711844972545 0.020959128022554837 -0.0009504732486618601 -0.006809562858524437 0.0011126818371641214 0.010902009529186442
 0.0011000652710961827 0.010903589912168521 -0.0009504732486618601 -0.006809562858524437 0.004480385886987711 0.020958050126596777 0.9946141100072353 -0.05076309240910373
 -0.0009510124579467188 -0.0068095509208044094 0.0011126818371641214 0.010902009529186442 0.9946141100072353 -0.05076309240910373 0.004478355451908089 0.02095817206883491
0.08128386827845 0.00483345663907507 0.02282305410452835 0.9941451548675506 -0.05508310129926397 0.001251949547812297 0.011814464974599495 -0.0010802280212359782 -0.007381759945281972
 0.9941451548675506 -0.05508310129926397 0.004831838708893998 0.02282313060212486 -0.001079597243068665 -0.007381779055847592 0.0012667647260763176 0.011812570414586549
 0.001251949547812297 0.011814464974599495 -0.001079597243068665 -0.007381779055847592 0.004833804156208517 0.02282196381148052 0.9941451136939455 -0.05508419521375916
 -0.0010802280212359782 -0.007381759945281972 0.0012667647260763176 0.011812570414586549 0.9941451136939455 -0.05508419521375916 0.004831421061002084 0.022822100920437346
0.08753647353064001 0.005205672059533495 0.024703060454910875 0.99365121138666 -0.05941801510060875 0.0014143200041141937 0.012725080250311691 -0.0012183709021150672 -0.007953981529495599
 0.99365121138666 -0.05941801510060875 0.005203795390018661 0.024703143135163516 -0.0012176416524146542 -0.007954009139377593 0.0014315119101190974 0.012722832374775823
 0.0014143200041141937 0.012725080250311691 -0.0012176416524146542 -0.007954009139377593 0.005206075857175093 0.024701887891962048 0.9936511636610537 -0.059419194797188046
 -0.0012183709021150672 -0.007953981529495599 0.0014315119101190974 0.012722832374775823 0.9936511636610537 -0.059419194797188046 0.005203311700335166 0.02470204111349297
0.09378907878283 0.0055970530588334766 0.026598761050404818 0.9931320066124983 -0.06376663818604461 0.0015872606102892487 0.013635283155332412 -0.0013655277883613496 -0.00852606047191035
 0.9931320066124983 -0.06376663818604461 0.005594898269643515 0.026598849728042488 -0.0013646932201699475 -0.008526097987864228 0.0016070076314037664 0.013632640354498078
 0.0015872606102892487 0.013635283155332412 -0.0013646932201699475 -0.008526097987864228 0.005597517457075285 0.026597506539752378 0.9931319517863618 -0.06376790406375919
 -0.0013655277883613496 -0.00852606047191035 0.0016070076314037664 0.013632640354498078 0.9931319517863618 -0.06376790406375919 0.005594343770778692 0.026597676861761062
0.100041684035 0.00600791365560757 0.02850984257179323 0.9925872340373526 -0.06812876848680194 0.0017708527590268954 0.014544917303232536 -0.0015217826622476766 -0.0090978390110245
 0.9925872340373526 -0.06812876848680194 0.006005461295685771 0.028509937016367348 -0.0015208359843318815 -0.009097887919984752 0.0017933335230259197 0.014541835470203148
 0.0017708527590268954 0.014544917303232536 -0.0015208359843318815 -0.009097887919984752 0.006008442999589123 0.028508506453146863 0.9925871715442658 -0.06813012097624131
 -0.0015217826622476766 -0.0090978390110245 0.0017933335230259197 0.014541835470203148 0.9925871715442658 -0.06813012097624131 0.006004831242227814 0.02850869490763676
0.1059090909091 0.006411456739299821 0.030316900318345774 0.9920524976667391 -0.07223425810774095 0.0019528921232863906 0.015397852681539464 -0.0016767581621252615 -0.009633976455575127
 0.9920524976667391 -0.07223425810774095 0.006408707380943373 0.030316999925493183 -0.0016757001544056985 -0.009634037479310582 0.0019781008605580983 0.015394316501909637
 0.0019528921232863906 0.015397852681539464 -0.0016757001544056985 -0.009634037479310582 0.006412051003230997 0.030315487942827284 0.9920524274471837 -0.07223569229295103
 -0.0016767581621252615 -0.009633976455575127 0.0019781008605580983 0.015394316501909637 0.9920524274471837 -0.07223569229295103 0.006408002132470226 0.030315694392539026
0.1062942892872 0.0064385653442571075 0.030435992551749082 0.9920165889523003 -0.07250419064634672 0.0019651751541970956 0.015453822656202118 -0.0016872167059928213 -0.009669156736961657
 0.9920165889523003 -0.07250419064634672 0.006435795884511693 0.03043609248851698 -0.0016861511830522566 -0.009669218605899428 0.001990568496671773 0.015450255161571587
 0.0019651751541970956 0.015453822656202118 -0.0016861511830522566 -0.009669218605899428 0.0064391640053866744 0.030434575181335414 0.9920165182071103 -0.07250563020966994
 -0.0016872167059928213 -0.009669156736961657 0.001990568496671773 0.015450255161571587 0.9920165182071103 -0.07250563020966994 0.006435085554520322 0.030434782846628143
0.11254689453939999 0.006889316984518321 0.03237689809815154 0.9914197686414794 -0.07689267728259348 0.0021703037014557734 0.01636183565431178 -0.001861908205177303 -0.01023985053139486
 0.9914197686414794 -0.07689267728259348 0.006886210809736482 0.03237700320930948 -0.0018607171581087275 -0.010239927007167212 0.0021987886311529144 0.01635773332128673
 0.0021703037014557734 0.01636183565431178 -0.0018607171581087275 -0.010239927007167212 0.006889989361714546 0.03237539984776425 0.9914196890382626 -0.0768942044133642
 -0.001861908205177303 -0.01023985053139486 0.0021987886311529144 0.01635773332128673 0.9914196890382626 -0.0768942044133642 0.006885415506444353 0.03237562785115401
0.11879949979160001 0.007360474681637726 0.03433224490372609 0.9907964725684832 -0.08129398997146285 0.0023863113992688835 0.01726878932552924 -0.0020459324508394923 -0.010809754533479982
 0.9907964725684832 -0.08129398997146285 0.0073570120822788534 0.03433235483003796 -0.0020446092570598168 -0.010809847342679561 0.0024180670621723865 0.01726410040563113
 0.0023863113992688835 0.01726878932552924 -0.0020446092570598168 -0.010809847342679561 0.007361225202474427 0.03433066615998905 0.9907963834799193 -0.08129560519431316
 -0.0020459324508394923 -0.010809754533479982 0.0024180670621723865 0.01726410040563113 0.9907963834799193 -0.08129560519431316 0.007356127136062911 0.034330915680622076
0.1250521050438 0.007852341658101012 0.036301716468132884 0.9901464025590045 -0.08570788002599812 0.002613268231059752 0.018174513384643036 -0.002239361640130319 -0.011378700123794808
 0.9901464025590045 -0.08570788002599812 0.007848502822643056 0.03630183081071774 -0.0022378997339260413 -0.011378811072581051 0.002648473873324748 0.018169183533907982
 0.002613268231059752 0.018174513384643036 -0.0022378997339260413 -0.011378811072581051 0.007853174780187351 0.03630005763327702 0.9901463033346869 -0.0857095838946389
 -0.002239361640130319 -0.011378700123794808 0.002648473873324748 0.018169183533907982 0.9901463033346869 -0.0857095838946389 0.007847523592837486 0.03630032990531
0.131304710296 0.008365218120411905 0.038284993482571535 0.9894692629786317 -0.09013408912071023 0.002851241058285459 0.019078834321624476 -0.0024422647762027184 -0.011946515925678703
 0.9894692629786317 -0.09013408912071023 0.008360983126732769 0.03828511180507322 -0.0024406576491881734 -0.011946646899574271 0.0028900759874379363 0.01907280657754118
 0.002851241058285459 0.019078834321624476 -0.0024406576491881734 -0.011946646899574271 0.008366138332422127 0.03828325497073349 0.9894691529438153 -0.09013588222034928
 -0.0024422647762027184 -0.011946515925678703 0.0028900759874379363 0.01907280657754118 0.9894691529438153 -0.09013588222034928 0.0083599050036104 0.038283551286817805
0.1375573155481 0.008783838881635423 0.04002160086588216 0.9888803724821292 -0.09431206557063547 0.0030707477210394165 0.019955271086898225 -0.0026251194717348387 -0.012486777290157316
 0.9888803724821292 -0.09431206557063547 0.008779186002450277 0.04002171968386748 -0.0026233573838542086 -0.012486928478817959 0.0031132950148904668 0.019948553140261862
 0.0030707477210394165 0.019955271086898225 -0.0026233573838542086 -0.012486928478817959 0.008784849813740931 0.0400197830746219 0.9888802511252743 -0.0943139482751232
 -0.0026251194717348387 -0.012486777290157316 0.0031132950148904668 0.019948553140261862 0.9888802511252743 -0.0943139482751232 0.008778004952163862 0.040020101408853474
0.1438099208003 0.00921723459750221 0.04174863690078123 0.9882706657160243 -0.09847905264636349 0.0032991147902840393 0.02082801617227991 -0.002815289501159936 -0.013023636328929987
 0.9882706657160243 -0.09847905264636349 0.009212143492653247 0.041748755722362994 -0.0028133654447096913 -0.013023809592566707 0.0033455364721787072 0.020820555931453433
 0.0032991147902840393 0.02082801617227991 -0.0028133654447096913 -0.013023809592566707 0.0092183406301528 0.041746740298577056 0.9882705323605493 -0.09848102553336385
 -0.002815289501159936 -0.013023636328929987 0.0033455364721787072 0.020820555931453433 0.9882705323605493 -0.09848102553336385 0.00921085505244155 0.04174708190830327
0.1500625260525 0.00966524694891401 0.04346594541712234 0.9876403055269145 -0.10263493507519207 0.0035362602346024337 0.0216969752427685 -0.0030126945150373654 -0.013557002974599951
 0.9876403055269145 -0.10263493507519207 0.009659697166095188 0.04346606377055846 -0.0030106014985386417 -0.013557200248083304 0.0035867172747785785 0.021688718727928876
 0.0035362602346024337 0.0216969752427685 -0.0030106014985386417 -0.013557200248083304 0.009666452483670134 0.043463970488663205 0.9876401594754726 -0.10263699874461826
 -0.0030126945150373654 -0.013557002974599951 0.0035867172747785785 0.021688718727928876 0.9876401594754726 -0.10263699874461826 0.00965829690962125 0.04346433672277606
0.15631513130469998 0.010127716417018127 0.04517337493520695 0.9869894556780399 -0.10677959824490038 0.003782101010456007 0.0225620556335059 -0.0032172531313131142 -0.014086789131166289
