! Created with skrf 1.8.0 (http://scikit-rf.org).
# GHz S RI R 50.0 
!freq ReS11 ImS11 ReS12 ImS12 ReS13 ImS13
! ReS14 ImS14
! ReS21 ImS21 ReS22 ImS22 ReS23 ImS23
! ReS24 ImS24
! ReS31 ImS31 ReS32 ImS32 ReS33 ImS33
! ReS34 ImS34
! ReS41 ImS41 ReS42 ImS42 ReS43 ImS43
! ReS44 ImS44
!
0.0 0.001404210382541 0.0 0.9985957896088 0.0 5.417678805138e-05 0.0 -5.417678700764e-05 6.6347428796994236e-21
 0.9985957896088 0.0 0.001404210382527 0.0 -5.41767870074e-05 6.634742879670033e-21 5.417678805089e-05 0.0
 5.417678805138e-05 0.0 -5.41767870074e-05 6.634742879670033e-21 0.001404210384132 0.0 0.9985957896104 0.0
 -5.417678700764e-05 6.6347428796994236e-21 5.417678805089e-05 0.0 0.9985957896104 0.0 0.001404210384134 0.0
0.005 0.0015104893496238315 0.0011444710300038455 0.9984613674236571 -0.0029421192490712215 7.644536878218626e-05 0.0006246941666379353 -7.405107426824196e-05 -0.00038734082438313317
 0.9984613674236571 -0.0029421192490712215 0.0015105117225058895 0.001144458014894961 -7.405409433771794e-05 -0.00038734315781378776 7.629506421122373e-05 0.0006247512911126525
 7.644536878218626e-05 0.0006246941666379353 -7.405409433771794e-05 -0.00038734315781378776 0.0015104873938773695 0.001144404941788215 0.9984613670732503 -0.00294218630952011
 -7.405107426824196e-05 -0.00038734082438313317 7.629506421122373e-05 0.0006247512911126525 0.9984613670732503 -0.00294218630952011 0.0015105129837878746 0.0011443899880205376
0.006252605252188 0.0015382524044510694 0.0014351274107284725 0.9984260429913749 -0.0036783876605366883 8.27637094771437e-05 0.0007811633711350184 -7.961449059913892e-05 -0.0004846897489216753
 0.9984260429913749 -0.0036783876605366883 0.001538287376987506 0.0014351108762081061 -7.961919000973398e-05 -0.0004846926268391352 8.252886988666763e-05 0.0007812375261647696
 8.27637094771437e-05 0.0007811633711350184 -7.961919000973398e-05 -0.0004846926268391352 0.0015382494217747306 0.001435044808949332 0.9984260425184497 -0.0036784714838401043
 -7.961449059913892e-05 -0.0004846897489216753 8.252886988666763e-05 0.0007812375261647696 0.9984260425184497 -0.0036784714838401043 0.0015382894239014864 0.0014350258442975084
0.01250521050438 0.0016837590574583844 0.0029006484004675094 0.9982397347450185 -0.007357710955181577 0.00011876588986244476 0.0015626328805552836 -0.00011092401095638631 -0.0009718271265533599
 0.9982397347450185 -0.007357710955181577 0.0016838986991209984 0.0029006126811303694 -0.00011094253053218875 -0.0009718324593454616 0.00011782933836474116 0.001562810672278376
 0.00011876588986244476 0.0015626328805552836 -0.00011094253053218875 -0.0009718324593454616 0.0016837477250010125 0.002900483530179988 0.9982397334362976 -0.007357878362250471
 -0.00011092401095638631 -0.0009718271265533599 0.00011782933836474116 0.001562810672278376 0.9982397334362976 -0.007357878362250471 0.0016839074596237543 0.002900442857351253
0.01875781575657 0.0018410264838323218 0.004387331992831059 0.9980366489238399 -0.011046952830349245 0.00016226165345899657 0.0023449757159393543 -0.00014819772609676507 -0.0014606873429907066
 0.9980366489238399 -0.011046952830349245 0.0018413402568951448 0.00438727431259172 -0.00014823902553539396 -0.0014606946332283294 0.00016015763426437222 0.0023452919854836355
 0.00016226165345899657 0.0023449757159393543 -0.00014823902553539396 -0.0014606946332283294 0.0018410014347126108 0.004387085101000824 0.9980366464016337 -0.011047203753588995
 -0.00014819772609676507 -0.0014606873429907066 0.00016015763426437222 0.0023452919854836355 0.9980366464016337 -0.011047203753588995 0.00184136037684468 0.004387019773984806
0.02501042100875 0.002010343195861114 0.0058931109168066775 0.9978165616823327 -0.014747924360565611 0.00021333117204386262 0.0031282450319866893 -0.0001915252541295299 -0.0019510551554944818
 0.9978165616823327 -0.014747924360565611 0.002010900418320271 0.005893028398296714 -0.00019159818684167624 -0.0019510638222478111 0.00020959363943738124 0.00312873977723539
 0.00021333117204386262 0.0031282450319866893 -0.00019159818684167624 -0.0019510638222478111 0.0020102990775445924 0.005892782292781416 0.9978165575736778 -0.014748258773577376
 -0.0001915252541295299 -0.0019510551554944818 0.00020959363943738124 0.00312873977723539 0.9978165575736778 -0.014748258773577376 0.0020109365498171467 0.005892689192092272
0.03126302626094 0.0021919856608075684 0.00741693245695306 0.9975792370070558 -0.018461413875064038 0.00027205549828762085 0.00391241904019609 -0.00024099384101995613 -0.0024427856654915003
 0.9975792370070558 -0.018461413875064038 0.0021928555443846997 0.007416822127282911 -0.00024110717248351034 -0.0024427950431457467 0.0002662176741222545 0.003913137445326047
 0.00027205549828762085 0.00391241904019609 -0.00024110717248351034 -0.0024427950431457467 0.0021919171262886135 0.007416522431655953 0.9975792309363608 -0.018461831793746542
 -0.00024099384101995613 -0.0024427856654915003 0.0002662176741222545 0.003913137445326047 0.9975792309363608 -0.018461831793746542 0.002192912341889223 0.007416398269989717
0.037515631513130004 0.0023862244789400154 0.008958118651368112 0.9973244330491787 -0.022187826704649635 0.0003385156508457643 0.004697446639722767 -0.00029668904752672045 -0.0029357586709655363
 0.9973244330491787 -0.022187826704649635 0.0023874761547762837 0.008957977445490728 -0.0002968514647455776 -0.0029357680088489633 0.00033010981983101957 0.0046984391284122925
 0.0003385156508457643 0.004697446639722767 -0.0002968514647455776 -0.0029357680088489633 0.0023861261852030917 0.008957627628206035 0.9973244246369478 -0.022188328156871374
 -0.00029668904752672045 -0.0029357586709655363 0.00033010981983101957 0.0046984391284122925 0.9973244246369478 -0.022188328156871374 0.0023875582756108554 0.008957468953124615
0.043768236765320004 0.00259332678315869 0.010516171600443464 0.9970519046830529 -0.025927379809591325 0.0004127921996365327 0.005483261292740972 -0.0003586950003912942 -0.0034298647809173173
 0.9970519046830529 -0.025927379809591325 0.002595029322263305 0.010515996363670047 -0.00035891511757217884 -0.0034298732431507356 0.00040134960608044067 0.005484583588831336
 0.0004127921996365327 0.005483261292740972 -0.00035891511757217884 -0.0034298732431507356 0.0025931933947491 0.010515600042258155 0.9970518935483718 -0.025927964848943857
 -0.0003586950003912942 -0.0034298647809173173 0.00040134960608044067 0.005484583588831336 0.9970518935483718 -0.025927964848943857 0.002595141431149102 0.010515403237803802
0.050020842017509996 0.0028135573581725497 0.01209069300636118 0.9967614047872317 -0.02968018217468955 0.0004949650238533302 0.006269786750829293 -0.00042709449224350294 -0.0039249996817114705
 0.9967614047872317 -0.02968018217468955 0.0028157797892122854 0.012090480496327017 -0.00042738085442178803 -0.003925006347157108 0.00048001582219318824 0.006271499942081734
 0.0004949650238533302 0.006269786750829293 -0.00042738085442178803 -0.003925006347157108 0.00281338354499807 0.012090041442969154 0.996761390545223 -0.029680850873773493
 -0.00042709449224350294 -0.0039249996817114705 0.00048001582219318824 0.006271499942081734 0.996761390545223 -0.029680850873773493 0.002815926556968164 0.012089802730502043
0.055454545454549996 0.0030158104737781706 0.013472110488104922 0.99649416362045 -0.032952273857002286 0.0005728498370307811 0.006953814031131099 -0.0004917913801177291 -0.004356043134751575
 0.99649416362045 -0.032952273857002286 0.003018540745887652 0.013471862886243453 -0.0004921421990005426 -0.004356047424417836 0.0005544708549273863 0.006955920747786513
 0.0005728498370307811 0.006953814031131099 -0.0004921421990005426 -0.004356047424417836 0.0030155972059425673 0.013471389877439673 0.9964941463619678 -0.032953015335788434
 -0.0004917913801177291 -0.004356043134751575 0.0005544708549273863 0.006955920747786513 0.9964941463619678 -0.032953015335788434 0.003018721431488862 0.013471111550893195
0.056273447269699996 0.003047179221139896 0.013681344673234301 0.9964526849910051 -0.03344627424398431 0.0005851131478102114 0.007056939864368843 -0.0005019690123797196 -0.004421061323001411
 0.9964526849910051 -0.03344627424398431 0.0030499905468331537 0.013681091561310706 -0.0005023300979201231 -0.004421065185233418 0.0005661863854043694 0.007059110467666681
 0.0005851131478102114 0.007056939864368843 -0.0005023300979201231 -0.004421065185233418 0.0030469596586921656 0.013680613697909311 0.9964526672521558 -0.03344702669861984
 -0.0005019690123797196 -0.004421061323001411 0.0005661863854043694 0.007059110467666681 0.9964526672521558 -0.03344702669861984 0.0030501766507459445 0.01368032913652064
0.06252605252188 0.0032944539391350706 0.015287826794610083 0.9961254961604846 -0.037225649569607666 0.0006833146135388654 0.007844632122542232 -0.0005833987445183434 -0.004917948375673689
 0.9961254961604846 -0.037225649569607666 0.003297923151876204 0.015287529666975032 -0.0005838429668099859 -0.00491794834298308 0.0006599382348039571 0.007847332149781842
 0.0006833146135388654 0.007844632122542232 -0.0005838429668099859 -0.00491794834298308 0.0032941833098391964 0.015287017076421165 0.9961254745305845 -0.03722648588731706
 -0.0005833987445183434 -0.004917948375673689 0.0006599382348039571 0.007847332149781842 0.9961254745305845 -0.03722648588731706 0.0032981532773705496 0.015286682562822255
0.06877865777407 0.0035556418040951078 0.01690986500809005 0.995779588745655 -0.041018267695606896 0.0007896463755731505 0.0086327705773594 -0.0006714625438713624 -0.005415559308614123
 0.995779588745655 -0.041018267695606896 0.003559837901085297 0.016909520366323018 -0.0006719982525774386 -0.00541555420401719 0.0007613472410474726 0.008636077601569717
 0.0007896463755731505 0.0086327705773594 -0.0006719982525774386 -0.00541555420401719 0.0035553147974029878 0.0169089772852979 0.9957795628250834 -0.041019188002910746
 -0.0006714625438713624 -0.005415559308614123 0.0007613472410474726 0.008636077601569717 0.9957795628250834 -0.041019188002910746 0.003560116741454741 0.01690858855332215
0.07503126302626001 0.003831001922005286 0.01854720219041034 0.995414713044334 -0.04482406230399118 0.000904184207630273 0.009421258426984288 -0.0007662379027655554 -0.005913791809102744
 0.995414713044334 -0.04482406230399118 0.0038359939200022547 0.018546806451737622 -0.000766873384592311 -0.005913780370371352 0.0008704881241177598 0.009425255648412734
 0.000904184207630273 0.009421258426984288 -0.000766873384592311 -0.005913780370371352 0.0038306132353543806 0.01854623726843713 0.9954146824275124 -0.04482506674917179
 -0.0007662379027655554 -0.005913791809102744 0.0008704881241177598 0.009425255648412734 0.9954146824275124 -0.04482506674917179 0.0038363261776959124 0.01854578988812557
0.08128386827845 0.004120792250548464 0.020199592987655453 0.9950306194180842 -0.048642946628461366 0.0010270026179751974 0.010209995401027967 -0.0008678009071472201 -0.006412542404366045
 0.9950306194180842 -0.048642946628461366 0.004126649200738454 0.020199142484781694 -0.0008685443864680607 -0.006412523284058081 0.0009874343774951544 0.010214771712990631
 0.0010270026179751974 0.010209995401027967 -0.0008685443864680607 -0.006412523284058081 0.00412033659026674 0.020198551747944708 0.9950305836930033 -0.048644035373492704
 -0.0008678009071472201 -0.006412542404366045 0.0009874343774951544 0.010214771712990631 0.9950305836930033 -0.048644035373492704 0.004127039587523624 0.02019804112419429
0.08753647353064001 0.004425269600712416 0.021866800045047718 0.9946270584741372 -0.05247481717200066 0.001158174768585951 0.010998878037919832 -0.0009762261890470407 -0.0069117061942230214
 0.9946270584741372 -0.05247481717200066 0.004432060603494057 0.021866291025501722 -0.0009770858282214673 -0.0069116779597283165 0.001112258194069391 0.011004528092312083
 0.001158174768585951 0.010998878037919832 -0.0009770858282214673 -0.0069116779597283165 0.004424741681921965 0.021865683442001557 0.9946270172211191 -0.05247599039623376
 -0.0009762261890470407 -0.0069117061942230214 0.001112258194069391 0.011004528092312083 0.9946270172211191 -0.05247599039623376 0.004432513840250608 0.021865104812780242
0.09378907878283 0.00474468961374983 0.023548591300884426 0.9942037812264127 -0.056319556363517445 0.0012977723986606832 0.011787799879284008 -0.0010915868737762164 -0.007411176670098361
 0.9942037812264127 -0.056319556363517445 0.004752483833304906 0.023548019926008912 -0.0010925707733332752 -0.007411137803693815 0.0012450303955275975 0.011794424151519888
 0.0012977723986606832 0.011787799879284008 -0.0010925707733332752 -0.007411137803693815 0.004744084162534608 0.02354740036166229 0.9942037340187609 -0.05632081426454261
 -0.0010915868737762164 -0.007411176670098361 0.0012450303955275975 0.011794424151519888 0.9942037340187609 -0.05632081426454261 0.004753004651830687 0.023546748795826872
0.100041684035 0.0050793067222202545 0.025244738012864795 0.9937605392431677 -0.06017703448579537 0.0014458657498146645 0.012576651617368267 -0.0012139545247452919 -0.007910845584350665
 0.9937605392431677 -0.06017703448579537 0.00508817340159296 0.02524410035635082 -0.0012150707234472543 -0.007910794483264047 0.001385820362439531 0.01258435647086146
 0.0014458657498146645 0.012576651617368267 -0.0012150707234472543 -0.007910794483264047 0.005078618475533345 0.02524347383828854 0.9937604856453623 -0.06017837727921205
 -0.0012139545247452919 -0.007910845584350665 0.001385820362439531 0.01258435647086146 0.9937604856453623 -0.06017837727921205 0.005088766543981725 0.02524274423291211
0.1059090909091 0.005407356518312524 0.02684924577587952 0.9933262252510688 -0.06380832954570592 0.0015926236090933923 0.01331674177739305 -0.0013352186723384113 -0.008379814306702638
 0.9933262252510688 -0.06380832954570592 0.005417292646451387 0.026848542270329283 -0.0013364662758602454 -0.008379750191263243 0.0015252893612589147 0.013325562679082819
 0.0015926236090933923 0.01331674177739305 -0.0013364662758602454 -0.008379750191263243 0.005406585801255636 0.026847913947239902 0.9933261652529838 -0.06380975221151483
 -0.0013352186723384113 -0.008379814306702638 0.0015252893612589147 0.013325562679082819 0.9933261652529838 -0.06380975221151483 0.00541795798000167 0.026847106313221767
0.1062942892872 0.005429374096412713 0.026955013260680078 0.9932970847820739 -0.0640471111309713 0.001602523492681028 0.01336532121023905 -0.0013433990860513949 -0.008410602855377532
 0.9932970847820739 -0.0640471111309713 0.005439382572253835 0.026954305306588714 -0.0013446555608493047 -0.008410537831862096 0.0015346959651427986 0.013374218960113152
 0.001602523492681028 0.01336532121023905 -0.0013446555608493047 -0.008410537831862096 0.005428597803565499 0.026953677029825526 0.9932970243498144 -0.06404853904636118
 -0.0013433990860513949 -0.008410602855377532 0.0015346959651427986 0.013374218960113152 0.9932970243498144 -0.06404853904636118 0.0054400527917479475 0.026952864107085774
0.11254689453939999 0.005795143582487993 0.02867919081544028 0.9928131709203232 -0.06792963629299809 0.001767812654974167 0.014153693973314526 -0.001479988822853847 -0.008910336500010458
 0.9928131709203232 -0.06792963629299809 0.005806363300137868 0.028678408455803904 -0.0014813934887220337 -0.008910255781429987 0.001691723495623603 0.014163902949419238
 0.001767812654974167 0.014153693973314526 -0.0014813934887220337 -0.008910255781429987 0.0057942740059485145 0.028677783779090135 0.9928131031998803 -0.06793114958111575
 -0.001479988822853847 -0.008910336500010458 0.001691723495623603 0.014163902949419238 0.9928131031998803 -0.06793114958111575 0.005807115361626616 0.028676882082707324
0.11879949979160001 0.0061768656318606585 0.030417044244881276 0.9923085516784164 -0.07182445122857276 0.0019417985499683617 0.014941652655015982 -0.0016237902605541147 -0.009409932585443617
 0.9923085516784164 -0.07182445122857276 0.006189366160575185 0.030416183276790073 -0.0016253509702799213 -0.009409834314369724 0.0018569675994198032 0.014953297264113728
 0.0019417985499683617 0.014941652655015982 -0.0016253509702799213 -0.009409834314369724 0.006175897548061296 0.030415567733276652 0.9923084762056867 -0.07182605015401955
 -0.0016237902605541147 -0.009409932585443617 0.0018569675994198032 0.014953297264113728 0.9923084762056867 -0.07182605015401955 0.006190204840611312 0.03041457162439631
0.1250521050438 0.006574789224921943 0.03216834621704446 0.9917829821402928 -0.07573138912353652 0.0021245447056517553 0.015729077499669144 -0.0017748681226233433 -0.009909275197688996
 0.9917829821402928 -0.07573138912353652 0.006588640273225828 0.03216740233924286 -0.0017765926665534032 -0.009909157432006394 0.002030491207918882 0.015742288286769004
 0.0021245447056517553 0.015729077499669144 -0.0017765926665534032 -0.009909157432006394 0.006573717425758889 0.032166801637169916 0.9917828984405842 -0.0757330739681087
 -0.0017748681226233433 -0.009909275197688996 0.002030491207918882 0.015742288286769004 0.9917828984405842 -0.0757330739681087 0.006589570360758531 0.032165705289857384
0.131304710296 0.006989161790121641 0.03393286793452374 0.9912362185717581 -0.07965027563325938 0.0023161127939924464 0.01651584630740406 -0.001933285267728348 -0.010408246416898038
 0.9912362185717581 -0.07965027563325938 0.007004433221131333 0.033931836743481825 -0.0019351813733980954 -0.010408107129939245 0.0022123554706108676 0.01653076001614488
 0.0023161127939924464 0.01651584630740406 -0.0019351813733980954 -0.010408107129939245 0.006987981083662183 0.033931256770381224 0.991236126158761 -0.07965204669605949
 -0.001933285267728348 -0.010408246416898038 0.0022123554706108676 0.01653076001614488 0.991236126158761 -0.07965204669605949 0.007005459517790742 0.03393005416643777
0.1375573155481 0.007321839962557176 0.0354788775616881 0.9907664376610399 -0.08334935121195647 0.002491947660716294 0.017278037061171914 -0.0020746110523169386 -0.010882855891830785
 0.9907664376610399 -0.08334935121195647 0.007338607781679616 0.035477779670005156 -0.002076690154274817 -0.010882695066396109 0.0023782486550943775 0.017294624823877364
 0.002491947660716294 0.017278037061171914 -0.002076690154274817 -0.010882695066396109 0.007320545656145145 0.035477201211853215 0.9907663361345584 -0.08335120866805887
 -0.0020746110523169386 -0.010882855891830785 0.0023782486550943775 0.017294624823877364 0.9907663361345584 -0.08335120866805887 0.0073397344395411245 0.03547591133092176
0.1438099208003 0.007666094575463375 0.03701725024718109 0.9902803484862549 -0.08703958828817412 0.0026749153501962695 0.01803747967481033 -0.002221611968968675 -0.011355002852764499
 0.9902803484862549 -0.08703958828817412 0.007684429811554296 0.037016082823990604 -0.0022238823723852727 -0.011354818510285483 0.0025508366791117633 0.01805586578467258
 0.0026749153501962695 0.01803747967481033 -0.0022238823723852727 -0.011354818510285483 0.007664681590051234 0.03701551024881032 0.9902802373611166 -0.08704153243148238
 -0.002221611968968675 -0.011355002852764499 0.0025508366791117633 0.01805586578467258 0.9902802373611166 -0.08704153243148238 0.007685661533421159 0.03701412859783718
0.1500625260525 0.0080218112413566 0.03854787313662356 0.9897780689602604 -0.09072091150603834 0.0028649585302777275 0.0187941071212082 -0.0023742332950932067 -0.011824625145975768
 0.9897780689602604 -0.09072091150603834 0.008041785110853138 0.03854663315293517 -0.0023767032896805456 -0.011824415228744334 0.002730064540028304 0.018814420392102144
 0.0028649585302777275 0.0187941071212082 -0.0023767032896805456 -0.011824415228744334 0.008020274519052725 0.03854607108943644 0.9897779477417658 -0.09072294264113444
 -0.0023742332950932067 -0.011824625145975768 0.002730064540028304 0.018814420392102144 0.9897779477417658 -0.09072294264113444 0.008043126604379664 0.03854459290982837
0.15631513130469998 0.008388874840635854 0.04007063686751738 0.9892597175055139 -0.09439324545302662 0.003062019244602167 0.01954785339928387 -0.0025324196818496828 -0.01229166186928131
