! Created with skrf 1.8.0 (http://scikit-rf.org).
# GHz S RI R 50.0 
!freq ReS11 ImS11 ReS12 ImS12 ReS13 ImS13
! ReS14 ImS14
! ReS21 ImS21 ReS22 ImS22 ReS23 ImS23
! ReS24 ImS24
! ReS31 ImS31 ReS32 ImS32 ReS33 ImS33
! ReS34 ImS34
! ReS41 ImS41 ReS42 ImS42 ReS43 ImS43
! ReS44 ImS44
!
0.0 0.001714637676415 0.0 0.9982853623235 0.0 6.632685761645e-05 0.0 -6.632685638414e-05 8.122697236834324e-21
 0.9982853623235 0.0 0.001714637676404 0.0 -6.632685638428e-05 8.12269723685147e-21 6.632685761676e-05 0.0
 6.632685761645e-05 0.0 -6.632685638428e-05 8.12269723685147e-21 0.001714637669138 0.0 0.9982853623162 0.0
 -6.632685638414e-05 8.122697236834324e-21 6.632685761676e-05 0.0 0.9982853623162 0.0 0.001714637669118 0.0
0.005 0.0018453561056229661 0.0014039751007648752 0.99811993334896 -0.003591045088200571 9.281857619179727e-05 0.0007200548464093917 -9.030613112757279e-05 -0.000453718280480115
 0.99811993334896 -0.003591045088200571 0.0018453193428353161 0.0014039966245722926 -9.030712907924426e-05 -0.00045371910198171127 9.304806448175436e-05 0.0007199675107867294
 9.281857619179727e-05 0.0007200548464093917 -9.030712907924426e-05 -0.00045371910198171127 0.0018453556790975238 0.0014040426759680048 0.9981199337257334 -0.0035909780266076344
 -9.030613112757279e-05 -0.000453718280480115 9.304806448175436e-05 0.0007199675107867294 0.9981199337257334 -0.0035909780266076344 0.0018453205142414824 0.0014040631645825209
0.006252605252188 0.0018798083913858894 0.0017604605409210672 0.9980760426303792 -0.004489657625061331 0.00010043150553867754 0.0009004147961395598 -9.714618568558127e-05 -0.0005677221902348062
 0.9980760426303792 -0.004489657625061331 0.0018797509237048948 0.0017604878450154784 -9.714773814142545e-05 -0.0005677232041036559 0.00010079005815385256 0.000900301318004523
 0.00010043150553867754 0.0009004147961395598 -9.714773814142545e-05 -0.0005677232041036559 0.0018798076422156843 0.001760545013556002 0.9980760431375615 -0.004489573797053687
 -9.714618568558127e-05 -0.0005677221902348062 0.00010079005815385256 0.000900301318004523 0.9980760431375615 -0.004489573797053687 0.0018797526732621367 0.001760571010642635
0.01250521050438 0.002062154155212035 0.0035574862870724213 0.9978421497259138 -0.00897991922369451 0.00014432689002277994 0.0018011765770534005 -0.00013633011612867364 -0.001138079209662483
 0.9978421497259138 -0.00897991922369451 0.002061924674313623 0.0035575449392701887 -0.00013633622872226457 -0.001138081094095389 0.000145756703081961 0.0018009028219104235
 0.00014432689002277994 0.0018011765770534005 -0.00013633622872226457 -0.001138081094095389 0.0020621506010388944 0.0035576549962436027 0.9978421512001846 -0.008979751812931107
 -0.00013633011612867364 -0.001138079209662483 0.000145756703081961 0.0018009028219104235 0.9978421512001846 -0.008979751812931107 0.0020619311131419215 0.003557710886349258
0.01875781575657 0.002262106604716545 0.00537975455628209 0.9975833687787975 -0.013481671394999737 0.0001981226678766361 0.002702854719242354 -0.000184005749830788 -0.0017102399130432258
 0.9975833687787975 -0.013481671394999737 0.0022615909273484875 0.005379848951703081 -0.0001840193733211149 -0.0017102424961140516 0.00020133455006424625 0.0027023639949963684
 0.0001981226678766361 0.002702854719242354 -0.0001840193733211149 -0.0017102424961140516 0.0022620981761811198 0.005380007422441856 0.9975833716739396 -0.013481420452560084
 -0.000184005749830788 -0.0017102399130432258 0.00020133455006424625 0.0027023639949963684 0.9975833716739396 -0.013481420452560084 0.0022616049835939627 0.005380097397642309
0.02501042100875 0.002480082652755465 0.0072246763536054845 0.9972993716219603 -0.01799705262205722 0.00026192846065115484 0.003605461167867805 -0.0002402954075453947 -0.002283922653593347
 0.9972993716219603 -0.01799705262205722 0.0024791668048465302 0.007224811196939041 -0.00024031945470934465 -0.002283925731678178 0.00026763342542815937 0.0036046871852643955
 0.00026192846065115484 0.003605461167867805 -0.00024031945470934465 -0.002283925731678178 0.0024800672691986524 0.0072250132966068595 0.9972993763925123 -0.01799671816094318
 -0.0002402954075453947 -0.002283922653593347 0.00026763342542815937 0.0036046871852643955 0.9972993763925123 -0.01799671816094318 0.002479191402515631 0.0072251418052682
0.03126302626094 0.0027164819689108445 0.009090897584501625 0.9969898146513094 -0.02252695202216046 0.0003358534963875636 0.004508925545939389 -0.00030531749205362033 -0.002858920393213628
 0.9969898146513094 -0.02252695202216046 0.0027150521184131624 0.009091077882098907 -0.0003053548439612405 -0.0028589237306987955 0.00034476339563720333 0.0045077923588166995
 0.0003358534963875636 0.004508925545939389 -0.0003053548439612405 -0.0028589237306987955 0.002716457542689308 0.009091318528880654 0.9969898217598494 -0.022526534012087956
 -0.00030531749205362033 -0.002858920393213628 0.00034476339563720333 0.0045077923588166995 0.9969898217598494 -0.022526534012087956 0.002715090183884476 0.009091490267113304
0.037515631513130004 0.0029716951881252323 0.010977518882770744 0.9966543473845643 -0.027071789456492693 0.0004200057421173022 0.005413144511312118 -0.0003791873052710607 -0.0034350513903696734
 0.9966543473845643 -0.027071789456492693 0.002969637599039559 0.010977749939088614 -0.00037924081461725574 -0.003435054719602445 0.0004328335364643125 0.005411566419985243
 0.0004200057421173022 0.005413144511312118 -0.00037924081461725574 -0.003435054719602445 0.002971659616605315 0.01097802374186774 0.9966543572951169 -0.027071287839743916
 -0.0003791873052710607 -0.0034350513903696734 0.0004328335364643125 0.005411566419985243 0.9966543572951169 -0.027071287839743916 0.002969692052889544 0.010978243649449552
0.043768236765320004 0.003246107060596152 0.01288385817873656 0.9962926159549693 -0.031631752889820064 0.0005144914726239783 0.006317996769530347 -0.0004620173231494874 -0.004012144218908924
 0.9962926159549693 -0.031631752889820064 0.003243308054868945 0.012884145594880192 -0.00046208981619495684 -0.004012147240217904 0.0005319513453026416 0.00631587821278186
 0.0005144914726239783 0.006317996769530347 -0.00046208981619495684 -0.004012147240217904 0.003246058229081725 0.012884446858535474 0.9962926291376277 -0.03163116757749912
 -0.0004620173231494874 -0.004012144218908924 0.0005319513453026416 0.00631587821278186 0.9962926291376277 -0.03163116757749912 0.003243381814746561 0.012884720116716085
0.050020842017509996 0.003540097906647035 0.01480935258491988 0.9959042649128216 -0.036206896432271284 0.0006194149914749704 0.007223349292405733 -0.0005539172785278574 -0.0045900315813460065
 0.9959042649128216 -0.036206896432271284 0.0035364438308939316 0.01480970225851865 -0.0005540115563479074 -0.004590033963104912 0.0006422223801419496 0.007220584735017621
 0.0006194149914749704 0.007223349292405733 -0.0005540115563479074 -0.004590033963104912 0.0035400336859875564 0.01481002497130695 0.9959042818434238 -0.03620622731731329
 -0.0005539172785278574 -0.0045900315813460065 0.0006422223801419496 0.007220584735017621 0.9959042818434238 -0.03620622731731329 0.00353653980899141 0.014810357001815386
0.055454545454549996 0.003811777967299476 0.016497838597116052 0.9955448812543237 -0.04019513994905407 0.0007191528400285289 0.008010424473031302 -0.0006412301837483319 -0.005092749401863577
 0.9955448812543237 -0.04019513994905407 0.00380728850474196 0.01649824739496322 -0.0006413456490681343 -0.005092750933740001 0.0007471893651123348 0.008007004981794626
 0.0007191528400285289 0.008010424473031302 -0.0006413456490681343 -0.005092750933740001 0.0038116986324721017 0.016498583626961653 0.9955449018341346 -0.04019439789797336
 -0.0006412301837483319 -0.005092749401863577 0.0007471893651123348 0.008007004981794626 0.9955449018341346 -0.04019439789797336 0.0038074061517806377 0.016498971322428252
0.056273447269699996 0.003854044342686686 0.016753510227592507 0.9954889383018514 -0.040797188438783535 0.00073487842051352 0.008129060375490988 -0.0006549941577556934 -0.005168547287294026
 0.9954889383018514 -0.040797188438783535 0.00384942153664083 0.016753928353809476 -0.0006551129970631847 -0.005168548665983285 0.000763749997780469 0.00812553419407062
 0.00073487842051352 0.008129060375490988 -0.0006551129970631847 -0.005168548665983285 0.0038539625889410915 0.01675426619798499 0.995488959463347 -0.040796435384512296
 -0.0006549941577556934 -0.005168547287294026 0.000763749997780469 0.00812553419407062 0.995488959463347 -0.040796435384512296 0.003849542639262733 0.016754662663245504
0.06252605252188 0.004188319655284495 0.018715883787687362 0.995046280388294 -0.04540253790456739 0.0008609815231196273 0.009034981320218665 -0.0007653521520896702 -0.005747524612901342
 0.995046280388294 -0.04540253790456739 0.004182614422193724 0.01871637686138863 -0.0007654983058628477 -0.005747524593178107 0.0008966351442420124 0.009030567688685204
 0.0008609815231196273 0.009034981320218665 -0.0007654983058628477 -0.005747524593178107 0.004188218209573479 0.018716723201708096 0.9950463062720085 -0.045401700754372394
 -0.0007653521520896702 -0.005747524612901342 0.0008966351442420124 0.009030567688685204 0.9950463062720085 -0.045401700754372394 0.004182763548670634 0.01871719000613191
0.06877865777407 0.004543293979989393 0.02069605471629009 0.9945759361993962 -0.05002281019303695 0.0009978215447041428 0.009940957455628379 -0.000885092585579406 -0.0063267953272592315
 0.9945759361993962 -0.05002281019303695 0.004536392557375658 0.020696629535100163 -0.0008852687834641378 -0.006326793482029586 0.0010409761711168562 0.009935520231078842
 0.0009978215447041428 0.009940957455628379 -0.0008852687834641378 -0.006326793482029586 0.004543170666588901 0.020696977421517514 0.9945759673047309 -0.05002188876485535
 -0.000885092585579406 -0.0063267953272592315 0.0010409761711168562 0.009935520231078842 0.9945759673047309 -0.05002188876485535 0.004536572597736907 0.020697520713838666
0.07503126302626001 0.004919334362725051 0.022693623238628845 0.9940775519488085 -0.05465783698269406 0.0011454930658342845 0.010846828791740266 -0.0010143138256167533 -0.006906189094225918
 0.9940775519488085 -0.05465783698269406 0.004911122893210341 0.022694286907170656 -0.0010145227741789864 -0.006906184964721124 0.0011968686703709677 0.010840221401271454
 0.0011454930658342845 0.010846828791740266 -0.0010145227741789864 -0.006906184964721124 0.004919186989262734 0.022694629067208223 0.9940775887853611 -0.05465683107280503
 -0.0010143138256167533 -0.006906189094225918 0.0011968686703709677 0.010840221401271454 0.9940775887853611 -0.05465683107280503 0.004911336727988815 0.0226952552438056
0.08128386827845 0.0053168047510691345 0.02470820170493932 0.9935507753975215 -0.05930742287557504 0.0013040878600379226 0.011752430469800231 -0.001153111184801991 -0.00748553308484953
 0.9935507753975215 -0.05930742287557504 0.005307169254473018 0.02470896164006743 -0.0011533555677845958 -0.007485526180701976 0.0013644053186509077 0.011744495798653493
 0.0013040878600379226 0.011752430469800231 -0.0011533555677845958 -0.007485526180701976 0.005316631107616814 0.02470929047776777 0.993550818485568 -0.05930633225485961
 -0.001153111184801991 -0.00748553308484953 0.0013644053186509077 0.011744495798653493 0.993550818485568 -0.05930633225485961 0.005307419752551504 0.02471000618714607
0.08753647353064001 0.005736065934564811 0.02673941000395118 0.9929952561671614 -0.06397134995176106 0.0014736947577821174 0.012657593083172717 -0.0013015768148275713 -0.00806465172695512
 0.9929952561671614 -0.06397134995176106 0.005724892279040484 0.0267402739411316 -0.0013018592932048003 -0.00806464152627798 0.0015436757290588474 0.012648163364463037
 0.0014736947577821174 0.012657593083172717 -0.0013018592932048003 -0.00806464152627798 0.005735863792658575 0.02674058152652614 0.9929953060384937 -0.06397017437031191
 -0.0013015768148275713 -0.00806465172695512 0.0015436757290588474 0.012648163364463037 0.9929953060384937 -0.06397017437031191 0.005725182296440935 0.02674139367484585
0.09378907878283 0.006177475453071699 0.028786872285086675 0.9924106460260642 -0.06864938102455935 0.0016543995120224947 0.013562142922702218 -0.001459799596352465 -0.008643366538265211
 0.9924106460260642 -0.06864938102455935 0.006164649326455225 0.02878784828584763 -0.00146012280842027 -0.008643352487733354 0.0017347663070412993 0.013551039628976838
 0.0016543995120224947 0.013562142922702218 -0.00146012280842027 -0.008643352487733354 0.0061772425652909324 0.028788126350058726 0.9924107032253802 -0.06864812020966363
 -0.001459799596352465 -0.008643366538265211 0.0017347663070412993 0.013551039628976838 0.9924107032253802 -0.06864812020966363 0.006164981704958553 0.02878904210780562
0.100041684035 0.006641387480250612 0.030850214568955845 0.9917965991550856 -0.0733412620168031 0.0018462846667627781 0.014465902167503706 -0.0016278650244819068 -0.009221496022336037
 0.9917965991550856 -0.0733412620168031 0.006626794361760716 0.030851311029484327 -0.001628231585874595 -0.00922147753727025 0.0019377601107112494 0.014452935904379523
 0.0018462846667627781 0.014465902167503706 -0.001628231585874595 -0.00922147753727025 0.006641121579273333 0.03085155095558121 0.9917966642405 -0.0733399156740754
 -0.0016278650244819068 -0.009221496022336037 0.0019377601107112494 0.014452935904379523 0.9917966642405 -0.0733399156740754 0.006627171927137039 0.030852577765351698
0.1059090909091 0.0070974979223260215 0.03280055207997004 0.9911933031969054 -0.0777564514551174 0.002036587582938498 0.015313103456623851 -0.0017946014682145043 -0.009763312498078845
 0.9911933031969054 -0.0777564514551174 0.007081142302963819 0.03280176952219125 -0.0017950110670558975 -0.009763289292056491 0.0021391450467506535 0.015298206970506276
 0.002036587582938498 0.015313103456623851 -0.0017950110670558975 -0.009763289292056491 0.0070971989618486145 0.03280196550596531 0.9911933762031289 -0.07775502456514237
 -0.0017946014682145043 -0.009763312498078845 0.0021391450467506535 0.015298206970506276 0.9911933762031289 -0.07775502456514237 0.007081564825896153 0.03280310354565317
0.1062942892872 0.007128152688822929 0.03292906295136419 0.9911527723979686 -0.07804672375365036 0.0020494294265174205 0.015368689045588024 -0.0018058550926292446 -0.009798855603065319
 0.9911527723979686 -0.07804672375365036 0.007111677820417371 0.03293028861233823 -0.0018062675963112244 -0.009798832067518458 0.002152736712482162 0.015353659447596679
 0.0020494294265174205 0.015368689045588024 -0.0018062675963112244 -0.009798832067518458 0.007127851487080357 0.03293048142724676 0.9911528459421836 -0.07804529156587807
 -0.0018058550926292446 -0.009798855603065319 0.002152736712482162 0.015353659447596679 0.9911528459421836 -0.07804529156587807 0.007112103380915245 0.032931627012888105
0.11254689453939999 0.007638118103341962 0.035023042244212085 0.990478825503004 -0.08276548332859808 0.002263909527398614 0.016270317971322886 -0.0019938481738871043 -0.010375257591017624
 0.990478825503004 -0.08276548332859808 0.007619646460509204 0.035024406201804026 -0.0019943091900821827 -0.010375228357854996 0.002379772063688583 0.016253013600213532
 0.002263909527398614 0.016270317971322886 -0.0019943091900821827 -0.010375228357854996 0.007637779291697039 0.035024542564601586 0.9904789080942925 -0.08276396495722523
 -0.0019938481738871043 -0.010375257591017624 0.002379772063688583 0.016253013600213532 0.9904789080942925 -0.08276396495722523 0.007620122805377792 0.0350258149413344
0.11879949979160001 0.008171626940502573 0.03713177492161809 0.9897744213564473 -0.08749724517493014 0.002489797109152216 0.017170599665139768 -0.002191918901399837 -0.010950511176185259
 0.9897744213564473 -0.08749724517493014 0.0081510432043396 0.03713328663969924 -0.0021924309776219096 -0.010950475567189555 0.0026189383603881103 0.01715079791067192
 0.002489797109152216 0.017170599665139768 -0.0021924309776219096 -0.010950475567189555 0.008171248188593227 0.037133356831370846 0.9897745135998516 -0.08749564025879683
 -0.002191918901399837 -0.010950511176185259 0.0026189383603881103 0.01715079791067192 0.9897745135998516 -0.08749564025879683 0.008151573102015043 0.03713476431732226
0.1250521050438 0.008729018443796734 0.03925488029449852 0.9890392262111557 -0.09224170191924101 0.0027271605882073858 0.018069341268476473 -0.00240013804805863 -0.011524422434424279
 0.9890392262111557 -0.09224170191924101 0.008706206971072439 0.03925654961823652 -0.0024007037088273047 -0.011524379740385893 0.0028703039106297724 0.018046808251971636
 0.0027271605882073858 0.018069341268476473 -0.0024007037088273047 -0.011524379740385893 0.008728597398043214 0.03925654352603811 0.9890393287292365 -0.09224001007746871
 -0.00240013804805863 -0.011524422434424279 0.0028703039106297724 0.018046808251971636 0.9890393287292365 -0.09224001007746871 0.008706793167777175 0.03925809475504281
0.131304710296 0.009310627708634828 0.04139197386241983 0.988272909911017 -0.096998535068867 0.002976064531635242 0.018966346448651854 -0.0026185724055688385 -0.012096794352897266
 0.988272909911017 -0.096998535068867 0.009285472503551067 0.04139381103305804 -0.0026191941524718204 -0.012096743833706673 0.003133933003229529 0.01894083692941338
 0.002976064531635242 0.018966346448651854 -0.0026191941524718204 -0.012096743833706673 0.009310161992514209 0.04139371814011926 0.9882730233448723 -0.09699675589729313
 -0.0026185724055688385 -0.012096794352897266 0.003133933003229529 0.01894083692941338 0.9882730233448723 -0.09699675589729313 0.009286117721273187 0.04139542207582609
0.1375573155481 0.009789397058207963 0.043265157689796156 0.9876025994193253 -0.10148972746927327 0.003205931926357399 0.019834399790436597 -0.0028164683839137566 -0.012640569240083296
 0.9876025994193253 -0.10148972746927327 0.00976177437421136 0.043267137009367795 -0.002817150102506081 -0.012640510778608829 0.0033788839017964865 0.019805934510045472
 0.003205931926357399 0.019834399790436597 -0.002817150102506081 -0.012640510778608829 0.009788885312869424 0.043266982503693055 0.9876027242823909 -0.10148786073320104
 -0.0028164683839137566 -0.012640569240083296 0.0033788839017964865 0.019805934510045472 0.9876027242823909 -0.10148786073320104 0.009762480539894088 0.043268812891419754
0.1438099208003 0.01028520640966599 0.04512743781219894 0.9869083680392438 -0.10596847163376741 0.00344501789069255 0.020698382428758298 -0.003022230347165195 -0.01318049676534674
 0.9869083680392438 -0.10596847163376741 0.010254998651603897 0.04512956767506595 -0.0030229747546466996 -0.013180429622508656 0.0036337102786927473 0.02066673553306596
 0.00344501789069255 0.020698382428758298 -0.0030229747546466996 -0.013180429622508656 0.010284646408632558 0.04512934282486094 0.9869085049730417 -0.10596651694070708
 -0.003022230347165195 -0.01318049676534674 0.0036337102786927473 0.02066673553306596 0.9869085049730417 -0.10596651694070708 0.010255768310211041 0.04513130682347187
0.1500625260525 0.010797865988293355 0.04697862721649266 0.9861904105340832 -0.11043462428210592 0.0036932285459739408 0.02155818892643998 -0.003235764653512507 -0.013716474040604876
 0.9861904105340832 -0.11043462428210592 0.010764955197511996 0.04698091655073547 -0.0032365744615239092 -0.01371639744722815 0.003898313797638743 0.02152312629720581
 0.0036932285459739408 0.02155818892643998 -0.0032365744615239092 -0.01371639744722815 0.01079725549443301 0.04698061207832853 0.986190560195789 -0.11043258122470957
 -0.003235764653512507 -0.013716474040604876 0.003898313797638743 0.02152312629720581 0.986190560195789 -0.11043258122470957 0.010765790861631944 0.04698271733290099
0.15631513130469998 0.011327184485690913 0.0488185444469858 0.9854489228677374 -0.11488804335170008 0.003950468797254311 0.02241371590554684 -0.0034569764031933186 -0.014248400546159414
 0.9854489228677374 -0.11488804335170008 0.011291452330701043 0.04882100273089204 -0.0034578543177335363 -0.014248313703100746 0.0041725948315584635 0.022374995254075797
