! Created with skrf 1.8.0 (http://scikit-rf.org).
# GHz S RI R 50.0 
!freq ReS11 ImS11 ReS12 ImS12 ReS13 ImS13
! ReS14 ImS14
! ReS21 ImS21 ReS22 ImS22 ReS23 ImS23
! ReS24 ImS24
! ReS31 ImS31 ReS32 ImS32 ReS33 ImS33
! ReS34 ImS34
! ReS41 ImS41 ReS42 ImS42 ReS43 ImS43
! ReS44 ImS44
!
0.0 0.001679432129344 0.0 0.9983205678706 0.0 6.499851527375e-05 0.0 -6.49985146574e-05 7.960022292451724e-21
 0.9983205678706 0.0 0.001679432129326 0.0 -6.49985146576e-05 7.960022292476216e-21 6.499851527372e-05 0.0
 6.499851527375e-05 0.0 -6.49985146576e-05 7.960022292476216e-21 0.001679432126685 0.0 0.9983205678679 0.0
 -6.49985146574e-05 7.960022292451724e-21 6.499851527372e-05 0.0 0.9983205678679 0.0 0.001679432126656 0.0
0.005 0.0018073503446455511 0.001373654007842817 0.9981586618168137 -0.0035175213761304285 9.130552373226443e-05 0.0007152640887315779 -8.862795981885398e-05 -0.0004490403429306018
 0.9981586618168137 -0.0035175213761304285 0.0018073659984773028 0.0013736447969635017 -8.862977013825976e-05 -0.000449041632175272 9.121792479677592e-05 0.0007152976608538149
 9.130552373226443e-05 0.0007152640887315779 -8.862977013825976e-05 -0.000449041632175272 0.00180735029270062 0.0013737212389984435 0.9981586621906074 -0.003517454323216118
 -8.862795981885398e-05 -0.0004490403429306018 9.121792479677592e-05 0.0007152976608538149 0.9981586621906074 -0.003517454323216118 0.0018073667896892633 0.0013737116634795117
0.006252605252188 0.001841024655911212 0.00172245280740844 0.9981157507158548 -0.0043977415009223845 9.889341374019745e-05 0.0008944186282287646 -9.535560237850207e-05 -0.0005618730787484552
 0.9981157507158548 -0.0043977415009223845 0.0018410491256772188 0.0017224410420439693 -9.535842018281754e-05 -0.0005618746658689759 9.875655177772545e-05 0.0008944622054148671
 9.889341374019745e-05 0.0008944186282287646 -9.535842018281754e-05 -0.0005618746658689759 0.001841024497929013 0.0017225368358611045 0.9981157512230567 -0.004397657683271807
 -9.535560237850207e-05 -0.0005618730787484552 9.875655177772545e-05 0.0008944622054148671 0.9981157512230567 -0.004397657683271807 0.0018410502845320538 0.0017225246308129126
0.01250521050438 0.0020190225253506598 0.0034807919977878164 0.997887334085343 -0.00879613907350732 0.0001427886115545421 0.0017891381290570012 -0.00013382864048495599 -0.0011263850204498947
 0.997887334085343 -0.00879613907350732 0.002019120237269236 0.003480765910597984 -0.00013383975477696558 -0.0011263879235335617 0.00014224292603794598 0.0017892427988460751
 0.0001427886115545421 0.0017891381290570012 -0.00013383975477696558 -0.0011263879235335617 0.0020190213343339513 0.0034809596804440818 0.997887335544472 -0.008795971667541745
 -0.00013382864048495599 -0.0011263850204498947 0.00014224292603794598 0.0017892427988460751 0.997887335544472 -0.008795971667541745 0.002019124285166075 0.0034809328725257786
0.01875781575657 0.002213841274676695 0.005263932404665529 0.997635015028428 -0.013205866310529642 0.00019678954535480028 0.002684734713099036 -0.0001805415506604008 -0.0016927050848026092
 0.997635015028428 -0.013205866310529642 0.0022140608473703084 0.0052638892347214436 -0.00018056634888291922 -0.0016927089721923561 0.00019556393203278767 0.002684921691031083
 0.00019678954535480028 0.002684734713099036 -0.00018056634888291922 -0.0016927089721923561 0.0022138381811678625 0.005264183483274742 0.9976350178805242 -0.01320561536803129
 -0.0001805415506604008 -0.0016927050848026092 0.00019556393203278767 0.002684921691031083 0.9976350178805242 -0.01320561536803129 0.0022140694879634647 0.00526413946181238
0.02501042100875 0.0024258825317257687 0.007069345593692878 0.9973584779144162 -0.017629026430341626 0.0002610031754405362 0.0035812227673716205 -0.00023561368661849526 -0.0022605570114927346
 0.9973584779144162 -0.017629026430341626 0.0024262724889829433 0.007069282388065743 -0.00023565749554363885 -0.002260561485929051 0.0002588265637063336 0.0035815168417573807
 0.0002610031754405362 0.0035812227673716205 -0.00023565749554363885 -0.002260561485929051 0.002425876682641655 0.007069679780346639 0.9973584826124976 -0.017628691969963844
 -0.00023561368661849526 -0.0022605570114927346 0.0002588265637063336 0.0035815168417573807 0.9973584826124976 -0.017628691969963844 0.0024262874166229137 0.00706961573640246
0.03126302626094 0.0026555312990211716 0.008895713237551114 0.9970573920354268 -0.022066498884732395 0.0003355366613844284 0.004478533809048505 -0.0002991606612936468 -0.002829740030156561
 0.9970573920354268 -0.022066498884732395 0.002656140094775918 0.008895626852916153 -0.00029922875716373044 -0.00282974462808853 0.00033213776465808314 0.004478963359052341
 0.0003355366613844284 0.004478533809048505 -0.00029922875716373044 -0.00282974462808853 0.0026555218406481957 0.008896130237643966 0.9970573990300644 -0.022066080868506376
 -0.0002991606612936468 -0.002829740030156561 0.00033213776465808314 0.004478963359052341 0.9970573990300644 -0.022066080868506376 0.0026561629793679454 0.008896043166075911
0.037515631513130004 0.0029031639256436466 0.010742162782000431 0.9967314198881886 -0.026518703632133645 0.0004204962560771361 0.005376566251241238 -0.00037129516698574235 -0.003400079108391794
 0.9967314198881886 -0.026518703632133645 0.0029040399601610667 0.010742049885070624 -0.00037139278040407183 -0.003400083299714197 0.00041560346436232513 0.005377163280136674
 0.0004204962560771361 0.005376566251241238 -0.00037139278040407183 -0.003400083299714197 0.002903150007540003 0.01074266225703341 0.9967314296345817 -0.02651820200242282
 -0.00037129516698574235 -0.003400079108391794 0.00041560346436232513 0.005377163280136674 0.9967314296345817 -0.02651820200242282 0.002904072453490082 0.010742548957056204
0.043768236765320004 0.0031691511811496116 0.012608034818081012 0.996380220562198 -0.030985833694025085 0.0005159867788393121 0.006275200542279117 -0.00045212725407762117 -0.003971409830417795
 0.996380220562198 -0.030985833694025085 0.0031703428139549317 0.012607891885477326 -0.0004522595728283033 -0.003971413018337988 0.0005093281117130494 0.006276000715400141
 0.0005159867788393121 0.006275200542279117 -0.0004522595728283033 -0.003971413018337988 0.0031691319558653864 0.012608616391299636 0.9963802335220103 -0.030985248367579935
 -0.00045212725407762117 -0.003971409830417795 0.0005093281117130494 0.006276000715400141 0.9963802335220103 -0.030985248367579935 0.0031703865506488246 0.012608473466419974
0.050020842017509996 0.0034538596726543472 0.014492786955272277 0.9960034514752324 -0.0354679512091533 0.0006221112895355251 0.007174305426762504 -0.0005417644200661444 -0.004543572158430931
 0.9960034514752324 -0.0354679512091533 0.0034554152334642495 0.014492610273052358 -0.0005419365908401609 -0.004543573679384721 0.0006134143816271345 0.007175348111230268
 0.0006221112895355251 0.007174305426762504 -0.0005419365908401609 -0.004543573679384721 0.0034538342916125564 0.01449345021484897 0.9960034681148469 -0.03546728207373012
 -0.0005417644200661444 -0.004543572158430931 0.0006134143816271345 0.007175348111230268 0.9960034681148469 -0.03546728207373012 0.0034554718277547804 0.014493274072364538
0.055454545454549996 0.003716766039285204 0.01614565838710912 0.9956549953923443 -0.039375203563630196 0.0007230513484417717 0.007955928537923443 -0.0006268942070667021 -0.005041350662358642
 0.9956549953923443 -0.039375203563630196 0.003718677098655166 0.01614544921061051 -0.0006271051589839549 -0.005041350143870638 0.0007123616582273747 0.007957216848493747
 0.0007230513484417717 0.007955928537923443 -0.0006271051589839549 -0.005041350143870638 0.003716734618614774 0.016146392269060502 0.9956550156142211 -0.03937446148574347
 -0.0006268942070667021 -0.005041350662358642 0.0007123616582273747 0.007957216848493747 0.9956550156142211 -0.03937446148574347 0.0037187461629055903 0.01614618418866339
0.056273447269699996 0.003757652558013963 0.016395946642695936 0.9956007694099821 -0.03996503454253489 0.0007389708522776826 0.008073741023024163 -0.0006403116130511476 -0.00511640738280243
 0.9956007694099821 -0.03996503454253489 0.003759620356947039 0.0163957323054388 -0.0006405287423904576 -0.0051164065063930815 0.0007279629584004822 0.008075069328257953
 0.0007389708522776826 0.008073741023024163 -0.0006405287423904576 -0.0051164065063930815 0.003757620171436628 0.016396691137883498 0.9956007902031372 -0.03996428146061008
 -0.0006403116130511476 -0.00511640738280243 0.0007279629584004822 0.008075069328257953 0.9956007902031372 -0.03996428146061008 0.0037596914040890893 0.016396477987936236
0.06252605252188 0.004080889914754848 0.018317085240373728 0.9951718312116679 -0.04447700414920075 0.0008666643443281341 0.008973360521737249 -0.0007478711910856934 -0.005689756457096292
 0.9951718312116679 -0.04447700414920075 0.0040833182515619335 0.0183168291500699 -0.0007481383459669801 -0.005689752386063381 0.0008530723574960359 0.008975021340105463
 0.0008666643443281341 0.008973360521737249 -0.0007481383459669801 -0.005689752386063381 0.004080849669944202 0.018317910476112965 0.995171856639833 -0.044476166963309714
 -0.0007478711910856934 -0.005689756457096292 0.0008530723574960359 0.008975021340105463 0.995171856639833 -0.044476166963309714 0.004083405327011619 0.01831765633040303
0.06877865777407 0.004423928919618466 0.02025580254805935 0.9947162943009765 -0.04900373798669126 0.001005288289708608 0.009873011208556725 -0.0008645428565822395 -0.006263459015445109
 0.9947162943009765 -0.04900373798669126 0.004426866093217004 0.020255500412453647 -0.0008648650647217879 -0.006263450885625644 0.0009888387684903093 0.009875055255903138
 0.001005288289708608 0.009873011208556725 -0.0008648650647217879 -0.006263450885625644 0.004423879959730636 0.020256707991960214 0.994716324854815 -0.049002816512381794
 -0.0008645428565822395 -0.006263459015445109 0.0009888387684903093 0.009875055255903138 0.994716324854815 -0.049002816512381794 0.0044269707520540585 0.020256408662094376
0.07503126302626001 0.004787123917783139 0.022211717016048797 0.9942338170821182 -0.053545081252175816 0.0011549367068759192 0.010772535121607064 -0.0009904235760706055 -0.0068373527617977825
 0.9942338170821182 -0.053545081252175816 0.004790618235128711 0.022211364346886003 -0.0009908058259677918 -0.006837339642113353 0.0011353559096757384 0.010775016977467921
 0.0011549367068759192 0.010772535121607064 -0.0009908058259677918 -0.006837339642113353 0.004787065380086489 0.022212702094446493 0.9942338532616183 -0.053544075281954984
 -0.0009904235760706055 -0.0068373527617977825 0.0011353559096757384 0.010775016977467921 0.9942338532616183 -0.053544075281954984 0.004790742011294726 0.022212353190028844
0.08128386827845 0.005170826419321774 0.024184459230651732 0.9937240592812765 -0.058100852852653394 0.001315700966827215 0.011671769500113253 -0.001125607488630902 -0.0074112730750874635
 0.9937240592812765 -0.058100852852653394 0.005174926203997424 0.024184051341448822 -0.0011260547294170337 -0.00741125396755926 0.0012927148916113877 0.011674747647402244
 0.001315700966827215 0.011671769500113253 -0.0011260547294170337 -0.00741125396755926 0.0051707574332227075 0.024185523326187893 0.9937241015968771 -0.058099762158565126
 -0.001125607488630902 -0.0074112730750874635 0.0012927148916113877 0.011674747647402244 0.9937241015968771 -0.058099762158565126 0.005175070609657873 0.024185120252363492
0.08753647353064001 0.00557538504938884 0.026173667412441017 0.993186682244675 -0.06267084987017182 0.001487669656241656 0.01257054710418355 -0.0012701858083753574 -0.00798505275047108
 0.993186682244675 -0.06267084987017182 0.005580138650487299 0.02617319941595943 -0.0012707029496298768 -0.007985026590222854 0.0014610040846592986 0.012574083968330924
 0.001487669656241656 0.01257054710418355 -0.0012707029496298768 -0.007985026590222854 0.005575304735545657 0.0261748098697909 0.9931867312183497 -0.06266967419818112
 -0.0012701858083753574 -0.00798505275047108 0.0014610040846592986 0.012574083968330924 0.9931867312183497 -0.06266967419818112 0.005580305175515014 0.02617434782455575
0.09378907878283 0.006001145465807592 0.02817898420787498 0.9926213492073837 -0.06725485074216894 0.0016709284451046891 0.01346869645639659 -0.001424246721545697 -0.008558521826230327
 0.9926213492073837 -0.06725485074216894 0.006006601266762331 0.02817845101317193 -0.0014248386329546194 -0.008558487481523859 0.0016403089905905055 0.013472858443807753
 0.0016709284451046891 0.01346869645639659 -0.0014248386329546194 -0.008558487481523859 0.006001052934700091 0.028180204328429444 0.9926214053739039 -0.06725358981775349
 -0.001424246721545697 -0.008558521826230327 0.0016403089905905055 0.013472858443807753 0.9926214053739039 -0.06725358981775349 0.006006791378243881 0.028179678299515256
0.100041684035 0.006448450253631463 0.030200054339788736 0.9920277255435369 -0.07185261759171496 0.0018655599571282175 0.01436604203247652 -0.0015878752804525636 -0.009131507469315944
 0.9920277255435369 -0.07185261759171496 0.006454656680703697 0.030199450648927255 -0.0015885467913806905 -0.009131463741598978 0.0018307121158539807 0.014370899568142961
 0.0018655599571282175 0.01436604203247652 -0.0015885467913806905 -0.009131463741598978 0.006448344603697539 0.030201351383266926 0.9920277894511125 -0.07185127111847785
 -0.0015878752804525636 -0.009131507469315944 0.0018307121158539807 0.014370899568142961 0.9920277894511125 -0.07185127111847785 0.006454871822103099 0.03020075614461643
0.1059090909091 0.006888095092081894 0.03211062559157558 0.9914446466854597 -0.07617942944168812 0.002058615169940009 0.015207214882685682 -0.0017501979152262828 -0.009668597506273285
 0.9914446466854597 -0.07617942944168812 0.0068950499911721325 0.032109950741552755 -0.0017509484777885143 -0.00966854382406018 0.002019549721064179 0.01521279277950488
 0.002058615169940009 0.015207214882685682 -0.0017509484777885143 -0.00966854382406018 0.006887976299238138 0.0321119941099017 0.9914447183681628 -0.07617800239999448
 -0.0017501979152262828 -0.009668597506273285 0.002019549721064179 0.01521279277950488 0.9914447183681628 -0.07617800239999448 0.006895289911323633 0.03211132897835842
0.1062942892872 0.0069176388019915065 0.03223652284965612 0.9914054790019435 -0.07646389797471466 0.0020716436422872184 0.015262404415515912 -0.0017611532944327146 -0.009703833905032131
 0.9914054790019435 -0.07646389797471466 0.006924644333028508 0.032235843154076405 -0.0017619091934533231 -0.009703779529001335 0.0020322928472736325 0.015268031979894549
 0.0020716436422872184 0.015262404415515912 -0.0017619091934533231 -0.009703779529001335 0.006917519117801747 0.03223789603611214 0.9914055512128186 -0.07646246563276243
 -0.0017611532944327146 -0.009703833905032131 0.0020322928472736325 0.015268031979894549 0.9914055512128186 -0.07646246563276243 0.006924885923124452 0.03223722614399364
0.11254689453939999 0.007409047167297835 0.0342880337598178 0.9907542799323855 -0.08108842621684446 0.0022892556509267778 0.01615760042904388 -0.0019441592192084745 -0.010275322375921507
 0.9907542799323855 -0.08108842621684446 0.007416900340662052 0.03428727233622157 -0.0019450042536298237 -0.010275256019594297 0.0022451273285406873 0.016164076593988608
 0.0022892556509267778 0.01615760042904388 -0.0019450042536298237 -0.010275256019594297 0.007408912518683228 0.034289482268935016 0.9907543610243533 -0.08108690766396728
 -0.0019441592192084745 -0.010275322375921507 0.0022451273285406873 0.016164076593988608 0.9907543610243533 -0.08108690766396728 0.007417169773169629 0.034288732057509944
0.11879949979160001 0.007923007927186573 0.03635422903743943 0.9900738015050548 -0.08572592445796832 0.0025184687093321423 0.017051443254704358 -0.0021369680447705457 -0.010845791124168374
 0.9900738015050548 -0.08572592445796832 0.00793175735010419 0.036353379943312294 -0.002137906919964518 -0.0108457113889912 0.00246928833813755 0.017058850718439232
 0.0025184687093321423 0.017051443254704358 -0.002137906919964518 -0.0108457113889912 0.00792285736734842 0.036355752007792244 0.9900738920725485 -0.0857243193308351
 -0.0021369680447705457 -0.010845791124168374 0.00246928833813755 0.017058850718439232 0.9900738920725485 -0.0857243193308351 0.007932055992955104 0.03635491558447869
0.1250521050438 0.008459850025714836 0.03843474778278272 0.9893637199249197 -0.09037610348231154 0.002759351996382385 0.017943742538286414 -0.0023396511821521396 -0.0114150553938307
 0.9893637199249197 -0.09037610348231154 0.008469544383255046 0.03843380485154851 -0.002340688561008065 -0.011414960814801806 0.0027048451681577976 0.017952168159343758
 0.002759351996382385 0.017943742538286414 -0.002340688561008065 -0.011414960814801806 0.008459682589412819 0.038436344313761174 0.9893638205792119 -0.09037441139511822
 -0.0023396511821521396 -0.0114150553938307 0.0027048451681577976 0.017952168159343758 0.9893638205792119 -0.09037441139511822 0.008469873577352882 0.038435415553936245
0.131304710296 0.009019898611558552 0.040529225589749945 0.9886237146411396 -0.09503866338618057 0.0030119710212243977 0.01883430449163652 -0.002552276349992277 -0.01198292744552401
 0.9886237146411396 -0.09503866338618057 0.009030586675308427 0.040528182425404374 -0.002553416852224442 -0.011982816491301238 0.0029518635039200098 0.018843839321805646
 0.0030119710212243977 0.01883430449163652 -0.002553416852224442 -0.011982816491301238 0.009019713313917793 0.04053089473941755 0.9886238260123814 -0.09503688393353518
 -0.002552276349992277 -0.01198292744552401 0.0029518635039200098 0.018843839321805646 0.9886238260123814 -0.09503688393353518 0.009030947734309444 0.040529867280752696
0.1375573155481 0.0094794916428391 0.042364783511528475 0.9879775080424985 -0.09944064404082925 0.0032460410118094617 0.019696335304053333 -0.0027446299965142645 -0.012522588890124552
 0.9879775080424985 -0.09944064404082925 0.009491225093531437 0.04236365768704292 -0.002745880215285581 -0.012522461322104597 0.0031801881072078065 0.019706970754893405
 0.0032460410118094617 0.019696335304053333 -0.002745880215285581 -0.012522461322104597 0.009479286485939563 0.042366525120693596 0.9879776306336407 -0.09943877697986142
 -0.0027446299965142645 -0.012522588890124552 0.0031801881072078065 0.019706970754893405 0.9879776306336407 -0.09943877697986142 0.009491620566383826 0.042365415252486896
0.1438099208003 0.009955391767392262 0.04418984464870087 0.9873082975854193 -0.10383061924468456 0.0034895485495029083 0.02055432358057877 -0.0029446447188387175 -0.013058564306915588
 0.9873082975854193 -0.10383061924468456 0.00996821989967855 0.04418863133362577 -0.0029460095674162124 -0.0130584186168993 0.003417699651036178 0.020566143549939898
 0.0034895485495029083 0.02055432358057877 -0.0029460095674162124 -0.0130584186168993 0.009955165553663575 0.04419165781012025 0.9873084320267979 -0.10382866417763681
 -0.0029446447188387175 -0.013058564306915588 0.003417699651036178 0.020566143549939898 0.9873084320267979 -0.10382866417763681 0.009968651285285067 0.044190460585523644
0.1500625260525 0.010447418761798864 0.04600423166111476 0.9866162681026207 -0.10820845444986446 0.0037424018246422137 0.02140816388265475 -0.0031522317509245167 -0.013590755501245803
 0.9866162681026207 -0.10820845444986446 0.01046139096195774 0.046002925760021275 -0.0031537161250168554 -0.013590590121152527 0.003664307984860751 0.021421255341150292
 0.0037424018246422137 0.02140816388265475 -0.0031537161250168554 -0.013590590121152527 0.010447170262124177 0.04600611543593951 0.9866164150401963 -0.10820641096467666
 -0.0031522317509245167 -0.013590755501245803 0.003664307984860751 0.021421255341150292 0.9866164150401963 -0.10820641096467666 0.010461859747345576 0.04600482563154917
0.15631513130469998 0.010955390972170164 0.04780777249960993 0.9859016055322527 -0.11257401614233466 0.004004507851856459 0.022257752738031072 -0.0033673011532222106 -0.014119066498509856
 0.9859016055322527 -0.11257401614233466 0.010970556720015309 0.04780636864709927 -0.003368909930517263 -0.014118879800802519 0.003919921810467012 0.022272205694423904
