! Created with skrf 1.8.0 (http://scikit-rf.org).
# GHz S RI R 50.0 
!freq ReS11 ImS11 ReS12 ImS12 ReS13 ImS13
! ReS14 ImS14
! ReS21 ImS21 ReS22 ImS22 ReS23 ImS23
! ReS24 ImS24
! ReS31 ImS31 ReS32 ImS32 ReS33 ImS33
! ReS34 ImS34
! ReS41 ImS41 ReS42 ImS42 ReS43 ImS43
! ReS44 ImS44
!
0.0 0.001242085025485 0.0 0.9987579149744 0.0 4.7366433349e-05 0.0 -4.736643429216e-05 5.800715214291717e-21
 0.9987579149744 0.0 0.001242085025489 0.0 -4.736643429273e-05 5.8007152143615216e-21 4.736643334852e-05 0.0
 4.7366433349e-05 0.0 -4.736643429273e-05 5.8007152143615216e-21 0.001242085020519 0.0 0.9987579149694 0.0
 -4.736643429216e-05 5.800715214291717e-21 4.736643334852e-05 0.0 0.9987579149694 0.0 0.001242085020494 0.0
0.005 0.0013356554045305352 0.0010172646741282406 0.9986396516662377 -0.0026027337911424713 6.583836188876921e-05 0.0005179546209958494 -6.404443593949937e-05 -0.0003259230858077016
 0.9986396516662377 -0.0026027337911424713 0.001335659562037191 0.001017262201731813 -6.404462593849145e-05 -0.0003259231773138099 6.582187986895979e-05 0.0005179610122031952
 6.583836188876921e-05 0.0005179546209958494 -6.404462593849145e-05 -0.0003259231773138099 0.001335655925161087 0.0010173315948136638 0.9986396520056456 -0.0026026667186387076
 -6.404443593949937e-05 -0.0003259230858077016 6.582187986895979e-05 0.0005179610122031952 0.9986396520056456 -0.0026026667186387076 0.0013356597141254171 0.001017329420010886
0.006252605252188 0.001359986486993532 0.0012756090987793738 0.9986087399051369 -0.0032540860148709593 7.099574313542614e-05 0.0006477093901787063 -6.865627834216139e-05 -0.0004078363720730715
 0.9986087399051369 -0.0032540860148709593 0.0013599929859977387 0.0012756059218430704 -6.865657444558893e-05 -0.0004078364838324814 7.096999256561542e-05 0.0006477176615795288
 7.099574313542614e-05 0.0006477093901787063 -6.865657444558893e-05 -0.0004078364838324814 0.0013599872178123198 0.0012756927218489401 0.9986087403523745 -0.003254002194026837
 -6.865627834216139e-05 -0.0004078363720730715 7.096999256561542e-05 0.0006477176615795288 0.9986087403523745 -0.003254002194026837 0.0013599931399028364 0.001275689927129829
0.01250521050438 0.001486850237708432 0.0025782269516231725 0.998446661734264 -0.006509157239495095 9.993868755429882e-05 0.0012958590808640964 -9.430269257015822e-05 -0.000817777066890766
 0.998446661734264 -0.006509157239495095 0.0014868761929720095 0.0025782197196249725 -9.430386486974783e-05 -0.0008177772615531803 9.983603720610691e-05 0.0012958786449546811
 9.993868755429882e-05 0.0012958590808640964 -9.430386486974783e-05 -0.0008177772615531803 0.0014868525935055412 0.0025783938658921713 0.9984466629539529 -0.006508989828434939
 -9.430269257015822e-05 -0.000817777066890766 9.983603720610691e-05 0.0012958786449546811 0.9984466629539529 -0.006508989828434939 0.0014868762325238032 0.0025783875045834173
0.01875781575657 0.0016229093938315263 0.0038997164470608798 0.9982715104585682 -0.009773178808318569 0.00013425546192327993 0.0019449051885008246 -0.00012437506486356688 -0.0012292635273625262
 0.9982715104585682 -0.009773178808318569 0.001622967727588367 0.0038997042165992697 -0.0001243776868116699 -0.0012292637698743877 0.00013402495448321363 0.0019449395919899028
 0.00013425546192327993 0.0019449051885008246 -0.0001243776868116699 -0.0012292637698743877 0.0016229142751914647 0.0038999664276379155 0.9982715127803891 -0.00977292787537784
 -0.00012437506486356688 -0.0012292635273625262 0.00013402495448321363 0.0019449395919899028 0.9982715127803891 -0.00977292787537784 0.0016229673783857534 0.0038999556767698065
0.02501042100875 0.0017683924404310629 0.005238274036493542 0.9980831106784634 -0.013047776657273311 0.00017400710026924544 0.0025949013517011814 -0.00015894122426198532 -0.0016421366407353378
 0.9980831106784634 -0.013047776657273311 0.0017684960540791839 0.00523825580095855 -0.00015894586507985244 -0.0016421368894195857 0.00017359780467331116 0.0025949546367738004
 0.00017400710026924544 0.0025949013517011814 -0.00015894586507985244 -0.0016421368894195857 0.0017684007520285512 0.00523860684735071 0.9980831144352126 -0.013047442226559526
 -0.00015894122426198532 -0.0016421366407353378 0.00017359780467331116 0.0025949546367738004 0.9980831144352126 -0.013047442226559526 0.001768495033188134 0.005238590834677697
0.03126302626094 0.001923518114898286 0.006592993850243647 0.9978812765835022 -0.016333673378707718 0.00021925530560541772 0.003245842786325839 -0.00019806748753130963 -0.002056292665834761
 0.9978812765835022 -0.016333673378707718 0.0019236798937147127 0.0065929685396050215 -0.0001980747130150208 -0.002056292872279271 0.00021861626375878565 0.0032459194913673794
 0.00021925530560541772 0.003245842786325839 -0.0001980747130150208 -0.002056292872279271 0.0019235307597612631 0.0065934092340667536 0.9978812821061095 -0.01633325543982253
 -0.00019806748753130963 -0.002056292665834761 0.00021861626375878565 0.0032459194913673794 0.9978812821061095 -0.01633325543982253 0.0019236779039220905 0.00659338703822697
0.037515631513130004 0.002088500607239458 0.007963302114387092 0.9976658172505107 -0.019631253757419725 0.00027006187629454814 0.003897702033999378 -0.0002418191521806445 -0.0024716474730977
 0.9976658172505107 -0.019631253757419725 0.0020887334235832867 0.007963268594867796 -0.00024182952509754622 -0.002471647582108381 0.0002691420778601733 0.0038978071974901467
 0.00027006187629454814 0.003897702033999378 -0.00024182952509754622 -0.002471647582108381 0.0020885184910264367 0.007963799783524132 0.9976658248734286 -0.019630752274163454
 -0.0002418191521806445 -0.0024716474730977 0.0002691420778601733 0.0038978071974901467 0.9976658248734286 -0.019630752274163454 0.002088730157614125 0.007963770433902256
0.043768236765320004 0.002263551573632339 0.0093487850538637 0.9974365387545004 -0.02294073681465989 0.00032648844915508584 0.004550439824154925 -0.0002902606800904693 -0.0028881256706731356
 0.9974365387545004 -0.02294073681465989 0.0022638682885198704 0.00934874212756331 -0.00029027476034718103 -0.00288812562020165 0.0003252368179340355 0.004550578989531189
 0.00032648844915508584 0.004550439824154925 -0.00029027476034718103 -0.00288812562020165 0.002263575603275175 0.009349364687349726 0.9974365488154553 -0.022940151727599212
 -0.0002902606800904693 -0.0028881256706731356 0.0003252368179340355 0.004550578989531189 0.9974365488154553 -0.022940151727599212 0.0022638634281521184 0.009349327164039934
0.050020842017509996 0.0024488810862372296 0.010749117741987278 0.9971932452184131 -0.026262246903897692 0.0003885963484573301 0.005204009564556986 -0.0003434557767019038 -0.0033056561023468473
 0.9971932452184131 -0.026262246903897692 0.002449294550991186 0.01074906414649191 -0.00034347412147924206 -0.003305655823459744 0.0003869617351987933 0.005204188785481016
 0.0003885963484573301 0.005204009564556986 -0.00034347412147924206 -0.003305655823459744 0.002448912168960865 0.010749778978030065 0.9971932580583776 -0.026261578137493226
 -0.0003434557767019038 -0.0033056561023468473 0.0003869617351987933 0.005204188785481016 0.9971932580583776 -0.026261578137493226 0.0024492877661247865 0.010749732211643713
0.055454545454549996 0.0026184478135130836 0.011977897667010066 0.9969702806825774 -0.0291585584720664 0.00044723124572710807 0.005772617046456472 -0.0003935933358871248 -0.003669303537507369
 0.9969702806825774 -0.0291585584720664 0.00261895578672628 0.011977833724004521 -0.0003936158370649422 -0.0036693029987496808 0.00044522221053367686 0.005772836393560678
 0.00044723124572710807 0.005772617046456472 -0.0003936158370649422 -0.0036693029987496808 0.0026184857621389147 0.011978629495616304 0.9969702962175011 -0.02915781690868557
 -0.0003935933358871248 -0.003669303537507369 0.00044522221053367686 0.005772836393560678 0.9969702962175011 -0.02915781690868557 0.0026189470519954114 0.01197857378973094
0.056273447269699996 0.00264469812741589 0.012164029197079197 0.9969357394089979 -0.029595848558889578 0.00045644648646393196 0.0058583595244671395 -0.00040146741903455176 -0.003724169653676908
 0.9969357394089979 -0.029595848558889578 0.0026452211844551587 0.012163963605040063 -0.00040149058282375866 -0.0037241690705018767 0.0004543776652824138 0.00585858537029604
 0.00045644648646393196 0.0058583595244671395 -0.00040149058282375866 -0.0037241690705018767 0.0026447371704248746 0.012164771637071031 0.9969357553731745 -0.029595096017159872
 -0.00040146741903455176 -0.003724169653676908 0.0004543776652824138 0.00585858537029604 0.9969357553731745 -0.029595096017159872 0.0026452121331649687 0.012164714508642479
0.06252605252188 0.002851210871192217 0.013593283187349555 0.9966638231215941 -0.032941565634170354 0.0005300992849555437 0.006513434054979916 -0.0004643578621207266 -0.00414359802204349
 0.9966638231215941 -0.032941565634170354 0.0028518563552161974 0.013593204206051061 -0.00046438639675732134 -0.0041435970517308554 0.0005275449522828714 0.006513713616340502
 0.0005300992849555437 0.006513434054979916 -0.00046438639675732134 -0.0041435970517308554 0.0028512587803768016 0.013594106395401978 0.9966638425591208 -0.03294072920074479
 -0.0004643578621207266 -0.00414359802204349 0.0005275449522828714 0.006513713616340502 0.9966638425591208 -0.03294072920074479 0.002851844682545733 0.013594037736158013
0.06877865777407 0.003068626842768704 0.015036666783013552 0.996377297445425 -0.036299392698962055 0.0006096146125320057 0.0071691742945844735 -0.000532188629103604 -0.004563873002777394
 0.996377297445425 -0.036299392698962055 0.0030694075811221544 0.015036572953940718 -0.0005322230837304656 -0.00456387155545385 0.0006065233876496124 0.007169515188990333
 0.0006096146125320057 0.0071691742945844735 -0.0005322230837304656 -0.00456387155545385 0.0030686845229994804 0.015037570281270157 0.9963773207110228 -0.03629847224146422
 -0.000532188629103604 -0.004563873002777394 0.0006065233876496124 0.007169515188990333 0.9963773207110228 -0.03629847224146422 0.0030693929199783997 0.015037488872519975
0.07503126302626001 0.0032971530107236964 0.01649398310196852 0.99607596296347 -0.03966930223882491 0.0006950517283934632 0.007825518626060235 -0.0006050204937754955 -0.004984926025372807
 0.99607596296347 -0.03966930223882491 0.003298081824578788 0.016493872900321144 -0.0006050614148759263 -0.0049849240041049386 0.0006913721554561019 0.007825929003525602
 0.0006950517283934632 0.007825518626060235 -0.0006050614148759263 -0.0049849240041049386 0.003297221364432936 0.01649496637479707 0.9960759904171672 -0.03966829760435944
 -0.0006050204937754955 -0.004984926025372807 0.0006913721554561019 0.007825929003525602 0.9960759904171672 -0.03966829760435944 0.0032980637939587663 0.01649487094768065
0.08128386827845 0.0035369958345495807 0.01796504648093722 0.995759619909771 -0.04305124943317796 0.0007864692313876124 0.008482402975677214 -0.0006829134572718025 -0.005406687848902647
 0.995759619909771 -0.04305124943317796 0.003538085539277273 0.017964918315125953 -0.0006829613885851014 -0.005406685149655927 0.0007821497822274411 0.008482891524340248
 0.0007864692313876124 0.008482402975677214 -0.0006829613885851014 -0.005406685149655927 0.0035370757613266707 0.0179661089687609 0.9957596519175574 -0.04305016045417785
 -0.0006829134572718025 -0.005406687848902647 0.0007821497822274411 0.008482891524340248 0.9957596519175574 -0.04305016045417785 0.0035380637446406635 0.017965998204027875
0.08753647353064001 0.003788361283972878 0.01944967912752474 0.9954280682998691 -0.04644517545346081 0.0008839250122322234 0.00913976102004507 -0.0007659267205742838 -0.005829088351397361
 0.9954280682998691 -0.04644517545346081 0.0037896246894901335 0.01944953133870014 -0.0007659822030209834 -0.005829084863006722 0.000878914089845657 0.00914033697177022
 0.0008839250122322234 0.00913976102004507 -0.0007659822030209834 -0.005829084863006722 0.0037884536795363267 0.019450820232103906 0.9954281052341828 -0.04644400194216654
 -0.0007659267205742838 -0.005829088351397361 0.000878914089845657 0.00914033697177022 0.9954281052341828 -0.04644400194216654 0.0037895987221702827 0.01945069275986195
0.09378907878283 0.004051454838621549 0.02094770873693884 0.9950811080446953 -0.04985100979827594 0.0009874762072869317 0.009797524333183776 -0.0008541186543454611 -0.006252056380696828
 0.9950811080446953 -0.04985100979827594 0.004052904750366934 0.02094753959844383 -0.000854182226045929 -0.006252051984817068 0.0009817221502090466 0.009798197469108705
 0.0009874762072869317 0.009797524333183776 -0.000854182226045929 -0.006252051984817068 0.004051560594587807 0.02094892781982511 0.9950811502853635 -0.049849751548018205
 -0.0008541186543454611 -0.006252056380696828 0.0009817221502090466 0.009798197469108705 0.9950811502853635 -0.049849751548018205 0.00405287418699803 0.02094878221926274
0.100041684035 0.00432648147365492 0.022458966739108018 0.9947185390513994 -0.05326867200002884 0.001097179153810786 0.010455622498303833 -0.0009475467667411506 -0.006675519642302219
 0.9947185390513994 -0.05326867200002884 0.004328130692718801 0.02245877445594859 -0.0009476189628630683 -0.006675514213393073 0.0010906302408484137 0.01045640315433974
 0.001097179153810786 0.010455622498303833 -0.0009476189628630683 -0.006675514213393073 0.004326601476092741 0.022460263117191338 0.9947185869856042 -0.05326732878941656
 -0.0009475467667411506 -0.006675519642302219 0.0010906302408484137 0.01045640315433974 0.9947185869856042 -0.05326732878941656 0.0043280950947732644 0.022460097916274152
0.1059090909091 0.004595599931515485 0.02388900512168664 0.9943639323687455 -0.05648646348722895 0.0012057681287298695 0.011073417965838925 -0.0010400318284607857 -0.007073279939120831
 0.9943639323687455 -0.05648646348722895 0.0045974478185917406 0.02388878942576793 -0.0010401126017720202 -0.007073273420195265 0.0011984262393156726 0.011074309417494144
 0.0012057681287298695 0.011073417965838925 -0.0010401126017720202 -0.007073273420195265 0.0045957341034415485 0.023890373374588814 0.9943639860051147 -0.05648504033324029
 -0.0010400318284607857 -0.007073279939120831 0.0011984262393156726 0.011074309417494144 0.9943639860051147 -0.05648504033324029 0.004597407083542883 0.02389018839610351
0.1062942892872 0.004613645634744544 0.02398328697387024 0.9943401613161525 -0.05669807290524116 0.001213089346283725 0.011113983186027188 -0.0010462676690484074 -0.00709940462261158
 0.9943401613161525 -0.05669807290524116 0.004615506958642022 0.02398306968209829 -0.001046349021797449 -0.0070993980278903765 0.0012056938016996735 0.011114882258329246
 0.001213089346283725 0.011113983186027188 -0.001046349021797449 -0.0070993980278903765 0.004613780763918124 0.02398465992252381 0.9943402153392503 -0.05669664449492724
 -0.0010462676690484074 -0.00709940462261158 0.0012056938016996735 0.011114882258329246 0.9943402153392503 -0.05669664449492724 0.004615465872007354 0.023984473597673875
0.11254689453939999 0.004913151205747494 0.025520504679661587 0.9939457750110489 -0.06013911564359867 0.001335261392730883 0.011772532221490592 -0.001150337040603297 -0.007523636525123809
 0.9939457750110489 -0.06013911564359867 0.004915237428667236 0.02552026044581276 -0.0011504280791049932 -0.0075236286245448656 0.0013269673918499569 0.011773561171856158
 0.001335261392730883 0.011772532221490592 -0.0011504280791049932 -0.0075236286245448656 0.004913302335004465 0.025521953434470716 0.993945835526977 -0.06013760177420093
 -0.001150337040603297 -0.007523636525123809 0.0013269673918499569 0.011773561171856158 0.993945835526977 -0.06013760177420093 0.004915190383116117 0.025521744410236295
0.11879949979160001 0.005225201469689618 0.027070455708546756 0.9935351805661005 -0.06359169637236488 0.0014637489718339132 0.012431193634581814 -0.001259809591997662 -0.00794813922544742
 0.9935351805661005 -0.06359169637236488 0.005227525383005203 0.027070182529047488 -0.0012599108422254419 -0.007948129871670031 0.0014545046470896507 0.012432364495738401
 0.0014637489718339132 0.012431193634581814 -0.0012599108422254419 -0.007948129871670031 0.005225369464997244 0.027071979461017706 0.9935352479886174 -0.06359009676876659
 -0.001259809591997662 -0.00794813922544742 0.0014545046470896507 0.012432364495738401 0.9935352479886174 -0.06359009676876659 0.005227471891998218 0.02707174610964928
0.1250521050438 0.005549999065127639 0.028632975893574535 0.9931081787497122 -0.06705570487106266 0.0015986047901248193 0.013089889700304171 -0.0013747390275935583 -0.008372835238109003
 0.9931081787497122 -0.06705570487106266 0.005552573457975298 0.02863267169402682 -0.0013748510122910714 -0.00837282427647522 0.001588358237281597 0.013091215081178343
 0.0015986047901248193 0.013089889700304171 -0.0013748510122910714 -0.00837282427647522 0.005550184783905651 0.028634573792621527 0.9931082535017661 -0.067054019240723
 -0.0013747390275935583 -0.008372835238109003 0.001588358237281597 0.013091215081178343 0.9931082535017661 -0.067054019240723 0.005552513017722226 0.028634314433704323
0.131304710296 0.005887745938620968 0.03020790054898726 0.9926645707446721 -0.07053102500521576 0.001739880538964141 0.013748540976029438 -0.0014951780073977738 -0.00879764568850826
 0.9926645707446721 -0.07053102500521576 0.005890583598043996 0.030207563183572796 -0.0014953012459584922 -0.00879763295701663 0.0017285798237546225 0.013750034066924037
 0.001739880538964141 0.013748540976029438 -0.0014953012459584922 -0.00879763295701663 0.005887950228896598 0.03020957170252406 0.9926646532601002 -0.07052925303656421
 -0.0014951780073977738 -0.00879764568850826 0.0017285798237546225 0.013750034066924037 0.9926646532601002 -0.07052925303656421 0.005890515687214613 0.03020928460251158
0.1375573155481 0.006154384088334781 0.031589293733858326 0.9922884397210547 -0.07381170758357374 0.001867912013662408 0.014385836658575518 -0.0016014755799739697 -0.009201259739119293
 0.9922884397210547 -0.07381170758357374 0.006157497712911288 0.03158892948548571 -0.0016016106709403261 -0.009201245238071273 0.0018555267088054472 0.014387493588734344
 0.001867912013662408 0.014385836658575518 -0.0016016106709403261 -0.009201245238071273 0.006154607115974958 0.031591037670932846 0.9922885303521563 -0.07380984908653777
 -0.0016014755799739697 -0.009201259739119293 0.0018555267088054472 0.014387493588734344 0.9922885303521563 -0.07380984908653777 0.006157422633011161 0.03159072885777063
0.1438099208003 0.006430158520845912 0.03296451450751298 0.9918995258751736 -0.07708519179768511 0.0020011128231373966 0.015021208441108075 -0.0017120363461958661 -0.009603112105633152
 0.9918995258751736 -0.07708519179768511 0.006433560855694874 0.03296412187861119 -0.0017121838185203053 -0.00960309568084122 0.0019875948522787975 0.015023041152104972
 0.0020011128231373966 0.015021208441108075 -0.0017121838185203053 -0.00960309568084122 0.006430400996745808 0.032966330333474965 0.9918996250543906 -0.07708324646411789
 -0.0017120363461958661 -0.009603112105633152 0.0019875948522787975 0.015023041152104972 0.9918996250543906 -0.07708324646411789 0.006433478209370153 0.03296599866135598
0.1500625260525 0.006714985823666008 0.03433348088369673 0.9914979155542273 -0.08035142985504239 0.002139445057330901 0.015654613242423534 -0.0018268234797295863 -0.010003161227900337
 0.9914979155542273 -0.08035142985504239 0.006718689607193321 0.03433305830933335 -0.0018269838602183739 -0.010003142719160942 0.0021247465665326926 0.015656634109994388
 0.002139445057330901 0.015654613242423534 -0.0018269838602183739 -0.010003142719160942 0.006715248441530284 0.03433536766707699 0.9914980237228748 -0.08034939736613837
 -0.0018268234797295863 -0.010003161227900337 0.0021247465665326926 0.015656634109994388 0.9914980237228748 -0.08034939736613837 0.00671859898965956 0.034335011934870506
0.15631513130469998 0.007008782151686659 0.03569611354299477 0.9910836953685037 -0.08361037351360538 0.002282870452924677 0.016286008573684178 -0.0019457997878301729 -0.010401366333181993
