! Created with skrf 1.8.0 (http://scikit-rf.org).
# GHz S RI R 50.0 
!freq ReS11 ImS11 ReS12 ImS12 ReS13 ImS13
! ReS14 ImS14
! ReS21 ImS21 ReS22 ImS22 ReS23 ImS23
! ReS24 ImS24
! ReS31 ImS31 ReS32 ImS32 ReS33 ImS33
! ReS34 ImS34
! ReS41 ImS41 ReS42 ImS42 ReS43 ImS43
! ReS44 ImS44
!
0.0 0.0009710474975526 0.0 0.9990289524843 0.0 3.64697922477e-05 0.0 -3.646979190944e-05 4.4662613927465736e-21
 0.9990289524843 0.0 0.0009710474975411 0.0 -3.646979190879e-05 4.466261392666972e-21 3.646979224774e-05 0.0
 3.64697922477e-05 0.0 -3.646979190879e-05 4.466261392666972e-21 0.0009710475048203 0.0 0.9990289524916 0.0
 -3.646979190944e-05 4.4662613927465736e-21 3.646979224774e-05 0.0 0.9990289524916 0.0 0.0009710475048373 0.0
0.005 0.0010436705953021377 0.0007952974706051516 0.998937226936339 -0.002035569575458221 5.044513504377055e-05 0.0004002895728806561 -4.910903515130108e-05 -0.0002517075958781895
 0.998937226936339 -0.002035569575458221 0.0010436728814208211 0.0007952961715380991 -4.910788806096843e-05 -0.0002517067711206753 5.043778630102842e-05 0.00040029243660074043
 5.044513504377055e-05 0.0004002895728806561 -4.910788806096843e-05 -0.0002517067711206753 0.001043670573955013 0.0007952302759418214 0.9989372266264792 -0.002035636638702692
 -4.910903515130108e-05 -0.0002517075958781895 5.043778630102842e-05 0.00040029243660074043 0.9989372266264792 -0.002035636638702692 0.0010436722828343838 0.0007952292386762949
0.006252605252188 0.0010624070763479868 0.000997293368545313 0.9989134630971865 -0.0025450068624240404 5.4265885437879785e-05 0.0005005757632113965 -5.25375438050518e-05 -0.0003149770289287984
 0.9989134630971865 -0.0025450068624240404 0.0010624106495496428 0.0009972917056493562 -5.253575833014193e-05 -0.0003149760123257141 5.425440424199013e-05 0.0005005794637072237
 5.4265885437879785e-05 0.0005005757632113965 -5.253575833014193e-05 -0.0003149760123257141 0.001062407126007757 0.0009972093833891106 0.9989134626961145 -0.0025450906876797073
 -5.25375438050518e-05 -0.0003149770289287984 5.425440424199013e-05 0.0005005794637072237 0.9989134626961145 -0.0025450906876797073 0.0010624097975042482 0.0009972080382040169
0.01250521050438 0.0011592325834224673 0.0020159288589705108 0.9987900866392746 -0.005091014845360311 7.526870923077986e-05 0.0010015805611400664 -7.123855471000856e-05 -0.0006316681790940165
 0.9987900866392746 -0.005091014845360311 0.001159246845313576 0.0020159251375292337 -7.123151168354063e-05 -0.0006316662989878191 7.522294448152397e-05 0.0010015892407304109
 7.526870923077986e-05 0.0010015805611400664 -7.123151168354063e-05 -0.0006316662989878191 0.0011592333088030699 0.002015761188344913 0.9987900855711346 -0.005091182236528322
 -7.123855471000856e-05 -0.0006316681790940165 7.522294448152397e-05 0.0010015892407304109 0.9987900855711346 -0.005091182236528322 0.0011592439817233256 0.0020157580085742957
0.01875781575657 0.0012616688565645574 0.003049563921071985 0.998658717911146 -0.007644281395438379 9.951589347652452e-05 0.0015033840166807446 -9.26156939356897e-05 -0.0009496547509429779
 0.998658717911146 -0.007644281395438379 0.001261700893266528 0.0030495577169243836 -9.259997749403138e-05 -0.0009496521805565475 9.941313305541448e-05 0.0015033991415057575
 9.951589347652452e-05 0.0015033840166807446 -9.259997749403138e-05 -0.0009496521805565475 0.0012616708962071902 0.0030493126922526946 0.9986587159328844 -0.0076445322565335296
 -9.26156939356897e-05 -0.0009496547509429779 9.941313305541448e-05 0.0015033991415057575 0.9986587159328844 -0.0076445322565335296 0.0012616948919558172 0.003049307165305838
0.02501042100875 0.0013698595710888097 0.004096812515693483 0.9985192496547134 -0.010206104723189193 0.00012704550483853748 0.0020060440259407563 -0.00011671126746010428 -0.00126882831071339
 0.9985192496547134 -0.010206104723189193 0.0013699164480706206 0.00409680337781172 -0.00011668349817166815 -0.0012688252467996466 0.00012686305073787712 0.002006067235130319
 0.00012704550483853748 0.0020060440259407563 -0.00011668349817166815 -0.0012688252467996466 0.0013698635475635115 0.004096477829366694 0.9985192465163881 -0.01020643897655015
 -0.00011671126746010428 -0.00126882831071339 0.00012686305073787712 0.002006067235130319 0.9985192465163881 -0.01020643897655015 0.0013699061839384692 0.004096469419649504
0.03126302626094 0.0014839417386580986 0.005156991846450419 0.9983715670924617 -0.012777077052764907 0.0001578962147010197 0.002509573617140734 -0.00014356679215687495 -0.0015891238209344697
 0.9983715670924617 -0.012777077052764907 0.0014840305039549727 0.005156979296957287 -0.00014352362030790042 -0.001589120484298234 0.00015761135789475034 0.002509606722535772
 0.0001578962147010197 0.002509573617140734 -0.00014352362030790042 -0.001589120484298234 0.0014839482663835184 0.005156573767914125 0.9983715625441894 -0.012777494648061613
 -0.00014356679215687495 -0.0015891238209344697 0.00015761135789475034 0.002509606722535772 0.9983715625441894 -0.012777494648061613 0.001484014859524946 0.00515656191649758
0.037515631513130004 0.0016040494209195813 0.006229679833909001 0.9982155516774823 -0.015357527119887426 0.00019210694245880159 0.0030139686754166676 -0.00017322331921355624 -0.001910491906166369
 0.9982155516774823 -0.015357527119887426 0.0016041771068619815 0.0062296633680309745 -0.00017316142133852033 -0.0019104885418722206 0.00019169695051096677 0.0030140136627345997
 0.00019210694245880159 0.0030139686754166676 -0.00017316142133852033 -0.0019104885418722206 0.001604059107086675 0.0062291784242473535 0.9982155454702566 -0.015358028003014374
 -0.00017322331921355624 -0.001910491906166369 0.00019169695051096677 0.0030140136627345997 0.9982155454702566 -0.015358028003014374 0.0016041549723354379 0.006229162548740243
0.043768236765320004 0.0017303151723732995 0.007314580456693963 0.9980510825741011 -0.017947654799784902 0.00022971669743815015 0.003519216365769627 -0.00020572156325243112 -0.0022328904199074417
 0.9980510825741011 -0.017947654799784902 0.0017304887967061965 0.007314559542646823 -0.00020563764003795536 -0.0022328872974168783 0.00022915880738554707 0.003519275396242156
 0.00022971669743815015 0.003519216365769627 -0.00020563764003795536 -0.0022328872974168783 0.0017303286178576166 0.007313995760810577 0.9980510744604688 -0.017948238924913353
 -0.00020572156325243112 -0.0022328904199074417 0.00022915880738554707 0.003519275396242156 0.9980510744604688 -0.017948238924913353 0.0017304590702550125 0.007313975255131956
0.050020842017509996 0.0018628707180094082 0.008411468085696107 0.9978780373740298 -0.02054758674071884 0.00027076449355502465 0.004025298614349461 -0.00024110195988156862 -0.0025562809530530546
 0.9978780373740298 -0.02054758674071884 0.0018630972847241821 0.008411442164558566 -0.0002409927347740574 -0.0025562783663043735 0.00027003590752017366 0.004025374026525602
 0.00027076449355502465 0.004025298614349461 -0.0002409927347740574 -0.0025562783663043735 0.001862888516237968 0.00841080014295116 0.9978780271066893 -0.02054825405975588
 -0.00024110195988156862 -0.0025562809530530546 0.00027003590752017366 0.004025374026525602 0.9978780271066893 -0.02054825405975588 0.0018630588709830833 0.00841077437717796
0.055454545454549996 0.00198327553384433 0.009374289047793041 0.9977205950573064 -0.02281503214826472 0.0003092586444793872 0.0044657604718978255 -0.0002742204721684237 -0.002838094478308156
 0.9977205950573064 -0.02281503214826472 0.001983553786930181 0.00937425830025457 -0.00027408661492769973 -0.0028380926149231336 0.00030836317479327857 0.004465852158599275
 0.0003092586444793872 0.0044657604718978255 -0.00027408661492769973 -0.0028380926149231336 0.0019832975911551367 0.009373548783041129 0.9977205827178944 -0.022815771730097405
 -0.0002742204721684237 -0.002838094478308156 0.00030836317479327857 0.004465852158599275 0.9977205827178944 -0.022815771730097405 0.00198350693917159 0.009373517915847817
0.056273447269699996 0.002001847313620646 0.009520160192198153 0.9976962924952917 -0.02315740362310487 0.0003152892938308785 0.0045321938092401075 -0.0002794046934657171 -0.0028806271228878615
 0.9976962924952917 -0.02315740362310487 0.0020021338134997135 0.00952012867778729 -0.0002792669116926661 -0.0028806253903803365 0.0003143671765298822 0.0045322881208857335
 0.0003152892938308785 0.0045321938092401075 -0.0002792669116926661 -0.0028806253903803365 0.0020018700511293046 0.009519409029000007 0.9976962798277247 -0.023158154093059265
 -0.0002794046934657171 -0.0028806271228878615 0.0003143671765298822 0.0045322881208857335 0.9976962798277247 -0.023158154093059265 0.0020020856238790546 0.009519377349175892
0.06252605252188 0.0021473759545689555 0.010640502315955171 0.9975057234317467 -0.02577715515842899 0.0003633299703655891 0.005039877734594481 -0.0003206697095102233 -0.003205893628973039
 0.9975057234317467 -0.02577715515842899 0.002147729365956882 0.01064046459464328 -0.00032050013741669736 -0.0032058930938272806 0.00036219144750680824 0.0050399936446509745
 0.0003633299703655891 0.005039877734594481 -0.00032050013741669736 -0.0032058930938272806 0.002147404211118771 0.010639667954798974 0.9975057081180796 -0.025777988732498598
 -0.0003206697095102233 -0.003205893628973039 0.00036219144750680824 0.0050399936446509745 0.9975057081180796 -0.025777988732498598 0.0021476703182263935 0.010639629682784429
0.06877865777407 0.002299587501499765 0.011772359127104828 0.9973062049185458 -0.028406868994308995 0.00041492527342454376 0.005548324125220542 -0.0003649367175755844 -0.0035320456888608
 0.9973062049185458 -0.028406868994308995 0.00230001479035145 0.011772314557738136 -0.00036473214208448864 -0.0035320467188767104 0.00041354743091969896 0.0055484645157985015
 0.00041492527342454376 0.005548324125220542 -0.00036473214208448864 -0.0035320467188767104 0.0022996218501437154 0.011771441581426137 0.9973061867140305 -0.02840778562705564
 -0.0003649367175755844 -0.0035320456888608 0.00041354743091969896 0.0055484645157985015 0.9973061867140305 -0.02840778562705564 0.0022999438087429585 0.011771396014747654
0.07503126302626001 0.002458612758583803 0.012915608745168792 0.9970976110532739 -0.031046556362891775 0.00047011380531538976 0.006057505014606372 -0.0004122451889999301 -0.0038590486807479523
 0.9970976110532739 -0.031046556362891775 0.0024591208790749838 0.012915556658880983 -0.00041200241724149273 -0.0038590516684648595 0.00046847368908946015 0.0060576729529842445
 0.00047011380531538976 0.006057505014606372 -0.00041200241724149273 -0.0038590516684648595 0.0024586537652356542 0.012914608018980108 0.997097589713355 -0.03104755601058676
 -0.0004122451889999301 -0.0038590486807479523 0.00046847368908946015 0.0060576729529842445 0.997097589713355 -0.03104755601058676 0.0024590368935719707 0.012914554430647153
0.08128386827845 0.002624582521451273 0.014070138964196672 0.9968798153855531 -0.03369621582293782 0.0005289339973015205 0.006567390966140544 -0.00046263435127596607 -0.004186867903322854
 0.9968798153855531 -0.03369621582293782 0.002625178416230546 0.014070078664247782 -0.00046235021037008956 -0.004186873266063963 0.0005270086133474675 0.0065675897067813
 0.0005289339973015205 0.006567390966140544 -0.00046235021037008956 -0.004186873266063963 0.002624630745644372 0.014069055058759642 0.9968797906666664 -0.0336972984369862
 -0.00046263435127596607 -0.004186867903322854 0.0005270086133474675 0.0065675897067813 0.9968797906666664 -0.0336972984369862 0.0026250803626409283 0.0140689926971396
0.08753647353064001 0.002797627606425902 0.015235844643340726 0.9966526909901682 -0.03635583583721536 0.00059142408849465 0.007077951231154011 -0.000516143179903454 -0.0045154684092274956
 0.9966526909901682 -0.03635583583721536 0.002798318206899312 0.01523577540495476 -0.0005158145166626687 -0.0045154765891525445 0.0005891904035462 0.00707818421771689
 0.00059142408849465 0.007077951231154011 -0.0005158145166626687 -0.0045154765891525445 0.0027976836008721936 0.0152346775504363 0.9966526626495418 -0.036357001370915666
 -0.000516143179903454 -0.0045154684092274956 0.0005891904035462 0.00707818421771689 0.9966526626495418 -0.036357001370915666 0.0027982050270258076 0.01523460563905266
0.09378907878283 0.0029778788661278597 0.01641262583868446 0.9964161105269684 -0.03902539660877336 0.000657622106294604 0.007589153859786504 -0.0005728103884190235 -0.004844814886153595
 0.9964161105269684 -0.03902539660877336 0.00297867109275894 0.01641254690892643 -0.0005724340692970597 -0.004844826350306584 0.0006550570483781716 0.007589424727148633
 0.000657622106294604 0.007589153859786504 -0.0005724340692970597 -0.004844826350306584 0.0029779431769263167 0.016411375546603265 0.9964160783227344 -0.03902664501135338
 -0.0005728103884190235 -0.004844814886153595 0.0006550570483781716 0.007589424727148633 0.9964160783227344 -0.03902664501135338 0.0029785417336789157 0.016411293284007256
0.100041684035 0.0031654671957508642 0.01760038643568528 0.9961699462920635 -0.04170487141701318 0.0007275658472516132 0.00810096578284389 -0.0006326744173184168 -0.005174871567442447
 0.9961699462920635 -0.04170487141701318 0.003166367958206837 0.017600297033216347 -0.0006322473282676741 -0.00517488680778923 0.0007246463068651716 0.008101278359112724
 0.0007275658472516132 0.00810096578284389 -0.0006322473282676741 -0.00517488680778923 0.0031655403621899465 0.017599052924497195 0.9961699099831003 -0.041706202638403356
 -0.0006326744173184168 -0.005174871567442447 0.0007246463068651716 0.008101278359112724 0.9961699099831003 -0.041706202638403356 0.003166221372326726 0.017598959484075256
0.1059090909091 0.0033482885687612547 0.018724876260291606 0.9959301168964096 -0.044228262038423866 0.0007966407736889476 0.008581770746599871 -0.0006917919239520819 -0.005485208362663259
 0.9959301168964096 -0.044228262038423866 0.003349297455566919 0.018724776294290237 -0.0006913143778602194 -0.005485227616243559 0.0007933675387112294 0.008582126117758729
 0.0007966407736889476 0.008581770746599871 -0.0006913143778602194 -0.005485227616243559 0.0033483705299660656 0.0187234646339038 0.9959300765169339 -0.04422967092906109
 -0.0006917919239520819 -0.005485208362663259 0.0007933675387112294 0.008582126117758729 0.9959300765169339 -0.04422967092906109 0.0033491337560354836 0.018723359929946514
0.1062942892872 0.003360523532859233 0.018799033112838554 0.9959140702644149 -0.044394227623198834 0.0008012928589442403 0.008613352870640648 -0.0006957734217917736 -0.005505602166205845
 0.9959140702644149 -0.044394227623198834 0.003361539730414983 0.018798932427816648 -0.0006952924682331928 -0.005505621699676974 0.0007979956900836903 0.008613711179151613
 0.0008012928589442403 0.008613352870640648 -0.0006952924682331928 -0.005505621699676974 0.0033606060877188126 0.018797616357227837 0.9959140296103646 -0.04439564161125184
 -0.0006957734217917736 -0.005505602166205845 0.0007979956900836903 0.008613711179151613 0.9959140296103646 -0.04439564161125184 0.0033613748753488666 0.018797510887058482
0.11254689453939999 0.003563178851766143 0.02000847455659923 0.9956483541463429 -0.04709342742493626 0.0008788404220295981 0.009126279978818003 -0.000762145258685151 -0.005836969822991924
 0.9956483541463429 -0.04709342742493626 0.003564317373305208 0.020008361750452657 -0.0007616073654652781 -0.005836994191520068 0.0008751424434506073 0.00912668824014532
 0.0008788404220295981 0.009126279978818003 -0.0007616073654652781 -0.005836994191520068 0.0035632713211929154 0.020006974524099497 0.9956483089078507 -0.04709492412720349
 -0.000762145258685151 -0.005836969822991924 0.0008751424434506073 0.00912668824014532 0.9956483089078507 -0.04709492412720349 0.0035641332117935043 0.020006856146752496
0.11879949979160001 0.0037735641541211075 0.02122862084025913 0.9953726694026286 -0.04980242844739724 0.0009602455323403801 0.009639710982620293 -0.0008318274728816994 -0.0061689370655715866
 0.9953726694026286 -0.04980242844739724 0.0037748318785158384 0.021228495045520296 -0.0008312295842990013 -0.006168966836123754 0.0009561235291173672 0.009640173616552464
 0.0009602455323403801 0.009639710982620293 -0.0008312295842990013 -0.006168966836123754 0.0037736670576390395 0.02122703749557585 0.9953726193412602 -0.04980400780690106
 -0.0008318274728816994 -0.0061689370655715866 0.0009561235291173672 0.009640173616552464 0.9953726193412602 -0.04980400780690106 0.0037746273780612646 0.021226905307966164
0.1250521050438 0.003991810456568059 0.022459382936096634 0.9950868872964544 -0.052521184201884466 0.0010455448834193607 0.0101536088043861 -0.0009048572830082326 -0.006501465776056498
 0.9950868872964544 -0.052521184201884466 0.003993214252742922 0.02245924325619909 -0.0009041963628220317 -0.006501501540669261 0.0010409756085073725 0.010154130431896832
 0.0010455448834193607 0.0101536088043861 -0.0009041963628220317 -0.006501501540669261 0.003991924307098933 0.02245771623586627 0.9950868321746719 -0.05252284616234971
 -0.0009048572830082326 -0.006501465776056498 0.0010409756085073725 0.010154130431896832 0.9950868321746719 -0.05252284616234971 0.003992988385665556 0.022457569309059462
0.131304710296 0.004218048775524789 0.023700672319860953 0.9947908789242464 -0.055249644452392103 0.0011347748489990812 0.010667935434065542 -0.0009812715666736192 -0.006834517165566223
 0.9947908789242464 -0.055249644452392103 0.0042195955027749055 0.023700517828971538 -0.0009805445981544015 -0.006834559541371896 0.001129735024842434 0.01066852087928791
 0.0011347748489990812 0.010667935434065542 -0.0009805445981544015 -0.006834559541371896 0.004218174079362062 0.023698922215865604 0.9947908185055766 -0.055251388955145475
 -0.0009812715666736192 -0.006834517165566223 0.001129735024842434 0.01066852087928791 0.9947908185055766 -0.055251388955145475 0.004219347245922991 0.023698759594890203
0.1375573155481 0.0043902797673804105 0.024789619226364183 0.9945466555508863 -0.0578249466522889 0.001213897363157215 0.011165475774892797 -0.0010470386941370494 -0.007150876321988895
 0.9945466555508863 -0.0578249466522889 0.004391977079544621 0.024789452982386134 -0.0010462414630790305 -0.007150925132566616 0.0012083727857097003 0.011166122669274147
 0.001213897363157215 0.011165475774892797 -0.0010462414630790305 -0.007150925132566616 0.004390417713786997 0.02478778527167592 0.994546589597321 -0.0578267736372021
 -0.0010470386941370494 -0.007150876321988895 0.0012083727857097003 0.011166122669274147 0.994546589597321 -0.0578267736372021 0.004391704726803966 0.024787610766332558
0.1438099208003 0.004568157653766416 0.02587435467438268 0.9942945569527802 -0.06039527259957764 0.001296187767156971 0.01166191099080485 -0.0011154296735596321 -0.007466224010689044
 0.9942945569527802 -0.06039527259957764 0.004570012529900235 0.025874176060888224 -0.0011145589752230125 -0.007466279836335647 0.0012901567653257643 0.011662623615510423
 0.001296187767156971 0.01166191099080485 -0.0011145589752230125 -0.007466279836335647 0.0045683088630596 0.025872436770920947 0.9942944852293496 -0.06039718200395045
 -0.0011154296735596321 -0.007466224010689044 0.0012901567653257643 0.011662623615510423 0.9942944852293496 -0.06039718200395045 0.004569714940406187 0.025872249818080714
0.1500625260525 0.004751636080576128 0.026954833531779694 0.9940346313974358 -0.06296060483626491 0.0013816265879360537 0.012157220726078211 -0.001186425573010188 -0.00778053980292233
 0.9940346313974358 -0.06296060483626491 0.00475365549845676 0.02695464190419771 -0.001185478206773447 -0.0077806032466105225 0.0013750675682186618 0.012158003515264245
 0.0013816265879360537 0.012157220726078211 -0.001185478206773447 -0.0077806032466105225 0.004751801175014022 0.02695283157471894 0.9940345536701222 -0.06296259659616542
 -0.001186425573010188 -0.00778053980292233 0.0013750675682186618 0.012158003515264245 0.9940345536701222 -0.06296259659616542 0.004753331527402337 0.026952631587331598
0.15631513130469998 0.004940668538068813 0.028031012371228115 0.9937669272034073 -0.0655209251760422 0.001470194228549335 0.012651384841417822 -0.0012600073250315794 -0.00809380363567447
