! Created with skrf 1.8.0 (http://scikit-rf.org).
# GHz S RI R 50.0 
!freq ReS11 ImS11 ReS12 ImS12 ReS13 ImS13
! ReS14 ImS14
! ReS21 ImS21 ReS22 ImS22 ReS23 ImS23
! ReS24 ImS24
! ReS31 ImS31 ReS32 ImS32 ReS33 ImS33
! ReS34 ImS34
! ReS41 ImS41 ReS42 ImS42 ReS43 ImS43
! ReS44 ImS44
!
0.0 0.001256967303945 0.0 0.9987430326627 0.0 4.79263510529e-05 0.0 -4.792635125262e-05 5.869285265633283e-21
 0.9987430326627 0.0 0.001256967303943 0.0 -4.792635125218e-05 5.869285265579398e-21 4.792635105217e-05 0.0
 4.79263510529e-05 0.0 -4.792635125218e-05 5.869285265579398e-21 0.001256967320629 0.0 0.9987430326794 0.0
 -4.792635125262e-05 5.869285265633283e-21 4.792635105217e-05 0.0 0.9987430326794 0.0 0.00125696732065 0.0
0.005 0.0013516915806288268 0.0010302245053510244 0.9986233146598789 -0.0026337599198234156 6.650448678068564e-05 0.0005197055445779155 -6.473745865377307e-05 -0.00032778322366053584
 0.9986233146598789 -0.0026337599198234156 0.0013516875136292 0.00103022689167439 -6.473919306812242e-05 -0.00032778458107742166 6.653191036577601e-05 0.0005196952632389951
 6.650448678068564e-05 0.0005197055445779155 -6.473919306812242e-05 -0.00032778458107742166 0.0013516902307244387 0.001030158075710311 0.9986233143285179 -0.0026338269778151784
 -6.473745865377307e-05 -0.00032778322366053584 6.653191036577601e-05 0.0005196952632389951 0.9986233143285179 -0.0026338269778151784 0.0013516882037195922 0.0010301592079328826
0.006252605252188 0.0013763342976649664 0.0012918550122111038 0.9985920083124618 -0.0032928747895520846 7.169006292984021e-05 0.0006499008692203005 -6.938983681002216e-05 -0.000410162434784396
 0.9985920083124618 -0.0032928747895520846 0.0013763279396414902 0.0012918579974044737 -6.939253554365608e-05 -0.0004101641096181405 7.173291212260452e-05 0.0006498875070319544
 7.169006292984021e-05 0.0006499008692203005 -6.939253554365608e-05 -0.0004101641096181405 0.0013763322620587689 0.00129177198022631 0.9985920078692514 -0.0032929586119736605
 -6.938983681002216e-05 -0.000410162434784396 7.173291212260452e-05 0.0006498875070319544 0.9985920078692514 -0.0032929586119736605 0.00137632909365995 0.0012917733904017547
0.01250521050438 0.0015048908696729932 0.0026110178865138968 0.9984277782479427 -0.006586726144544314 0.00010078387301410294 0.0013002579053724935 -9.528211747506666e-05 -0.0008224310115796316
 0.9984277782479427 -0.006586726144544314 0.0015048654768987353 0.0026110238795013976 -9.529275141374444e-05 -0.0008224341243353171 0.00010095481302808174 0.001300225755749838
 0.00010078387301410294 0.0013002579053724935 -9.529275141374444e-05 -0.0008224341243353171 0.0015048832862101975 0.0026108521322678636 0.9984277770268628 -0.006586893545912348
 -9.528211747506666e-05 -0.0008224310115796316 0.00010095481302808174 0.001300225755749838 0.9984277770268628 -0.006586893545912348 0.0015048706400414003 0.0026108548861970256
0.01875781575657 0.0016428754084808663 0.00394925367101897 0.9982501685961229 -0.009889611338888502 0.00013526917656158475 0.00195152370665931 -0.00012567373015325348 -0.0012362490394484255
 0.9982501685961229 -0.009889611338888502 0.0016428183416171236 0.003949262712726549 -0.00012569744279011498 -0.0012362533160850827 0.00013565333458716362 0.001951466462628167
 0.00013526917656158475 0.00195152370665931 -0.00012569744279011498 -0.0012362533160850827 0.0016428587765104693 0.003949005394293796 0.9982501662676204 -0.009889862231393513
 -0.00012567373015325348 -0.0012362490394484255 0.00013565333458716362 0.001951466462628167 0.9982501662676204 -0.009889862231393513 0.0016428303721918842 0.0039490093961980135
0.02501042100875 0.0017905214440295523 0.005304735604960602 0.9980589998527309 -0.013203173630910245 0.00017520800341989807 0.002603750750477999 -0.00016063360291755196 -0.0016514568078284967
 0.9980589998527309 -0.013203173630910245 0.0017904200832891198 0.005304747747516448 -0.00016067547652741195 -0.001651461931847856 0.0001758906419753674 0.002603661253745078
 0.00017520800341989807 0.002603750750477999 -0.00016067547652741195 -0.001651461931847856 0.0017904922673637105 0.005304405010669726 0.9980589960893617 -0.01320350796614626
 -0.00016063360291755196 -0.0016514568078284967 0.0001758906419753674 0.002603661253745078 0.9980589960893617 -0.01320350796614626 0.0017904418441396024 0.00530441013095049
0.03126302626094 0.0019480525801087725 0.00667654514637005 0.9978540819414348 -0.016528142202352547 0.00022066297048105616 0.0032569334146812247 -0.00020022912727504246 -0.0020679495803231254
 0.9978540819414348 -0.016528142202352547 0.001947894317776142 0.006676560451448128 -0.00020029419365458413 -0.0020679551920555184 0.00022172956814639055 0.0032568036490796576
 0.00022066297048105616 0.0032569334146812247 -0.00020029419365458413 -0.0020679551920555184 0.0019480073624951694 0.006676132451013001 0.9978540764139492 -0.016528559964966587
 -0.00020022912727504246 -0.0020679495803231254 0.00022172956814639055 0.0032568036490796576 0.9978540764139492 -0.016528559964966587 0.0019479286744925415 0.006676138524681318
0.037515631513130004 0.002115687778632886 0.008064099688241186 0.9976352196017236 -0.019864904393535724 0.00027169674565752047 0.00391104349475611 -0.00024452664843639454 -0.0024856420697078113
 0.9976352196017236 -0.019864904393535724 0.002115460014188566 0.008064118226212702 -0.0002446198944695691 -0.002485647766099512 0.0002732330362368143 0.003910864575965271
 0.00027169674565752047 0.00391104349475611 -0.0002446198944695691 -0.002485647766099512 0.0021156230235647097 0.008063605151172281 0.9976352119791361 -0.019865405570360508
 -0.00024452664843639454 -0.0024856420697078113 0.0002732330362368143 0.003910864575965271 0.9976352119791361 -0.019865405570360508 0.0021155098361609315 0.008063611976499362
0.043768236765320004 0.0022936434036716874 0.009466978444604077 0.9974022145360021 -0.023213679762975722 0.0003283717991648674 0.004566041011405334 -0.00029359165410439023 -0.0029044576197331386
 0.9974022145360021 -0.023213679762975722 0.0022933335400967766 0.009467000293927308 -0.0002937180251125785 -0.0029044629542556836 0.0003304637930809223 0.00456580317546254
 0.0003283717991648674 0.004566041011405334 -0.0002937180251125785 -0.0029044629542556836 0.002293555616075134 0.009466402349479909 0.9974022044873526 -0.023214264362040344
 -0.00029359165410439023 -0.0029044576197331386 0.0003304637930809223 0.00456580317546254 0.9974022044873526 -0.023214264362040344 0.0022934017029740514 0.009466409686824252
0.050020842017509996 0.0024821341848905976 0.010884850461043009 0.9971548664780593 -0.026574592020586096 0.00039075026094316674 0.0052218786640188 -0.00034748885126269154 -0.0033243237407152887
 0.9971548664780593 -0.026574592020586096 0.0024817296254112426 0.010884875707913558 -0.00034765325318696566 -0.0033243282233340783 0.00039348425744332126 0.005221571255358127
 0.00039075026094316674 0.0052218786640188 -0.00034765325318696566 -0.0033243282233340783 0.0024820198689739707 0.010884193130714655 0.9971548536697676 -0.026575260056716715
 -0.00034748885126269154 -0.0033243237407152887 0.00039348425744332126 0.005221571255358127 0.9971548536697676 -0.026575260056716715 0.002481819009561549 0.010884200701466722
0.055454545454549996 0.002654660134762149 0.012128984896808465 0.9969281086905121 -0.029505233398917377 0.0004496388247071888 0.005792463129310943 -0.0003983011684668639 -0.0036899985216926924
 0.9969281086905121 -0.029505233398917377 0.0026541630494743033 0.012129013171928032 -0.00039850257521755085 -0.0036900018322026987 0.0004530010556319061 0.00579208590452068
 0.0004496388247071888 0.005792463129310943 -0.00039850257521755085 -0.0036900018322026987 0.0026545199266720123 0.01212825726042761 0.9969280932124559 -0.029505973964836518
 -0.0003983011684668639 -0.0036899985216926924 0.0004530010556319061 0.00579208590452068 0.9969280932124559 -0.029505973964836518 0.0026542732197456305 0.012128264776806428
0.056273447269699996 0.002681373720461033 0.012317439303265277 0.9968929738016316 -0.02994770428270982 0.00045889382312217734 0.005878504015167074 -0.00040628219486226407 -0.0037451699147659874
 0.9968929738016316 -0.02994770428270982 0.002680861865497974 0.012317468041199646 -0.0004064894958085519 -0.0037451730119157337 0.00046235641666801485 0.005878115474330315
 0.00045889382312217734 0.005878504015167074 -0.0004064894958085519 -0.0037451730119157337 0.0026812293812420378 0.01231670109354713 0.9968929578990695 -0.029948455784190253
 -0.00040628219486226407 -0.0037451699147659874 0.00046235641666801485 0.005878115474330315 0.9968929578990695 -0.029948455784190253 0.0026809753575515846 0.012316708579219893
0.06252605252188 0.002891574761299169 0.01376450362091001 0.9966163339135069 -0.03333303845206901 0.000532863664358976 0.006535860687939495 -0.00047003489227983404 -0.004166926389165659
 0.9966163339135069 -0.03333303845206901 0.0028909430056541763 0.013764535950589015 -0.0004702899235774428 -0.0041669275237639514 0.0005371417475432223 0.006535378539157872
 0.000532863664358976 0.006535860687939495 -0.0004702899235774428 -0.0041669275237639514 0.0028913969048948345 0.01376368492960182 0.9966163145803737 -0.03333387345211891
 -0.00047003489227983404 -0.004166926389165659 0.0005371417475432223 0.006535378539157872 0.9966163145803737 -0.03333387345211891 0.0028910834990858144 0.013763691970793792
0.06877865777407 0.003112949373157161 0.015225825582396482 0.9963247435255986 -0.0367305867278804 0.0006127203871296279 0.007193889078072011 -0.0005388093932177194 -0.0045895234562525365
 0.9963247435255986 -0.0367305867278804 0.0031121851032853824 0.015225861611478078 -0.0005391169502164523 -0.004589522007704422 0.0006179011508778691 0.007193299916736957
 0.0006127203871296279 0.007193889078072011 -0.0005391169502164523 -0.004589522007704422 0.0031127345055637604 0.015224926842337321 0.9963247204225548 -0.03673150527213603
 -0.0005388093932177194 -0.0045895234562525365 0.0006179011508778691 0.007193299916736957 0.9963247204225548 -0.03673150527213603 0.0031123554971491316 0.015224933037982504
0.07503126302626001 0.003345709027209936 0.01670120352304179 0.9960179988581201 -0.04014031890383264 0.0006985239621568835 0.007852526803456147 -0.0006126673708936889 -0.005012890997372239
 0.9960179988581201 -0.04014031890383264 0.0033447996187086146 0.016701243366067303 -0.0006130322135183918 -0.005012886301583483 0.0007046948942195546 0.00785181628352494
 0.0006985239621568835 0.007852526803456147 -0.0006130322135183918 -0.005012886301583483 0.0033454536560483376 0.016700225204034736 0.9960179716440573 -0.04014132104887247
 -0.0006126673708936889 -0.005012890997372239 0.0007046948942195546 0.00785181628352494 0.9960179716440573 -0.04014132104887247 0.0033450028194241836 0.016700230110504678
0.08128386827845 0.003590064649108402 0.018190447059979797 0.9956958958029396 -0.04356218720078375 0.0007903336772344886 0.00851170900277895 -0.0006916696976432977 -0.005436958179233037
 0.9956958958029396 -0.04356218720078375 0.0035889974639528336 0.018190490838317547 -0.0006920965508179449 -0.005436949528636292 0.0007975825590818028 0.008510861824159348
 0.0007903336772344886 0.00851170900277895 -0.0006920965508179449 -0.005436949528636292 0.003589765283187257 0.018189389673245498 0.9956958641335841 -0.043563273010175055
 -0.0006916696976432977 -0.005436958179233037 0.0007975825590818028 0.008510861824159348 0.9956958641335841 -0.043563273010175055 0.0035892363846752743 0.018189392803617158
0.08753647353064001 0.0038462266357692267 0.019693373709171118 0.995358230056871 -0.046996129599020844 0.000888208088873564 0.00917136854133781 -0.0007758764163774243 -0.005861653244772869
 0.995358230056871 -0.046996129599020844 0.0038449890198866475 0.019693421551072694 -0.0007763699703238976 -0.005861639888346748 0.0008966229916081107 0.009170368437238898
 0.000888208088873564 0.00917136854133781 -0.0007763699703238976 -0.005861639888346748 0.003845879785808751 0.019692237806852145 0.9953581935854284 -0.046997299144245344
 -0.0007758764163774243 -0.005861653244772869 0.0008966229916081107 0.009170368437238898 0.9953581935854284 -0.046997299144245344 0.00384526658106168 0.01969223863023438
0.09378907878283 0.004114404854841834 0.02120980647036862 0.9950047972397243 -0.05044207220420275 0.0009922049757790277 0.009831436158467181 -0.0008653467093071467 -0.0062869033641167
 0.9950047972397243 -0.05044207220420275 0.004112984135235812 0.021209858511043147 -0.0008659116197242716 -0.0062868845074169925 0.0010018742548650677 0.009830265882775586
 0.0009922049757790277 0.009831436158467181 -0.0008659116197242716 -0.0062868845074169925 0.0041140070335219615 0.021208592646924852 0.9950047556158985 -0.05044332556373559
 -0.0008653467093071467 -0.0062869033641167 0.0010018742548650677 0.009830265882775586 0.9950047556158985 -0.05044332556373559 0.004113303264599296 0.021208590587838663
0.100041684035 0.004394808627555766 0.02273957205605601 0.9946353929980623 -0.05389993097145943 0.0011023812934548233 0.010491840575997606 -0.0009601388642252497 -0.0067126345263443694
 0.9946353929980623 -0.05389993097145943 0.004393192109950319 0.022739628437809953 -0.000960779752417032 -0.0067126093315390215 0.001113393582919262 0.010490481890624938
 0.0011023812934548233 0.010491840575997606 -0.000960779752417032 -0.0067126093315390215 0.004394356350049142 0.02273828094264875 0.9946353458679118 -0.0539012682368934
 -0.0009601388642252497 -0.0067126345263443694 0.001113393582919262 0.010490481890624938 0.9946353458679118 -0.0539012682368934 0.004393555742763551 0.02273827538038614
0.1059090909091 0.004669242793943648 0.024187068581478913 0.9942740385348229 -0.05715551965491856 0.0012114401797978442 0.011111801201099215 -0.0010539825289819858 -0.007112508536852303
 0.9942740385348229 -0.05715551965491856 0.004667430974077198 0.02418712917282856 -0.0010546988867012187 -0.007112476593792852 0.001223793595946303 0.011110248231211104
 0.0012114401797978442 0.011111801201099215 -0.0010546988867012187 -0.007112476593792852 0.0046687362482803986 0.0241857055535565 0.9942739859124599 -0.05715693574523465
 -0.0010539825289819858 -0.007112508536852303 0.001223793595946303 0.011110248231211104 0.9942739859124599 -0.05715693574523465 0.004667839045093596 0.024185696098695267
0.1062942892872 0.00468764670296798 0.024282499544699337 0.9942498131013667 -0.05736961300702745 0.0012187931295683859 0.011152508579975405 -0.0010603102392999777 -0.007138771459822996
 0.9942498131013667 -0.05736961300702745 0.004685821669093665 0.024282560417172434 -0.0010610316922390112 -0.007138739045732951 0.00123123733527378 0.011150942242288618
 0.0012187931295683859 0.011152508579975405 -0.0010610316922390112 -0.007138739045732951 0.004687136487303006 0.02428113181776882 0.9942497601072812 -0.0573710342748383
 -0.0010603102392999777 -0.007138771459822996 0.00123123733527378 0.011150942242288618 0.9942497601072812 -0.0573710342748383 0.004686232748257341 0.024281122085911207
0.11254689453939999 0.004993127222420698 0.02583841936743977 0.9938478535315338 -0.06085101753857112 0.001341495659694773 0.011813365084926482 -0.0011659172263526177 -0.007565237571973546
 0.9938478535315338 -0.06085101753857112 0.004991080927409023 0.02583848488785976 -0.001166723796707009 -0.007565197014108389 0.0013554609521956827 0.011811570835169625
 0.001341495659694773 0.011813365084926482 -0.001166723796707009 -0.007565197014108389 0.004992555590113003 0.02583697574472808 0.9938477943118731 -0.06085252291462449
 -0.0011659172263526177 -0.007565237571973546 0.0013554609521956827 0.011811570835169625 0.9938477943118731 -0.06085252291462449 0.004991542403719611 0.025836961130703797
0.11879949979160001 0.0053114576794810655 0.02740716250489634 0.9934293105690235 -0.06434403667765572 0.0014705431034768058 0.012474333185034955 -0.0012770152130252737 -0.007991954904087472
 0.9934293105690235 -0.06434403667765572 0.005309177349087897 0.027407232838444394 -0.0012779114191065048 -0.007991905234708316 0.0014861189101835622 0.01247228973377572
 0.0014705431034768058 0.012474333185034955 -0.0012779114191065048 -0.007991905234708316 0.005310821155613868 0.027405643746908567 0.9934292447578412 -0.06434562627610733
 -0.0012770152130252737 -0.007991954904087472 0.0014861189101835622 0.01247228973377572 0.9934292447578412 -0.06434562627610733 0.005309692181097984 0.027405623491609233
0.1250521050438 0.005642844873247012 0.02898855985037652 0.992993980874961 -0.0678485560180474 0.001605988680749412 0.01313533419527349 -0.0013936585440188808 -0.008418844098241032
 0.992993980874961 -0.0678485560180474 0.005640317701133835 0.02898863517060728 -0.0013946488697042026 -0.008418784306402109 0.001623264677696035 0.01313301921095159
 0.001605988680749412 0.01313533419527349 -0.0013946488697042026 -0.008418784306402109 0.005642139987262199 0.028986966761147318 0.9929939081014931 -0.06785022996100613
 -0.0013936585440188808 -0.008418844098241032 0.001623264677696035 0.01313301921095159 0.9929939081014931 -0.06785022996100613 0.005640888855819989 0.028986940058570013
0.131304710296 0.005987494858636675 0.03058244170684645 0.9925416615713071 -0.07136445510265232 0.0017478845678179742 0.013796287688158812 -0.0015159004814623135 -0.008845824370677385
 0.9925416615713071 -0.07136445510265232 0.0059847080038167725 0.03058252219616096 -0.0015169893761344015 -0.008845753402294645 0.0017669506709331458 0.013793677784670038
 0.0017478845678179742 0.013796287688158812 -0.0015169893761344015 -0.008845753402294645 0.005986718144769443 0.03058077513321787 0.9925415814598664 -0.07136621352123947
 -0.0015159004814623135 -0.008845824370677385 0.0017669506709331458 0.013793677784670038 0.9925415814598664 -0.07136621352123947 0.005985338456236862 0.03058074113029893
0.1375573155481 0.006260076820290708 0.03198062865253033 0.9921577098842699 -0.07468353566434502 0.00187641498883076 0.014435715058599238 -0.0016239020282519572 -0.009251440980983185
 0.9921577098842699 -0.07468353566434502 0.006257016913656513 0.03198071497002374 -0.0016250960991601503 -0.00925135892198082 0.0018973108275070617 0.014432816913083435
 0.00187641498883076 0.014435715058599238 -0.0016250960991601503 -0.00925135892198082 0.006259225369425387 0.03197888930110023 0.9921576221034066 -0.07468537862264973
 -0.0016239020282519572 -0.009251440980983185 0.0018973108275070617 0.014432816913083435 0.9921576221034066 -0.07468537862264973 0.006257709002839306 0.03197884779609876
0.1438099208003 0.006542020182789089 0.03337252416760254 0.9917606806486509 -0.07799528717674103 0.002010129915935467 0.015073202577199204 -0.0017362341798761965 -0.00965526111901393
 0.9917606806486509 -0.07799528717674103 0.006538674257774965 0.03337261663130057 -0.0017375382156797634 -0.009655166948921318 0.002032936640934765 0.01506999514527754
 0.002010129915935467 0.015073202577199204 -0.0017375382156797634 -0.009655166948921318 0.0065410906362689284 0.03337071290346565 0.991760584824864 -0.07799721480152041
 -0.0017362341798761965 -0.00965526111901393 0.002032936640934765 0.01506999514527754 0.991760584824864 -0.07799721480152041 0.006539430855611674 0.03337066316607789
0.1500625260525 0.006833239188753499 0.034758043808078946 0.9913506626042227 -0.0812996598676219 0.0021489908858426388 0.015708706866682944 -0.001852859240696041 -0.01005724225218508
 0.9913506626042227 -0.0812996598676219 0.006829594243526144 0.03475814275952627 -0.0018542780230569214 -0.010057134909892233 0.0021737892904299173 0.015705168341183136
 0.0021489908858426388 0.015708706866682944 -0.0018542780230569214 -0.010057134909892233 0.006832228198863791 0.03475616153244249 0.9913505583598344 -0.08130167228925314
 -0.001852859240696041 -0.01005724225218508 0.0021737892904299173 0.015705168341183136 0.9913505583598344 -0.08130167228925314 0.006830418222307005 0.034756102813876186
0.15631513130469998 0.007133647629479519 0.03613710585903509 0.9909277447673798 -0.08459660353654895 0.0022929590747700593 0.01634218515873576 -0.0019737391371132456 -0.01045734265468978
