! Created with skrf 1.8.0 (http://scikit-rf.org).
# GHz S RI R 50.0 
!freq ReS11 ImS11 ReS12 ImS12 ReS13 ImS13
! ReS14 ImS14
! ReS21 ImS21 ReS22 ImS22 ReS23 ImS23
! ReS24 ImS24
! ReS31 ImS31 ReS32 ImS32 ReS33 ImS33
! ReS34 ImS34
! ReS41 ImS41 ReS42 ImS42 ReS43 ImS43
! ReS44 ImS44
!
0.0 0.001528048995323 0.0 0.9984719510045 0.0 5.911009124402e-05 0.0 -5.911009248752e-05 7.238898556214537e-21
 0.9984719510045 0.0 0.00152804899532 0.0 -5.911009248757e-05 7.23889855622066e-21 5.911009124414e-05 0.0
 5.911009124402e-05 0.0 -5.911009248757e-05 7.23889855622066e-21 0.001528048991057 0.0 0.9984719510002 0.0
 -5.911009248752e-05 7.238898556214537e-21 5.911009124414e-05 0.0 0.9984719510002 0.0 0.001528048991054 0.0
0.005 0.001644059034199696 0.0012464805143003565 0.9983251870900604 -0.003201084996465285 8.331656752853625e-05 0.0006732832059187807 -8.08172711592127e-05 -0.00041877017473409005
 0.9983251870900604 -0.003201084996465285 0.0016440538663669727 0.0012464835036256213 -8.081694152704114e-05 -0.00041876986050745044 8.33387394236581e-05 0.0006732745504866132
 8.331656752853625e-05 0.0006732832059187807 -8.081694152704114e-05 -0.00041876986050745044 0.0016440591592502944 0.001246413117289235 0.9983251867381706 -0.0032011520757745725
 -8.08172711592127e-05 -0.00041877017473409005 8.33387394236581e-05 0.0006732745504866132 0.9983251867381706 -0.0032011520757745725 0.0016440530485392496 0.001246416753619791
0.006252605252188 0.001674474219811558 0.0015630224092051692 0.9982864688646542 -0.004002142647502304 9.021788134336029e-05 0.0008419212208525692 -8.694299424362151e-05 -0.000524009840304301
 0.9982864688646542 -0.004002142647502304 0.0016744661423878442 0.0015630262637100663 -8.694248178021596e-05 -0.0005240094515573063 9.025252039982325e-05 0.0008419100168136731
 9.021788134336029e-05 0.0008419212208525692 -8.694248178021596e-05 -0.0005240094515573063 0.0016744744766422112 0.0015629381931733547 0.9982864683754206 -0.0040022264658801125
 -8.694299424362151e-05 -0.000524009840304301 9.025252039982325e-05 0.0008419100168136731 0.9982864683754206 -0.0040022264658801125 0.0016744649245790317 0.0015629428684274744
0.01250521050438 0.0018345236885290623 0.003158937061515238 0.9980813952943445 -0.008005120159204465 0.0001297198771659714 0.0016841447287449 -0.0001216833249124337 -0.0010505881457457498
 0.9980813952943445 -0.008005120159204465 0.0018344914470309998 0.0031589459672204372 -0.00012168131124645836 -0.0010505874118231407 0.00012985793366098854 0.001684118146595074
 0.0001297198771659714 0.0016841447287449 -0.00012168131124645836 -0.0010505874118231407 0.001834525298822151 0.0031587688650315275 0.9980813939129807 -0.008005287586054724
 -0.0001216833249124337 -0.0010505881457457498 0.00012985793366098854 0.001684118146595074 0.9980813939129807 -0.008005287586054724 0.0018344871540055883 0.0031587795428235314
0.01875781575657 0.002008545070149208 0.004777679848436258 0.9978564766374556 -0.012018680755127832 0.00017770757493443913 0.0025272606889600144 -0.00016343818157760052 -0.0015789476971573488
 0.9978564766374556 -0.012018680755127832 0.002008472643947505 0.0047776950872993685 -0.00016343369919423682 -0.001578946667796139 0.00017801752765587376 0.0025272136980860928
 0.00017770757493443913 0.0025272606889600144 -0.00016343369919423682 -0.001578946667796139 0.0020085491326559293 0.004777427825209112 0.9978564739507967 -0.012018931737078756
 -0.00016343818157760052 -0.0015789476971573488 0.00017801752765587376 0.0025272136980860928 0.9978564739507967 -0.012018931737078756 0.002008463412162721 0.004777445950759076
0.02501042100875 0.002196875867455529 0.0064169785726697105 0.9976114492916256 -0.01604477032802011 0.000234273574868373 0.003371311425006454 -0.00021231110748822526 -0.002108843278634595
 0.9976114492916256 -0.01604477032802011 0.0021967472845987397 0.0064170015104622275 -0.00021230320307577712 -0.0021088420109178214 0.00023482382778395583 0.0033712381798768113
 0.000234273574868373 0.003371311425006454 -0.00021230320307577712 -0.0021088420109178214 0.002196883496647363 0.006416642878121277 0.9976114448851475 -0.016045104885362645
 -0.00021231110748822526 -0.002108843278634595 0.00023482382778395583 0.0033712381798768113 0.9976114448851475 -0.016045104885362645 0.0021967312548591975 0.006416670012113829
0.03126302626094 0.0023998396094042198 0.008075663863020834 0.9973460361537251 -0.02008422149683501 0.000299510908766871 0.004216259049728344 -0.0002684026808848416 -0.002640104086332622
 0.9973460361537251 -0.02008422149683501 0.002399638939770102 0.008075695949271697 -0.00026839041291096223 -0.002640102644745285 0.00030036986210083184 0.0042161528881552975
 0.000299510908766871 0.004216259049728344 -0.00026839041291096223 -0.002640102644745285 0.002399851934417689 0.008075244681663853 0.9973460296091591 -0.020084639696182537
 -0.0002684026808848416 -0.002640104086332622 0.00030036986210083184 0.0042161528881552975 0.9973460296091591 -0.020084639696182537 0.002399614255572687 0.008075282500722512
0.037515631513130004 0.002617752814316836 0.009752973231491642 0.9970599538069267 -0.024137449488703142 0.00037351214414557216 0.0050620340555391375 -0.00033181127314134006 -0.003172585144626642
 0.9970599538069267 -0.024137449488703142 0.0026174641656721833 0.00975301599985424 -0.0003317937105601199 -0.003172583601062221 0.0003747482274560909 0.005061887492398999
 0.00037351214414557216 0.0050620340555391375 -0.0003317937105601199 -0.003172583601062221 0.0026177709799916683 0.00975247078883184 0.9970599447001538 -0.024137951431247702
 -0.00033181127314134006 -0.003172585144626642 0.0003747482274560909 0.005061887492398999 0.9970599447001538 -0.024137951431247702 0.0026174289741513457 0.009752521086272874
0.043768236765320004 0.002850927690158628 0.011448339267686838 0.9967529154428805 -0.02820466387519354 0.00045636896478917907 0.005908550089808269 -0.0004026333185831123 -0.0037061525339692585
 0.9967529154428805 -0.02820466387519354 0.0028505352048122327 0.011448394336216096 -0.00040260954001697727 -0.003706150967681015 0.00045805065362935083 0.0059083548093313825
 0.00045636896478917907 0.005908550089808269 -0.00040260954001697727 -0.003706150967681015 0.0028509528571428735 0.01144775383201548 0.9967529033425251 -0.02820524969491975
 -0.0004026333185831123 -0.0037061525339692585 0.00045805065362935083 0.0059083548093313825 0.9967529033425251 -0.02820524969491975 0.002850487657023593 0.011447818518632823
0.050020842017509996 0.0030996733795455133 0.013161302124842351 0.9964246323334682 -0.03228595601509138 0.0005481719159230599 0.006755710061848659 -0.00048096341393055454 -0.004240677288298792
 0.9964246323334682 -0.03228595601509138 0.003099161232312979 0.013161371196222842 -0.00048093250717388465 -0.004240675785853355 0.0005503677400065582 0.0067554569092675544
 0.0005481719159230599 0.006755710061848659 -0.00048093250717388465 -0.004240675785853355 0.003099706726978742 0.013160633998256639 0.9964246168007967 -0.03228662588778493
 -0.00048096341393055454 -0.004240677288298792 0.0005503677400065582 0.0067554569092675544 0.9964246168007967 -0.03228662588778493 0.0030990994857286102 0.01316071510313529
0.055454545454549996 0.003328724596522516 0.014663901399216762 0.9961218659946276 -0.03584416929094686 0.0006352861469096843 0.007492359443677745 -0.0005552041992968077 -0.004705874344698788
 0.9961218659946276 -0.03584416929094686 0.003328095630868336 0.01466398408837352 -0.0005551663638389231 -0.004705872973680384 0.0006379844690712746 0.0074920479056231355
 0.0006352861469096843 0.007492359443677745 -0.0005551663638389231 -0.004705872973680384 0.0033287660241981343 0.014663161697655793 0.9961218471153191 -0.035844912369080974
 -0.0005552041992968077 -0.004705874344698788 0.0006379844690712746 0.0074920479056231355 0.9961218471153191 -0.035844912369080974 0.0033280200538198697 0.014663258810932975
0.056273447269699996 0.0033642966044427377 0.014891466543191663 0.9960748147039388 -0.03638134196106985 0.0006490102234189999 0.007603409134985986 -0.0005668943402285815 -0.004776032410053533
 0.9960748147039388 -0.03638134196106985 0.003363649000199311 0.01489155140521002 -0.0005668554017414037 -0.004776031065283243 0.0006517887697541357 0.007603088107943751
 0.0006490102234189999 0.007603409134985986 -0.0005668554017414037 -0.004776031065283243 0.0033643393290819067 0.0148907160783846 0.996074795290523 -0.03638209608751214
 -0.0005668943402285815 -0.004776032410053533 0.0006517887697541357 0.007603088107943751 0.996074795290523 -0.03638209608751214 0.003363571218926196 0.014890815749807445
0.06252605252188 0.0036451020062116253 0.01663847824433983 0.9957031723057739 -0.04049078599816614 0.0007589716492005924 0.008451536380573967 -0.0006605170457854986 -0.005312091226812383
 0.9957031723057739 -0.04049078599816614 0.0036443031785124767 0.01663858077014151 -0.0006604691805527457 -0.005312090140747322 0.0007624015616381541 0.008451136620350677
 0.0007589716492005924 0.008451536380573967 -0.0006604691805527457 -0.005312090140747322 0.0036451553255765676 0.016637645830729107 0.9957031485536627 -0.04049162461788895
 -0.0006605170457854986 -0.005312091226812383 0.0007624015616381541 0.008451136620350677 0.9957031485536627 -0.04049162461788895 0.003644207535440971 0.01663776633712912
0.06877865777407 0.0039423923278845705 0.018402009841330138 0.9953094148356922 -0.0446142146700498 0.0008781423669166619 0.009299975760436188 -0.0007619206066594505 -0.005848726423402591
 0.9953094148356922 -0.0446142146700498 0.003941426536805877 0.018402131989944927 -0.0007618629277881867 -0.005848725704234744 0.0008822923434969309 0.009299485543158034
 0.0008781423669166619 0.009299975760436188 -0.0007618629277881867 -0.005848725704234744 0.003942457480032858 0.01840109591541372 0.9953093862755774 -0.044615138050930245
 -0.0007619206066594505 -0.005848726423402591 0.0008822923434969309 0.009299485543158034 0.9953093862755774 -0.044615138050930245 0.003941311215008601 0.0184012396462985
0.07503126302626001 0.004256468495604324 0.020181751917009882 0.9948932522570165 -0.04875152564140124 0.0010066068495941706 0.010148606754775516 -0.0008711921730938801 -0.006385809432880517
 0.9948932522570165 -0.04875152564140124 0.004255320026240297 0.020181895733813977 -0.0008711238017026029 -0.006385809195901264 0.0010115456379240144 0.010148013482615993
 0.0010066068495941706 0.010148606754775516 -0.0008711238017026029 -0.006385809195901264 0.0042565467405875045 0.02018075695514326 0.9948932184070618 -0.04875253408666213
 -0.0008711921730938801 -0.006385809432880517 0.0010115456379240144 0.010148013482615993 0.9948932184070618 -0.04875253408666213 0.004255183220157723 0.02018092642214848
0.08128386827845 0.004587629641895961 0.021977407085950224 0.9944543950668745 -0.052902593581254466 0.001144447763908409 0.01099730478980831 -0.0009884169074741705 -0.006923210032307946
 0.9944543950668745 -0.052902593581254466 0.0045862828030477625 0.021977574703130644 -0.0009883369725374165 -0.006923210399854732 0.001150244155405408 0.0109965949822041
 0.001144447763908409 0.01099730478980831 -0.0009883369725374165 -0.006923210399854732 0.004587722263185233 0.021976331609158108 0.9944543554319344 -0.05290368742441831
 -0.0009884169074741705 -0.006923210032307946 0.001150244155405408 0.0109965949822041 0.9944543554319344 -0.05290368742441831 0.004586122720263095 0.0219765294470966
0.08753647353064001 0.004936173087936405 0.023788685882491473 0.9939925545255068 -0.05706727422519019 0.0012917458700290305 0.011845941530000265 -0.001113677915358603 -0.007460796078580236
 0.9939925545255068 -0.05706727422519019 0.004934612210100998 0.02378887951973263 -0.0011135855535096795 -0.007460797179990085 0.001298468692835074 0.011845100814975026
 0.0012917458700290305 0.011845941530000265 -0.0011135855535096795 -0.007460797179990085 0.004936281393040648 0.023787530455552805 0.9939925085956186 -0.05706845383070457
 -0.001113677915358603 -0.007460796078580236 0.001298468692835074 0.011845100814975026 0.9939925085956186 -0.05706845383070457 0.004934427072857165 0.02378775942355554
0.09378907878283 0.005302394297898243 0.025615303836050783 0.9935074428617899 -0.06124540725561808 0.0014485799237777166 0.012694385100283817 -0.0012470561724393535 -0.007998433319246333
 0.9935074428617899 -0.06124540725561808 0.005300603732084216 0.025615525801109297 -0.0012469505278837761 -0.007998435290805008 0.0014562980350118107 0.012693398205839309
 0.0014485799237777166 0.012694385100283817 -0.0012469505278837761 -0.007998435290805008 0.005302519619924685 0.025614069067846173 0.9935073901112266 -0.061246673018215826
 -0.0012470561724393535 -0.007998433319246333 0.0014562980350118107 0.012693398205839309 0.9935073901112266 -0.061246673018215826 0.005300391779082835 0.025614332050486473
0.100041684035 0.005686586813428319 0.02745697932060438 0.9929987734615299 -0.06543681841345846 0.0016150265811288366 0.013542500252500552 -0.0013886304481561208 -0.00853598526409789
 0.9929987734615299 -0.06543681841345846 0.005684550929653097 0.02745723201000908 -0.001388510672581319 -0.008535988248986692 0.0016238088582255018 0.01354135099806124
 0.0016150265811288366 0.013542500252500552 -0.001388510672581319 -0.008535988248986692 0.005686730512170928 0.027455665858571496 0.9929987133475816 -0.06543817076324347
 -0.0013886304481561208 -0.00853598526409789 0.0016238088582255018 0.01354135099806124 0.9929987133475816 -0.06543817076324347 0.005684310417450706 0.02745596586711098
0.1059090909091 0.0060637151730478745 0.029198641299467955 0.9924997615358201 -0.06938192346309605 0.0017800280317776937 0.01433794435303761 -0.00152900524063914 -0.009040219549767395
 0.9924997615358201 -0.06938192346309605 0.0060614348844939174 0.029198925079811196 -0.0015288714396076378 -0.009040223621886643 0.0017898715687759785 0.014336627208212957
 0.0017800280317776937 0.01433794435303761 -0.0015288714396076378 -0.009040223621886643 0.00606387737774899 0.029197254620715308 0.9924996940023498 -0.06938335748216032
 -0.00152900524063914 -0.009040219549767395 0.0017898715687759785 0.014336627208212957 0.9924996940023498 -0.06938335748216032 0.006061166004526731 0.029197592226816987
0.1062942892872 0.0060890421732111115 0.029313431936470777 0.9924662610441826 -0.06964132108307783 0.0017911603045459754 0.014390148495797802 -0.0015384772263571985 -0.009073313097928628
 0.9924662610441826 -0.06964132108307783 0.006086745358777114 0.029313717836320658 -0.0015383424787832009 -0.009073317246182235 0.001801075635853268 0.014388819783863324
 0.0017911603045459754 0.014390148495797802 -0.0015383424787832009 -0.009073317246182235 0.006089205636150386 0.02931204047398016 0.9924661930060285 -0.06964276047769598
 -0.0015384772263571985 -0.009073313097928628 0.001801075635853268 0.014388819783863324 0.9924661930060285 -0.06964276047769598 0.006086474563815763 0.029312380647644076
0.11254689453939999 0.006510049821570924 0.031184381283466758 0.9919096218322135 -0.07385871749211795 0.001977053269427485 0.015237188207673258 -0.0016966706246684929 -0.009610275617989729
 0.9919096218322135 -0.07385871749211795 0.006507476480028767 0.031184702970170265 -0.001696520071444973 -0.009610281086441406 0.0019881705444223787 0.015235662015529498
 0.001977053269427485 0.015237188207673258 -0.001696520071444973 -0.009610281086441406 0.006510234465261687 0.031182912552853066 0.991909545289291 -0.0738602444231765
 -0.0016966706246684929 -0.009610275617989729 0.0019881705444223787 0.015235662015529498 0.991909545289291 -0.0738602444231765 0.0065071736997540505 0.0311832961601611
0.11879949979160001 0.006949897007088277 0.03306954600246315 0.9913285737125874 -0.07808879964870552 0.002172775272232882 0.016083474724956835 -0.0018632823117517958 -0.010146729196905383
 0.9913285737125874 -0.07808879964870552 0.006947031556301063 0.03306990614372122 -0.0018631151263979212 -0.01014673614914679 0.0021851633710121476 0.016081732096537158
 0.002172775272232882 0.016083474724956835 -0.0018631151263979212 -0.01014673614914679 0.0069501042782796705 0.033068000779919095 0.9913284880638549 -0.07809041463628894
 -0.0018632823117517958 -0.010146729196905383 0.0021851633710121476 0.016081732096537158 0.9913284880638549 -0.07809041463628894 0.006946695111794414 0.033068431220069486
0.1250521050438 0.007408868676011995 0.03496864301729147 0.9907228363963061 -0.08233135008502397 0.002378393638481986 0.016928860426267952 -0.002038381423751238 -0.0106825277595521
 0.9907228363963061 -0.08233135008502397 0.00740569554702813 0.034969044372966114 -0.0020381967869340686 -0.0106825363658843 0.0023921214210114654 0.016926881464214817
 0.002378393638481986 0.016928860426267952 -0.0020381967869340686 -0.0106825363658843 0.007409100052776979 0.03496702211899693 0.9907227410187965 -0.08233305368084007
 -0.002038381423751238 -0.0106825277595521 0.0023921214210114654 0.016926881464214817 0.9907227410187965 -0.08233305368084007 0.007405323783889902 0.03496750292330305
0.131304710296 0.007887247358170585 0.03688138693957205 0.9900921315731329 -0.08658614244406511 0.002593973131677671 0.017773194804646147 -0.0022220344796788035 -0.011217522775475303
 0.9900921315731329 -0.08658614244406511 0.007883750993641123 0.03688183236278231 -0.0022218315791153946 -0.011217533212877445 0.0026091094263446927 0.017770958662469166
 0.002593973131677671 0.017773194804646147 -0.0022218315791153946 -0.011217533212877445 0.007887504351228957 0.03687969122259273 0.9900920258206444 -0.08658793522983918
 -0.0022220344796788035 -0.011217522775475303 0.0026091094263446927 0.017770958662469166 0.9900920258206444 -0.08658793522983918 0.007883342284415444 0.03688022605602279
0.1375573155481 0.008275647891239515 0.03855724879456796 0.989545892108075 -0.09060258016875677 0.002792298539086621 0.018591022340659884 -0.002387018895478082 -0.011726290537105605
 0.989545892108075 -0.09060258016875677 0.00827181045070085 0.03855772908719429 -0.0023867963527873224 -0.011726302807747103 0.0028088856833811066 0.01858853206859407
 0.002792298539086621 0.018591022340659884 -0.0023867963527873224 -0.011726302807747103 0.008275931008230668 0.038555479331202576 0.9895457754922988 -0.09060446252016069
 -0.002387018895478082 -0.011726290537105605 0.0028088856833811066 0.01858853206859407 0.9895457754922988 -0.09060446252016069 0.008271363897961195 0.03855605907682164
0.1438099208003 0.008677708910156597 0.04022425004843508 0.9889804485981023 -0.09460882120366547 0.002998635522990103 0.01940558882669725 -0.0025586098402091842 -0.01223205659612314
 0.9889804485981023 -0.09460882120366547 0.00867351447723159 0.04022476716930633 -0.002558366751614191 -0.012232070877876639 0.003016737506515948 0.01940282522907872
 0.002998635522990103 0.01940558882669725 -0.002558366751614191 -0.012232070877876639 0.00867801952794592 0.04022240778798104 0.9889803204711021 -0.09461079369687485
 -0.0025586098402091842 -0.01223205659612314 0.003016737506515948 0.01940282522907872 0.9889803204711021 -0.09461079369687485 0.00867302862397022 0.04022303515961648
0.1500625260525 0.009093288766676593 0.0418822507190887 0.9883959468274065 -0.09860476562709704 0.0032129131234487763 0.020216812490413027 -0.0027367380129310064 -0.012734742859075531
 0.9883959468274065 -0.09860476562709704 0.009088721415725191 0.041882806723794866 -0.002736473474685493 -0.01273475933719299 0.003232593599760987 0.02021375565827161
 0.0032129131234487763 0.020216812490413027 -0.002736473474685493 -0.01273475933719299 0.009093628282252256 0.04188033664762808 0.9883958065216546 -0.09860682886175325
 -0.0027367380129310064 -0.012734742859075531 0.003232593599760987 0.02021375565827161 0.9883958065216546 -0.09860682886175325 0.009088194839648213 0.041881014483949576
0.15631513130469998 0.009522244802367946 0.04353111504977084 0.9877925333288394 -0.10259031388112808 0.0034350595416683034 0.021024612945314353 -0.0029213332562339676 -0.013234272888062181
 0.9877925333288394 -0.10259031388112808 0.009517288598141908 0.04353171209129609 -0.0029210463646580707 -0.013234291755164582 0.0034563818231615993 0.021021242263037313
