! Created with skrf 1.8.0 (http://scikit-rf.org).
# GHz S RI R 50.0 
!freq ReS11 ImS11 ReS12 ImS12 ReS13 ImS13
! ReS14 ImS14
! ReS21 ImS21 ReS22 ImS22 ReS23 ImS23
! ReS24 ImS24
! ReS31 ImS31 ReS32 ImS32 ReS33 ImS33
! ReS34 ImS34
! ReS41 ImS41 ReS42 ImS42 ReS43 ImS43
! ReS44 ImS44
!
0.0 0.001838491174059 0.0 0.9981615087886 0.0 7.14050608252e-05 0.0 -7.140506150394e-05 8.744598001372001e-21
 0.9981615087886 0.0 0.001838491174081 0.0 -7.14050615041e-05 8.744598001391596e-21 7.140506082847e-05 0.0
 7.14050608252e-05 0.0 -7.14050615041e-05 8.744598001391596e-21 0.00183849118605 0.0 0.9981615088006 0.0
 -7.140506150394e-05 8.744598001372001e-21 7.140506082847e-05 0.0 0.9981615088006 0.0 0.001838491186067 0.0
0.005 0.001979081124063994 0.0015031437279542953 0.9979834861401209 -0.003850044928304786 0.00010057438331548423 0.0007867315036060007 -9.764681654902106e-05 -0.0004936236559079633
 0.9979834861401209 -0.003850044928304786 0.001979070234328419 0.0015031500429288503 -9.764656501535657e-05 -0.0004936233889067559 0.00010063855641190087 0.000786706931246347
 0.00010057438331548423 0.0007867315036060007 -9.764656501535657e-05 -0.0004936233889067559 0.0019790812506983823 0.0015030762974912071 0.9979834857615413 -0.003850112006650841
 -9.764681654902106e-05 -0.0004936236559079633 0.00010063855641190087 0.000786706931246347 0.9979834857615413 -0.003850112006650841 0.001979069354188518 0.0015030833184131792
0.006252605252188 0.0020162582299209403 0.0018848000426240114 0.9979360707814445 -0.004813448895742875 0.00010905618529245994 0.0009837769218684728 -0.00010519365494443143 -0.0006176492769381598
 0.9979360707814445 -0.004813448895742875 0.002016241207985878 0.001884808090852675 -0.00010519326412754092 -0.0006176489462140088 0.000109156447106587 0.0009837450051892304
 0.00010905618529245994 0.0009837769218684728 -0.00010519326412754092 -0.0006176489462140088 0.002016258496519475 0.0018847157733454304 0.9979360702576291 -0.004813532718395176
 -0.00010519365494443143 -0.0006176492769381598 0.000109156447106587 0.0009837450051892304 0.9979360702576291 -0.004813532718395176 0.0020162398997629442 0.0018847247190947145
0.01250521050438 0.0022137388011272403 0.003808623864598206 0.9976823511668793 -0.009627335754127095 0.00015848111667053665 0.0019677781458413827 -0.0001487524000368081 -0.0012380895205196206
 0.9976823511668793 -0.009627335754127095 0.002213670842545367 0.003808641528928019 -0.00014875086707126164 -0.001238088891761859 0.00015888086989189148 0.001967701184159845
 0.00015848111667053665 0.0019677781458413827 -0.00014875086707126164 -0.001238088891761859 0.002213740434943635 0.0038084555126604636 0.9976823496344676 -0.009627503148074484
 -0.0001487524000368081 -0.0012380895205196206 0.00015888086989189148 0.001967701184159845 0.9976823496344676 -0.009627503148074484 0.0022136661704302376 0.0038084751372915154
0.01875781575657 0.002431425999396509 0.005759295535877852 0.9973999907843144 -0.014453300620834825 0.0002198044941306322 0.0029526129573827983 -0.00020222768808857757 -0.0018603793666411227
 0.9973999907843144 -0.014453300620834825 0.0024312733107516847 0.00575932451170571 -0.00020222427944908974 -0.001860378477070034 0.0002207023290123395 0.002952474870970661
 0.0002198044941306322 0.0029526129573827983 -0.00020222427944908974 -0.001860378477070034 0.002431430112173183 0.005759043124002984 0.9973999877621295 -0.014453551495407177
 -0.00020222768808857757 -0.0018603793666411227 0.0002207023290123395 0.002952474870970661 0.9973999877621295 -0.014453551495407177 0.002431263220491795 0.005759075331212082
0.02501042100875 0.0026697944293483313 0.007734004095134776 0.9970886147373821 -0.019293600849972833 0.0002931516552558824 0.003938270834623309 -0.00026575970966268876 -0.002484187563206984
 0.9970886147373821 -0.019293600849972833 0.0026695232941330344 0.0077340461950274105 -0.00026575370376256133 -0.002484186455482082 0.0002947461110846811 0.00393805268253057
 0.0002931516552558824 0.003938270834623309 -0.00026575370376256133 -0.002484186455482082 0.0026698021420547002 0.007733667613935849 0.9970886097444369 -0.019293935143858236
 -0.00026575970966268876 -0.002484187563206984 0.0002947461110846811 0.00393805268253057 0.9970886097444369 -0.019293935143858236 0.0026695057284559756 0.007733714467136259
0.03126302626094 0.002929298834968629 0.009731261790905192 0.9967478315258379 -0.02414915285745555 0.0003786473459491281 0.004924649251856439 -0.00033948363818312285 -0.003109265292632125
 0.9967478315258379 -0.02414915285745555 0.0029288755932138817 0.0097313189431529 -0.00033947432324083805 -0.0031092640148900307 0.0003811370809280867 0.004924329217109712
 0.0003786473459491281 0.004924649251856439 -0.00033947432324083805 -0.0031092640148900307 0.0029293112773980173 0.009730841192323937 0.9967478240806165 -0.024149570545299162
 -0.00033948363818312285 -0.003109265292632125 0.0003811370809280867 0.004924329217109712 0.9967478240806165 -0.024149570545299162 0.0029288484918316084 0.009730904913576829
0.037515631513130004 0.0032103831792051553 0.011750067394400016 0.9963772425740868 -0.029020368758645724 0.00047641451714112743 0.005911608545079295 -0.0004235305742200858 -0.0037353913658775403
 0.9963772425740868 -0.029020368758645724 0.0032097742139633035 0.011750141642443769 -0.00042351724708778664 -0.0037353899717071024 0.0004799983751328192 0.005911161909023885
 0.00047641451714112743 0.005911608545079295 -0.00042351724708778664 -0.0037353899717071024 0.003210401490714605 0.011749562624156527 0.9963772321947335 -0.029020869818575257
 -0.0004235305742200858 -0.0037353913658775403 0.0004799983751328192 0.005911161909023885 0.9963772321947335 -0.029020869818575257 0.00320973551504869 0.011749645594056748
0.043768236765320004 0.003513484139456219 0.013789651585685538 0.9959764461738864 -0.0339074109210857 0.0005865737305902959 0.0068989886031370524 -0.0005180278500092302 -0.004362355587709928
 0.9959764461738864 -0.0339074109210857 0.0035126558655039536 0.01378974508802599 -0.0005180098154544028 -0.004362354136074681 0.0005914507630077291 0.006898387716594578
 0.0005865737305902959 0.0068989886031370524 -0.0005180098154544028 -0.004362354136074681 0.0035135094682825717 0.013789062572256747 0.9959764323777711 -0.033907995345587603
 -0.0005180278500092302 -0.004362355587709928 0.0005914507630077291 0.006898387716594578 0.9959764323777711 -0.033907995345587603 0.0035126035056159606 0.013789167330634984
0.050020842017509996 0.003839032690725004 0.015849371749817365 0.9955450395198993 -0.03881029710822539 0.0007092427785791545 0.007886615785019665 -0.0006230991073571972 -0.004989951900585856
 0.9955450395198993 -0.03881029710822539 0.0038379515441930427 0.015849486780514586 -0.0006230756774627417 -0.004989950455793157 0.0007156122425038866 0.007885830038401678
 0.0007092427785791545 0.007886615785019665 -0.0006230756774627417 -0.004989950455793157 0.003839066192655266 0.015848698408502625 0.9955450218219275 -0.03881096490001254
 -0.0006230991073571972 -0.004989951900585856 0.0007156122425038866 0.007885830038401678 0.9955450218219275 -0.03881096490001254 0.003837883458331326 0.015848827655279396
0.055454545454549996 0.004140505449357112 0.017655241755716186 0.995144962048843 -0.043083864368327236 0.0008260946033121513 0.008744951925400486 -0.0007230898184703094 -0.005535706048091049
 0.995144962048843 -0.043083864368327236 0.004139177300677285 0.017655377432337034 -0.0007230611465332403 -0.005535704665573763 0.0008339230043600666 0.008743978349059585
 0.0008260946033121513 0.008744951925400486 -0.0007230611465332403 -0.005535704665573763 0.004140546999243926 0.01765449505429173 0.9951449405651062 -0.04308460461652373
 -0.0007230898184703094 -0.005535706048091049 0.0008339230043600666 0.008743978349059585 0.9951449405651062 -0.04308460461652373 0.004139093871964418 0.01765464790026157
0.056273447269699996 0.0041874548890383214 0.01792866033575234 0.9950826199503553 -0.04372895206599357 0.0008445363955994105 0.008874306331133041 -0.0007388642764444642 -0.00561797504237385
 0.9950826199503553 -0.04372895206599357 0.004186087318378746 0.017928799285191793 -0.0007388347701755854 -0.005617973674012743 0.0008525977376627569 0.008873302124177947
 0.0008445363955994105 0.008874306331133041 -0.0007388347701755854 -0.005617973674012743 0.004187497728264428 0.0179279025720298 0.9950825978639659 -0.0437297032345802
 -0.0007388642764444642 -0.00561797504237385 0.0008525977376627569 0.008873302124177947 0.9950825978639659 -0.0437297032345802 0.004186001442002425 0.017928059168602805
0.06252605252188 0.004559172258114252 0.020026996481222734 0.9945887857963264 -0.048663235852204306 0.0009925660184913292 0.00986186825265969 -0.000865439502016823 -0.0062462187349187305
 0.9945887857963264 -0.048663235852204306 0.004557484714900284 0.020027161857228703 -0.0008654032449214062 -0.0062462175178052 0.001002518848742356 0.009860608964431392
 0.0009925660184913292 0.00986186825265969 -0.0008654032449214062 -0.0062462175178052 0.00455922560687142 0.02002615419019476 0.9945887588330955 -0.04866407041435543
 -0.000865439502016823 -0.0062462187349187305 0.001002518848742356 0.009860608964431392 0.9945887588330955 -0.04866407041435543 0.004557378984294237 0.020026341161143445
0.06877865777407 0.004954601957218549 0.0221438891110225 0.9940631370190188 -0.053612960702526274 0.001153439572432708 0.010849102480829965 -0.0010029370403870424 -0.006874474622656538
 0.9940631370190188 -0.053612960702526274 0.004952560887779565 0.022144083540342738 -0.0010028933642432462 -0.006874473636799093 0.00116548363139934 0.010847548440060492
 0.001153439572432708 0.010849102480829965 -0.0010028933642432462 -0.006874473636799093 0.004954666994512912 0.022142962175460218 0.9940631046871857 -0.05361387868403289
 -0.0010029370403870424 -0.006874474622656538 0.00116548363139934 0.010847548440060492 0.9940631046871857 -0.05361387868403289 0.004952433240490192 0.022143182710489952
0.07503126302626001 0.005374156819453048 0.024278866223895305 0.9935052757213835 -0.05857790171909418 0.0013272612722195103 0.011835803612878197 -0.001151465138897346 -0.007502531624946107
 0.9935052757213835 -0.05857790171909418 0.005371728655896263 0.0242790924540867 -0.0011514133814823054 -0.007502530955504169 0.0013415963926152335 0.01183391206893085
 0.0013272612722195103 0.011835803612878197 -0.0011514133814823054 -0.007502530955504169 0.005374234731595012 0.024277854514098297 0.993505237526436 -0.058578903154877265
 -0.001151465138897346 -0.007502531624946107 0.0013415963926152335 0.01183391206893085 0.993505237526436 -0.058578903154877265 0.005371577032190443 0.024278111970422595
0.08128386827845 0.005818245308277649 0.02643146778004911 0.992914806584653 -0.06355780397054327 0.001514131434197972 0.012821760430226974 -0.0013111279031209147 -0.008130175527059098
 0.992914806584653 -0.06355780397054327 0.005815396460266694 0.026431728681710457 -0.0013110674079326893 -0.008130175264314256 0.0015309574983871001 0.01281948552472247
 0.001514131434197972 0.012821760430226974 -0.0013110674079326893 -0.008130175264314256 0.005818337288368183 0.026430371157871654 0.992914762028987 -0.06355888890046917
 -0.0013111279031209147 -0.008130175527059098 0.0015309574983871001 0.01281948552472247 0.992914762028987 -0.06355888890046917 0.005815218804363516 0.026430669062873714
0.08753647353064001 0.0062872714200555915 0.028601240800209763 0.9922913372544652 -0.0685523873930947 0.0017141462941928085 0.013806756278465598 -0.0014820251568095529 -0.008757188720572502
 0.9922913372544652 -0.0685523873930947 0.006283968266113002 0.02860153936958051 -0.0014819552728679874 -0.0087571889599024 0.001733663188372969 0.013804049017705343
 0.0017141462941928085 0.013806756278465598 -0.0014819552728679874 -0.0087571889599024 0.006287378667402001 0.02860005911686247 0.9922912858366161 -0.06855355586407028
 -0.0014820251568095529 -0.008757188720572502 0.001733663188372969 0.013804049017705343 0.9922912858366161 -0.06855355586407028 0.006283762526778463 0.028600401171170145
0.09378907878283 0.006781634548333956 0.030787735871327295 0.9916344786942577 -0.07356135029822002 0.0019273978304489776 0.014790569359496554 -0.0016642522964892344 -0.009383350043040218
 0.9916344786942577 -0.07356135029822002 0.0067778434277901735 0.03078807523329938 -0.0016641723781537542 -0.009383350884896178 0.0019498053956342445 0.014787377587776181
 0.0019273978304489776 0.014790569359496554 -0.0016641723781537542 -0.009383350884896178 0.00678175826805254 0.03078646896613832 0.9916344199086566 -0.0735626023652646
 -0.0016642522964892344 -0.009383350043040218 0.0019498053956342445 0.014787377587776181 0.9916344199086566 -0.0735626023652646 0.0067776075591293155 0.03078685904705147
0.100041684035 0.007301729321082796 0.03299050460216034 0.990943845515189 -0.07858437194403055 0.002153973590021991 0.015772972971515108 -0.001857900142224103 -0.01000843468155591
 0.990943845515189 -0.07858437194403055 0.007297416525584677 0.03299088801363868 -0.001857809549007448 -0.010008436231450321 0.0021794715706848484 0.015769241345403195
 0.002153973590021991 0.015772972971515108 -0.001857809549007448 -0.010008436231450321 0.007301870724289301 0.032989152304854434 0.9909437788520691 -0.07858570766785719
 -0.001857900142224103 -0.01000843468155591 0.0021794715706848484 0.015769241345403195 0.9909437788520691 -0.07858570766785719 0.007297148488646409 0.03298959447009211
0.1059090909091 0.00781353294229364 0.03507196994970403 0.9902647020589251 -0.08331043053151899 0.002378783091757447 0.01669336659469998 -0.00205008186703355 -0.010593827579780914
 0.9902647020589251 -0.08331043053151899 0.007808699902925904 0.03507239778010494 -0.002049980678417915 -0.010593829894554737 0.002407362631869642 0.016689075176867237
 0.002378783091757447 0.01669336659469998 -0.002049980678417915 -0.010593829894554737 0.007813692045457378 0.03507053735668594 0.9902646275354537 -0.08331184481941126
 -0.00205008186703355 -0.010593827579780914 0.002407362631869642 0.016689075176867237 0.9902646275354537 -0.08331184481941126 0.007808399831963781 0.035071032252321874
0.1062942892872 0.007847945418954077 0.0352090977225152 0.9902190562904098 -0.0836211144769342 0.002393956518015277 0.016753735708884866 -0.0020630547861678022 -0.010632214128387723
 0.9902190562904098 -0.0836211144769342 0.007843077183934932 0.03520952857631815 -0.0020629528825047757 -0.010632216496876934 0.0024227445084348963 0.016749405672443075
 0.002393956518015277 0.016753735708884866 -0.0020629528825047757 -0.010632216496876934 0.007848105721738278 0.03520765985216357 0.9902189812349881 -0.08362253392487919
 -0.0020630547861678022 -0.010632214128387723 0.0024227445084348963 0.016749405672443075 0.9902189812349881 -0.08362253392487919 0.007842774947554606 0.03520815834400586
0.11254689453939999 0.008420667377222775 0.03744306365163194 0.9894597338573798 -0.08867122441872213 0.00264742478907404 0.017732621642813386 -0.002279797439501015 -0.01125445616783992
 0.9894597338573798 -0.08867122441872213 0.008415209873941665 0.037443545480616236 -0.0022796835946099535 -0.011254459470547323 0.002679702177522478 0.017727631403973657
 0.00264742478907404 0.017732621642813386 -0.0022796835946099535 -0.011254459470547323 0.00842084780075149 0.03744154001524545 0.9894596498898914 -0.08867272766599257
 -0.002279797439501015 -0.01125445616783992 0.002679702177522478 0.017727631403973657 0.9894596498898914 -0.08867272766599257 0.008414871415902667 0.03744209926510241
0.11879949979160001 0.009020274377320444 0.039691947387198216 0.9886655056111896 -0.09373433384756173 0.0029144516411190617 0.01870939048282391 -0.002508204278507492 -0.011874924894587842
 0.9886655056111896 -0.09373433384756173 0.009014193703978024 0.03969248386903439 -0.0025080778662142293 -0.01187492925219032 0.002950417552338187 0.01870367499083852
 0.0029144516411190617 0.01870939048282391 -0.0025080778662142293 -0.01187492925219032 0.009020476146963292 0.03969033778273543 0.9886654122063019 -0.09373592097405721
 -0.002508204278507492 -0.011874924894587842 0.002950417552338187 0.01870367499083852 0.9886654122063019 -0.09373592097405721 0.009013817012047868 0.03969096241609558
0.1250521050438 0.009647140028336288 0.04195528965720196 0.9878360037915366 -0.09881006133127392 0.003195105211279878 0.019683797731809758 -0.0027483462904067664 -0.012493380750873804
 0.9878360037915366 -0.09881006133127392 0.009640402202373494 0.041955884619426224 -0.00274820668901703 -0.012493386289123203 0.0032349584470714493 0.019677288655896328
 0.003195105211279878 0.019683797731809758 -0.00274820668901703 -0.012493386289123203 0.0096473643740925 0.041953593870336287 0.9878359004183251 -0.09881173242466455
 -0.0027483462904067664 -0.012493380750873804 0.0032349584470714493 0.019677288655896328 0.9878359004183251 -0.09881173242466455 0.009639985275650447 0.041954288712152746
0.131304710296 0.010301632142889022 0.04423262625043773 0.9869708657650399 -0.10389801269721621 0.003489448373580677 0.020655594833358163 -0.003000289119466184 -0.013109580583867558
 0.9869708657650399 -0.10389801269721621 0.010294203092612543 0.04423328367598795 -0.003000135711633077 -0.013109587433583491 0.0035333873519947994 0.02064822054257763
 0.003489448373580677 0.020655594833358163 -0.003000135711633077 -0.013109587433583491 0.01030188029821634 0.044230844055092304 0.9869707518858817 -0.10389976785216495
 -0.003000289119466184 -0.013109580583867558 0.0035333873519947994 0.02064822054257763 0.9869707518858817 -0.10389976785216495 0.010293743942248731 0.04423161413548295
0.1375573155481 0.010844510317813647 0.04622764083106066 0.9862094144754391 -0.10870172919154857 0.0037631229308405074 0.021596309183330123 -0.00322963540314018 -0.013695121582970806
 0.9862094144754391 -0.10870172919154857 0.010836352401624486 0.04622835001893477 -0.0032294670644662507 -0.013695129769480703 0.00381125061869115 0.02158807291172629
 0.0037631229308405074 0.021596309183330123 -0.0032294670644662507 -0.013695129769480703 0.010844782429285165 0.046225772414283925 0.9862092896119586 -0.1087035684152005
 -0.00322963540314018 -0.013695121582970806 0.00381125061869115 0.02158807291172629 0.9862092896119586 -0.1087035684152005 0.010835850016689257 0.04622660710275665
0.1438099208003 0.011406780806944967 0.04821016803620433 0.9854205871568562 -0.1134912521216205 0.0040477623124874195 0.022531993960619487 -0.0034680563941229545 -0.01427601205945304
 0.9854205871568562 -0.1134912521216205 0.011397859278238043 0.04821093212198472 -0.003467872422494103 -0.014276021721172016 0.0041002593936606616 0.02252282943892165
 0.0040477623124874195 0.022531993960619487 -0.003467872422494103 -0.014276021721172016 0.011407077914867702 0.04820821321659333 0.9854204507757218 -0.1134931754950749
 -0.0034680563941229545 -0.01427601205945304 0.0041002593936606616 0.02252282943892165 0.9854204507757218 -0.1134931754950749 0.01139731186336256 0.04820911661206496
0.1500625260525 0.011988213801861967 0.05017998341461434 0.9846046189930968 -0.11826640227783171 0.004343246611668383 0.0234625148290395 -0.003715434602521292 -0.014852125482412165
 0.9846046189930968 -0.11826640227783171 0.011978493808015788 0.05018080573004026 -0.003715234294010742 -0.01485213676434381 0.004400292310737174 0.023452353389318586
 0.004343246611668383 0.0234625148290395 -0.003715234294010742 -0.01485213676434381 0.011988536937178525 0.05017794200504016 0.9846044705564787 -0.11826840988516396
 -0.003715434602521292 -0.014852125482412165 0.004400292310737174 0.023452353389318586 0.9846044705564787 -0.11826840988516396 0.011977899591028933 0.05017891843514245
0.15631513130469998 0.012588577479489818 0.05213686923581881 0.9837617467916195 -0.12302700248906183 0.004649454280109721 0.02438774024762048 -0.003971650887051232 -0.015423338428694063
 0.9837617467916195 -0.12302700248906183 0.012578024059333821 0.052137753314426535 -0.003971433535766939 -0.015423351482520595 0.0047112263344893214 0.02437651085577034
