! Created with skrf 1.8.0 (http://scikit-rf.org).
# GHz S RI R 50.0 
!freq ReS11 ImS11 ReS12 ImS12 ReS13 ImS13
! ReS14 ImS14
! ReS21 ImS21 ReS22 ImS22 ReS23 ImS23
! ReS24 ImS24
! ReS31 ImS31 ReS32 ImS32 ReS33 ImS33
! ReS34 ImS34
! ReS41 ImS41 ReS42 ImS42 ReS43 ImS43
! ReS44 ImS44
!
0.0 0.001110530591395 0.0 0.9988894693858 0.0 4.197292218269e-05 0.0 -4.197292158361e-05 5.140200406823084e-21
 0.9988894693858 0.0 0.001110530591393 0.0 -4.197292158332e-05 5.14020040678757e-21 4.19729221833e-05 0.0
 4.197292218269e-05 0.0 -4.197292158332e-05 5.14020040678757e-21 0.001110530602758 0.0 0.9988894693972 0.0
 -4.197292158361e-05 5.140200406823084e-21 4.19729221833e-05 0.0 0.9988894693972 0.0 0.001110530602771 0.0
0.005 0.0011938806535191637 0.0009115708285709726 0.9987841693902747 -0.002327321837993801 5.791152639404015e-05 0.000447860191036095 -5.642434436536686e-05 -0.0002838196246629981
 0.9987841693902747 -0.002327321837993801 0.0011938822842446006 0.0009115698364282632 -5.642399382019572e-05 -0.00028381931580838627 5.7890539976659696e-05 0.0004478679476977555
 5.791152639404015e-05 0.000447860191036095 -5.642399382019572e-05 -0.00028381931580838627 0.0011938807233175237 0.0009115035170017799 0.9987841690684298 -0.00232738889029181
 -5.642434436536686e-05 -0.0002838196246629981 5.7890539976659696e-05 0.0004478679476977555 0.9987841690684298 -0.00232738889029181 0.0011938815749987777 0.0009115030475144015
0.006252605252188 0.0012154719471590514 0.0011430760410901736 0.9987567649364534 -0.002909761788106127 6.231607025829654e-05 0.0005600655540795918 -6.038181146398285e-05 -0.00035515312607936573
 0.9987567649364534 -0.002909761788106127 0.0012154744970480544 0.0011430748398255422 -6.038126629247409e-05 -0.0003551527442497757 6.228327759481495e-05 0.0005600756490780447
 6.231607025829654e-05 0.0005600655540795918 -6.038126629247409e-05 -0.0003551527442497757 0.0012154721333913108 0.0011429918919950912 0.9987567645099408 -0.002909845610995988
 -6.038181146398285e-05 -0.00035515312607936573 6.228327759481495e-05 0.0005600756490780447 0.9987567645099408 -0.002909845610995988 0.0012154734647881248 0.001142991352253144
0.01250521050438 0.0013275673433482743 0.0023104048472457265 0.9986137645486766 -0.005820523551512245 8.678806291522642e-05 0.0011206050487062413 -8.217709370290703e-05 -0.0007121768475207392
 0.9986137645486766 -0.005820523551512245 0.0013275775327083678 0.0023104028430839425 -8.217494884798373e-05 -0.0007121761289856513 8.665719732815781e-05 0.001120629441917136
 8.678806291522642e-05 0.0011206050487062413 -8.217494884798373e-05 -0.0007121761289856513 0.0013275686498081152 0.0023102367765184596 0.998613763401308 -0.00582069095897264
 -8.217709370290703e-05 -0.0007121768475207392 8.665719732815781e-05 0.001120629441917136 0.998613763401308 -0.00582069095897264 0.0013275739626234392 0.002310236183271181
0.01875781575657 0.0014470043444698257 0.0034947262668648224 0.998460331657127 -0.008739421290548277 0.00011543676108942312 0.0016820092940031416 -0.00010741328506226352 -0.0010706087336391711
 0.998460331657127 -0.008739421290548277 0.0014470272503335465 0.0034947238780118003 -0.00010740850680310561 -0.0010706077287936466 0.00011514255953338999 0.0016820527871419194
 0.00011543676108942312 0.0016820092940031416 -0.00010740850680310561 -0.0010706077287936466 0.0014470077149382724 0.003494474366046107 0.9984603294986801 -0.008739672203667585
 -0.00010741328506226352 -0.0010706087336391711 0.00011514255953338999 0.0016820527871419194 0.9984603294986801 -0.008739672203667585 0.0014470196412801576 0.003494474244788151
0.02501042100875 0.0015739677498642606 0.0046944429063965724 0.9982963260262248 -0.011667924210333887 0.00014831064703586339 0.0022443310624069355 -0.00013614396475726092 -0.0014303222629670608
 0.9982963260262248 -0.011667924210333887 0.001574008445199922 0.004694440576573484 -0.00013613553318765853 -0.0014303210286700345 0.00014778768082349917 0.002244399037451441
 0.00014831064703586339 0.0022443310624069355 -0.00013613553318765853 -0.0014303210286700345 0.0015739741329388658 0.0046941072456062475 0.9982963225633584 -0.011668258595629373
 -0.00013614396475726092 -0.0014303222629670608 0.00014778768082349917 0.002244399037451441 0.9982963225633584 -0.011668258595629373 0.0015739952923183602 0.004694108166008681
0.03126302626094 0.0017086342160739488 0.005908760408492624 0.9981215984391351 -0.014606694419218474 0.00018545883475893472 0.002807574253178444 -0.00016842165719200774 -0.0017912376428720314
 0.9981215984391351 -0.014606694419218474 0.001708697772948864 0.005908758608635949 -0.00016840856376661387 -0.0017912362425787519 0.00018464145052217042 0.0028076726778047986
 0.00018545883475893472 0.002807574253178444 -0.00016840856376661387 -0.0017912362425787519 0.0017086445677092583 0.005908341055392859 0.9981215933775576 -0.014607112269849017
 -0.00016842165719200774 -0.0017912376428720314 0.00018464145052217042 0.0028076726778047986 0.9981215933775576 -0.014607112269849017 0.0017086775698499353 0.005908343633050699
0.037515631513130004 0.001851176704084919 0.007137181830151478 0.997935995208263 -0.017556092513126266 0.0002269306311367353 0.0033717239158622494 -0.00020429821307350605 -0.0021532917748064715
 0.997935995208263 -0.017556092513126266 0.0018512681965877917 0.007137181059546629 -0.0002042794593484304 -0.0021532902785975816 0.00022575292225477368 0.003371859351242658
 0.0002269306311367353 0.0033717239158622494 -0.0002042794593484304 -0.0021532902785975816 0.0018511919885632919 0.0071366788607544656 0.9979359882526138 -0.017556593838138745
 -0.00020429821307350605 -0.0021532917748064715 0.00022575292225477368 0.003371859351242658 0.9979359882526138 -0.017556593838138745 0.0018512394359192948 0.0071366837586140965
0.043768236765320004 0.00200176620959058 0.008379353785283379 0.9977393599681574 -0.020516331390969443 0.0002727753387008277 0.003936755377660999 -0.00024382495753543922 -0.0025164291151438373
 0.9977393599681574 -0.020516331390969443 0.002001890715924897 0.008379354572401266 -0.00024379955441461489 -0.0025164275997291183 0.0002711711294942575 0.0039369349869057355
 0.0002727753387008277 0.003936755377660999 -0.00024379955441461489 -0.0025164275997291183 0.0020017873993787108 0.008378767275405496 0.9977393508212825 -0.020516916223888928
 -0.00024382495753543922 -0.0025164291151438373 0.0002711711294942575 0.0039369349869057355 0.9977393508212825 -0.020516916223888928 0.0020018518888335456 0.008378775204861012
0.050020842017509996 0.002160572572783279 0.009635002836748096 0.9975315345496332 -0.023487539818809938 0.0003230421445071566 0.004502638011840604 -0.00028705275453433127 -0.0028805978949687588
 0.9975315345496332 -0.023487539818809938 0.0021607351771172397 0.009635005739985146 -0.0002870197216917114 -0.0028805964436622697 0.0003209449813986555 0.004502869568755215
 0.0003230421445071566 0.004502638011840604 -0.0002870197216917114 -0.0028805964436622697 0.002160600648887522 0.009634332878979879 0.9975315229121499 -0.023488208200780316
 -0.00028705275453433127 -0.0028805978949687588 0.0003209449813986555 0.004502869568755215 0.9975315229121499 -0.023488208200780316 0.002160684773976491 0.009634344600954622
0.055454545454549996 0.002305384564777824 0.010736969580747234 0.9973417163387658 -0.02607857843302327 0.0003703548655214222 0.004995071534468915 -0.00032766390534647336 -0.0031978705054062327
 0.9973417163387658 -0.02607857843302327 0.0023055844124593083 0.010736974800207277 -0.0003276234524669805 -0.0031978691825967132 0.00036777512263156173 0.004995355029791167
 0.0003703548655214222 0.004995071534468915 -0.0003276234524669805 -0.0031978691825967132 0.0023054194293658787 0.010736227182381644 0.9973417022925855 -0.02607931947102513
 -0.00032766390534647336 -0.0031978705054062327 0.00036777512263156173 0.004995355029791167 0.9973417022925855 -0.02607931947102513 0.0023055227231354447 0.010736242857337356
0.056273447269699996 0.0023277649086172175 0.010903904298198321 0.9973123594749891 -0.026469793583708684 0.00037778004551961643 0.0050693370894511315 -0.0003340320354072154 -0.0032457482568504946
 0.9973123594749891 -0.026469793583708684 0.0023279707029700584 0.010903909906559494 -0.00033399040095388765 -0.0032457469595612897 0.00037512319227185495 0.005069628987485552
 0.00037778004551961643 0.0050693370894511315 -0.00033399040095388765 -0.0032457469595612897 0.002327800861472362 0.010903150991017373 0.9973123450458733 -0.0264705455743554
 -0.0003340320354072154 -0.0032457482568504946 0.00037512319227185495 0.005069628987485552 0.9973123450458733 -0.0264705455743554 0.0023279072138400964 0.010903167316931445
0.06252605252188 0.0025035118536093585 0.012185865075556693 0.9970816742720552 -0.029463132607837325 0.0004370377950851617 0.005636814779314338 -0.00038481280642452194 -0.003611831243949752
 0.9970816742720552 -0.029463132607837325 0.002503765939820544 0.012185874009272884 -0.00038476160661813497 -0.003611830197153346 0.00043375423065900384 0.005637176040580302
 0.0004370377950851617 0.005636814779314338 -0.00038476160661813497 -0.003611830197153346 0.0025035566816676226 0.012185028527023594 0.9970816567462009 -0.02946396828161613
 -0.00038481280642452194 -0.003611831243949752 0.00043375423065900384 0.005637176040580302 0.9970816567462009 -0.02946396828161613 0.0025036878532101983 0.012185050319758198
0.06877865777407 0.0026879817090514953 0.013480713432921418 0.9968393176853864 -0.03246757113859118 0.0005008638579398122 0.0062050307560002765 -0.0004394446474441645 -0.003978798181746022
 0.9968393176853864 -0.03246757113859118 0.002688289200365456 0.013480726343967454 -0.00043938292643436687 -0.003978797488465216 0.0004968862761921184 0.006205471040353552
 0.0005008638579398122 0.0062050307560002765 -0.00043938292643436687 -0.003978797488465216 0.002688036420566726 0.013479793768323872 0.9968392967549513 -0.032468490577184844
 -0.0004394446474441645 -0.003978798181746022 0.0004968862761921184 0.006205471040353552 0.9968392967549513 -0.032468490577184844 0.002688195005295388 0.013479821943039741
0.07503126302626001 0.0028813425292492536 0.014788292510384481 0.9965851278335944 -0.03548310418715866 0.0005693063723135573 0.006773942575065788 -0.000497976702895569 -0.004346600293291988
 0.9965851278335944 -0.03548310418715866 0.00288170855214058 0.014788310083018504 -0.0004979035126012724 -0.00434660006306776 0.0005645671831288289 0.0067744721892177
 0.0005693063723135573 0.006773942575065788 -0.0004979035126012724 -0.00434660006306776 0.002881408142458959 0.014787289860535499 0.9965851031876743 -0.03548410749120358
 -0.000497976702895569 -0.004346600293291988 0.0005645671831288289 0.0067744721892177 0.9965851031876743 -0.03548410749120358 0.0028815967381060343 0.014787325385566482
0.08128386827845 0.0030837621711760094 0.016108456004101802 0.9963189423303213 -0.03850971180567837 0.0006424131155770049 0.007343505922313913 -0.0005604576688293166 -0.00471518844123279
 0.9963189423303213 -0.03850971180567837 0.0030841918671325142 0.016108478955345357 -0.0005603720687538059 -0.004715188790102263 0.0006368444469182233 0.007344135828973262
 0.0006424131155770049 0.007343505922313913 -0.0005603720687538059 -0.004715188790102263 0.003083839714089897 0.016107370514194405 0.9963189136540431 -0.038510799085877005
 -0.0005604576688293166 -0.00471518844123279 0.0006368444469182233 0.007344135828973262 0.9963189136540431 -0.038510799085877005 0.0030840609243200402 0.01610741441181606
0.08753647353064001 0.003295408321267202 0.01744106518085171 0.996040598382849 -0.0415473620304536 0.0007202314720026047 0.007913674788448241 -0.0006269357770250679 -0.00508451294531638
 0.996040598382849 -0.0415473620304536 0.0032959068485363652 0.017441094260919044 -0.0006268368341750672 -0.005084513995786552 0.0007137651729487383 0.007914416615461706
 0.0007202314720026047 0.007913674788448241 -0.0006268368341750672 -0.005084513995786552 0.003295498832275488 0.017439897007323207 0.9960405653572981 -0.04154853341070911
 -0.0006269357770250679 -0.00508451294531638 0.0007137651729487383 0.007914416615461706 0.9960405653572981 -0.04154853341070911 0.00329575526832936 0.017439950354529075
0.09378907878283 0.003516448505207749 0.018785986745356715 0.9957499328760128 -0.04459601297353683 0.0008028084024085712 0.00848440158875343 -0.0006974587767318995 -0.005454523455790919
 0.9957499328760128 -0.04459601297353683 0.0035170210405571166 0.01878602273807203 -0.0006973455654932959 -0.005454525336812958 0.0007953760468540612 0.008485267638242203
 0.0008028084024085712 0.00848440158875343 -0.0006973455654932959 -0.005454525336812958 0.003516553033024266 0.01878473605630229 0.9957498951776721 -0.04459726859051219
 -0.0006974587767318995 -0.005454523455790919 0.0007953760468540612 0.008485267638242203 0.9957498951776721 -0.04459726859051219 0.00351684731588196 0.018784799985529482
0.100041684035 0.0037470500865758216 0.02014309126996422 0.995446782445455 -0.047655614352647035 0.0008901904147844802 0.009055637251551282 -0.0007720739147803461 -0.005825168858979408
 0.995446782445455 -0.047655614352647035 0.00374770182735189 0.020143134993027254 -0.0007719455168871259 -0.0058251717059205005 0.0008817233055982521 0.009056640509049974
 0.0008901904147844802 0.009055637251551282 -0.0007719455168871259 -0.0058251717059205005 0.003747169691212772 0.02014175824408286 0.9954467397463811 -0.047656954356779344
 -0.0007720739147803461 -0.005825168858979408 0.0008817233055982521 0.009056640509049974 0.9954467397463811 -0.047656954356779344 0.0037475044533477097 0.02014183394391483
0.1059090909091 0.003972290133162798 0.021427557264918726 0.9951508073356908 -0.050536633876882175 0.0009766003405001996 0.00959209918046673 -0.0008458556902063924 -0.006173511421441442
 0.9951508073356908 -0.050536633876882175 0.003973020946441159 0.021427609016347608 -0.00084571221253278 -0.006173515303602061 0.000967099508143899 0.00959324362011697
 0.0009766003405001996 0.00959209918046673 -0.00084571221253278 -0.006173515303602061 0.003972424859556739 0.021426147150107655 0.9951507596407672 -0.050538053215014006
 -0.0008458556902063924 -0.006173511421441442 0.000967099508143899 0.00959324362011697 0.9951507596407672 -0.050538053215014006 0.003972800013696049 0.0214262350269479
0.1062942892872 0.003987380256804712 0.021512252013973 0.9951309835443249 -0.05072610863256326 0.000982423535517482 0.009627331285470853 -0.0008508279144531496 -0.006196397205044799
 0.9951309835443249 -0.05072610863256326 0.003988116422498439 0.021512304319386565 -0.0008506834188676414 -0.0061964011596606985 0.0009728527092322505 0.00962848542904586
 0.000982423535517482 0.009627331285470853 -0.0008506834188676414 -0.0061964011596606985 0.003987516009220745 0.021510836843906655 0.9951309355111281 -0.05072753318470186
 -0.0008508279144531496 -0.006196397205044799 0.0009728527092322505 0.00962848542904586 0.9951309355111281 -0.05072753318470186 0.003987893896912309 0.021510925559682707
0.11254689453939999 0.004237606018807136 0.022893344021263022 0.9948023725040627 -0.05380743188923564 0.0010795532809598084 0.010199431829155644 -0.0009337669532949823 -0.006568155654341876
 0.9948023725040627 -0.05380743188923564 0.004238431853000884 0.022893405795586592 -0.0009336054561900017 -0.006568160864754755 0.001068809512934761 0.010200751238496147
 0.0010795532809598084 0.010199431829155644 -0.0009336054561900017 -0.006568160864754755 0.0042377590015226395 0.022891846909321098 0.9948023187980335 -0.05380894116481476
 -0.0009337669532949823 -0.006568155654341876 0.001068809512934761 0.010200751238496147 0.9948023187980335 -0.05380894116481476 0.004238182676600401 0.022891949943761935
0.11879949979160001 0.004497894165430125 0.024286243412099964 0.9944607855925112 -0.056899514480917616 0.0011816246292946889 0.010771885690439596 -0.0010209366400382883 -0.006940390435370914
 0.9944607855925112 -0.056899514480917616 0.004498814937775752 0.024286315576637182 -0.001020757244726589 -0.0069403970560369815 0.0011696384393793864 0.010773385455941057
 0.0011816246292946889 0.010771885690439596 -0.001020757244726589 -0.0069403970560369815 0.004498065472649125 0.024284664573208496 0.9944607258689889 -0.056901108666965766
 -0.0010209366400382883 -0.006940390435370914 0.0011696384393793864 0.010773385455941057 0.9944607258689889 -0.056901108666965766 0.004498537614831831 0.024284783287013712
0.1250521050438 0.004768411254047405 0.025690826822816232 0.9941060590686795 -0.060002281572473046 0.001288681992540621 0.011344638377891616 -0.0011123819909095117 -0.0073130468114552365
 0.9941060590686795 -0.060002281572473046 0.004769432262186126 0.025690910333844078 -0.0011121838078296835 -0.007313055003136301 0.0012753836508353552 0.011346334309681709
 0.001288681992540621 0.011344638377891616 -0.0011121838078296835 -0.007313055003136301 0.004768601992200538 0.025689166483536186 0.9941059929768327 -0.060003960868469104
 -0.0011123819909095117 -0.0073130468114552365 0.0012753836508353552 0.011346334309681709 0.9941059929768327 -0.060003960868469104 0.004769125301032932 0.025689302295853665
0.131304710296 0.00504932357785337 0.027106970953247565 0.9937380292358501 -0.06311565355327943 0.0014007691886212495 0.011917634126699458 -0.0012081474050407968 -0.007686069054246714
 0.9937380292358501 -0.06311565355327943 0.005050450149376289 0.027107066802166988 -0.0012079295516990848 -0.007686078983986667 0.001386088721889195 0.01191954276364173
 0.0014007691886212495 0.011917634126699458 -0.0012079295516990848 -0.007686078983986667 0.005049534865863932 0.027105229350642367 0.9937379564184328 -0.06311741817219535
 -0.0012081474050407968 -0.007686069054246714 0.001386088721889195 0.01191954276364173 0.9937379564184328 -0.06311741817219535 0.005050112063108278 0.027105383739565326
0.1375573155481 0.005267504868797198 0.028349724880814192 0.9934298403165296 -0.06605467300394352 0.0015013891162295454 0.012471687463969535 -0.0012917594473337444 -0.008040265750819557
 0.9934298403165296 -0.06605467300394352 0.005268742613611662 0.028349829566758338 -0.0012915205127816583 -0.008040277376511362 0.0014852998807724127 0.012473802486594276
 0.0015013891162295454 0.012471687463969535 -0.0012915205127816583 -0.008040277376511362 0.0052677371453769455 0.028347902406106604 0.9934297604719736 -0.06605652307179913
 -0.0012917594473337444 -0.008040265750819557 0.0014852998807724127 0.012473802486594276 0.9934297604719736 -0.06605652307179913 0.005268372498965657 0.028348071917337157
0.1438099208003 0.0054930288394709845 0.02958732832374005 0.9931114086126779 -0.0689876490010952 0.001606057951608727 0.01302428256254384 -0.001378716054899461 -0.008393127669985926
 0.9931114086126779 -0.0689876490010952 0.005494383172203318 0.02958744240572279 -0.0013784550715503691 -0.008393141152512957 0.0015884974798169435 0.013026618654160264
 0.001606057951608727 0.01302428256254384 -0.0013784550715503691 -0.008393141152512957 0.005493283117913272 0.029585425253503415 0.993111321385112 -0.06898958472669237
 -0.001378716054899461 -0.008393127669985926 0.0015884974798169435 0.013026618654160264 0.993111321385112 -0.06898958472669237 0.00549397965465982 0.02958561090018815
0.1500625260525 0.005725832079048674 0.03081971927897858 0.9927827999253 -0.07191455075617258 0.001714748421397336 0.013575389335001926 -0.00146899077840694 -0.008744625480731771
 0.9927827999253 -0.07191455075617258 0.005727308444385039 0.03081984333359473 -0.001468706779115846 -0.008744640987365541 0.00169565452137304 0.013577961697586365
 0.001714748421397336 0.013575389335001926 -0.001468706779115846 -0.008744640987365541 0.005726109376915005 0.030817735899387556 0.9927827049536768 -0.07191657235935758
 -0.00146899077840694 -0.008744625480731771 0.00169565452137304 0.013577961697586365 0.9927827049536768 -0.07191657235935758 0.005726870160798389 0.030817938729257
0.15631513130469998 0.005965850906865971 0.03204683789155372 0.9924440801898144 -0.07483534684459749 0.0018274330368077067 0.014124978066574504 -0.0015625569411966342 -0.009094730385544286
