! Created with skrf 1.8.0 (http://scikit-rf.org).
# GHz S RI R 50.0 
!freq ReS11 ImS11 ReS12 ImS12 ReS13 ImS13
! ReS14 ImS14
! ReS21 ImS21 ReS22 ImS22 ReS23 ImS23
! ReS24 ImS24
! ReS31 ImS31 ReS32 ImS32 ReS33 ImS33
! ReS34 ImS34
! ReS41 ImS41 ReS42 ImS42 ReS43 ImS43
! ReS44 ImS44
!
0.0 0.001600206414362 0.0 0.9983997935856 0.0 6.183613566778e-05 0.0 -6.183613500251e-05 7.572742480246747e-21
 0.9983997935856 0.0 0.001600206414394 0.0 -6.18361350024e-05 7.572742480233277e-21 6.18361356694e-05 0.0
 6.183613566778e-05 0.0 -6.18361350024e-05 7.572742480233277e-21 0.001600206404408 0.0 0.9983997935757 0.0
 -6.183613500251e-05 7.572742480246747e-21 6.18361356694e-05 0.0 0.9983997935757 0.0 0.00160020640445 0.0
0.005 0.0017218653338021185 0.0013086550647982977 0.9982458561305637 -0.003351804271261359 8.676329096831327e-05 0.0006833147332560609 -8.425507651840007e-05 -0.00042852211910108265
 0.9982458561305637 -0.003351804271261359 0.001721869086598617 0.0013086529058253128 -8.425715895681249e-05 -0.00042852375222625426 8.674739078323485e-05 0.0006833210351491982
 8.676329096831327e-05 0.0006833147332560609 -8.425715895681249e-05 -0.00042852375222625426 0.0017218637345527696 0.0013085887616373375 0.9982458557753614 -0.003351871340890176
 -8.425507651840007e-05 -0.00042852211910108265 8.674739078323485e-05 0.0006833210351491982 0.9982458557753614 -0.003351871340890176 0.001721869974667795 0.0013085850667201825
0.006252605252188 0.0017538232596878479 0.0016409610410083868 0.9982051573093885 -0.004190567132621067 9.390578147751863e-05 0.0008544706684163504 -9.060633841591524e-05 -0.0005362040343876868
 0.9982051573093885 -0.004190567132621067 0.0017538291248725831 0.0016409582210863884 -9.06095785899871e-05 -0.0005362060485660875 9.388094193076284e-05 0.0008544788121905093
 9.390578147751863e-05 0.0008544706684163504 -9.06095785899871e-05 -0.0005362060485660875 0.00175382082275957 0.001640878178948606 0.9982051568175814 -0.004190650956775508
 -9.060633841591524e-05 -0.0005362040343876868 9.388094193076284e-05 0.0008544788121905093 0.9982051568175814 -0.004190650956775508 0.001753830576971632 0.001640873428752134
0.01250521050438 0.0019223503950275159 0.003316231480056293 0.9979890885311105 -0.00838188217645618 0.00013497709085041862 0.0017092751649640987 -0.00012675819154256586 -0.0010749757241647526
 0.9979890885311105 -0.00838188217645618 0.0019223738020995387 0.0033162246110289145 -0.00012677095754809643 -0.0010749794534946015 0.00013487812878776995 0.0017092943641319625
 0.00013497709085041862 0.0017092751649640987 -0.00012677095754809643 -0.0010749794534946015 0.0019223412191551065 0.003316066071820926 0.9979890871292346 -0.008382049553548428
 -0.00012675819154256586 -0.0010749757241647526 0.00013487812878776995 0.0017092943641319625 0.9979890871292346 -0.008382049553548428 0.0019223801680348066 0.0033160552146478013
0.01875781575657 0.0021061668864549568 0.005015264522186703 0.9977513107454994 -0.012584133698550942 0.0001851471804147928 0.002564979511672486 -0.0001704053678418714 -0.0016155288731457059
 0.9977513107454994 -0.012584133698550942 0.0021062194603887006 0.005015252297007114 -0.00017043383190510318 -0.0016155339598511065 0.0001849250906014166 0.0025650133174198327
 0.0001851471804147928 0.002564979511672486 -0.00017043383190510318 -0.0016155339598511065 0.002106146681221535 0.005015016734112609 0.997751308022866 -0.012584384524166797
 -0.0001704053678418714 -0.0016155288731457059 0.0001849250906014166 0.0025650133174198327 0.997751308022866 -0.012584384524166797 0.0021062342032858792 0.005014998263380831
0.02501042100875 0.0023056399588518035 0.006735667968738199 0.997491536232148 -0.016799343814596673 0.0002445143739730665 0.003421610917162458 -0.00022165761249654997 -0.0021576096507456865
 0.997491536232148 -0.016799343814596673 0.00230573328404647 0.0067356490017224805 -0.00022170787146634215 -0.0021576156720452522 0.00024412026451818653 0.003421663484642721
 0.0002445143739730665 0.003421610917162458 -0.00022170787146634215 -0.0021576156720452522 0.00230560443072914 0.006735337968937334 0.9974915317763712 -0.01679967799842099
 -0.00022165761249654997 -0.0021576096507456865 0.00024412026451818653 0.003421663484642721 0.9974915317763712 -0.01679967799842099 0.002305759863502886 0.006735310230597883
0.03126302626094 0.0025211216614428214 0.008476203378035249 0.9972094630032393 -0.021028368999763083 0.0003131772892956464 0.004279117387741203 -0.0002806214269837442 -0.0027010369866268084
 0.9972094630032393 -0.021028368999763083 0.00252126728560991 0.008476176204203966 -0.0002806995151090244 -0.0027010434539935196 0.0003125623325483949 0.004279193475251863
 0.0003131772892956464 0.004279117387741203 -0.0002806995151090244 -0.0027010434539935196 0.0025210665150416484 0.008475791341149614 0.9972094564034449 -0.021028786461111306
 -0.0002806214269837442 -0.0027010369866268084 0.0003125623325483949 0.004279193475251863 0.9972094564034449 -0.021028786461111306 0.0025213091617979663 0.008475752532700805
0.037515631513130004 0.002752956308331043 0.010236057667555034 0.9969047825050461 -0.025271628424166984 0.0003912338828158718 0.005137415486480342 -0.0003474008320192349 -0.0032456548203879435
 0.9969047825050461 -0.025271628424166984 0.002753165744739433 0.010236020742215293 -0.00034751272738995444 -0.0032456611793581693 0.0003903492949035028 0.005137520458312109
 0.0003912338828158718 0.005137415486480342 -0.00034751272738995444 -0.0032456611793581693 0.0027528772466631716 0.010235563776608897 0.9969047733534153 -0.025272129090669993
 -0.0003474008320192349 -0.0032456548203879435 0.0003903492949035028 0.005137520458312109 0.9969047733534153 -0.025272129090669993 0.002753226380474966 0.010235511945909857
0.043768236765320004 0.0030014833484246304 0.012014621441723083 0.9965771827503154 -0.02952932555310207 0.0004787809935699382 0.005996404856529911 -0.0004220976360370923 -0.0037913175870850613
 0.9965771827503154 -0.02952932555310207 0.003001768077490659 0.012014573140092388 -0.00042224926448870636 -0.0037913232172196534 0.0004775780261297645 0.0059965446868408675
 0.0004787809935699382 0.005996404856529911 -0.00042224926448870636 -0.0037913232172196534 0.003001376071943143 0.012014045903657782 0.9965771706414106 -0.02952990934570256
 -0.0004220976360370923 -0.0037913175870850613 0.0004775780261297645 0.0059965446868408675 0.9965771706414106 -0.02952990934570256 0.003001850937386807 0.012013978947654902
0.050020842017509996 0.003267038696762752 0.013811397398201 0.9962263499145723 -0.03380153966732008 0.000575914064913492 0.006855974220496872 -0.0005048115262806868 -0.004337884229139347
 0.9962263499145723 -0.03380153966732008 0.0032674101669838496 0.013811336015126529 -0.0005050087638409288 -0.004337888444036081 0.0005743440031492343 0.0068561554976385025
 0.000575914064913492 0.006855974220496872 -0.0005050087638409288 -0.004337888444036081 0.003266898902130626 0.013810740438188257 0.9962263344450882 -0.03380220650663261
 -0.0005048115262806868 -0.004337884229139347 0.0005743440031492343 0.0068561554976385025 0.9962263344450882 -0.03380220650663261 0.0032675187166088435 0.01381065610157811
0.055454545454549996 0.0035119021425236785 0.015387305380316253 0.9959023530316728 -0.03752601424228131 0.0006681835477130134 0.007603344625251713 -0.0005832790960236784 -0.004813492919459271
 0.9959023530316728 -0.03752601424228131 0.003512358266912463 0.015387231181575933 -0.0005835207038762961 -0.004813495295827466 0.0006662549352582913 0.007603567751821639
 0.0006681835477130134 0.007603344625251713 -0.0005835207038762961 -0.004813495295827466 0.003511730590269804 0.015386577865138978 0.9959023343154343 -0.03752675318151147
 -0.0005832790960236784 -0.004813492919459271 0.0006662549352582913 0.007603567751821639 0.9959023343154343 -0.03752675318151147 0.0035124919563708176 0.015386476473389709
0.056273447269699996 0.0035499554079872313 0.015625955354543183 0.9958519692804689 -0.038088270764729946 0.0006827269429288068 0.007716004333148917 -0.0005956400818590645 -0.004885215258760303
 0.9958519692804689 -0.038088270764729946 0.0035504250368205803 0.01562587910413702 -0.0005958887563655001 -0.00488521730609348 0.0006807411079331147 0.007716234264072941
 0.0006827269429288068 0.007716004333148917 -0.0005958887563655001 -0.00488521730609348 0.0035497787871106522 0.015625217223023343 0.9958519500485506 -0.038089020564635645
 -0.0005956400818590645 -0.004885215258760303 0.0006807411079331147 0.007716234264072941 0.9958519500485506 -0.038089020564635645 0.0035505627418322087 0.015625113096890603
0.06252605252188 0.003850564033569906 0.017457907535728356 0.9954537258687298 -0.04238946420492528 0.0007993117147756821 0.008576369603445556 -0.000694678745666719 -0.005433171155494274
 0.9954537258687298 -0.04238946420492528 0.003851143208130635 0.017457814551038522 -0.0006949846379109584 -0.005433170217066332 0.0007968614681461868 0.008576656018123133
 0.0007993117147756821 0.008576369603445556 -0.0006949846379109584 -0.005433170217066332 0.003850346275332491 0.017457088501556275 0.9954537024758484 -0.042390296880135125
 -0.000694678745666719 -0.005433171155494274 0.0007968614681461868 0.008576656018123133 0.9954537024758484 -0.042390296880135125 0.003851313535523762 0.01745696202196446
0.06877865777407 0.00416919280432714 0.019306893834840026 0.9950313048993064 -0.04670502538517188 0.0009257585683367536 0.009436939066995003 -0.0008020207732341205 -0.005981611418297893
 0.9950313048993064 -0.04670502538517188 0.004169892882034007 0.019306782167464086 -0.0008023896177008824 -0.005981606610102875 0.0009227953188107595 0.009437290422783602
 0.0009257585683367536 0.009436939066995003 -0.0008023896177008824 -0.005981606610102875 0.004168929592285193 0.019305994193874774 0.9950312769486037 -0.04670594084329497
 -0.0008020207732341205 -0.005981611418297893 0.0009227953188107595 0.009437290422783602 0.9950312769486037 -0.04670594084329497 0.004170099297674047 0.01930584264042483
0.07503126302626001 0.004506167705622833 0.021172572475832614 0.9945843921493507 -0.05103482901950427 0.0010621556633871054 0.010297577014999464 -0.0009177571685267058 -0.006530393966413155
 0.9945843921493507 -0.05103482901950427 0.00450700001451517 0.02117244009556348 -0.000918194653854484 -0.006530384338705778 0.001058630874868985 0.010298002400862658
 0.0010621556633871054 0.010297577014999464 -0.000918194653854484 -0.006530384338705778 0.004505854719645238 0.021171592548192734 0.9945843592472811 -0.05103582716451172
 -0.0009177571685267058 -0.006530393966413155 0.001058630874868985 0.010298002400862658 0.9945843592472811 -0.05103582716451172 0.0045072459844403626 0.021171413042569327
0.08128386827845 0.004861812491796816 0.02305461379731815 0.9941126742542252 -0.055378725302914635 0.0012085890129436847 0.011158143408650822 -0.0010419766080776284 -0.007079374760325265
 0.9941126742542252 -0.055378725302914635 0.004862788331226489 0.02305445859162517 -0.0010424883774223068 -0.007079359297694038 0.0012044542135150576 0.01115865254923125
 0.0012085890129436847 0.011158143408650822 -0.0010424883774223068 -0.007079359297694038 0.004861445406875151 0.023053553931884057 0.9941126360096323 -0.0553798060312907
 -0.0010419766080776284 -0.007079374760325265 0.0012044542135150576 0.01115865254923125 0.9941126360096323 -0.0553798060312907 0.004863077319597594 0.02305334343633799
0.08753647353064001 0.005236448653435121 0.02495269596321943 0.9936158389658607 -0.059736544154539925 0.0013651423670733719 0.012018494184129227 -0.0011747653612907887 -0.0076284075378468645
 0.9936158389658607 -0.059736544154539925 0.005237579294304941 0.024952515736864724 -0.0011753570124043815 -0.00762838515930479 0.0013603491589868708 0.012019097443651296
 0.0013651423670733719 0.012018494184129227 -0.0011753570124043815 -0.00762838515930479 0.005236023140190625 0.024951556533400473 0.9936157949908093 -0.05973770736035987
 -0.0011747653612907887 -0.0076284075378468645 0.0013603491589868708 0.012019097443651296 0.9936157949908093 -0.05973770736035987 0.005237914763828849 0.024951311849170477
0.09378907878283 0.005630395357301787 0.02686650189335194 0.9930935753872193 -0.06410809824783932 0.0015318971021810273 0.012878481471777137 -0.0013162072040238172 -0.008177343641992107
 0.9930935753872193 -0.06410809824783932 0.005631692042442841 0.026866294367863152 -0.0013168842893490076 -0.008177313201060741 0.0015263971724638092 0.012879189857738253
 0.0015318971021810273 0.012878481471777137 -0.0013168842893490076 -0.008177313201060741 0.0056299070819483665 0.026865283301504762 0.9930935252966899 -0.06410934381898564
 -0.0013162072040238172 -0.008177343641992107 0.0015263971724638092 0.012879189857738253 0.9930935252966899 -0.06410934381898564 0.005632077453325167 0.026865001067291932
0.100041684035 0.006043969362761759 0.028795717019780415 0.9925455741866692 -0.06849318522161371 0.0017089321111650976 0.0137379537703508 -0.0014663833301578506 -0.008726031899779788
 0.9925455741866692 -0.06849318522161371 0.006045443307335993 0.028795479832896934 -0.0014671513567550587 -0.008725992184596508 0.0017026772430440622 0.013738778937056013
 0.0017089321111650976 0.0137379537703508 -0.0014671513567550587 -0.008725992184596508 0.006043413987046439 0.028794419697792874 0.9925455175990653 -0.06849451303999256
 -0.0014663833301578506 -0.008726031899779788 0.0017026772430440622 0.013738778937056013 0.9925455175990653 -0.06849451303999256 0.006045882116575907 0.028794096388090468
0.1059090909091 0.006450195485584591 0.030619815812963355 0.9920076511019328 -0.07262024024658878 0.0018844784897848374 0.014543870962524654 -0.0016153214119395125 -0.009240555282944351
 0.9920076511019328 -0.07262024024658878 0.006451845944973165 0.030619548568398616 -0.001616179745343044 -0.00924050570452908 0.001877471435434362 0.014544816894014585
 0.0018844784897848374 0.014543870962524654 -0.001616179745343044 -0.00924050570452908 0.006449573193929484 0.030618445028608637 0.9920075880736098 -0.07262164513476656
 -0.0016153214119395125 -0.009240555282944351 0.001877471435434362 0.014544816894014585 0.9920075880736098 -0.07262164513476656 0.006452338003878206 0.03061807981979604
0.1062942892872 0.006477484923252684 0.030740027606306685 0.9919715278018281 -0.07289158933515011 0.0018963236962065346 0.01459675608245723 -0.0016253722598107657 -0.00927431854625131
 0.9919715278018281 -0.07289158933515011 0.006479147315040639 0.030739758311379234 -0.0016262366892268606 -0.009274268279671134 0.001889265780879768 0.014597710334209538
 0.0018963236962065346 0.01459675608245723 -0.0016262366892268606 -0.009274268279671134 0.006476858104767878 0.03073865201295219 0.9919714643391506 -0.07289299928006227
 -0.0016253722598107657 -0.00927431854625131 0.001889265780879768 0.014597710334209538 0.9919714643391506 -0.07289299928006227 0.006479642976171696 0.030738283936423944
0.11254689453939999 0.006931253675265351 0.032699119458039896 0.9913711306329263 -0.07730308274052729 0.002094145462203718 0.015454730033158507 -0.001793249746041351 -0.009822047171520229
 0.9913711306329263 -0.07730308274052729 0.006933115674872071 0.03269881552345599 -0.0017942159941087446 -0.00982198501123523 0.002086236511199841 0.015455826327345748
 0.002094145462203718 0.015454730033158507 -0.0017942159941087446 -0.00982198501123523 0.006930551067029137 0.032697666086357574 0.9913710599206498 -0.07730457468209867
 -0.001793249746041351 -0.009822047171520229 0.002086236511199841 0.015455826327345748 0.9913710599206498 -0.07730457468209867 0.0069336716367002635 0.032697249384107716
0.11879949979160001 0.007405584517408432 0.03467267693155015 0.9907440792310566 -0.08172742646207001 0.002302468211220182 0.016311713969374846 -0.0019700886800531293 -0.010369058693644904
 0.9907440792310566 -0.08172742646207001 0.007407657258794102 0.03467233573994111 -0.0019711621166845716 -0.010368983232315311 0.002293660369228782 0.016312965919181965
 0.002302468211220182 0.016311713969374846 -0.0019711621166845716 -0.010368983232315311 0.007404801768636543 0.034671146302779204 0.9907440008984542 -0.08172900026806691
 -0.0019700886800531293 -0.010369058693644904 0.002293660369228782 0.016312965919181965 0.9907440008984542 -0.08172900026806691 0.007408276965099109 0.03467067694665364
0.1250521050438 0.007900783482543543 0.03666038214797501 0.9900900724804513 -0.0861643711804414 0.002521359837951941 0.017167543050487382 -0.0021559589951126953 -0.010915191346884621
 0.9900900724804513 -0.0861643711804414 0.007903078072943525 0.03666000099561013 -0.002157144943967607 -0.010915101112246438 0.0025116053960353543 0.017168964927416458
 0.002521359837951941 0.017167543050487382 -0.002157144943967607 -0.010915101112246438 0.007899916238527501 0.03665877481569731 0.9900899861609562 -0.08616602671289622
 -0.0021559589951126953 -0.010915191346884621 0.0025116053960353543 0.017168964927416458 0.9900899861609562 -0.08616602671289622 0.007903764961785896 0.03665824860651298
0.131304710296 0.00841715360340832 0.03866191436936534 0.9894088117786857 -0.0906136578617351 0.00275088522582641 0.018022049330717313 -0.0023509275698078117 -0.011460280684900143
 0.9894088117786857 -0.0906136578617351 0.008419681123644116 0.03866149046530965 -0.002352231307990795 -0.011460174139944428 0.0027401366348722487 0.018023656066806414
 0.00275088522582641 0.018022049330717313 -0.002352231307990795 -0.011460174139944428 0.008416197505525549 0.03866023091983467 0.9894087171098759 -0.09061539497744496
 -0.0023509275698078117 -0.011460280684900143 0.0027401366348722487 0.018023656066806414 0.9894087171098759 -0.09061539497744496 0.008420438626401409 0.038659643485530665
0.1375573155481 0.008838567020189855 0.040416203416827765 0.9888164774532314 -0.09481414716857418 0.0029627207158826542 0.018849235081880307 -0.002526683027612585 -0.01197834177033453
 0.9888164774532314 -0.09481414716857418 0.00884134049037344 0.04041574648401066 -0.0025281124862001608 -0.011978218745077422 0.0029509452852242435 0.018851024934350268
 0.0029627207158826542 0.018849235081880307 -0.0025281124862001608 -0.011978218745077422 0.008837518468022795 0.04041444422704169 0.988816374065659 -0.09481596571772244
 -0.002526683027612585 -0.01197834177033453 0.0029509452852242435 0.018851024934350268 0.988816374065659 -0.09481596571772244 0.008842171284597607 0.040413804089369516
0.1438099208003 0.009274873503558418 0.04216089115749447 0.9882031856600222 -0.09900362011690228 0.003183102982072631 0.019672849973360145 -0.002709455890455454 -0.012493123383999494
 0.9882031856600222 -0.09900362011690228 0.009277904285880259 0.042160399363488706 -0.002711016757281035 -0.012492982359142405 0.003170256078090484 0.01967483676709791
 0.003183102982072631 0.019672849973360145 -0.002711016757281035 -0.012492982359142405 0.009273728267626789 0.04215905679178767 0.9882030731969395 -0.09900551994643295
 -0.002709455890455454 -0.012493123383999494 0.003170256078090484 0.01967483676709791 0.9882030731969395 -0.09900551994643295 0.009278811656552557 0.042158360531669534
0.1500625260525 0.009725914261016879 0.04389582089946975 0.9875690995627284 -0.10318196148868278 0.003411952709177513 0.02049280277733136 -0.002899168976885047 -0.013004539323380295
 0.9875690995627284 -0.10318196148868278 0.009729213709513004 0.04389529232346891 -0.0029008669269612254 -0.013004378718402224 0.0033979900231758784 0.020495000836920338
 0.003411952709177513 0.02049280277733136 -0.0029008669269612254 -0.013004378718402224 0.009724668115914903 0.04389391194342221 0.9875689776716091 -0.10318394244064466
 -0.002899168976885047 -0.013004539323380295 0.0033979900231758784 0.020495000836920338 0.9875689776716091 -0.10318394244064466 0.009730200926252602 0.04389315598986373
0.15631513130469998 0.010191529310084099 0.04562084064757097 0.9869143832238193 -0.10734905670807525 0.0036491896061619524 0.021309003889197094 -0.0030957441199702834 -0.013512505266821167
 0.9869143832238193 -0.10734905670807525 0.010195108770812774 0.04562027327983112 -0.0030975848152982994 -0.0135123234402302 0.0036340671612648287 0.02131142803201098
