! Created with skrf 1.8.0 (http://scikit-rf.org).
# GHz S RI R 50.0 
!freq ReS11 ImS11 ReS12 ImS12 ReS13 ImS13
! ReS14 ImS14
! ReS21 ImS21 ReS22 ImS22 ReS23 ImS23
! ReS24 ImS24
! ReS31 ImS31 ReS32 ImS32 ReS33 ImS33
! ReS34 ImS34
! ReS41 ImS41 ReS42 ImS42 ReS43 ImS43
! ReS44 ImS44
!
0.0 0.001834704377054 0.0 0.9981652955998 0.0 7.107609548849e-05 0.0 -7.107609470413e-05 8.704311187530696e-21
 0.9981652955998 0.0 0.001834704377081 0.0 -7.107609470531e-05 8.704311187675202e-21 7.107609548636e-05 0.0
 7.107609548849e-05 0.0 -7.107609470531e-05 8.704311187675202e-21 0.001834704380825 0.0 0.9981652956036 0.0
 -7.107609470413e-05 8.704311187530696e-21 7.107609548636e-05 0.0 0.9981652956036 0.0 0.001834704380792 0.0
0.005 0.0019749546997956235 0.001503292452199299 0.9979877238644169 -0.0038420066420811914 9.955726263990087e-05 0.0007632648304324717 -9.680908830902258e-05 -0.0004823633168356087
 0.9979877238644169 -0.0038420066420811914 0.0019749377343554744 0.0015033024334841492 -9.681011978757382e-05 -0.00048236416763423553 9.965727695921222e-05 0.0007632266988200467
 9.955726263990087e-05 0.0007632648304324717 -9.681011978757382e-05 -0.00048236416763423553 0.0019749542458961807 0.0015033600641530364 0.9979877242498052 -0.0038419395755799326
 -9.680908830902258e-05 -0.0004823633168356087 9.965727695921222e-05 0.0007632266988200467 0.9979877242498052 -0.0038419395755799326 0.001974938957843471 0.0015033689558193205
0.006252605252188 0.00201203759654556 0.0018849723072317413 0.997940438518884 -0.004803398563037944 0.00010782551846183185 0.0009544428786759895 -0.00010420227317761326 -0.0006035555106427059
 0.997940438518884 -0.004803398563037944 0.002012011075816884 0.0018849849794101304 -0.00010420387776159863 -0.0006035565605470956 0.00010798177931401251 0.0009543933233943525
 0.00010782551846183185 0.0009544428786759895 -0.00010420387776159863 -0.0006035565605470956 0.002012036808646675 0.001885056810741505 0.9979404390434063 -0.004803314748711242
 -0.00010420227317761326 -0.0006035555106427059 0.00010798177931401251 0.0009543933233943525 0.9979404390434063 -0.004803314748711242 0.002012012910995977 0.0018850681067835654
0.01250521050438 0.002208992187650113 0.003808861247563078 0.9976874707839573 -0.009607224929855506 0.00015593705443725487 0.0019091837718901166 -0.0001468354946726806 -0.0012098235541735522
 0.9976874707839573 -0.009607224929855506 0.002208886279514672 0.0038088885876126763 -0.00014684181219819546 -0.0012098255035624156 0.0001565601428877727 0.0019090640208300857
 0.00015593705443725487 0.0019091837718901166 -0.00014684181219819546 -0.0012098255035624156 0.002208988461790407 0.0038090300911340137 0.9976874723073148 -0.009607057550787656
 -0.0001468354946726806 -0.0012098235541735522 0.0001565601428877727 0.0019090640208300857 0.9976874723073148 -0.009607057550787656 0.002208893044007643 0.003809054516444493
0.01875781575657 0.002426058664128843 0.0057595232870024425 0.9974060350038223 -0.01442309321070761 0.0002155329211466069 0.0028647937703486248 -0.00019911833913568308 -0.001817912968806408
 0.9974060350038223 -0.01442309321070761 0.0024258206623345344 0.005759567494881277 -0.00019913241881723459 -0.0018179156353778808 0.00021693250813841964 0.0028645785868340835
 0.0002155329211466069 0.0028647937703486248 -0.00019913241881723459 -0.0018179156353778808 0.002426049857456447 0.005759776485734181 0.9974060380084875 -0.01442284237319311
 -0.00019911833913568308 -0.001817912968806408 0.00021693250813841964 0.0028645785868340835 0.9974060380084875 -0.01442284237319311 0.0024258354591354166 0.005759816016095885
0.02501042100875 0.0026637092536809306 0.00773415680469128 0.9970957581259469 -0.019253258059661348 0.0002867357535631043 0.0038212597557580586 -0.000261187521957467 -0.0024275073758379764
 0.9970957581259469 -0.019253258059661348 0.002663286541814291 0.007734220266378874 -0.00026121237340897695 -0.0024275105422979946 0.00028922152160279295 0.0038209194374881476
 0.0002867357535631043 0.0038212597557580586 -0.00026121237340897695 -0.0024275105422979946 0.0026636932094764964 0.007734494437383643 0.9970957630843588 -0.01925292384069837
 -0.000261187521957467 -0.0024275073758379764 0.00028922152160279295 0.0038209194374881476 0.9970957630843588 -0.01925292384069837 0.002663312467395711 0.007734551174199802
0.03126302626094 0.0029223964754620277 0.009731280191469047 0.996756250500034 -0.02409863656481107 0.00036966753890473275 0.0047784818023674834 -0.00033317498348004896 -0.0030383679254452753
 0.996756250500034 -0.02409863656481107 0.002921736496739294 0.009731365475923737 -0.00033321358328616227 -0.0030383713391809028 0.0003735494466867686 0.004777982154884885
 0.00036966753890473275 0.0047784818023674834 -0.00033321358328616227 -0.0030383713391809028 0.0029223710341357064 0.009731702385115823 0.9967562578860812 -0.024098219027458453
 -0.00033317498348004896 -0.0030383679254452753 0.0003735494466867686 0.004777982154884885 0.9967562578860812 -0.024098219027458453 0.0029217766533522 0.009731778552146367
0.037515631513130004 0.003202562191535748 0.011749897215553109 0.9963871153718405 -0.02895964282947839 0.00046444851624683224 0.005736324856624169 -0.00041520877149864413 -0.0036502816756915748
 0.9963871153718405 -0.02895964282947839 0.003201612427460448 0.011750007073935793 -0.00041526406662851216 -0.0036502850487464176 0.0004700369035311573 0.005735627150641938
 0.00046444851624683224 0.005736324856624169 -0.00041526406662851216 -0.0036502850487464176 0.003202525188315164 0.0117504041382268 0.996387125658568 -0.028959142030225576
 -0.00041520877149864413 -0.0036502816756915748 0.0004700369035311573 0.005735627150641938 0.996387125658568 -0.028959142030225576 0.003201669920511757 0.01175050208003496
0.043768236765320004 0.0035046410811473655 0.013789243063459097 0.9959879527988357 -0.03383644186711879 0.0005711966222405903 0.00669463448377728 -0.0005074133291728799 -0.004263045899293365
 0.9959879527988357 -0.03383644186711879 0.003503349034748343 0.013789380429298639 -0.0005074882389443722 -0.004263048908409233 0.0005788022468017536 0.006693695407616889
 0.0005711966222405903 0.00669463448377728 -0.0005074882389443722 -0.004263048908409233 0.0035045903454536858 0.013789834923301929 0.9959879664573225 -0.03383585785708196
 -0.0005074133291728799 -0.004263045899293365 0.0005788022468017536 0.006693695407616889 0.9959879664573225 -0.03383585785708196 0.003503426972304294 0.013789957104529545
0.050020842017509996 0.003829062221902424 0.01584867936201588 0.9955583616758776 -0.03872905451554823 0.0006900271354399057 0.007653243375334864 -0.0006099095660027177 -0.004876461633426427
 0.9955583616758776 -0.03872905451554823 0.0038273754026542407 0.01584884735205024 -0.0006100069834429827 -0.004876463920108699 0.0006999611732382282 0.007652014985615402
 0.0006900271354399057 0.007653243375334864 -0.0006100069834429827 -0.004876463920108699 0.003828995579073942 0.015849356402539285 0.99555837917671 -0.03872838734547989
 -0.0006099095660027177 -0.004876461633426427 0.0006999611732382282 0.007652014985615402 0.99555837917671 -0.03872838734547989 0.003827476895975977 0.015849505407922484
0.055454545454549996 0.004129468278357857 0.01765426891207405 0.9951600107863271 -0.042993671660581594 0.0008031941783272576 0.008486409352673113 -0.0007074312361459166 -0.0054099135707697575
 0.9951600107863271 -0.042993671660581594 0.004127395755121062 0.017654466189942975 -0.0007075505431044676 -0.005409914911169683 0.0008154046991000659 0.008484886970178705
 0.0008031941783272576 0.008486409352673113 -0.0007075505431044676 -0.005409914911169683 0.004129386042781361 0.01765502020422246 0.9951600320082666 -0.04299293226112728
 -0.0007074312361459166 -0.0054099135707697575 0.0008154046991000659 0.008484886970178705 0.9951600320082666 -0.04299293226112728 0.00412752024863127 0.017655194713433638
0.056273447269699996 0.0041762498711620365 0.017927642679455763 0.9950979409663956 -0.043637408877846076 0.0008210524055603524 0.008611974563711254 -0.000722814834314112 -0.005490330529361025
 0.9950979409663956 -0.043637408877846076 0.00417411578063078 0.017927844595013082 -0.0007229376269385126 -0.005490331699939376 0.0008336264286238563 0.008610404235611277
 0.0008210524055603524 0.008611974563711254 -0.0007229376269385126 -0.005490331699939376 0.004176165142758099 0.017928405182994954 0.9950979627798606 -0.04363665859480391
 -0.000722814834314112 -0.005490330529361025 0.0008336264286238563 0.008610404235611277 0.9950979627798606 -0.04363665859480391 0.004174243944587774 0.01792858371793395
0.06252605252188 0.004546623853565343 0.020025616223836137 0.9946062905465174 -0.04856136857396728 0.0009643816256495751 0.009570643204250807 -0.000846242856791113 -0.0061044531432710636
 0.9946062905465174 -0.04856136857396728 0.004543989972649217 0.02002585555279698 -0.0008463938672861389 -0.006104452768983012 0.000979907565097729 0.009568673581881392
 0.0009643816256495751 0.009570643204250807 -0.0008463938672861389 -0.006104452768983012 0.004546518857461105 0.020026464503342386 0.9946063171418913 -0.048560535229827596
 -0.000846242856791113 -0.0061044531432710636 0.000979907565097729 0.009568673581881392 0.9946063171418913 -0.048560535229827596 0.0045441479242754705 0.02002667539493263
0.06877865777407 0.004940599730511974 0.02214211295853953 0.9940830118352384 -0.05350074958527655 0.0011201206283505954 0.010529057656920011 -0.0009803036261143484 -0.006718627936726155
 0.9940830118352384 -0.05350074958527655 0.004937413505939991 0.022142393377869142 -0.0009804856727252704 -0.00671862555379379 0.0011389107266522726 0.010526626604249661
 0.0011201206283505954 0.010529057656920011 -0.0009804856727252704 -0.00671862555379379 0.004940472282148911 0.02214304736923224 0.9940830436813268 -0.05349983322528512
 -0.0009803036261143484 -0.006718627936726155 0.0011389107266522726 0.010526626604249661 0.9940830436813268 -0.05349983322528512 0.004937604365018596 0.02214329356802863
0.07503126302626001 0.005358588840124806 0.0242766649361433 0.9935277083016064 -0.058455330891463333 0.00128837169653619 0.011487020188417732 -0.0011251032872664636 -0.007332650666756076
 0.9935277083016064 -0.058455330891463333 0.0053547976720644905 0.02427699031489744 -0.0011253191640684139 -0.007332645776459358 0.0013107384517744 0.011484060740940542
 0.00128837169653619 0.011487020188417732 -0.0011253191640684139 -0.007332645776459358 0.005358436752197935 0.024277685865972773 0.9935277458662151 -0.05845433156401726
 -0.0011251032872664636 -0.007332650666756076 0.0013107384517744 0.011484060740940542 0.9935277458662151 -0.05845433156401726 0.005355024559944545 0.024277970448024957
0.08128386827845 0.005800998256528264 0.026428816189879013 0.9929399858958602 -0.06342486156160537 0.0014692333829482366 0.012444327460721022 -0.001280744008903498 -0.007946313999813883
 0.9929399858958602 -0.06342486156160537 0.005796549486013037 0.026429190592832278 -0.0012809964860293526 -0.00794630606856625 0.0014954894864790532 0.01244076777808578
 0.0014692333829482366 0.012444327460721022 -0.0012809964860293526 -0.00794630606856625 0.005800819340504318 0.02642992406192583 0.9929400296465838 -0.0634237793160462
 -0.001280744008903498 -0.007946313999813883 0.0014954894864790532 0.01244076777808578 0.9929400296465838 -0.0634237793160462 0.005796815525717764 0.026430250231746822
0.08753647353064001 0.006268230695593735 0.028598117842029525 0.9923194534325641 -0.06840906564061718 0.0016628003355600683 0.013400770888033884 -0.0014473238476027433 -0.008559407268071686
 0.9923194534325641 -0.06840906564061718 0.00626307159179405 0.028598545533826226 -0.0014476156713412141 -0.008559395727503614 0.0016932586043579714 0.0133965342078227
 0.0016628003355600683 0.013400770888033884 -0.0014476156713412141 -0.008559395727503614 0.006268022761934483 0.028599313116045192 0.9923195038364584 -0.06840790052595837
 -0.0014473238476027433 -0.008559407268071686 0.0016932586043579714 0.0133965342078227 0.9923195038364584 -0.06840790052595837 0.00626337990725782 0.028599684209800864
0.09378907878283 0.006760684381361159 0.030784124617678273 0.991665722938703 -0.07340764564321611 0.0018691631273118515 0.01435613691347954 -0.0016249366067508661 -0.009171716317008652
 0.991665722938703 -0.07340764564321611 0.006754762129209511 0.03078461006756741 -0.0016252704995676258 -0.009171700564046419 0.0019041364320313975 0.014351141506124297
 0.0018691631273118515 0.01435613691347954 -0.0016252704995676258 -0.009171700564046419 0.006760445239983369 0.030785407791172132 0.9916657804620678 -0.07340639770713046
 -0.0016249366067508661 -0.009171716317008652 0.0019041364320313975 0.014351141506124297 0.9916657804620678 -0.07340639770713046 0.006755115844918981 0.03078582728074788
0.100041684035 0.007278752887097767 0.03298639230303781 0.9909784099804402 -0.07842028511643655 0.0020884080893824836 0.015310207233028755 -0.001813671691711578 -0.009783023416940269
 0.9909784099804402 -0.07842028511643655 0.007272014574913036 0.032986940190209334 -0.0018140503523336074 -0.009783002813880415 0.0021282092782604874 0.015304366358112203
 0.0020884080893824836 0.015310207233028755 -0.0018140503523336074 -0.009783002813880415 0.007278480348475201 0.03298776390671615 0.9909784750892612 -0.0784189544101195
 -0.001813671691711578 -0.009783023416940269 0.0021282092782604874 0.015304366358112203 0.9909784750892612 -0.0784189544101195 0.007272416815211885 0.03298823540421934
0.1059090909091 0.0077885479838317945 0.03506737963396722 0.9903025577132734 -0.08313660568872701 0.002305935461133676 0.01620412414306702 -0.0020009708387300554 -0.010355561903058497
 0.9903025577132734 -0.08313660568872701 0.007780995666455712 0.03506799055978185 -0.0020013939424213347 -0.010355536137938378 0.0023505515494429176 0.016197406496300106
 0.002305935461133676 0.01620412414306702 -0.0020013939424213347 -0.010355536137938378 0.0077882421150361324 0.03506883473644499 0.9903026303636575 -0.08313519735694014
 -0.0020009708387300554 -0.010355561903058497 0.0023505515494429176 0.016197406496300106 0.9903026303636575 -0.08313519735694014 0.007781446282945464 0.035069358452504217
0.1062942892872 0.007822824955465792 0.03520447584572618 0.9902571339731415 -0.08344665057400814 0.0023206171462675502 0.01626275898652099 -0.002013613963373215 -0.010393107218897297
 0.9902571339731415 -0.08344665057400814 0.007815217562648134 0.03520509106523093 -0.002014040066660541 -0.010393081093504009 0.0023655589655960235 0.016255980850532706
 0.0023206171462675502 0.01626275898652099 -0.002014040066660541 -0.010393081093504009 0.007822516831187152 0.035205936449281064 0.9902572071329897 -0.08344523714652984
 -0.002013613963373215 -0.010393107218897297 0.0023655589655960235 0.016255980850532706 0.9902572071329897 -0.08344523714652984 0.00781567145137232 0.0352064637122265
0.11254689453939999 0.008393284304743431 0.037437927924071135 0.989501518480678 -0.0884863929758197 0.002565867653660673 0.017213564925389006 -0.0022248435892584825 -0.011001742745547246
 0.989501518480678 -0.0884863929758197 0.008384754689146491 0.0374386155933969 -0.002225319786274148 -0.011001710391095189 0.0026162626652049847 0.01720575264090334
 0.002565867653660673 0.017213564925389006 -0.002225319786274148 -0.011001710391095189 0.008392938407919655 0.03743947813099782 0.9895016001565724 -0.08848489687943488
 -0.0022248435892584825 -0.011001742745547246 0.0026162626652049847 0.01720575264090334 0.9895016001565724 -0.08848489687943488 0.008385263348666473 0.03744006506817341
0.11879949979160001 0.008990509422103958 0.03968629783343958 0.9887111915052273 -0.09353914890454725 0.0028242322378188504 0.018162393567400226 -0.0024474358945351465 -0.011608701406675541
 0.9887111915052273 -0.09353914890454725 0.008981004307703856 0.039687063299736966 -0.002447964812326388 -0.011608662082104319 0.0028803927332936093 0.018153445113965196
 0.0028242322378188504 0.018162393567400226 -0.002447964812326388 -0.011608662082104319 0.00899012356851175 0.03968793828649844 0.988711282161953 -0.09353757018947927
 -0.0024474358945351465 -0.011608701406675541 0.0028803927332936093 0.018153445113965196 0.988711282161953 -0.09353757018947927 0.008981570858884399 0.039688588964431025
0.1250521050438 0.009614873349212159 0.041949130639872975 0.9878857857709922 -0.09860454148985481 0.0030957786371035257 0.0191090093413274 -0.002681461212244127 -0.012213751036845143
 0.9878857857709922 -0.09860454148985481 0.009604339314070716 0.041949979487728356 -0.002682045453851397 -0.012213703966772913 0.0031580165499945603 0.019098817527944206
 0.0030957786371035257 0.0191090093413274 -0.002682045453851397 -0.012213703966772913 0.009614445357727382 0.04195086201791082 0.9878858858727162 -0.09860288020745885
 -0.002681461212244127 -0.012213751036845143 0.0031580165499945603 0.019098817527944206 0.9878858858727162 -0.09860288020745885 0.009604966874969405 0.041951580668058534
0.131304710296 0.010266743459723877 0.04422596650338316 0.9870249390027085 -0.10368218117769389 0.003380569545103922 0.020053172728133433 -0.0029269847340831837 -0.012816655948437611
 0.9870249390027085 -0.10368218117769389 0.010255126923473653 0.04422690456337157 -0.0029276268782708025 -0.01281660032331923 0.003449196360145143 0.020041625157537626
 0.003380569545103922 0.020053172728133433 -0.0029276268782708025 -0.01281660032331923 0.010266271153087264 0.04422778952281546 0.9870250490134712 -0.10368043737924554
 -0.0029269847340831837 -0.012816655948437611 0.003449196360145143 0.020041625157537626 0.9870250490134712 -0.10368043737924554 0.01025581860920283 0.04422858054935792
0.1375573155481 0.010807250109339667 0.0462214019940887 0.9862676024708029 -0.10847652280187874 0.003645114968949603 0.02096665256115135 -0.0031504464003813512 -0.013389274942697293
 0.9862676024708029 -0.10847652280187874 0.0107944948520979 0.046222417624933815 -0.003151150469731816 -0.013389210593157822 0.003720286517783716 0.020953754496900963
 0.003645114968949603 0.02096665256115135 -0.003151150469731816 -0.013389210593157822 0.010806732298443306 0.046223317014837687 0.986267722832426 -0.10847469658419702
 -0.0031504464003813512 -0.013389274942697293 0.003720286517783716 0.020953754496900963 0.986267722832426 -0.10847469658419702 0.010795252837542391 0.04622416816168679
0.1438099208003 0.011367075460530762 0.04820443729075096 0.9854830380287084 -0.11325677346862323 0.003920253080387529 0.02187527933355509 -0.0033827470314723804 -0.01395737365216899
 0.9854830380287084 -0.11325677346862323 0.011353127343445473 0.04820553543689177 -0.0033835158293781136 -0.013957299764838596 0.0040022521799174616 0.021860926877132092
 0.003920253080387529 0.02187527933355509 -0.0033835158293781136 -0.013957299764838596 0.011366510153753822 0.04820644501888389 0.9854831691986639 -0.11325486489682852
 -0.0033827470314723804 -0.01395737365216899 0.0040022521799174616 0.021860926877132092 0.9854831691986639 -0.11325486489682852 0.011353954571907715 0.04820735985396236
0.1500625260525 0.011945992268232047 0.050174849975493575 0.9846714781898809 -0.11802275635165936 0.004205868364949703 0.02277892406032561 -0.003623772893445579 -0.01452082952267939
 0.9846714781898809 -0.11802275635165936 0.011930797001794268 0.05017603587893596 -0.003624609217269678 -0.014520745250751527 0.004294975622061026 0.02276300953763028
 0.004205868364949703 0.02277892406032561 -0.003624609217269678 -0.014520745250751527 0.011945377489769789 0.05017695114467737 0.9846716206248424 -0.11802076549323223
 -0.003623772893445579 -0.01452082952267939 0.004294975622061026 0.02276300953763028 0.9846716206248424 -0.11802076549323223 0.011931696403352414 0.050177933481679184
0.15631513130469998 0.012543771312148884 0.05213242426610435 0.9838331570508579 -0.12277429659263883 0.004501843739409739 0.023677460442062506 -0.003873408663161076 -0.015079522991597783
 0.9838331570508579 -0.12277429659263883 0.012527274453127662 0.052133703474545566 -0.003874315304093425 -0.015079427454909911 0.004598337509841652 0.023659872452303086
