! Created with skrf 1.8.0 (http://scikit-rf.org).
# GHz S RI R 50.0 
!freq ReS11 ImS11 ReS12 ImS12 ReS13 ImS13
! ReS14 ImS14
! ReS21 ImS21 ReS22 ImS22 ReS23 ImS23
! ReS24 ImS24
! ReS31 ImS31 ReS32 ImS32 ReS33 ImS33
! ReS34 ImS34
! ReS41 ImS41 ReS42 ImS42 ReS43 ImS43
! ReS44 ImS44
!
0.0 0.001469595718074 0.0 0.9985304042644 0.0 5.691749007254e-05 0.0 -5.691748969519e-05 6.970382157071689e-21
 0.9985304042644 0.0 0.001469595718065 0.0 -5.691748969529e-05 6.970382157083935e-21 5.691749007283e-05 0.0
 5.691749007254e-05 0.0 -5.691748969529e-05 6.970382157083935e-21 0.001469595719236 0.0 0.9985304042655 0.0
 -5.691748969519e-05 6.970382157071689e-21 5.691749007283e-05 0.0 0.9985304042655 0.0 0.001469595719223 0.0
0.005 0.0015810503834786833 0.0011957951127813406 0.9983894266212167 -0.003078998620209425 8.055499726674067e-05 0.0006671435343848187 -7.808950873812189e-05 -0.0004117927013611614
 0.9983894266212167 -0.003078998620209425 0.0015810302093658497 0.0011958068449625288 -7.808844838294403e-05 -0.0004117918385218643 8.068941788796792e-05 0.0006670924765244305
 8.055499726674067e-05 0.0006671435343848187 -7.808844838294403e-05 -0.0004117918385218643 0.0015810508171347803 0.0011957275575611166 0.9983894262732828 -0.003079065686744503
 -7.808950873812189e-05 -0.0004117927013611614 8.068941788796792e-05 0.0006670924765244305 0.9983894262732828 -0.003079065686744503 0.0015810290921801598 0.001195740280482047
0.006252605252188 0.0016102267805074369 0.0014994867105321639 0.9983523000117313 -0.003849513495106659 8.725512912899515e-05 0.0008342392069805483 -8.404525697459781e-05 -0.0005152860043747003
 0.9983523000117313 -0.003849513495106659 0.0016101952447569476 0.0014995015907394633 -8.404360734907798e-05 -0.0005152849393810359 8.746515116414205e-05 0.0008341729067181046
 8.725512912899515e-05 0.0008342392069805483 -8.404360734907798e-05 -0.0005152849393810359 0.0016102275255637515 0.001499402268455848 0.9983522995342804 -0.0038495973274196163
 -8.404525697459781e-05 -0.0005152860043747003 8.746515116414205e-05 0.0008341729067181046 0.9983522995342804 -0.0038495973274196163 0.0016101935647396908 0.001499418397451297
0.01250521050438 0.0017634983665309205 0.0030307144574161352 0.9981560296620852 -0.007699926194559041 0.00012540011623322268 0.0016687557254590705 -0.00011771986659440592 -0.0010331466969907782
 0.9981560296620852 -0.007699926194559041 0.0017633724463008474 0.0030307463598087687 -0.00011771337008123427 -0.001033144714504229 0.00012623769894289362 0.0016685964867945793
 0.00012540011623322268 0.0016687557254590705 -0.00011771337008123427 -0.001033144714504229 0.001763501906106894 0.0030305458496468624 0.9981560283080617 -0.007700093628096453
 -0.00011771986659440592 -0.0010331466969907782 0.00012623769894289362 0.0016685964867945793 0.9981560283080617 -0.007700093628096453 0.0017633662890481642 0.0030305803676921967
0.01875781575657 0.0019297336504814177 0.0045840083525098855 0.9979413574078134 -0.011560628603544523 0.00017143966232725457 0.0025041631866925787 -0.00015804340876635675 -0.0015527890997981157
 0.9979413574078134 -0.011560628603544523 0.0019294507063918644 0.004584059523207114 -0.00015802892741934992 -0.0015527863728382978 0.00017332135332499032 0.0025038793688392375
 0.00017143966232725457 0.0025041631866925787 -0.00015802892741934992 -0.0015527863728382978 0.0019297420479792917 0.004583755742126432 0.9979413547822037 -0.01156087960297554
 -0.00015804340876635675 -0.0015527890997981157 0.00017332135332499032 0.0025038793688392375 0.9979413547822037 -0.01156087960297554 0.0019294372884760397 0.0045838110571388225
0.02501042100875 0.002109246912296867 0.006157191982347059 0.9977080384948018 -0.015433503421768859 0.00022546162947674177 0.0033405169161997306 -0.00020511465770465897 -0.002073973106934179
 0.9977080384948018 -0.015433503421768859 0.002108744430936131 0.006157264747743395 -0.00020508909291832003 -0.0020739698373265654 0.00022880423692039578 0.00334007205215108
 0.00022546162947674177 0.0033405169161997306 -0.00020508909291832003 -0.0020739698373265654 0.002109262238087763 0.006156855543902657 0.9977080341945066 -0.01543383802374637
 -0.00020511465770465897 -0.002073973106934179 0.00022880423692039578 0.00334007205215108 0.9977080341945066 -0.01543383802374637 0.0021087209699953585 0.006156934186259404
0.03126302626094 0.002302339375151301 0.0077491505164839535 0.9974558152908983 -0.01931936239396589 0.0002875542819091029 0.004177790753462946 -0.0002590296035465524 -0.002596534780528317
 0.9974558152908983 -0.01931936239396589 0.002301554932930703 0.007749247277926587 -0.00025898988932991147 -0.002596531199295203 0.0002927752665779864 0.0041771435205192504
 0.0002875542819091029 0.004177790753462946 -0.00025898988932991147 -0.002596531199295203 0.002302363714986528 0.0077487304569430785 0.9974558089100767 -0.019319780686460203
 -0.0002590296035465524 -0.002596534780528317 0.0002927752665779864 0.0041771435205192504 0.9974558089100767 -0.019319780686460203 0.002301518654174795 0.007748835074280606
0.037515631513130004 0.002509305806644585 0.009359161009772339 0.997184424085858 -0.023218615948162394 0.00035780549310154245 0.00501592660501241 -0.00031988221085514103 -0.003120336807889905
 0.997184424085858 -0.023218615948162394 0.002508177045014556 0.00935928424040607 -0.0003198253103222185 -0.003120333175342269 0.0003653231485242619 0.0050150307740982145
 0.00035780549310154245 0.00501592660501241 -0.0003198253103222185 -0.003120333175342269 0.002509341259175963 0.009358657588788503 0.9971844152104604 -0.023219118050307734
 -0.00031988221085514103 -0.003120336807889905 0.0003653231485242619 0.0050150307740982145 0.9971844152104604 -0.023219118050307734 0.0025081251782951733 0.009358790943389667
0.043768236765320004 0.0027304370676977424 0.010986688591497212 0.9968935978360096 -0.027131476939701842 0.0004363023777640325 0.005854849506917862 -0.00038776469107538726 -0.0036452534405862604
 0.9968935978360096 -0.027131476939701842 0.002728901672943018 0.010986840834031179 -0.0003876875943309595 -0.0036452500463197107 0.00044653591967483544 0.005853653885272295
 0.0004363023777640325 0.005854849506917862 -0.0003876875943309595 -0.0036452500463197107 0.0027304857478929463 0.01098610210868553 0.9968935860449523 -0.02713206301452739
 -0.00038776469107538726 -0.0036452534405862604 0.00044653591967483544 0.005853653885272295 0.9968935860449523 -0.02713206301452739 0.0027288314559849626 0.010986267075927713
0.050020842017509996 0.0029660212998737423 0.012631302243466504 0.9965830675494518 -0.031058044804857955 0.0005231310683382055 0.00669447385184986 -0.0004627676076483376 -0.004171164268354411
 0.9965830675494518 -0.031058044804857955 0.0029640169857421293 0.012631486108549533 -0.000462667330450779 -0.004171161431231232 0.0005365006762390292 0.006692922222911158
 0.0005231310683382055 0.00669447385184986 -0.000462667330450779 -0.004171161431231232 0.0029660853398342114 0.012630633041450753 0.9965830524126492 -0.03105871505616273
 -0.0004627676076483376 -0.004171164268354411 0.0005365006762390292 0.006692922222911158 0.9965830524126492 -0.03105871505616273 0.0029639256646606946 0.012630832608851374
0.055454545454549996 0.0031827109120589566 0.014074110002217831 0.9962969954568525 -0.03448150546970666 0.0006054203163308649 0.007424630280680438 -0.0005337991993107833 -0.004628912358705592
 0.9962969954568525 -0.03448150546970666 0.0031802485176236185 0.014074323520395608 -0.0005336763732340764 -0.004628910287424158 0.0006218572560153624 0.007422719667993569
 0.0006054203163308649 0.007424630280680438 -0.0005336763732340764 -0.004628910287424158 0.003182790046174706 0.014073369229276857 0.9962969770556015 -0.03448224906725295
 -0.0005337991993107833 -0.004628912358705592 0.0006218572560153624 0.007422719667993569 0.9962969770556015 -0.03448224906725295 0.003180136627718567 0.014073601378250356
0.056273447269699996 0.003216344537545543 0.014292633450247868 0.9962525630980572 -0.034998346842978686 0.0006183765565607751 0.00753470644126151 -0.0005449799049713703 -0.0046979511696244695
 0.9962525630980572 -0.034998346842978686 0.0032138090288106177 0.014292851615408298 -0.0005448534877848812 -0.004697949237748128 0.0006353033863310278 0.007532737503290538
 0.0006183765565607751 0.00753470644126151 -0.0005448534877848812 -0.004697949237748128 0.0032164260879141426 0.014291881919861376 0.996252544175394 -0.0349991015102181
 -0.0005449799049713703 -0.0046979511696244695 0.0006353033863310278 0.007532737503290538 0.996252544175394 -0.0349991015102181 0.0032136938595666888 0.014292119186633595
0.06252605252188 0.003481691038709862 0.0159703534755729 0.9959018137513561 -0.0389523608748624 0.0007221225667490746 0.008375448164128194 -0.0006344888990012349 -0.0052254966382571134
 0.9959018137513561 -0.0389523608748624 0.0034785620553406662 0.015970608684593855 -0.0006343334063096417 -0.005225495988914745 0.0007430287442093607 0.00837299546819906
 0.0007221225667490746 0.008375448164128194 -0.0006343334063096417 -0.005225495988914745 0.0034817922700679485 0.01596952005244148 0.9959017905916352 -0.03895320023639223
 -0.0006344888990012349 -0.0052254966382571134 0.0007430287442093607 0.00837299546819906 0.9959017905916352 -0.03895320023639223 0.003478420305486773 0.01596979822960431
0.06877865777407 0.003762343462220664 0.017664159813199923 0.9955305485603212 -0.042920028729648806 0.0008344514466523548 0.00921659499759754 -0.0007313802458123917 -0.0057536827915739865
 0.9955305485603212 -0.042920028729648806 0.0037585587042270004 0.017664454875802604 -0.0007311927656109881 -0.005753683831200401 0.0008597600476742957 0.009213586885411676
 0.0008344514466523548 0.00921659499759754 -0.0007311927656109881 -0.005753683831200401 0.003762466565810634 0.017663244977851628 0.9955305206995958 -0.04292095310245995
 -0.0007313802458123917 -0.0057536827915739865 0.0008597600476742957 0.009213586885411676 0.9955305206995958 -0.04292095310245995 0.0037583876540774924 0.017663567388646582
0.07503126302626001 0.004058582953184489 0.019373767586014973 0.9951384966523695 -0.04690126478692694 0.0009554440688226928 0.010058038648009037 -0.0008357378962822982 -0.006282390741623889
 0.9951384966523695 -0.04690126478692694 0.004054080085590149 0.019374105378087723 -0.000835515539776903 -0.0062823939057493 0.000985579089456518 0.010054398189764233
 0.0009554440688226928 0.010058038648009037 -0.000835515539776903 -0.0062823939057493 0.004058730142912357 0.01937277187197108 0.9951384636130585 -0.046902274518275576
 -0.0008357378962822982 -0.006282390741623889 0.000985579089456518 0.010054398189764233 0.9951384636130585 -0.046902274518275576 0.004053877030162413 0.019373141952747055
0.08128386827845 0.004370689173485452 0.021098903846599366 0.9947253874744295 -0.05089596162108316 0.001085179737502472 0.010899666974973132 -0.0009476440426963213 -0.006811500187196441
 0.9947253874744295 -0.05089596162108316 0.004365405811394963 0.0210992873108679 -0.0009473839440497976 -0.006811505940392831 0.0011205660563532007 0.010895311907483465
 0.001085179737502472 0.010899666974973132 -0.0009473839440497976 -0.006811505940392831 0.004370862686995832 0.02109782782823193 0.9947253487640575 -0.05089705710043624
 -0.0009476440426963213 -0.006811500187196441 0.0011205660563532007 0.010895311907483465 0.9947253487640575 -0.05089705710043624 0.004365168061829482 0.021098249129838268
0.08753647353064001 0.004698940292806045 0.022839303608194743 0.9942909509998924 -0.05490399391963661 0.0012237361003495726 0.011741364292791745 -0.0010671790584074758 -0.007340889132504049
 0.9942909509998924 -0.05490399391963661 0.0046928139861650234 0.02283973575526142 -0.0010668783744945066 -0.007340897968334957 0.0012647994345550712 0.011736206957954486
 0.0012237361003495726 0.011741364292791745 -0.0010668783744945066 -0.007340897968334957 0.004699142392528965 0.022838147907941187 0.9942909061098613 -0.05490517557108255
 -0.0010671790584074758 -0.007340889132504049 0.0012647994345550712 0.011736206957954486 0.9942909061098613 -0.05490517557108255 0.00469253887180817 0.02283862409746576
0.09378907878283 0.0050436129541895 0.02459470703093637 0.9938349179134546 -0.058925221250566984 0.001371189061925401 0.012583011587527676 -0.001194421433696959 -0.0078704336943903
 0.9938349179134546 -0.058925221250566984 0.0050365811728789785 0.02459519094090493 -0.0011940773440612502 -0.007870446135351926 0.0014183559180312155 0.012576958871308845
 0.001371189061925401 0.012583011587527676 -0.0011940773440612502 -0.007870446135351926 0.005043845928730423 0.024593472318992837 0.9938348663172134 -0.058926489532758274
 -0.001194421433696959 -0.0078704336943903 0.0014183559180312155 0.012576958871308845 0.9938348663172134 -0.058926489532758274 0.005036266042461034 0.02459400718206265
0.100041684035 0.005404982220517571 0.026364857351864012 0.9933570197792065 -0.06295949009063778 0.0015276126995891971 0.01342448668299766 -0.0013294477078099867 -0.00840000796489858
 0.9933570197792065 -0.06295949009063778 0.005396982339415823 0.02636539617619377 -0.001329057414569926 -0.008400024562354978 0.0015813103199489608 0.013417439954926828
 0.0015276126995891971 0.01342448668299766 -0.001329057414569926 -0.008400024562354978 0.005405248386265435 0.0263635443405214 0.9933569609317915 -0.06296084550188573
 -0.0013294477078099867 -0.00840000796489858 0.0015813103199489608 0.013417439954926828 0.9933569609317915 -0.06296084550188573 0.005396624563272211 0.02636414178393316
0.1059090909091 0.005759517906364454 0.028039140432843276 0.9928884388380594 -0.06675693770720403 0.0016826227344670093 0.014213853701769584 -0.0014633013223334596 -0.008896870250884592
 0.9928884388380594 -0.06675693770720403 0.005750552511252558 0.02803973372056522 -0.0014628651473388866 -0.008896891275898386 0.0017428379614022826 0.014205779529149632
 0.0016826227344670093 0.014213853701769584 -0.0014628651473388866 -0.008896891275898386 0.005759817351060468 0.028037754637334624 0.9928883726724897 -0.06675837536175223
 -0.0014633013223334596 -0.008896870250884592 0.0017428379614022826 0.014205779529149632 0.9928883726724897 -0.06675837536175223 0.005750152345882036 0.028038414469737486
0.1062942892872 0.005783321507380384 0.028149499321383012 0.9928569891989375 -0.06700663535184372 0.0016930791800065575 0.014265664369554867 -0.001472332399026652 -0.008929483915487433
 0.9928569891989375 -0.06700663535184372 0.005774290790835313 0.028150096285535463 -0.0014718931268263835 -0.008929505249617872 0.0017537354851332706 0.014257519422917407
 0.0016930791800065575 0.014265664369554867 -0.0014718931268263835 -0.008929505249617872 0.005783623209671481 0.02814810877237243 0.9928569225350677 -0.06700807842229729
 -0.001472332399026652 -0.008929483915487433 0.0017537354851332706 0.014257519422917407 0.9928569225350677 -0.06700807842229729 0.005773887762806213 0.028148772827349577
0.11254689453939999 0.006178902505829996 0.02994837802556502 0.9923345599622575 -0.07106648152722116 0.0018676586766227321 0.015106416508894726 -0.0016231479324119614 -0.009458731329722653
 0.9923345599622575 -0.07106648152722116 0.0061687780925504055 0.029949036431930105 -0.0016226569284124024 -0.009458758009454903 0.001935702204296103 0.015097063501632948
 0.0018676586766227321 0.015106416508894726 -0.0016226569284124024 -0.009458758009454903 0.006179242120140692 0.02994691074151501 0.9923344848952597 -0.0710680128267693
 -0.0016231479324119614 -0.009458731329722653 0.001935702204296103 0.015097063501632948 0.9923344848952597 -0.0710680128267693 0.006168327231669291 0.029947645567364577
0.11879949979160001 0.00659199509560776 0.031761237951756956 0.9917894671904617 -0.07513884359842053 0.0020514192877912237 0.01594661212216323 -0.0017819645660807656 -0.009987617757376072
 0.9917894671904617 -0.07513884359842053 0.006580713983265112 0.03176196118316142 -0.0017814191000614966 -0.009987650420305378 0.0021272791288130303 0.015935935518550198
 0.0020514192877912237 0.01594661212216323 -0.0017814191000614966 -0.009987650420305378 0.006592375029176756 0.031759694782089606 0.991789383110716 -0.0751404637301251
 -0.0017819645660807656 -0.009987617757376072 0.0021272791288130303 0.015935935518550198 0.991789383110716 -0.0751404637301251 0.006580212735366924 0.031760504670409445
0.1250521050438 0.007022867253093777 0.033587822265392725 0.9912214474771959 -0.07922352773743468 0.002244426955110154 0.016786117464835472 -0.0019488503164401293 -0.010516008486410721
 0.9912214474771959 -0.07922352773743468 0.007010366282423505 0.03358861378915412 -0.0019482476807159226 -0.010516047798743558 0.0023285326862455356 0.016773995978021337
 0.002244426955110154 0.016786117464835472 -0.0019482476807159226 -0.010516047798743558 0.0070232899459021095 0.03358620410172426 0.9912213537509823 -0.07922523734132239
 -0.0019488503164401293 -0.010516008486410721 0.0023285326862455356 0.016773995978021337 0.9912213537509823 -0.07922523734132239 0.007009812122593441 0.03358709348110108
0.131304710296 0.007471784952949341 0.03542787222262851 0.9906302390262091 -0.08332033187789721 0.0024467453821640397 0.0176247960965721 -0.0021238708821802437 -0.011043766524871648
 0.9906302390262091 -0.08332033187789721 0.007458000792011412 0.035428735595200544 -0.0021232083917749616 -0.011043813181362529 0.002539526996376193 0.017611102632006312
 0.0024467453821640397 0.0176247960965721 -0.0021232083917749616 -0.011043813181362529 0.007472252879403729 0.0354261800016208 0.9906301349939924 -0.083322131627266
 -0.0021238708821802437 -0.011043766524871648 0.002539526996376193 0.017611102632006312 0.9906301349939924 -0.083322131627266 0.007457391226409878 0.03542715344295073
0.1375573155481 0.007834734614805007 0.037039426401230986 0.9901198994465383 -0.08718723324589674 0.0026320655105054915 0.01843758117515222 -0.002280612805382817 -0.011545917374792231
 0.9901198994465383 -0.08718723324589674 0.007819598483683281 0.037040345278883426 -0.002279886352800411 -0.011545971395762966 0.0027337340726958197 0.018422338730495744
 0.0026320655105054915 0.01843758117515222 -0.002279886352800411 -0.011545971395762966 0.007835249323396866 0.03703766114960374 0.9901197846234149 -0.08718912358381348
 -0.002280612805382817 -0.011545917374792231 0.0027337340726958197 0.018422338730495744 0.9901197846234149 -0.08718912358381348 0.007818931643789113 0.037038702809566275
0.1438099208003 0.008210396439782768 0.03864268956647209 0.9895917204773563 -0.09104456606208491 0.002824865497705683 0.019247357312571788 -0.002443643538559108 -0.012045268752899983
 0.9895917204773563 -0.09104456606208491 0.008193843929842508 0.03864366633738907 -0.002442850215414057 -0.012045330821526107 0.0029358120107951884 0.019230450018252042
 0.002824865497705683 0.019247357312571788 -0.002442850215414057 -0.012045330821526107 0.008210960288050607 0.038640852309122044 0.989591594202128 -0.09104654765823003
 -0.002443643538559108 -0.012045268752899983 0.0029358120107951884 0.019230450018252042 0.989591594202128 -0.09104654765823003 0.008193117479882168 0.03864196556252286
0.1500625260525 0.008598641662360759 0.04023753438752674 0.989045834953503 -0.09489224172644414 0.00302508086004524 0.020054050560171455 -0.0026128993557694765 -0.012541748463385138
 0.989045834953503 -0.09489224172644414 0.008580608166847624 0.040238571619889994 -0.002612036258316394 -0.012541819290354446 0.003145694186914853 0.020035358314791106
 0.00302508086004524 0.020054050560171455 -0.002612036258316394 -0.012541819290354446 0.008599257030435061 0.04023562618954299 0.9890456965427789 -0.09489431527732424
 -0.0026128993557694765 -0.012541748463385138 0.003145694186914853 0.020035358314791106 0.9890456965427789 -0.09489431527732424 0.008579819808547055 0.04023681462944316
0.15631513130469998 0.008999340637600104 0.04182383741213631 0.9884823763531452 -0.09873017180891183 0.003232646373482724 0.0208575881813754 -0.0027883157631822574 -0.01303528581168257
