! Created with skrf 1.8.0 (http://scikit-rf.org).
# GHz S RI R 50.0 
!freq ReS11 ImS11 ReS12 ImS12 ReS13 ImS13
! ReS14 ImS14
! ReS21 ImS21 ReS22 ImS22 ReS23 ImS23
! ReS24 ImS24
! ReS31 ImS31 ReS32 ImS32 ReS33 ImS33
! ReS34 ImS34
! ReS41 ImS41 ReS42 ImS42 ReS43 ImS43
! ReS44 ImS44
!
0.0 0.001515410226027 0.0 0.998484589774 0.0 5.822692169176e-05 0.0 -5.822692192732e-05 7.130741356249527e-21
 0.998484589774 0.0 0.001515410226002 0.0 -5.822692192703e-05 7.130741356214012e-21 5.822692169074e-05 0.0
 5.822692169176e-05 0.0 -5.822692192703e-05 7.130741356214012e-21 0.001515410218118 0.0 0.9984845897661 0.0
 -5.822692192732e-05 7.130741356249527e-21 5.822692169074e-05 0.0 0.9984845897661 0.0 0.001515410218113 0.0
0.005 0.001630332148504383 0.0012431033194456053 0.9983392245876742 -0.0031743206568386638 8.103158062288194e-05 0.000621456050104108 -7.881261890179927e-05 -0.00039360486994082823
 0.9983392245876742 -0.0031743206568386638 0.001630346570134822 0.001243094815431595 -7.881391166241925e-05 -0.00039360577983882665 8.09337444253805e-05 0.0006214931673362498
 8.103158062288194e-05 0.000621456050104108 -7.881391166241925e-05 -0.00039360577983882665 0.001630332265389027 0.0012431704566130352 0.9983392249411914 -0.0031742535985290468
 -7.881261890179927e-05 -0.00039360486994082823 8.09337444253805e-05 0.0006214931673362498 0.9983392249411914 -0.0031742535985290468 0.0016303471554319686 0.001243161790683295
0.006252605252188 0.0016604458178268032 0.0015587572870909103 0.9983008985671895 -0.003968679560218055 8.753289156660525e-05 0.0007771318707113971 -8.46073340034184e-05 -0.0004925117392359728
 0.9983008985671895 -0.003968679560218055 0.0016604683624552204 0.001558746511116634 -8.460934631902064e-05 -0.0004925128593966608 8.738002966468966e-05 0.0007771800851505709
 8.753289156660525e-05 0.0007771318707113971 -8.460934631902064e-05 -0.0004925128593966608 0.0016604459341068346 0.0015588411981601225 0.9983008990530146 -0.0039685957386156444
 -8.46073340034184e-05 -0.0004925117392359728 8.738002966468966e-05 0.0007771800851505709 0.9983008990530146 -0.0039685957386156444 0.0016604692098995252 0.0015588302338032992
0.01250521050438 0.0018188143763905153 0.0031500815181534983 0.9980980351922757 -0.007938168870344724 0.0001247430386937653 0.0015546884301658676 -0.00011739231397352356 -0.0009874074152129086
 0.9980980351922757 -0.007938168870344724 0.0018189044102286892 0.003150058497852344 -0.00011740025253477359 -0.0009874094658791333 0.0001241334015373576 0.0015548044333868914
 0.0001247430386937653 0.0015546884301658676 -0.00011740025253477359 -0.0009874094658791333 0.0018188142704198271 0.003150248995305205 0.998098036555672 -0.007938001466871094
 -0.00011739231397352356 -0.0009874074152129086 0.0001241334015373576 0.0015548044333868914 0.998098036555672 -0.007938001466871094 0.0018189072070603574 0.0031502257386583697
0.01875781575657 0.0019908569657985536 0.004764006908661983 0.9978757507963268 -0.011918130141950681 0.00016994286969471272 0.0023331683379890816 -0.000156681223456639 -0.0014840051257049279
 0.9978757507963268 -0.011918130141950681 0.001991059298258032 0.004763970067370546 -0.00015669893825783412 -0.0014840078781208066 0.0001685732454079824 0.0023333754571293703
 0.00016994286969471272 0.0023331683379890816 -0.00015669893825783412 -0.0014840078781208066 0.0019908563171396366 0.0047642577309462055 0.9978757534378465 -0.011917879237588594
 -0.000156681223456639 -0.0014840051257049279 0.0001685732454079824 0.0023333754571293703 0.9978757534378465 -0.011917879237588594 0.001991065138566626 0.004764220744667675
0.02501042100875 0.002176904832660142 0.006398287063110467 0.9976337868160949 -0.015910496132128322 0.00022321926928875864 0.003112599480083932 -0.00020257039626758136 -0.0019820884494567547
 0.9976337868160949 -0.015910496132128322 0.0021772641967617115 0.006398234733394132 -0.00020260169516169606 -0.0019820916320942477 0.00022078624389465623 0.0031129246705516853
 0.00022321926928875864 0.003112599480083932 -0.00020260169516169606 -0.0019820916320942477 0.0021769033254571677 0.00639862102520238 0.9976337911339096 -0.015910161756544146
 -0.00020257039626758136 -0.0019820884494567547 0.00022078624389465623 0.0031129246705516853 0.9976337911339096 -0.015910161756544146 0.0021772741567955166 0.006398568781689018
0.03126302626094 0.0023772755226201107 0.008051768290729362 0.9973718713094298 -0.019916096801972632 0.0002846596156021716 0.0038929406543669366 -0.0002551535750881032 -0.0024815046985649375
 0.9973718713094298 -0.019916096801972632 0.002377836599417929 0.008051698718273662 -0.000255202230938523 -0.00248150799658356 0.0002808592920072236 0.003893414522950383
 0.0002846596156021716 0.0038929406543669366 -0.000255202230938523 -0.00248150799658356 0.0023772728495045897 0.008052185163382446 0.9973718777057113 -0.019915678972647063
 -0.0002551535750881032 -0.0024815046985649375 0.0002808592920072236 0.003893414522950383 0.9973718777057113 -0.019915678972647063 0.002377851743707948 0.008052116049087761
0.037515631513130004 0.0025922797654415364 0.009723700105429858 0.9970897260470364 -0.023935348755689128 0.0003543509206079523 0.004674123293902891 -0.0003145225536426795 -0.002982123188967853
 0.9970897260470364 -0.023935348755689128 0.0025930872013805893 0.009723611451052053 -0.00031459230793835416 -0.0029821262440182443 0.0003488787911975196 0.004674780137106461
 0.0003543509206079523 0.004674123293902891 -0.00031459230793835416 -0.0029821262440182443 0.0025922756214611003 0.00972419965833055 0.9970897349226352 -0.023934847454754972
 -0.0003145225536426795 -0.002982123188967853 0.0003488787911975196 0.004674780137106461 0.9970897349226352 -0.023934847454754972 0.0025931085774284542 0.009724111975944319
0.043768236765320004 0.0028222241288491006 0.011413525431794212 0.9967870693747073 -0.027968464964202477 0.0004323794230527107 0.0054560641575284756 -0.00038076740792780656 -0.0034838225474275683
 0.9967870693747073 -0.027968464964202477 0.002823322549027866 0.01141341577284223 -0.0003808619728320351 -0.0034838249575153187 0.00042493030806388686 0.005456942004653574
 0.0004323794230527107 0.0054560641575284756 -0.0003808619728320351 -0.0034838249575153187 0.002822218214778904 0.01141410740858502 0.9967870811342148 -0.027967880163139027
 -0.00038076740792780656 -0.0034838225474275683 0.00042493030806388686 0.005456942004653574 0.9967870811342148 -0.027967880163139027 0.0028233511918214133 0.011413999378637777
0.050020842017509996 0.0030674122549510497 0.013120793877836691 0.9964636176627647 -0.032015541420080416 0.0005188303454638934 0.006238670570675529 -0.0004539765766964198 -0.003986485471113764
 0.9964636176627647 -0.032015541420080416 0.0030688462754421774 0.013120661209033732 -0.0004540996363946615 -0.00398648679051488 0.000509098366098805 0.006239811228882779
 0.0005188303454638934 0.006238670570675529 -0.0004540996363946615 -0.00398648679051488 0.003067404275671002 0.013121457997913432 0.9964636327137122 -0.03201487307760465
 -0.0004539765766964198 -0.003986485471113764 0.000509098366098805 0.006239811228882779 0.9964636327137122 -0.03201487307760465 0.0030688832057622064 0.013121327759780596
0.055454545454549996 0.0032931020637631094 0.014618326696792543 0.996165419073928 -0.03554392902289007 0.0006008641477026261 0.00691924260146858 -0.0005233209056706219 -0.004424007372530434
 0.996165419073928 -0.03554392902289007 0.0032948639657122635 0.014618172339500362 -0.0005234716990080157 -0.004424007348092168 0.0005888993314893425 0.006920648571656396
 0.0006008641477026261 0.00691924260146858 -0.0005234716990080157 -0.004424007348092168 0.003293092051549346 0.014619061961483036 0.9961654373179039 -0.03554318803052769
 -0.0005233209056706219 -0.004424007372530434 0.0005888993314893425 0.006920648571656396 0.9961654373179039 -0.03554318803052769 0.0032949089156611923 0.014618910850171923
0.056273447269699996 0.0033281454971710736 0.014845119167791201 0.9961190861590224 -0.03607659963313827 0.0006137877205772507 0.007021842993830275 -0.000534236877543401 -0.004489996162713363
 0.9961190861590224 -0.03607659963313827 0.003329959735629634 0.014844961401854291 -0.0005343920889387183 -0.004489995901900435 0.000601466293128914 0.0070232920941141344
 0.0006137877205772507 0.007021842993830275 -0.0005343920889387183 -0.004489995901900435 0.0033281351595880098 0.014845865133469213 0.9961191049112997 -0.03607584768789231
 -0.000534236877543401 -0.004489996162713363 0.000601466293128914 0.0070232920941141344 0.9961191049112997 -0.03607584768789231 0.0033300059595846375 0.014845710746051071
0.06252605252188 0.003604723259332933 0.016586155755876537 0.9957531895484241 -0.040151609947678094 0.0007173342544275029 0.007805476441818301 -0.0006216334878390851 -0.004994238918214117
 0.9957531895484241 -0.040151609947678094 0.003606962345807391 0.0165859707236037 -0.0006218244811201003 -0.004994236543803041 0.0007021160983272468 0.007807283485338968
 0.0007173342544275029 0.007805476441818301 -0.0006218244811201003 -0.004994236543803041 0.003604710273240239 0.016586983246449954 0.9957532124163185 -0.040150774323874865
 -0.0006216334878390851 -0.004994238918214117 0.0007021160983272468 0.007807283485338968 0.9957532124163185 -0.040150774323874865 0.0036070188554861915 0.016586802688370733
0.06877865777407 0.0038974431779846656 0.01834358486905286 0.9953656423593361 -0.04424050543371704 0.0008295512086868128 0.008589461325625361 -0.0007162499068868116 -0.005499097295882316
 0.9953656423593361 -0.04424050543371704 0.0039001517650396147 0.018343370319329207 -0.0007164802857854937 -0.005499092230569144 0.0008111283643094555 0.008591679730169695
 0.0008295512086868128 0.008589461325625361 -0.0007164802857854937 -0.005499092230569144 0.003897427254953264 0.018344493533604903 0.9953656697614895 -0.04423958604822861
 -0.0007162499068868116 -0.005499097295882316 0.0008111283643094555 0.008591679730169695 0.9953656697614895 -0.04423958604822861 0.0039002195382161656 0.018344284703334653
0.07503126302626001 0.004206601208015374 0.020117105655629332 0.9949561592768099 -0.04834319067643307 0.0009505182944931447 0.009373683994262806 -0.0008181679060260276 -0.006004453589193463
 0.9949561592768099 -0.04834319067643307 0.004209823980841236 0.02011685925495424 -0.0008184412479333786 -0.006004445211721933 0.0009285821484280079 0.009376371140568489
 0.0009505182944931447 0.009373683994262806 -0.0008184412479333786 -0.006004445211721933 0.004206582060193817 0.02011809512281995 0.9949561916365548 -0.048342187428800955
 -0.0008181679060260276 -0.006004453589193463 0.0009285821484280079 0.009376371140568489 0.9949561916365548 -0.048342187428800955 0.0042099039803313336 0.020117855838204836
0.08128386827845 0.004532491648851616 0.021906429308925425 0.9945244554006034 -0.052459547594684415 0.0010803135740970725 0.010158027096002642 -0.0009274674703648636 -0.006510188484531611
 0.9945244554006034 -0.052459547594684415 0.0045362733351420985 0.021906148640719533 -0.0009277873263450918 -0.006510176129647881 0.0010545548899219665 0.010161244373897699
 0.0010803135740970725 0.010158027096002642 -0.0009277873263450918 -0.006510176129647881 0.004532468988147435 0.021907499182563385 0.9945244931460528 -0.052458460371414356
 -0.0009274674703648636 -0.006510188484531611 0.0010545548899219665 0.010161244373897699 0.9945244931460528 -0.052458460371414356 0.0045363665085271804 0.021907227180270727
0.08753647353064001 0.004875407130950306 0.023711274993414265 0.9940702464661144 -0.0565894394616789 0.0012190133664865366 0.010942369834460923 -0.0010442267354515847 -0.007016180828367574
 0.9940702464661144 -0.0565894394616789 0.004879792511029197 0.02371095755692332 -0.0010445966301739042 -0.007016163786801709 0.001189122320348218 0.010946182688619726
 0.0012190133664865366 0.010942369834460923 -0.0010445966301739042 -0.007016163786801709 0.004875380668755604 0.02371242485107343 0.9940702900314323 -0.05658826813757402
 -0.0010442267354515847 -0.007016180828367574 0.001189122320348218 0.010946182688619726 0.9940702900314323 -0.05658826813757402 0.004879899790784005 0.02371211778545371
0.09378907878283 0.005235638574861495 0.02553136693704275 0.9935932490420365 -0.060732713764220674 0.001366692156428461 0.011726588155560666 -0.001168521919748917 -0.007522307467993388
 0.9935932490420365 -0.060732713764220674 0.0052406724915411255 0.025531010146030084 -0.0011689453513000498 -0.007522284986435881 0.00133235837645211 0.011731066130900553
 0.001366692156428461 0.011726588155560666 -0.0011689453513000498 -0.007522284986435881 0.005235608021014623 0.025532596334272725 0.9935932988678225 -0.060731458198115935
 -0.001168521919748917 -0.007522307467993388 0.00133235837645211 0.011731066130900553 0.9935932988678225 -0.060731458198115935 0.005240794794866826 0.025532251776127637
0.100041684035 0.005613475131102063 0.027366432306992976 0.9930931807123081 -0.06488920428387547 0.001523422505584958 0.012510554891203616 -0.001300427254069911 -0.008028443140122516
 0.9930931807123081 -0.06488920428387547 0.005619202500009642 0.027366033487974877 -0.0013009076938648827 -0.008028414421209194 0.001484335114433743 0.012515771677797162
 0.001523422505584958 0.012510554891203616 -0.0013009076938648827 -0.008028414421209194 0.00561344019326743 0.0273677407692076 0.9930932372454714 -0.06488786432665178
 -0.001300427254069911 -0.008028443140122516 0.001484335114433743 0.012515771677797162 0.9930932372454714 -0.06488786432665178 0.00561934072770206 0.027367356204100805
0.1059090909091 0.005984302274812034 0.029101822823168432 0.9926026863546422 -0.06880149107245075 0.0016787924808575436 0.013245879795437393 -0.0014311920843499285 -0.008503292498104392
 0.9926026863546422 -0.06880149107245075 0.005990721298956794 0.029101382054342834 -0.0014317291534576434 -0.008503257161659686 0.0016349611802823907 0.013251860629731979
 0.0016787924808575436 0.013245879795437393 -0.0014317291534576434 -0.008503257161659686 0.005984262954194759 0.029103205028767114 0.9926027495948914 -0.06880007177272122
 -0.0014311920843499285 -0.008503292498104392 0.0016349611802823907 0.013251860629731979 0.9926027495948914 -0.06880007177272122 0.0059908752750236155 0.02910278055675544
0.1062942892872 0.006009204104655542 0.02921619959754459 0.9925697602447279 -0.0690587326710308 0.001689274964661029 0.013294139873286833 -0.0014400149090912089 -0.008534460393899048
 0.9925697602447279 -0.0690587326710308 0.006015669924224428 0.02921575598777846 -0.001440555801501197 -0.008534424596214491 0.0016451226253416033 0.01330017335066686
 0.001689274964661029 0.013294139873286833 -0.001440555801501197 -0.008534424596214491 0.006009164487163278 0.029217586628254733 0.9925698239395171 -0.0690573081574832
 -0.0014400149090912089 -0.008534460393899048 0.0016451226253416033 0.01330017335066686 0.9925698239395171 -0.0690573081574832 0.0060158249611515285 0.029217159454424
0.11254689453939999 0.006423110868859995 0.03108039741615562 0.9920227077534247 -0.07324110962653287 0.0018643179871878543 0.014077210026244754 -0.0015873549206280315 -0.009040229540076135
 0.9920227077534247 -0.07324110962653287 0.006430360230418023 0.03107990616121121 -0.0015879596827463689 -0.009040185778160858 0.001814788951032728 0.01408414230719674
 0.0018643179871878543 0.014077210026244754 -0.0015879596827463689 -0.009040185778160858 0.006423066272127201 0.03108186249255009 0.9920227790716118 -0.0732396003796947
 -0.0015873549206280315 -0.009040229540076135 0.001814788951032728 0.01408414230719674 0.9920227790716118 -0.0732396003796947 0.006430532944807348 0.031081390018555706
0.11879949979160001 0.006855478770566577 0.032958753527582006 0.9914517448546325 -0.07743613583075462 0.0020486178433265735 0.014859629448299612 -0.0017425151139643675 -0.009545618616502605
 0.9914517448546325 -0.07743613583075462 0.006863556868483844 0.032958211678617344 -0.0017431871352744598 -0.00954556596087337 0.0019934000006832583 0.014867546921962155
 0.0020486178433265735 0.014859629448299612 -0.0017431871352744598 -0.00954556596087337 0.006855428890306016 0.03296029610234275 0.991451824266475 -0.07743454166026267
 -0.0017425151139643675 -0.009545618616502605 0.0019934000006832583 0.014867546921962155 0.991451824266475 -0.07743454166026267 0.0068637481118955625 0.0329597755442818
0.1250521050438 0.007306589027780707 0.03485099410554721 0.9908565948186341 -0.08164360267121895 0.0022422385348477214 0.015641259480205272 -0.0019055610266919545 -0.0100504933710831
 0.9908565948186341 -0.08164360267121895 0.007315541170295299 0.03485039861605435 -0.0019063036687472356 -0.010050430848246614 0.0021810194677594104 0.01565025285446974
 0.0022422385348477214 0.015641259480205272 -0.0019063036687472356 -0.010050430848246614 0.007306533554086483 0.03485261360461997 0.9908566828029498 -0.0816419233755941
 -0.0019055610266919545 -0.0100504933710831 0.0021810194677594104 0.01565025285446974 0.9908566828029498 -0.0816419233755941 0.007315751776790219 0.03485204208295658
0.131304710296 0.007776720622339481 0.03675684313187496 0.9902369827184473 -0.08586329282860593 0.002445241710099404 0.01642195877090376 -0.0020765558310479877 -0.01055471725288433
 0.9902369827184473 -0.08586329282860593 0.007786592241704596 0.03675619085423964 -0.002077372427062515 -0.010554643845405505 0.0023777087470541847 0.016432123114089522
 0.002445241710099404 0.01642195877090376 -0.002077372427062515 -0.010554643845405505 0.0077766592389303885 0.03675853895540765 0.9902370797633135 -0.08586152819443822
 -0.0020765558310479877 -0.01055471725288433 0.0023777087470541847 0.016432123114089522 0.9902370797633135 -0.08586152819443822 0.007786823027782047 0.03675791349139433
0.1375573155481 0.008157615695428453 0.03842846046579296 0.9897012102431795 -0.08984731492574952 0.0026320986971712654 0.01717708367864606 -0.0022300548772791135 -0.01103360684066745
 0.9897012102431795 -0.08984731492574952 0.008168454696921405 0.03842776117184179 -0.0022309501200667246 -0.011033522457389911 0.0025581003927945874 0.01718840372905584
 0.0026320986971712654 0.01717708367864606 -0.0022309501200667246 -0.011033522457389911 0.008157547155718653 0.03843023265182484 0.9897013167643048 -0.08984546484023982
 -0.0022300548772791135 -0.01103360684066745 0.0025581003927945874 0.01718840372905584 0.9897013167643048 -0.08984546484023982 0.008168707538376825 0.03842956207739761
0.1438099208003 0.008551902193710945 0.040091414912713244 0.9891466215899407 -0.09382135949313894 0.0028265038610127855 0.01792913374604029 -0.0023896867231759625 -0.011509707085697119
 0.9891466215899407 -0.09382135949313894 0.008563754524030312 0.04009066614192918 -0.002390664150399643 -0.011509610732071343 0.0027457563197253116 0.017941696347944014
 0.0028265038610127855 0.01792913374604029 -0.002390664150399643 -0.011509610732071343 0.00855182600387292 0.0400932629021695 0.9891467380733443 -0.09381942374991352
 -0.0023896867231759625 -0.011509707085697119 0.0027457563197253116 0.017941696347944014 0.9891467380733443 -0.09381942374991352 0.008564030404516414 0.040092544806227044
0.1500625260525 0.00895944302011895 0.041745571192477134 0.9885733578000206 -0.09778533121960117 0.00302839091744544 0.018678031844116164 -0.002555387574808464 -0.01198294637013403
 0.9885733578000206 -0.09778533121960117 0.008972354751081072 0.041744770325729805 -0.0025564507134700314 -0.011982837012038826 0.0029406118681118486 0.01869192701576244
 0.00302839091744544 0.018678031844116164 -0.0025564507134700314 -0.011982837012038826 0.008959358669112164 0.041747494407975025 0.9885734847397818 -0.09778330960333398
 -0.002555387574808464 -0.01198294637013403 0.0029406118681118486 0.01869192701576244 0.9885734847397818 -0.09778330960333398 0.008972654650132503 0.04174672621836007
0.15631513130469998 0.009380100128891867 0.04339079812192792 0.9879815606040546 -0.1017391350631914 0.0032376928049574656 0.019423702135704254 -0.002727092862087997 -0.012453254577017231
