! Created with skrf 1.8.0 (http://scikit-rf.org).
# GHz S RI R 50.0 
!freq ReS11 ImS11 ReS12 ImS12 ReS13 ImS13
! ReS14 ImS14
! ReS21 ImS21 ReS22 ImS22 ReS23 ImS23
! ReS24 ImS24
! ReS31 ImS31 ReS32 ImS32 ReS33 ImS33
! ReS34 ImS34
! ReS41 ImS41 ReS42 ImS42 ReS43 ImS43
! ReS44 ImS44
!
0.0 0.001510118292788 0.0 0.9984898816959 0.0 5.818050136605e-05 0.0 -5.81805018986e-05 7.1250565422907e-21
 0.9984898816959 0.0 0.001510118292798 0.0 -5.818050189962e-05 7.125056542415613e-21 5.818050136633e-05 0.0
 5.818050136605e-05 0.0 -5.818050189962e-05 7.125056542415613e-21 0.001510118295656 0.0 0.9984898816987 0.0
 -5.81805018986e-05 7.1250565422907e-21 5.818050136633e-05 0.0 0.9984898816987 0.0 0.001510118295613 0.0
0.005 0.001624656385460123 0.0012356771827202197 0.998344986620352 -0.0031634296273360565 8.145631386218074e-05 0.0006396545002495292 -7.909211963766721e-05 -0.00040176711154357286
 0.998344986620352 -0.0031634296273360565 0.0016246783834665147 0.001235664292246872 -7.909229010928148e-05 -0.00040176717617425284 8.132842392847328e-05 0.0006397032837787963
 8.145631386218074e-05 0.0006396545002495292 -7.909229010928148e-05 -0.00040176717617425284 0.0016246569906088928 0.0012357440555552305 0.9983449869790839 -0.003163362554021804
 -7.909211963766721e-05 -0.00040176711154357286 8.132842392847328e-05 0.0006397032837787963 0.9983449869790839 -0.003163362554021804 0.0016246784874986936 0.001235731557694513
0.006252605252188 0.0016546649255235499 0.0015494604413749482 0.9983067874996411 -0.003955065022927012 8.809853744949033e-05 0.0007998798398737892 -8.498110666324432e-05 -0.000502729623250918
 0.9983067874996411 -0.003955065022927012 0.001654699312338484 0.0015494440364585112 -8.498137244892216e-05 -0.0005027297015338987 8.7898721975507e-05 0.0007999431619556874
 8.809853744949033e-05 0.0007998798398737892 -8.498137244892216e-05 -0.0005027297015338987 0.001654665795400069 0.001549543992482975 0.9983067879840827 -0.00395498121097659
 -8.498110666324432e-05 -0.000502729623250918 8.7898721975507e-05 0.0007999431619556874 0.9983067879840827 -0.00395498121097659 0.0016546993981023065 0.0015495280908295048
0.01250521050438 0.0018124543263556268 0.003131413798539467 0.9981046127909087 -0.00791096055296122 0.00012614950150303527 0.001600125830121268 -0.00011831313698448325 -0.0010079129235472338
 0.9981046127909087 -0.00791096055296122 0.0018125916370663035 0.0031313780354011783 -0.00011831419089122877 -0.00100791305193271 0.0001253527068633796 0.0016002777269647991
 0.00012614950150303527 0.001600125830121268 -0.00011831419089122877 -0.00100791305193271 0.0018124572355032828 0.0031315805566244866 0.9981046141572045 -0.007910793140463692
 -0.00011831313698448325 -0.0010079129235472338 0.0001253527068633796 0.0016002777269647991 0.9981046141572045 -0.007910793140463692 0.0018125913998417013 0.00313154593257366
0.01875781575657 0.001983825889140039 0.0047359244048783885 0.9978831100010288 -0.011877319833834181 0.00017242002526573802 0.0024012733274342505 -0.00015827799634719 -0.0015148280366277063
 0.9978831100010288 -0.011877319833834181 0.001984134440179836 0.004735866101520667 -0.00015828035558818526 -0.0015148281793351173 0.0001706301655150019 0.00240154393912899
 0.00017242002526573802 0.0024012733274342505 -0.00015828035558818526 -0.0015148281793351173 0.0019838320143318773 0.004736174094341309 0.9978831126534821 -0.01187706888618095
 -0.00015827799634719 -0.0015148280366277063 0.0001706301655150019 0.00240154393912899 0.9978831126534821 -0.01187706888618095 0.001984133465152764 0.004736117720285449
0.02501042100875 0.002169109246413535 0.006360752805539947 0.9976420219337914 -0.015856069883867424 0.00022699838735018072 0.00320335656006778 -0.00020497392391241124 -0.002023248876578002
 0.9976420219337914 -0.015856069883867424 0.00216965721915519 0.006360668572538088 -0.00020497810242773145 -0.0020232489898791405 0.00022381925255514161 0.0032037807355226084
 0.00022699838735018072 0.00320335656006778 -0.00020497810242773145 -0.0020232489898791405 0.0021691197606432578 0.006361085132830947 0.99764202627414 -0.015855735406740023
 -0.00020497392391241124 -0.002023248876578002 0.00022381925255514161 0.0032037807355226084 0.99764202627414 -0.015855735406740023 0.00216965507379186 0.006361003795548268
0.03126302626094 0.002368620374132205 0.008004748979887887 0.9973810780697643 -0.019848038250134335 0.00028997348480576027 0.004006336309250379 -0.0002584964634953405 -0.0025330173668788557
 0.9973810780697643 -0.019848038250134335 0.002369475850323152 0.008004635224179085 -0.00025850297252012224 -0.0025330173989924257 0.00028500836761551096 0.004006953631772809
 0.00028997348480576027 0.004006336309250379 -0.00025850297252012224 -0.0025330173989924257 0.002368636454304536 0.008005163610202598 0.9973810845060213 -0.019847620212330386
 -0.0002584964634953405 -0.0025330173668788557 0.00028500836761551096 0.004006953631772809 0.9973810845060213 -0.019847620212330386 0.002369472092064523 0.008005053915091495
0.037515631513130004 0.002582668451416206 0.009667164917205916 0.99710000162877 -0.02385364037272913 0.00036143389653628123 0.004810144342962237 -0.00031893915404370706 -0.0030439989978346196
 0.99710000162877 -0.02385364037272913 0.002583899436535665 0.00966701784363377 -0.0003189485023219307 -0.0030439988888610954 0.0003542854232759474 0.0048109991768831226
 0.00036143389653628123 0.004810144342962237 -0.0003189485023219307 -0.0030439988888610954 0.002582691273681016 0.009667661467934146 0.9971000105727019 -0.02385313871223379
 -0.00031893915404370706 -0.0030439989978346196 0.0003542854232759474 0.0048109991768831226 0.9971000105727019 -0.02385313871223379 0.002583893608608897 0.00966751984082293
0.043768236765320004 0.002811558506842835 0.011347445443422602 0.9967985124231524 -0.02787308868842256 0.00044146745016538074 0.005614696931160276 -0.00038639377382237885 -0.003556069308155795
 0.9967985124231524 -0.02787308868842256 0.002813232947827379 0.011347261055605462 -0.0003864064676804224 -0.003556068990014153 0.0004317374991915073 0.005615838475026771
 0.00044146745016538074 0.005614696931160276 -0.0003864064676804224 -0.003556068990014153 0.0028115892446065414 0.011348023482761049 0.9967985242900337 -0.027872503313464084
 -0.00038639377382237885 -0.003556069308155795 0.0004317374991915073 0.005615838475026771 0.9967985242900337 -0.027872503313464084 0.002813224577774323 0.01134784617117093
0.050020842017509996 0.0030555926496291484 0.013045141761739881 0.9964763283007463 -0.03190647901867505 0.0005301609618565476 0.006419900426717096 -0.00046095043024852253 -0.004069108304076501
 0.9964763283007463 -0.03190647901867505 0.0030577784503413807 0.013044915862249712 -0.0004609669735946306 -0.004069107700447114 0.0005174506283535885 0.006421382769197822
 0.0005301609618565476 0.006419900426717096 -0.0004609669735946306 -0.004069107700447114 0.0030556324746206323 0.013045800801118864 0.9964763435124817 -0.03190580981475639
 -0.00046095043024852253 -0.004069108304076501 0.0005174506283535885 0.006421382769197822 0.9964763435124817 -0.03190580981475639 0.0030577670516807446 0.013045583874804655
0.055454545454549996 0.0032801974756823337 0.014534335027313845 0.9961793137507834 -0.035422958196816186 0.0006143377878871846 0.0071200971189886615 -0.0005315788862456388 -0.004515649571251349
 0.9961793137507834 -0.035422958196816186 0.0032828827869662647 0.014534069487832696 -0.0005315991822564478 -0.004515648651108591 0.0005987128381108024 0.007121923393278635
 0.0006143377878871846 0.0071200971189886615 -0.0005315991822564478 -0.004515648651108591 0.0032802461457476255 0.014535064019065605 0.996179332215964 -0.035422216030320995
 -0.0005315788862456388 -0.004515649571251349 0.0005987128381108024 0.007121923393278635 0.996179332215964 -0.035422216030320995 0.003282868348393545 0.014534809336563231
0.056273447269699996 0.0033150707042272493 0.014759869018947382 0.9961331659945528 -0.03595383293269654 0.0006276000552232105 0.007225653998854068 -0.0005426975780795258 -0.004582997729308473
 0.9961331659945528 -0.03595383293269654 0.003317835739606828 0.014759597209138638 -0.00054271847238727 -0.004582996755583878 0.0006115096438505972 0.0072275361758469495
 0.0006276000552232105 0.007225653998854068 -0.00054271847238727 -0.004582996755583878 0.0033151207838194325 0.014760608515984165 0.996133184978522 -0.0359530797592555
 -0.0005426975780795258 -0.004582997729308473 0.0006115096438505972 0.0072275361758469495 0.996133184978522 -0.0359530797592555 0.003317820809554603 0.01476034786708068
0.06252605252188 0.0035902905484057313 0.016491282974555547 0.995768741679782 -0.04001512101002041 0.0007338690166445156 0.008031851145945502 -0.000631722004063592 -0.005097619559171426
 0.995768741679782 -0.04001512101002041 0.0035937026775307327 0.016490960653892658 -0.0006317477482894184 -0.0050976181224024215 0.0007139980527437334 0.008034197198198013
 0.0007338690166445156 0.008031851145945502 -0.0006317477482894184 -0.0050976181224024215 0.003590352045718736 0.016492102333373705 0.9957687648716368 -0.04001428369985219
 -0.000631722004063592 -0.005097619559171426 0.0007139980527437334 0.008034197198198013 0.9957687648716368 -0.04001428369985219 0.003593683697761339 0.016491793676154283
0.06877865777407 0.003881548295498837 0.018239066099652448 0.9953827713799474 -0.044090276676808926 0.0008490506739528841 0.008838380592096186 -0.0007281087892505619 -0.005612855114807009
 0.9953827713799474 -0.044090276676808926 0.0038856753743046865 0.01823868846479014 -0.0007281398797766997 -0.005612853113661371 0.0008249979277191441 0.00884125962289405
 0.0008490506739528841 0.008838380592096186 -0.0007281398797766997 -0.005612853113661371 0.0038816223675558043 0.018239964663452766 0.9953827992230851 -0.044089355043037536
 -0.0007281087892505619 -0.005612855114807009 0.0008249979277191441 0.00884125962289405 0.9953827992230851 -0.044089355043037536 0.0038856518095407985 0.018239603533641253
0.07503126302626001 0.00418913837997015 0.020002918742590307 0.9949749712781787 -0.0481792049789413 0.0009732262866878573 0.00964512686330473 -0.0008319412597426503 -0.006128584501801834
 0.9949749712781787 -0.0481792049789413 0.004194048273540118 0.020002480785921463 -0.0008319781902457615 -0.006128581826516477 0.0009445898070926723 0.009648613096015377
 0.0009732262866878573 0.00964512686330473 -0.0008319781902457615 -0.006128581826516477 0.004189226176047898 0.020003895801895842 0.9949750042247196 -0.04817819880657533
 -0.0008319412597426503 -0.006128584501801834 0.0009445898070926723 0.009648613096015377 0.9949750042247196 -0.04817819880657533 0.004194019570639757 0.020003477555663254
0.08128386827845 0.004513353581870103 0.02178255327986165 0.9945450579729834 -0.052281788374329674 0.0011064754447739512 0.01045197067058958 -0.0009433009285174244 -0.006644686246077766
 0.9945450579729834 -0.052281788374329674 0.00451911417651414 0.021782049787753364 -0.0009433441898438529 -0.006644682778420927 0.0010728526011003396 0.010456143505841306
 0.0011064754447739512 0.01045197067058958 -0.0009433441898438529 -0.006644682778420927 0.004513456243050687 0.02178360806631824 0.9945450964850707 -0.05228069742616176
 -0.0009433009285174244 -0.006644686246077766 0.0010728526011003396 0.010456143505841306 0.9945450964850707 -0.05228069742616176 0.00451907976483546 0.021783127878796143
0.08753647353064001 0.004854485015444644 0.023577690051589592 0.9940927486999825 -0.05639789074508178 0.0012488759717711403 0.011258789184334308 -0.001062267431961425 -0.007161037042893697
 0.9940927486999825 -0.05639789074508178 0.004861164231088215 0.023577115602215953 -0.0010623175120545952 -0.007161032656129329 0.0012098635012662525 0.011263733256731778
 0.0012488759717711403 0.011258789184334308 -0.0010623175120545952 -0.007161032656129329 0.004854603672798632 0.023578821737533125 0.9940927932505793 -0.05639671476201388
 -0.001062267431961425 -0.007161037042893697 0.0012098635012662525 0.011263733256731778 0.9940927932505793 -0.05639671476201388 0.004861123520812936 0.023578274600891163
0.09378907878283 0.005212822087842466 0.025388054458796314 0.993617761528477 -0.06052736025282266 0.0014005038321707984 0.01206545623129901 -0.0011889184616617914 -0.007677511587745714
 0.993617761528477 -0.06052736025282266 0.005220487889774673 0.025387403419554158 -0.001188975845392435 -0.00767750614659909 0.0013556978927258324 0.012071261465509285
 0.0014005038321707984 0.01206545623129901 -0.001188975845392435 -0.00767750614659909 0.005212957861310044 0.025389262161172346 0.9936178126018297 -0.060526098949764656
 -0.0011889184616617914 -0.007677511587745714 0.0013556978927258324 0.012071261465509285 0.9936178126018297 -0.060526098949764656 0.005220440271767856 0.025388642882458054
0.100041684035 0.005588652438987539 0.027213374849006634 0.9931198155415935 -0.0646700314107372 0.001561433039981185 0.012871842447143617 -0.001323329693888896 -0.008193982456276056
 0.9931198155415935 -0.0646700314107372 0.005597372849927348 0.027212641373462774 -0.00132339486289337 -0.008193975816906523 0.0015104292673794395 0.012878604113336339
 0.001561433039981185 0.012871842447143617 -0.00132339486289337 -0.008193975816906523 0.005588806435537924 0.0272146576247166 0.993119873634122 -0.06466868448115722
 -0.001323329693888896 -0.008193982456276056 0.0015104292673794395 0.012878604113336339 0.993119873634122 -0.06466868448115722 0.005597317694734705 0.027213960823027468
0.1059090909091 0.005957493917952868 0.02893960593669833 0.9926314160568317 -0.06856933763996924 0.0017209716471586192 0.013628177038141329 -0.0014565837768753032 -0.008678516803319183
 0.9926314160568317 -0.06856933763996924 0.0059672658954239965 0.02893878959266391 -0.001456656686628369 -0.00867850890106782 0.001663783689163556 0.013635927671194776
 0.0017209716471586192 0.013628177038141329 -0.001456656686628369 -0.00867850890106782 0.0059576660097196915 0.02894095825146218 0.992631481199853 -0.06856791005915541
 -0.0014565837768753032 -0.008678516803319183 0.001663783689163556 0.013635927671194776 0.992631481199853 -0.06856791005915541 0.0059672030764741915 0.02894018363862749
0.1062942892872 0.005982261866726855 0.02905338091275436 0.992598631005159 -0.06882572665011158 0.0017317355698543764 0.01367781539604702 -0.0014655747158570105 -0.008710320021945704
 0.992598631005159 -0.06882572665011158 0.005992104979134753 0.029052558937197517 -0.0014656481484545635 -0.008710312031919578 0.0016741291387199022 0.013685634164525208
 0.0017317355698543764 0.01367781539604702 -0.0014656481484545635 -0.008710312031919578 0.005982435179776053 0.029054737761315324 0.9925986966269577 -0.06882429376336964
 -0.0014655747158570105 -0.008710320021945704 0.0016741291387199022 0.013685634164525208 0.9925986966269577 -0.06882429376336964 0.005992041636547334 0.029053957864639213
0.11254689453939999 0.0063939342410799 0.030907802467823996 0.992053929529008 -0.07299425750440458 0.0019114812687181816 0.014483239669944754 -0.0016157249508381125 -0.009226392398896475
 0.992053929529008 -0.07299425750440458 0.006404968229099392 0.030906885707378616 -0.0016158071218370829 -0.009226382897167887 0.0018468669568028956 0.01449222166493319
 0.0019114812687181816 0.014483239669944754 -0.0016158071218370829 -0.009226382897167887 0.006394127948652262 0.030909232330875093 0.9920540032043745 -0.07299273830624756
 -0.0016157249508381125 -0.009226392398896475 0.0018468669568028956 0.01449222166493319 0.9920540032043745 -0.07299273830624756 0.006404896027405422 0.0309083635725055
0.11879949979160001 0.0068239514102280165 0.032776368512835635 0.9914854342224975 -0.07717542552993646 0.0021007377683795888 0.015287976971386057 -0.0017738495814084638 -0.00974206540609203
 0.9914854342224975 -0.07717542552993646 0.006836244541693389 0.03277535045708947 -0.0017739409619386176 -0.009742054222989535 0.0020287100242140435 0.015298233823948435
 0.0021007377683795888 0.015287976971386057 -0.0017739409619386176 -0.009742054222989535 0.006824166573188785 0.03277787027082314 0.9914855164903269 -0.07717381964595177
 -0.0017738495814084638 -0.00974206540609203 0.0020287100242140435 0.015298233823948435 0.9914855164903269 -0.07717381964595177 0.006836162786642405 0.03277690668517923
0.1250521050438 0.007272593097964089 0.03465880647339933 0.9908928698446201 -0.08136902303971338 0.0022995703988591518 0.016091886187600088 -0.0019400154716871193 -0.01025720254545858
 0.9908928698446201 -0.08136902303971338 0.007286213747052509 0.03465768038153825 -0.0019401165290989107 -0.01025718950266478 0.002219723412040501 0.016103535087535252
 0.0022995703988591518 0.016091886187600088 -0.0019401165290989107 -0.01025718950266478 0.0072728307593778446 0.03466037895070041 0.99089296126043 -0.08136733007028916
 -0.0019400154716871193 -0.01025720254545858 0.002219723412040501 0.016103535087535252 0.99089296126043 -0.08136733007028916 0.007286121721493683 0.03465931436880063
0.131304710296 0.007740136797803288 0.036554841611452144 0.9902759629532452 -0.08557483368018687 0.0025080421020442895 0.01689482345736845 -0.002114287088779561 -0.010771664992224626
 0.9902759629532452 -0.08557483368018687 0.007755153456912365 0.036553600506948156 -0.0021143982863896455 -0.010771649902768922 0.0024199698762088257 0.016907987204061736
 0.0025080421020442895 0.01689482345736845 -0.0021143982863896455 -0.010771649902768922 0.007740397980801544 0.03655648357321329 0.990276064089085 -0.08557305320389598
 -0.002114287088779561 -0.010771664992224626 0.0024199698762088257 0.016907987204061736 0.990276064089085 -0.08557305320389598 0.0077550504200003 0.03655531161750215
0.1375573155481 0.008118825772286436 0.038217081958239446 0.9897425129423242 -0.0895454218106505 0.002700079115628908 0.017671958612994202 -0.0022706953024127785 -0.011260568825739415
 0.9897425129423242 -0.0895454218106505 0.008135311429310394 0.038215746313521454 -0.0022708171342353863 -0.011260551666003892 0.0026035749479819755 0.017686617373346984
 0.002700079115628908 0.017671958612994202 -0.0022708171342353863 -0.011260551666003892 0.00811911070720694 0.038218792705826836 0.9897426242507531 -0.08954355356788035
 -0.0022706953024127785 -0.011260568825739415 0.0026035749479819755 0.017686617373346984 0.9897426242507531 -0.08954355356788035 0.00813519764120198 0.038217533612892964
0.1438099208003 0.008510814563863194 0.03987068733867866 0.9891903383886016 -0.09350606165232576 0.0028998855191501942 0.01844596176386139 -0.002433361518280761 -0.011746642324353221
 0.9891903383886016 -0.09350606165232576 0.008528838536372449 0.03986925192607589 -0.0024334944476662596 -0.011746622915238966 0.002794579172186941 0.018462227825259792
 0.0028998855191501942 0.01844596176386139 -0.0024334944476662596 -0.011746622915238966 0.008511124101746793 0.0398724656319675 0.9891904604419566 -0.09350410522662857
 -0.002433361518280761 -0.011746642324353221 0.002794579172186941 0.018462227825259792 0.9891904604419566 -0.09350410522662857 0.00852871340325424 0.03987111469719152
0.1500625260525 0.008915966635121118 0.041515523050473575 0.9886195797640246 -0.09745665822383383 0.0031073938392509634 0.019216754275083972 -0.002602220988018205 -0.012229812572686235
 0.9886195797640246 -0.09745665822383383 0.00893559837584212 0.04151398234904423 -0.0026023654749616214 -0.012229790728244153 0.0029929172055070683 0.019234744028564843
 0.0031073938392509634 0.019216754275083972 -0.0026023654749616214 -0.012229790728244153 0.00891630159833104 0.04151736760079328 0.9886197131488721 -0.09745461318410711
 -0.002602220988018205 -0.012229812572686235 0.0029929172055070683 0.019234744028564843 0.9886197131488721 -0.09745461318410711 0.008935461292775983 0.04151591984375283
0.15631513130469998 0.009334144499788952 0.04315145847798378 0.9880303782305737 -0.10139711680857008 0.0033225358137865106 0.019984258816752476 -0.0027772081761005484 -0.012710008182626475
 0.9880303782305737 -0.10139711680857008 0.009355453600836457 0.04314980666740301 -0.0027773646771080645 -0.012709983710225086 0.003198522947750157 0.020004092715352847
