! Created with skrf 1.8.0 (http://scikit-rf.org).
# GHz S RI R 50.0 
!freq ReS11 ImS11 ReS12 ImS12 ReS13 ImS13
! ReS14 ImS14
! ReS21 ImS21 ReS22 ImS22 ReS23 ImS23
! ReS24 ImS24
! ReS31 ImS31 ReS32 ImS32 ReS33 ImS33
! ReS34 ImS34
! ReS41 ImS41 ReS42 ImS42 ReS43 ImS43
! ReS44 ImS44
!
0.0 0.001333174676902 0.0 0.9986668253089 0.0 5.105878263021e-05 0.0 -5.105878263102e-05 6.2528974717439114e-21
 0.9986668253089 0.0 0.001333174676947 0.0 -5.105878263153e-05 6.252897471806369e-21 5.105878263235e-05 0.0
 5.105878263021e-05 0.0 -5.105878263153e-05 6.252897471806369e-21 0.001333174676925 0.0 0.9986668253089 0.0
 -5.105878263102e-05 6.2528974717439114e-21 5.105878263235e-05 0.0 0.9986668253089 0.0 0.00133317467694 0.0
0.005 0.00143386679986614 0.0010912075509622967 0.9985395473207083 -0.00279331892754961 7.107949679566572e-05 0.0005614144603844972 -6.9198929906165e-05 -0.0003526678687087821
 0.9985395473207083 -0.00279331892754961 0.0014338362887032492 0.0010912253771075302 -6.92022639021609e-05 -0.0003526704334069169 7.126304450716979e-05 0.0005613447777391021
 7.107949679566572e-05 0.0005614144603844972 -6.92022639021609e-05 -0.0003526704334069169 0.0014338654022861995 0.0010912756467344798 0.9985395476543092 -0.00279325186446048
 -6.9198929906165e-05 -0.0003526678687087821 7.126304450716979e-05 0.0005613447777391021 0.9985395476543092 -0.00279325186446048 0.0014338383479187214 0.0010912914028853972
0.006252605252188 0.0014601234767308807 0.001368323038001565 0.9985061810853797 -0.003492356238820937 7.667951405700671e-05 0.0007020526062828176 -7.424679417357545e-05 -0.00044129963386760763
 0.9985061810853797 -0.003492356238820937 0.0014600757818649507 0.0013683456346854353 -7.425198218720986e-05 -0.000441302797069506 7.696629522051094e-05 0.0007019621584358221
 7.667951405700671e-05 0.0007020526062828176 -7.425198218720986e-05 -0.000441302797069506 0.001460121232521704 0.001368408144717092 0.9985061815478281 -0.00349227242352387
 -7.424679417357545e-05 -0.00044129963386760763 7.696629522051094e-05 0.0007019621584358221 0.9985061815478281 -0.00349227242352387 0.0014600789419107827 0.0013684281481702578
0.01250521050438 0.001597459889640482 0.002765534091650741 0.9983306655935295 -0.006985663031190516 0.00010816363512648468 0.0014045447861690441 -0.00010249176412229219 -0.0008848368909780263
 0.9983306655935295 -0.006985663031190516 0.0015972694401250205 0.0027655824507266122 -0.00010251221063893395 -0.0008848427542655708 0.00010930737239214974 0.0014043281416882432
 0.00010816363512648468 0.0014045447861690441 -0.00010251221063893395 -0.0008848427542655708 0.001597450343222472 0.0027657040793206055 0.9983306668612852 -0.0069854956294564344
 -0.00010249176412229219 -0.0008848368909780263 0.00010930737239214974 0.0014043281416882432 0.9983306668612852 -0.0069854956294564344 0.0015972814818227773 0.0027657471688597524
0.01875781575657 0.00174545095457448 0.004182886851425119 0.9981400838839594 -0.010488455440794776 0.0001455809178360208 0.002107969123760626 -0.00013587371150078833 -0.0013299950679192783
 0.9981400838839594 -0.010488455440794776 0.0017450230032069356 0.004182964387061518 -0.0001359193104601354 -0.001330003089908446 0.0001481504903651081 0.0021075842958257793
 0.0001455809178360208 0.002107969123760626 -0.0001359193104601354 -0.001330003089908446 0.0017454290709262915 0.004183141648660559 0.9981400863139037 -0.01048820452841412
 -0.00013587371150078833 -0.0013299950679192783 0.0001481504903651081 0.0021075842958257793 0.9981400863139037 -0.01048820452841412 0.001745049645620251 0.004183211075461353
0.02501042100875 0.0019043576079807245 0.005618432074413044 0.9979342342671904 -0.014002464538645154 0.00018900115396075455 0.0028123788633083384 -0.00017447057539479304 -0.0017765929027102896
 0.9979342342671904 -0.014002464538645154 0.0019035975982302617 0.005618542413867456 -0.00017455110438612675 -0.0017766024536319013 0.00019356586650761797 0.002811777874167834
 0.00018900115396075455 0.0028123788633083384 -0.00017455110438612675 -0.0017766024536319013 0.0019043183481771036 0.005618771655325986 0.9979342382112963 -0.014002130144454948
 -0.00017447057539479304 -0.0017765929027102896 0.00019356586650761797 0.002811777874167834 0.9979342382112963 -0.014002130144454948 0.0019036445461225067 0.005618870808841182
0.03126302626094 0.0020744298376837124 0.007071183496206947 0.9977129036434207 -0.017528451444656517 0.0002384944726290521 0.003517763331536674 -0.00021835841464139567 -0.0022245092895791813
 0.9977129036434207 -0.017528451444656517 0.0020732433543529474 0.007071330472740355 -0.00021848355523202686 -0.0022245196499518873 0.0002456246023705013 0.0035168921784734133
 0.0002384944726290521 0.003517763331536674 -0.00021848355523202686 -0.0022245196499518873 0.0020743681635777924 0.007071607852749174 0.9977129094569445 -0.017528033577931378
 -0.00021835841464139567 -0.0022245092895791813 0.0002456246023705013 0.0035168921784734133 0.9977129094569445 -0.017528033577931378 0.0020733163073293807 0.007071740253694399
0.037515631513130004 0.0022559124247817893 0.008540510810990654 0.9974758733829778 -0.021066814292804784 0.00029413083632807253 0.004224086932284876 -0.00026761197271493053 -0.002673644290141696
 0.9974758733829778 -0.021066814292804784 0.002254205162362964 0.008540698460252415 -0.000267791320884459 -0.00267365465034038 0.0003043978901179912 0.004222885525017121
 0.00029413083632807253 0.004224086932284876 -0.000267791320884459 -0.00267365465034038 0.0022558232941199147 0.008541019966781091 0.997475881421038 -0.02106631292951489
 -0.00026761197271493053 -0.002673644290141696 0.0003043978901179912 0.004222885525017121 0.997475881421038 -0.02106631292951489 0.002254309812549787 0.008541189262817446
0.043768236765320004 0.002449047158571683 0.010025954968112566 0.9972229216738415 -0.024617772874095646 0.00035597980442913656 0.0049313010080356745 -0.00032230488812110664 -0.003123907266679843
 0.9972229216738415 -0.024617772874095646 0.002446724896964984 0.010026187525891822 -0.00032254796053946645 -0.003123916726735431 0.0003699566526671062 0.004929703097175855
 0.00035597980442913656 0.0049313010080356745 -0.00032254796053946645 -0.003123916726735431 0.0024489255270322883 0.010026548961159974 0.9972229322955343 -0.024617187974373456
 -0.00032230488812110664 -0.003123907266679843 0.0003699566526671062 0.004929703097175855 0.9972229322955343 -0.024617187974373456 0.0024468669321421888 0.010026758923842355
0.050020842017509996 0.002654073876327629 0.011527151822534585 0.996953824695903 -0.028181444924041177 0.0004241103912887154 0.005639348731065968 -0.00038250977894327783 -0.0035752119836832377
 0.996953824695903 -0.028181444924041177 0.002651042460186617 0.011527433723251237 -0.0003828260169834024 -0.003575219553200725 0.0004423713364843091 0.005637281832774857
 0.0004241103912887154 0.005639348731065968 -0.0003828260169834024 -0.003575219553200725 0.002653914695274488 0.011527830701873888 0.9969538382629773 -0.02818077643581252
 -0.00038250977894327783 -0.0035752119836832377 0.0004423713364843091 0.005637281832774857 0.9969538382629773 -0.02818077643581252 0.002651227562702473 0.011528085224073116
0.055454545454549996 0.002842091257725541 0.012844291250756897 0.9967066844974529 -0.03128875125883466 0.0004884724947123482 0.00625529218052384 -0.00043936170432122215 -0.003968190031747573
 0.9967066844974529 -0.03128875125883466 0.0028383671357073096 0.01284461978684665 -0.0004397491367269189 -0.003968195083737555 0.0005109239884144673 0.00625275395216762
 0.0004884724947123482 0.00625529218052384 -0.0004397491367269189 -0.003968195083737555 0.0028418953408693923 0.012845043953605594 0.9967067009199536 -0.031288010071714674
 -0.00043936170432122215 -0.003968190031747573 0.0005109239884144673 0.00625275395216762 0.9967067009199536 -0.031288010071714674 0.0028385942748223934 0.012845340453655677
0.056273447269699996 0.00287123100645383 0.013043794652103823 0.996668357298381 -0.03175788354330122 0.000498590966181218 0.006348167500721116 -0.00044829827070884924 -0.0040274742035656215
 0.996668357298381 -0.03175788354330122 0.0028673963269003674 0.013044130527880766 -0.000448697043289814 -0.004027478801669551 0.00052171177214778 0.006345552819520314
 0.000498590966181218 0.006348167500721116 -0.000448697043289814 -0.004027478801669551 0.0028710292222873415 0.013044558483362513 0.9966683741755239 -0.03175713139697524
 -0.00044829827070884924 -0.0040274742035656215 0.00052171177214778 0.006345552819520314 0.9966683741755239 -0.03175713139697524 0.0028676301729257075 0.013044861577375838
0.06252605252188 0.0031007558699177812 0.014575613565910056 0.996366293438731 -0.035347097728042835 0.0005794891717069687 0.0070576902642249095 -0.000519740997395559 -0.004480610359992219
 0.996366293438731 -0.035347097728042835 0.0030960238472375954 0.014576008246186909 -0.0005202316028661417 -0.004480610815316984 0.0006080470672836599 0.007054442614895621
 0.0005794891717069687 0.0070576902642249095 -0.0005202316028661417 -0.004480610815316984 0.0031005064234296688 0.014576462433638944 0.9963663139942219 -0.03534626183459863
 -0.000519740997395559 -0.004480610359992219 0.0006080470672836599 0.007054442614895621 0.9963663139942219 -0.03534626183459863 0.0030963121067867417 0.014576818229568595
0.06877865777407 0.0033428848475219653 0.016122363221944325 0.9960474064889429 -0.038949064592762726 0.0006668718546473725 0.007767846296162026 -0.0005969075848065534 -0.004934536774228574
 0.9960474064889429 -0.038949064592762726 0.003337161414821838 0.01612282173331245 -0.0005974992523606994 -0.004934531824892853 0.0007014455192060104 0.0077638740251990915
 0.0006668718546473725 0.007767846296162026 -0.0005974992523606994 -0.004934531824892853 0.0033425826744575746 0.016123297222207122 0.9960474310957658 -0.038948144851405665
 -0.0005969075848065534 -0.004934536774228574 0.0007014455192060104 0.0077638740251990915 0.9960474310957658 -0.038948144851405665 0.0033375097518822013 0.01612370996690089
0.07503126302626001 0.0035978534730861187 0.01768381503313187 0.9957114694704916 -0.04256373710632901 0.0007608050029919601 0.008478561696039492 -0.0006798666240157977 -0.005389169155276152
 0.9957114694704916 -0.04256373710632901 0.0035910445603874316 0.017684342599856864 -0.0006805685146428109 -0.00538915744890376 0.0008019745387007306 0.008473766603020754
 0.0007608050029919601 0.008478561696039492 -0.0006805685146428109 -0.00538915744890376 0.003597493502721778 0.017684834278770843 0.9957114985060387 -0.042562733399673085
 -0.0006798666240157977 -0.005389169155276152 0.0008019745387007306 0.008473766603020754 0.9957114985060387 -0.042562733399673085 0.0035914586315696616 0.01768530833504818
0.08128386827845 0.0038658964761346787 0.019259751983999103 0.9953582552409544 -0.046191049219619404 0.0008613536862345581 0.009189759719131158 -0.0007686856388699727 -0.0058444222688437695
 0.9953582552409544 -0.046191049219619404 0.003857907994641169 0.019260354028768672 -0.0007695068460041349 -0.005844402362572654 0.0009097005798161015 0.009184036978214728
 0.0008613536862345581 0.009189759719131158 -0.0007695068460041349 -0.005844402362572654 0.0038654736314121963 0.01926085660155697 0.9953582890880351 -0.04618996141715925
 -0.0007686856388699727 -0.0058444222688437695 0.0009097005798161015 0.009184036978214728 0.9953582890880351 -0.04618996141715925 0.003858393449172321 0.01926139644790156
0.08753647353064001 0.004147247792733303 0.02084996504709234 0.9949875366515285 -0.04983091939565313 0.0009685819985540716 0.009901361002750894 -0.0008634310481412778 -0.0063002097131323225
 0.9949875366515285 -0.04983091939565313 0.004137985619282962 0.020850647192331893 -0.0008643805981177308 -0.006300180073636554 0.0010246890749545665 0.009894599084438628
 0.0009685819985540716 0.009901361002750894 -0.0008643805981177308 -0.006300180073636554 0.00414675698974511 0.020851155179335498 0.9949875756982914 -0.04982974735167992
 -0.0008634310481412778 -0.0063002097131323225 0.0010246890749545665 0.009894599084438628 0.9949875756982914 -0.04982974735167992 0.004138548098015016 0.02085176541008937
0.09378907878283 0.004442140554907967 0.02245425061425545 0.9945990866849155 -0.053483253127549785 0.001082553003276624 0.01061328373357782 -0.0009641681247212226 -0.006756443755905868
 0.9945990866849155 -0.053483253127549785 0.004431510516575617 0.022455018683742504 -0.0009652549770276023 -0.006756402759436474 0.0011470043724016673 0.01060536432689253
 0.001082553003276624 0.01061328373357782 -0.0009652549770276023 -0.006756402759436474 0.004441576702663789 0.022455526420290327 0.9945991313256844 -0.053481996681411896
 -0.0009641681247212226 -0.006756443755905868 0.0011470043724016673 0.01060536432689253 0.9945991313256844 -0.053481996681411896 0.004432155651383753 0.022456211746108845
0.100041684035 0.004750807063574597 0.02407240862144486 0.994192678579659 -0.05714794476537355 0.0012033286783240409 0.011325443767923056 -0.0010709609521202053 -0.00721303522109794
 0.994192678579659 -0.05714794476537355 0.004738714922194706 0.024073268642501287 -0.0010721939994864575 -0.007212981153528325 0.00127670967600656 0.011316241703071299
 0.0012033286783240409 0.011325443767923056 -0.0010721939994864575 -0.007212981153528325 0.00475016506385214 0.024073770274564397 0.9941927292157264 -0.05714660374418655
 -0.0010709609521202053 -0.00721303522109794 0.00127670967600656 0.011316241703071299 0.9941927292157264 -0.05714660374418655 0.004739448335506361 0.024074535523451374
0.1059090909091 0.005053191083966138 0.02560331876688224 0.9937947732778398 -0.06059800587114027 0.001322906821404094 0.011993869334237938 -0.0011767383341553094 -0.007641742177503443
 0.9937947732778398 -0.06059800587114027 0.005039641133698725 0.025604270740052098 -0.0011781165984650996 -0.007641674204651253 0.0014052007205550437 0.011983343613056356
 0.001322906821404094 0.011993869334237938 -0.0011781165984650996 -0.007641674204651253 0.005052471107085337 0.025604761153791372 0.9937948299104608 -0.06059658531235215
 -0.0011767383341553094 -0.007641742177503443 0.0014052007205550437 0.011983343613056356 0.9937948299104608 -0.06059658531235215 0.005040462490723171 0.02560560589877699
0.1062942892872 0.005073478750381517 0.025704241125098608 0.99376808594571 -0.060824878894295435 0.0013309698620400413 0.012037754725896353 -0.001183872379186221 -0.007669893403995821
 0.99376808594571 -0.060824878894295435 0.0050598301869927585 0.025705199331139135 -0.001185260447593014 -0.007669824460875739 0.0014138669859597838 0.012027137897578222
 0.0013309698620400413 0.012037754725896353 -0.001185260447593014 -0.007669824460875739 0.00507275349671373 0.02570568881920856 0.9937681429846085 -0.060823453106972625
 -0.001183872379186221 -0.007669893403995821 0.0014138669859597838 0.012027137897578222 0.9937681429846085 -0.060823453106972625 0.0050606574901794705 0.025706538937930377
0.11254689453939999 0.005410386129522885 0.027349551225435923 0.9933250828714756 -0.06451393136874764 0.0014655361996793101 0.012750128064468869 -0.0013029639729858196 -0.00812692601021474
 0.9933250828714756 -0.06451393136874764 0.005395086728695459 0.02735061405905468 -0.0013045158215413603 -0.008126840296843301 0.0015585370406988141 0.012737957355853952
 0.0014655361996793101 0.012750128064468869 -0.0013045158215413603 -0.008126840296843301 0.005409572508068921 0.027351085168316046 0.9933251467291118 -0.06451242061324151
 -0.0013029639729858196 -0.00812692601021474 0.0015585370406988141 0.012737957355853952 0.9933251467291118 -0.06451242061324151 0.0053960135225009425 0.027352025224353003
0.11879949979160001 0.005761758744160958 0.029008142215277116 0.9928634440290263 -0.0682149701240415 0.0016070860894771795 0.013462473138864462 -0.0014282959707393411 -0.008584039108976576
 0.9928634440290263 -0.0682149701240415 0.005744713978570913 0.029009316331783247 -0.001430020291521559 -0.008583934640471937 0.001710779259236677 0.013448602346315583
 0.0016070860894771795 0.013462473138864462 -0.001430020291521559 -0.008583934640471937 0.005760851632649211 0.029009762634075675 0.9928635151287121 -0.06821337418239884
 -0.0014282959707393411 -0.008584039108976576 0.001710779259236677 0.013448602346315583 0.9928635151287121 -0.06821337418239884 0.005745745851177534 0.029010797818046368
0.1250521050438 0.00612782510629599 0.03067981691160954 0.9923829447732895 -0.07192785580838028 0.0017556766293977493 0.014174697250985255 -0.001559927230414673 -0.009041137102140065
 0.9923829447732895 -0.07192785580838028 0.006108940320489573 0.0306811091831104 -0.0015618326481387852 -0.009041011803547772 0.001870651684003657 0.014158973009646934
 0.0017556766293977493 0.014174697250985255 -0.0015618326481387852 -0.009041011803547772 0.006126819373944753 0.030681524051435396 0.9923830235474678 -0.07192617444878059
 -0.001559927230414673 -0.009041137102140065 0.001870651684003657 0.014158973009646934 0.9923830235474678 -0.07192617444878059 0.006110082847385077 0.030682659679952873
0.131304710296 0.006508812631866873 0.03236437711770207 0.9918833612407534 -0.07565244228762698 0.0019113635635558824 0.014886705693091308 -0.001697915180454187 -0.009498122700826126
 0.9918833612407534 -0.07565244228762698 0.006487993026918213 0.03236579463759136 -0.001700010252247116 -0.009497974407206147 0.002038210923894906 0.014868967403306293
 0.0019113635635558824 0.014886705693091308 -0.001700010252247116 -0.009497974407206147 0.006507703139204164 0.03236617124321057 0.9918834481304274 -0.0756506752632308
 -0.001697915180454187 -0.009498122700826126 0.002038210923894906 0.014868967403306293 0.9918834481304274 -0.0756506752632308 0.006489251769329946 0.03236741276233246
0.1375573155481 0.006812823031889534 0.0338416427299994 0.9914566259434425 -0.0791685060887774 0.00205250103298178 0.015575770372835565 -0.0018204645008116189 -0.00993237753434123
 0.9914566259434425 -0.0791685060887774 0.00678996717009757 0.03384316378964212 -0.001822761829171109 -0.009932206304058963 0.0021915103429945015 0.015556057477229435
 0.00205250103298178 0.015575770372835565 -0.001822761829171109 -0.009932206304058963 0.006811605203690646 0.033843524276304285 0.9914567213192201 -0.07916665326197625
 -0.0018204645008116189 -0.00993237753434123 0.0021915103429945015 0.015556057477229435 0.9914567213192201 -0.07916665326197625 0.006791347247058338 0.033844848159102485
0.1438099208003 0.0071273703042682235 0.035311955673335636 0.9910152034316996 -0.08267649987608887 0.002199316511740208 0.016262625164662356 -0.0019479280635449063 -0.01036453883577892
 0.9910152034316996 -0.08267649987608887 0.007102382167144312 0.03531358562264589 -0.0019504368374299293 -0.010364342563861763 0.0023510249718437922 0.016240792215108744
 0.002199316511740208 0.016262625164662356 -0.0019504368374299293 -0.010364342563861763 0.007126039090544454 0.03531392491539614 0.9910153077332525 -0.08267456100682927
 -0.0019479280635449063 -0.01036453883577892 0.0023510249718437922 0.016240792215108744 0.9910153077332525 -0.08267456100682927 0.007103889040627732 0.035315334796433104
0.1500625260525 0.007452355050537314 0.03677521771981926 0.9905591964951235 -0.08617636178649384 0.002351764863473826 0.01694721930560873 -0.0020802606198060515 -0.010794555378017375
 0.9905591964951235 -0.08617636178649384 0.007425138439704232 0.03677696221521367 -0.0020829900122091563 -0.010794331875439373 0.0025167069969995017 0.016923115573924327
 0.002351764863473826 0.01694721930560873 -0.0020829900122091563 -0.010794331875439373 0.007450905399653371 0.03677727494591472 0.990559310169939 -0.08617433662348371
 -0.0020802606198060515 -0.010794555378017375 0.0025167069969995017 0.016923115573924327 0.990559310169939 -0.08617433662348371 0.007426777553436503 0.036778774696433675
0.15631513130469998 0.007787677297514216 0.038231333733006835 0.990088708304988 -0.08966802968962076 0.002509800493329633 0.017629502798962565 -0.0022174164318696974 -0.011222376934649465
