! Created with skrf 1.8.0 (http://scikit-rf.org).
# GHz S RI R 50.0 
!freq ReS11 ImS11 ReS12 ImS12 ReS13 ImS13
! ReS14 ImS14
! ReS21 ImS21 ReS22 ImS22 ReS23 ImS23
! ReS24 ImS24
! ReS31 ImS31 ReS32 ImS32 ReS33 ImS33
! ReS34 ImS34
! ReS41 ImS41 ReS42 ImS42 ReS43 ImS43
! ReS44 ImS44
!
0.0 0.001566797065879 0.0 0.9984332029338 0.0 6.039537011993e-05 0.0 -6.039536976425e-05 7.39629962651096e-21
 0.9984332029338 0.0 0.001566797065894 0.0 -6.039536976464e-05 7.39629962655872e-21 6.039537011952e-05 0.0
 6.039537011993e-05 0.0 -6.039536976464e-05 7.39629962655872e-21 0.001566797065879 0.0 0.9984332029338 0.0
 -6.039536976425e-05 7.39629962651096e-21 6.039537011952e-05 0.0 0.9984332029338 0.0 0.001566797065878 0.0
0.005 0.001685789007237369 0.001283213276043785 0.9982826545754024 -0.0032818319567939945 8.445561056940931e-05 0.0006566083076845821 -8.20442838424193e-05 -0.00041367906262836156
 0.9982826545754024 -0.0032818319567939945 0.0016858079591923775 0.0012832022625916945 -8.204383196880949e-05 -0.00041367878833660986 8.433757323412441e-05 0.000656653241145695
 8.445561056940931e-05 0.0006566083076845821 -8.204383196880949e-05 -0.00041367878833660986 0.001685788506749527 0.0012831463562967625 0.9982826542124469 -0.003281899015063988
 -8.20442838424193e-05 -0.00041367906262836156 8.433757323412441e-05 0.000656653241145695 0.9982826542124469 -0.003281899015063988 0.0016858077404372828 0.0012831350717615118
0.006252605252188 0.0017170142146625573 0.0016090547403633086 0.9982428955887013 -0.004103088728572826 9.134490814224356e-05 0.0008210808806593514 -8.816187347896593e-05 -0.0005176303922101779
 0.9982428955887013 -0.004103088728572826 0.0017170438395765005 0.0016090407565577034 -8.816116975225502e-05 -0.0005176300555822747 9.116048562183502e-05 0.0008211392319242147
 9.134490814224356e-05 0.0008210808806593514 -8.816116975225502e-05 -0.0005176300555822747 0.001717013506410935 0.00160897109208359 0.998242895095725 -0.004103172559617822
 -8.816187347896593e-05 -0.0005176303922101779 9.116048562183502e-05 0.0008211392319242147 0.998242895095725 -0.004103172559617822 0.001717043572631527 0.0016089567560589628
0.01250521050438 0.001881490931739785 0.0032517307271573907 0.9980320667661162 -0.008206949884391891 0.0001309342748947349 0.0016425318979421673 -0.00012290056659582373 -0.0010377483887712394
 0.9980320667661162 -0.008206949884391891 0.001881609216369451 0.0032517005697989903 -0.00012289778622218768 -0.0010377477849236674 0.00013019883323700502 0.0016426721902011074
 0.0001309342748947349 0.0016425318979421673 -0.00012289778622218768 -0.0010377477849236674 0.0018814886726400502 0.0032515638120292896 0.9980320653719535 -0.008207117283881718
 -0.00012290056659582373 -0.0010377483887712394 0.00013019883323700502 0.0016426721902011074 0.9980320653719535 -0.008207117283881718 0.0018816087353219423 0.0032515328101972198
0.01875781575657 0.002060591102374362 0.0049177112029966585 0.9978004510600353 -0.012321564492181242 0.00017925546826480035 0.00246488692387218 -0.0001647190000803168 -0.0015596139789317116
 0.9978004510600353 -0.012321564492181242 0.0020608568773079804 0.0049176625141977 -0.00016471278992197708 -0.0015596131934509266 0.0001776033613309737 0.0024651374180628474
 0.00017925546826480035 0.00246488692387218 -0.00016471278992197708 -0.0015596131934509266 0.0020605864386066546 0.004917461247099335 0.9978004483487083 -0.012321815410775124
 -0.0001647190000803168 -0.0015596139789317116 0.0001776033613309737 0.0024651374180628474 0.9978004483487083 -0.012321815410775124 0.0020608562409876754 0.00491741106375454
0.02501042100875 0.0022546675540111084 0.0066046620351414165 0.9975477724361271 -0.01644891982363935 0.00023640205389188935 0.0032881715282294197 -0.00021372121687177802 -0.002082989531484663
 0.9975477724361271 -0.01644891982363935 0.002255139523440428 0.006604592309717039 -0.00021371023675338294 -0.002082988667324276 0.00023346748902299506 0.0032885649988205943
 0.00023640205389188935 0.0032881715282294197 -0.00021371023675338294 -0.002082988667324276 0.0022546596301914012 0.006604329296801832 0.9975477679924383 -0.016449254238068457
 -0.00021372121687177802 -0.002082989531484663 0.00023346748902299506 0.0032885649988205943 0.9975477679924383 -0.016449254238068457 0.002255138805958467 0.006604257250719122
0.03126302626094 0.0024640585315236626 0.008311378743573563 0.9972737409447604 -0.02058986234702422 0.0003024680700902879 0.004112336586848835 -0.00027000829853175327 -0.002607706114840369
 0.9972737409447604 -0.02058986234702422 0.0024647953063564655 0.0083112853334336 -0.00026999121910767967 -0.0026077052925333054 0.0002978847696376315 0.004112910348564894
 0.0003024680700902879 0.004112336586848835 -0.00026999121910767967 -0.0026077052925333054 0.002464046489448624 0.00831096350964089 0.9972737343513253 -0.020590280264235247
 -0.00027000829853175327 -0.002607706114840369 0.0002978847696376315 0.004112910348564894 0.9972737343513253 -0.020590280264235247 0.0024647945948753753 0.008310866758101687
0.037515631513130004 0.002689094915707195 0.010037073466117274 0.9969780601747352 -0.024744810700668925 0.00037754705684404276 0.004937303326807343 -0.00033367907727566067 -0.00313361844897438
 0.9969780601747352 -0.024744810700668925 0.002690155035812001 0.010036953582337995 -0.0003336545789502209 -0.003133617806728025 0.00037094810700654665 0.0049380992803659055
 0.00037754705684404276 0.004937303326807343 -0.0003336545789502209 -0.003133617806728025 0.002689077893965097 0.010036576055695624 0.996978051010228 -0.024745312154510878
 -0.00033367907727566067 -0.00313361844897438 0.00037094810700654665 0.0049380992803659055 0.996978051010228 -0.024745312154510878 0.0026901544298609027 0.01003645159626804
0.043768236765320004 0.0029301030065993767 0.011781157982372772 0.9966604302747414 -0.028913972597682695 0.00046173159945024574 0.005762977033261887 -0.00040483038557144555 -0.0036605912008613297
 0.9966604302747414 -0.028913972597682695 0.002931544958652845 0.011781008696486267 -0.0004047971579092018 -0.0036605908946453886 0.0004527493795487855 0.005764041717009405
 0.00046173159945024574 0.005762977033261887 -0.0004047971579092018 -0.0036605908946453886 0.0029300801440858685 0.011780578754165 0.9966604181158594 -0.028914557641931304
 -0.00040483038557144555 -0.0036605912008613297 0.0004527493795487855 0.005764041717009405 0.9966604181158594 -0.028914557641931304 0.002931544573392617 0.011780423425555662
0.050020842017509996 0.003187405819829584 0.013543154039673978 0.9963205494928504 -0.03309743442663732 0.0005551130536255417 0.006589252707055899 -0.0004835571415581502 -0.004188493332732797
 0.9963205494928504 -0.03309743442663732 0.003189288052886825 0.013542972284416742 -0.00048351388301741334 -0.0041884935363489025 0.0005433792075933404 0.006590637351086377
 0.0005551130536255417 0.006589252707055899 -0.00048351388301741334 -0.0041884935363489025 0.0031873762544871115 0.013542493390176595 0.9963205339115374 -0.033098103137352
 -0.0004835571415581502 -0.004188493332732797 0.0005433792075933404 0.006590637351086377 0.9963205339115374 -0.033098103137352 0.003189288016949457 0.013542303872645049
0.055454545454549996 0.0034244919591548055 0.01508860698070224 0.9960068772426715 -0.03674461126736066 0.0006438032660618201 0.00730771295436737 -0.0005581975578836392 -0.004647910460746519
 0.9960068772426715 -0.03674461126736066 0.0034268042589903794 0.015088394409933516 -0.0005581445319437881 -0.004647911262462417 0.0006293784499576677 0.007309420944006595
 0.0006438032660618201 0.00730771295436737 -0.0005581445319437881 -0.004647911262462417 0.0034244558690581487 0.015087875929054329 0.9960068583356799 -0.036745352761835486
 -0.0005581975578836392 -0.004647910460746519 0.0006293784499576677 0.007309420944006595 0.9960068583356799 -0.036745352761835486 0.003426804642468471 0.015087653881174173
0.056273447269699996 0.003461323745030462 0.015322649332764853 0.9959581150822113 -0.03729520520030101 0.0006577813490640567 0.007416017840917433 -0.0005699523623844887 -0.004717195335676449
 0.9959581150822113 -0.03729520520030101 0.003463704684708866 0.015322431902256338 -0.0005698977801081927 -0.00471719624081513 0.000642926782749764 0.007417778422214548
 0.0006577813490640567 0.007416017840917433 -0.0005698977801081927 -0.00471719624081513 0.0034612866149629825 0.015321907701240466 0.9959580956452123 -0.037295957670933105
 -0.0005699523623844887 -0.004717195335676449 0.000642926782749764 0.007417778422214548 0.9959580956452123 -0.037295957670933105 0.00346370514116082 0.015321680516514573
0.06252605252188 0.0037521748966268284 0.017119273312490434 0.9955728239033751 -0.04150724067792331 0.0007698248333251503 0.008243153955236084 -0.0006641071396114041 -0.005246567707885733
 0.9955728239033751 -0.04150724067792331 0.003755112958961311 0.017119016862072164 -0.000664039949406563 -0.0052465695241853206 0.0007514797288746298 0.0082453512532206
 0.0007698248333251503 0.008243153955236084 -0.000664039949406563 -0.0052465695241853206 0.003752129342077584 0.017118451179436608 0.9955728001728094 -0.04150807702145851
 -0.0006641071396114041 -0.005246567707885733 0.0007514797288746298 0.0082453512532206 0.9955728001728094 -0.04150807702145851 0.003755114066486675 0.017118182690097766
0.06877865777407 0.004060275297058886 0.018932682756195578 0.9951643728630657 -0.045733457730284234 0.000891330137461267 0.009070537511086833 -0.0007661105937001719 -0.005776480060213046
 0.9951643728630657 -0.045733457730284234 0.004063828901464577 0.018932383801812554 -0.000766029520025402 -0.0057764830153089145 0.0008691239796628765 0.009073237163201686
 0.000891330137461267 0.009070537511086833 -0.000766029520025402 -0.0057764830153089145 0.004060220459913408 0.018931780643470432 0.9951643443941519 -0.04573437807926658
 -0.0007661105937001719 -0.005776480060213046 0.0008691239796628765 0.009073237163201686 0.9951643443941519 -0.04573437807926658 0.004063830833501577 0.018931467052142405
0.07503126302626001 0.004385938956385425 0.02076255262082661 0.9947324592541291 -0.04997374342654894 0.0010223820550877931 0.009898040497049117 -0.0008760498147629207 -0.006306800552743346
 0.9947324592541291 -0.04997374342654894 0.004390166538919892 0.02076220753800772 -0.000875953590793555 -0.006306804892316155 0.0009959436667827573 0.009901313054107066
 0.0010223820550877931 0.009898040497049117 -0.000875953590793555 -0.006306804892316155 0.004385873982571024 0.020761571095060202 0.9947324255957701 -0.0499747479299646
 -0.0008760498147629207 -0.006306800552743346 0.0009959436667827573 0.009901313054107066 0.9947324255957701 -0.0499747479299646 0.004390169485433792 0.020761208442962607
0.08128386827845 0.004729477892112768 0.022608569966023954 0.9942767810382621 -0.05422796105620284 0.0011630634292816107 0.01072553082565428 -0.0009940097949573162 -0.006837395526710072
 0.9942767810382621 -0.05422796105620284 0.004734437917877041 0.022608174988451427 -0.0009938971626519389 -0.006837401514527345 0.0011320210138117712 0.010729451806809504
 0.0011630634292816107 0.01072553082565428 -0.0009938971626519389 -0.006837401514527345 0.004729401931453345 0.022607509637858184 0.9942767417316721 -0.05422904988044935
 -0.0009940097949573162 -0.006837395526710072 0.0011320210138117712 0.010729451806809504 0.9942767417316721 -0.05422904988044935 0.004734442084957803 0.022607093803134984
0.08753647353064001 0.005091202104449647 0.02447042974449814 0.9937970370893978 -0.05849595428943974 0.0013134550447971552 0.011552872611352367 -0.0011200733547211716 -0.007368129260087591
 0.9937970370893978 -0.05849595428943974 0.005096953080962813 0.024469980962095732 -0.0011199430650092994 -0.007368137178041206 0.001277436234165572 0.01155752255853672
 0.0013134550447971552 0.011552872611352367 -0.0011199430650092994 -0.007368137178041206 0.005091114312420985 0.024469291268130175 0.9937969916677265 -0.05849712761896047
 -0.0011200733547211716 -0.007368129260087591 0.001277436234165572 0.01155752255853672 0.9937969916677265 -0.05849712761896047 0.00509695869148436 0.024468817963659968
0.09378907878283 0.005471419524067061 0.026347831796937376 0.9932929274125675 -0.06277755013870014 0.0014736355238588951 0.012379926379827098 -0.0012543210646957874 -0.00789886379717638
 0.9932929274125675 -0.06277755013870014 0.005478020013552058 0.026347325153604592 -0.0012541718775675003 -0.007898873945317398 0.0014322674316864293 0.012385390911584528
 0.0014736355238588951 0.012379926379827098 -0.0012541718775675003 -0.007898873945317398 0.00547131906249899 0.026346615871245534 0.9932928754000065 -0.06277880817506536
 -0.0012543210646957874 -0.00789886379717638 0.0014322674316864293 0.012385390911584528 0.9932928754000065 -0.06277880817506536 0.005478027307799503 0.026346080642019064
0.100041684035 0.005870435938737815 0.028240478659088304 0.9927641533454148 -0.06707256111427393 0.0016436812242300607 0.013206549224747424 -0.0013968311644861021 -0.00842945883619583
 0.9927641533454148 -0.06707256111427393 0.005877944571374424 0.02823990994989371 -0.0013966618491941907 -0.008429471532755767 0.0015965905027592014 0.013212919089304363
 0.0016436812242300607 0.013206549224747424 -0.0013966618491941907 -0.008429471532755767 0.0058703219769721815 0.028239186027061994 0.9927640942567193 -0.06707390407678643
 -0.0013968311644861021 -0.00842945883619583 0.0015965905027592014 0.013212919089304363 0.9927640942567193 -0.06707390407678643 0.005877953807400755 0.028238584247165327
0.1059090909091 0.006262238437539749 0.030030127921703335 0.9922452582648963 -0.07111499596398949 0.0018122893321008845 0.013981724973640284 -0.001538143907330231 -0.008927112022249398
 0.9922452582648963 -0.07111499596398949 0.006270652661386327 0.030029497010554133 -0.0015379545929506372 -0.008927127415877516 0.0017594886167628773 0.013989031546983919
 0.0018122893321008845 0.013981724973640284 -0.0015379545929506372 -0.008927127415877516 0.006262111059594471 0.03002876402488897 0.9922451920856824 -0.07111641883507239
 -0.001538143907330231 -0.008927112022249398 0.0017594886167628773 0.013989031546983919 0.9922451920856824 -0.07111641883507239 0.006270663970696067 0.03002809543170486
0.1062942892872 0.006288554904053311 0.030148073902538486 0.9922104177468349 -0.07138078685242252 0.0018236661388340983 0.014032594938834625 -0.0015476794790866162 -0.008959771648188442
 0.9922104177468349 -0.07138078685242252 0.006297030390675254 0.030147438770513207 -0.00154748881433093 -0.008959787229606839 0.0017704790397101977 0.014039966066443277
 0.0018236661388340983 0.014032594938834625 -0.00154748881433093 -0.008959787229606839 0.006288426620202643 0.030146705352972147 0.992210351086686 -0.07138221497650975
 -0.0015476794790866162 -0.008959771648188442 0.0017704790397101977 0.014039966066443277 0.992210351086686 -0.07138221497650975 0.006297041844991502 0.03014603222207545
0.11254689453939999 0.006726077643071046 0.03207032087897198 0.9916314251781989 -0.07570201534678153 0.0020136617970756003 0.014857914117018842 -0.0017069393331650307 -0.009489657029607086
 0.9916314251781989 -0.07570201534678153 0.006735578787995755 0.032069614811398944 -0.0017067261072517728 -0.009489675850545989 0.0019540042351599276 0.014866387671337111
 0.0020136617970756003 0.014857914117018842 -0.0017067261072517728 -0.009489675850545989 0.006725934224764842 0.03206887724370414 0.9916313504403637 -0.0757035288867808
 -0.0017069393331650307 -0.009489657029607086 0.0019540042351599276 0.014866387671337111 0.9916313504403637 -0.0757035288867808 0.00673559275601245 0.03206812778305798
0.11879949979160001 0.00718330293597566 0.03400692174119612 0.9910268820779131 -0.08003602390963839 0.0022137371664436955 0.015682354250009193 -0.0018746814643093932 -0.010018967270249014
 0.9910268820779131 -0.08003602390963839 0.007193888650338531 0.03400614006538444 -0.0018744444754196451 -0.010018989703611935 0.0021472347867237756 0.015692036678614015
 0.0022137371664436955 0.015682354250009193 -0.0018744444754196451 -0.010018989703611935 0.007183143581807551 0.034005403897383414 0.9910267987444501 -0.08003762313646903
 -0.0018746814643093932 -0.010018967270249014 0.0021472347867237756 0.015692036678614015 0.9910267987444501 -0.08003762313646903 0.0071939054468652 0.03400457294540994
0.1250521050438 0.007660527002904279 0.03595757666893 0.9903964969311979 -0.08438257993551869 0.0024239585553367405 0.016505759806265372 -0.0020509739349179176 -0.010547552138830444
 0.9903964969311979 -0.08438257993551869 0.007672256317578614 0.03595671454750088 -0.0020507119912904783 -0.010547578575746733 0.0023502368024458133 0.01651676289013628
 0.0024239585553367405 0.016505759806265372 -0.0020507119912904783 -0.010547578575746733 0.007660350923404097 0.035955985540811225 0.9903964044716732 -0.08438426513479029
 -0.0020509739349179176 -0.010547552138830444 0.0023502368024458133 0.01651676289013628 0.9903964044716732 -0.08438426513479029 0.007672276277201866 0.03595506774817153
0.131304710296 0.00815804338065266 0.037921983261485416 0.9897399804370198 -0.0887414415049724 0.002644389516344193 0.01732797230663882 -0.002235882043346168 -0.011075258881894215
 0.9897399804370198 -0.0887414415049724 0.00817097545946786 0.037921035687137915 -0.002235593963514602 -0.011075289731728617 0.0025630737066783768 0.01734041320857457
 0.002644389516344193 0.01732797230663882 -0.002235593963514602 -0.011075289731728617 0.008157849799434241 0.03792031981507612 0.9897398783082224 -0.08874321298224261
 -0.002235882043346168 -0.011075258881894215 0.0025630737066783768 0.01734041320857457 0.9897398783082224 -0.08874321298224261 0.008170998937344088 0.037919309639111526
0.1375573155481 0.008562844094769104 0.03964430277584179 0.9891703878099566 -0.0928567119244683 0.0028478359321401146 0.018123587745872784 -0.0024023107155653743 -0.011576635790432131
 0.9891703878099566 -0.0928567119244683 0.00857704350768554 0.03964328490900664 -0.002401994957623362 -0.011576671104615773 0.002758739083734252 0.018137450246639257
 0.0028478359321401146 0.018123587745872784 -0.002401994957623362 -0.011576671104615773 0.00856263310285341 0.03964256740821578 0.9891702755642842 -0.09285856985096111
 -0.0024023107155653743 -0.011576635790432131 0.002758739083734252 0.018137450246639257 0.9891702755642842 -0.09285856985096111 0.008577069824153198 0.03964148041475241
0.1438099208003 0.008981919358947568 0.041357402702916046 0.9885806986757696 -0.09696138709823678 0.00305950139051042 0.018915807242833444 -0.0025753858585036843 -0.012074938191704776
 0.9885806986757696 -0.09696138709823678 0.008997446292773933 0.04135631069214597 -0.0025750411905578843 -0.012074978368394822 0.002962282543421666 0.018931198680159928
 0.00305950139051042 0.018915807242833444 -0.0025750411905578843 -0.012074978368394822 0.008981690355327853 0.04135559636545969 0.9885805757706695 -0.09696333177078818
 -0.0025753858585036843 -0.012074938191704776 0.002962282543421666 0.018931198680159928 0.9885805757706695 -0.09696333177078818 0.008997475644688748 0.04135442825699867
0.1500625260525 0.009415119213277715 0.04306113516817899 0.987971067139384 -0.10105535999167232 0.0032793114484649445 0.019704544240564264 -0.0027550359198316265 -0.012570085984752767
 0.987971067139384 -0.10105535999167232 0.00943203401620303 0.0430599649226764 -0.0027546611154568076 -0.012570131437760352 0.0031736316893926104 0.019721575878468536
 0.0032793114484649445 0.019704544240564264 -0.0027546611154568076 -0.012570131437760352 0.009414871620143494 0.04305925884857383 0.9879709330215362 -0.1010573917174936
 -0.0027550359198316265 -0.012570085984752767 0.0031736316893926104 0.019721575878468536 0.9879709330215362 -0.1010573917174936 0.009432066608066739 0.043058005073905864
0.15631513130469998 0.009862292607261852 0.04475535674825521 0.9873416481171418 -0.10513852405561155 0.003507190760577109 0.02048971367842173 -0.002941188449465906 -0.013062000788482164
 0.9873416481171418 -0.10513852405561155 0.009880655793634308 0.04475410393102395 -0.0029407822878157533 -0.013062051947096165 0.0033927132542745345 0.02050850066641181
