! Created with skrf 1.8.0 (http://scikit-rf.org).
# GHz S RI R 50.0 
!freq ReS11 ImS11 ReS12 ImS12 ReS13 ImS13
! ReS14 ImS14
! ReS21 ImS21 ReS22 ImS22 ReS23 ImS23
! ReS24 ImS24
! ReS31 ImS31 ReS32 ImS32 ReS33 ImS33
! ReS34 ImS34
! ReS41 ImS41 ReS42 ImS42 ReS43 ImS43
! ReS44 ImS44
!
0.0 0.001440202775146 0.0 0.9985597971964 0.0 5.520962436172e-05 0.0 -5.520962378379e-05 6.761228904894801e-21
 0.9985597971964 0.0 0.001440202775178 0.0 -5.52096237846e-05 6.761228904993997e-21 5.52096243613e-05 0.0
 5.520962436172e-05 0.0 -5.52096237846e-05 6.761228904993997e-21 0.00144020278601 0.0 0.9985597972073 0.0
 -5.520962378379e-05 6.761228904894801e-21 5.52096243613e-05 0.0 0.9985597972073 0.0 0.001440202786004 0.0
0.005 0.0015492204713129904 0.0011816147775203455 0.9984219380971661 -0.003016962703619684 7.668859975867638e-05 0.000589346826170415 -7.46363061909976e-05 -0.0003732820121809642
 0.9984219380971661 -0.003016962703619684 0.0015492269536703292 0.0011816110460517559 -7.46365234845128e-05 -0.0003732822345859899 7.665727542175576e-05 0.0005893589183243014
 7.668859975867638e-05 0.000589346826170415 -7.46365234845128e-05 -0.0003732822345859899 0.0015492197202603296 0.0011815480043886808 0.9984219377483461 -0.003017029756943416
 -7.46363061909976e-05 -0.0003732820121809642 7.665727542175576e-05 0.0005893589183243014 0.9984219377483461 -0.003017029756943416 0.0015492270076336307 0.0011815437116298913
0.006252605252188 0.0015777277159542027 0.0014816636400687955 0.998385677418996 -0.003771953040271637 8.2771114939894e-05 0.0007369835308288884 -8.007790264346899e-05 -0.00046708555179716845
 0.998385677418996 -0.003771953040271637 0.001577737847992298 0.0014816588514609324 -8.007824032338026e-05 -0.0004670858272232739 8.272217533049426e-05 0.0007369991988722254
 8.2771114939894e-05 0.0007369835308288884 -8.007824032338026e-05 -0.0004670858272232739 0.0015777266131866015 0.001481580175886501 0.9983856769454157 -0.0037720368601177625
 -8.007790264346899e-05 -0.00046708555179716845 8.272217533049426e-05 0.0007369991988722254 0.9983856769454157 -0.0037720368601177625 0.0015777380045596814 0.001481574674321134
0.01250521050438 0.0017273023741582463 0.0029943722187678002 0.9981942410089418 -0.007544776419978457 0.00011736857399947659 0.0014744167015933974 -0.00011072040417520537 -0.000936469977755976
 0.9981942410089418 -0.007544776419978457 0.0017273428199324444 0.0029943613796279208 -0.00011072172964593914 -0.0009364705010926834 0.00011717347101788843 0.0014744539976188735
 0.00011736857399947659 0.0014744167015933974 -0.00011072172964593914 -0.0009364705010926834 0.001727298540835452 0.0029942055961973517 0.998194239694813 -0.007544943811115235
 -0.00011072040417520537 -0.000936469977755976 0.00011717347101788843 0.0014744539976188735 0.998194239694813 -0.007544943811115235 0.0017273440290053507 0.0029941932087459017
0.01875781575657 0.0018892361806759686 0.0045286667855282065 0.9979852622149012 -0.011327667036040056 0.00015908004701785158 0.0022127823931905473 -0.00014722736340609384 -0.0014075145303809175
 0.9979852622149012 -0.011327667036040056 0.0018893270438655682 0.004528648540495004 -0.00014723031187782433 -0.001407515270902802 0.00015864190257101803 0.002212848422191249
 0.00015908004701785158 0.0022127823931905473 -0.00014723031187782433 -0.001407515270902802 0.0018892279723659426 0.004528417184733397 0.9979852596809135 -0.011327917885569241
 -0.00014722736340609384 -0.0014075145303809175 0.00015864190257101803 0.002212848422191249 0.9979852596809135 -0.011327917885569241 0.001889330193801502 0.004528396406264563
0.02501042100875 0.002063830326824139 0.006082425690505737 0.9977585068027282 -0.015122475816074992 0.0002079846184550742 0.0029521172447237454 -0.00018968649677106504 -0.0018800221199645499
 0.9977585068027282 -0.015122475816074992 0.0020639916571244797 0.0060823985943712295 -0.0001896916934887405 -0.0018800230429392765 0.0002072065940475372 0.002952220204084198
 0.0002079846184550742 0.0029521172447237454 -0.0001896916934887405 -0.0018800230429392765 0.0020638161009750456 0.0060820932549317365 0.997758502677165 -0.015122810057621026
 -0.00018968649677106504 -0.0018800221199645499 0.0002072065940475372 0.002952220204084198 0.997758502677165 -0.015122810057621026 0.0020639976492531718 0.006082062463822347
0.03126302626094 0.002251373509973003 0.007654566286822873 0.9975137279800781 -0.018930005984218172 0.0002641618873171605 0.003692392623897383 -0.00023818330481239366 -0.0023538563234368672
 0.9975137279800781 -0.018930005984218172 0.0022516253124636246 0.007654528804930431 -0.00023819136679256177 -0.0023538573900703107 0.0002629470886160504 0.0036925418067615466
 0.0002641618873171605 0.003692392623897383 -0.00023819136679256177 -0.0023538573900703107 0.002251351620264036 0.007654151160351045 0.9975137218929877 -0.01893042356102721
 -0.00023818330481239366 -0.0023538563234368672 0.0002629470886160504 0.0036925418067615466 0.9975137218929877 -0.01893042356102721 0.002251635055630164 0.007654108618601377
0.037515631513130004 0.0024521483212733646 0.00924438961273858 0.9972506729541726 -0.022750668320000642 0.000327691233447092 0.004433554183200403 -0.00029280166387888576 -0.0028289018217734674
 0.9972506729541726 -0.022750668320000642 0.002452510561889765 0.009244340120904459 -0.00029281320081050457 -0.0028289029892312966 0.00032594266686992865 0.004433759987548526
 0.000327691233447092 0.004433554183200403 -0.00029281320081050457 -0.0028289029892312966 0.0024521171147379017 0.0092438919448331 0.9972506645347111 -0.02275116918015096
 -0.00029280166387888576 -0.0028289018217734674 0.00032594266686992865 0.004433759987548526 0.9972506645347111 -0.02275116918015096 0.002452524969683899 0.00924383579755693
0.043768236765320004 0.0026664337211026474 0.010851380989474682 0.9969690855797457 -0.02658468049348938 0.0003986514724610049 0.005175533898959036 -0.0003536240426206938 -0.0033050523548254036
 0.9969690855797457 -0.02658468049348938 0.0026669263308039823 0.01085131777388943 -0.00035363965745725486 -0.0033050535762551756 0.0003962720239916811 0.005175807838506321
 0.0003986514724610049 0.005175533898959036 -0.00035363965745725486 -0.0033050535762551756 0.0026663915406405095 0.010850800935798812 0.9969690744587434 -0.026585264589540327
 -0.0003536240426206938 -0.0033050523548254036 0.0003962720239916811 0.005175807838506321 0.9969690744587434 -0.026585264589540327 0.002666946323824678 0.010850729210765481
0.050020842017509996 0.0028945061923439414 0.012475127582790351 0.9966687076875206 -0.030432149434497405 0.00047712065139306377 0.0059182550407385634 -0.00042073158142888023 -0.0037822057471538074
 0.9966687076875206 -0.030432149434497405 0.002895149070569029 0.012475048839800685 -0.00042075187080698064 -0.003782206971729997 0.0004740130770983998 0.0059186097565508515
 0.00047712065139306377 0.0059182550407385634 -0.00042075187080698064 -0.003782206971729997 0.0028944513758006447 0.012474465303633943 0.9966686934964056 -0.03043281672542493
 -0.00042073158142888023 -0.0037822057471538074 0.0004740130770983998 0.0059186097565508515 0.9966686934964056 -0.03043281672542493 0.002895175575196055 0.012474375910580338
0.055454545454549996 0.0031041181822919358 0.013899545826061347 0.9963922085454433 -0.033786674782361976 0.0005514708531499198 0.006564240010735485 -0.0004842164202229653 -0.004197602860976714
 0.9963922085454433 -0.033786674782361976 0.0031049077866739504 0.013899452054480373 -0.0004842412517870925 -0.004197604043955489 0.0005476514387928979 0.006564676074190524
 0.0005514708531499198 0.006564240010735485 -0.0004842412517870925 -0.004197604043955489 0.003104051030508268 0.013898812232125753 0.9963921913867797 -0.03378741433615109
 -0.0004842164202229653 -0.004197602860976714 0.0005476514387928979 0.006564676074190524 0.9963921913867797 -0.03378741433615109 0.0031049407062518418 0.013898705695305377
0.056273447269699996 0.0031366403395990997 0.014115277959334989 0.9963492798615329 -0.03429311170751943 0.0005631759031849914 0.006661634603018034 -0.0004942041136467105 -0.004260261473657687
 0.9963492798615329 -0.03429311170751943 0.003137453356833237 0.014115181795135136 -0.0004942296681825789 -0.004260262646621485 0.0005592428269490198 0.006662083875438168
 0.0005631759031849914 0.006661634603018034 -0.0004942296681825789 -0.004260262646621485 0.003136571219364074 0.014114533630095356 0.9963492622314489 -0.034293862148553435
 -0.0004942041136467105 -0.004260261473657687 0.0005592428269490198 0.006662083875438168 0.9963492622314489 -0.034293862148553435 0.003137487304451939 0.014114424360048831
0.06252605252188 0.003393109212763924 0.015771519850719968 0.996010541943803 -0.038167555680531304 0.0006568933334304492 0.007405584646474987 -0.0005741201542271537 -0.004739119318082469
 0.996010541943803 -0.038167555680531304 0.0033941122134471683 0.015771404281019932 -0.0005741515587907851 -0.0047391203807830296 0.0006520372492169759 0.007406143407194277
 0.0006568933334304492 0.007405584646474987 -0.0005741515587907851 -0.0047391203807830296 0.0033930241171371963 0.015770693654125246 0.9960105205074363 -0.03816838923120672
 -0.0005741201542271537 -0.004739119318082469 0.0006520372492169759 0.007406143407194277 0.9960105205074363 -0.03816838923120672 0.003394154541177353 0.015770562178651706
0.06877865777407 0.003664184486341398 0.01744356687575394 0.9956522333987433 -0.04205543473790742 0.0007583479221579958 0.008150013095502904 -0.0006605568724311248 -0.005218678578084283
 0.9956522333987433 -0.04205543473790742 0.0036653972910412986 0.017443429825365012 -0.0006605947063114348 -0.005218679468017116 0.0007524711996639528 0.008150697439634185
 0.0007583479221579958 0.008150013095502904 -0.0006605947063114348 -0.005218679468017116 0.0036640817391101503 0.017442659008223206 0.9956522077892885 -0.042056351356118904
 -0.0006605568724311248 -0.005218678578084283 0.0007524711996639528 0.008150697439634185 0.9956522077892885 -0.042056351356118904 0.0036654489411403935 0.017442502878540964
0.07503126302626001 0.003950136549371425 0.019131150150654974 0.995274093590908 -0.04595667560837465 0.0008676134368456433 0.008894824245064405 -0.0007535900522488245 -0.005698837563949204
 0.995274093590908 -0.04595667560837465 0.003951578956975305 0.019130989453034777 -0.0007536348893240201 -0.005698838214796277 0.0008606183295318757 0.00889565144318697
 0.0008676134368456433 0.008894824245064405 -0.0007536348893240201 -0.005698838214796277 0.0039500144695812246 0.019130160816312945 0.9952740634416941 -0.04595767525662888
 -0.0007535900522488245 -0.005698837563949204 0.0008606183295318757 0.00889565144318697 0.9952740634416941 -0.04595767525662888 0.003951640876101954 0.019129977462459338
0.08128386827845 0.004251234539622554 0.020834012676229793 0.9948758620095501 -0.04987118391906735 0.0009847623506132306 0.009639919099919588 -0.000853294046482843 -0.006179493268115621
 0.9948758620095501 -0.04987118391906735 0.004252926329618396 0.02083382607289361 -0.0008533464553892982 -0.006179493609786507 0.0009765510056350525 0.009640907610002435
 0.0009847623506132306 0.009639919099919588 -0.0008533464553892982 -0.006179493609786507 0.004251091442083514 0.020832942097367507 0.994875826954465 -0.04987226655436967
 -0.000853294046482843 -0.006179493268115621 0.0009765510056350525 0.009640907610002435 0.994875826954465 -0.04987226655436967 0.004252999468635349 0.020832728827170483
0.08753647353064001 0.004567746342189116 0.022551905483588743 0.9944572784622033 -0.053798847994657985 0.0011098657645653496 0.01038519561376991 -0.0009597417254848991 -0.006660541138079512
 0.9944572784622033 -0.053798847994657985 0.00456970727696813 0.022551690623444382 -0.0009598022697381312 -0.006660541096740415 0.0011003402343377057 0.010386365092984667
 0.0011098657645653496 0.01038519561376991 -0.0009598022697381312 -0.006660541096740415 0.004567580538042025 0.02255075389214053 0.9944572381360006 -0.05380001357732402
 -0.0009597417254848991 -0.006660541138079512 0.0011003402343377057 0.010386365092984667 0.9944572381360006 -0.05380001357732402 0.004569792591049757 0.022550507890247522
0.09378907878283 0.004899938563915377 0.02428458485573914 0.9940180832455251 -0.05773954158412255 0.0012429933329128353 0.011130548859377101 -0.001073004422103347 -0.007141874921733815
 0.9940180832455251 -0.05773954158412255 0.004902188390523944 0.024284339294480626 -0.0010730736602032325 -0.0071418744198477 0.001232055587793815 0.011131920175760854
 0.0012429933329128353 0.011130548859377101 -0.0010730736602032325 -0.0071418744198477 0.004899748360334544 0.02428335249832508 0.9940180372830376 -0.05774079007311133
 -0.001073004422103347 -0.007141874921733815 0.001232055587793815 0.011131920175760854 0.9940180372830376 -0.05774079007311133 0.0049022868383466565 0.024283070825086184
0.100041684035 0.005248076487599625 0.02603181030371281 0.9935580172996586 -0.06169312583713553 0.0013842131892940518 0.011875871158884723 -0.001193151874218425 -0.007623386556114911
 0.9935580172996586 -0.06169312583713553 0.005250634940142905 0.0260315315029679 -0.0011932303597796084 -0.007623385512473941 0.0013717651314530568 0.011877466402782795
 0.0013842131892940518 0.011875871158884723 -0.0011932303597796084 -0.007623385512473941 0.005247860188358413 0.026030497441607233 0.9935579653364025 -0.06169445719034492
 -0.001193151874218425 -0.007623386556114911 0.0013717651314530568 0.011877466402782795 0.9935579653364025 -0.06169445719034492 0.005250747483759254 0.026030177031882006
0.1059090909091 0.005589504545330455 0.027684412843415367 0.9931070824322424 -0.06541473579396842 0.001524152187975257 0.012575150699043747 -0.0013122197941568073 -0.008075297986462329
 0.9931070824322424 -0.06541473579396842 0.005592370548523116 0.027684100457748148 -0.00131230745670511 -0.008075296357340013 0.0015101975951451105 0.012576977264837929
 0.001524152187975257 0.012575150699043747 -0.00131230745670511 -0.008075296357340013 0.005589262212266191 0.02768302468432362 0.9931070245066845 -0.0654161448700473
 -0.0013122197941568073 -0.008075297986462329 0.0015101975951451105 0.012576977264837929 0.9931070245066845 -0.0654161448700473 0.005592497196990172 0.027682665023953237
0.1062942892872 0.005612424015068066 0.027793343043551372 0.9930768223543593 -0.06565945078355857 0.001533591874465235 0.012621052187075142 -0.0013202521649902045 -0.008104966086741987
 0.9930768223543593 -0.06565945078355857 0.00561531081648465 0.027793028370010516 -0.0013203404468240488 -0.008104964416497256 0.0015195353526205717 0.012622894682440556
 0.001533591874465235 0.012621052187075142 -0.0013203404468240488 -0.008104964416497256 0.0056121799204064925 0.027791949950852927 0.9930767640261079 -0.06566086495998005
 -0.0013202521649902045 -0.008104966086741987 0.0015195353526205717 0.012622894682440556 0.9930767640261079 -0.06566086495998005 0.005615438420654675 0.027791587612801368
0.11254689453939999 0.005993243597974111 0.029568944826460514 0.9925742410653755 -0.06963835646393678 0.0016911942647082686 0.013365979052870972 -0.0014543716614027651 -0.008586501612548385
 0.9925742410653755 -0.06963835646393678 0.005996478462040244 0.02956859155096813 -0.0014544702835880242 -0.008586499227243648 0.0016754310897827314 0.013368093368303826
 0.0016911942647082686 0.013365979052870972 -0.0014544702835880242 -0.008586499227243648 0.0059929700053281435 0.029567471791051424 0.9925741760086905 -0.06963985342303139
 -0.0014543716614027651 -0.008586501612548385 0.0016754310897827314 0.013368093368303826 0.9925741760086905 -0.06963985342303139 0.005996622094626455 0.029567064204790328
0.11879949979160001 0.006390796162273414 0.0313583770266187 0.9920500171476851 -0.07362967380697637 0.001857083500799678 0.01411053636614609 -0.0015955749514248972 -0.009067879249296827
 0.9920500171476851 -0.07362967380697637 0.006394398795901759 0.031357982323118705 -0.0015956844534447975 -0.00906787605689002 0.0018395154622325982 0.014112948325692631
 0.001857083500799678 0.01411053636614609 -0.0015956844534447975 -0.00906787605689002 0.006390491366225004 0.03135682435387647 0.992049944999266 -0.07363125350522362
 -0.0015955749514248972 -0.009067879249296827 0.0018395154622325982 0.014112948325692631 0.992049944999266 -0.07363125350522362 0.006394559426673371 0.03135636807009932
0.1250521050438 0.006805341025350988 0.033161399928812944 0.9915038955030124 -0.0776332253115179 0.0020313209170559577 0.014854606299211528 -0.0017439247803386223 -0.009548983102208301
 0.9915038955030124 -0.0776332253115179 0.006809331130340431 0.03316096087321188 -0.0017440456971155095 -0.009548979007109026 0.00201184979993079 0.014857342992965154
 0.0020313209170559577 0.014854606299211528 -0.0017440456971155095 -0.009548979007109026 0.0068050033180951045 0.033159767937118986 0.9915038159001739 -0.07763488770725663
 -0.0017439247803386223 -0.009548983102208301 0.00201184979993079 0.014857342992965154 0.9915038159001739 -0.07763488770725663 0.0068095097312898655 0.033159259375612565
0.131304710296 0.007237135808057224 0.03497777214702868 0.9909356223459316 -0.08164882560244266 0.002213965970959546 0.01559806863845418 -0.0018994819858667365 -0.010029695252446293
 0.9909356223459316 -0.08164882560244266 0.007241533083235472 0.034977285715992575 -0.0018996148478831174 -0.010029690155529496 0.0021924935736584703 0.01560115843282771
 0.002213965970959546 0.01559806863845418 -0.0018996148478831174 -0.010029690155529496 0.007236763479555577 0.03497606117273081 0.9909355349262637 -0.08165057065118396
 -0.0018994819858667365 -0.010029695252446293 0.0021924935736584703 0.01560115843282771 0.9909355349262637 -0.08165057065118396 0.007241730627777112 0.034975496620803126
0.1375573155481 0.007584766907901046 0.036571114601582966 0.9904466490713825 -0.08544005725716321 0.002381307796346691 0.01631716384368908 -0.002038560821467556 -0.010486253153776322
 0.9904466490713825 -0.08544005725716321 0.007589593241416254 0.03657059016990526 -0.0020387065749081297 -0.010486247060803016 0.002357778758677732 0.016320601397788733
 0.002381307796346691 0.01631716384368908 -0.0020387065749081297 -0.010486247060803016 0.007584359060562824 0.03656932460221324 0.9904465534841831 -0.08544188489072559
 -0.002038560821467556 -0.010486253153776322 0.002357778758677732 0.016320601397788733 0.9904465534841831 -0.08544188489072559 0.007589809864703202 0.03656871343891349
0.1438099208003 0.00794455351225964 0.03815654083794965 0.9899406329562891 -0.08922214252705554 0.002555408087873491 0.01703357612991385 -0.002183205084308924 -0.010940350360277821
 0.9899406329562891 -0.08922214252705554 0.007949828951356697 0.03815597627648811 -0.002183364327964219 -0.010940343170665365 0.0025297319804052512 0.01703738737793797
 0.002555408087873491 0.01703357612991385 -0.002183364327964219 -0.010940343170665365 0.007944108579117936 0.038154672109187666 0.9899405288429742 -0.08922405269475671
 -0.002183205084308924 -0.010940350360277821 0.0025297319804052512 0.01703738737793797 0.9899405288429742 -0.08922405269475671 0.007950065476274235 0.03815401157261863
0.1500625260525 0.008316375331090453 0.039733932067746586 0.9894176979719943 -0.0929950011883102 0.0027362103041906234 0.017747240203671397 -0.0023333598803655987 -0.011391924938686786
 0.9894176979719943 -0.0929950011883102 0.00832211993803895 0.039733325140620425 -0.002333533213789166 -0.011391916547510057 0.0027082972077820565 0.01775145202530235
 0.0027362103041906234 0.017747240203671397 -0.002333533213789166 -0.011391916547510057 0.008315891752420389 0.039731984914893284 0.9894175849745884 -0.09299699383787884
 -0.0023333598803655987 -0.011391924938686786 0.0027082972077820565 0.01775145202530235 0.9894175849745884 -0.09299699383787884 0.008322377178440412 0.03973127211378552
0.15631513130469998 0.00870011129895854 0.04130317314435935 0.9888779686322893 -0.09675855302996349 0.002923657277955855 0.01845809181560789 -0.002488969679794483 -0.011840916211937103
