! Created with skrf 1.8.0 (http://scikit-rf.org).
# GHz S RI R 50.0 
!freq ReS11 ImS11 ReS12 ImS12 ReS13 ImS13
! ReS14 ImS14
! ReS21 ImS21 ReS22 ImS22 ReS23 ImS23
! ReS24 ImS24
! ReS31 ImS31 ReS32 ImS32 ReS33 ImS33
! ReS34 ImS34
! ReS41 ImS41 ReS42 ImS42 ReS43 ImS43
! ReS44 ImS44
!
0.0 0.00173012965766 0.0 0.9982698703168 0.0 6.666868365705e-05 0.0 -6.666868374567e-05 8.164559015250194e-21
 0.9982698703168 0.0 0.001730129657664 0.0 -6.666868374552e-05 8.164559015231824e-21 6.66686836565e-05 0.0
 6.666868365705e-05 0.0 -6.666868374552e-05 8.164559015231824e-21 0.001730129669023 0.0 0.9982698703281 0.0
 -6.666868374567e-05 8.164559015250194e-21 6.66686836565e-05 0.0 0.9982698703281 0.0 0.001730129669035 0.0
0.005 0.0018620021499489946 0.0014219323108959731 0.9981029781569752 -0.003623072603836627 9.25881234005927e-05 0.0006921597904483051 -9.019568805263714e-05 -0.00044174972279490413
 0.9981029781569752 -0.003623072603836627 0.0018619946212227645 0.0014219366612767486 -9.019476705939353e-05 -0.00044174896120280555 9.263089552908027e-05 0.0006921433582605014
 9.25881234005927e-05 0.0006921597904483051 -9.019476705939353e-05 -0.00044174896120280555 0.0018620025425975905 0.0014218647428473486 0.9981029777825263 -0.003623139669516177
 -9.019568805263714e-05 -0.00044174972279490413 9.263089552908027e-05 0.0006921433582605014 0.9981029777825263 -0.003623139669516177 0.0018619934780964883 0.0014218700937365185
0.006252605252188 0.0018967671454358094 0.0017829510674675219 0.9980586844332002 -0.004529695221868883 0.00010005964553187922 0.0008655453468949816 -9.690520149543722e-05 -0.0005527382905508743
 0.9980586844332002 -0.004529695221868883 0.0018967553775133146 0.001782956634432189 -9.690376879401852e-05 -0.0005527373505717571 0.00010012647088968682 0.0008655240206025451
 0.00010005964553187922 0.0008655453468949816 -9.690376879401852e-05 -0.0005527373505717571 0.00189676783621162 0.0017828666154438202 0.998058683924497 -0.004529779037602298
 -9.690520149543722e-05 -0.0005527382905508743 0.00010012647088968682 0.0008655240206025451 0.998058683924497 -0.004529779037602298 0.0018967536666086786 0.001782873446302359
0.01250521050438 0.002080817976627663 0.0036027218447450245 0.9978225596645729 -0.009059948547954055 0.0001432596024459605 0.0017315149947491027 -0.00013533301913622593 -0.001108003860339709
 0.9978225596645729 -0.009059948547954055 0.002080770998887056 0.0036027342897214537 -0.00013532737835689104 -0.0011080021127265363 0.0001435260276816755 0.0017314637783019966
 0.0001432596024459605 0.0017315149947491027 -0.00013532737835689104 -0.0011080021127265363 0.002080821308777163 0.0036025530965684473 0.9978225582004691 -0.009060115920107052
 -0.00013533301913622593 -0.001108003860339709 0.0001435260276816755 0.0017314637783019966 0.9978225582004691 -0.009060115920107052 0.0020807647255479712 0.0036025682201349597
0.01875781575657 0.0022827203675726375 0.0054478939926784955 0.9975611764397099 -0.01360173522753237 0.0001963759939547597 0.0025984149528842483 -0.00018207628491056377 -0.0016650300796778722
 0.9975611764397099 -0.01360173522753237 0.002282614827708812 0.005447914733406956 -0.0001820637135009298 -0.0016650276834217486 0.00019697434932082684 0.0025983234231940623
 0.0001963759939547597 0.0025984149528842483 -0.0001820637135009298 -0.0016650276834217486 0.0022827282918338894 0.00544764091511062 0.9975611735740273 -0.01360198603101032
 -0.00018207628491056377 -0.0016650300796778722 0.00019697434932082684 0.0025983234231940623 0.9975611735740273 -0.01360198603101032 0.0022826011372123205 0.005447665954620431
0.02501042100875 0.0025028973935453565 0.007315855130399341 0.9972742015433819 -0.01815720982238698 0.00025951685626017464 0.0034662430218233694 -0.00023725467364104632 -0.00222355082718355
 0.9972742015433819 -0.01815720982238698 0.0025027099995360074 0.007315885685560123 -0.00023723248429025594 -0.002223547970735726 0.00026057943146837073 0.0034660989604056356
 0.00025951685626017464 0.0034662430218233694 -0.00023723248429025594 -0.002223547970735726 0.0025029118666864167 0.007315517599961084 0.9972741968345107 -0.01815754396843377
 -0.00023725467364104632 -0.00222355082718355 0.00026057943146837073 0.0034660989604056356 0.9972741968345107 -0.01815754396843377 0.002502686035233202 0.007315554332708491
0.03126302626094 0.002741754643433531 0.009205237934789279 0.9969612861477669 -0.02272726708472683 0.0003327899813797101 0.004334921671592087 -0.00030098412873211965 -0.0027833676926965444
 0.9969612861477669 -0.02272726708472683 0.0027414621511417914 0.009205279923180395 -0.0003009496635202454 -0.0027833645942685076 0.0003344491469583778 0.004334711055932469
 0.0003327899813797101 0.004334921671592087 -0.0003009496635202454 -0.0027833645942685076 0.0027417776251783487 0.009204815778388746 0.9969612791558627 -0.022727684480196627
 -0.00030098412873211965 -0.0027833676926965444 0.0003344491469583778 0.004334711055932469 0.9969612791558627 -0.022727684480196627 0.002741425049636046 0.00920486613528182
0.037515631513130004 0.0029996885289432515 0.011115133502164304 0.9966220744705898 -0.027312328533199304 0.00041630197684649535 0.005204343018113026 -0.00037337760474466514 -0.0033443050315768736
 0.9966220744705898 -0.027312328533199304 0.0029992677346345666 0.011115188642329984 -0.00037332823213773815 -0.0033443019391698604 0.0004186902361514807 0.00520405000543918
 0.00041630197684649535 0.005204343018113026 -0.00037332823213773815 -0.0033443019391698604 0.002999721983309265 0.01111462649605289 0.9966220647588911 -0.02731282908150923
 -0.00037337760474466514 -0.0033443050315768736 0.0004186902361514807 0.00520405000543918 0.9966220647588911 -0.02731282908150923 0.002999214626651885 0.0111146925619196
0.043768236765320004 0.0032770894807188588 0.01304485194089449 0.9962562073186023 -0.03191258178703768 0.0005101578018607738 0.006074382505529255 -0.0004545453131210211 -0.0039061963094766186
 0.9962562073186023 -0.03191258178703768 0.003276517214269512 0.013044922051103445 -0.00045447842614992467 -0.003906193500836671 0.0005134078128834686 0.006073989414274871
 0.0005101578018607738 0.006074382505529255 -0.00045447842614992467 -0.003906193500836671 0.0032771353750503346 0.01304425980556334 0.9962561944534631 -0.03191316539286806
 -0.0004545453131210211 -0.0039061963094766186 0.0005134078128834686 0.006073989414274871 0.9962561944534631 -0.03191316539286806 0.003276445223737017 0.013044343819972479
0.050020842017509996 0.003574343412548777 0.014993823441417557 0.9958633239033525 -0.036528079421684075 0.0006144604717672288 0.006944904564096752 -0.0005445947904092195 -0.004468878474305803
 0.9958633239033525 -0.036528079421684075 0.003573596532398773 0.014993910439749205 -0.0005445078055197147 -0.0044688762568787475 0.0006187050532203669 0.006944391854427163
 0.0006144604717672288 0.006944904564096752 -0.0005445078055197147 -0.0044688762568787475 0.0035744037168190775 0.014993145849378062 0.9958633074544582 -0.03652874598311042
 -0.0005445947904092195 -0.004468878474305803 0.0006187050532203669 0.006944391854427163 0.9958633074544582 -0.03652874598311042 0.003573502775899722 0.014993250207450284
0.055454545454549996 0.0038490860090228205 0.01670278631845832 0.9954996752053985 -0.04055144226744857 0.0007136651508162215 0.007701695012451333 -0.0006301450980784696 -0.004958382567313348
 0.9954996752053985 -0.04055144226744857 0.0038481686088167543 0.016702889628477314 -0.0006300385669189186 -0.004958381136359724 0.000718882031291795 0.007701061023880874
 0.0007136651508162215 0.007701695012451333 -0.0006300385669189186 -0.004958381136359724 0.003849160436909614 0.016702034158257047 0.9954996552945018 -0.04055218083205754
 -0.0006301450980784696 -0.004958382567313348 0.000718882031291795 0.007701061023880874 0.9954996552945018 -0.04055218083205754 0.003848053588901573 0.01670215826237153
0.056273447269699996 0.003891832460267042 0.01696154971638372 0.9954430629367006 -0.041158787457960457 0.0007293108366978062 0.007815765396280596 -0.000643630887287623 -0.005032189205008109
 0.9954430629367006 -0.041158787457960457 0.003890887848267306 0.016961655620957316 -0.0006435212435543536 -0.0050321879158634454 0.0007346829643036331 0.007815111650278298
 0.0007293108366978062 0.007815765396280596 -0.0006435212435543536 -0.0050321879158634454 0.0038919091459101384 0.01696078628957519 0.9954430424763678 -0.041159536868650454
 -0.000643630887287623 -0.005032189205008109 0.0007346829643036331 0.007815111650278298 0.9954430424763678 -0.041159536868650454 0.0038907694341648123 0.016960913543104413
0.06252605252188 0.004229935357087735 0.018947577313694664 0.9949950633678839 -0.045804611983587096 0.0008548073971828144 0.008686814517830507 -0.000751755716785511 -0.005595965411441859
 0.9949950633678839 -0.045804611983587096 0.004228769914124803 0.018947704243129013 -0.0007516208753528739 -0.005595965417205924 0.0008614401937595951 0.00868599641959919
 0.0008548073971828144 0.008686814517830507 -0.0007516208753528739 -0.005595965417205924 0.004230030396875534 0.018946727630426746 0.9949950384723483 -0.045805444125761825
 -0.000751755716785511 -0.005595965411441859 0.0008614401937595951 0.00868599641959919 0.9949950384723483 -0.045805444125761825 0.004228623943015798 0.018946880489105533
0.06877865777407 0.004589027613343224 0.020951481708444297 0.9945189649293146 -0.05046541500292946 0.0009910461409938331 0.009557895684037749 -0.0008690685786927486 -0.00616004235584486
 0.9945189649293146 -0.05046541500292946 0.004587618254642182 0.020951631882449945 -0.00086890602240911 -0.006160044052626177 0.0009990728616626227 0.009556887999930066
 0.0009910461409938331 0.009557895684037749 -0.00086890602240911 -0.006160044052626177 0.004589142980524939 0.020950545294799547 0.9945189351787157 -0.050466329755690896
 -0.0008690685786927486 -0.00616004235584486 0.0009990728616626227 0.009556887999930066 0.9945189351787157 -0.050466329755690896 0.004587441818797571 0.020950726627707507
0.07503126302626001 0.0049694815786194835 0.022972857213302906 0.994014408571318 -0.05514102447612981 0.001138120391124054 0.010428847492459889 -0.000995665870245574 -0.006724253105077641
 0.994014408571318 -0.05514102447612981 0.004967805229653774 0.022973032953432584 -0.000995473103403563 -0.006724256918394877 0.001147674405437832 0.010427623051443133
 0.001138120391124054 0.010428847492459889 -0.000995473103403563 -0.006724256918394877 0.004969619246547873 0.02297183355047115 0.9940143735502768 -0.0551420217078969
 -0.000995665870245574 -0.006724253105077641 0.001147674405437832 0.010427623051443133 0.9940143735502768 -0.0551420217078969 0.004967595413315333 0.02297204638756706
0.08128386827845 0.00537166643032324 0.025011310286700464 0.9934810368267373 -0.05983124096866251 0.0012961206625531903 0.01129950379192863 -0.0011316409865218414 -0.007288428184117351
 0.9934810368267373 -0.05983124096866251 0.005369700022336191 0.025011514017217525 -0.001131415534664009 -0.007288434568809488 0.0013073354335756881 0.011298033466222289
 0.0012961206625531903 0.01129950379192863 -0.001131415534664009 -0.007288434568809488 0.0053718283708159 0.025010198806116008 0.9934809961236774 -0.059832320541918366
 -0.0011316409865218414 -0.007288428184117351 0.0013073354335756881 0.011298033466222289 0.9934809961236774 -0.059832320541918366 0.005369453900735256 0.025010446340025885
0.08753647353064001 0.005795948112025109 0.027066454895439296 0.9929184941305264 -0.06453584225567753 0.0014651345229100324 0.012169693980168903 -0.0012770842150717431 -0.007852395348716526
 0.9929184941305264 -0.06453584225567753 0.0057936685780140005 0.027066689144514232 -0.0012768236248937655 -0.007852404788876667 0.0014781435844353251 0.012167946666280427
 0.0014651345229100324 0.012169693980168903 -0.0012768236248937655 -0.007852404788876667 0.005796136295076141 0.02706525498073835 0.9929184473388365 -0.06453700402485926
 -0.0012770842150717431 -0.007852395348716526 0.0014781435844353251 0.012167946666280427 0.9929184473388365 -0.06453700402485926 0.005793383217656459 0.027065540568726086
0.09378907878283 0.006242689238802923 0.02913790921849691 0.9923264271112343 -0.06925458659443867 0.0016452464573105056 0.013039243230999939 -0.0014320826255573506 -0.008415979436662231
 0.9923264271112343 -0.06925458659443867 0.006240073509060414 0.02913817661940945 -0.0014317844648562164 -0.00841599244554549 0.0016601833888379607 0.01303718583101521
 0.0016452464573105056 0.013039243230999939 -0.0014317844648562164 -0.00841599244554549 0.00624290563185137 0.029136620208476332 0.9923263738292563 -0.06925583040281512
 -0.0014320826255573506 -0.008415979436662231 0.0016601833888379607 0.01303718583101521 0.9923263738292563 -0.06925583040281512 0.006239745967673756 0.029136947374437176
0.100041684035 0.006712248977615532 0.0312252932322567 0.9917044848609486 -0.0739872151251035 0.0018365377349246915 0.01390797267244449 -0.0015967199564173695 -0.008979002276240645
 0.9917044848609486 -0.0739872151251035 0.006709273975775555 0.03122559652485687 -0.001596381814058939 -0.008979019396182576 0.0018535361354632912 0.01390557007578662
 0.0018365377349246915 0.01390797267244449 -0.001596381814058939 -0.008979019396182576 0.006712495544416968 0.03122391441387277 0.9917044246921946 -0.07398854081172881
 -0.0015967199564173695 -0.008979002276240645 0.0018535361354632912 0.01390557007578662 0.9917044246921946 -0.07398854081172881 0.006708901301989024 0.031224286850673202
0.1059090909091 0.007173951063767246 0.03319823108899889 0.9910933766312843 -0.07844066852675283 0.002026281256577001 0.014722274748950385 -0.0017600526907986136 -0.009506667642128855
 0.9910933766312843 -0.07844066852675283 0.007170617925556087 0.03319857065043024 -0.0017596748557870902 -0.009506689138944173 0.002045335626708137 0.014719514480648843
 0.002026281256577001 0.014722274748950385 -0.0017596748557870902 -0.009506689138944173 0.007174227727723358 0.03319676730534666 0.9910933096445378 -0.07844207089214046
 -0.0017600526907986136 -0.009506667642128855 0.002045335626708137 0.014719514480648843 0.9910933096445378 -0.07844207089214046 0.007170200207756492 0.03319718573531483
0.1062942892872 0.007204982909227392 0.03332822690301495 0.9910523191911605 -0.07873345367446294 0.0020390862778836114 0.014775699537476403 -0.0017710764990157555 -0.009541282630591051
 0.9910523191911605 -0.07873345367446294 0.007201625547778466 0.03332856893542043 -0.0017706959849569223 -0.009541304432924934 0.002058279737923763 0.014772914603124151
 0.0020390862778836114 0.014775699537476403 -0.0017706959849569223 -0.009541304432924934 0.007205261609313243 0.033326757517832116 0.9910522517448446 -0.07873486106758544
 -0.0017710764990157555 -0.009541282630591051 0.002058279737923763 0.014772914603124151 0.9910522517448446 -0.07873486106758544 0.007201204781454159 0.033327179089736716
0.11254689453939999 0.007721242877019225 0.03544632881583798 0.9903695848792922 -0.0834930141335971 0.0022529665312732575 0.015642237292944228 -0.001955228980095057 -0.010102636172480181
 0.9903695848792922 -0.0834930141335971 0.007717480053400153 0.035446712546239156 -0.001954803725425949 -0.010102663257437808 0.0022744886038133082 0.01563903083207917
 0.0022529665312732575 0.015642237292944228 -0.001954803725425949 -0.010102663257437808 0.0077215556645380675 0.035444768054147785 0.99036950977047 -0.08349450305659653
 -0.001955228980095057 -0.010102636172480181 0.0022744886038133082 0.01563903083207917 0.99036950977047 -0.08349450305659653 0.007717008225027548 0.03544524279946786
0.11879949979160001 0.008261376824056713 0.03757921511063227 0.989655939906559 -0.08826559553917908 0.002478249334514565 0.016507395756665023 -0.0021492504431838643 -0.010662875479543605
 0.989655939906559 -0.08826559553917908 0.008257185416227796 0.037579643609374234 -0.0021487781001585274 -0.010662908476198793 0.0025022335047953773 0.016503726515906845
 0.002478249334514565 0.016507395756665023 -0.0021487781001585274 -0.010662908476198793 0.008261725647160295 0.03757756211722612 0.9896558567565787 -0.08826716580471625
 -0.0021492504431838643 -0.010662875479543605 0.0025022335047953773 0.016503726515906845 0.9896558567565787 -0.08826716580471625 0.008256659547493305 0.03757809425110059
0.1250521050438 0.008825728622566368 0.039726498650835475 0.9889110456915041 -0.09305088493306789 0.0027150017937335896 0.01737098120522509 -0.0023532101291583764 -0.011221810047896104
 0.9889110456915041 -0.09305088493306789 0.008821085485102596 0.039726975102618016 -0.0023526883713523078 -0.011221849614003174 0.002741581447932508 0.01736680585030266
 0.0027150017937335896 0.01737098120522509 -0.0023526883713523078 -0.011221849614003174 0.008826115422194483 0.039724752520254356 0.9889109541279071 -0.09305253634784653
 -0.0023532101291583764 -0.011221810047896104 0.002741581447932508 0.01736680585030266 0.9889109541279071 -0.09305253634784653 0.008820502588254585 0.039725346437720306
0.131304710296 0.009414637895983272 0.04188778837117997 0.9881345673185126 -0.09784855805407339 0.002963287155395149 0.018232796477305146 -0.002567173356546337 -0.011779246318958686
 0.9881345673185126 -0.09784855805407339 0.009409519855496882 0.04188831607760325 -0.002566599878908024 -0.01177929314092608 0.002992595548291746 0.01822806957736323
 0.002963287155395149 0.018232796477305146 -0.002566599878908024 -0.01177929314092608 0.009415064605564528 0.04188594815168665 0.9881344669761812 -0.09785029041494908
 -0.002567173356546337 -0.011779246318958686 0.002992595548291746 0.01822806957736323 0.9881344669761812 -0.09785029041494908 0.009408876934009618 0.04188660843088833
0.1375573155481 0.00989952466016341 0.04378346009830376 0.9874551532788942 -0.10237888077601053 0.0031931278109667604 0.019065964397100902 -0.002761138957837159 -0.012308356126133246
 0.9874551532788942 -0.10237888077601053 0.009893905832819488 0.04378402982502129 -0.002760510166217503 -0.012308410319468742 0.0032252365819408924 0.0190606892865099
 0.0031931278109667604 0.019065964397100902 -0.002760510166217503 -0.012308410319468742 0.009899992303921955 0.043781525196022825 0.9874550437744943 -0.10238069388780813
 -0.002761138957837159 -0.012308356126133246 0.0032252365819408924 0.0190606892865099 0.9874550437744943 -0.10238069388780813 0.009893200817943636 0.04378224312957418
0.1438099208003 0.01040168360616189 0.04566809714773998 0.9867514625334699 -0.10689661492966814 0.0034321948399757014 0.01989505627842198 -0.002962801522598749 -0.012833679231139523
 0.9867514625334699 -0.10689661492966814 0.010395540353340678 0.04566871138636808 -0.002962114911072043 -0.012833741482458845 0.0034672259421782156 0.019889190980214275
 0.0034321948399757014 0.01989505627842198 -0.002962114911072043 -0.012833741482458845 0.01040219394054576 0.04566606659886778 0.9867513435091422 -0.10689850857996133
 -0.002962801522598749 -0.012833679231139523 0.0034672259421782156 0.019889190980214275 0.9867513435091422 -0.10689850857996133 0.010394770399909015 0.04566684591138453
0.1500625260525 0.010920921834749566 0.047541509563053745 0.9860236927458907 -0.11140161477875495 0.0036803942767658455 0.02071996578631026 -0.003172068923792666 -0.01335511475803477
 0.9860236927458907 -0.11140161477875495 0.010914230472594297 0.0475421709429405 -0.0031713219916408054 -0.01335518578192949 0.003718468829850726 0.020713466783093583
 0.0036803942767658455 0.02071996578631026 -0.0031713219916408054 -0.01335518578192949 0.010921476597508025 0.04753938236791324 0.9860235638505315 -0.1114035887450975
 -0.003172068923792666 -0.01335511475803477 0.003718468829850726 0.020713466783093583 0.9860235638505315 -0.1114035887450975 0.010913392736515445 0.0475402269695335
0.15631513130469998 0.011457044886980672 0.049403513030245705 0.9852720427929809 -0.11589373583754611 0.003937630934262147 0.0215405886608439 -0.003388847799570459 -0.013872564156136049
 0.9852720427929809 -0.11589373583754611 0.011449781684933767 0.04940422432113745 -0.003388038051331862 -0.013872644695069814 0.003978869209689866 0.021533410912474054
