! Created with skrf 1.8.0 (http://scikit-rf.org).
# GHz S RI R 50.0 
!freq ReS11 ImS11 ReS12 ImS12 ReS13 ImS13
! ReS14 ImS14
! ReS21 ImS21 ReS22 ImS22 ReS23 ImS23
! ReS24 ImS24
! ReS31 ImS31 ReS32 ImS32 ReS33 ImS33
! ReS34 ImS34
! ReS41 ImS41 ReS42 ImS42 ReS43 ImS43
! ReS44 ImS44
!
0.0 0.001426055029568 0.0 0.9985739449475 0.0 5.452637561965e-05 0.0 -5.452637573038e-05 6.677555150731579e-21
 0.9985739449475 0.0 0.001426055029544 0.0 -5.45263757294e-05 6.677555150611564e-21 5.452637561811e-05 0.0
 5.452637561965e-05 0.0 -5.45263757294e-05 6.677555150611564e-21 0.00142605503382 0.0 0.9985739449518 0.0
 -5.452637573038e-05 6.677555150731579e-21 5.452637561811e-05 0.0 0.9985739449518 0.0 0.001426055033844 0.0
0.005 0.0015339374946872742 0.001172191823690747 0.9984375348033049 -0.002987249548349029 7.538599102876682e-05 0.0005690425139194636 -7.345567850787683e-05 -0.00036277407965825325
 0.9984375348033049 -0.002987249548349029 0.0015339460048087636 0.0011721869279239232 -7.345310113952692e-05 -0.00036277219813884146 7.535278880279353e-05 0.0005690553719703183
 7.538599102876682e-05 0.0005690425139194636 -7.345310113952692e-05 -0.00036277219813884146 0.0015339379542077425 0.0011721243488483318 0.9984375344527593 -0.002987316609825079
 -7.345567850787683e-05 -0.00036277407965825325 7.535278880279353e-05 0.0005690553719703183 0.9984375344527593 -0.002987316609825079 0.0015339448452465073 0.001172120279692253
0.006252605252188 0.00156213566210893 0.0014698395434466801 0.9984016734894633 -0.003734805104726571 8.128414494161409e-05 0.0007115999788861808 -7.875043725895513e-05 -0.0004539346538105925
 0.9984016734894633 -0.003734805104726571 0.0015621489638134689 0.001469833276986942 -7.874642585336469e-05 -0.0004539323356616563 8.123227181542887e-05 0.0007116166317232454
 8.128414494161409e-05 0.0007115999788861808 -7.874642585336469e-05 -0.0004539323356616563 0.0015621364611263981 0.0014697552098735514 0.9984016730225892 -0.0037348889292475444
 -7.875043725895513e-05 -0.0004539346538105925 8.123227181542887e-05 0.0007116166317232454 0.9984016730225892 -0.0037348889292475444 0.0015621472327766105 0.0014697499615728034
0.01250521050438 0.0017100173387252793 0.0029704142375806763 0.9982124504551504 -0.00747047923401015 0.00011478534940259412 0.0014236920376747564 -0.00010852531764466576 -0.0009100982566487617
 0.9982124504551504 -0.00747047923401015 0.0017100704369339774 0.00297040020366615 -0.00010850949882662705 -0.0009100939895776251 0.00011457856554153348 0.0014237316012822494
 0.00011478534940259412 0.0014236920376747564 -0.00010850949882662705 -0.0009100939895776251 0.0017100210781440244 0.0029702459066979826 0.9982124491483466 -0.00747064661938803
 -0.00010852531764466576 -0.0009100982566487617 0.00011457856554153348 0.0014237316012822494 0.9982124491483466 -0.00747064661938803 0.001710064091849337 0.00297023376763551
0.01875781575657 0.0018700033405180541 0.004492364105865548 0.9980060545536622 -0.011216128989245093 0.00015510547227992865 0.002136729505541411 -0.00014393775802649453 -0.001367890125058147
 0.9980060545536622 -0.011216128989245093 0.0018701226267066851 0.004492340660856782 -0.00014390246672440224 -0.0013678843484352123 0.00015464112622215088 0.002136799442517909
 0.00015510547227992865 0.002136729505541411 -0.00014390246672440224 -0.0013678843484352123 0.0018700121440658943 0.004492111922615421 0.9980060520354295 -0.011216379851079615
 -0.00014393775802649453 -0.001367890125058147 0.00015464112622215088 0.002136799442517909 0.9980060520354295 -0.011216379851079615 0.001870108806494325 0.004492091136087746
0.02501042100875 0.002042389025907219 0.0060335920125034245 0.9977822562524692 -0.014973589737415754 0.00020232096916607403 0.002850746477550262 -0.00018507222458565245 -0.0018271244561034626
 0.9977822562524692 -0.014973589737415754 0.0020426008204075074 0.006033557375578155 -0.00018500988200358245 -0.0018271176869509656 0.0002014964644858888 0.0028508553973529537
 0.00020232096916607403 0.002850746477550262 -0.00018500988200358245 -0.0018271176869509656 0.00204240500738591 0.00603325610289504 0.9977822521558817 -0.014973923999972877
 -0.00018507222458565245 -0.0018271244561034626 0.0002014964644858888 0.0028508553973529537 0.9977822521558817 -0.014973923999972877 0.002042576684385335 0.0060332248000845605
0.03126302626094 0.002227457498327044 0.007593029369685659 0.9975408136123517 -0.018743659872698593 0.00025650880201729125 0.0035657157040047695 -0.00023201113597638752 -0.002287672417852143
 0.9975408136123517 -0.018743659872698593 0.002227788062320958 0.007592981623079996 -0.00023191423469232967 -0.0022876652518868854 0.0002552214917727088 0.0035658733662872824
 0.00025650880201729125 0.0035657157040047695 -0.00023191423469232967 -0.0022876652518868854 0.00222748275718914 0.007592609824264886 0.9975408075688869 -0.018744077485840678
 -0.00023201113597638752 -0.002287672417852143 0.0002552214917727088 0.0035658733662872824 0.9975408075688869 -0.018744077485840678 0.0022277507823022127 0.007592566023964398
0.037515631513130004 0.002425485897330397 0.009169987491140523 0.9972814787409766 -0.022526749404328524 0.0003177457504344708 0.0042815857611310576 -0.0002848354115777341 -0.002749424971521813
 0.9972814787409766 -0.022526749404328524 0.002425961439544017 0.009169924579865804 -0.00028469650794437637 -0.0027494180835484746 0.00031589288715765335 0.004281803085493308
 0.0003177457504344708 0.0042815857611310576 -0.00028469650794437637 -0.0027494180835484746 0.0024255225223170375 0.009169484375927144 0.9972814703831562 -0.02252725033273673
 -0.0002848354115777341 -0.002749424971521813 0.00031589288715765335 0.004281803085493308 0.9972814703831562 -0.02252725033273673 0.0024259082019359468 0.009169425984128777
0.043768236765320004 0.0026367478424562754 0.010763960172612913 0.9970040004007498 -0.026323077309461332 0.0003861080881875356 0.0049982923537338205 -0.00034362467129950085 -0.003212281561704878
 0.9970040004007498 -0.026323077309461332 0.0026373945242996483 0.010763879903863153 -0.00034343638105921665 -0.0032122757058162107 0.0003835867977024424 0.00499858143140362
 0.0003861080881875356 0.0049982923537338205 -0.00034343638105921665 -0.0032122757058162107 0.002636797911042037 0.010763373546065741 0.9970039893607875 -0.02632366151574977
 -0.00034362467129950085 -0.003212281561704878 0.0003835867977024424 0.00499858143140362 0.9970039893607875 -0.02632366151574977 0.0026373225277245647 0.0107632983555235
0.050020842017509996 0.00286151456904196 0.01237454213368773 0.996708125312062 -0.030132753022413937 0.0004616713913051787 0.005715762978555325 -0.00040845730885903805 -0.003676145446889364
 0.996708125312062 -0.030132753022413937 0.00286235850854759 0.012374442176213156 -0.00040821230432941554 -0.0036761414565998837 0.0004583786590346079 0.005716137085000246
 0.0004616713913051787 0.005715762978555325 -0.00040821230432941554 -0.0036761414565998837 0.0028615801491355753 0.012373872039602178 0.9967081112227313 -0.03013342047429615
 -0.00040845730885903805 -0.003676145446889364 0.0004583786590346079 0.005716137085000246 0.9967081112227313 -0.03013342047429615 0.0028622649646085 0.012373777729337588
0.055454545454549996 0.0030680205030589316 0.013787406854295465 0.9964358628046572 -0.03345434898086576 0.0005332443269358822 0.006339826395031569 -0.0004697667744780218 -0.004080001300266145
 0.9964358628046572 -0.03345434898086576 0.0030690570447760197 0.013787287785454613 -0.0004694665750890789 -0.00407999966991325 0.0005291974142013723 0.00634028610487591
 0.0005332443269358822 0.006339826395031569 -0.0004694665750890789 -0.00407999966991325 0.0030681012343589816 0.013786664250737523 0.9964358457668157 -0.03345508875123775
 -0.0004697667744780218 -0.004080001300266145 0.0005291974142013723 0.00634028610487591 0.9964358457668157 -0.03345508875123775 0.0030689425198212107 0.013786551351255893
0.056273447269699996 0.0031000555214659225 0.014001388961132346 0.99639359891557 -0.03395581642266248 0.0005445104020377927 0.006433919211370285 -0.0004794105103913386 -0.004140921408094385
 0.99639359891557 -0.03395581642266248 0.003101122795948941 0.014001266844602404 -0.0004791015186212948 -0.0041409201964406625 0.000540343066909196 0.006434392819297961
 0.0005445104020377927 0.006433919211370285 -0.0004791015186212948 -0.0041409201964406625 0.003100138670701485 0.014000635430719584 0.9963935814094631 -0.03395656709085511
 -0.0004794105103913386 -0.004140921408094385 0.000540343066909196 0.006434392819297961 0.9963935814094631 -0.03395656709085511 0.0031010049278856213 0.014000519565543471
0.06252605252188 0.0033526386743172663 0.015644195099514886 0.9960601658679271 -0.03779225977708424 0.0006346989210796116 0.007152677966876739 -0.0005565602448282073 -0.004606514486918558
 0.9960601658679271 -0.03779225977708424 0.0033539553235452223 0.01564404821368115 -0.0005561800463746562 -0.004606517046544063 0.000629553674271666 0.007153266759485542
 0.0006346989210796116 0.007152677966876739 -0.0005561800463746562 -0.004606517046544063 0.0033527414409915317 0.015643358145412498 0.9960601445777534 -0.037793093641367674
 -0.0005565602448282073 -0.004606514486918558 0.000629553674271666 0.007153266759485542 0.9960601445777534 -0.037793093641367674 0.0033538103665570586 0.01564321817529859
0.06877865777407 0.003619530709879109 0.017302680720129932 0.995707570394764 -0.04164204080579692 0.0007323097165755241 0.00787195224589235 -0.0006399812368195541 -0.0050728292388490005
 0.995707570394764 -0.04164204080579692 0.003621122738143211 0.017302506314029326 -0.000639522664986385 -0.005072836642057108 0.0007260831036337832 0.007872673130203884
 0.0007323097165755241 0.00787195224589235 -0.000639522664986385 -0.005072836642057108 0.0036196551329762514 0.017301760351950024 0.995707544953044 -0.04164295783939928
 -0.0006399812368195541 -0.0050728292388490005 0.0007260831036337832 0.007872673130203884 0.995707544953044 -0.04164295783939928 0.0036209479386517026 0.01730159361157085
0.07503126302626001 0.0039009971093409497 0.01897658339980006 0.9953355565621966 -0.045505090941125176 0.0008374144418987397 0.008591651607818345 -0.0007297469297688446 -0.005539769264020812
 0.9953355565621966 -0.045505090941125176 0.0039028904880114234 0.0189763785808464 -0.0007292028701288086 -0.005539782662835267 0.0008300028677538692 0.00859252272804267
 0.0008374144418987397 0.008591651607818345 -0.0007292028701288086 -0.005539782662835267 0.003901145219393434 0.018975579606893903 0.9953355266015596 -0.04550609112801579
 -0.0007297469297688446 -0.005539769264020812 0.0008300028677538692 0.00859252272804267 0.9953355266015596 -0.04550609112801579 0.003902683104071839 0.018975383314874816
0.08128386827845 0.004197302189411434 0.020665652578872668 0.9949438684951907 -0.04938132081001694 0.0009500835585835876 0.009311682493931476 -0.0008259294430413886 -0.006007236890057282
 0.9949438684951907 -0.04938132081001694 0.004199522859083979 0.020665414311887457 -0.0008252928331659997 -0.006007257516259869 0.0009413832941370514 0.009312723244808765
 0.0009500835585835876 0.009311682493931476 -0.0008252928331659997 -0.006007257516259869 0.004197476007856345 0.020664565342691284 0.9949438336478137 -0.0493824041324283
 -0.0008259294430413886 -0.006007236890057282 0.0009413832941370514 0.009312723244808765 0.9949438336478137 -0.0493824041324283 0.004199280159432384 0.02066433660094595
0.08753647353064001 0.004508709103977794 0.022369645732524146 0.9945322505658617 -0.05327062400652943 0.001070386264014441 0.010031948444138804 -0.0009285995229736661 -0.00647513296448007
 0.9945322505658617 -0.05327062400652943 0.004511282976444892 0.022369370838669383 -0.0009278633524333161 -0.00647516212963158 0.0010602934544951606 0.010033179484244314
 0.001070386264014441 0.010031948444138804 -0.0009278633524333161 -0.00647516212963158 0.004508910643926336 0.022368475024586016 0.9945322104632748 -0.05327179044707731
 -0.0009285995229736661 -0.00647513296448007 0.0010602934544951606 0.010033179484244314 0.9945322104632748 -0.05327179044707731 0.004511002240297049 0.022368210817589815
0.09378907878283 0.004835479819819856 0.02408832562968512 0.994100447556907 -0.05717287978022533 0.00119839042046414 0.010752350260762095 -0.001037826491674165 -0.006943356703243948
 0.994100447556907 -0.05717287978022533 0.004838432780119778 0.024088010785427577 -0.0010369838020313257 -0.006943395798709735 0.0011868010950771865 0.010753793525743684
 0.00119839042046414 0.010752350260762095 -0.0010369838020313257 -0.006943395798709735 0.00483571108604109 0.024087071407996388 0.9941004018302845 -0.057174129325323855
 -0.001037826491674165 -0.006943356703243948 0.0011868010950771865 0.010753793525743684 0.9941004018302845 -0.057174129325323855 0.004838111297405035 0.024086768601966697
0.100041684035 0.0051778750756377966 0.025821458324252786 0.9936482048127377 -0.061087954995784115 0.0013341624861619025 0.01147278612836562 -0.0011536781926289382 -0.007411805586529335
 0.9936482048127377 -0.061087954995784115 0.005181232983878338 0.02582110006013538 -0.0011527220776645286 -0.007411856083474269 0.0013209725688170693 0.011474464844021945
 0.0013341624861619025 0.01147278612836562 -0.0011527220776645286 -0.007411856083474269 0.005178138065214212 0.02582012053673877 0.9936481530930408 -0.061089287632286146
 -0.0011536781926289382 -0.007411805586529335 0.0013209725688170693 0.011474464844021945 0.9936481530930408 -0.061089287632286146 0.005180868055112736 0.025819775878806267
0.1059090909091 0.005513618193881834 0.027460757363281855 0.9932050070205714 -0.06477336879660915 0.001468692905835428 0.012148776836916893 -0.0012684769350312518 -0.007851507031802088
 0.9932050070205714 -0.06477336879660915 0.0055173796019051475 0.027460355067749236 -0.0012674081480550398 -0.00785156963690966 0.0014539062630398822 0.012150698782405574
 0.001468692905835428 0.012148776836916893 -0.0012674081480550398 -0.00785156963690966 0.0055139127618671 0.02745934110047836 0.9932049493405906 -0.06477477939516119
 -0.0012684769350312518 -0.007851507031802088 0.0014539062630398822 0.012150698782405574 0.9932049493405906 -0.06477477939516119 0.005516971457597284 0.02745895410359837
0.1062942892872 0.005536154327585099 0.027568811645625614 0.9931752683791316 -0.06501570559727866 0.0014777674473330014 0.012193151708503632 -0.0012762209344600486 -0.007880375282883937
 0.9931752683791316 -0.06501570559727866 0.005539943021002638 0.027568406345063717 -0.001275144540436672 -0.00788043873226137 0.0014628727682217952 0.012195090403847749
 0.0014777674473330014 0.012193151708503632 -0.001275144540436672 -0.00788043873226137 0.005536451029761841 0.027567390229114697 0.993175210296439 -0.06501712131334862
 -0.0012762209344600486 -0.007880375282883937 0.0014628727682217952 0.012195090403847749 0.993175210296439 -0.06501712131334862 0.005539531956893319 0.027567000346358814
0.11254689453939999 0.005910575684772108 0.02933015404104247 0.9926813851357759 -0.06895597772446001 0.001629268750702887 0.012913340214453574 -0.0014055194331089847 -0.008348959596948776
 0.9926813851357759 -0.06895597772446001 0.005914820979367207 0.02932969793898699 -0.001404315959129757 -0.00834903762947783 0.0016125650589292075 0.012915564734530562
 0.001629268750702887 0.012913340214453574 -0.001404315959129757 -0.00834903762947783 0.005910908081320631 0.029328648919282076 0.9926813203196262 -0.06895747651153109
 -0.0014055194331089847 -0.008348959596948776 0.0016125650589292075 0.012915564734530562 0.9926813203196262 -0.06895747651153109 0.005914361100826951 0.029328210317803704
0.11879949979160001 0.006301395836757431 0.031105253672837837 0.9921663029236436 -0.07290860857841966 0.0017887282365340084 0.013633242476789886 -0.0015416367528724728 -0.008817450429797364
 0.9921663029236436 -0.07290860857841966 0.006306123529333487 0.031104742854414443 -0.0015402994512727281 -0.008817544755930589 0.0017701112132990293 0.013635779995411093
 0.0017887282365340084 0.013633242476789886 -0.0015402994512727281 -0.008817544755930589 0.006301765901831057 0.031103664759501083 0.9921662310027025 -0.07291019042818198
 -0.0015416367528724728 -0.008817450429797364 0.0017701112132990293 0.013635779995411093 0.9921662310027025 -0.07291019042818198 0.006305612167165975 0.031103173823296863
0.1250521050438 0.006708869974537666 0.03289387770708951 0.9916297706684868 -0.07687342710013056 0.0019562060721553783 0.01435274699595606 -0.0016846342460090488 -0.009285737755922755
 0.9916297706684868 -0.07687342710013056 0.006714105844671266 0.032893308106039056 -0.0016831564228750302 -0.009285850165777338 0.0019355713446279948 0.01435562602825188
 0.0019562060721553783 0.01435274699595606 -0.0016831564228750302 -0.009285850165777338 0.0067092796755167895 0.032892204904434744 0.991629691270655 -0.07687509200565545
 -0.0016846342460090488 -0.009285737755922755 0.0019355713446279948 0.01435562602825188 0.991629691270655 -0.07687509200565545 0.006713540339758713 0.032891657894316625
0.131304710296 0.007133251707480432 0.03469579174399535 0.991071538502227 -0.08085025451149018 0.0021317606854266364 0.015071739989543783 -0.001834571491771056 -0.009753709609226289
 0.991071538502227 -0.08085025451149018 0.007139021518725635 0.03469515914122599 -0.0018329465073627293 -0.009753841972534759 0.0021090038414762003 0.015074990404315286
 0.0021317606854266364 0.015071739989543783 -0.0018329465073627293 -0.009753841972534759 0.007133703004513722 0.03469403494122 0.9910714512543787 -0.08085200246895402
 -0.001834571491771056 -0.009753709609226289 0.0021090038414762003 0.015074990404315286 0.9910714512543787 -0.08085200246895402 0.007138399222029075 0.03469342799359067
0.1375573155481 0.007474385197110685 0.03627702717398874 0.9905917987937392 -0.08460508759183315 0.002292447135733565 0.015766828000619494 -0.0019685311235664283 -0.010197969530302648
 0.9905917987937392 -0.08460508759183315 0.007480717379026638 0.03627634190141243 -0.0019667494665269267 -0.010198121925055143 0.0022675075127069058 0.01577044415352529
 0.002292447135733565 0.015766828000619494 -0.0019667494665269267 -0.010198121925055143 0.007474881087416607 0.03627518553875444 0.9905917033426538 -0.08460691855924578
 -0.0019685311235664283 -0.010197969530302648 0.0022675075127069058 0.01577044415352529 0.9905917033426538 -0.08460691855924578 0.007480034564681335 0.036274530719529144
0.1438099208003 0.007827436690632277 0.037850499123608175 0.9900953625872169 -0.08835094678287587 0.002459622134845258 0.016459359230942716 -0.002107849546214614 -0.010639874151223725
 0.9900953625872169 -0.08835094678287587 0.0078343574194472 0.03784975799914653 -0.00210590413720582 -0.01064004840090891 0.0024324031864492958 0.016463368465300447
 0.002459622134845258 0.016459359230942716 -0.00210590413720582 -0.01064004840090891 0.00782797931194048 0.03784857245731391 0.9900952585631315 -0.08835286074831997
 -0.002107849546214614 -0.010639874151223725 0.0024324031864492958 0.016463368465300447 0.9900952585631315 -0.08835286074831997 0.007833611256163074 0.037847867106003207
0.1500625260525 0.008192289335913669 0.03941609215836777 0.9895823503102615 -0.09208775507958611 0.0026332321320800345 0.017149272064025844 -0.002252474655088396 -0.01107936470105055
 0.9895823503102615 -0.09208775507958611 0.008199824796286725 0.03941529184906909 -0.0022503584320138544 -0.011079562701828208 0.002603637781800281 0.0171537027346194
 0.0026332321320800345 0.017149272064025844 -0.0022503584320138544 -0.011079562701828208 0.008192880831610095 0.039414080251568305 0.9895822373430644 -0.09208975203042769
 -0.002252474655088396 -0.01107936470105055 0.002603637781800281 0.0171537027346194 0.9895822373430644 -0.09208975203042769 0.008199012449165818 0.03941332158317587
0.15631513130469998 0.008568825544391562 0.04097369439309045 0.9890528828982189 -0.09581543543137809 0.002813222997410405 0.01783650586204501 -0.0024023537528772634 -0.011516383586627309
