! Created with skrf 1.8.0 (http://scikit-rf.org).
# GHz S RI R 50.0 
!freq ReS11 ImS11 ReS12 ImS12 ReS13 ImS13
! ReS14 ImS14
! ReS21 ImS21 ReS22 ImS22 ReS23 ImS23
! ReS24 ImS24
! ReS31 ImS31 ReS32 ImS32 ReS33 ImS33
! ReS34 ImS34
! ReS41 ImS41 ReS42 ImS42 ReS43 ImS43
! ReS44 ImS44
!
0.0 0.001509041486582 0.0 0.9984909585056 0.0 5.814100069179e-05 0.0 -5.814100033566e-05 7.12021899602912e-21
 0.9984909585056 0.0 0.001509041486596 0.0 -5.814100033636e-05 7.120218996114846e-21 5.814100069079e-05 0.0
 5.814100069179e-05 0.0 -5.814100033636e-05 7.120218996114846e-21 0.001509041490246 0.0 0.9984909585092 0.0
 -5.814100033566e-05 7.12021899602912e-21 5.814100069079e-05 0.0 0.9984909585092 0.0 0.001509041490227 0.0
0.005 0.0016235169128261332 0.0012347818692645767 0.9983461701097992 -0.0031611144834986543 8.128718648991654e-05 0.0006396977014040481 -7.904470203912079e-05 -0.0004016897733369765
 0.9983461701097992 -0.0031611144834986543 0.0016234971325188305 0.0012347933649895543 -7.904542438417693e-05 -0.0004016902529627573 8.140563970600801e-05 0.0006396525560579594
 8.128718648991654e-05 0.0006396977014040481 -7.904542438417693e-05 -0.0004016902529627573 0.0016235165717543153 0.0012347147410098386 0.9983461697574377 -0.0031611815507301693
 -7.904470203912079e-05 -0.0004016897733369765 8.140563970600801e-05 0.0006396525560579594 0.9983461697574377 -0.0031611815507301693 0.0016234967679858304 0.0012347263560540992
0.006252605252188 0.001653514478764067 0.0015483377191115786 0.998308000367556 -0.0039521707390943375 8.785790733662818e-05 0.0007999359372879199 -8.493106111202523e-05 -0.0005026329949826176
 0.998308000367556 -0.0039521707390943375 0.0016534835593204763 0.0015483523320911155 -8.493218574967993e-05 -0.0005026335847853165 8.804297936303389e-05 0.0007998773314255499
 8.785790733662818e-05 0.0007999359372879199 -8.493218574967993e-05 -0.0005026335847853165 0.0016535140200065533 0.0015482538130853678 0.9983079998907108 -0.003952254561128725
 -8.493106111202523e-05 -0.0005026329949826176 8.804297936303389e-05 0.0007998773314255499 0.9983079998907108 -0.003952254561128725 0.0016534830629101208 0.001548268588508036
0.01250521050438 0.0018112770994370005 0.003129144393357066 0.9981059883298024 -0.007905173476911857 0.0001253190581132514 0.0016002611201326896 -0.00011824608022291637 -0.0010077201239643758
 0.9981059883298024 -0.007905173476911857 0.0018111536478160185 0.003129176075971735 -0.00011825051970568161 -0.0010077211961380653 0.0001260570767384136 0.001600120477771885
 0.0001253190581132514 0.0016002611201326896 -0.00011825051970568161 -0.0010077211961380653 0.0018112758259119436 0.003128976759445961 0.9981059869765069 -0.00790534085712287
 -0.00011824608022291637 -0.0010077201239643758 0.0001260570767384136 0.001600120477771885 0.9981059869765069 -0.00790534085712287 0.001811152208001653 0.003129008903265609
0.01875781575657 0.0019826680623682424 0.0047324914212332194 0.9978846751472841 -0.011868634714626462 0.00017061200134961538 0.002401515963735728 -0.000158187384836261 -0.0015145390897651923
 0.9978846751472841 -0.011868634714626462 0.0019823906811102417 0.004732542813926064 -0.00015819729537753184 -0.0015145405139051049 0.00017226986925963472 0.00240126532988883
 0.00017061200134961538 0.002401515963735728 -0.00015819729537753184 -0.0015145405139051049 0.001982665642308748 0.004732240060463884 0.9978846725333703 -0.011868885543613216
 -0.000158187384836261 -0.0015145390897651923 0.00017226986925963472 0.00240126532988883 0.9978846725333703 -0.011868885543613216 0.0019823878554593656 0.0047322923603585615
0.02501042100875 0.002168016435900031 0.006356140960136397 0.997643803979177 -0.015844480221706283 0.00022382477717166864 0.0032037392103724106 -0.00020485312757135868 -0.0020228637519260693
 0.997643803979177 -0.015844480221706283 0.0021675238635343883 0.006356214866611133 -0.0002048706430662529 -0.002022865372663664 0.0002267695368992039 0.0032033462686545684
 0.00022382477717166864 0.0032037392103724106 -0.0002048706430662529 -0.002022865372663664 0.0021680125405397622 0.006355805825110155 0.9976437997160185 -0.01584481441558179
 -0.00020485312757135868 -0.0020228637519260693 0.0002267695368992039 0.0032033462686545684 0.9976437997160185 -0.01584481441558179 0.0021675191943102672 0.006355881243724773
0.03126302626094 0.002367637680188482 0.007998943806031352 0.997383104673688 -0.019833537115811373 0.0002850456781240345 0.004006896133219728 -0.00025833876651070787 -0.0025325360299627894
 0.997383104673688 -0.019833537115811373 0.0023668687579876868 0.007999043189266654 -0.00025836600229010284 -0.002532537666667311 0.00028964485889521475 0.0040063241812019834
 0.0002850456781240345 0.004006896133219728 -0.00025836600229010284 -0.002532537666667311 0.0023676319886987715 0.007998524823790869 0.9973830983735158 -0.019833954593316667
 -0.00025833876651070787 -0.0025325360299627894 0.00028964485889521475 0.0040063241812019834 0.9973830983735158 -0.019833954593316667 0.00236686177828991 0.0079986264949945
0.037515631513130004 0.0025818404875949546 0.009660152506034362 0.9971023008218335 -0.02383622068810333 0.0003543625154284247 0.0048109230168687745 -0.0003187377503605153 -0.003043421434026238
 0.9971023008218335 -0.02383622068810333 0.0025807341374836433 0.00966028048635752 -0.00031877680510362195 -0.0030434228806550615 0.00036098429106995797 0.004810130922099834
 0.0003543625154284247 0.0048109230168687745 -0.00031877680510362195 -0.0030434228806550615 0.002581832689201727 0.009659649567639969 0.9971022921011272 -0.02383672138094147
 -0.0003187377503605153 -0.003043421434026238 0.00036098429106995797 0.004810130922099834 0.9971022921011272 -0.02383672138094147 0.0025807243738449636 0.009659780794961475
0.043768236765320004 0.002810929425397509 0.011339212301741085 0.9968011126127165 -0.027852743389802308 0.00043186226557318343 0.005615740693453639 -0.00038614176721107386 -0.003555395531847115
 0.9968011126127165 -0.027852743389802308 0.0028094246328587897 0.011339372155579121 -0.0003861947240129421 -0.003555396556860214 0.0004408755318425493 0.005614682843380501
 0.00043186226557318343 0.005615740693453639 -0.0003861947240129421 -0.003555396556860214 0.002810919215504235 0.011338625281230197 0.9968011010884547 -0.027853327223646297
 -0.00038614176721107386 -0.003555395531847115 0.0004408755318425493 0.005614682843380501 0.9968011010884547 -0.027853327223646297 0.0028094116019226102 0.011338789536887136
0.050020842017509996 0.0030552061614991213 0.013035674744817755 0.9964792582716412 -0.03188320114465156 0.0005176308570105565 0.006421260124491209 -0.0004606408323470566 -0.004068338369575984
 0.9964792582716412 -0.03188320114465156 0.0030532419602439585 0.013035869904115316 -0.00046070975932218603 -0.004068338715853036 0.0005294052661006598 0.006419886373889251
 0.0005176308570105565 0.006421260124491209 -0.00046070975932218603 -0.004068338715853036 0.0030551932427485932 0.013035003495397898 0.9964792435634309 -0.031883868042954504
 -0.0004606408323470566 -0.004068338369575984 0.0005294052661006598 0.006419886373889251 0.9964792435634309 -0.031883868042954504 0.003053225170578825 0.013035204419944763
0.055454545454549996 0.0032800569775304836 0.01452378529776908 0.9961825539816013 -0.03539712630038096 0.0005989475060347979 0.007121776291553672 -0.000531213492414483 -0.004514796147629589
 0.9961825539816013 -0.03539712630038096 0.003277644051430272 0.01452401404633424 -0.0005312979662043113 -0.004514795675339683 0.0006134222289617751 0.007120083729020222
 0.0005989475060347979 0.007121776291553672 -0.0005312979662043113 -0.004514795675339683 0.0032800414675346074 0.014523040716813373 0.9961825361985961 -0.03539786531893844
 -0.000531213492414483 -0.004514796147629589 0.0006134222289617751 0.007120083729020222 0.9961825361985961 -0.03539786531893844 0.003277623588741269 0.014523276595089922
0.056273447269699996 0.0033149700965172785 0.014749155288491219 0.9961364549089783 -0.035927615686661175 0.0006117530145696423 0.007227385146333151 -0.0005423233078694334 -0.004582131730954237
 0.9961364549089783 -0.035927615686661175 0.003312485555007096 0.014749389340468544 -0.0005424102585785334 -0.004582131115735075 0.0006266589837975831 0.00722564076354276
 0.0006117530145696423 0.007227385146333151 -0.0005424102585785334 -0.004582131115735075 0.0033149541774681853 0.014748399642901549 0.9961364366381767 -0.035928365570206094
 -0.0005423233078694334 -0.004582131730954237 0.0006266589837975831 0.00722564076354276 0.9961364366381767 -0.035928365570206094 0.003312464505895934 0.014748641045298126
0.06252605252188 0.003590518702379665 0.016479309984560955 0.995772419078291 -0.03998595779450568 0.0007143121335081839 0.008034013976112135 -0.0006312758864647056 -0.005096657638883247
 0.995772419078291 -0.03998595779450568 0.003587452910839943 0.016479586671908773 -0.0006313829000683494 -0.005096655753711687 0.0007327208371144607 0.008031839588777389
 0.0007143121335081839 0.008034013976112135 -0.0006313829000683494 -0.005096655753711687 0.0035904994968441045 0.01647846975590593 0.995772396867859 -0.03998679058067142
 -0.0006312758864647056 -0.005096657638883247 0.0007327208371144607 0.008031839588777389 0.995772396867859 -0.03998679058067142 0.003587427092598932 0.016478755613861196
0.06877865777407 0.003882147702550033 0.018225821569307892 0.9953868671792834 -0.044058161140619986 0.0008253901700313832 0.008841040114470889 -0.0007275835545122815 -0.005611797463664081
 0.9953868671792834 -0.044058161140619986 0.0038784397604729637 0.018226144790666796 -0.0007277126558890089 -0.0056117939743384184 0.0008476735188091785 0.008838371655160238
 0.0008253901700313832 0.008841040114470889 -0.0007277126558890089 -0.0056117939743384184 0.00388212493008626 0.01822489655176936 0.9953868406554652 -0.04405907674258618
 -0.0007275835545122815 -0.005611797463664081 0.0008476735188091785 0.008838371655160238 0.9953868406554652 -0.04405907674258618 0.003878408655281115 0.018225231012516656
0.07503126302626001 0.004190151157546194 0.019988390667240025 0.9949795157700774 -0.04814413102593908 0.000945067541429314 0.009648352918383113 -0.0008313295423191188 -0.00612743136494185
 0.9949795157700774 -0.04814413102593908 0.004185740161342395 0.019988764478161426 -0.0008314827420909626 -0.006127425911462388 0.0009715981534482005 0.00964512157029643
 0.000945067541429314 0.009648352918383113 -0.0008314827420909626 -0.006127425911462388 0.004190124541764056 0.019987380635393834 0.9949794845606271 -0.0481451293534125
 -0.0008313295423191188 -0.00612743136494185 0.0009715981534482005 0.00964512157029643 0.9949794845606271 -0.0481451293534125 0.0041857032418508985 0.019987768016879258
0.08128386827845 0.004514821490485699 0.021766729913788762 0.9945500818230432 -0.052243750200152414 0.001073423031619138 0.010455837987662519 -0.0009425952663926713 -0.006643437923987173
 0.9945500818230432 -0.052243750200152414 0.004509646521737164 0.02176715852798463 -0.0009427745608823075 -0.006643430120528061 0.0011045741960888336 0.01045197013060486
 0.001073423031619138 0.010455837987662519 -0.0009427745608823075 -0.006643430120528061 0.004514790759466937 0.02176563462560967 0.9945500455586342 -0.05224483115646426
 -0.0009425952663926713 -0.006643437923987173 0.0011045741960888336 0.01045197013060486 0.9945500455586342 -0.05224483115646426 0.004509603252013813 0.021766079417864643
0.08753647353064001 0.004856449474425428 0.023560559910103147 0.994098282944515 -0.056356882854361516 0.0012105337008344677 0.011263377436413785 -0.001061460265628571 -0.007159693895278361
 0.994098282944515 -0.056356882854361516 0.0048504495873853476 0.02356104770110679 -0.0010616676367214506 -0.0071596833301414845 0.0012466793361236902 0.01125879459317767
 0.0012105337008344677 0.011263377436413785 -0.0010616676367214506 -0.0071596833301414845 0.004856414359605419 0.023559379103012697 0.9940982412585251 -0.056358046340412145
 -0.001061460265628571 -0.007159693895278361 0.0012466793361236902 0.01125879459317767 0.9940982412585251 -0.056358046340412145 0.00485039942262996 0.02355988597012562
0.09378907878283 0.005215324192287298 0.025369606323276506 0.9936238375730572 -0.06048337747314295 0.001356474797049394 0.01207085009113498 -0.0011880021337089997 -0.0076760740358466865
 0.9936238375730572 -0.06048337747314295 0.005208438402193229 0.02537015782648725 -0.001188239548729743 -0.007676060271445275 0.0013979894042295178 0.012065468874318227
 0.001356474797049394 0.01207085009113498 -0.001188239548729743 -0.007676060271445275 0.005215284427856514 0.02536833971929019 0.9936237901012211 -0.06048462338235268
 -0.0011880021337089997 -0.0076760740358466865 0.0013979894042295178 0.012065468874318227 0.9936237901012211 -0.06048462338235268 0.005208380788531006 0.02536891350153231
0.100041684035 0.005591732975619414 0.027193597765246914 0.9931264651567632 -0.06462306891296817 0.0015113196696194412 0.012878131642203814 -0.0013222964479876955 -0.00819245098572099
 0.9931264651567632 -0.06462306891296817 0.005583900246598222 0.027194217680363657 -0.0013225658595801683 -0.00819243355854396 0.0015585782817770146 0.012871863701698098
 0.0015113196696194412 0.012878131642203814 -0.0013225658595801683 -0.00819243355854396 0.005591688298645439 0.02719224506528528 0.9931264115382364 -0.06462439713701727
 -0.0013222964479876955 -0.00819245098572099 0.0015585782817770146 0.012871863701698098 0.9931264115382364 -0.06462439713701727 0.005583834621304288 0.027192890781862916
0.1059090909091 0.005961154087773051 0.028918572051758188 0.99263863312539 -0.0685195749196386 0.0016647866432779822 0.013635392567242994 -0.0014554336730672524 -0.008676897701294406
 0.99263863312539 -0.0685195749196386 0.0059523771893600684 0.028919260587430728 -0.0014557348726669706 -0.00867687639233728 0.0017177769097339274 0.013628207710785583
 0.0016647866432779822 0.013635392567242994 -0.0014557348726669706 -0.00867687639233728 0.005961104563456095 0.028917138274736885 0.9926385734131011 -0.06852098028178343
 -0.0014554336730672524 -0.008676897701294406 0.0017177769097339274 0.013628207710785583 0.9926385734131011 -0.06852098028178343 0.005952303526273083 0.02891785622096127
0.1062942892872 0.00598596133155592 0.029032264194925755 0.9926058863242974 -0.06877577996276305 0.0016751396835310592 0.013685094763544797 -0.0014644166963000867 -0.008708695184937163
 0.9926058863242974 -0.06877577996276305 0.005977120564534075 0.029032957388846703 -0.0014647200421848453 -0.008708673605544674 0.0017285178117343767 0.013677846734588701
 0.0016751396835310592 0.013685094763544797 -0.0014647200421848453 -0.008708673605544674 0.005985911481051493 0.029030825085212427 0.9926058262010309 -0.06877719038529659
 -0.0014644166963000867 -0.008708695184937163 0.0017285178117343767 0.013677846734588701 0.9926058262010309 -0.06877719038529659 0.005977046356021861 0.029031547937230055
0.11254689453939999 0.006398292856446964 0.03088533570360789 0.9920618230441828 -0.0729413225264981 0.0018480041345984022 0.014491609209968134 -0.0016144342018175404 -0.009224674817609278
 0.9920618230441828 -0.0729413225264981 0.006388382876723589 0.030886107213744043 -0.0016147734045745521 -0.00922464857062048 0.001907877710571498 0.014483282661967904
 0.0018480041345984022 0.014491609209968134 -0.0016147734045745521 -0.00922464857062048 0.006398237572741585 0.03088380984946125 0.9920617560614051 -0.07294281502953602
 -0.0016144342018175404 -0.009224674817609278 0.001907877710571498 0.014483282661967904 0.9920617560614051 -0.07294281502953602 0.0063882995044888926 0.03088461522341644
0.11879949979160001 0.00682900914170978 0.03275254156232632 0.991493998780365 -0.07711949854985381 0.002029980164992044 0.015297541900373968 -0.0017724180464341825 -0.009740255775049934
 0.991493998780365 -0.07711949854985381 0.006817968687347866 0.03275339660023666 -0.001772795013311849 -0.009740224319132962 0.0020967254811505836 0.015288033286466956
 0.002029980164992044 0.015297541900373968 -0.001772795013311849 -0.009740224319132962 0.006828948166337607 0.03275092861499834 0.9914939245868586 -0.07712107300694844
 -0.0017724180464341825 -0.009740255775049934 0.0020967254811505836 0.015288033286466956 0.9914939245868586 -0.07712107300694844 0.0068178755620026035 0.03275182208663954
0.1250521050438 0.007278389673376513 0.034633609478796464 0.9909021386428466 -0.08131010074260278 0.0022211326793348104 0.016102756991295937 -0.0019384349931084617 -0.010255301633538815
 0.9909021386428466 -0.08131010074260278 0.00726615738214131 0.03463455343450127 -0.0019388516156982887 -0.01025526440142831 0.002295126325999906 0.01609195759878621
 0.0022211326793348104 0.016102756991295937 -0.0019388516156982887 -0.01025526440142831 0.007278322748189857 0.03463190906908687 0.9909020568907685 -0.08131175702547346
 -0.0019384349931084617 -0.010255301633538815 0.002295126325999906 0.01609195759878621 0.9909020568907685 -0.08131175702547346 0.007266053905546037 0.03463289640777403
0.131304710296 0.007746711724485888 0.03652826499577228 0.9902859695352307 -0.08551291316610232 0.0024215242608924908 0.016907115941288235 -0.0021125494072446018 -0.010769673646370074
 0.9902859695352307 -0.08551291316610232 0.0077332261221503325 0.036529303442298995 -0.002113007561313712 -0.010769630044863717 0.0025031430611943874 0.016894911842958313
 0.0024215242608924908 0.016907115941288235 -0.002113007561313712 -0.010769630044863717 0.007746638591423728 0.03652647673833377 0.9902858798806297 -0.0855146511404289
 -0.0021125494072446018 -0.010769673646370074 0.0025031430611943874 0.016894911842958313 0.9902858798806297 -0.0855146511404289 0.007733111687205022 0.036527563911832386
0.1375573155481 0.008126322969033489 0.03818929721809731 0.989753191337591 -0.08948065622322188 0.0026052864932857543 0.01768566001967929 -0.0022688040452863924 -0.01125849616403665
 0.989753191337591 -0.08948065622322188 0.008111516841588428 0.03819041271040924 -0.0022693062890507113 -0.011258446138918363 0.0026947209422905176 0.01767206962295084
 0.0026052864932857543 0.01768566001967929 -0.0022693062890507113 -0.011258446138918363 0.00812624242902221 0.038187421196235846 0.989753093429317 -0.08948247575169091
 -0.0022688040452863924 -0.01125849616403665 0.0026947209422905176 0.01767206962295084 0.989753093429317 -0.08948247575169091 0.008111391786941669 0.03818859018742366
0.1438099208003 0.008519282044628422 0.03984170016251385 0.9892017145505702 -0.09343846170706209 0.0027964543248513224 0.01846117829056389 -0.002431310048671177 -0.011744489866206563
 0.9892017145505702 -0.09343846170706209 0.008503092862643518 0.03984289685884299 -0.0024318583582237955 -0.011744432839777236 0.0028940478965021584 0.018446097431702328
 0.0027964543248513224 0.01846117829056389 -0.0024318583582237955 -0.011744432839777236 0.008519193667568169 0.03983973601729129 0.9892016080494288 -0.09344036264638786
 -0.002431310048671177 -0.011744489866206563 0.0028940478965021584 0.018446097431702328 0.9892016080494288 -0.09344036264638786 0.00850295673847815 0.03984099128313986
0.1500625260525 0.008925452764726605 0.04148533909984404 0.9886316794456652 -0.09738623481769207 0.0029949622930212265 0.019233595970031152 -0.0026000026885954655 -0.012227581877672814
 0.9886316794456652 -0.09738623481769207 0.008907817852244522 0.041486621404873525 -0.002600599033133124 -0.012227517249421293 0.0031010565264696986 0.019216916671124025
 0.0029949622930212265 0.019233595970031152 -0.002600599033133124 -0.012227517249421293 0.008925356108985818 0.04148328645803181 0.9886315640162835 -0.09738821702030209
 -0.0026000026885954655 -0.012227581877672814 0.0031010565264696986 0.019216916671124025 0.9886315640162835 -0.09738821702030209 0.008907670211045956 0.04148463271032977
0.15631513130469998 0.009344698000103678 0.043120083372517264 0.9880432269837615 -0.10132388102146096 0.0032007441744056372 0.0200028395406314 -0.002774816448605914 -0.012707700850135608
