! Created with skrf 1.8.0 (http://scikit-rf.org).
# GHz S RI R 50.0 
!freq ReS11 ImS11 ReS12 ImS12 ReS13 ImS13
! ReS14 ImS14
! ReS21 ImS21 ReS22 ImS22 ReS23 ImS23
! ReS24 ImS24
! ReS31 ImS31 ReS32 ImS32 ReS33 ImS33
! ReS34 ImS34
! ReS41 ImS41 ReS42 ImS42 ReS43 ImS43
! ReS44 ImS44
!
0.0 0.001496462359885 0.0 0.99850353764 0.0 5.721978200971e-05 0.0 -5.721978320865e-05 7.00740243543787e-21
 0.99850353764 0.0 0.00149646235989 0.0 -5.721978320906e-05 7.00740243548808e-21 5.72197820099e-05 0.0
 5.721978200971e-05 0.0 -5.721978320906e-05 7.00740243548808e-21 0.001496462350824 0.0 0.998503537631 0.0
 -5.721978320865e-05 7.00740243543787e-21 5.72197820099e-05 0.0 0.998503537631 0.0 0.001496462350812 0.0
0.005 0.0016098464243486832 0.0012322075801481141 0.9983601528976426 -0.0031344313298942235 7.883802664080083e-05 0.0005829083872481177 -7.690682722481428e-05 -0.0003742027214228564
 0.9983601528976426 -0.0031344313298942235 0.001609848976177224 0.0012322060358170152 -7.69074198010802e-05 -0.0003742031080709016 7.883102583582845e-05 0.0005829111779053556
 7.883802664080083e-05 0.0005829083872481177 -7.69074198010802e-05 -0.0003742031080709016 0.001609846831031146 0.0012322745609424015 0.998360153242614 -0.0031343642594925513
 -7.690682722481428e-05 -0.0003742027214228564 7.883102583582845e-05 0.0005829111779053556 0.998360153242614 -0.0031343642594925513 0.0016098492559823976 0.0012322731934919738
0.006252605252188 0.0016395417284113232 0.0015450758426507104 0.9983223763579918 -0.003918808748740689 8.49733983636872e-05 0.0007289435458017946 -8.243523955593941e-05 -0.000468228583288767
 0.9983223763579918 -0.003918808748740689 0.0016395457174674848 0.001545073840912575 -8.243616219610343e-05 -0.0004682290585690287 8.496246165823224e-05 0.0007289471480420286
 8.49733983636872e-05 0.0007289435458017946 -8.243616219610343e-05 -0.0004682290585690287 0.0016395422978919356 0.0015451595484015969 0.9983223768306376 -0.003918724923235901
 -8.243523955593941e-05 -0.000468228583288767 8.496246165823224e-05 0.0007289471480420286 0.9983223768306376 -0.003918724923235901 0.0016395460877618702 0.0015451577807433837
0.01250521050438 0.0017956200299984464 0.003122287997447934 0.9981225780409808 -0.00783841938006913 0.00011994363899453693 0.001458411884695607 -0.00011364169629818941 -0.0009387075579855951
 0.9981225780409808 -0.00783841938006913 0.0017956359640362153 0.0031222832630584544 -0.00011364533906467499 -0.0009387084199016038 0.00011990007051768052 0.0014584203313991698
 0.00011994363899453693 0.001458411884695607 -0.00011364533906467499 -0.0009387084199016038 0.001795621772793293 0.003122455066805959 0.9981225793907608 -0.00783825198346725
 -0.00011364169629818941 -0.0009387075579855951 0.00011990007051768052 0.0014584203313991698 0.9981225793907608 -0.00783825198346725 0.001795636895688371 0.0031224509340714596
0.01875781575657 0.001965029390001778 0.004721806817420327 0.9979039003183356 -0.011768371657141742 0.0001622117633055501 0.002188845105050999 -0.00015093223167891173 -0.0014108304625039367
 0.9979039003183356 -0.011768371657141742 0.001965065208018505 0.004721798553689468 -0.00015094036460964766 -0.0014108316033058237 0.00016211399583511714 0.0021888599037669307
 0.0001622117633055501 0.002188845105050999 -0.00015094036460964766 -0.0014108316033058237 0.001965032893729911 0.004722057052963021 0.9979039029264939 -0.011768120771751734
 -0.00015093223167891173 -0.0014108304625039367 0.00016211399583511714 0.0021888599037669307 0.9979039029264939 -0.011768120771751734 0.001965066857532457 0.004722049904206654
0.02501042100875 0.002148092580460101 0.006341420325748154 0.9976660913809836 -0.01571057804642845 0.00021185981331461157 0.002920266493268342 -0.00019439733434844687 -0.0018844027033836242
 0.9976660913809836 -0.01571057804642845 0.0021481562126941926 0.006341407670215753 -0.00019441170950539735 -0.001884403994589405 0.0002116863323871327 0.00292028940039802
 0.00021185981331461157 0.002920266493268342 -0.00019441170950539735 -0.001884403994589405 0.002148098448797279 0.006341753537636756 0.9976660956391669 -0.01571024371903386
 -0.00019439733434844687 -0.0018844027033836242 0.0002116863323871327 0.00292028940039802 0.9976660956391669 -0.01571024371903386 0.002148158734989379 0.006341742669174193
0.03126302626094 0.002345119058909843 0.00797999495597348 0.9974088862538298 -0.019665862944049747 0.0002689701520816414 0.0036526381180566 -0.0002441252114225066 -0.00235928597376614
 0.9974088862538298 -0.019665862944049747 0.002345218429000284 0.007979976979899094 -0.0002441475659540118 -0.0023592872659060167 0.000268699472352888 0.0036526711383383626
 0.0002689701520816414 0.0036526381180566 -0.0002441475659540118 -0.0023592872659060167 0.0023451279006721118 0.007980410941068628 0.9974088925534774 -0.019665445206483754
 -0.0002441252114225066 -0.00235928597376614 0.000268699472352888 0.0036526711383383626 0.9974088925534774 -0.019665445206483754 0.0023452219673437778 0.007980395596238771
0.037515631513130004 0.002556411705689947 0.009636795188071047 0.9971320137291103 -0.023634642977503242 0.00033362477035517795 0.004385897747205825 -0.000300202347055784 -0.0028353613350507218
 0.9971320137291103 -0.023634642977503242 0.0025565547319513424 0.009636770895764696 -0.00030023440475025217 -0.002835362457547259 0.0003332354248201314 0.004385943134921421
 0.00033362477035517795 0.004385897747205825 -0.00030023440475025217 -0.002835362457547259 0.002556424133700557 0.009637293739727082 0.9971320224614574 -0.023634141836469877
 -0.000300202347055784 -0.0028353613350507218 0.0003332354248201314 0.004385943134921421 0.9971320224614574 -0.023634141836469877 0.0025565594170444766 0.009637273108552889
0.043768236765320004 0.0027822694215999953 0.011311276506792176 0.9968351991613801 -0.02761713397626617 0.00040590495223907216 0.005119970080339184 -0.0003627137040926859 -0.003312517981514884
 0.9968351991613801 -0.02761713397626617 0.0027824640174529563 0.011311244834997024 -0.00036275717620996774 -0.00331251874259419 0.0004053754868219989 0.005120030341026818
 0.00040590495223907216 0.005119970080339184 -0.00036275717620996774 -0.00331251874259419 0.002782286054209374 0.011311857396561561 0.9968352107194385 -0.027616549431348298
 -0.0003627137040926859 -0.003312517981514884 0.0004053754868219989 0.005120030341026818 0.9968352107194385 -0.027616549431348298 0.002782469969578656 0.011311830615472047
0.050020842017509996 0.0030229883470311502 0.013002999822610021 0.9965181658866689 -0.031613436477773364 0.0004858910727184466 0.005854771382838605 -0.00043174279321060336 -0.0037906486049443114
 0.9965181658866689 -0.031613436477773364 0.003023242421420325 0.013002959639874485 -0.00043179937902338935 -0.0037906487915645585 0.0004852000438190987 0.00585484927523569
 0.0004858910727184466 0.005854771382838605 -0.00043179937902338935 -0.0037906487915645585 0.0030230098071109164 0.013003662808733253 0.9965181806652805 -0.03161276851249601
 -0.00043174279321060336 -0.0037906486049443114 0.0004852000438190987 0.00585484927523569 0.9965181806652805 -0.03161276851249601 0.0030232497495849093 0.013003628960287643
0.055454545454549996 0.0032444778926891088 0.014486868375164753 0.9962260185252728 -0.03509758354733619 0.0005617212306030343 0.0064938583076089365 -0.0004970881362574136 -0.004206867194606446
 0.9962260185252728 -0.03509758354733619 0.003244790075259851 0.0144868198239007 -0.0004971574891847513 -0.004206866692428714 0.0005608723908017008 0.0064939539611031044
 0.0005617212306030343 0.0064938583076089365 -0.0004971574891847513 -0.004206866692428714 0.003244504056033159 0.01448760248734796 0.9962260364236427 -0.03509684307272878
 -0.0004970881362574136 -0.004206867194606446 0.0005608723908017008 0.0064939539611031044 0.9962260364236427 -0.03509684307272878 0.0032447986781415313 0.014487561709986658
0.056273447269699996 0.0032788624853865144 0.014711589478729529 0.996180636049793 -0.035623577647811745 0.0005736624502285282 0.006590211762975095 -0.0005073716859699582 -0.004269647118322478
 0.996180636049793 -0.035623577647811745 0.003279183942783915 0.014711539584862527 -0.0005074430730439414 -0.0042696464961189135 0.0005727884238953676 0.006590310301049396
 0.0005736624502285282 0.006590211762975095 -0.0005074430730439414 -0.0042696464961189135 0.003278889398859055 0.01471233429145071 0.9961806544445094 -0.03562282624415963
 -0.0005073716859699582 -0.004269647118322478 0.0005727884238953676 0.006590310301049396 0.9961806544445094 -0.03562282624415963 0.0032791927437871996 0.014712292404000429
0.06252605252188 0.003550184040358792 0.01643671014326482 0.9958223311480487 -0.03964753431797976 0.0006692972303294443 0.007326196419185843 -0.0005896809952231582 -0.004749407412200374
 0.9958223311480487 -0.03964753431797976 0.003550580780352118 0.016436649268725095 -0.000589768859614451 -0.004749405725420777 0.000668218782586137 0.007326318874220923
 0.0006692972303294443 0.007326196419185843 -0.000589768859614451 -0.004749405725420777 0.0035502170377069006 0.016437536499899753 0.9958223535577082 -0.0396466994408828
 -0.0005896809952231582 -0.004749407412200374 0.000668218782586137 0.007326318874220923 0.9958223535577082 -0.0396466994408828 0.0035505911404108965 0.016437485547383668
0.06877865777407 0.003837243598274012 0.018178053054545555 0.9954429724250664 -0.04368524667285561 0.0007728722825873951 0.008062626388385178 -0.0006787498408104337 -0.005229822613207327
 0.9954429724250664 -0.04368524667285561 0.0038377235158885818 0.018177979859832855 -0.0006788558471009262 -0.005229819584666399 0.0007715680007523692 0.008062776291032804
 0.0007728722825873951 0.008062626388385178 -0.0006788558471009262 -0.005229819584666399 0.003837283312853806 0.018178960647972187 0.9954429992507007 -0.04368432828151485
 -0.0006787498408104337 -0.005229822613207327 0.0007715680007523692 0.008062776291032804 0.9954429992507007 -0.04368432828151485 0.003837735509673564 0.018178899549495264
0.07503126302626001 0.0041403302152156485 0.01993532728731148 0.995042281171359 -0.04773662691965379 0.0008844631083961615 0.008799399023330066 -0.0007746558030974992 -0.00571078461691017
 0.995042281171359 -0.04773662691965379 0.0041409012002190495 0.019935240362415577 -0.0007747816044332156 -0.005710779947941001 0.0008829115925790079 0.00879958016571126
 0.0008844631083961615 0.008799399023330066 -0.0007747816044332156 -0.005710779947941001 0.0041403772828577734 0.019936315787490364 0.9950423128165996 -0.04773562496568414
 -0.0007746558030974992 -0.00571078461691017 0.0008829115925790079 0.00879958016571126 0.9950423128165996 -0.04773562496568414 0.004140914890514471 0.01993624340713981
0.08128386827845 0.004459731446720607 0.021708253938415693 0.9946199789721282 -0.0518015650422862 0.0010041437542780997 0.009536408309293724 -0.000877474869233116 -0.006192183785020459
 0.9946199789721282 -0.0518015650422862 0.004460401383664412 0.021708151802151694 -0.0008776221072815534 -0.006192177155427985 0.0010023236197767489 0.009536624747033373
 0.0010041437542780997 0.009536408309293724 -0.0008776221072815534 -0.006192177155427985 0.004459786505791985 0.021709322994196926 0.9946200158440596 -0.05180047946768139
 -0.000877474869233116 -0.006192183785020459 0.0010023236197767489 0.009536624747033373 0.9946200158440596 -0.05180047946768139 0.004460416821799183 0.021709238140633882
0.08753647353064001 0.00479573333941325 0.02349656211638489 0.9941757879199185 -0.05587993275574274 0.001131986727516325 0.010273545090258494 -0.0009872813761043191 -0.006673908736846132
 0.9941757879199185 -0.05587993275574274 0.004796510107188925 0.023496443215823642 -0.0009874516809541631 -0.006673899804874666 0.001129876607298399 0.010273801144488755
 0.001131986727516325 0.010273545090258494 -0.0009874516809541631 -0.006673899804874666 0.004795797029665338 0.023497711353597506 0.9941758304288649 -0.055878763494487185
 -0.0009872813761043191 -0.006673908736846132 0.001129876607298399 0.010273801144488755 0.9941758304288649 -0.055878763494487185 0.0047965273324270035 0.023497612779739843
0.09378907878283 0.005148620394987784 0.02529998606360828 0.9937094308029529 -0.05997158633205025 0.00126806291608632 0.011010697232707185 -0.0011041479475371594 -0.007155846207064848
 0.9937094308029529 -0.05997158633205025 0.005149511866380724 0.02529984877351855 -0.0011043429376040646 -0.007155834609356277 0.0012656414636355747 0.011010997492052674
 0.00126806291608632 0.011010697232707185 -0.0011043429376040646 -0.007155834609356277 0.005148693357612849 0.025301215087414997 0.9937094793631798 -0.059970333307637944
 -0.0011041479475371594 -0.007155846207064848 0.0012656414636355747 0.011010997492052674 0.9937094793631798 -0.059970333307637944 0.005149530906142111 0.025301101490147634
0.100041684035 0.005518675515006705 0.02711826305990389 0.9932206312780013 -0.06407636864986 0.0014124415085611493 0.011747749749259247 -0.001228145430418818 -0.007637880947704405
 0.9932206312780013 -0.06407636864986 0.005519689556332769 0.02711810568208117 -0.0012283667122846833 -0.0076378662992738445 0.0014096874010305852 0.011748099071773719
 0.0014124415085611493 0.011747749749259247 -0.0012283667122846833 -0.0076378662992738445 0.00551875839182388 0.027119571448592995 0.9932206863076272 -0.06407503178120087
 -0.001228145430418818 -0.007637880947704405 0.0014096874010305852 0.011748099071773719 0.9932206863076272 -0.06407503178120087 0.005519710425955865 0.027119441468432006
0.1059090909091 0.005881797704167794 0.028837799099332352 0.9927412883847558 -0.06794006157226914 0.0015555365216338962 0.0124391999094981 -0.0013510508943245837 -0.008090203426218986
 0.9927412883847558 -0.06794006157226914 0.005882933912652189 0.028837621261285026 -0.0013512982987632816 -0.00809018554557936 0.0015524508836608562 0.012439599932584504
 0.0015555365216338962 0.0124391999094981 -0.0013512982987632816 -0.00809018554557936 0.00588189046828504 0.028839181560530443 0.9927413498695685 -0.06793864594226995
 -0.0013510508943245837 -0.008090203426218986 0.0015524508836608562 0.012439599932584504 0.9927413498695685 -0.06793864594226995 0.005882956502318861 0.02883903491974464
0.1062942892872 0.00590617993205789 0.028951131830663668 0.9927091140319144 -0.06819411074396568 0.001565189915663823 0.012484584901742953 -0.0013593428281593203 -0.008119895654832924
 0.9927091140319144 -0.06819411074396568 0.005907324402835838 0.02895095259334691 -0.0013595919964312726 -0.008119877549041013 0.0015620818571523657 0.012484988416784951
 0.001565189915663823 0.012484584901742953 -0.0013595919964312726 -0.008119877549041013 0.00590627336498749 0.02895251914152506 0.9927091759536184 -0.06819268993938568
 -0.0013593428281593203 -0.008119895654832924 0.0015620818571523657 0.012484988416784951 0.9927091759536184 -0.06819268993938568 0.005907347105246691 0.028952371362201194
0.11254689453939999 0.006311413129531094 0.030798331344019398 0.9921746049357145 -0.07232463297103497 0.0017263736926561239 0.013221082277968518 -0.001497807232312226 -0.008601770925863646
 0.9921746049357145 -0.07232463297103497 0.006312695881857246 0.030798128401285246 -0.0014980858694383615 -0.008601748934396818 0.0017228904177540023 0.013221545387979606
 0.0017263736926561239 0.013221082277968518 -0.0014980858694383615 -0.008601748934396818 0.0063115177601425505 0.03079979710906151 0.9921746741767363 -0.0723231281323346
 -0.001497807232312226 -0.008601770925863646 0.0017228904177540023 0.013221545387979606 0.9921746741767363 -0.0723231281323346 0.006312720407522785 0.030799630057250813
0.11879949979160001 0.006734652752719563 0.032659599865298566 0.9916168311925785 -0.07646774592324507 0.0018960564616785627 0.013957118862692209 -0.0016436037534725634 -0.00908338522693551
 0.9916168311925785 -0.07646774592324507 0.006736081630849455 0.03265937129643596 -0.0016439134295101773 -0.009083358899794728 0.0018921767392190744 0.013957647245021161
 0.0018960564616785627 0.013957118862692209 -0.0016439134295101773 -0.009083358899794728 0.006734769221719595 0.032661143593846476 0.9916169081855604 -0.07646615694294602
 -0.0016436037534725634 -0.00908338522693551 0.0018921767392190744 0.013957647245021161 0.9916169081855604 -0.07646615694294602 0.006736107957894997 0.03266095573875171
0.1250521050438 0.007176174513673748 0.034534674213876695 0.9910355214822132 -0.08062325114475707 0.002074299835062707 0.014692569099556504 -0.001796795450521476 -0.009564614873871965
 0.9910355214822132 -0.08062325114475707 0.007177757353583748 0.034534418022770075 -0.0017971377230244577 -0.009564583739353882 0.0020700024718349444 0.014693168708114096
 0.002074299835062707 0.014692569099556504 -0.0017971377230244577 -0.009564583739353882 0.0071763034602348045 0.034536295391050194 0.991035606664957 -0.08062157790756015
 -0.001796795450521476 -0.009564614873871965 0.0020700024718349444 0.014693168708114096 0.991035606664957 -0.08062157790756015 0.0071777854471868855 0.034536085144012116
0.131304710296 0.007636252089695409 0.03642328917117469 0.9904304061021575 -0.08479094170281458 0.002261163338374037 0.015427304943080315 -0.0019574432595405957 -0.010045334027590258
 0.9904304061021575 -0.08479094170281458 0.007637996718429759 0.03642300328567683 -0.0019578196732010886 -0.010045297592298507 0.00225642718326015 0.015427982009978417
 0.002261163338374037 0.015427304943080315 -0.0019578196732010886 -0.010045297592298507 0.007636394150829375 0.03642498725640845 0.9904304999182636 -0.08478918408695367
 -0.0019574432595405957 -0.010045334027590258 0.00225642718326015 0.015427982009978417 0.9904304999182636 -0.08478918408695367 0.007638026530838761 0.03642475297054863
0.1375573155481 0.008008341827943476 0.038081005251706726 0.9899080725433326 -0.08872632824613819 0.0024326024890992076 0.01613724932368387 -0.0021015095024744974 -0.010501476384386197
 0.9899080725433326 -0.08872632824613819 0.008010255326061314 0.038080694487704306 -0.0021019221404003107 -0.010501434602126825 0.002427412382975571 0.016138002951467178
 0.0024326024890992076 0.01613724932368387 -0.0021019221404003107 -0.010501434602126825 0.008008496762293326 0.038082780235819784 0.9899081753856956 -0.08872448620489624
 -0.0021015095024744974 -0.010501476384386197 0.002427412382975571 0.016138002951467178 0.9899081753856956 -0.08872448620489624 0.0080102877797091 0.03808252622016831
0.1438099208003 0.008393510730031088 0.03973028858841809 0.989367425661621 -0.09265199787615748 0.002610951177818033 0.01684438170897972 -0.002251325240580977 -0.010955018769222998
 0.989367425661621 -0.09265199787615748 0.00839560076290968 0.039729951412150494 -0.0022517757263944885 -0.010954971159688019 0.0026052871167059743 0.016845217667053505
 0.002610951177818033 0.01684438170897972 -0.0022517757263944885 -0.010954971159688019 0.008393679013662652 0.039732139969235906 0.9893675379714439 -0.09265007129412002
 -0.002251325240580977 -0.010955018769222998 0.0026052871167059743 0.016845217667053505 0.9893675379714439 -0.09265007129412002 0.008395635967569592 0.039731865024372794
0.1500625260525 0.008791627152361444 0.041371009036464075 0.9888086009559633 -0.0965678603943736 0.002796149158793373 0.017548632861540684 -0.002406831699955185 -0.011405895295807478
 0.9888086009559633 -0.0965678603943736 0.008793901365810926 0.04137064384941157 -0.002407321651568445 -0.011405841359686242 0.002789991248372735 0.017549557133458547
 0.002796149158793373 0.017548632861540684 -0.002407321651568445 -0.011405841359686242 0.008791809249007992 0.04137293629331113 0.9888087231787738 -0.09656584915212328
 -0.002406831699955185 -0.011405895295807478 0.002789991248372735 0.017549557133458547 0.9888087231787738 -0.09656584915212328 0.008793939430291444 0.041372639165454216
0.15631513130469998 0.009202558569385516 0.04300304039552601 0.9882317345541334 -0.10047382577198999 0.002988135498882559 0.018249934702007798 -0.0025679694076920726 -0.011854041440129007
 0.9882317345541334 -0.10047382577198999 0.009205024589504873 0.04300264553459882 -0.002568500437262228 -0.011853980659208336 0.0029814639565382394 0.01825095348330911
