! Created with skrf 1.8.0 (http://scikit-rf.org).
# GHz S RI R 50.0 
!freq ReS11 ImS11 ReS12 ImS12 ReS13 ImS13
! ReS14 ImS14
! ReS21 ImS21 ReS22 ImS22 ReS23 ImS23
! ReS24 ImS24
! ReS31 ImS31 ReS32 ImS32 ReS33 ImS33
! ReS34 ImS34
! ReS41 ImS41 ReS42 ImS42 ReS43 ImS43
! ReS44 ImS44
!
0.0 0.001091045116962 0.0 0.9989089548672 0.0 4.121982937016e-05 0.0 -4.121982862623e-05 5.047973118851501e-21
 0.9989089548672 0.0 0.001091045116968 0.0 -4.121982862626e-05 5.047973118855175e-21 4.121982937002e-05 0.0
 4.121982937016e-05 0.0 -4.121982862626e-05 5.047973118855175e-21 0.001091045118747 0.0 0.998908954869 0.0
 -4.121982862623e-05 5.047973118851501e-21 4.121982937002e-05 0.0 0.998908954869 0.0 0.001091045118751 0.0
0.005 0.0011728991442576835 0.0008949731230397552 0.9988055516517692 -0.0022866509033226045 5.690025204635785e-05 0.00044315050619906 -5.5452600023036e-05 -0.0002802365015973404
 0.9988055516517692 -0.0022866509033226045 0.0011728937054896306 0.0008949762503458897 -5.545340313410084e-05 -0.00028023706231636547 5.69438188588624e-05 0.0004431341368542373
 5.690025204635785e-05 0.00044315050619906 -5.545340313410084e-05 -0.00028023706231636547 0.0011728993492294026 0.0008950402121994009 0.9988055519726025 -0.0022865838394614557
 -5.5452600023036e-05 -0.0002802365015973404 5.69438188588624e-05 0.0004431341368542373 0.9988055519726025 -0.0022865838394614557 0.0011728941384726856 0.0008950432854576397
0.006252605252188 0.0011940921009495674 0.0011222677147607206 0.9987786575267334 -0.002858914440475239 6.121843995023794e-05 0.0005541755402651411 -5.934521625902751e-05 -0.0003506708760267171
 0.9987786575267334 -0.002858914440475239 0.0011940835992614645 0.001122271635580145 -5.9346466440788775e-05 -0.00035067156668798125 6.128651284145688e-05 0.0005541542831999608
 6.121843995023794e-05 0.0005541755402651411 -5.9346466440788775e-05 -0.00035067156668798125 0.0011940923398732928 0.0011223515612992976 0.9987786579465623 -0.002858830618961913
 -5.934521625902751e-05 -0.0003506708760267171 6.128651284145688e-05 0.0005541542831999608 0.9987786579465623 -0.002858830618961913 0.001194084193942558 0.0011223554243885083
0.01250521050438 0.001304055533866651 0.0022683870688672055 0.9986384169751045 -0.005718832654957183 8.512915468220628e-05 0.0011088207844165531 -8.075581350416756e-05 -0.0007031989298146244
 0.9986384169751045 -0.005718832654957183 0.0013040215930927579 0.0022683950193790785 -8.076074649929239e-05 -0.0007032002008933787 8.54007141192789e-05 0.00110876987543552
 8.512915468220628e-05 0.0011088207844165531 -8.076074649929239e-05 -0.0007032002008933787 0.0013040559509432507 0.002268554443105715 0.9986384181097417 -0.005718665253118104
 -8.075581350416756e-05 -0.0007031989298146244 8.54007141192789e-05 0.00110876987543552 0.9986384181097417 -0.005718665253118104 0.001304023418210553 0.0022685623773799194
0.01875781575657 0.001421116704545345 0.0034312257874198927 0.9984881012294309 -0.008586768750547853 0.00011299857595009619 0.0016643282923470778 -0.00010550466391875459 -0.0010571240606320328
 0.9984881012294309 -0.008586768750547853 0.0014210404557310314 0.0034312378839983213 -0.00010551567380252945 -0.0010571257850461324 0.0001136088439063928 0.0016642381099974584
 0.00011299857595009619 0.0016643282923470778 -0.00010551567380252945 -0.0010571257850461324 0.0014211172357908633 0.0034314765037535867 0.9984881033640052 -0.008586517847731545
 -0.00010550466391875459 -0.0010571240606320328 0.0001136088439063928 0.0016642381099974584 0.9984881033640052 -0.008586517847731545 0.0014210441257880104 0.003431488725704744
0.02501042100875 0.001545454397155407 0.004609216169090609 0.9983275748757934 -0.011464168432172323 0.00014487363283150105 0.0022207532276471063 -0.00013364390229262323 -0.0014123214974636532
 0.9983275748757934 -0.011464168432172323 0.0015453190166837747 0.004609232526523315 -0.00013366335811939586 -0.0014123235289768014 0.00014595804148085116 0.0022206129766091567
 0.00014487363283150105 0.0022207532276471063 -0.00013366335811939586 -0.0014123235289768014 0.0015454549824975516 0.0046095500558859335 0.9983275782947777 -0.011463834064567555
 -0.00013364390229262323 -0.0014123214974636532 0.00014595804148085116 0.0022206129766091567 0.9983275782947777 -0.011463834064567555 0.0015453251343351005 0.004609566782198806
0.03126302626094 0.0016772394707921957 0.005801579681253889 0.998156693721571 -0.014351684379674677 0.00018080179469547036 0.002778102016016216 -0.0001652246409604959 -0.0017687131650162347
 0.998156693721571 -0.014351684379674677 0.0016770281712098951 0.00580160041013458 -0.00016525489135547577 -0.0017687153378650997 0.00018249611725064123 0.0027778997195078412
 0.00018080179469547036 0.002778102016016216 -0.00016525489135547577 -0.0017687153378650997 0.0016772400582251907 0.00580199655771073 0.9981566987129243 -0.014351266563053952
 -0.0001652246409604959 -0.0017687131650162347 0.00018249611725064123 0.0027778997195078412 0.9981566987129243 -0.014351266563053952 0.0016770373319342407 0.005802018003082369
0.037515631513130004 0.0018166392066040324 0.007007830118460694 0.997975309201783 -0.017249673052415652 0.0002208306924298044 0.0033363623202831948 -0.00020029734366207514 -0.0021262377014654643
 0.997975309201783 -0.017249673052415652 0.0018163352301868783 0.007007855323648256 -0.00020034071913356557 -0.002126239830206597 0.00022327110728507228 0.0033360848064995833
 0.0002208306924298044 0.0033363623202831948 -0.00020034071913356557 -0.002126239830206597 0.0018166397489918136 0.0070083297944855015 0.9979753160553793 -0.017249171782037106
 -0.00020029734366207514 -0.0021262377014654643 0.00022327110728507228 0.0033360848064995833 0.9979753160553793 -0.017249171782037106 0.001816348019935834 0.00700835617019074
0.043768236765320004 0.0019638189959654043 0.008227622403239643 0.9977832701283392 -0.020158345847781093 0.0002650079447033611 0.0038955121616858447 -0.00023891197400440517 -0.002484841326696077
 0.9977832701283392 -0.020158345847781093 0.001963405610101947 0.008227652182628487 -0.00023897078837269633 -0.0024848432061183043 0.00026833107120177073 0.0038951450483923926
 0.0002650079447033611 0.0038955121616858447 -0.00023897078837269633 -0.0024848432061183043 0.0019638194485843965 0.008228204672705054 0.997783279133632 -0.020157761104888493
 -0.00023891197400440517 -0.002484841326696077 0.00026833107120177073 0.0038951450483923926 0.997783279133632 -0.020157761104888493 0.0019634226029422368 0.008228236185459032
0.050020842017509996 0.0021189431264119494 0.00946069009633197 0.9975804235360849 -0.023077831548740234 0.00031338105969122413 0.00445552367655787 -0.00028111806087106986 -0.0028444740744404907
 0.9975804235360849 -0.023077831548740234 0.002118403619500839 0.009460724539712728 -0.00028119461215050197 -0.002844475479477023 0.00031772397903937367 0.004455051354889432
 0.00031338105969122413 0.00445552367655787 -0.00028119461215050197 -0.002844475479477023 0.0021189434499939313 0.009461354734490082 0.9975804349860596 -0.023077163302832663
 -0.00028111806087106986 -0.0028444740744404907 0.00031772397903937367 0.004455051354889432 0.9975804349860596 -0.023077163302832663 0.0021184253812181137 0.009461391585548033
0.055454545454549996 0.0022603295512968456 0.010542874002539717 0.9973952468966195 -0.02562379509465293 0.00035886308247956935 0.004942865736013384 -0.0003207512916373449 -0.0031578042921988018
 0.9973952468966195 -0.02562379509465293 0.0022596668832753513 0.010542912564988132 -0.0003208451113260856 -0.0031578050867388176 0.00036420392717712225 0.004942288343603054
 0.00035886308247956935 0.004942865736013384 -0.0003208451113260856 -0.0031578050867388176 0.0022603297327957734 0.010543610030278455 0.9973952607099454 -0.025623054242398014
 -0.0003207512916373449 -0.0031578042921988018 0.00036420392717712225 0.004942288343603054 0.9973952607099454 -0.025623054242398014 0.002259693239992378 0.010543651678991251
0.056273447269699996 0.0022821752055463725 0.010706814729153835 0.997366615167776 -0.02600820694856112 0.0003659973707027953 0.005016364956796073 -0.000326964726138539 -0.0032050879406702436
 0.997366615167776 -0.02600820694856112 0.002281492883555048 0.010706853917260709 -0.0003270612971959168 -0.0032050886263464717 0.0003714976378842813 0.005015770574623637
 0.0003659973707027953 0.005016364956796073 -0.0003270612971959168 -0.0032050886263464717 0.002282175363321329 0.010707561498866086 0.9973666293564855 -0.026007455150983023
 -0.000326964726138539 -0.0032050879406702436 0.0003714976378842813 0.005015770574623637 0.9973666293564855 -0.026007455150983023 0.0022815199686522657 0.010707603883110107
0.06252605252188 0.0024536784009734146 0.011965808946887148 0.997141689776877 -0.02894951366491147 0.0004229039870680673 0.005578001063827154 -0.000376500694783813 -0.0035666358588687815
 0.997141689776877 -0.02894951366491147 0.0024528365838155527 0.011965852950517846 -0.00037661955374515305 -0.0035666355602409676 0.00042969963706894905 0.0055772665089001945
 0.0004229039870680673 0.005578001063827154 -0.00037661955374515305 -0.0035666355602409676 0.002453678359094765 0.011966637587084869 0.9971417070007532 -0.028948678260139308
 -0.000376500694783813 -0.0035666358588687815 0.00042969963706894905 0.0055772665089001945 0.9971417070007532 -0.028948678260139308 0.0024528695363480453 0.011966685692300747
0.06877865777407 0.0026336155814998363 0.013237506454873751 0.9969054913328279 -0.03190176815097732 0.000484147755087796 0.006140394623920552 -0.0004297742934447489 -0.003929071094501589
 0.9969054913328279 -0.03190176815097732 0.0026325975997478165 0.013237555334083972 -0.0004299176940124168 -0.003929069526606221 0.0004923773048186637 0.006139500506837864
 0.000484147755087796 0.006140394623920552 -0.0004299176940124168 -0.003929069526606221 0.002633615309056788 0.013238416687676056 0.9969055118910193 -0.03190084906929377
 -0.0004297742934447489 -0.003929071094501589 0.0004923773048186637 0.006139500506837864 0.9969055118910193 -0.03190084906929377 0.0026326369534321503 0.013238470693809136
0.07503126302626001 0.0028221494038742365 0.014521755644163097 0.9966578631722911 -0.0348649680277684 0.0005497752231069371 0.006703506207527079 -0.0004868334432575891 -0.004292346856093217
 0.9966578631722911 -0.0348649680277684 0.002820938595680526 0.014521809447522984 -0.0004870036249166188 -0.004292343713896299 0.0005595776708164553 0.006702431844647616
 0.0005497752231069371 0.006703506207527079 -0.0004870036249166188 -0.004292343713896299 0.002822148872098239 0.014522747170082466 0.9966578873666909 -0.03486396518981023
 -0.0004868334432575891 -0.004292346856093217 0.0005595776708164553 0.006702431844647616 0.9966578873666909 -0.03486396518981023 0.0028209848733189314 0.014522807248627242
0.08128386827845 0.0030194423627243035 0.01581841535275358 0.9963986481157815 -0.03783909628146215 0.0006198326107118882 0.007267294578202296 -0.0005477256479886756 -0.004656416037458563
 0.9963986481157815 -0.03783909628146215 0.003018022070467797 0.015818474116652118 -0.0005479248361525794 -0.004656410995810147 0.0006313474326215266 0.00726601797448395
 0.0006198326107118882 0.007267294578202296 -0.0005479248361525794 -0.004656410995810147 0.0030194415447503888 0.015819487852790994 0.9963986762515487 -0.037838009595923615
 -0.0005477256479886756 -0.004656416037458563 0.0006313474326215266 0.00726601797448395 0.9963986762515487 -0.037838009595923615 0.003018075783910924 0.015819554166241524
0.08753647353064001 0.0032256568173915337 0.017127351925943238 0.996127688562403 -0.04082412416222969 0.000694365779312189 0.007831716864949843 -0.0006124979793644501 -0.005021231037292176
 0.996127688562403 -0.04082412416222969 0.0032240103847116825 0.017127415673988698 -0.0006127283854579592 -0.0050212237508857815 0.0007077329249338744 0.00783021469676483
 0.000694365779312189 0.007831716864949843 -0.0006127283854579592 -0.0050212237508857815 0.0032256556878883904 0.017128505059624013 0.9961277209481483 -0.040822953527652646
 -0.0006124979793644501 -0.005021231037292176 0.0007077329249338744 0.00783021469676483 0.9961277209481483 -0.040822953527652646 0.0032240720347083435 0.017128577760869942
0.09378907878283 0.00344095500355064 0.0184484371258079 0.9958448265699356 -0.04382001323473859 0.0007734202045146153 0.008396728682215745 -0.0006811970601243452 -0.005386743631925453
 0.9958448265699356 -0.04382001323473859 0.003439065772038926 0.018448505868265828 -0.0006814608816554422 -0.005386733735252865 0.0007887800902066148 0.008394976280166312
 0.0007734202045146153 0.008396728682215745 -0.0006814608816554422 -0.005386733735252865 0.0034409535381072377 0.01844967053338041 0.9958448635174647 -0.04381875853712291
 -0.0006811970601243452 -0.005386743631925453 0.0007887800902066148 0.008394976280166312 0.9958448635174647 -0.04381875853712291 0.003439135847588384 0.018449749765368523
0.100041684035 0.003665499032384432 0.01978154658490992 0.9955499039242822 -0.046826716885284156 0.0008570409490396296 0.008962284218666247 -0.0007538690455645185 -0.005752904880190649
 0.9955499039242822 -0.046826716885284156 0.0036633503385858643 0.01978162031820413 -0.0007541684661110679 -0.0057528919875024205 0.000874534450484243 0.00896025555040502
 0.0008570409490396296 0.008962284218666247 -0.0007541684661110679 -0.0057528919875024205 0.0036654972074515162 0.019782859884389357 0.9955499457501327 -0.04682537800091566
 -0.0007538690455645185 -0.005752904880190649 0.000874534450484243 0.00896025555040502 0.9955499457501327 -0.04682537800091566 0.0036634293173008303 0.019782945779587793
0.1059090909091 0.0038847630711467333 0.021043355951062218 0.9952620401533196 -0.049657977377051306 0.0009397029213251456 0.00949345061059288 -0.0008257179963232989 -0.006097054030445077
 0.9952620401533196 -0.049657977377051306 0.0038823557368269142 0.021043434351771494 -0.0008260527963191123 -0.006097037957420554 0.0009593271213000131 0.009491137790508059
 0.0009397029213251456 0.00949345061059288 -0.0008260527963191123 -0.006097037957420554 0.003884760887586882 0.0210447438547899 0.9952620868479208 -0.049656559369543184
 -0.0008257179963232989 -0.006097054030445077 0.0009593271213000131 0.009491137790508059 0.9952620868479208 -0.049656559369543184 0.003882443493751296 0.021044836113672197
0.1062942892872 0.003899450882938018 0.02112655865023552 0.9952427622039078 -0.04984418143964119 0.0009452726361104215 0.009528336303663322 -0.0008305596039023443 -0.006119665051462404
 0.9952427622039078 -0.04984418143964119 0.0038970260549324653 0.02112663735652442 -0.0008308967931244165 -0.006119648756736619 0.0009650410797033647 0.009526003956756292
 0.0009452726361104215 0.009528336303663322 -0.0008308967931244165 -0.006119648756736619 0.0038994486752124014 0.021127951439369817 0.9952428092282936 -0.04984275823284928
 -0.0008305596039023443 -0.006119665051462404 0.0009650410797033647 0.009526003956756292 0.9952428092282936 -0.04984275823284928 0.00389711440241529 0.02112804411956053
0.11254689453939999 0.0041429723870167745 0.022483353492885685 0.9949232428367951 -0.052872347015994574 0.0010381594234105936 0.010094836456458374 -0.0009113138953890054 -0.006486973571963872
 0.9949232428367951 -0.052872347015994574 0.00414025474144787 0.02248343713973728 -0.0009116910090007151 -0.006486953448865677 0.0010603445767469921 0.010092171621272399
 0.0010381594234105936 0.010094836456458374 -0.0009116910090007151 -0.006486953448865677 0.004142969773113594 0.022484825347420852 0.9949232953847792 -0.05287083934086055
 -0.0009113138953890054 -0.006486973571963872 0.0010603445767469921 0.010092171621272399 0.9949232953847792 -0.05287083934086055 0.004140352910998357 0.022484924923398653
0.11879949979160001 0.004396225209839558 0.02385181241481033 0.9945911871557434 -0.05591114818198325 0.0011357449769844184 0.01066173492537329 -0.0009961765507785641 -0.0068547789820162875
 0.9945911871557434 -0.05591114818198325 0.004393198048390277 0.02385190095485156 -0.0009965957304424156 -0.006854754583875923 0.0011604890385974855 0.010658707378009512
 0.0011357449769844184 0.01066173492537329 -0.0009965957304424156 -0.006854754583875923 0.004396222165871879 0.02385336288696341 0.9945912455573069 -0.05590955588367295
 -0.0009961765507785641 -0.0068547789820162875 0.0011604890385974855 0.010658707378009512 0.9945912455573069 -0.05590955588367295 0.004393306481285722 0.02385346945829063
0.1250521050438 0.0046593708270025345 0.02523181729338164 0.994246436450312 -0.0589605144749621 0.001238072445425968 0.011228980718097036 -0.001085191648875986 -0.0072230289032506724
 0.994246436450312 -0.0589605144749621 0.004656017433298218 0.025231910664124745 -0.001085655022206038 -0.00722299976302426 0.0012655180336901145 0.011225558803408638
 0.001238072445425968 0.011228980718097036 -0.001085655022206038 -0.00722299976302426 0.0046593673281462656 0.025233445916922278 0.9942465010406906 -0.058958837384492896
 -0.001085191648875986 -0.0072230289032506724 0.0012655180336901145 0.011225558803408638 0.9942465010406906 -0.058958837384492896 0.004656136557848608 0.02523355957185972
0.131304710296 0.004932570497594274 0.02662325014451229 0.9938888320169004 -0.062020370804660066 0.001345184433809294 0.011796521627224589 -0.001178402693748639 -0.007591670011498689
 0.9938888320169004 -0.062020370804660066 0.004928874133866832 0.026623348268163833 -0.0011789123741802695 -0.007591635641752238 0.0013754745752409395 0.011792672241883335
 0.001345184433809294 0.011796521627224589 -0.0011789123741802695 -0.007591635641752238 0.00493256651767988 0.026624956429516067 0.993888903136652 -0.0620186087441216
 -0.001178402693748639 -0.007591670011498689 0.0013754745752409395 0.011792672241883335 0.993888903136652 -0.0620186087441216 0.0049290043655039655 0.02662507724489418
0.1375573155481 0.005144287580435904 0.02784419093562963 0.9935899290123176 -0.06490879401340935 0.0014409395736677028 0.01234537760837485 -0.0012596302291966832 -0.007941750109445814
 0.9935899290123176 -0.06490879401340935 0.005140228856551163 0.02784429296793281 -0.0012601891303544155 -0.007941710591086622 0.0014741386184727707 0.012341113765779876
 0.0014409395736677028 0.01234537760837485 -0.0012601891303544155 -0.007941710591086622 0.005144282414123292 0.027845974824391963 0.9935900069539505 -0.06490694688102053
 -0.0012596302291966832 -0.007941750109445814 0.0014741386184727707 0.012341113765779876 0.9935900069539505 -0.06490694688102053 0.00514037137322307 0.027846101364185038
0.1438099208003 0.005363109967358144 0.02906011864270414 0.9932811289852339 -0.06779132859917084 0.001540537449262644 0.012892844754685781 -0.0013441065999584573 -0.00829054061099713
 0.9932811289852339 -0.06779132859917084 0.005358671663139589 0.02906022456385647 -0.0013447169592906694 -0.008290495480555167 0.0015767747379245498 0.012888136998669265
 0.001540537449262644 0.012892844754685781 -0.0013447169592906694 -0.008290495480555167 0.005363103463411956 0.029061979665029873 0.9932812140876395 -0.06778939622008935
 -0.0013441065999584573 -0.00829054061099713 0.0015767747379245498 0.012888136998669265 0.9932812140876395 -0.06778939622008935 0.005358827000012937 0.02906211198832308
0.1500625260525 0.005588976855155948 0.030270973829914612 0.9929624951014357 -0.07066794583827013 0.001643952277024623 0.01343889509797193 -0.0014318064244399629 -0.00863801344529088
 0.9929624951014357 -0.07066794583827013 0.005584141704461816 0.03027108363368635 -0.0014324704755971044 -0.008637962221043606 0.0016833566172834518 0.013433712923567827
 0.001643952277024623 0.01343889509797193 -0.0014324704755971044 -0.008637962221043606 0.005588968852773086 0.030272911498922778 0.9929625877081802 -0.07066592802900508
 -0.0014318064244399629 -0.00863801344529088 0.0016833566172834518 0.013433712923567827 0.9929625877081802 -0.07066592802900508 0.005584310393043034 0.030273049679494953
0.15631513130469998 0.005821827190118118 0.03147669914361509 0.992634090647481 -0.07353861635199611 0.001751158074868941 0.01398350101200409 -0.001522704107374682 -0.008984141051367312
