! Created with skrf 1.8.0 (http://scikit-rf.org).
# GHz S RI R 50.0 
!freq ReS11 ImS11 ReS12 ImS12 ReS13 ImS13
! ReS14 ImS14
! ReS21 ImS21 ReS22 ImS22 ReS23 ImS23
! ReS24 ImS24
! ReS31 ImS31 ReS32 ImS32 ReS33 ImS33
! ReS34 ImS34
! ReS41 ImS41 ReS42 ImS42 ReS43 ImS43
! ReS44 ImS44
!
0.0 0.001808948752949 0.0 0.9981910512423 0.0 7.033930770342e-05 0.0 -7.033930771433e-05 8.614080804659497e-21
 0.9981910512423 0.0 0.001808948752913 0.0 -7.033930771395e-05 8.61408080461296e-21 7.033930770266e-05 0.0
 7.033930770342e-05 0.0 -7.033930771395e-05 8.61408080461296e-21 0.001808948755329 0.0 0.9981910512447 0.0
 -7.033930771433e-05 8.614080804659497e-21 7.033930770266e-05 0.0 0.9981910512447 0.0 0.001808948755314 0.0
0.005 0.001947198183234815 0.0014768027647433567 0.9980159853249747 -0.003788408319262645 9.94454321796144e-05 0.0007887385502207951 -9.640424043608926e-05 -0.0004925119828816273
 0.9980159853249747 -0.003788408319262645 0.0019472094748098903 0.0014767962088894535 -9.640496034269838e-05 -0.0004925126015555915 9.93764659820136e-05 0.00078876493022518
 9.94454321796144e-05 0.0007887385502207951 -9.640496034269838e-05 -0.0004925126015555915 0.0019471971139476516 0.001476736178013556 0.9980159849533443 -0.003788475371761499
 -9.640424043608926e-05 -0.0004925119828816273 9.93764659820136e-05 0.00078876493022518 0.9980159849533443 -0.003788475371761499 0.0019472098052089161 0.001476728693149792
0.006252605252188 0.001983724521985809 0.0018517857059259868 0.9979693966617011 -0.004736394545093547 0.00010791469539197072 0.0009862808547366911 -0.00010389010483728148 -0.0006162632546238587
 0.9979693966617011 -0.004736394545093547 0.0019837421721011082 0.0018517773541966644 -0.00010389122453917412 -0.0006162640186216763 0.00010780694456306031 0.0009863151205351279
 0.00010791469539197072 0.0009862808547366911 -0.00010389122453917412 -0.0006162640186216763 0.0019837229089429494 0.0018517024831344743 0.9979693961396147 -0.004736478358633439
 -0.00010389010483728148 -0.0006162632546238587 0.00010780694456306031 0.0009863151205351279 0.9979693961396147 -0.004736478358633439 0.0019837427480194642 0.0018516929559353188
0.01250521050438 0.002177564959706567 0.003742040437536394 0.9977203229660215 -0.00947328269663492 0.00015729539005705562 0.001972744379703356 -0.000147043748786946 -0.0012353441216688646
 0.9977203229660215 -0.00947328269663492 0.002177635428650509 0.003742022148843116 -0.00014704815490935972 -0.0012353455467773646 0.00015686576536855863 0.001972826998798606
 0.00015729539005705562 0.001972744379703356 -0.00014704815490935972 -0.0012353455467773646 0.0021775590774807388 0.003741874324461621 0.9977203214463739 -0.009473450095120009
 -0.000147043748786946 -0.0012353441216688646 0.00015686576536855863 0.001972826998798606 0.9977203214463739 -0.009473450095120009 0.0021776383032372027 0.0037418535250403864
0.01875781575657 0.002390948868459711 0.0056587871956767215 0.9974434814411005 -0.014222128108558125 0.00021860337635374344 0.0029600191386183953 -0.00019994468764389557 -0.001856289121201599
 0.9974434814411005 -0.014222128108558125 0.00239110720093939 0.005658757269731416 -0.00019995450420522305 -0.0018562910841278522 0.00021763842199879553 0.0029601673212604064
 0.00021860337635374344 0.0029600191386183953 -0.00019995450420522305 -0.0018562910841278522 0.0023909360613488147 0.005658538452292501 0.9974434784485633 -0.014222378986630408
 -0.00019994468764389557 -0.001856289121201599 0.00021763842199879553 0.0029601673212604064 0.9974434784485633 -0.014222378986630408 0.002391114102622913 0.005658504467982492
0.02501042100875 0.0026243373822588197 0.007599266644446116 0.9971385082365779 -0.018985159800480544 0.0002919620747100032 0.003948100693406011 -0.0002627312860555817 -0.00247876846276467
 0.9971385082365779 -0.018985159800480544 0.0026246185457863202 0.007599223276782542 -0.00026274860862695893 -0.002478770817582884 0.0002902483706479421 0.003948334676848973
 0.0002919620747100032 0.003948100693406011 -0.00026274860862695893 -0.002478770817582884 0.0026243149941568887 0.007598935514498077 0.9971385032958688 -0.018985494119340172
 -0.0002627312860555817 -0.00247876846276467 0.0002902483706479421 0.003948334676848973 0.9971385032958688 -0.018985494119340172 0.0026246312109809407 0.007598886277044098
0.03126302626094 0.002878172346693041 0.009562022000492536 0.9968050231841401 -0.023763287268011277 0.0003774946382674755 0.004936890817413037 -0.00033553700906839085 -0.003102536842190882
 0.9968050231841401 -0.023763287268011277 0.0028786112526125104 0.009561963284288148 -0.00033556390957590135 -0.003102539420108129 0.00037481861673172197 0.004937233881908451
 0.0003774946382674755 0.004936890817413037 -0.00033556390957590135 -0.003102539420108129 0.0028781377209365702 0.009561608766817236 0.9968050158194766 -0.023763705000432265
 -0.00033553700906839085 -0.003102536842190882 0.00037481861673172197 0.004937233881908451 0.9968050158194766 -0.023763705000432265 0.0028786314262701476 0.009561542053942204
0.037515631513130004 0.003152885200547991 0.011546075595909717 0.9964426390969084 -0.02855692386929975 0.0004753226422234734 0.0059262535410300275 -0.0004184913818194953 -0.003727377438474572
 0.9964426390969084 -0.02855692386929975 0.0031535167184698174 0.011545999522832355 -0.0004185299110268218 -0.0037273800478321755 0.00047147051556883815 0.005926732037297291
 0.0004753226422234734 0.0059262535410300275 -0.0004185299110268218 -0.0037273800478321755 0.003152835680192253 0.011545580577763837 0.9964426288317387 -0.028557425002912952
 -0.0004184913818194953 -0.003727377438474572 0.00047147051556883815 0.005926732037297291 0.9964426288317387 -0.028557425002912952 0.0031535461543615102 0.01154549401324841
0.043768236765320004 0.003448900395503525 0.013550678261312071 0.9960509656110603 -0.03336623738008009 0.0005855654476850951 0.0069160322090405036 -0.0005117203041932874 -0.004353084903474591
 0.9960509656110603 -0.03336623738008009 0.0034497593655160733 0.013550582721676545 -0.0005117724932602856 -0.0043530873297862845 0.0005803231836060941 0.00691667558915391
 0.0005855654476850951 0.0069160322090405036 -0.0005117724932602856 -0.0043530873297862845 0.003448833323447416 0.013550101810138104 0.9960509519668189 -0.03336682192219384
 -0.0005117203041932874 -0.004353084903474591 0.0005803231836060941 0.00691667558915391 0.9960509519668189 -0.03336682192219384 0.003449799825440917 0.013549992863332182
0.050020842017509996 0.003766636950974683 0.015575205763055303 0.9956296111661415 -0.038191253494795685 0.0007083398024314329 0.007906056539572513 -0.0006153461369472153 -0.004979458356583873
 0.9956296111661415 -0.038191253494795685 0.0037677581945195623 0.01557508854560425 -0.0006154139984773507 -0.004979460362579024 0.0007014931246531075 0.007906897389069505
 0.0007083398024314329 0.007906056539572513 -0.0006154139984773507 -0.004979460362579024 0.003766549670878823 0.015574548273963939 0.9956295936620253 -0.03819192146130026
 -0.0006153461369472153 -0.004979458356583873 0.0007014931246531075 0.007906897389069505 0.9956295936620253 -0.03819192146130026 0.003767811448127169 0.015574414258953534
0.055454545454549996 0.004060721968438954 0.01735033437496825 0.9952390327012892 -0.04239704188736425 0.0008253000760250184 0.008766477279644767 -0.0007139360517152109 -0.005524181538227198
 0.9952390327012892 -0.04239704188736425 0.004062099407847667 0.017350196443686145 -0.0007140191536742105 -0.005524182968616127 0.0008168849182710124 0.008767518657415126
 0.0008253000760250184 0.008766477279644767 -0.0007140191536742105 -0.005524182968616127 0.0040606149714076415 0.017349606814134402 0.9952390114506982 -0.04239778237441407
 -0.0007139360517152109 -0.005524181538227198 0.0008168849182710124 0.008767518657415126 0.9952390114506982 -0.04239778237441407 0.004062165223514242 0.017349448711176853
0.056273447269699996 0.004106509224353881 0.017619107996694576 0.995178184208142 -0.043031906576791394 0.0008437595431078952 0.008896146109770787 -0.0007294876888917053 -0.005606297960734751
 0.995178184208142 -0.043031906576791394 0.004107927554091142 0.01761896678799464 -0.0007295732176111609 -0.005606299286426847 0.0008350939477877086 0.008897220180004554
 0.0008437595431078952 0.008896146109770787 -0.0007295732176111609 -0.005606299286426847 0.004106399082075951 0.017618369905784897 0.9951781623612457 -0.04303265799554143
 -0.0007294876888917053 -0.005606297960734751 0.0008350939477877086 0.008897220180004554 0.9951781623612457 -0.04303265799554143 0.004107995379728764 0.017618207980005882
0.06252605252188 0.004468927296267365 0.019681881045683264 0.9946962940123187 -0.04788806755129169 0.0009919353526315362 0.00988611227871737 -0.0008542601493052516 -0.006233403070081998
 0.9946962940123187 -0.04788806755129169 0.004470677526125213 0.019681713429113172 -0.0008543653226147304 -0.0062334034328105385 0.0009812361350570705 0.009887458519080778
 0.0009919353526315362 0.00988611227871737 -0.0008543653226147304 -0.0062334034328105385 0.004468791639475518 0.019681062837943082 0.9946962673360215 -0.04788890245455089
 -0.0008542601493052516 -0.006233403070081998 0.0009812361350570705 0.009887458519080778 0.9946962673360215 -0.04788890245455089 0.0044707617090511236 0.019680870000514522
0.06877865777407 0.004854297139438463 0.02176305054811589 0.9941835512955973 -0.0527595604995114 0.0011529745446139249 0.010875759360022115 -0.0009897749929288773 -0.006860571137537729
 0.9941835512955973 -0.0527595604995114 0.0048564140939858814 0.021762854002450135 -0.0009899017713145422 -0.0068605702320289645 0.0011400268333216564 0.010877419949768537
 0.0011529745446139249 0.010875759360022115 -0.0009899017713145422 -0.0068605702320289645 0.004854133319869075 0.021762152745749053 0.994183519300296 -0.052760478936147874
 -0.0009897749929288773 -0.006860571137537729 0.0011400268333216564 0.010877419949768537 0.994183519300296 -0.052760478936147874 0.004856516427386401 0.02176192583545084
0.07503126302626001 0.005263020663635152 0.023862161149492304 0.9936395687103003 -0.05764617317730252 0.0013269808664667028 0.011864885377138068 -0.0011361398655858651 -0.007487597049595265
 0.9936395687103003 -0.05764617317730252 0.0052655391869865795 0.02386193304726103 -0.0011362901928737802 -0.0074875945480105364 0.0013115696630328984 0.0118669057566339
 0.0013269808664667028 0.011864885377138068 -0.0011362901928737802 -0.0074875945480105364 0.005262826037624988 0.023861184320929266 0.9936395309024463 -0.05764717520423287
 -0.0011361398655858651 -0.007487597049595265 0.0013115696630328984 0.0118669057566339 0.9936395309024463 -0.05764717520423287 0.00526566147161985 0.023860920013870437
0.08128386827845 0.0056954956799663515 0.025978769498982486 0.9930639612629144 -0.06254766400161114 0.001514054313319008 0.012853282590027463 -0.0012934584582369494 -0.008114272700213334
 0.9930639612629144 -0.06254766400161114 0.005698450645775178 0.025978507104159537 -0.0012936342618870358 -0.008114268252198527 0.0014959645367009615 0.012855711491225798
 0.001514054313319008 0.012853282590027463 -0.0012936342618870358 -0.008114268252198527 0.005695267609411594 0.02597771426164449 0.993063917144776 -0.06254874968141116
 -0.0012934584582369494 -0.008114272700213334 0.0014959645367009615 0.012855711491225798 0.993063917144776 -0.06254874968141116 0.005698594689136106 0.025977409068362024
0.08753647353064001 0.006152115811788314 0.028112439426388948 0.992456346683326 -0.06746376686777242 0.0017142909486263997 0.013840737876269838 -0.0014618303740700465 -0.008740386720800571
 0.992456346683326 -0.06746376686777242 0.006155542131700445 0.028112139891991777 -0.0014620335652867221 -0.008740379953526363 0.0016933074830378012 0.013843627352477723
 0.0017142909486263997 0.013840737876269838 -0.0014620335652867221 -0.008740379953526363 0.006151851665226888 0.028111306440504337 0.9924562957520042 -0.06746493627521133
 -0.0014618303740700465 -0.008740386720800571 0.0016933074830378012 0.013843627352477723 0.9924562957520042 -0.06746493627521133 0.00615570974835605 0.028110956702945458
0.09378907878283 0.006633270368856637 0.030262738494729245 0.9918163457623215 -0.07239419460375718 0.0019277827307564407 0.01482703302490829 -0.0016413509890783363 -0.009365724308525223
 0.9918163457623215 -0.07239419460375718 0.006637203002529866 0.030262398859707433 -0.0016415834630363552 -0.009365714826730433 0.0019036904768767787 0.014830438479524337
 0.0019277827307564407 0.01482703302490829 -0.0016415834630363552 -0.009365714826730433 0.006632967523179859 0.03026152846693901 0.991816287510223 -0.0723954478224971
 -0.0016413509890783363 -0.009365724308525223 0.0019036904768767787 0.014830438479524337 0.991816287510223 -0.0723954478224971 0.006637396013664904 0.03026113035486073
0.100041684035 0.007139344196642458 0.03242923549581046 0.9911435826679011 -0.07733864149388962 0.0021546173429611176 0.01581194497639738 -0.0018321113096417463 -0.009990067119515845
 0.9911435826679011 -0.07733864149388962 0.0071438181600804096 0.03242885268178231 -0.0018323749455098287 -0.009990054505541968 0.002127201271734422 0.0158159251908107
 0.0021546173429611176 0.01581194497639738 -0.0018323749455098287 -0.009990054505541968 0.007139000037417312 0.03242794918191234 0.9911435165815229 -0.07733997861402299
 -0.0018321113096417463 -0.009990067119515845 0.002127201271734422 0.0158159251908107 0.9911435165815229 -0.07733997861402299 0.007144038393145666 0.032427498688993944
0.1059090909091 0.007637243360832852 0.03447661031035636 0.9904821374606212 -0.08199094380604895 0.0023796869347993783 0.016734719591980404 -0.002021419133003513 -0.01057484423921742
 0.9904821374606212 -0.08199094380604895 0.007642257210385359 0.034476184069686173 -0.0020217137059301967 -0.010574828286278417 0.0023489563588454353 0.01673929565109966
 0.0023796869347993783 0.016734719591980404 -0.0020217137059301967 -0.010574828286278417 0.0076368580646210445 0.03447525313775737 0.9904820635502257 -0.08199235975009686
 -0.002021419133003513 -0.01057484423921742 0.0023489563588454353 0.01673929565109966 0.9904820635502257 -0.08199235975009686 0.007642504655766238 0.034474749686607443
0.1062942892872 0.00767071750349474 0.034611498576218536 0.9904376852438579 -0.08229678518549913 0.002394878026627411 0.016795246016936737 -0.0020341978270931086 -0.010613193219144404
 0.9904376852438579 -0.08229678518549913 0.0076757678788770866 0.03461106938355038 -0.002034494488140224 -0.010613177033000904 0.0023639232353726445 0.016799863177243118
 0.002394878026627411 0.016795246016936737 -0.002034494488140224 -0.010613177033000904 0.007670329426593885 0.034610136776882315 0.9904376108036528 -0.08229820630812533
 -0.0020341978270931086 -0.010613193219144404 0.0023639232353726445 0.016799863177243118 0.9904376108036528 -0.08229820630812533 0.007676017167351689 0.03460962971636217
0.11254689453939999 0.008227765675315633 0.03680909382173132 0.9896982852981762 -0.08726828815047845 0.002648643416526322 0.017776703958842156 -0.0022476923710302086 -0.011234877057649842
 0.9896982852981762 -0.08726828815047845 0.008233427619752258 0.036808614925284415 -0.0022480239046753178 -0.011234856836994789 0.002613935187514517 0.017782023681571387
 0.002648643416526322 0.017776703958842156 -0.0022480239046753178 -0.011234856836994789 0.008227331088225164 0.036807657385469525 0.9896982019781562 -0.08726979338482443
 -0.0022476923710302086 -0.011234877057649842 0.002613935187514517 0.017782023681571387 0.9896982019781562 -0.08726979338482443 0.008233707803226414 0.03680708938539602
0.11879949979160001 0.008810859078728646 0.03902158416177864 0.9889250188833506 -0.09225279884053744 0.002915987378866633 0.0187560822981736 -0.002472671961172765 -0.011854889480286542
 0.9889250188833506 -0.09225279884053744 0.008817167833635212 0.03902105210619514 -0.0024730401990850086 -0.011854864740507598 0.002877311239528066 0.018762173654776587
 0.002915987378866633 0.0187560822981736 -0.0024730401990850086 -0.011854864740507598 0.008810375401716366 0.03902007398629751 0.9889249261505921 -0.09225438830288679
 -0.002472671961172765 -0.011854889480286542 0.002877311239528066 0.018762173654776587 0.9889249261505921 -0.09225438830288679 0.008817480756937383 0.03901944048435569
0.1250521050438 0.009420362854209717 0.041248528529305856 0.9881175265689478 -0.09724995260119697 0.0031969788508197997 0.019733140364296072 -0.002709208659345711 -0.012472997757191084
 0.9881175265689478 -0.09724995260119697 0.009427353754230377 0.04124793972382109 -0.002709615417310598 -0.0124729679914128 0.0031541206361121255 0.019740075904478897
 0.0031969788508197997 0.019733140364296072 -0.002709615417310598 -0.0124729679914128 0.009419827521370175 0.04124694555887183 0.9881174238831575 -0.09725162641753927
 -0.002709208659345711 -0.012472997757191084 0.0031541206361121255 0.019740075904478897 0.9881174238831575 -0.09725162641753927 0.009427701267820424 0.04124624179675328
0.131304710296 0.010056636703818575 0.04348948119277516 0.9872754537108708 -0.10225937242796156 0.003491681682643578 0.02070763346276182 -0.002957369420809825 -0.013088965631962945
 0.9872754537108708 -0.10225937242796156 0.010064345185969112 0.04348883190551048 -0.002957816498870822 -0.013088930311076117 0.0034444275988534507 0.020715489236456205
 0.003491681682643578 0.02070763346276182 -0.002957816498870822 -0.013088930311076117 0.010056047164404232 0.04348782641911519 0.9872753405235449 -0.10226113073310818
 -0.002957369420809825 -0.013088965631962945 0.0034444275988534507 0.020715489236456205 0.9872753405235449 -0.10226113073310818 0.010064729145005445 0.04348704743652738
0.1375573155481 0.010583381844337256 0.045452178616401696 0.986535174269579 -0.10698867491127385 0.0037659127669625292 0.021651280959076417 -0.003183030725782179 -0.01367450393715845
 0.986535174269579 -0.10698867491127385 0.010591847010784734 0.04545148000686108 -0.0031835209936803962 -0.013674462959029427 0.003714152823413733 0.021660052744986683
 0.0037659127669625292 0.021651280959076417 -0.0031835209936803962 -0.013674462959029427 0.010582736465531645 0.045450452521185465 0.9865350501001215 -0.10699051774305568
 -0.003183030725782179 -0.01367450393715845 0.003714152823413733 0.021660052744986683 0.9865350501001215 -0.10699051774305568 0.01059226822993283 0.04544960910454277
0.1438099208003 0.011128909170926286 0.04740275177221401 0.9857683266645861 -0.11170417644013743 0.004051158584327917 0.02258995462096037 -0.0034176363455297506 -0.014255511572592779
 0.9857683266645861 -0.11170417644013743 0.011138167164430057 0.04740200096764034 -0.0034181717728719767 -0.014255464403439755 0.003994698213408157 0.022599712685311305
 0.004051158584327917 0.02258995462096037 -0.0034181717728719767 -0.014255464403439755 0.011128205588646347 0.047400955322463405 0.9857681909681193 -0.11170610392036545
 -0.0034176363455297506 -0.014255511572592779 0.003994698213408157 0.022599712685311305 0.9857681909681193 -0.11170610392036545 0.011138627316348617 0.04740004343500441
0.1500625260525 0.011692997801696055 0.04934098496580121 0.9849751369841576 -0.11640570578707443 0.004347301591618756 0.02352352137778471 -0.0036610725924735056 -0.014831865402078221
 0.9849751369841576 -0.11640570578707443 0.011703084883861372 0.04934017890494499 -0.0036616551464749712 -0.01483181148573153 0.004285947769966436 0.023534338528547385
 0.004347301591618756 0.02352352137778471 -0.0036616551464749712 -0.01483181148573153 0.011692233677372226 0.04933911916392424 0.9849749892099302 -0.11640771804114776
 -0.0036610725924735056 -0.014831865402078221 0.004285947769966436 0.023534338528547385 0.9849749892099302 -0.11640771804114776 0.011703585633492228 0.04933813453894875
0.15631513130469998 0.01227542493993219 0.051266668971890236 0.9841558328527553 -0.12109309357987463 0.004654222642467471 0.02445185085860999 -0.003913224192343418 -0.015403445274439471
 0.9841558328527553 -0.12109309357987463 0.012286377493759012 0.05126580439894131 -0.003913855837695904 -0.015403384032310853 0.00458778392058535 0.024463802411295494
