! Created with skrf 1.8.0 (http://scikit-rf.org).
# GHz S RI R 50.0 
!freq ReS11 ImS11 ReS12 ImS12 ReS13 ImS13
! ReS14 ImS14
! ReS21 ImS21 ReS22 ImS22 ReS23 ImS23
! ReS24 ImS24
! ReS31 ImS31 ReS32 ImS32 ReS33 ImS33
! ReS34 ImS34
! ReS41 ImS41 ReS42 ImS42 ReS43 ImS43
! ReS44 ImS44
!
0.0 0.001561278066197 0.0 0.9984387219281 0.0 6.027648390731e-05 0.0 -6.027648399678e-05 7.38174031905133e-21
 0.9984387219281 0.0 0.00156127806621 0.0 -6.027648399663e-05 7.38174031903296e-21 6.027648390835e-05 0.0
 6.027648390731e-05 0.0 -6.027648399663e-05 7.38174031903296e-21 0.001561278067617 0.0 0.9984387219296 0.0
 -6.027648399678e-05 7.38174031905133e-21 6.027648390835e-05 0.0 0.9984387219296 0.0 0.001561278067636 0.0
0.005 0.0016798772468888906 0.001276705233527705 0.9982886896078473 -0.0032704664169614633 8.445924850429555e-05 0.0006669430157324688 -8.20908953072824e-05 -0.0004181137462537233
 0.9982886896078473 -0.0032704664169614633 0.001679855847395152 0.0012767177758213203 -8.209277574163636e-05 -0.00041811522613207833 8.458370869735379e-05 0.0006668956207686084
 8.445924850429555e-05 0.0006669430157324688 -8.209277574163636e-05 -0.00041811522613207833 0.001679876460174189 0.0012767730098500085 0.9982886899744705 -0.003270399347407445
 -8.20908953072824e-05 -0.0004181137462537233 8.458370869735379e-05 0.0006668956207686084 0.9982886899744705 -0.003270399347407445 0.001679857356938094 0.001276784128411289
0.006252605252188 0.0017110013213892739 0.0016009037277163293 0.9982490715047715 -0.00408888054167021 9.135055535159883e-05 0.0008340012175933241 -8.82554946446419e-05 -0.0005231823887233402
 0.9982490715047715 -0.00408888054167021 0.0017109678695740097 0.0016009196515954739 -8.825842048061977e-05 -0.0005231842140945066 9.154501280118949e-05 0.0008339396734076733
 9.135055535159883e-05 0.0008340012175933241 -8.825842048061977e-05 -0.0005231842140945066 0.001711000007486811 0.0016009884301359568 0.9982490719942951 -0.004088796722916773
 -8.82554946446419e-05 -0.0005231823887233402 9.154501280118949e-05 0.0008339396734076733 0.9982490719942951 -0.004088796722916773 0.0017109701460152579 0.0016010025641861056
0.01250521050438 0.0018749558482608255 0.0032353355396666714 0.9980390160725653 -0.00817854845683099 0.00013077928633639045 0.0016683624968802685 -0.00012326250986324357 -0.0010488929629560938
 0.9980390160725653 -0.00817854845683099 0.0018748222682863477 0.0032353698806126302 -0.0001232740370051352 -0.0010488963454592247 0.00013155473965596867 0.0016682145697565019
 0.00013077928633639045 0.0016683624968802685 -0.0001232740370051352 -0.0010488963454592247 0.00187495003328453 0.0032355047091648806 0.998039017469706 -0.00817838103549621
 -0.00012326250986324357 -0.0010488929629560938 0.00013155473965596867 0.0016682145697565019 0.998039017469706 -0.00817838103549621 0.0018748308025195656 0.0032355353465494253
0.01875781575657 0.002053503236579264 0.004893012162059093 0.9978082917664832 -0.0122789532144351 0.00017865620257716565 0.002503644736761834 -0.00016540616036200733 -0.001576368224578527
 0.9978082917664832 -0.0122789532144351 0.0020532030634041083 0.004893067627839067 -0.00016543186167650785 -0.0015763728446271212 0.00018039817898617122 0.002503380680122154
 0.00017865620257716565 0.002503644736761834 -0.00016543186167650785 -0.0015763728446271212 0.002053489726942574 0.004893265675637255 0.9978082944867228 -0.012278702245964477
 -0.00016540616036200733 -0.001576368224578527 0.00018039817898617122 0.002503380680122154 0.9978082944867228 -0.012278702245964477 0.0020532218223184287 0.004893315334492276
0.02501042100875 0.0022469942027049054 0.0065716074083114525 0.9975566241914237 -0.016392076172175203 0.00023507535621531756 0.0033398823117958103 -0.00021479144977616912 -0.0021053650842372653
 0.9975566241914237 -0.016392076172175203 0.0022464610969423547 0.006571686897849393 -0.00021483683004061994 -0.0021053705651878528 0.00023816953008652897 0.0033394676385871086
 0.00023507535621531756 0.0033398823117958103 -0.00021483683004061994 -0.0021053705651878528 0.002246969800123768 0.006571945157453328 0.9975566286556158 -0.016391741647350095
 -0.00021479144977616912 -0.0021053650842372653 0.00023816953008652897 0.0033394676385871086 0.9975566286556158 -0.016391741647350095 0.0022464940434111327 0.00657201648449687
0.03126302626094 0.002455764986873134 0.008269921116083146 0.9972837250988548 -0.02051876159935588 0.0003001309649257987 0.004177032351257513 -0.0002715203601678766 -0.0026357116974309843
 0.9972837250988548 -0.02051876159935588 0.0024549326980536695 0.00827002771562367 -0.0002715908675839294 -0.002635717604934101 0.0003049635152817775 0.004176427806221588
 0.0003001309649257987 0.004177032351257513 -0.0002715908675839294 -0.002635717604934101 0.0024557264842701193 0.00827034298386733 0.9972837317329734 -0.020518343467151586
 -0.0002715203601678766 -0.0026357116974309843 0.0003049635152817775 0.004176427806221588 0.9972837317329734 -0.020518343467151586 0.0024549837900123164 0.008270438750046911
0.037515631513130004 0.0026801445257360283 0.009987168430714831 0.9969892998045512 -0.024659427330613222 0.0003739166106684525 0.005015021418788055 -0.0003356925897562454 -0.0031672608011920015
 0.9969892998045512 -0.024659427330613222 0.0026789468686540785 0.009987305411927007 -0.00033579362186490454 -0.0031672666429968487 0.0003808743807074404 0.005014182930648267
 0.0003739166106684525 0.005015021418788055 -0.00033579362186490454 -0.0031672666429968487 0.002680088701819526 0.00998767428692465 0.9969893090363031 -0.024658925503005438
 -0.0003356925897562454 -0.0031672608011920015 0.0003808743807074404 0.005014182930648267 0.9969893090363031 -0.024658925503005438 0.0026790200548821095 0.009987797384935996
0.043768236765320004 0.002920457216710855 0.011722763533079928 0.9966730501937903 -0.02881428096618451 0.00045652485719571755 0.005853759701197743 -0.0004074058120070449 -0.0036998755334977347
 0.9966730501937903 -0.02881428096618451 0.002918828052397817 0.011722934352394753 -0.0004075427192150072 -0.0036998807594350405 0.0004659954294030171 0.0058526383285077005
 0.00045652485719571755 0.005853759701197743 -0.0004075427192150072 -0.0036998807594350405 0.00292038084079846 0.011723353222769404 0.9966730624601886 -0.028813695329853194
 -0.0004074058120070449 -0.0036998755334977347 0.0004659954294030171 0.0058526383285077005 0.9966730624601886 -0.028813695329853194 0.0029189272777806817 0.011723506665448835
0.050020842017509996 0.0031770242113715813 0.013476230226186547 0.9963346762585593 -0.03298340921241016 0.0005480470114419839 0.006693146882692859 -0.00048675576869738803 -0.004233423567283289
 0.9963346762585593 -0.03298340921241016 0.0031748974304726765 0.01347643852466917 -0.00048693385650045877 -0.004233427569258532 0.0005604187376418024 0.006691688757176053
 0.0005480470114419839 0.006693146882692859 -0.00048693385650045877 -0.004233427569258532 0.003176924037389387 0.013476903586696534 0.9963346920019789 -0.032982739611753464
 -0.00048675576869738803 -0.004233423567283289 0.0005604187376418024 0.006691688757176053 0.9963346920019789 -0.032982739611753464 0.0031750266305063993 0.013477090506044431
0.055454545454549996 0.0034134366522476853 0.015014239915525073 0.9960224176372394 -0.03661810960966305 0.0006348915617563121 0.0074230430867671055 -0.0005619881657941223 -0.0046977494477746205
 0.9960224176372394 -0.03661810960966305 0.0034108237506442107 0.015014483885281232 -0.0005622063157867643 -0.0046977518472979965 0.0006501004679286454 0.007421244695315577
 0.0006348915617563121 0.0074230430867671055 -0.0005622063157867643 -0.0046977518472979965 0.003413313150235312 0.01501498583143138 0.9960224367686201 -0.03661736690154538
 -0.0005619881657941223 -0.0046977494477746205 0.0006501004679286454 0.007421244695315577 0.9960224367686201 -0.03661736690154538 0.0034109821893650912 0.015015204478696783
0.056273447269699996 0.003450164065684594 0.015247158088495338 0.995973876994527 -0.03716682165655279 0.0006485729514037292 0.0075330750170219 -0.0005738362851744117 -0.004767774249035407
 0.995973876994527 -0.03716682165655279 0.0034474735739288857 0.015247407692309855 -0.0005740608157024521 -0.004767776361083281 0.0006642349558235914 0.007531221285780539
 0.0006485729514037292 0.0075330750170219 -0.0005740608157024521 -0.004767776361083281 0.0034500368339064223 0.015247914926883573 0.9959738966666221 -0.03716606791663247
 -0.0005738362851744117 -0.004767774249035407 0.0006642349558235914 0.007531221285780539 0.9959738966666221 -0.03716606791663247 0.0034476366760421806 0.015248138573496724
0.06252605252188 0.0037401930926765155 0.017035178333764178 0.9955903510041514 -0.04136447483862779 0.000758190985258972 0.008373430117796852 -0.0006687392479591662 -0.00530279702281233
 0.9955903510041514 -0.04136447483862779 0.003736872796253903 0.0170354732549776 -0.0006690154409637751 -0.005302796521136365 0.0007775331494790915 0.008371116885091862
 0.000758190985258972 0.008373430117796852 -0.0006690154409637751 -0.005302796521136365 0.003740035526882306 0.017036018442692608 0.9955903750649853 -0.04136363674955398
 -0.0006687392479591662 -0.00530279702281233 0.0007775331494790915 0.008371116885091862 0.9955903750649853 -0.04136363674955398 0.0037370737172962736 0.017036282185615988
0.06877865777407 0.004047425541438321 0.01883994944244375 0.9951837969295594 -0.04557628655544012 0.0008769877276618178 0.00921409310578211 -0.000771554560411791 -0.005838360501459751
 0.9951837969295594 -0.04557628655544012 0.004043409333567136 0.018840293880338244 -0.0007718875939764688 -0.005838356604492266 0.000900400663032674 0.009211251374784957
 0.0008769877276618178 0.00921409310578211 -0.0007718875939764688 -0.005838356604492266 0.004047234348782457 0.018840872594302477 0.9951838258496677 -0.04557536387854322
 -0.000771554560411791 -0.005838360501459751 0.000900400663032674 0.009211251374784957 0.9951838258496677 -0.04557536387854322 0.0040436519793170065 0.018841179921348143
0.07503126302626001 0.004372173678933787 0.020661148040958168 0.9947539137925896 -0.04980214492138627 0.0010050479874864902 0.010054940413786725 -0.0008823700837534287 -0.006374331884748388
 0.9947539137925896 -0.04980214492138627 0.0043673954264133235 0.02066154638381966 -0.0008827650947674544 -0.006374323753217157 0.0010329229979442781 0.010051496028591485
 0.0010050479874864902 0.010054940413786725 -0.0008827650947674544 -0.006374323753217157 0.004371945548331885 0.020662153986521454 0.9947539480535361 -0.04980113739098407
 -0.0008823700837534287 -0.006374331884748388 0.0010329229979442781 0.010051496028591485 0.9947539480535361 -0.04980113739098407 0.004367683689577164 0.020662508505057263
0.08128386827845 0.0047147478077321165 0.022498462842495386 0.9943004012744816 -0.05404191437303189 0.0011424546606655151 0.010895844397682946 -0.0010012715703021442 -0.006910576576258731
 0.9943004012744816 -0.05404191437303189 0.004709141337864518 0.022498919669768854 -0.0010017336547779889 -0.006910563313255109 0.0011751836980563879 0.010891717985705188
 0.0011424546606655151 0.010895844397682946 -0.0010017336547779889 -0.006910563313255109 0.004714479409991003 0.022499551313711733 0.9943004413707007 -0.05404082169413312
 -0.0010012715703021442 -0.006910576576258731 0.0011751836980563879 0.010891717985705188 0.9943004413707007 -0.05404082169413312 0.0047094790976172024 0.022499956751800887
0.08753647353064001 0.005075456244257905 0.02435159044695168 0.9938229599591362 -0.05829543981984107 0.001289288627721636 0.011736673624046168 -0.001128342589813568 -0.007446957928635384
 0.9938229599591362 -0.05829543981984107 0.005068955331468892 0.02435211053192093 -0.0011288768029939996 -0.00744693857969912 0.001327264241193035 0.011731780538994752
 0.001289288627721636 0.011736673624046168 -0.0011288768029939996 -0.00744693857969912 0.005075144229672179 0.02435276115727985 0.9938230063981836 -0.05829426166829908
 -0.001128342589813568 -0.007446957928635384 0.001327264241193035 0.011731780538994752 0.9938230063981836 -0.05829426166829908 0.005069346451080105 0.024353221365339548
0.09378907878283 0.0054546052655887935 0.026220232357081322 0.9933212915495856 -0.06256254958468031 0.001445628653919388 0.012577293083074474 -0.0012636644513398692 -0.007983337068859016
 0.9933212915495856 -0.06256254958468031 0.005447143618500314 0.026220820669917305 -0.0012642758078210664 -0.007983310622055486 0.0014892439342415065 0.01257154334853852
 0.001445628653919388 0.012577293083074474 -0.0012642758078210664 -0.007983310622055486 0.005454246263668985 0.026221485000868083 0.9933213448532292 -0.06256128560835962
 -0.0012636644513398692 -0.007983337068859016 0.0014892439342415065 0.01257154334853852 0.9933213448532292 -0.06256128560835962 0.005447591943972547 0.026222003953727018
0.100041684035 0.005852499037146213 0.028104092779190872 0.9927950990679854 -0.06684305756559908 0.001611551290918168 0.013417564352322664 -0.0014073161221665714 -0.008519572778014597
 0.9927950990679854 -0.06684305756559908 0.005844010285530141 0.028104754490561105 -0.0014080095958412416 -0.00851953816403084 0.0016611998104640454 0.013410862606189755
 0.001611551290918168 0.013417564352322664 -0.0014080095958412416 -0.00851953816403084 0.005852089655751272 0.02810542703074145 0.9927951597738468 -0.06684170738600076
 -0.0014073161221665714 -0.008519572778014597 0.0016611998104640454 0.013410862606189755 0.9927951597738468 -0.06684170738600076 0.005844519644450298 0.028106008830271752
0.1059090909091 0.006243197303040357 0.029885474487382883 0.9922787556379201 -0.07087186880794345 0.0017760335303990357 0.014205626956282967 -0.001549762064244291 -0.009022514740469414
 0.9922787556379201 -0.07087186880794345 0.006233684277895692 0.029886209960324803 -0.0015505370835645568 -0.009022471438893493 0.0018317019276843309 0.014197940271764483
 0.0017760335303990357 0.014205626956282967 -0.0015505370835645568 -0.009022471438893493 0.006242737540120747 0.029886885009488322 0.9922788237936926 -0.07087043736413975
 -0.001549762064244291 -0.009022514740469414 0.0018317019276843309 0.014197940271764483 0.9922788237936926 -0.07087043736413975 0.006234254373080781 0.029887529630402115
0.1062942892872 0.006269439524932294 0.030002876974327984 0.992244087043688 -0.07113676485363404 0.0017871307797932843 0.014257345727746172 -0.001559374144053944 -0.009055521409365374
 0.992244087043688 -0.07113676485363404 0.006259857206421892 0.0300036174594754 -0.0015601546680278674 -0.009055477501605305 0.0018432065287028972 0.014249591167401281
 0.0017871307797932843 0.014257345727746172 -0.0015601546680278674 -0.009055477501605305 0.006268976348819359 0.030004292493100323 0.9922441557059971 -0.07113532806132931
 -0.001559374144053944 -0.009055521409365374 0.0018432065287028972 0.014249591167401281 0.9922441557059971 -0.07113532806132931 0.006260431405881892 0.03000494137125487
0.11254689453939999 0.006705726395586555 0.0319162900104295 0.9916679616926288 -0.07544346095600045 0.001972438954923441 0.015096492331127486 -0.001719912547602528 -0.009591036835610953
 0.9916679616926288 -0.07544346095600045 0.006694983942587076 0.031917114853758886 -0.0017207850140420237 -0.009590982450312117 0.0020353362738127654 0.015087578659612905
 0.001972438954923441 0.015096492331127486 -0.0017207850140420237 -0.009590982450312117 0.006705205985480467 0.03191778643635402 0.9916680388832206 -0.07544193711614014
 -0.001719912547602528 -0.009591036835610953 0.0020353362738127654 0.015087578659612905 0.9916680388832206 -0.07544193711614014 0.0066956267675950575 0.03191850675872908
0.11879949979160001 0.007161656907156092 0.03384403577797913 0.9910664310900945 -0.0797629247626639 0.0021675451483995616 0.015934856204123587 -0.0018890027651916506 -0.010125970415392831
 0.9910664310900945 -0.0797629247626639 0.0071496876333808895 0.033844950778120025 -0.0018899720251261882 -0.010125904311735868 0.002237658658082808 0.0159246715772928
 0.0021675451483995616 0.015934856204123587 -0.0018899720251261882 -0.010125904311735868 0.007161075799234724 0.03384561273592384 0.9910665173999361 -0.07976131341125574
 -0.0018890027651916506 -0.010125970415392831 0.002237658658082808 0.0159246715772928 0.9910665173999361 -0.07976131341125574 0.007150402845670293 0.033846409005917996
0.1250521050438 0.007637525793400299 0.03578581622533855 0.9904392053402757 -0.08409492529997722 0.0023725160951421657 0.01677228638985718 -0.0020667135427104516 -0.010660170978135316
 0.9904392053402757 -0.08409492529997722 0.007624262880999782 0.035786827400766316 -0.0020677844058167786 -0.01066009185835436 0.002450240623496455 0.01676071336453387
 0.0023725160951421657 0.01677228638985718 -0.0020677844058167786 -0.01066009185835436 0.007636880497773783 0.035787473322641226 0.9904393013803736 -0.08409322594733155
 -0.0020667135427104516 -0.010660170978135316 0.002450240623496455 0.01676071336453387 0.9904393013803736 -0.08409322594733155 0.007625054216624897 0.03578835018597825
0.131304710296 0.008133625141249367 0.037741330744328054 0.9897859967411402 -0.08843922234127477 0.0025874158383989085 0.01760862900889918 -0.0022531108505080555 -0.011193484820459716
 0.9897859967411402 -0.08843922234127477 0.008119001627093949 0.03774244433955431 -0.002254288084861152 -0.01119339133000037 0.002673146344459187 0.01759554449220864
 0.0025874158383989085 0.01760862900889918 -0.002254288084861152 -0.01119339133000037 0.00813291214114642 0.03774306757535444 0.9897861031437142 -0.08843743446835473
 -0.0022531108505080555 -0.011193484820459716 0.002673146344459187 0.01759554449220864 0.9897861031437142 -0.08843743446835473 0.008119872795156035 0.03774402982535995
0.1375573155481 0.008537474654841315 0.03945538055595569 0.9892193371464139 -0.09254053841256471 0.002784970112136674 0.01841824832806623 -0.0024208258393370215 -0.011700365241939325
 0.9892193371464139 -0.09254053841256471 0.008521419486396424 0.039456580244082246 -0.0024221166176590396 -0.011700257256911291 0.002878904309322046 0.0184036696983952
 0.002784970112136674 0.01841824832806623 -0.0024221166176590396 -0.011700257256911291 0.008536691310811886 0.03945719666051397 0.9892194543989222 -0.09253866169478371
 -0.0024208258393370215 -0.011700365241939325 0.002878904309322046 0.0184036696983952 0.9892194543989222 -0.09253866169478371 0.008522373568045841 0.03945822691208485
0.1438099208003 0.008955572423987033 0.04116024845858693 0.9886326948306193 -0.09663130393096078 0.0029904825567918436 0.01922455878174849 -0.0025952433948466767 -0.012204154301993212
 0.9886326948306193 -0.09663130393096078 0.008938017844022522 0.04116153915987387 -0.002596652858142771 -0.012204030485849116 0.003092979958867529 0.01920837329786021
 0.0029904825567918436 0.01922455878174849 -0.002596652858142771 -0.012204030485849116 0.008954715338126711 0.0411621433753012 0.9886328235665396 -0.09662933785810784
 -0.0025952433948466767 -0.012204154301993212 0.003092979958867529 0.01920837329786021 0.9886328235665396 -0.09662933785810784 0.008939058396578157 0.04116324509692099
0.1500625260525 0.009387769563165277 0.0428557872489843 0.9880262229937828 -0.10071141257183362 0.0032038803972178737 0.020027477267916156 -0.002776291567221067 -0.012704771350398445
 0.9880262229937828 -0.10071141257183362 0.009368647658219502 0.04285717416918464 -0.002777824845421001 -0.012704630312809419 0.003315298363333643 0.02000956806650692
 0.0032038803972178737 0.020027477267916156 -0.002777824845421001 -0.012704630312809419 0.009386835321446067 0.04285776050077034 0.9880263638644986 -0.10070935661257696
 -0.002776291567221067 -0.012704771350398445 0.003315298363333643 0.02000956806650692 0.9880263638644986 -0.10070935661257696 0.009369778205694266 0.04285893738831023
0.15631513130469998 0.009833916106982744 0.04454185414581135 0.9874000756432637 -0.10478075848539349 0.0034250899841431026 0.020826922141196965 -0.002963897504210733 -0.013202137467695567
 0.9874000756432637 -0.10478075848539349 0.009813158802869957 0.04454334278298158 -0.0029655597159894548 -0.013201977764788018 0.0035457836859070736 0.020807168279821545
