! Created with skrf 1.8.0 (http://scikit-rf.org).
# GHz S RI R 50.0 
!freq ReS11 ImS11 ReS12 ImS12 ReS13 ImS13
! ReS14 ImS14
! ReS21 ImS21 ReS22 ImS22 ReS23 ImS23
! ReS24 ImS24
! ReS31 ImS31 ReS32 ImS32 ReS33 ImS33
! ReS34 ImS34
! ReS41 ImS41 ReS42 ImS42 ReS43 ImS43
! ReS44 ImS44
!
0.0 0.001225358397806 0.0 0.9987746415951 0.0 4.692482693909e-05 0.0 -4.692482669467e-05 5.7466338812171894e-21
 0.9987746415951 0.0 0.001225358397819 0.0 -4.692482669492e-05 5.746633881247805e-21 4.692482693898e-05 0.0
 4.692482693909e-05 0.0 -4.692482669492e-05 5.746633881247805e-21 0.001225358396397 0.0 0.9987746415937 0.0
 -4.692482669467e-05 5.7466338812171894e-21 4.692482693898e-05 0.0 0.9987746415937 0.0 0.001225358396401 0.0
0.005 0.0013176772898267112 0.0009993335828909979 0.9986579483017216 -0.0025679185761359135 6.586258648571469e-05 0.0005391508175740045 -6.390299065528709e-05 -0.0003346919159721695
 0.9986579483017216 -0.0025679185761359135 0.0013176841538807527 0.0009993296146122484 -6.390105117720998e-05 -0.000334690508831277 6.583353422367848e-05 0.0005391620222132344
 6.586258648571469e-05 0.0005391508175740045 -6.390105117720998e-05 -0.000334690508831277 0.0013176775414891649 0.0009992662329321143 0.9986579479766692 -0.0025679856413976083
 -6.390299065528709e-05 -0.0003346919159721695 6.583353422367848e-05 0.0005391620222132344 0.9986579479766692 -0.0025679856413976083 0.0013176832547038 0.000999262836281412
0.006252605252188 0.00134167234877833 0.0012531456921338253 0.9986274593955835 -0.0032105616509479407 7.115095391109383e-05 0.0006742034475463091 -6.859764749149412e-05 -0.000418815651487065
 0.9986274593955835 -0.0032105616509479407 0.0013416830777978623 0.001253140620840398 -6.859462878367979e-05 -0.00041881391741169374 7.110556362671281e-05 0.0006742179577567833
 7.115095391109383e-05 0.0006742034475463091 -6.859462878367979e-05 -0.00041881391741169374 0.0013416728064039201 0.0012530615191734882 0.9986274589519851 -0.0032106454755669867
 -6.859764749149412e-05 -0.000418815651487065 7.110556362671281e-05 0.0006742179577567833 0.9986274589519851 -0.0032106454755669867 0.001341681737300813 0.0012530571496121646
0.01250521050438 0.0014667218892778604 0.002532999460115699 0.9984676705650174 -0.00642213743441493 0.00010083361006154562 0.0013487734422660614 -9.470354686131475e-05 -0.0008398236019796188
 0.9984676705650174 -0.00642213743441493 0.0014667647205216258 0.0025329881938127912 -9.469164121679886e-05 -0.0008398204028291271 0.00010065264672470838 0.0013488078479861364
 0.00010083361006154562 0.0013487734422660614 -9.469164121679886e-05 -0.0008398204028291271 0.001466724273210194 0.0025328314445659176 0.9984676693567868 -0.006422304834114519
 -9.470354686131475e-05 -0.0008398236019796188 0.00010065264672470838 0.0013488078479861364 0.9984676693567868 -0.006422304834114519 0.0014667599394430424 0.002532821457807949
0.01875781575657 0.001600734819699352 0.00383152817313788 0.9982951090586789 -0.009642593174585417 0.00013603358835840933 0.002024215492287228 -0.00012531326009224093 -0.0012624155289912712
 0.9982951090586789 -0.009642593174585417 0.0016008310442841196 0.003831509504798412 -0.0001252866962749346 -0.0012624111779149796 0.00013562717081794964 0.0020242760926794364
 0.00013603358835840933 0.002024215492287228 -0.0001252866962749346 -0.0012624111779149796 0.0016007405838580218 0.0038312764943344386 0.9982951067638112 -0.009642844062558
 -0.00012531326009224093 -0.0012624155289912712 0.00013562717081794964 0.0020242760926794364 0.9982951067638112 -0.009642844062558 0.0016008207391764145 0.0038312595740957987
0.02501042100875 0.0017439345049336625 0.005146952374441263 0.9981096036331901 -0.012873535557467487 0.00017681272094093956 0.0027005936209912123 -0.0001604958563669474 -0.0016864215592401058
 0.9981096036331901 -0.012873535557467487 0.0017441053574676242 0.005146925018745806 -0.000160448926625486 -0.001686416419271471 0.00017609098118069702 0.0027006875796211525
 0.00017681272094093956 0.0027005936209912123 -0.000160448926625486 -0.001686416419271471 0.0017439450945095456 0.005146617188205007 0.9981095999306747 -0.012873869883535153
 -0.0001604958563669474 -0.0016864215592401058 0.00017609098118069702 0.0027006875796211525 0.9981095999306747 -0.012873869883535153 0.001744087460267624 0.005146591951958749
0.03126302626094 0.001896534748779021 0.006478378998735425 0.9979109728156444 -0.016115679386269708 0.00022323362726732755 0.0033779078800867113 -0.00020031881460748943 -0.0021117327306683508
 0.9979109728156444 -0.016115679386269708 0.0018968014164556953 0.006478341592623347 -0.0002002458633314444 -0.0021117272155526225 0.0002221066172900107 0.0033780432271327972
 0.00022323362726732755 0.0033779078800867113 -0.0002002458633314444 -0.0021117272155526225 0.00189655159889688 0.006477960445889179 0.997910967382831 -0.016116097128754937
 -0.00020031881460748943 -0.0021117327306683508 0.0002221066172900107 0.0033780432271327972 0.997910967382831 -0.016116097128754937 0.0018967738711580357 0.006477925444937173
0.037515631513130004 0.0020587448957184004 0.007825242932952635 0.997699030098819 -0.019369405975060358 0.000275359085280729 0.004056133581438102 -0.00024484855929795315 -0.0025382617484180463
 0.997699030098819 -0.019369405975060358 0.002059128524318124 0.00782519403556063 -0.00024474397725869054 -0.0025382563229355954 0.00027373673226164185 0.004056319221177996
 0.000275359085280729 0.004056133581438102 -0.00024474397725869054 -0.0025382563229355954 0.0020587694347770475 0.007824741159864233 0.9976990226136416 -0.019369907120398294
 -0.00024484855929795315 -0.0025382617484180463 0.00027373673226164185 0.004056319221177996 0.9976990226136416 -0.019369907120398294 0.002059089288593182 0.00782469487927024
0.043768236765320004 0.0022307718163933595 0.009187137084367868 0.997473586020449 -0.022634933029302792 0.00033325175027769404 0.00473523321683743 -0.0002941506633661522 -0.0029659310527291585
 0.997473586020449 -0.022634933029302792 0.002231293514269568 0.009187075176923383 -0.0002940088842708047 -0.00296592623288877 0.000331043832212005 0.0047354789367620035
 0.00033325175027769404 0.00473523321683743 -0.0002940088842708047 -0.00296592623288877 0.002230805464901879 0.00918655223820067 0.9974735761591448 -0.02263551757694445
 -0.0002941506633661522 -0.0029659310527291585 0.000331043832212005 0.0047354789367620035 0.9974735761591448 -0.02263551757694445 0.0022312405573106766 0.00918649309663221
0.050020842017509996 0.00241282083553102 0.010563742144132549 0.997234449187219 -0.0259123848291316 0.0003969739958468095 0.005415161379055594 -0.00034828993341722285 -0.0033946678858887344
 0.997234449187219 -0.0259123848291316 0.002413501676667974 0.010563665629769329 -0.00034810543164887764 -0.003394664239059863 0.00039409012794963693 0.005415477859718258
 0.0003969739958468095 0.005415161379055594 -0.00034810543164887764 -0.003394664239059863 0.0024128650080587496 0.010563074375887662 0.9972344366257891 -0.02591305278864915
 -0.00034828993341722285 -0.0033946678858887344 0.00039409012794963693 0.005415477859718258 0.9972344366257891 -0.02591305278864915 0.0024134329805277485 0.010563000725482503
0.055454545454549996 0.0025793247866062953 0.011771793174604363 0.9970153621799935 -0.02877032589205442 0.00045713304087819593 0.006006673005711791 -0.0003993167526670516 -0.003768065454996763
 0.9970153621799935 -0.02877032589205442 0.0025801610181137176 0.011771702608688225 -0.0003990906665898597 -0.0037680633282895963 0.00045358821689893533 0.006007060354763178
 0.00045713304087819593 0.006006673005711791 -0.0003990906665898597 -0.0037680633282895963 0.0025793792478410026 0.011771053472674995 0.9970153470067428 -0.028771066352211102
 -0.0003993167526670516 -0.003768065454996763 0.00045358821689893533 0.006007060354763178 0.9970153470067428 -0.028771066352211102 0.00258007701360255 0.011770965823594333
0.056273447269699996 0.0026050962224211864 0.011954792124418752 0.9969814268633119 -0.029201826638590733 0.00046658780560839176 0.006095867175480141 -0.0004073304453495878 -0.003824401867424736
 0.9969814268633119 -0.029201826638590733 0.0026059572491805055 0.011954699327911123 -0.000407097734471923 -0.003824400012439123 0.0004629374333885224 0.006096266000673727
 0.00046658780560839176 0.006095867175480141 -0.000407097734471923 -0.003824400012439123 0.002605152326318454 0.011954041590217962 0.9969814112751897 -0.029202578028484905
 -0.0004073304453495878 -0.003824401867424736 0.0004629374333885224 0.006096266000673727 0.9969814112751897 -0.029202578028484905 0.0026058708068302295 0.011953951716413426
0.06252605252188 0.002807801466375367 0.013360055394734964 0.9967143253453822 -0.03250328361619336 0.0005421546930682241 0.006777295550368599 -0.00047133555230131484 -0.004255063661724171
 0.9967143253453822 -0.03250328361619336 0.0028088636917690604 0.013359944562167232 -0.00047104918402959947 -0.004255064268964497 0.0005376470893191831 0.006777789217492695
 0.0005421546930682241 0.006777295550368599 -0.00047104918402959947 -0.004255064268964497 0.002807870903803188 0.01335922225569756 0.9967143064032845 -0.03250411846405375
 -0.00047133555230131484 -0.004255063661724171 0.0005376470893191831 0.006777789217492695 0.9967143064032845 -0.03250411846405375 0.0028087575085283226 0.01335911437700495
0.06877865777407 0.0030211394353043533 0.014779323392588231 0.9964329502237378 -0.03581675205183219 0.0006237356358705759 0.0074593880700820235 -0.0005403678775661009 -0.004686584183924049
 0.9964329502237378 -0.03581675205183219 0.003022423845233906 0.01477919269103419 -0.0005400224410201328 -0.004686587975409096 0.0006182799008960241 0.007459990000613046
 0.0006237356358705759 0.0074593880700820235 -0.0005400224410201328 -0.004686587975409096 0.0030212236029940926 0.01477840781660528 0.9964329275981814 -0.03581767039272003
 -0.0005403678775661009 -0.004686584183924049 0.0006182799008960241 0.007459990000613046 0.9964329275981814 -0.03581767039272003 0.0030222959381819804 0.014778280084364078
0.07503126302626001 0.0032453124660111144 0.01621240345294085 0.996137106575683 -0.0391422064860665 0.0007113910182994377 0.008142083420401493 -0.0006144892988525151 -0.005118894095109275
 0.996137106575683 -0.0391422064860665 0.003246840021086197 0.016212250970064002 -0.0006140794200603651 -0.005118901844564159 0.0007048960821150065 0.008142807970393908
 0.0007113910182994377 0.008142083420401493 -0.0006140794200603651 -0.005118901844564159 0.0032454127556468997 0.016211405611016822 0.9961370799354191 -0.039143208366242764
 -0.0006144892988525151 -0.005118894095109275 0.0007048960821150065 0.008142807970393908 0.9961370799354191 -0.039143208366242764 0.0032466884191599504 0.016211256109127544
0.08128386827845 0.0034805224129722517 0.01765911404085175 0.9958265991207264 -0.042479604427674594 0.0008051805797035036 0.008825317734401199 -0.0006937609257089254 -0.005551923468430107
 0.9958265991207264 -0.042479604427674594 0.0034823140506410333 0.017658937784435058 -0.0006932812672915559 -0.005551936001344759 0.0007975552060455844 0.00882618020499416
 0.0008051805797035036 0.008825317734401199 -0.0006932812672915559 -0.005551936001344759 0.00348064021167399 0.017658034113244896 0.9958265681319396 -0.04248068989839235
 -0.0006937609257089254 -0.005551923468430107 0.0007975552060455844 0.00882618020499416 0.9958265681319396 -0.04248068989839235 0.0034821367945344823 0.017657860857870328
0.08753647353064001 0.003726970667511952 0.019119281452342457 0.9955012323471458 -0.04582888960419556 0.0009051633652967338 0.009509024822342541 -0.0007782430739314005 -0.005985601554746882
 0.9955012323471458 -0.04582888960419556 0.0037290473037927497 0.019119079349817294 -0.0007776883349178856 -0.005985619748439371 0.0008963161567652826 0.00951004147025149
 0.0009051633652967338 0.009509024822342541 -0.0007776883349178856 -0.005985619748439371 0.0037271073580566858 0.01911811962629474 0.9955011966734617 -0.045830058724101785
 -0.0007782430739314005 -0.005985601554746882 0.0008963161567652826 0.00951004147025149 0.9955011966734617 -0.045830058724101785 0.0037288424458784557 0.019117920565494932
0.09378907878283 0.003984858158510106 0.020592737456322348 0.9951608106223783 -0.04918999427325812 0.0010113976803717462 0.010193136330982176 -0.0008679952355688632 -0.0064198566205145476
 0.9951608106223783 -0.04918999427325812 0.003987240689746904 0.0205925073542434 -0.0008673601512756565 -0.006419881404181879 0.001001237084819159 0.010194324378954876
 0.0010113976803717462 0.010193136330982176 -0.0008673601512756565 -0.006419881404181879 0.0039850151199879134 0.020591493926175854 0.9951607699248523 -0.049191247108322414
 -0.0008679952355688632 -0.0064198566205145476 0.001001237084819159 0.010194324378954876 0.9951607699248523 -0.049191247108322414 0.003987006294527346 0.020591266939537903
0.100041684035 0.004254385339122702 0.02207931756409309 0.9948051382916283 -0.052562840907987414 0.0011239410448145423 0.010877581865371166 -0.0009630760478436403 -0.006854615824880834
 0.9948051382916283 -0.052562840907987414 0.004257094643829586 0.022079057227540222 -0.0009623553898907464 -0.006854648179636601 0.0011123753625666823 0.010878959512554494
 0.0011239410448145423 0.010877581865371166 -0.0009623553898907464 -0.006854648179636601 0.0042545639473322815 0.02207799252848949 0.99480509222819 -0.05256417753422271
 -0.0009630760478436403 -0.006854615824880834 0.0011123753625666823 0.010878959512554494 0.99480509222819 -0.05256417753422271 0.00425682878790485 0.02207773542668666
0.1059090909091 0.004518072305307334 0.023486107168785016 0.9944573330468098 -0.05573850238569296 0.0012353395769430246 0.011520100775350924 -0.001057197108373493 -0.0072629838019551566
 0.9944573330468098 -0.05573850238569296 0.004521107226499375 0.023485816354649067 -0.0010563914258119346 -0.007263024199974767 0.0012223718455978139 0.011521673772103443
 0.0012353395769430246 0.011520100775350924 -0.0010563914258119346 -0.007263024199974767 0.004518272474953138 0.023484705838562294 0.9944572816339734 -0.05573991771410714
 -0.001057197108373493 -0.0072629838019551566 0.0012223718455978139 0.011521673772103443 0.9944572816339734 -0.05573991771410714 0.004520810109460947 0.023484418423885312
0.1062942892872 0.00453575216363791 0.023578859721858074 0.9944340197673989 -0.055947343461084084 0.0012428501495073793 0.01156228907607923 -0.0010635432594059899 -0.00728980513307203
 0.9944340197673989 -0.055947343461084084 0.004538809104072028 0.0235785668338444 -0.0010627318357324753 -0.007289846091993211 0.0012297875413100215 0.01156387550839417
 0.0012428501495073793 0.01156228907607923 -0.0010627318357324753 -0.007289846091993211 0.004535953791103782 0.02357745339024498 0.9944339679927616 -0.05594876395814383
 -0.0010635432594059899 -0.00728980513307203 0.0012297875413100215 0.01156387550839417 0.9944339679927616 -0.05594876395814383 0.004538509876130963 0.023577163914551016
0.11254689453939999 0.004829158056182639 0.025091203319368715 0.9940472596140751 -0.05934340831491105 0.001368180812679939 0.012247183730231127 -0.0011694536956454791 -0.007725349247880728
 0.9940472596140751 -0.05934340831491105 0.0048325834803615 0.02509087548008863 -0.0011685463506832588 -0.007725399896028332 0.0013535293084622605 0.012248999130574392
 0.001368180812679939 0.012247183730231127 -0.0011685463506832588 -0.007725399896028332 0.0048293840729474406 0.025089715905285123 0.9940472017794745 -0.05934491277276813
 -0.0011694536956454791 -0.007725349247880728 0.0013535293084622605 0.012248999130574392 0.9940472017794745 -0.05934491277276813 0.0048322489812403936 0.025089391727068533
0.11879949979160001 0.0051348018737345635 0.026616188402028076 0.9936446626278818 -0.06275093502996504 0.0014999879369220997 0.012932189767253736 -0.0012808632227885124 -0.008161171558226566
 0.9936446626278818 -0.06275093502996504 0.005138616616867782 0.02661582312818191 -0.0012798548375825274 -0.008161233032669005 0.001483655445003849 0.012934255325656806
 0.0014999879369220997 0.012932189767253736 -0.0012798548375825274 -0.008161233032669005 0.005135053647677676 0.026614620125906117 0.9936445983809041 -0.06275252354601625
 -0.0012808632227885124 -0.008161171558226566 0.001483655445003849 0.012934255325656806 0.9936445983809041 -0.06275252354601625 0.0051382449599444045 0.026614258846109056
0.1250521050438 0.005452881864253217 0.028153655058027936 0.9932260339134196 -0.06616981692035387 0.001638325466383582 0.013617229343683077 -0.0013978267108534957 -0.008597194100587745
 0.9932260339134196 -0.06616981692035387 0.005457106750567411 0.02815324978202992 -0.0013967122032560743 -0.008597267590415873 0.001620219783336966 0.013619567267376157
 0.001638325466383582 0.013617229343683077 -0.0013967122032560743 -0.008597267590415873 0.005453160761347397 0.02815200614944018 0.9932259628978296 -0.06617148959725302
 -0.0013978267108534957 -0.008597194100587745 0.001620219783336966 0.013619567267376157 0.9932259628978296 -0.06617148959725302 0.005456696061783665 0.028151605297879512
0.131304710296 0.005783595620799237 0.029703442919539025 0.992791178959083 -0.06959994151760036 0.0017832463441960294 0.014302222869188008 -0.0015203979957225844 -0.009033337531267147
 0.992791178959083 -0.06959994151760036 0.0057882514652377644 0.029702994988630133 -0.0015191723206541556 -0.009033424277599702 0.001763275165186835 0.014304856392520751
 0.0017832463441960294 0.014302222869188008 -0.0015191723206541556 -0.009033424277599702 0.00578390300562688 0.02970171361312538 0.9927911008143611 -0.06960169846719709
 -0.0015203979957225844 -0.009033337531267147 0.001763275165186835 0.014304856392520751 0.9927911008143611 -0.06960169846719709 0.005787799883200108 0.029701270647887027
0.1375573155481 0.006044336589803815 0.031061743983255664 0.9924227275599498 -0.07283749021033958 0.00191459669275682 0.014965684400217512 -0.001628447804857726 -0.00944811133638474
 0.9924227275599498 -0.07283749021033958 0.006049446549369333 0.031061261920607826 -0.0016271038125171152 -0.009448211233173487 0.0018927081593931355 0.0149686064079719
 0.00191459669275682 0.014965684400217512 -0.0016271038125171152 -0.009448211233173487 0.006044674684371378 0.03105993391061961 0.992422641964428 -0.07283933148241832
 -0.001628447804857726 -0.00944811133638474 0.0018927081593931355 0.0149686064079719 0.992422641964428 -0.07283933148241832 0.006048951284388999 0.03105945857957567
0.1438099208003 0.006313986380714448 0.03241397795942882 0.992041784793736 -0.07606795968220854 0.002051260576633332 0.01562720499238895 -0.0017408417956308205 -0.009861113220749482
 0.992041784793736 -0.07606795968220854 0.006319571644106727 0.03241345993763886 -0.0017393741145922236 -0.009861227461329187 0.0020273695741225926 0.015630436465443088
 0.002051260576633332 0.01562720499238895 -0.0017393741145922236 -0.009861227461329187 0.00631435670302507 0.032412087303692654 0.9920416913889247 -0.0760698853843913
 -0.0017408417956308205 -0.009861113220749482 0.0020273695741225926 0.015630436465443088 0.9920416913889247 -0.0760698853843913 0.006319030684455991 0.032411578013253714
0.1500625260525 0.006592463700917552 0.033760064862567135 0.9916484348267447 -0.07929130370844449 0.002193199871246445 0.0162867414503792 -0.0018575429805743689 -0.010272301270629712
 0.9916484348267447 -0.07929130370844449 0.006598545469408606 0.03375950896486396 -0.0018559462493590638 -0.01027243109558308 0.002167221660127557 0.016290304132566227
 0.002193199871246445 0.0162867414503792 -0.0018559462493590638 -0.01027243109558308 0.00659286777767058 0.03375809381313393 0.9916483332507928 -0.07929331395197584
 -0.0018575429805743689 -0.010272301270629712 0.002167221660127557 0.016290304132566227 0.9916483332507928 -0.07929331395197584 0.006597956804110523 0.03375754889325064
0.15631513130469998 0.006879686837122255 0.035099927323663516 0.9912427620797095 -0.0825074755956012 0.0023403761040832124 0.016944251159752368 -0.001978514008120467 -0.010681634364295811
