! Created with skrf 1.8.0 (http://scikit-rf.org).
# GHz S RI R 50.0 
!freq ReS11 ImS11 ReS12 ImS12 ReS13 ImS13
! ReS14 ImS14
! ReS21 ImS21 ReS22 ImS22 ReS23 ImS23
! ReS24 ImS24
! ReS31 ImS31 ReS32 ImS32 ReS33 ImS33
! ReS34 ImS34
! ReS41 ImS41 ReS42 ImS42 ReS43 ImS43
! ReS44 ImS44
!
0.0 0.001614359446908 0.0 0.9983856405502 0.0 6.240608183421e-05 0.0 -6.240608183338e-05 7.64254083645766e-21
 0.9983856405502 0.0 0.001614359446889 0.0 -6.240608183338e-05 7.64254083645766e-21 6.240608183253e-05 0.0
 6.240608183421e-05 0.0 -6.240608183338e-05 7.64254083645766e-21 0.00161435944834 0.0 0.9983856405517 0.0
 -6.240608183338e-05 7.64254083645766e-21 6.240608183253e-05 0.0 0.9983856405517 0.0 0.001614359448317 0.0
0.005 0.0017371282946878187 0.0013201251353960938 0.9982302798341605 -0.0033814696933209833 8.764030008130566e-05 0.0006896195684649809 -8.505530364114556e-05 -0.00043247774975231374
 0.9982302798341605 -0.0033814696933209833 0.0017371491212002737 0.0013201129271137124 -8.505229056033306e-05 -0.0004324754166038917 8.752162750664173e-05 0.000689664760265215
 8.764030008130566e-05 0.0006896195684649809 -8.505229056033306e-05 -0.0004324754166038917 0.001737130303910628 0.0013201911947233348 0.9982302801971275 -0.0033814026318409133
 -8.505530364114556e-05 -0.00043247774975231374 8.752162750664173e-05 0.000689664760265215 0.9982302801971275 -0.0033814026318409133 0.0017371478327272366 0.001320180987249217
0.006252605252188 0.0017693879243608878 0.0016553422550510005 0.9981891864629652 -0.004227654015735218 9.489199973812236e-05 0.000862352902717276 -9.147836917915877e-05 -0.0005411528568108907
 0.9981891864629652 -0.004227654015735218 0.0017694204803878771 0.0016553267655587333 -9.147368072352639e-05 -0.0005411499799482254 9.470658534600729e-05 0.0008624115967948107
 9.489199973812236e-05 0.000862352902717276 -9.147368072352639e-05 -0.0005411499799482254 0.001769390989703664 0.0016554248152240796 0.998189186954565 -0.004227570196374803
 -9.147836917915877e-05 -0.0005411528568108907 9.470658534600729e-05 0.0008624115967948107 0.998189186954565 -0.004227570196374803 0.001769418390101112 0.001655411836065563
0.01250521050438 0.0019395653012960414 0.0033452780728501644 0.9979709186591577 -0.008456040680209281 0.00013670209317728928 0.0017250226651890795 -0.00012807391018090588 -0.0010848881089303593
 0.9979709186591577 -0.008456040680209281 0.0019396953050666856 0.0033452447657308527 -0.0001280554352723634 -0.0010848827906385753 0.0001359627100584281 0.0017251639040136507
 0.00013670209317728928 0.0017250226651890795 -0.0001280554352723634 -0.0010848827906385753 0.0019395769990350649 0.003345442860683539 0.997970920075652 -0.008455873281485733
 -0.00012807391018090588 -0.0010848881089303593 0.0001359627100584281 0.0017251639040136507 0.997970920075652 -0.008455873281485733 0.0019396864044302518 0.003345414697844063
0.01875781575657 0.002125277149322929 0.005059164443924808 0.9977305560088816 -0.012695435535849215 0.0001879346382698649 0.002588576004491341 -0.00017230808846467252 -0.0016304101340257502
 0.9977305560088816 -0.012695435535849215 0.0021255692869471205 0.005059110771696696 -0.00017226689151558623 -0.0016304028970634363 0.0001862737147815433 0.0025888284666900413
 0.0001879346382698649 0.002588576004491341 -0.00017226689151558623 -0.0016304028970634363 0.002125303018507668 0.005059411211785371 0.9977305587695473 -0.012695184635674971
 -0.00017230808846467252 -0.0016304101340257502 0.0001862737147815433 0.0025888284666900413 0.9977305587695473 -0.012695184635674971 0.002125548848607296 0.005059365533802105
0.02501042100875 0.002326896777527902 0.006794584994278846 0.9974678058786911 -0.016947875315444585 0.00024868956805374615 0.003453035817124491 -0.00022429228832931516 -0.0021774605606388817
 0.9974678058786911 -0.016947875315444585 0.002327415614342404 0.006794508213115527 -0.0002242195416594635 -0.0021774520240948605 0.0002457394203588024 0.003453432850670769
 0.00024868956805374615 0.003453035817124491 -0.0002242195416594635 -0.0021774520240948605 0.002326942358424707 0.006794913446067197 0.9974678104113842 -0.016947540964989842
 -0.00022429228832931516 -0.0021774605606388817 0.0002457394203588024 0.003453432850670769 0.9974678104113842 -0.016947540964989842 0.0023273789192728806 0.006794847813097142
0.03126302626094 0.002544782064138365 0.008550287191035701 0.9971823612386108 -0.021214220718425447 0.0003190672131299162 0.004318344984477051 -0.0002841345640337085 -0.0027258544011111766
 0.9971823612386108 -0.021214220718425447 0.0025455920802931104 0.00855018436479863 -0.0002840215296779374 -0.002725845281485309 0.0003144597135046183 0.004318924633583637
 0.0003190672131299162 0.004318344984477051 -0.0002840215296779374 -0.002725845281485309 0.0025448528867373344 0.00855069699821146 0.9971823679674244 -0.021213802925754352
 -0.0002841345640337085 -0.0027258544011111766 0.0003144597135046183 0.004318924633583637 0.9971823679674244 -0.021213802925754352 0.002545534401807409 0.008550608866302888
0.037515631513130004 0.0027792829754446197 0.01032544753698276 0.9968739084464753 -0.025494891155550637 0.00039916724336740963 0.005184414572800466 -0.0003519404113384877 -0.0032754318549637236
 0.9968739084464753 -0.025494891155550637 0.0027804485893608687 0.01032531553856363 -0.000351778431737949 -0.0032754229664547305 0.00039253367704647686 0.005185219623925736
 0.00039916724336740963 0.005184414572800466 -0.000351778431737949 -0.0032754229664547305 0.0027793845676414037 0.01032593830906437 0.9968739177996778 -0.02549438991443383
 -0.0003519404113384877 -0.0032754318549637236 0.00039253367704647686 0.005185219623925736 0.9968739177996778 -0.02549438991443383 0.0027803651998274145 0.010325825032442228
0.043768236765320004 0.0030307444843348202 0.012119447914525662 0.9965421304357194 -0.029790088333614743 0.0004890881687053865 0.006051138492159001 -0.00042781303474708984 -0.0038260436584665993
 0.9965421304357194 -0.029790088333614743 0.0030323300711964348 0.012119283426401454 -0.0004275935272749479 -0.0038260359130682 0.00048005917152783417 0.006052216525867603
 0.0004890881687053865 0.006051138492159001 -0.0004275935272749479 -0.0038260359130682 0.003030882368252265 0.01212001919631826 0.9965421428423291 -0.029789503625506992
 -0.00042781303474708984 -0.0038260436584665993 0.00048005917152783417 0.006052216525867603 0.9965421428423291 -0.029789503625506992 0.003032216237645643 0.012119878029033073
0.050020842017509996 0.0032995079089852284 0.013931783194177797 0.996186708327663 -0.03409988857397868 0.0005889270368886361 0.0069183995507751525 -0.0005118534356444894 -0.004377545042957815
 0.996186708327663 -0.03409988857397868 0.0033015778169259123 0.013931582708147918 -0.0005115678891706452 -0.004377539450458948 0.0005771325757597825 0.006919802995863394
 0.0005889270368886361 0.0069183995507751525 -0.0005115678891706452 -0.004377539450458948 0.0032996876034160167 0.01393243446423369 0.9961867242208987 -0.034099220368739566
 -0.0005118534356444894 -0.004377545042957815 0.0005771325757597825 0.006919802995863394 0.9961867242208987 -0.034099220368739566 0.0033014288028395196 0.013932262561161807
0.055454545454549996 0.003547385590059396 0.01552130665357687 0.9958583855436951 -0.03785709363918256 0.0006838187332401203 0.007672414758237867 -0.0005915971202915221 -0.004857427655333311
 0.9958583855436951 -0.03785709363918256 0.0035499286363539747 0.015521071886574882 -0.0005912473256235691 -0.004857424829778859 0.0006693199733060154 0.007674147381034761
 0.0006838187332401203 0.007672414758237867 -0.0005912473256235691 -0.004857424829778859 0.003547606096190609 0.015522026965710915 0.9958584048199886 -0.03785635283354685
 -0.0005915971202915221 -0.004857427655333311 0.0006693199733060154 0.007674147381034761 0.9958584048199886 -0.03785635283354685 0.0035497451977954102 0.015521825965072403
0.056273447269699996 0.003585911601174313 0.01576201585123682 0.9958073223990107 -0.03842428812502625 0.0006987792152465973 0.007786072435769943 -0.0006041604230179837 -0.004929792771328103
 0.9958073223990107 -0.03842428812502625 0.0035885301660253236 0.015761775667694298 -0.0006038003955977528 -0.004929790439286036 0.0006838485949134785 0.007787858624273671
 0.0006987792152465973 0.007786072435769943 -0.0006038003955977528 -0.004929790439286036 0.0035861386188644896 0.015762746530148704 0.9958073422138918 -0.0384235363718047
 -0.0006041604230179837 -0.004929792771328103 0.0006838485949134785 0.007787858624273671 0.9958073422138918 -0.0384235363718047 0.00358834122875026 0.015762540947500008
0.06252605252188 0.003890291302306316 0.017609751050628317 0.9954036527208519 -0.04276322801013588 0.0008187382166562023 0.008654025352378018 -0.0007048305827775917 -0.0054826435210654344
 0.9954036527208519 -0.04276322801013588 0.0038935228615061216 0.017609467277256263 -0.0007043877001304046 -0.005482645654757532 0.0008003001035144226 0.00865625657478587
 0.0008187382166562023 0.008654025352378018 -0.0007043877001304046 -0.005482645654757532 0.0038905711505540447 0.01761056048527809 0.9954036768963548 -0.04276239265236573
 -0.0007048305827775917 -0.0054826435210654344 0.0008003001035144226 0.00865625657478587 0.9954036768963548 -0.04276239265236573 0.003893289253107401 0.01761031818058204
0.06877865777407 0.00421298032673725 0.019474621766757867 0.9949753796295377 -0.047116608845555887 0.0009488955500914237 0.009522121006579991 -0.0008139582231115889 -0.006035952929250335
 0.9949753796295377 -0.047116608845555887 0.004216889232332153 0.01947429031684971 -0.0008134241775797423 -0.006035960831609588 0.0009265780082918935 0.00952486456686587
 0.0009488955500914237 0.009522121006579991 -0.0008134241775797423 -0.006035960831609588 0.004213318506023419 0.019475509240911678 0.9949754086081726 -0.04711568980950266
 -0.0008139582231115889 -0.006035952929250335 0.0009265780082918935 0.00952486456686587 0.9949754086081726 -0.04711568980950266 0.004216606198844142 0.019475227072685328
0.07503126302626001 0.004554309635738132 0.02135627937111577 0.9945221840933098 -0.05148430019621945 0.0010893405842608344 0.010390217239932555 -0.0009316353064592805 -0.006589574991029404
 0.9945221840933098 -0.05148430019621945 0.0045589602676978595 0.021355895961349066 -0.0009310018563940369 -0.006589590062564327 0.0010627711212307408 0.010393545510121715
 0.0010893405842608344 0.010390217239932555 -0.0009310018563940369 -0.006589590062564327 0.004554711640195164 0.021357244097797684 0.9945222183228043 -0.05148329739772802
 -0.0009316353064592805 -0.006589574991029404 0.0010627711212307408 0.010393545510121715 0.9945222183228043 -0.05148329739772802 0.004558623049883736 0.02135691882464238
0.08128386827845 0.004914607849421123 0.02325438735943468 0.9940437480206504 -0.05586614679788438 0.0012401604210068957 0.011258167452870673 -0.0010579513713699464 -0.00714336167549698
 0.9940437480206504 -0.05586614679788438 0.004920064628503607 0.023253947507215426 -0.0010572103407541357 -0.0071433854142096435 0.001208966040059335 0.011262157926993742
 0.0012401604210068957 0.011258167452870673 -0.0010572103407541357 -0.0071433854142096435 0.004915079165095925 0.02325542848064368 0.9940437879531785 -0.05586506014209626
 -0.0010579513713699464 -0.00714336167549698 0.001208966040059335 0.011262157926993742 0.9940437879531785 -0.05586506014209626 0.0049196684608812 0.0232550567598712
0.08753647353064001 0.00529420121109343 0.025168617027889015 0.9935397545245561 -0.06026197283706669 0.0014014397736247736 0.012125820911428165 -0.0011929934485421189 -0.007697162664225108
 0.9935397545245561 -0.06026197283706669 0.005300528611591557 0.02516811604820951 -0.001192136726850047 -0.007697196665512643 0.0013652470325840995 0.012130556258694651
 0.0014014397736247736 0.012125820911428165 -0.001192136726850047 -0.007697196665512643 0.005294747315033631 0.025169733614152433 0.9935398006174843 -0.0602608022179501
 -0.0011929934485421189 -0.007697162664225108 0.0013652470325840995 0.012130556258694651 0.9935398006174843 -0.0602608022179501 0.005300068722217689 0.025169311999990954
0.09378907878283 0.005693413523053619 0.027098644371739304 0.9930098881630398 -0.06467158501522635 0.0015732608498941958 0.012993022972779461 -0.0013368459715109532 -0.008250825177331627
 0.9930098881630398 -0.06467158501522635 0.005700676085457969 0.02709807737349177 -0.0013358655136855775 -0.008250871133877893 0.0015316959246267673 0.012998591089844556
 0.0015732608498941958 0.012993022972779461 -0.0013358655136855775 -0.008250871133877893 0.005694039882910522 0.027099835424502144 0.9930099408798513 -0.06467033031255724
 -0.0013368459715109532 -0.008250825177331627 0.0015316959246267673 0.012998591089844556 0.9930099408798513 -0.06467033031255724 0.005700147696626515 0.02709936036574154
0.100041684035 0.006112566059556521 0.029044147835520708 0.9924538351600765 -0.06909477476864424 0.0017557032370745418 0.013859615261281363 -0.001489590684552372 -0.008804193855313258
 0.9924538351600765 -0.06909477476864424 0.006120828403230757 0.029043509717358782 -0.001488478511167278 -0.008804253556966424 0.0017083919893306472 0.013866109323590869
 0.0017557032370745418 0.013859615261281363 -0.001488478511167278 -0.008804253556966424 0.0061132781322200454 0.02904541228062893 0.9924538949705488 -0.06909343585381349
 -0.001489590684552372 -0.008804193855313258 0.0017083919893306472 0.013866109323590869 0.9924538949705488 -0.06909343585381349 0.006120226730837557 0.029044880117768124
0.1059090909091 0.006524315554200763 0.03088358606945332 0.9919079440682823 -0.07325762015829948 0.001936634529489982 0.014672121397563348 -0.0016410831204827425 -0.009323063703387877
 0.9919079440682823 -0.07325762015829948 0.0065335749386421635 0.030882876381782467 -0.0016398401475371989 -0.009323138017643152 0.0018835904760847412 0.014679573849699572
 0.001936634529489982 0.014672121397563348 -0.0016398401475371989 -0.009323138017643152 0.0065251130120225955 0.03088491834432329 0.9919080109686299 -0.07325620209117872
 -0.0016410831204827425 -0.009323063703387877 0.0018835904760847412 0.014679573849699572 0.9919080109686299 -0.07325620209117872 0.006532900140656011 0.030884329167632733
0.1062942892872 0.0065519774639905305 0.03100480660611367 0.991871283614803 -0.07353131995285511 0.0019488437892294268 0.014725435810423057 -0.0016513065476807893 -0.009357110681742368
 0.991871283614803 -0.07353131995285511 0.006561304299904577 0.031004092051761675 -0.0016500547452300376 -0.00935718601537273 0.0018954118382698338 0.01473295432237215
 0.0019488437892294268 0.014725435810423057 -0.0016500547452300376 -0.00935718601537273 0.006552780694938159 0.03100614329786253 0.9918713509954374 -0.07352989668415011
 -0.0016513065476807893 -0.009357110681742368 0.0018954118382698338 0.01473295432237215 0.9918713509954374 -0.07352989668415011 0.006560624553578789 0.03100555025975545
0.11254689453939999 0.007011963633489846 0.032980299323098934 0.9912619237003121 -0.07798098611748584 0.0021527565157093 0.015590319183336518 -0.0018220696400276517 -0.009909414933934123
 0.9912619237003121 -0.07798098611748584 0.0070224197771136905 0.032979502796109526 -0.0018206703612230176 -0.009909507883298387 0.002092829313448724 0.01559896602735272
 0.0021527565157093 0.015590319183336518 -0.0018206703612230176 -0.009909507883298387 0.007012863455353832 0.03298170703990454 0.9912619991349039 -0.077979478343868
 -0.0018220696400276517 -0.009909414933934123 0.002092829313448724 0.01559896602735272 0.9912619991349039 -0.077979478343868 0.0070216571601113675 0.032981049239804494
0.11879949979160001 0.007492837593965578 0.03497030307444332 0.9906254478575653 -0.08244352750380264 0.002367512471165486 0.016454096576104502 -0.0020019530614900755 -0.010460943157800568
 0.9906254478575653 -0.08244352750380264 0.007504487977588392 0.034969418812486344 -0.0020003985257093203 -0.010461055803366048 0.002300715380091602 0.016463981060452163
 0.002367512471165486 0.016454096576104502 -0.0020003985257093203 -0.010461055803366048 0.007493839425730159 0.03497178052064188 0.9906255318377118 -0.08244193506240806
 -0.0020019530614900755 -0.010460943157800568 0.002300715380091602 0.016463981060452163 0.9906255318377118 -0.08244193506240806 0.007503637687045719 0.03497105395174018
0.1250521050438 0.007994909367040727 0.03697449260816643 0.9899615509828539 -0.0869186878342061 0.002593179645994386 0.01731659591228225 -0.002191026833593297 -0.01101152915830536
 0.9899615509828539 -0.0869186878342061 0.008007819052746484 0.036973514616640515 -0.002189309327325444 -0.011011663677078067 0.0025191380203111375 0.01732783281759904
 0.002593179645994386 0.01731659591228225 -0.002189309327325444 -0.011011663677078067 0.00799601861293574 0.03697603841477444 0.9899616440085112 -0.08691701054911367
 -0.002191026833593297 -0.01101152915830536 0.0025191380203111375 0.01732783281759904 0.9899616440085112 -0.08691701054911367 0.008006876279536482 0.03697523894517873
0.131304710296 0.008518485831418435 0.03899253970802516 0.9892699306133939 -0.09140620094627269 0.002829822858010066 0.01817764193036907 -0.002389357799387401 -0.011561004004131398
 0.9892699306133939 -0.09140620094627269 0.008532720024015153 0.03899146175317521 -0.002387469676886409 -0.011561162669440146 0.0027481621272783157 0.01819035155474473
 0.002829822858010066 0.01817764193036907 -0.002387469676886409 -0.011561162669440146 0.008519707879426866 0.038994152427538765 0.9892700331930219 -0.09140443863314829
 -0.002389357799387401 -0.011561004004131398 0.0027481621272783157 0.01819035155474473 0.9892700331930219 -0.09140443863314829 0.008531679952507303 0.03899327579458513
0.1375573155481 0.008946104219538946 0.04076124276434446 0.9886681023254279 -0.09564279719187532 0.003048678066273468 0.01901113941577994 -0.002568283413338966 -0.012083227521420197
 0.9886681023254279 -0.09564279719187532 0.00896173196051057 0.04076007940260179 -0.002566213264516061 -0.012083410605241762 0.0029592113658288796 0.019025307052899374
 0.003048678066273468 0.01901113941577994 -0.002566213264516061 -0.012083410605241762 0.008947443835151545 0.04076292112432261 0.9886682148979071 -0.09564094976743676
 -0.002568283413338966 -0.012083227521420197 0.0029592113658288796 0.019025307052899374 0.9886682148979071 -0.09564094976743676 0.008960590522208083 0.04076198367691129
0.1438099208003 0.009388839692355306 0.04252018957944845 0.9880449567143135 -0.09986820226517984 0.003276370254110698 0.01984092825875438 -0.0027543494913373615 -0.012602092830251016
 0.9880449567143135 -0.09986820226517984 0.009405926934006574 0.04251893573999629 -0.0027520890900263797 -0.012602302579272282 0.003178757007295914 0.01985666426900124
 0.003276370254110698 0.01984092825875438 -0.0027520890900263797 -0.012602302579272282 0.009390302130201757 0.04252193209959704 0.9880450797861223 -0.09986626955417648
 -0.0027543494913373615 -0.012602092830251016 0.003178757007295914 0.01985666426900124 0.9880450797861223 -0.09986626955417648 0.00940467943946185 0.04252093077698112
0.1500625260525 0.00984652963349846 0.04426922000184838 0.9874006607694639 -0.10408229755901169 0.00351281680574049 0.020666912732373838 -0.002947476623045866 -0.013117511376114574
 0.9874006607694639 -0.10408229755901169 0.009865142478631695 0.04426787031882971 -0.002945017762824023 -0.013117750127510324 0.0034067186747703078 0.020684331489502175
 0.00351281680574049 0.020666912732373838 -0.002945017762824023 -0.013117750127510324 0.009848120126141141 0.044271025144029794 0.9874007948540199 -0.10408027937887229
 -0.002947476623045866 -0.013117511376114574 0.0034067186747703078 0.020684331489502175 0.9874007948540199 -0.10408027937887229 0.00986378424080783 0.0442699566714891
0.15631513130469998 0.010319010192956331 0.046008178683487354 0.9867353824162274 -0.10828496517793115 0.003757934073660006 0.021488998817072405 -0.0031475843750782785 -0.013629396551319423
 0.9867353824162274 -0.10828496517793115 0.010339214898824582 0.04600672748877153 -0.0031449188695144878 -0.01362966673236887 0.003643014997253438 0.02150821866228963
