! Created with skrf 1.8.0 (http://scikit-rf.org).
# GHz S RI R 50.0 
!freq ReS11 ImS11 ReS12 ImS12 ReS13 ImS13
! ReS14 ImS14
! ReS21 ImS21 ReS22 ImS22 ReS23 ImS23
! ReS24 ImS24
! ReS31 ImS31 ReS32 ImS32 ReS33 ImS33
! ReS34 ImS34
! ReS41 ImS41 ReS42 ImS42 ReS43 ImS43
! ReS44 ImS44
!
0.0 0.001311957941256 0.0 0.9986880420188 0.0 5.032373681251e-05 0.0 -5.032373675141e-05 6.162880313374828e-21
 0.9986880420188 0.0 0.001311957941237 0.0 -5.0323736751e-05 6.162880313324618e-21 5.032373681201e-05 0.0
 5.032373681251e-05 0.0 -5.0323736751e-05 6.162880313324618e-21 0.001311957961241 0.0 0.9986880420388 0.0
 -5.032373675141e-05 6.162880313374828e-21 5.032373681201e-05 0.0 0.9986880420388 0.0 0.001311957961243 0.0
0.005 0.0014109978932229988 0.0010717335011180974 0.9985628246171098 -0.0027489946879225096 7.050350309935253e-05 0.0005666589871134454 -6.842346822356333e-05 -0.0003536653286544569
 0.9985628246171098 -0.0027489946879225096 0.0014110118770878414 0.001071725364538698 -6.842564974109722e-05 -0.0003536670264652731 7.040692134281824e-05 0.0005666956535020085
 7.050350309935253e-05 0.0005666589871134454 -6.842564974109722e-05 -0.0003536670264652731 0.0014109963342531521 0.0010716671873927607 0.9985628242810847 -0.0027490617512977997
 -6.842346822356333e-05 -0.0003536653286544569 7.040692134281824e-05 0.0005666956535020085 0.9985628242810847 -0.0027490617512977997 0.0014110127697153966 0.0010716575570047094
0.006252605252188 0.0014368022238699055 0.0013439159164894716 0.9985300187539071 -0.0034369430594368105 7.618198924518473e-05 0.0007086029179585702 -7.345567135133768e-05 -0.0004425517361346505
 0.9985300187539071 -0.0034369430594368105 0.0014368240829395267 0.00134390558456584 -7.345906584036005e-05 -0.00044255383061773235 7.603108648840661e-05 0.0007086505077193358
 7.618198924518473e-05 0.0007086029179585702 -7.345906584036005e-05 -0.00044255383061773235 0.0014367998519791072 0.0013438330438688866 0.998530018293908 -0.003437026875359843
 -7.345567135133768e-05 -0.0004425517361346505 7.603108648840661e-05 0.0007086505077193358 0.998530018293908 -0.003437026875359843 0.001436825544123556 0.001343820837510785
0.01250521050438 0.0015716473451273653 0.002716309519680035 0.9983575672715038 -0.0068748590726787 0.00010828787831752998 0.001417583090960645 -0.00010158896438232435 -0.0008873697887665936
 0.9983575672715038 -0.0068748590726787 0.0015717346245639977 0.0027162872492610085 -0.00010160234057861388 -0.0008873736768755666 0.0001076860464309293 0.0014176970303738422
 0.00010828787831752998 0.001417583090960645 -0.00010160234057861388 -0.0008873736768755666 0.0015716384502071554 0.00271614409002701 0.9983575660138048 -0.00687502647820134
 -0.00010158896438232435 -0.0008873697887665936 0.0001076860464309293 0.0014176970303738422 0.9983575660138048 -0.00687502647820134 0.0015717410454953347 0.0027161179805181342
0.01875781575657 0.0017167528328319776 0.004108572741319056 0.9981704983217001 -0.010322153448793553 0.00014670938002632288 0.002127450570728501 -0.0001348029544432948 -0.0013338193158347969
 0.9981704983217001 -0.010322153448793553 0.001716948943863543 0.004108536851522704 -0.00013483278294019614 -0.0013338246474279875 0.0001453572682034412 0.0021276528520930275
 0.00014670938002632288 0.002127450570728501 -0.00013483278294019614 -0.0013338246474279875 0.0017167332595473869 0.004108324991294019 0.9981704959135894 -0.010322404369507461
 -0.0001348029544432948 -0.0013338193158347969 0.0001453572682034412 0.0021276528520930275 0.9981704959135894 -0.010322404369507461 0.0017169638060375466 0.004108283150140138
0.02501042100875 0.0018723723572418357 0.005518789297752292 0.9979686162039192 -0.013780533152199329 0.00019151587878444486 0.002838260642052016 -0.00017317491244792752 -0.0017817166374358587
 0.9979686162039192 -0.013780533152199329 0.0018727206166157875 0.005518738049091542 -0.00017322758698017706 -0.0017817230064056438 0.00018911390451787044 0.0028385763597258973
 0.00019151587878444486 0.002838260642052016 -0.00017322758698017706 -0.0017817230064056438 0.0018723379615643173 0.005518459485540127 0.9979686122979832 -0.013780867563602864
 -0.00017317491244792752 -0.0017817166374358587 0.00018911390451787044 0.0028385763597258973 0.9979686122979832 -0.013780867563602864 0.0018727474102445576 0.005518399971710297
0.03126302626094 0.0020387488867515146 0.006945991031865506 0.9977517140418194 -0.01725075033489575 0.00024277758098839426 0.003550002477335222 -0.00021678024622285774 -0.002230940505886402
 0.9977517140418194 -0.01725075033489575 0.0020392925397592966 0.006945922630010553 -0.00021686209710184063 -0.0022309474492970245 0.0002390256405173452 0.003550459845294227
 0.00024277758098839426 0.003550002477335222 -0.00021686209710184063 -0.0022309474492970245 0.002038695527453558 0.006945579463333441 0.997751708287591 -0.01725116823650148
 -0.00021678024622285774 -0.002230940505886402 0.0002390256405173452 0.003550459845294227 0.997751708287591 -0.01725116823650148 0.0020393347584832535 0.006945500226946119
0.037515631513130004 0.002216120307369753 0.008389560345053 0.9975195795213297 -0.020733199853540347 0.00030056478094776486 0.004262639497146847 -0.0002656930767843413 -0.0026813917291772355
 0.9975195795213297 -0.020733199853540347 0.002216902543206624 0.008389472943207623 -0.00026581037780756746 -0.0026813987269828964 0.0002951621122786669 0.004263269881584097
 0.00030056478094776486 0.004262639497146847 -0.00026581037780756746 -0.0026813987269828964 0.0022160438462222472 0.008389067359484456 0.997519571565835 -0.020733701283619944
 -0.0002656930767843413 -0.0026813917291772355 0.0002951621122786669 0.004263269881584097 0.997519571565835 -0.020733701283619944 0.002216963686048322 0.00838896624368045
0.043768236765320004 0.002404721599700679 0.009849048302496971 0.9972719971890268 -0.024228101106361286 0.00036494752506663363 0.0049761216607615245 -0.0003199864573577836 -0.003132980867943412
 0.9972719971890268 -0.024228101106361286 0.0024057855636714187 0.009848940003156753 -0.0003201454299971248 -0.00313298734287788 0.0003575926359106624 0.00497695961736445
 0.00036494752506663363 0.0049761216607615245 -0.0003201454299971248 -0.00313298734287788 0.0024046179034951615 0.009848474305907667 0.9972719866780669 -0.02422868610924817
 -0.0003199864573577836 -0.003132980867943412 0.0003575926359106624 0.00497695961736445 0.9972719866780669 -0.02422868610924817 0.0024058691376925866 0.00984834904794767
0.050020842017509996 0.002604785860858686 0.011324099501963206 0.9970087495973106 -0.027735573104385545 0.0004359954212210903 0.005690390523994449 -0.0003797324607055104 -0.0035856231667000488
 0.9970087495973106 -0.027735573104385545 0.002606174664274883 0.011323968358444144 -0.00037993927677774627 -0.0035856284842367904 0.00042638605116708495 0.005691473837240427
 0.0004359954212210903 0.005690390523994449 -0.00037993927677774627 -0.0035856284842367904 0.002604650798463037 0.011323444951321185 0.9970087361719657 -0.027736241746862796
 -0.0003797324607055104 -0.0035856231667000488 0.00042638605116708495 0.005691473837240427 0.9970087361719657 -0.027736241746862796 0.002606284182591369 0.01132329318322346
0.055454545454549996 0.002788137112284951 0.012618369897196172 0.9967670874647973 -0.030793925792113503 0.0005032047492895867 0.006311700840200989 -0.00043613700694352314 -0.003979774181944992
 0.9967670874647973 -0.030793925792113503 0.0027898432039975703 0.012618217283100124 -0.00043639037555732416 -0.003979777933863332 0.0004913900850312254 0.006313030599364176
 0.0005032047492895867 0.006311700840200989 -0.00043639037555732416 -0.003979777933863332 0.0027879714396595 0.012617645758044147 0.9967670712122759 -0.030794667187334056
 -0.00043613700694352314 -0.003979774181944992 0.0004913900850312254 0.006313030599364176 0.9967670712122759 -0.030794667187334056 0.00278997812767439 0.012617468947342855
0.056273447269699996 0.0028165448359724083 0.012814415177411163 0.9967296179632443 -0.031255671307778066 0.0005137775084331825 0.006405381725051898 -0.00044500221125024376 -0.00403923605862372
 0.9967296179632443 -0.031255671307778066 0.0028183015662848693 0.012814259194978759 -0.0004452629948203304 -0.004039239526952212 0.0005016106118599946 0.006406751448503466
 0.0005137775084331825 0.006405381725051898 -0.0004452629948203304 -0.004039239526952212 0.0028163742802244586 0.012813680587037706 0.9967296012608998 -0.03125642367325916
 -0.00044500221125024376 -0.00403923605862372 0.0005016106118599946 0.006406751448503466 0.9967296012608998 -0.03125642367325916 0.002818440549873378 0.012813499836026594
0.06252605252188 0.0030402292161523467 0.014319732915345244 0.9964343825947274 -0.03478840785004048 0.0005983621577599934 0.007121026347912463 -0.0005158658883070884 -0.0044937377945114985
 0.9964343825947274 -0.03478840785004048 0.0030423969455232692 0.014319550052299535 -0.0005161867169941559 -0.004493738664538434 0.0005833339000667183 0.007122726845024878
 0.0005983621577599934 0.007121026347912463 -0.0005161867169941559 -0.004493738664538434 0.0030400190447619226 0.014318918852311692 0.996434362249017 -0.03478924404389006
 -0.0005158658883070884 -0.0044937377945114985 0.0005833339000667183 0.007122726845024878 0.996434362249017 -0.03478924404389006 0.0030425689243422593 0.01431870654097689
0.06877865777407 0.0032760688058971832 0.015839814560841638 0.9961228231897247 -0.03833376357407381 0.0006898169907605483 0.007837251731573897 -0.0005923927122296169 -0.0049490466277388135
 0.9961228231897247 -0.03833376357407381 0.0032786905998872036 0.01583960272922305 -0.0005927796181501622 -0.0049490440931002876 0.0006716227541475073 0.00783933071673661
 0.0006898169907605483 0.007837251731573897 -0.0005927796181501622 -0.0049490440931002876 0.0032758149012243496 0.01583892165568781 0.9961227988291806 -0.03833468371336412
 -0.0005923927122296169 -0.0049490466277388135 0.0006716227541475073 0.00783933071673661 0.9961227988291806 -0.03833468371336412 0.003278899112695393 0.01583867510192425
0.07503126302626001 0.003524292614533148 0.017374438552068865 0.9957947190614499 -0.041891695641257075 0.0007882088078790567 0.008553981985487409 -0.0006746509205997796 -0.005405080295020009
 0.9957947190614499 -0.041891695641257075 0.003527411540688852 0.01737419561826703 -0.0006751098910234519 -0.005405073492095765 0.0007665432042073125 0.008556490565156146
 0.0007882088078790567 0.008553981985487409 -0.0006751098910234519 -0.005405073492095765 0.0035239908646852412 0.01737346749172177 0.995794690309778 -0.04189269986257527
 -0.0006746509205997796 -0.005405080295020009 0.0007665432042073125 0.008556490565156146 0.995794690309778 -0.04189269986257527 0.003527660136093084 0.01737318390841927
0.08128386827845 0.003785128901346375 0.01892339481592388 0.9954498493200643 -0.0454621425814626 0.0008936035232012554 0.009271138327427845 -0.0007627077376641013 -0.005861755676840239
 0.9954498493200643 -0.0454621425814626 0.0037887880376760124 0.01892311860104329 -0.000763244715507421 -0.005861743684779801 0.0008681604121355043 0.009274131041210025
 0.0008936035232012554 0.009271138327427845 -0.000763244715507421 -0.005861743684779801 0.00378477520009575 0.01892234634642861 0.9954498157947361 -0.045463231038704366
 -0.0007627077376641013 -0.005861755676840239 0.0008681604121355043 0.009274131041210025 0.9954498157947361 -0.045463231038704366 0.003789080273846929 0.018922022840976757
0.08753647353064001 0.0040588051873484375 0.020486481238880933 0.995087993022914 -0.04904502777004764 0.001006066103274088 0.009988639323824735 -0.0008566293390601777 -0.006318988557608939
 0.995087993022914 -0.04904502777004764 0.0040630476306219715 0.02048616951886636 -0.0008572502232309817 -0.006318970398357085 0.0009765386146774867 0.009992174185476202
 0.001006066103274088 0.009988639323824735 -0.0008572502232309817 -0.006318970398357085 0.0040583954352430875 0.020485356169309656 0.9950879543349547 -0.049046200631044846
 -0.0008566293390601777 -0.006318988557608939 0.0009765386146774867 0.009992174185476202 0.9950879543349547 -0.049046200631044846 0.004063387075972253 0.020484989742913757
0.09378907878283 0.00434554824720417 0.022063501140346043 0.9947089293076122 -0.05264026190450882 0.0011256605083764647 0.010706401055498424 -0.0009564808132069515 -0.006776693462690416
 0.9947089293076122 -0.05264026190450882 0.004350417121446806 0.022063151645917867 -0.0009571914587735689 -0.006776668101028951 0.001091741068502328 0.010710539593753296
 0.0011256605083764647 0.010706401055498424 -0.0009571914587735689 -0.006776668101028951 0.004345078352656508 0.022062300340427044 0.9947088850618145 -0.052641519353996774
 -0.0009564808132069515 -0.006776693462690416 0.001091741068502328 0.010710539593753296 0.9947088850618145 -0.052641519353996774 0.004350807355784546 0.022061887887118055
0.100041684035 0.004645584085587428 0.02365426142307465 0.99431243751189 -0.05624774480673263 0.0012524496355692419 0.011424337247238774 -0.001062326120312589 -0.007234783534021622
 0.99431243751189 -0.05624774480673263 0.004651122550265192 0.023653871839502745 -0.001063132338598502 -0.007234749877614149 0.0012138299960135844 0.01142914454631898
 0.0012524496355692419 0.011424337247238774 -0.001063132338598502 -0.007234749877614149 0.00464504996476571 0.02365298582443613 0.994312387305178 -0.05624908704563106
 -0.001062326120312589 -0.007234783534021622 0.0012138299960135844 0.01142914454631898 0.994312387305178 -0.05624908704563106 0.004651567164458181 0.023652524129902652
0.1059090909091 0.004939426148602799 0.02515934786942098 0.9939243250752943 -0.05964402740635899 0.0013780263503281435 0.012098124046481973 -0.0011671579868700508 -0.007664924123806954
 0.9939243250752943 -0.05964402740635899 0.004945632245330581 0.02515891852017901 -0.0011680591364732664 -0.007664881639345354 0.0013347151503301797 0.012103621302692845
 0.0013780263503281435 0.012098124046481973 -0.0011680591364732664 -0.007664881639345354 0.004938828052212951 0.025158002982145412 0.9939242689016141 -0.059645449409108826
 -0.0011671579868700508 -0.007664924123806954 0.0013347151503301797 0.012103621302692845 0.9939242689016141 -0.059645449409108826 0.004946131165483997 0.02515749205885753
0.1062942892872 0.004959137900570726 0.025258571179389407 0.9938982972825096 -0.05986736677188726 0.0013864952631264067 0.012142359360448711 -0.0011742280489358454 -0.007693170444979317
 0.9938982972825096 -0.05986736677188726 0.00496538915950009 0.025258139145866852 -0.0011751356076205343 -0.0076931273444108845 0.0013428665325779883 0.012147904100420997
 0.0013864952631264067 0.012142359360448711 -0.0011751356076205343 -0.0076931273444108845 0.0049585354788708735 0.025257221774532743 0.9938982407042821 -0.059868794018812996
 -0.0011742280489358454 -0.007693170444979317 0.0013428665325779883 0.012147904100420997 0.9938982407042821 -0.059868794018812996 0.004965891756136947 0.025256707514749777
0.11254689453939999 0.005286434040170851 0.026876240620527674 0.9934662886798635 -0.06349900959698912 0.0015278579954190272 0.012860376670179832 -0.001292248171504701 -0.008151764333477656
 0.9934662886798635 -0.06349900959698912 0.005293441349775263 0.026875763729467577 -0.0012932627945236197 -0.008151710582320065 0.0014789106736389794 0.01286673116691005
 0.0015278579954190272 0.012860376670179832 -0.0012932627945236197 -0.008151710582320065 0.005285759252619264 0.026874818466785615 0.9934662253108286 -0.06350052208470028
 -0.001292248171504701 -0.008151764333477656 0.0014789106736389794 0.01286673116691005 0.9934662253108286 -0.06350052208470028 0.005294005543707678 0.026874248206365824
0.11879949979160001 0.005627695950793916 0.028507080247555435 0.9930161922762013 -0.06714254737067553 0.0016765972084578707 0.013578296327400525 -0.0014164467982408138 -0.008610473752337594
 0.9930161922762013 -0.06714254737067553 0.005635502629112436 0.02850655604353684 -0.0014175741657825216 -0.008610408087206714 0.0016220212222870691 0.013585536572200591
 0.0016765972084578707 0.013578296327400525 -0.0014175741657825216 -0.008610408087206714 0.005626944743385267 0.028505586463855637 0.993016121688282 -0.06714414534981018
 -0.0014164467982408138 -0.008610473752337594 0.0016220212222870691 0.013585536572200591 0.993016121688282 -0.06714414534981018 0.00563613204772559 0.02850495665414388
0.1250521050438 0.005983146121581348 0.030150900189786615 0.9925477892523882 -0.0707978470983568 0.001832770995774151 0.014296023407188918 -0.0015468829300371825 -0.009069205636430702
 0.9925477892523882 -0.0707978470983568 0.005991795556594049 0.030150326168316685 -0.0015481286783061868 -0.009069126737065843 0.0017722557372082494 0.014304229106006632
 0.001832770995774151 0.014296023407188918 -0.0015481286783061868 -0.009069126737065843 0.005982314451273786 0.030149335960975847 0.9925477110078939 -0.07079953083361433
 -0.0015468829300371825 -0.009069205636430702 0.0017722557372082494 0.014304229106006632 0.9925477110078939 -0.07079953083361433 0.005992493840293137 0.030148642937859325
0.131304710296 0.006353006022339095 0.031807509674070075 0.9920608614899713 -0.07446476919965984 0.0019964361144529184 0.01501346095417721 -0.0016836142104647211 -0.009527865275219828
 0.9920608614899713 -0.07446476919965984 0.006362541681173427 0.0318068832800315 -0.0016849839316190557 -0.009527771764551732 0.0019296704802847548 0.015022715566394004
 0.0019964361144529184 0.01501346095417721 -0.0016849839316190557 -0.009527771764551732 0.006352089858923164 0.03180587624719068 0.992060775141254 -0.0744665389737692
 -0.0016836142104647211 -0.009527865275219828 0.0019296704802847548 0.015022715566394004 0.992060775141254 -0.0744665389737692 0.00636331248386518 0.03180511622877419
0.1375573155481 0.006647234884366357 0.033259750352552526 0.9916454774023411 -0.07792613647312716 0.002145752929227457 0.015708110022398445 -0.001804882737095097 -0.009963912617921844
 0.9916454774023411 -0.07792613647312716 0.0066577043994091355 0.03325908428431716 -0.0018063847191890701 -0.009963804560494876 0.0020725843087306263 0.015718392090760487
 0.002145752929227457 0.015708110022398445 -0.0018063847191890701 -0.009963804560494876 0.006646230720738458 0.0332580488363684 0.9916453825796575 -0.0779279924535006
 -0.001804882737095097 -0.009963912617921844 0.0020725843087306263 0.015718392090760487 0.9916453825796575 -0.0779279924535006 0.006658550714932939 0.03325723340084704
0.1438099208003 0.0069516177650596435 0.03470520985927264 0.9912158356619815 -0.08137962376667532 0.0023011195270608007 0.016400492464289564 -0.001931021489227131 -0.010397911420582329
 0.9912158356619815 -0.08137962376667532 0.0069630653720111155 0.0347045025330061 -0.0019326617468678094 -0.01039778747907565 0.002221264810496216 0.016411877481160027
 0.0023011195270608007 0.016400492464289564 -0.0019326617468678094 -0.01039778747907565 0.006950521682950935 0.03470344154309558 0.9912157319189261 -0.08138156623046007
 -0.001931021489227131 -0.010397911420582329 0.002221264810496216 0.016411877481160027 0.9912157319189261 -0.08138156623046007 0.006963990754391112 0.034702567855506274
0.1500625260525 0.0072660586876599565 0.03614379360565346 0.9907720354012881 -0.08482517222011869 0.002462490097942597 0.01709055537265294 -0.0020619864643688203 -0.01082981175208602
 0.9907720354012881 -0.08482517222011869 0.007278528727835533 0.03614304332781885 -0.002063771002393197 -0.010829670535832635 0.002375667549362592 0.01710312157021587
 0.002462490097942597 0.01709055537265294 -0.002063771002393197 -0.010829670535832635 0.0072648667867504044 0.03614195983001331 0.9907719222829489 -0.0848272014561677
 -0.0020619864643688203 -0.01082981175208602 0.002375667549362592 0.01710312157021587 0.9907719222829489 -0.0848272014561677 0.007279536736549829 0.03614102489535759
0.15631513130469998 0.007590461125805694 0.0375754100037251 0.9903141761096396 -0.08826272266739751 0.002629818375424143 0.017778246600204956 -0.002197733193730265 -0.01125956464987661
