! Created with skrf 1.8.0 (http://scikit-rf.org).
# GHz S RI R 50.0 
!freq ReS11 ImS11 ReS12 ImS12 ReS13 ImS13
! ReS14 ImS14
! ReS21 ImS21 ReS22 ImS22 ReS23 ImS23
! ReS24 ImS24
! ReS31 ImS31 ReS32 ImS32 ReS33 ImS33
! ReS34 ImS34
! ReS41 ImS41 ReS42 ImS42 ReS43 ImS43
! ReS44 ImS44
!
0.0 0.001422697457513 0.0 0.9985773025425 0.0 5.484618188907e-05 0.0 -5.484618162201e-05 6.716720076884894e-21
 0.9985773025425 0.0 0.001422697457521 0.0 -5.48461816225e-05 6.716720076944901e-21 5.484618188836e-05 0.0
 5.484618188907e-05 0.0 -5.48461816225e-05 6.716720076944901e-21 0.001422697448997 0.0 0.998577302534 0.0
 -5.484618162201e-05 6.716720076884894e-21 5.484618188836e-05 0.0 0.998577302534 0.0 0.001422697448979 0.0
0.005 0.0015304128587423714 0.0011609567098885157 0.9984410668567711 -0.0029807094987276297 7.716205131349252e-05 0.0006236727472606379 -7.483130242245783e-05 -0.00038815255387523415
 0.9984410668567711 -0.0029807094987276297 0.0015304271525448268 0.0011609484224747826 -7.482906779468756e-05 -0.0003881509343948011 7.707791941487908e-05 0.0006237047444345911
 7.716205131349252e-05 0.0006236727472606379 -7.482906779468756e-05 -0.0003881509343948011 0.001530413169158339 0.001160889327241087 0.9984410665039752 -0.0029807765569155142
 -7.483130242245783e-05 -0.00038815255387523415 7.707791941487908e-05 0.0006237047444345911 0.9984410665039752 -0.0029807765569155142 0.0015304261426763342 0.0011608816948733688
0.006252605252188 0.0015585666066888367 0.0014557909966203427 0.9984052463402986 -0.0037266322698111813 8.34908236554146e-05 0.0007798897707708303 -8.043162819327618e-05 -0.00048570263248745495
 0.9984052463402986 -0.0037266322698111813 0.001558588950051049 0.001455780486508473 -8.042815012112313e-05 -0.0004857006373763582 8.335937419563978e-05 0.0007799313066835455
 8.34908236554146e-05 0.0007798897707708303 -8.042815012112313e-05 -0.0004857006373763582 0.0015585671703540157 0.0014557067829489999 0.9984052458676346 -0.0037267160882087525
 -8.043162819327618e-05 -0.00048570263248745495 8.335937419563978e-05 0.0007799313066835455 0.9984052458676346 -0.0037267160882087525 0.0015585874508585592 0.001455697076925813
0.01250521050438 0.001706211133532368 0.0029423371298880605 0.9982162094686184 -0.007454180468379602 0.00011953729537389793 0.001560112101138616 -0.00011198051887245708 -0.0009738401089321672
 0.9982162094686184 -0.007454180468379602 0.0017063003430188095 0.002942314590452141 -0.00011196680204212158 -0.0009738364386002594 0.0001190130769852856 0.0015602116953275873
 0.00011953729537389793 0.001560112101138616 -0.00011196680204212158 -0.0009738364386002594 0.0017062139463844175 0.0029421690505079126 0.9982162081493782 -0.0074543478770265435
 -0.00011198051887245708 -0.0009738401089321672 0.0001190130769852856 0.0015602116953275873 0.9982162081493782 -0.0074543478770265435 0.0017062949361702255 0.002942147977544715
0.01875781575657 0.0018659343746076787 0.004450285670228678 0.9980099706666956 -0.011191740562299086 0.00016306521292649073 0.00234122253137568 -0.00014958617441908665 -0.0014636956352884357
 0.9980099706666956 -0.011191740562299086 0.0018661348168307103 0.004450249468398728 -0.00014955557089756322 -0.0014636906702008496 0.00016188754410619038 0.0023413997439793205
 0.00016306521292649073 0.00234122253137568 -0.00014955557089756322 -0.0014636906702008496 0.0018659411067126653 0.004450033959440139 0.9980099681245039 -0.011191991486413004
 -0.00014958617441908665 -0.0014636956352884357 0.00016188754410619038 0.0023413997439793205 0.9980099681245039 -0.011191991486413004 0.0018661231140370963 0.004449999763517243
0.02501042100875 0.00203803173434472 0.005977539918105971 0.9977863004997034 -0.014941144029256255 0.00021415569369009395 0.003123270479281887 -0.00019333914870352874 -0.0019550538745101357
 0.9977863004997034 -0.014941144029256255 0.002038387678641851 0.0059774883232977865 -0.00019328508488095702 -0.0019550480621990836 0.00021206374239414835 0.0031235477941906485
 0.00021415569369009395 0.003123270479281887 -0.00019328508488095702 -0.0019550480621990836 0.002038044045018337 0.005977204794787196 0.9977862963553195 -0.014941478450711154
 -0.00019333914870352874 -0.0019550538745101357 0.00021206374239414835 0.0031235477941906485 0.9977862963553195 -0.014941478450711154 0.0020383673079425696 0.005977155638387072
0.03126302626094 0.0022227863037318336 0.0075230306844452696 0.9975449571585191 -0.01870318635125999 0.00027289057917628595 0.0039062315149982394 -0.00024332760330636276 -0.0024477686161773044
 0.9975449571585191 -0.01870318635125999 0.0022233419461714756 0.007522961871932836 -0.00024324356693844435 -0.002447762472155451 0.00026962311486104513 0.003906634356579284
 0.00027289057917628595 0.0039062315149982394 -0.00024324356693844435 -0.002447762472155451 0.0022228058449153144 0.007522612383200695 0.9975449510306333 -0.018703604277974437
 -0.00024332760330636276 -0.0024477686161773044 0.00026962311486104513 0.003906634356579284 0.9975449510306333 -0.018703604277974437 0.0022233105531682075 0.007522546350037326
0.037515631513130004 0.002420475159705425 0.009086068280167307 0.997285692923221 -0.022478274968654028 0.0003393515779994762 0.004690052270073407 -0.0002996379763490437 -0.002941717857138556
 0.997285692923221 -0.022478274968654028 0.002421274639413961 0.00908598033262066 -0.0002995175101390123 -0.002941711965249664 0.0003346468568121619 0.004690609033276562
 0.0003393515779994762 0.004690052270073407 -0.0002995175101390123 -0.002941711965249664 0.002420503578169815 0.009085567048354292 0.997285684428768 -0.02247877643777167
 -0.0002996379763490437 -0.002941717857138556 0.0003346468568121619 0.004690609033276562 0.997285684428768 -0.02247877643777167 0.0024212298868807676 0.009085482144990631
0.043768236765320004 0.0026313718080831425 0.010666145305643169 0.9970082567729379 -0.026266626426094376 0.0004136198714105049 0.00547466409634679 -0.00036235522754783173 -0.00343679013517729
 0.9970082567729379 -0.026266626426094376 0.002632459219493423 0.010666036214092902 -0.00036219192527787476 -0.0034367851477813084 0.0004072155784339718 0.005475406180990068
 0.0004136198714105049 0.00547466409634679 -0.00036219192527787476 -0.0034367851477813084 0.0026314107462227887 0.01066556141307276 0.9970082455260239 -0.026267211494504138
 -0.00036235522754783173 -0.00343679013517729 0.0004072155784339718 0.005475406180990068 0.9970082455260239 -0.026267211494504138 0.002632398787244514 0.01066545556990259
0.050020842017509996 0.002855747318606489 0.012262855142280971 0.9967123956915983 -0.030068347814220502 0.0004957758822327733 0.006259988702083841 -0.00043156293232763466 -0.003932878887462661
 0.9967123956915983 -0.030068347814220502 0.0028571667222605734 0.012262722806793276 -0.00043135043645781915 -0.003932875525568391 0.0004874091038195966 0.006260950548946477
 0.0004957758822327733 0.006259988702083841 -0.00043135043645781915 -0.003932875525568391 0.0028557984149307557 0.012262188883743913 0.9967123813021144 -0.030069016556152982
 -0.00043156293232763466 -0.003932878887462661 0.0004874091038195966 0.006260950548946477 0.9967123813021144 -0.030069016556152982 0.0028570883065715145 0.012262059955756566
0.055454545454549996 0.0030618920546760997 0.013663682577070159 0.996440122710186 -0.03338304739131765 0.0005736395077776942 0.006942972440065833 -0.0004970414568007523 -0.004364739416483912
 0.996440122710186 -0.03338304739131765 0.003063635733255535 0.013663528266011693 -0.0004967810837418649 -0.004364738106139469 0.0005633532796565381 0.006944155626561657
 0.0005736395077776942 0.006942972440065833 -0.0004967810837418649 -0.004364738106139469 0.0030619550443513307 0.013662944995602088 0.9964401052684615 -0.033383788925191296
 -0.0004970414568007523 -0.004364739416483912 0.0005633532796565381 0.006944155626561657 0.9964401052684615 -0.033383788925191296 0.0030635398303490227 0.013662794205938378
0.056273447269699996 0.003093870915840904 0.013875851957632284 0.9963978554321405 -0.03388347669838814 0.0005858991141597092 0.007045940917959059 -0.0005073433102347833 -0.004429879681570679
 0.9963978554321405 -0.03388347669838814 0.0030956663481647795 0.013875694187525218 -0.0005070753103539571 -0.004429878734933775 0.000575306328372332 0.007047160045637452
 0.0005858991141597092 0.007045940917959059 -0.0005070753103539571 -0.004429878734933775 0.003093935805084938 0.013875103649781772 0.996397837504439 -0.03388422920869424
 -0.0005073433102347833 -0.004429879681570679 0.000575306328372332 0.007047160045637452 0.996397837504439 -0.03388422920869424 0.0030955676608595277 0.013874949416971946
0.06252605252188 0.0033460102993002993 0.015504828704514043 0.9960643810132159 -0.03771200305484832 0.0006840680277218494 0.007832430218256846 -0.0005897772183278272 -0.004927688693901905
 0.9960643810132159 -0.03771200305484832 0.003348225781622254 0.015504643218454158 -0.0005894474501085385 -0.004927691021100455 0.0006709851067245012 0.007833947260466177
 0.0006840680277218494 0.007832430218256846 -0.0005894474501085385 -0.004927691021100455 0.003346090615811677 0.015503998684255522 0.9960643591480922 -0.037712839450672185
 -0.0005897772183278272 -0.004927688693901905 0.0006709851067245012 0.007833947260466177 0.9960643591480922 -0.037712839450672185 0.003348104552729682 0.015503816851897863
0.06877865777407 0.003612431821785114 0.01714950401234858 0.9957117170781334 -0.0415538823171117 0.000790359935400014 0.008619361625119048 -0.0006789441257294859 -0.005426201807981999
 0.9957117170781334 -0.0415538823171117 0.0036151113690938604 0.017149288438108062 -0.0006785463702311094 -0.00542620833648467 0.0007745221562243662 0.008621220368109339
 0.000790359935400014 0.008619361625119048 -0.0006785463702311094 -0.00542620833648467 0.0036125291986572965 0.01714859264472443 0.9957116908700707 -0.04155480273005732
 -0.0006789441257294859 -0.005426201807981999 0.0007745221562243662 0.008621220368109339 0.9957116908700707 -0.04155480273005732 0.0036149653455678577 0.017148380843339944
0.07503126302626001 0.003893400576247687 0.01880961386759319 0.9953396081642191 -0.0454090436360429 0.0009048509086916568 0.009406636283488977 -0.0007749220757343819 -0.005925314045157743
 0.9953396081642191 -0.0454090436360429 0.003896588205897635 0.01880936574159401 -0.0007744501590635636 -0.0059253257713765255 0.0008859929703227176 0.009408883703440436
 0.0009048509086916568 0.009406636283488977 -0.0007744501590635636 -0.0059253257713765255 0.0038935166470000717 0.018808621541028806 0.9953395772016166 -0.04541004821689125
 -0.0007749220757343819 -0.005925314045157743 0.0008859929703227176 0.009408883703440436 0.9953395772016166 -0.04541004821689125 0.0038964151521782126 0.018808377326176687
0.08128386827845 0.004189180432870903 0.020484906089368395 0.9949477989266108 -0.04927739534779517 0.001027615692120609 0.010194151848440244 -0.0008777876404428557 -0.006424919186132955
 0.9949477989266108 -0.04927739534779517 0.0041929201730187835 0.020484622856021897 -0.0008772354334888273 -0.006424937175474011 0.0010054717374095282 0.010196838148729572
 0.001027615692120609 0.010194151848440244 -0.0008772354334888273 -0.006424937175474011 0.004189316832128408 0.02048383321742436 0.9949477627910331 -0.04927848426484134
 -0.0008777876404428557 -0.006424919186132955 0.0010054717374095282 0.010196838148729572 0.9949477627910331 -0.04927848426484134 0.004192717871652141 0.02048355406922608
0.08753647353064001 0.004500034038046278 0.022175136495002568 0.9945360343258485 -0.0531588287554222 0.0011587276221436088 0.010981802751799758 -0.0009876158695491701 -0.006924909516607953
 0.9945360343258485 -0.0531588287554222 0.004504369935999611 0.022174815505698477 -0.000986977287986246 -0.006924934903498347 0.0011330312635198043 0.010984981400081313
 0.0011587276221436088 0.010981802751799758 -0.000986977287986246 -0.006924934903498347 0.004500192402471055 0.022173983514483873 0.9945359925911266 -0.05316000219620361
 -0.0009876158695491701 -0.006924909516607953 0.0011330312635198043 0.010984981400081313 0.9945359925911266 -0.05316000219620361 0.004504136187556604 0.02217366683692679
0.09378907878283 0.0048262227886273585 0.023880066171191525 0.9941040597945912 -0.05705322080834556 0.0012982585488300828 0.011769480397522396 -0.001104480235394242 -0.007425175647615713
 0.9941040597945912 -0.05705322080834556 0.004831198919464798 0.02387970468317608 -0.0011037492397491541 -0.007425209635526349 0.0012687428973894835 0.011773208162524175
 0.0012982585488300828 0.011769480397522396 -0.0011037492397491541 -0.007425209635526349 0.004826404758498685 0.023878833546187448 0.9941040120268201 -0.05705447897555633
 -0.001104480235394242 -0.007425175647615713 0.0012687428973894835 0.011773208162524175 0.9941040120268201 -0.05705447897555633 0.004830931543594247 0.023878476666246696
0.100041684035 0.005168006790183409 0.025599459465244483 0.9936516213902266 -0.06096043606558334 0.001446278759735354 0.012557073308571615 -0.0012284525750133465 -0.007925606387999641
 0.9936516213902266 -0.06096043606558334 0.005173667264677258 0.025599054640136558 -0.0012276231707823851 -0.007925650249459492 0.0014126764569775318 0.012561410296550196
 0.001446278759735354 0.012557073308571615 -0.0012276231707823851 -0.007925650249459492 0.005168214009554619 0.025598147683297923 0.993651567146663 -0.06096177918079072
 -0.0012284525750133465 -0.007925606387999641 0.0014126764569775318 0.012561410296550196 0.993651567146663 -0.06096177918079072 0.005173364100227674 0.025597747849725603
0.1059090909091 0.005503149051666173 0.027225873836387155 0.9932082187305471 -0.06463847549281178 0.0015929621131451355 0.013295966925019796 -0.0013513145947618454 -0.008395256561858777
 0.9932082187305471 -0.06463847549281178 0.005509491867779893 0.027225425675845693 -0.0013503874328778917 -0.008395310907466489 0.0015552813737027451 0.013300933274885957
 0.0015929621131451355 0.013295966925019796 -0.0013503874328778917 -0.008395310907466489 0.005503381464830814 0.027224488239417335 0.9932081579992391 -0.06463989853979184
 -0.0013513145947618454 -0.008395256561858777 0.0015552813737027451 0.013300933274885957 0.9932081579992391 -0.06463989853979184 0.005509153171588006 0.027224045525265493
0.1062942892872 0.005525644800151867 0.02733308247879301 0.993178465936254 -0.06488032816069586 0.001602856905061345 0.013344467241178532 -0.0013596030298258812 -0.008426088653208699
 0.993178465936254 -0.06488032816069586 0.00553203377353759 0.027332631380860953 -0.001358669267756128 -0.008426143729803737 0.0015649001571047224 0.013349476932019115
 0.001602856905061345 0.013344467241178532 -0.001358669267756128 -0.008426143729803737 0.00552587891829569 0.027331692052072677 0.9931784047650698 -0.06488175646297402
 -0.0013596030298258812 -0.008426088653208699 0.0015649001571047224 0.013349476932019115 0.9931784047650698 -0.06488175646297402 0.005531692679129531 0.02733124643397532
0.11254689453939999 0.00589939416149679 0.02908070191546245 0.9926843411562255 -0.06881274091664524 0.0017680599237684673 0.014131545276138092 -0.0014979999836133844 -0.008926507400796509
 0.9926843411562255 -0.06881274091664524 0.005906555842004964 0.02908020150959804 -0.0014969559600377512 -0.00892657510315012 0.0017254805376989914 0.014137294559054653
 0.0017680599237684673 0.014131545276138092 -0.0014969559600377512 -0.00892657510315012 0.005899656833888891 0.029079233380739464 0.9926842725953009 -0.06881425466239219
 -0.0014979999836133844 -0.008926507400796509 0.0017254805376989914 0.014137294559054653 0.9926842725953009 -0.06881425466239219 0.005906174696403554 0.029078739065879305
0.11879949979160001 0.006289510729461785 0.030842084179513434 0.9921689958030767 -0.07275750921427934 0.0019419529703640205 0.01491818789453239 -0.0016437099990083493 -0.00942674558544938
 0.9921689958030767 -0.07275750921427934 0.006297489386804874 0.03084153132897845 -0.001642549856204202 -0.009426827393196256 0.0018944823925344744 0.0149247471032456
 0.0019419529703640205 0.01491818789453239 -0.001642549856204202 -0.009426827393196256 0.006289803618694855 0.03084053810016808 0.9921689193798524 -0.07275910867491223
 -0.0016437099990083493 -0.00942674558544938 0.0018944823925344744 0.0149247471032456 0.9921689193798524 -0.07275910867491223 0.006297066089425337 0.030839992093034067
0.1250521050438 0.006696248791113733 0.03261699466898235 0.9916321797841874 -0.07671445967048564 0.002124599342084488 0.015704273044357706 -0.0017967977529576213 -0.009926684127010975
 0.9916321797841874 -0.07671445967048564 0.0067050887647813326 0.032616386132854155 -0.0017955156795126331 -0.009926781588761289 0.0020719686981091863 0.015711715991864307
 0.002124599342084488 0.015704273044357706 -0.0017955156795126331 -0.009926781588761289 0.006696573567758273 0.032615371629496175 0.991632095014865 -0.07671614513779582
 -0.0017967977529576213 -0.009926684127010975 0.0020719686981091863 0.015711715991864307 0.991632095014865 -0.07671614513779582 0.006704621236518254 0.032614770849002134
0.131304710296 0.007119860979800229 0.03440519720628239 0.9910736442838761 -0.08068341118375243 0.0023160604065532407 0.01648967619684608 -0.0019573259709363363 -0.010426201892898293
 0.9910736442838761 -0.08068341118375243 0.00712960668791576 0.034404529636561425 -0.0019559162022675315 -0.010426316626196816 0.002258000543017056 0.016498080209604978
 0.0023160604065532407 0.01648967619684608 -0.0019559162022675315 -0.010426316626196816 0.0071202193235939066 0.03440349781605534 0.9910735506727933 -0.08068518296559778
 -0.0019573259709363363 -0.010426201892898293 0.002258000543017056 0.016498080209604978 0.9910735506727933 -0.08068518296559778 0.007129092871471739 0.03440283909308401
0.1375573155481 0.007460543444257427 0.03597228024785446 0.9905932286950894 -0.0844299163973665 0.0024916849952175673 0.017250331821465948 -0.0021007164447073073 -0.010901202409947163
 0.9905932286950894 -0.0844299163973665 0.0074712433301752385 0.03597156436815112 -0.002099170757125697 -0.010901334469480902 0.002428062191908109 0.017259681312938428
 0.0024916849952175673 0.017250331821465948 -0.002099170757125697 -0.010901334469480902 0.007460937980656201 0.03597050438447647 0.9905931258360479 -0.08443177467711648
 -0.0021007164447073073 -0.010901202409947163 0.002428062191908109 0.017259681312938428 0.9905931258360479 -0.08443177467711648 0.007470680064610733 0.03596979990185714
0.1438099208003 0.007813105637207407 0.037531562779530854 0.9900961018645079 -0.08816739949008895 0.002674420795418821 0.018008202681231857 -0.0022498598107472292 -0.011373683850469397
 0.9900961018645079 -0.08816739949008895 0.00782480486591617 0.03753079608498314 -0.0022481720635759692 -0.01137383481122091 0.002604990000802758 0.018018568021294395
 0.002674420795418821 0.018008202681231857 -0.0022481720635759692 -0.01137383481122091 0.007813538231186148 0.03752971101178269 0.9900959892630145 -0.0881693445699087
 -0.0022498598107472292 -0.011373683850469397 0.002604990000802758 0.018018568021294395 0.9900959892630145 -0.0881693445699087 0.00782418992479335 0.03752895858992658
0.1500625260525 0.008177429607941837 0.03908292843645632 0.9895823854012873 -0.09189578195809615 0.0028642093543653374 0.018763220654755938 -0.0024046998020440234 -0.011843582388520726
 0.9895823854012873 -0.09189578195809615 0.008190173448811396 0.039082108270573714 -0.0024028638698094175 -0.011843753888087791 0.002788726823011496 0.018774674778218117
 0.0028642093543653374 0.018763220654755938 -0.0024028638698094175 -0.011843753888087791 0.008177902144814994 0.03908100135237186 0.9895822625526328 -0.0918978141523762
 -0.0024046998020440234 -0.011843582388520726 0.002788726823011496 0.018774674778218117 0.9895822625526328 -0.0918978141523762 0.008189504613190356 0.0390801986784244
0.15631513130469998 0.008553396641031028 0.04062626443841023 0.9890522014529537 -0.09561498529290435 0.003060991571994962 0.019515318684069242 -0.0025651794986015033 -0.012310835493083802
