! Created with skrf 1.8.0 (http://scikit-rf.org).
# GHz S RI R 50.0 
!freq ReS11 ImS11 ReS12 ImS12 ReS13 ImS13
! ReS14 ImS14
! ReS21 ImS21 ReS22 ImS22 ReS23 ImS23
! ReS24 ImS24
! ReS31 ImS31 ReS32 ImS32 ReS33 ImS33
! ReS34 ImS34
! ReS41 ImS41 ReS42 ImS42 ReS43 ImS43
! ReS44 ImS44
!
0.0 0.001830154558611 0.0 0.99816984543 0.0 7.11265710876e-05 0.0 -7.112657126517e-05 8.710492783421655e-21
 0.99816984543 0.0 0.001830154558582 0.0 -7.112657126442e-05 8.710492783329806e-21 7.11265710867e-05 0.0
 7.11265710876e-05 0.0 -7.112657126442e-05 8.710492783329806e-21 0.001830154564272 0.0 0.9981698454357 0.0
 -7.112657126517e-05 8.710492783421655e-21 7.11265710867e-05 0.0 0.9981698454357 0.0 0.001830154564278 0.0
0.005 0.0019700828665959653 0.0014952985664076722 0.9979926492103626 -0.0038326754955636134 0.00010039261670291486 0.0007900284023836699 -9.737323975925969e-05 -0.0004945948588979458
 0.9979926492103626 -0.0038326754955636134 0.0019700900679360126 0.001495294384826739 -9.737597770014928e-05 -0.0004945969932321325 0.0001003413984124414 0.0007900479804572712
 0.00010039261670291486 0.0007900284023836699 -9.737597770014928e-05 -0.0004945969932321325 0.001970080908138982 0.0014952324757970964 0.9979926488238217 -0.0038327425559558062
 -9.737323975925969e-05 -0.0004945948588979458 0.0001003413984124414 0.0007900479804572712 0.9979926488238217 -0.0038327425559558062 0.001970091260509421 0.001495226360535401
0.006252605252188 0.0020070743436103886 0.001874969096510373 0.9979454645815786 -0.004791734854694874 0.0001089155879539515 0.0009878960487531214 -0.00010491895058806082 -0.000618866503747375
 0.9979454645815786 -0.004791734854694874 0.0020070856002387416 0.001874963759668517 -0.00010492321075499737 -0.0006188691350192516 0.00010883556583618357 0.0009879214837777148
 0.0001089155879539515 0.0009878960487531214 -0.00010492321075499737 -0.0006188691350192516 0.0020070713567350586 0.001874886502202787 0.9979454640522252 -0.004791818670201004
 -0.00010491895058806082 -0.000618866503747375 0.00010883556583618357 0.0009879214837777148 0.9979454640522252 -0.004791818670201004 0.0020070875399028384 0.001874878736245484
0.01250521050438 0.002203507702155802 0.0037888105993986215 0.9976930398437974 -0.009583925622130398 0.0001586468851954002 0.001975988942187938 -0.0001484579837188853 -0.0012405414619633993
 0.9976930398437974 -0.009583925622130398 0.0022035526445175107 0.003788798825728872 -0.0001484747686752986 -0.001240546317491538 0.00015832781516102502 0.001976050322431938
 0.0001586468851954002 0.001975988942187938 -0.0001484747686752986 -0.001240546317491538 0.002203496349707415 0.0037886457678037526 0.997693038308121 -0.009584093022837352
 -0.0001484579837188853 -0.0012405414619633993 0.00015832781516102502 0.001976050322431938 0.997693038308121 -0.009584093022837352 0.002203560977834461 0.0037886289813940867
0.01875781575657 0.0024199438382196442 0.0057294039495908245 0.9974122149539381 -0.014388163108501922 0.00022044434676905204 0.0029648972156561316 -0.0002018900586730582 -0.0018640744590660042
 0.9974122149539381 -0.014388163108501922 0.0024200448164801375 0.005729384586504995 -0.00020192748323915704 -0.0018640810413183336 0.00021972768933286785 0.002965007397194055
 0.00022044434676905204 0.0029648972156561316 -0.00020192748323915704 -0.0018640810413183336 0.002419918747315125 0.005729157175047899 0.9974122119270439 -0.0143884140270825
 -0.0002018900586730582 -0.0018640744590660042 0.00021972768933286785 0.002965007397194055 0.9974122119270439 -0.0143884140270825 0.0024200639865297746 0.005729129960013322
0.02501042100875 0.0026568536652537248 0.007693952477844021 0.9971026180827584 -0.019206696705752466 0.0002944331448352184 0.003954611627369876 -0.00026535535511405914 -0.0024891333096761035
 0.9971026180827584 -0.019206696705752466 0.0026570329807771792 0.0076939243268168344 -0.0002654214339671587 -0.002489141022516337 0.0002931603785490872 0.003954785742483477
 0.0002944331448352184 0.003954611627369876 -0.0002654214339671587 -0.002489141022516337 0.0026568094685054055 0.007693624120193516 0.9971026130760454 -0.019207031107849493
 -0.00026535535511405914 -0.0024891333096761035 0.0002931603785490872 0.003954785742483477 0.9971026130760454 -0.019207031107849493 0.002657067431661043 0.0076935849254308
0.03126302626094 0.0029146883703265744 0.009680976965157902 0.9967638608630184 -0.024040440831577498 0.0003807380788967101 0.0049450297994646725 -0.0003389890455065265 -0.003115469445311276
 0.9967638608630184 -0.024040440831577498 0.00291496828914746 0.009680938783503132 -0.0003390917096017874 -0.003115477593135561 0.000378750563975084 0.00494528526926063
 0.0003807380788967101 0.0049450297994646725 -0.0003390917096017874 -0.003115477593135561 0.002914619711394469 0.00968056743855784 0.9967638533903671 -0.024040858727588876
 -0.0003389890455065265 -0.003115469445311276 0.000378750563975084 0.00494528526926063 0.9967638533903671 -0.024040858727588876 0.0029150224756260977 0.009680514571090499
0.037515631513130004 0.0031938884647977677 0.011689482653443651 0.9963955478768092 -0.02888980786959626 0.00047948227073610534 0.005936011788819173 -0.0004229222567616552 -0.0037428623916797537
 0.9963955478768092 -0.02888980786959626 0.0031942912280947034 0.011689433155070539 -0.00042306936168845136 -0.0037428701792021775 0.000476621194859117 0.005936368344383225
 0.00047948227073610534 0.005936011788819173 -0.00042306936168845136 -0.0037428701792021775 0.003193789992039896 0.011688992444176823 0.9963955374475489 -0.02889030929752749
 -0.0004229222567616552 -0.0037428623916797537 0.000476621194859117 0.005936368344383225 0.9963955374475489 -0.02889030929752749 0.003194369610271894 0.011688924069072485
0.043768236765320004 0.003494887245853082 0.0137187057259674 0.9959972805568941 -0.03375496162763997 0.000590786527859822 0.006927397004786075 -0.000517282382749051 -0.004371102902562914
 0.9959972805568941 -0.03375496162763997 0.0034954350785793534 0.013718643582054697 -0.0005174817135741696 -0.004371109434827002 0.0005868928873518875 0.006927876710844532
 0.000590786527859822 0.006927397004786075 -0.0005174817135741696 -0.004371109434827002 0.003494753613853331 0.013718135414167084 0.9959972666754636 -0.03375554663233802
 -0.000517282382749051 -0.004371102902562914 0.0005868928873518875 0.006927876710844532 0.9959972666754636 -0.03375554663233802 0.0034955421236836297 0.013718049553736747
0.050020842017509996 0.0038181123749440487 0.01576800858364464 0.9955686592085489 -0.03863592200102265 0.000714768940861478 0.007919011214896559 -0.0006221931681036773 -0.0049999860122199044
 0.9955686592085489 -0.03863592200102265 0.0038188274934797596 0.015767932422891706 -0.0006224524422916818 -0.004999990294654867 0.0007096835405289781 0.007919638494391933
 0.000714768940861478 0.007919011214896559 -0.0006224524422916818 -0.004999990294654867 0.0038179382466823454 0.015767358817900035 0.9955686413761642 -0.03863659066050239
 -0.0006221931681036773 -0.0049999860122199044 0.0007096835405289781 0.007919638494391933 0.9955686413761642 -0.03863659066050239 0.0038189676786695333 0.01576725335059072
0.055454545454549996 0.004117383810143779 0.01756478369935821 0.9951712127281348 -0.04289040669220046 0.0008328990805447344 0.008780796961293242 -0.0007220255957810643 -0.005546867887280634
 0.9951712127281348 -0.04289040669220046 0.004118262346722741 0.01756469421088508 -0.0007223431791327388 -0.005546869329534602 0.0008266485787102148 0.008781574171195286
 0.0008328990805447344 0.008780796961293242 -0.0007223431791327388 -0.005546869329534602 0.004117170161199997 0.017564065482137122 0.9951711910520035 -0.04289114812340961
 -0.0007220255957810643 -0.005546867887280634 0.0008266485787102148 0.008781574171195286 0.9951711910520035 -0.04289114812340961 0.004118434973979738 0.017563941140103834
0.056273447269699996 0.004163986661717618 0.017836828428887376 0.9951092842448293 -0.04353261633394564 0.000851544584592647 0.00891066998998733 -0.0007377746888320496 -0.005629307656564111
 0.9951092842448293 -0.04353261633394564 0.004164891281635282 0.01783673683750679 -0.000738101558276801 -0.0056293085950775805 0.0008451080493341763 0.008911471648913935
 0.000851544584592647 0.00891066998998733 -0.000738101558276801 -0.0056293085950775805 0.004163766707948905 0.017836099946490856 0.9951092619560199 -0.04353336873990122
 -0.0007377746888320496 -0.005629307656564111 0.0008451080493341763 0.008911471648913935 0.9951092619560199 -0.04353336873990122 0.004165069092155589 0.017835972605480883
0.06252605252188 0.004532928446071595 0.019924649005093397 0.9946187570234426 -0.04844490763339751 0.0010012252694869951 0.00990218062904385 -0.0008641432828102518 -0.006258862823884412
 0.9946187570234426 -0.04844490763339751 0.00453404478915769 0.01992454052656315 -0.0008645453350087294 -0.006258859224966996 0.0009932780633173503 0.009903185881163463
 0.0010012252694869951 0.00990218062904385 -0.0008645453350087294 -0.006258859224966996 0.004532657347132314 0.019923842629305126 0.9946187297666508 -0.04844574389483916
 -0.0008641432828102518 -0.006258862823884412 0.0009932780633173503 0.009903185881163463 0.9946187297666508 -0.04844574389483916 0.004534264719925858 0.01992369100082259
0.06877865777407 0.004925351768372039 0.02203098378254085 0.9940966804794273 -0.05337261134677723 0.001163919323543973 0.010893343313601256 -0.0010014114484251182 -0.006888444485852642
 0.9940966804794273 -0.05337261134677723 0.004926702069828814 0.02203085691703968 -0.0010018962072202494 -0.006888435056704367 0.001154301774333242 0.010894583804921237
 0.001163919323543973 0.010893343313601256 -0.0010018962072202494 -0.006888435056704367 0.004925024215357926 0.02203010041790831 0.9940966477361189 -0.0533735315955363
 -0.0010014114484251182 -0.006888444485852642 0.001154301774333242 0.010894583804921237 0.9940966477361189 -0.0533735315955363 0.004926968625983452 0.022029921939235007
0.07503126302626001 0.005341666409700579 0.024155365272567297 0.9935426596327429 -0.05831550602219276 0.001339731390399654 0.011883951864077997 -0.00114968772633302 -0.007517842937043681
 0.9935426596327429 -0.05831550602219276 0.005343272925219397 0.024155218476217544 -0.0011502626523763608 -0.007517826285701996 0.0013282837187531854 0.011885461696901774
 0.001339731390399654 0.011883951864077997 -0.0011502626523763608 -0.007517826285701996 0.005341277105751981 0.024154405915676254 0.9935426208764939 -0.05831651040288504
 -0.00114968772633302 -0.007517842937043681 0.0013282837187531854 0.011885461696901774 0.9935426208764939 -0.05831651040288504 0.005343590622135222 0.024154197872876516
0.08128386827845 0.005782277849700285 0.026297337972628756 0.9929563020182688 -0.06327334034962687 0.001528762238414112 0.012873794267684658 -0.0013090765695332695 -0.00814684537361156
 0.9929563020182688 -0.06327334034962687 0.005784162862727476 0.02629716965629652 -0.001309749060406285 -0.00814682000909837 0.001515324589757615 0.012875610024113124
 0.001528762238414112 0.012873794267684658 -0.001309749060406285 -0.00814682000909837 0.005781821511202144 0.02629630370469533 0.9929562567135437 -0.06327442902777722
 -0.0013090765695332695 -0.00814684537361156 0.001515324589757615 0.012875610024113124 0.9929562567135437 -0.06327442902777722 0.005784536226339131 0.02629606323003661
0.08753647353064001 0.006247587171577763 0.028456453460129268 0.9923372180682414 -0.068245838065736 0.0017311085781454704 0.013862653052740407 -0.0014796782042844118 -0.008775235636669928
 0.9923372180682414 -0.068245838065736 0.00624977300011073 0.02845626198806493 -0.0014804555944750609 -0.00877519996914539 0.001715521057775315 0.01386481381768277
 0.0017311085781454704 0.013862653052740407 -0.0014804555944750609 -0.00877519996914539 0.006247058529853478 0.028455345453843855 0.992337165670247 -0.06824701122164549
 -0.0014796782042844118 -0.008775235636669928 0.001715521057775315 0.01386481381768277 0.992337165670247 -0.06824701122164549 0.006250206567582996 0.028455069522990147
0.09378907878283 0.006737990929315741 0.030632266929396045 0.9916850214610776 -0.07323270142844433 0.001946862883519496 0.01485030559277708 -0.0016615884873855287 -0.009402794037166146
 0.9916850214610776 -0.07323270142844433 0.006740499933290637 0.030632050617544645 -0.0016624780481233007 -0.009402746378097973 0.001928965593664097 0.01485285297629659
 0.001946862883519496 0.01485030559277708 -0.0016624780481233007 -0.009402746378097973 0.00673738473200832 0.030631086445704097 0.9916849614147337 -0.07323395926099623
 -0.0016615884873855287 -0.009402794037166146 0.001928965593664097 0.01485285297629659 0.9916849614147337 -0.07323395926099623 0.006740998252833792 0.03063077187456939
0.100041684035 0.0072538809879822705 0.03282433465223948 0.9909993294481277 -0.07823361378149073 0.0021761132178380865 0.015836524339692185 -0.0018548987585535479 -0.010029297263430397
 0.9909993294481277 -0.07823361378149073 0.007256735576068852 0.03282409176617454 -0.0018559076974351111 -0.010029235825790307 0.0021557462970175074 0.015839502498545634
 0.0021761132178380865 0.015836524339692185 -0.0018559076974351111 -0.010029235825790307 0.0072531920007552295 0.03282308304202252 0.9909992611873268 -0.07823495650703143
 -0.0018548987585535479 -0.010029297263430397 0.0021557462970175074 0.015839502498545634 0.9909992611873268 -0.07823495650703143 0.007257303207925555 0.032822726483285145
0.1059090909091 0.007761513401604409 0.0348957447969196 0.9903250789753885 -0.08293892002930932 0.0024035892572313194 0.01676047517515979 -0.0020467453788907707 -0.010616042272695029
 0.9903250789753885 -0.08293892002930932 0.007764712714140765 0.03489547534937711 -0.0020478728397719526 -0.010615966192438011 0.0023807595256745105 0.016763900018069093
 0.0024035892572313194 0.01676047517515979 -0.0020478728397719526 -0.010615966192438011 0.007760741981494985 0.03489442775377105 0.9903250024802984 -0.0829403426275634
 -0.0020467453788907707 -0.010616042272695029 0.0023807595256745105 0.016763900018069093 0.9903250024802984 -0.0829403426275634 0.007765349545846382 0.03489402860115356
0.1062942892872 0.007795644344030897 0.03503221208423564 0.9902797631631329 -0.08324824148674106 0.002418943062701053 0.0168210770291231 -0.0020596956904485996 -0.01065451832812833
 0.9902797631631329 -0.08324824148674106 0.0077988669811368165 0.035031940836774356 -0.0020608311511377017 -0.010654441226548225 0.0023959467266200887 0.0168245326877283
 0.002418943062701053 0.0168210770291231 -0.0020608311511377017 -0.010654441226548225 0.007794867352056051 0.03503089079064501 0.9902796861094869 -0.08324966933716975
 -0.0020596956904485996 -0.01065451832812833 0.0023959467266200887 0.0168245326877283 0.9902796861094869 -0.08324966933716975 0.007799508496974111 0.035030488730083485
0.11254689453939999 0.008363662931317958 0.03725545243763825 0.9895259479212216 -0.08827623540429194 0.0026754311488929117 0.0178037268582716 -0.00227606113777451 -0.011278226554820468
 0.9895259479212216 -0.08827623540429194 0.008367276145537313 0.03725515098624177 -0.0022773301993951126 -0.011278131805858384 0.002649645733214016 0.017807709328741966
 0.0026754311488929117 0.0178037268582716 -0.0022773301993951126 -0.011278131805858384 0.008362792740816912 0.03725406299672532 0.9895258614836955 -0.08827774862695674
 -0.00227606113777451 -0.011278226554820468 0.002649645733214016 0.017807709328741966 0.9895258614836955 -0.08827774862695674 0.008367996129167677 0.03725361174904459
0.11879949979160001 0.008958313414691377 0.03949360557828866 0.9887375135082708 -0.09331723206284288 0.0029456512903984922 0.01878423264959295 -0.0025040719845404874 -0.011900187590762673
 0.9887375135082708 -0.09331723206284288 0.008962339804528995 0.0394932720219463 -0.002505481661147158 -0.011900073113090536 0.0029169172946407673 0.018788793851007415
 0.0029456512903984922 0.01878423264959295 -0.002505481661147158 -0.011900073113090536 0.008957344855131144 0.03949214961689632 0.9887374170823771 -0.09331883092292959
 -0.0025040719845404874 -0.011900187590762673 0.0029169172946407673 0.018788793851007415 0.9887374170823771 -0.09331883092292959 0.008963142852284117 0.03949164532144569
0.1250521050438 0.009579966975916487 0.0417462171789109 0.9879140944651241 -0.09837085458854848 0.00322967221978901 0.01976234900323779 -0.0027437999916060034 -0.012520163443101473
 0.9879140944651241 -0.09837085458854848 0.009584429217565384 0.041745849554783984 -0.002745357231599619 -0.012520027057786756 0.003197830353000978 0.019767543479988034
 0.00322967221978901 0.01976234900323779 -0.002745357231599619 -0.012520027057786756 0.009578894901233441 0.041744696415308216 0.9879139874317131 -0.09837253936879999
 -0.0027437999916060034 -0.012520163443101473 0.003197830353000978 0.019767543479988034 0.9879139874317131 -0.09837253936879999 0.009585319938107874 0.04174413503126961
0.131304710296 0.010228989091316316 0.04401282804373097 0.9870553303647229 -0.1034367134775573 0.003527557426355188 0.020737826445999637 -0.00299531164426277 -0.013137912531096422
 0.9870553303647229 -0.1034367134775573 0.010233909945887222 0.04401242432342499 -0.0029970233297035532 -0.01313775196181823 0.0034924486535974054 0.020743711385299016
 0.003527557426355188 0.020737826445999637 -0.0029970233297035532 -0.01313775196181823 0.01022780838211803 0.044011244291789396 0.9870552120893702 -0.10343848447421174
 -0.00299531164426277 -0.013137912531096422 0.0034924486535974054 0.020743711385299016 0.9870552120893702 -0.10343848447421174 0.01023489296034318 0.044010621593215574
0.1375573155481 0.01076697001674498 0.04599821015062689 0.9862997095879295 -0.10821945292101333 0.003804842605068058 0.021682257485265845 -0.0032241889561900896 -0.013725030125204101
 0.9862997095879295 -0.10821945292101333 0.010772374860196584 0.045997778783154704 -0.0032260654731765736 -0.013724844902512912 0.0037663856658199544 0.02168883012787672
 0.003804842605068058 0.021682257485265845 -0.0032260654731765736 -0.013724844902512912 0.010765676278162287 0.045996564882636225 0.9862995795454877 -0.10822131028884803
 -0.0032241889561900896 -0.013725030125204101 0.0037663856658199544 0.02168883012787672 0.9862995795454877 -0.10822131028884803 0.010773453871370917 0.04599588757448699
0.1438099208003 0.011324153110114824 0.04797120359833562 0.9855169353179266 -0.11298810601823983 0.00409325714300924 0.022621633958332693 -0.003462129333014382 -0.01430752486764456
 0.9855169353179266 -0.11298810601823983 0.011330065218398671 0.04797074316623708 -0.0034641780983869783 -0.014307312719720876 0.0040513073732388934 0.02262894718020031
 0.00409325714300924 0.022621633958332693 -0.0034641780983869783 -0.014307312719720876 0.01132274138872585 0.047969498661281654 0.9855167928752158 -0.1129900500415167
 -0.003462129333014382 -0.01430752486764456 0.0040513073732388934 0.02262894718020031 0.9855167928752158 -0.1129900500415167 0.011331244700758678 0.04796876311420036
0.1500625260525 0.01190031093657114 0.04993158633524002 0.9847072402143828 -0.11774249570757717 0.004392680929892159 0.023555820530708305 -0.0037090162615041776 -0.014885270988211295
 0.9847072402143828 -0.11774249570757717 0.011906753680392625 0.049931095311482 -0.0037112446701900084 -0.01488502955135368 0.004347094800600491 0.023563929127428253
 0.004392680929892159 0.023555820530708305 -0.0037112446701900084 -0.01488502955135368 0.011898776312251481 0.0499298236475697 0.9847070847251919 -0.1177445266810327
 -0.0037090162615041776 -0.014885270988211295 0.004347094800600491 0.023563929127428253 0.9847070847251919 -0.1177445266810327 0.011908038110236656 0.049929026034299905
0.15631513130469998 0.012495214070592887 0.05187914295499603 0.9838708585355704 -0.12248244692343101 0.004702992213395473 0.024484684652735206 -0.003964731595765231 -0.015458145789616656
 0.9838708585355704 -0.12248244692343101 0.012502210917377755 0.05187861969840692 -0.003967147020458198 -0.015457872608649118 0.004653627351716312 0.02449364531449228
