! Created with skrf 1.8.0 (http://scikit-rf.org).
# GHz S RI R 50.0 
!freq ReS11 ImS11 ReS12 ImS12 ReS13 ImS13
! ReS14 ImS14
! ReS21 ImS21 ReS22 ImS22 ReS23 ImS23
! ReS24 ImS24
! ReS31 ImS31 ReS32 ImS32 ReS33 ImS33
! ReS34 ImS34
! ReS41 ImS41 ReS42 ImS42 ReS43 ImS43
! ReS44 ImS44
!
0.0 0.001454869401168 0.0 0.99854513058 0.0 5.558237937915e-05 0.0 -5.558237940129e-05 6.806878302278358e-21
 0.99854513058 0.0 0.001454869401185 0.0 -5.558237940191e-05 6.806878302354286e-21 5.558237937964e-05 0.0
 5.558237937915e-05 0.0 -5.558237940191e-05 6.806878302354286e-21 0.001454869410592 0.0 0.9985451305894 0.0
 -5.558237940129e-05 6.806878302278358e-21 5.558237937964e-05 0.0 0.9985451305894 0.0 0.00145486941058 0.0
0.005 0.0015650019014392935 0.0011975755185102657 0.9984058849504227 -0.0030474758181660054 7.65484954847802e-05 0.000569021974898867 -7.470649797698139e-05 -0.00036477164826249073
 0.9984058849504227 -0.0030474758181660054 0.0015649866200750557 0.001197584460943286 -7.47080675810127e-05 -0.00036477288629415094 7.662831466518056e-05 0.0005689914795105839
 7.65484954847802e-05 0.000569021974898867 -7.47080675810127e-05 -0.00036477288629415094 0.0015650012580943344 0.0011976432009421483 0.9984058852990336 -0.0030474087508169075
 -7.470649797698139e-05 -0.00036477164826249073 7.662831466518056e-05 0.0005689914795105839 0.9984058852990336 -0.0030474087508169075 0.001564987955828457 0.0011976509096168412
0.006252605252188 0.0015938146929023456 0.0015016571577137904 0.9983692465588775 -0.003810098491558572 8.247008415064614e-05 0.0007115795087869546 -8.006277160969021e-05 -0.0004564303054428335
 0.9983692465588775 -0.003810098491558572 0.0015937908055479893 0.0015016685462902308 -8.006521380108044e-05 -0.0004564318327643501 8.259479344902175e-05 0.0007115399415699617
 8.247008415064614e-05 0.0007115795087869546 -8.006521380108044e-05 -0.0004564318327643501 0.0015938136152979386 0.0015017417458460536 0.998369247032245 -0.003810014675275193
 -8.006277160969021e-05 -0.0004564303054428335 8.259479344902175e-05 0.0007115399415699617 0.998369247032245 -0.003810014675275193 0.0015937928224803932 0.0015017515825669658
0.01250521050438 0.001745073953474897 0.003034613445187158 0.9981757412134512 -0.007621034911751055 0.00011606995406178945 0.0014236900108616304 -0.00011022171934932567 -0.0009150773418614661
 0.9981757412134512 -0.007621034911751055 0.0017449785709329059 0.003034638369623323 -0.00011023134102437021 -0.0009150801759274551 0.000116567236868777 0.0014235952957561766
 0.00011606995406178945 0.0014236900108616304 -0.00011023134102437021 -0.0009150801759274551 0.0017450690805191637 0.0030347824147047417 0.998175742541723 -0.00762086751283639
 -0.00011022171934932567 -0.0009150773418614661 0.000116567236868777 0.0014235952957561766 0.998175742541723 -0.00762086751283639 0.0017449860669363406 0.003034804120427171
0.01875781575657 0.0019089618495642747 0.004589318200068063 0.997964384825951 -0.011442092301891194 0.00015645976234953695 0.0021367702188294065 -0.00014614784483091747 -0.0013753500013592428
 0.997964384825951 -0.011442092301891194 0.0019087475189051178 0.0045893590122807046 -0.00014616929786750516 -0.0013753538817750629 0.00015757678652479168 0.0021366018277709513
 0.00015645976234953695 0.0021367702188294065 -0.00014616929786750516 -0.0013753538817750629 0.0019089504633959364 0.004589571493699958 0.9979643873906809 -0.011441841401432477
 -0.00014614784483091747 -0.0013753500013592428 0.00015757678652479168 0.0021366018277709513 0.9979643873906809 -0.011441841401432477 0.0019087639501606571 0.004589607249837352
0.02501042100875 0.002085784627137367 0.006163627871335799 0.9977349389801295 -0.015275137728358923 0.00020371764224015184 0.002850849490693716 -0.00018792739206979292 -0.0018370618994381163
 0.9977349389801295 -0.015275137728358923 0.002085403991514212 0.006163687113706166 -0.00018796527174216936 -0.001837066521183653 0.00020570163493426042 0.0028505860641257447
 0.00020371764224015184 0.002850849490693716 -0.00018796527174216936 -0.001837066521183653 0.0020857640026906914 0.006163965465326818 0.9977349431606382 -0.015274803369358436
 -0.00018792739206979292 -0.0018370618994381163 0.00020570163493426042 0.0028505860641257447 0.9977349431606382 -0.015274803369358436 0.0020854328092888017 0.006164017590851492
0.03126302626094 0.0022758358606195937 0.00775644771371512 0.997487152530869 -0.01912098054806723 0.00025792197686667776 0.0035658971965984985 -0.0002356444886005062 -0.0023000820787006204
 0.997487152530869 -0.01912098054806723 0.002275241636342961 0.0077565281171788686 -0.00023570334333174696 -0.0023000870915660275 0.0002610204598501802 0.0035655145296308666
 0.00025792197686667776 0.0035658971965984985 -0.00023570334333174696 -0.0023000870915660275 0.0022758032711099304 0.007756869609480388 0.9974871587114998 -0.019120562743712433
 -0.0002356444886005062 -0.0023000820787006204 0.0002610204598501802 0.0035655145296308666 0.9974871587114998 -0.019120562743712433 0.0022752862943423544 0.007756940558760339
0.037515631513130004 0.0024794029322753024 0.009367070284952856 0.9972207682650427 -0.022980033850101698 0.00031915081146643813 0.004281858980028959 -0.00028938168328339586 -0.0027642987508384614
 0.9972207682650427 -0.022980033850101698 0.0024785478942593365 0.009367174768444382 -0.0002894660195843713 -0.002764303759249769 0.0003236117083431423 0.004281329995344034
 0.00031915081146643813 0.004281858980028959 -0.0002894660195843713 -0.002764303759249769 0.0024793556428037737 0.009367576502009249 0.9972207768298821 -0.022979532590833848
 -0.00028938168328339586 -0.0027642987508384614 0.0003236117083431423 0.004281329995344034 0.9972207768298821 -0.022979532590833848 0.002478611843778906 0.009367668863755244
0.043768236765320004 0.0026967695368661903 0.010994974101142264 0.996935525585318 -0.026852515731453436 0.0003874815641561807 0.004998667799875636 -0.0003492201462359087 -0.0032296082517173
 0.996935525585318 -0.026852515731453436 0.0026956065085863563 0.010995105771597393 -0.00034933443171220513 -0.0032296128146974894 0.00039355325280193866 0.004997962516461625
 0.0003874815641561807 0.004998667799875636 -0.00034933443171220513 -0.0032296128146974894 0.002696704804790342 0.010995564664387156 0.9969355369199779 -0.0268519309978841
 -0.0003492201462359087 -0.0032296082517173 0.00039355325280193866 0.004997962516461625 0.9969355369199779 -0.0268519309978841 0.002695693198995999 0.010995681160964903
0.050020842017509996 0.002928216844770184 0.01263974044417787 0.9966311618543605 -0.030738532418609674 0.0004629908505684915 0.0057162484813919525 -0.00041523974025074804 -0.003695910487237605
 0.9966311618543605 -0.030738532418609674 0.002926698689128227 0.01263990259700878 -0.0004153884055221072 -0.003695914118412148 0.0004709221861790936 0.0057153339815981235
 0.0004629908505684915 0.0057162484813919525 -0.0004153884055221072 -0.003695914118412148 0.002928131920550483 0.012640415388223615 0.9966311763471172 -0.030737864177342585
 -0.00041523974025074804 -0.003695910487237605 0.0004709221861790936 0.0057153339815981235 0.9966311763471172 -0.030737864177342585 0.002926811569056592 0.012640558875325105
0.055454545454549996 0.003141003745741777 0.014082508450193976 0.9963509269917262 -0.03412661921410019 0.0005344993632283738 0.00634041183703663 -0.0004776936557960758 -0.004101870773939593
 0.9963509269917262 -0.03412661921410019 0.0031391387178780986 0.014082699916029348 -0.0004778757686500255 -0.004101873165096618 0.0005442492647026221 0.0063392864825799295
 0.0005344993632283738 0.00634041183703663 -0.0004778757686500255 -0.004101873165096618 0.003140899035039773 0.014083256763823717 0.99635094454652 -0.034125878359704126
 -0.0004776936557960758 -0.004101870773939593 0.0005442492647026221 0.0063392864825799295 0.99635094454652 -0.034125878359704126 0.003139277156590675 0.014083426129044023
0.056273447269699996 0.0031740241086958246 0.014301012505231378 0.9963074131854778 -0.034638119053731646 0.0005457543580159928 0.0064345199461803395 -0.000487519034643329 -0.004163106701631886
 0.9963074131854778 -0.034638119053731646 0.0031721037208596358 0.014301208624676593 -0.00048770647467950086 -0.004163108869235587 0.0005557946791401936 0.0064333603419702
 0.0005457543580159928 0.0064345199461803395 -0.00048770647467950086 -0.004163108869235587 0.0031739162351360583 0.01430177187947999 0.9963074312275054 -0.034637367252388605
 -0.000487519034643329 -0.004163106701631886 0.0005557946791401936 0.0064333603419702 0.9963074312275054 -0.034637367252388605 0.0031722462371749577 0.014301945345873819
0.06252605252188 0.0034344689916445655 0.01597847295274328 0.9959640149564791 -0.03855126205760732 0.0006358467420948294 0.00715339644321853 -0.0005661352924666797 -0.00463109824688047
 0.9959640149564791 -0.03855126205760732 0.0034320992918764706 0.015978706712879667 -0.0005663658674648383 -0.004631098373799029 0.0006482458647620029 0.007151952842133354
 0.0006358467420948294 0.00715339644321853 -0.0005663658674648383 -0.004631098373799029 0.003434335403157314 0.015979316809930606 0.9959640369419283 -0.0385504266366171
 -0.0005661352924666797 -0.00463109824688047 0.0006482458647620029 0.007151952842133354 0.9959640369419283 -0.0385504266366171 0.003432274889078058 0.015979523377536928
0.06877865777407 0.003709827745548403 0.017671830531085703 0.9956007021786972 -0.04247791246476686 0.000733341537206524 0.007872788281513936 -0.0006511644402599529 -0.005099785853158716
 0.9956007021786972 -0.04247791246476686 0.0037069616728466685 0.01767210579672543 -0.0006514424762964348 -0.005099783316961766 0.0007483497409403376 0.007871018752583238
 0.000733341537206524 0.007872788281513936 -0.0006514424762964348 -0.005099783316961766 0.00370966566869392 0.017672758933716528 0.9956007285058037 -0.04247699335114278
 -0.0006511644402599529 -0.005099785853158716 0.0007483497409403376 0.007871018752583238 0.9956007285058037 -0.04247699335114278 0.003707173793203231 0.017673001857805678
0.07503126302626001 0.004000375301354163 0.01938081157069622 0.9952172097800842 -0.046417994349940817 0.000838311075080603 0.008592602289254854 -0.0007426810271344184 -0.005569069175721035
 0.9952172097800842 -0.046417994349940817 0.0039969658072619265 0.01938113239862656 -0.0007430108166191748 -0.005569063308704844 0.0008561790831377166 0.00859046182896406
 0.000838311075080603 0.008592602289254854 -0.0007430108166191748 -0.005569063308704844 0.0040001819538264954 0.01938182459028675 0.9952172408506649 -0.04641699145824662
 -0.0007426810271344184 -0.005569069175721035 0.0008561790831377166 0.00859046182896406 0.9952172408506649 -0.04641699145824662 0.003997217889424188 0.019382107259879218
0.08128386827845 0.004306385302917485 0.02110515434419051 0.994813272834613 -0.05037141041165768 0.0009508264069563142 0.009312742134129881 -0.0008407581784468761 -0.0060388464836916515
 0.994813272834613 -0.05037141041165768 0.004302385345427111 0.021105524984575096 -0.0008411439803976084 -0.00603883657292789 0.0009718053614719416 0.009310182632616095
 0.0009508264069563142 0.009312742134129881 -0.0008411439803976084 -0.00603883657292789 0.004306157893728449 0.02110625206404488 0.9948133090551161 -0.050370323641489884
 -0.0008407581784468761 -0.0060388464836916515 0.0009718053614719416 0.009310182632616095 0.9948133090551161 -0.050370323641489884 0.0043026808244982576 0.02110657800256764
0.08753647353064001 0.004628130105002244 0.022844605158189164 0.9943886267600733 -0.054338045823955156 0.001070957230372681 0.010033108534075427 -0.0009454675427491106 -0.00650901446172289
 0.9943886267600733 -0.054338045823955156 0.004623492642577554 0.0228450300561981 -0.0009459135830035372 -0.006508999749110706 0.0010952986638710996 0.010030078741621
 0.001070957230372681 0.010033108534075427 -0.0009459135830035372 -0.006508999749110706 0.004627865833863598 0.022845787665526383 0.994388668541692 -0.054336875068221005
 -0.0009454675427491106 -0.00650901446172289 0.0010952986638710996 0.010030078741621 0.994388668541692 -0.054336875068221005 0.004623834948794943 0.0228461605315835
0.09378907878283 0.004965880744051732 0.024598915557631697 0.9939430074911989 -0.058317770979297134 0.0011987718161878872 0.010753599419382566 -0.0010568792370275453 -0.006979468063706099
 0.9939430074911989 -0.058317770979297134 0.004960558730093246 0.024599399355201737 -0.0010573897083551694 -0.006979447746023378 0.0012267276199587666 0.010750044913221889
 0.0011987718161878872 0.010753599419382566 -0.0010573897083551694 -0.006979447746023378 0.004965576801697342 0.024600182950691118 0.9939430552504077 -0.058316516117304644
 -0.0010568792370275453 -0.006979468063706099 0.0012267276199587666 0.010750044913221889 0.9939430552504077 -0.058316516117304644 0.00496095128858333 0.02460060653911098
0.100041684035 0.005319906892685819 0.02636784027800341 0.9934761516393041 -0.062310443487636355 0.00133433693782189 0.011474110050442294 -0.0011750617883175744 -0.007450100414360112
 0.9934761516393041 -0.062310443487636355 0.005313853269366255 0.02636838781594874 -0.0011756408504127337 -0.007450073643334353 0.0013661593276822815 0.011469973202026952
 0.00133433693782189 0.011474110050442294 -0.0011756408504127337 -0.007450073643334353 0.005319560460291151 0.026369192665103097 0.9934762057983212 -0.06230910438640572
 -0.0011750617883175744 -0.007450100414360112 0.0013661593276822815 0.011469973202026952 0.9934762057983212 -0.06230910438640572 0.005314299499524304 0.026369670908201224
0.1059090909091 0.005667164253614166 0.02804086304994169 0.9930185085995867 -0.06606878188458647 0.0014686575581034104 0.012150155258924135 -0.0012921811936795699 -0.007891804653983136
 0.9930185085995867 -0.06606878188458647 0.005660381279197011 0.0280414749832137 -0.0012928283746914892 -0.00789177101560508 0.0015043379729607089 0.012145416647453883
 0.0014686575581034104 0.012150155258924135 -0.0012928283746914892 -0.00789177101560508 0.005666775376532793 0.028042295302222166 0.9930185691536607 -0.06606736360242926
 -0.0012921811936795699 -0.007891804653983136 0.0015043379729607089 0.012145416647453883 0.9930185691536607 -0.06606736360242926 0.005660880978256244 0.028042828533043056
0.1062942892872 0.005690476799001062 0.02815113570632658 0.9929877966399536 -0.06631590967088989 0.0014777178007617736 0.012194533115995925 -0.0013000820739860566 -0.007920802733954626
 0.9929877966399536 -0.06631590967088989 0.005683644491812645 0.028151752026537934 -0.0013007338534927167 -0.007920768616321421 0.0015136592800467621 0.012189753058669494
 0.0014777178007617736 0.012194533115995925 -0.0013007338534927167 -0.007920768616321421 0.005690085048027434 0.02815257320594998 0.9929878576271458 -0.06631448618544249
 -0.0013000820739860566 -0.007920802733954626 0.0015136592800467621 0.012189753058669494 0.9929878576271458 -0.06631448618544249 0.005684147806077545 0.02815311017494214
0.11254689453939999 0.006077857216167799 0.029948558704156306 0.9924776808940801 -0.07033400569978708 0.0016289779729383794 0.012914758804206698 -0.0014320052596383157 -0.00839146429390998
 0.9924776808940801 -0.07033400569978708 0.006070199128072104 0.029949249052087182 -0.0014327338500492648 -0.008391421891489198 0.0016692912939575881 0.012909271401466112
 0.0016289779729383794 0.012914758804206698 -0.0014327338500492648 -0.008391421891489198 0.006077417308422574 0.0299500814419756 0.9924777491443459 -0.07033249767652144
 -0.0014320052596383157 -0.00839146429390998 0.0016692912939575881 0.012909271401466112 0.9924777491443459 -0.07033249767652144 0.006070762931736461 0.029950681348717513
0.11879949979160001 0.00648231332427068 0.03175986568356991 0.9919455439033104 -0.07436455848236963 0.0017881793151532986 0.013634674870633972 -0.0015708947365181778 -0.008861972379402313
 0.9919455439033104 -0.07436455848236963 0.006473782329906329 0.031760635510974064 -0.0015717041980883855 -0.008861920709177221 0.0018331174381675454 0.013628412684830001
 0.0017881793151532986 0.013634674870633972 -0.0015717041980883855 -0.008861920709177221 0.006481822411436477 0.03176147379642088 0.9919456198584236 -0.07436296575537402
 -0.0015708947365181778 -0.008861972379402313 0.0018331174381675454 0.013628412684830001 0.9919456198584236 -0.07436296575537402 0.006474410019830222 0.03176214099532261
0.1250521050438 0.006904108644677307 0.033584811887161364 0.9913911264012057 -0.07840738635295631 0.0019553819117001767 0.014354166691062297 -0.0017168120573259373 -0.009332212270944306
 0.9913911264012057 -0.07840738635295631 0.006894657584635393 0.03358566685505877 -0.001717706416922942 -0.009332150305142294 0.002005197962724466 0.01434705895273709
 0.0019553819117001767 0.014354166691062297 -0.001717706416922942 -0.009332150305142294 0.006903563868264144 0.033586505524423105 0.9913912105106154 -0.07840570874314835
 -0.0017168120573259373 -0.009332212270944306 0.002005197962724466 0.01434705895273709 0.9913912105106154 -0.07840570874314835 0.006895352548748627 0.033587244514646154
0.131304710296 0.0073435049498838745 0.0354231508040382 0.9908141704825016 -0.08246229963016138 0.0021306440013412016 0.015073117313894439 -0.0018698168715558761 -0.009802067230416758
 0.9908141704825016 -0.08246229963016138 0.007333086625071018 0.03542409678586887 -0.0018708001224716473 -0.009801993896602747 0.002185591227757505 0.0150650898917639
 0.0021306440013412016 0.015073117313894439 -0.0018708001224716473 -0.009801993896602747 0.007342903441008982 0.03542493012448339 0.9908142632033833 -0.08246053694883827
 -0.0018698168715558761 -0.009802067230416758 0.002185591227757505 0.0150650898917639 0.9908142632033833 -0.08246053694883827 0.007333852241366391 0.035425745552350105
0.1375573155481 0.0076977438042091445 0.03703673179047132 0.990317475768325 -0.08629109155984083 0.0022908299111281533 0.0157678740122967 -0.002006714805681075 -0.010247940798303233
 0.990317475768325 -0.08629109155984083 0.007686308445424479 0.037037754898447954 -0.002007792946315935 -0.01024785604800898 0.0023510392208405013 0.015758940517123628
 0.0022908299111281533 0.0157678740122967 -0.002007792946315935 -0.01024785604800898 0.007697083465764778 0.03703859684395278 0.9903175774942525 -0.08628924371280522
 -0.002006714805681075 -0.010247940798303233 0.0023510392208405013 0.015758940517123628 0.9903175774942525 -0.08628924371280522 0.007687147432226931 0.03703947396608487
0.1438099208003 0.008064400476245357 0.03864228406392404 0.9898034406749303 -0.09011061728112492 0.0024574631107063503 0.01646002482630152 -0.002149080108136898 -0.010691375547571796
 0.9898034406749303 -0.09011061728112492 0.00805190045784098 0.03864338888273881 -0.0021502574446044124 -0.01069127832732397 0.002523165795965848 0.016450117595179038
 0.0024574631107063503 0.01646002482630152 -0.0021502574446044124 -0.01069127832732397 0.008063678564314041 0.038644234993045305 0.9898035518613576 -0.09010868408635755
 -0.002149080108136898 -0.010691375547571796 0.002523165795965848 0.016450117595179038 0.9898035518613576 -0.09010868408635755 0.008052816060516927 0.03864517716857889
0.1500625260525 0.008443352373608746 0.040239686347986234 0.9892721915232641 -0.09392079470316449 0.0026304884397693917 0.017149506802112753 -0.0022968583237645474 -0.011132310306033318
 0.9892721915232641 -0.09392079470316449 0.008429740019864343 0.040240877694230986 -0.002298139154131451 -0.011132199520010799 0.0027019144886556725 0.01713855570658781
 0.0026304884397693917 0.017149506802112753 -0.002298139154131451 -0.011132199520010799 0.008442566143291771 0.040241723300953054 0.9892723126321005 -0.09391877597193594
 -0.0022968583237645474 -0.011132310306033318 0.0027019144886556725 0.01713855570658781 0.9892723126321005 -0.09391877597193594 0.008430735466631187 0.04024273407231307
0.15631513130469998 0.008834476114016113 0.04182882106655837 0.9887238551881207 -0.09772154177149367 0.0028098501269246037 0.017836258018909187 -0.0024499943651006694 -0.011570685144776159
