! Created with skrf 1.8.0 (http://scikit-rf.org).
# GHz S RI R 50.0 
!freq ReS11 ImS11 ReS12 ImS12 ReS13 ImS13
! ReS14 ImS14
! ReS21 ImS21 ReS22 ImS22 ReS23 ImS23
! ReS24 ImS24
! ReS31 ImS31 ReS32 ImS32 ReS33 ImS33
! ReS34 ImS34
! ReS41 ImS41 ReS42 ImS42 ReS43 ImS43
! ReS44 ImS44
!
0.0 0.001492478565111 0.0 0.9985075214349 0.0 5.753478906558e-05 0.0 -5.753478906533e-05 7.045979526847452e-21
 0.9985075214349 0.0 0.001492478565114 0.0 -5.753478906576e-05 7.045979526900112e-21 5.753478906556e-05 0.0
 5.753478906558e-05 0.0 -5.753478906576e-05 7.045979526900112e-21 0.00149247856229 0.0 0.9985075214321 0.0
 -5.753478906533e-05 7.045979526847452e-21 5.753478906556e-05 0.0 0.9985075214321 0.0 0.001492478562274 0.0
0.005 0.0016056391860459712 0.0012200871941986297 0.9983643670004649 -0.003126604084637826 8.074085341928113e-05 0.0006397523640531858 -7.832427437927037e-05 -0.00040058326105041857
 0.9983643670004649 -0.003126604084637826 0.0016056687573966033 0.0012200698839587507 -7.832567265054142e-05 -0.00040058424917098647 8.055078069430862e-05 0.0006398245992303391
 8.074085341928113e-05 0.0006397523640531858 -7.832567265054142e-05 -0.00040058424917098647 0.0016056392484634916 0.0012201543634471114 0.9983643673497842 -0.0031265370223346987
 -7.832427437927037e-05 -0.00040058326105041857 8.055078069430862e-05 0.0006398245992303391 0.9983643673497842 -0.0031265370223346987 0.001605669387405721 0.0012201368332396476
0.006252605252188 0.0016352713897102382 0.0015299191731000057 0.9983266464674139 -0.00390902685038532 8.736555814207742e-05 0.0007999990851651073 -8.417353088533349e-05 -0.0005012507826781672
 0.9983266464674139 -0.00390902685038532 0.0016353176156804427 0.0015298972038123983 -8.417570739278057e-05 -0.0005012519992775567 8.706858473223204e-05 0.0008000928859001818
 8.736555814207742e-05 0.0007999990851651073 -8.417570739278057e-05 -0.0005012519992775567 0.0016352714186816748 0.0015300031194940874 0.9983266469445258 -0.0039089430276985715
 -8.417353088533349e-05 -0.0005012507826781672 8.706858473223204e-05 0.0008000928859001818 0.9983266469445258 -0.0039089430276985715 0.0016353185311051071 0.0015299808893487917
0.01250521050438 0.0017909920499371943 0.0030919873235883727 0.998127117619357 -0.007818905183968014 0.0001253281275982345 0.0016003410569440067 -0.00011725199527257599 -0.0010049640850254673
 0.998127117619357 -0.007818905183968014 0.0017911766407818848 0.003091940052675724 -0.00011726058130733091 -0.0010049663143554268 0.00012414379765944924 0.0016005663987245379
 0.0001253281275982345 0.0016003410569440067 -0.00011726058130733091 -0.0010049663143554268 0.0017909916218190641 0.0030921548578418637 0.9981271189747285 -0.007818737778424381
 -0.00011725199527257599 -0.0010049640850254673 0.00012414379765944924 0.0016005663987245379 0.9981271189747285 -0.007818737778424381 0.001791179735183062 0.0030921072052522403
0.01875781575657 0.001959972653989832 0.0046763856841055265 0.9979086926933496 -0.011739160634766294 0.00017150772331306452 0.002401569983979727 -0.00015687039498394413 -0.0015104120237245532
 0.9979086926933496 -0.011739160634766294 0.001960387456580779 0.004676309553490586 -0.00015688955423273838 -0.0015104150207052266 0.0001688470909948172 0.0024019717895574135
 0.00017150772331306452 0.002401569983979727 -0.00015688955423273838 -0.0015104150207052266 0.001959971277958538 0.004676636574427284 0.9979086953149908 -0.011738909712010137
 -0.00015687039498394413 -0.0015104120237245532 0.0001688470909948172 0.0024019717895574135 0.9979086953149908 -0.011738909712010137 0.001960393962230619 0.004676560078614972
0.02501042100875 0.0021425358882209257 0.006280903512968283 0.9976711201433716 -0.015671701111145738 0.00022599152900162835 0.0032037226170198805 -0.00020312581071623461 -0.002017368843487695
 0.9976711201433716 -0.015671701111145738 0.002143272576739159 0.006280794772063121 -0.00020315966116916663 -0.002017372317846907 0.0002212653181696328 0.0032043527404677892
 0.00022599152900162835 0.0032037226170198805 -0.00020315966116916663 -0.002017372317846907 0.0021425330902238174 0.00628123752301037 0.9976711244309334 -0.01567136669287912
 -0.00020312581071623461 -0.002017368843487695 0.0002212653181696328 0.0032043527404677892 0.9976711244309334 -0.01567136669287912 0.002143283720447947 0.0062811285697341405
0.03126302626094 0.0023389910576804345 0.007904407097791163 0.9974141353047818 -0.019617347773038727 0.00028886747798503116 0.004006761401548887 -0.0002561126575626404 -0.0025256777689638007
 0.9974141353047818 -0.019617347773038727 0.0023401411844137334 0.00790426181040805 -0.0002561652793278939 -0.00252568138466435 0.0002814855316963742 0.004007678669775551
 0.00028886747798503116 0.004006761401548887 -0.0002561652793278939 -0.00252568138466435 0.0023389863640616584 0.007904823970969505 0.9974141416553841 -0.019616929852314797
 -0.0002561126575626404 -0.0025256777689638007 0.0002814855316963742 0.004007678669775551 0.9974141416553841 -0.019616929852314797 0.002340158173112578 0.007904678759799331
0.037515631513130004 0.0025496408195639594 0.009546160226366826 0.9971374673202882 -0.02357651450224229 0.0003602232651471341 0.0048106194917039696 -0.00031592338533243243 -0.0030352059760294175
 0.9971374673202882 -0.02357651450224229 0.002551295848619815 0.009545974274568141 -0.0003159988245485959 -0.003035209351053832 0.00034959429546553236 0.004811889776092361
 0.0003602232651471341 0.0048106194917039696 -0.0003159988245485959 -0.003035209351053832 0.002549633762802417 0.009546659684641025 0.9971374761357801 -0.023576013044408334
 -0.00031592338533243243 -0.0030352059760294175 0.00034959429546553236 0.004811889776092361 0.9971374761357801 -0.023576013044408334 0.0025513198764370248 0.009546474232895156
0.043768236765320004 0.0027747837928177267 0.011205617418458191 0.9968408419472605 -0.027549414602698694 0.0004401458954164781 0.005615214420868362 -0.0003826487258620289 -0.003545830915393031
 0.9968408419472605 -0.027549414602698694 0.002777035127108736 0.011205386504855799 -0.0003827509969517825 -0.0035458336215979723 0.0004256773615360086 0.005616910718339058
 0.0004401458954164781 0.005615214420868362 -0.0003827509969517825 -0.0035458336215979723 0.0027747739061882 0.011206199153326558 0.9968408536310038 -0.02754882955407866
 -0.0003826487258620289 -0.003545830915393031 0.0004256773615360086 0.005616910718339058 0.9968408536310038 -0.02754882955407866 0.0027770673711980894 0.011205969298560109
0.050020842017509996 0.0030147157710183185 0.012882338447822578 0.9965239829728381 -0.03153614620809475 0.0005287214169913422 0.006420453754343224 -0.0004563777835378322 -0.0040574346582495854
 0.9965239829728381 -0.03153614620809475 0.0030176547760172364 0.012882058097074241 -0.00045651087062509164 -0.004057436221279621 0.000509819471449064 0.006422656272245569
 0.0005287214169913422 0.006420453754343224 -0.00045651087062509164 -0.004057436221279621 0.003014702590392483 0.012883002123575401 0.9965239979328833 -0.03153547749250781
 -0.0004563777835378322 -0.0040574346582495854 0.000509819471449064 0.006422656272245569 0.9965239979328833 -0.03153547749250781 0.0030176963990020543 0.012882723525151596
0.055454545454549996 0.0032354624788767583 0.014353186322708333 0.9962319753769997 -0.03501199031119182 0.0006127894061142449 0.007120677244114646 -0.0005262064414497784 -0.004502738550365047
 0.9962319753769997 -0.03501199031119182 0.0032390732777120446 0.014352859237495467 -0.0005263695212935241 -0.004502738698762318 0.0005895513899990252 0.007123390486295321
 0.0006127894061142449 0.007120677244114646 -0.0005263695212935241 -0.004502738698762318 0.003235446060217453 0.014353920912620496 0.9962319935198275 -0.035011248808218924
 -0.0005262064414497784 -0.004502738550365047 0.0005895513899990252 0.007123390486295321 0.9962319935198275 -0.035011248808218924 0.003239123984309888 0.014353596291568222
0.056273447269699996 0.003269730346254363 0.01457594640317548 0.9961866130451251 -0.03553673415150805 0.0006260347327450616 0.007226237865876958 -0.0005371980591701952 -0.0045699011215975
 0.9961866130451251 -0.03553673415150805 0.0032734483718154126 0.01457561196280777 -0.0005373659169745079 -0.0045699010208100094 0.0006021042087620049 0.0072290341087028155
 0.0006260347327450616 0.007226237865876958 -0.0005373659169745079 -0.0045699010208100094 0.003269713409324658 0.01457669165403002 0.9961866316948254 -0.03553598167296805
 -0.0005371980591701952 -0.0045699011215975 0.0006021042087620049 0.0072290341087028155 0.9961866316948254 -0.03553598167296805 0.0032735005217115988 0.014576359793950206
0.06252605252188 0.0035401192481628544 0.01628610463094707 0.9958284542211766 -0.039551152955402666 0.0007321694559816285 0.008032461456862126 -0.0006251954348329976 -0.005083114554508523
 0.9958284542211766 -0.039551152955402666 0.0035447076484913702 0.016285711271602835 -0.0006254019891272507 -0.005083112222917797 0.0007026138816691485 0.008035946313703126
 0.0007321694559816285 0.008032461456862126 -0.0006254019891272507 -0.005083112222917797 0.0035400980913220218 0.016286931057304832 0.9958284769786054 -0.03955031660171918
 -0.0006251954348329976 -0.005083114554508523 0.0007026138816691485 0.008035946313703126 0.9958284769786054 -0.03955031660171918 0.003544771457116267 0.01628654124043918
0.06877865777407 0.0038261725212605244 0.01801250297903408 0.9954492283600506 -0.043579340523736326 0.0008472077868951816 0.008839014470028814 -0.0007204541398847643 -0.00559695863369608
 0.9954492283600506 -0.043579340523736326 0.003831722675529154 0.018012045694059984 -0.0007207032879274279 -0.005596953457914113 0.0008114294187612704 0.008843290302212647
 0.0008472077868951816 0.008839014470028814 -0.0007207032879274279 -0.005596953457914113 0.003826146680040068 0.018013410145946936 0.995449255648947 -0.043578420167783266
 -0.0007204541398847643 -0.00559695863369608 0.0008114294187612704 0.008843290302212647 0.995449255648947 -0.043578420167783266 0.0038317992586755912 0.018012957499704278
0.07503126302626001 0.004128178612357159 0.019754849076419428 0.9950486574267733 -0.04762120680174363 0.0009712304036467758 0.009645782672360785 -0.0008230567034006047 -0.006111315893779151
 0.9950486574267733 -0.04762120680174363 0.004134781944123586 0.01975432268083121 -0.0008233523140310453 -0.006111307213979716 0.0009286302744174643 0.009650959400873745
 0.0009712304036467758 0.009645782672360785 -0.0008233523140310453 -0.006111307213979716 0.004128147619958061 0.019755836523649668 0.9950486896776001 -0.04762020229145353
 -0.0008230567034006047 -0.006111315893779151 0.0009286302744174643 0.009650959400873745 0.9950486896776001 -0.04762020229145353 0.004134872401239509 0.019755315996856763
0.08128386827845 0.004446424398592751 0.021512862546456433 0.99462646374218 -0.0516766395061396 0.0011043163616117034 0.010452648038361708 -0.00093308389846991 -0.006626067361265538
 0.99462646374218 -0.0516766395061396 0.00445417239498724 0.02151226167542707 -0.0009334298121387559 -0.006626054471145557 0.0010542943389571938 0.0104588432308664
 0.0011043163616117034 0.010452648038361708 -0.0009334298121387559 -0.006626054471145557 0.004446387785099536 0.02151392977575068 0.9946265013924128 -0.05167555067705529
 -0.00093308389846991 -0.006626067361265538 0.0010542943389571938 0.0104588432308664 0.9946265013924128 -0.05167555067705529 0.0044542778091338055 0.02151333613719136
0.08753647353064001 0.004781195177153552 0.023286270983494704 0.9941823701970108 -0.05574550809635391 0.0012465429971139645 0.01125948902938786 -0.001050614681466703 -0.007141092296732776
 0.9941823701970108 -0.05574550809635391 0.00479017940859797 0.0232855900900979 -0.0010510147101725066 -0.007141074443492146 0.0011884978515864025 0.011266827986551405
 0.0012465429971139645 0.01125948902938786 -0.0010510147101725066 -0.007141074443492146 0.004781152468112876 0.02328741746609412 0.9941824136918945 -0.055744334764209515
 -0.001050614681466703 -0.007141092296732776 0.0011884978515864025 0.011266827986551405 0.9941824136918945 -0.055744334764209515 0.004790300845605671 0.02328674530209465
0.09378907878283 0.005132774627243229 0.025074807096145686 0.9937161004423867 -0.05982766658368255 0.0013979858360333873 0.012066180791128174 -0.0011757261259957275 -0.007656268023162629
 0.9937161004423867 -0.05982766658368255 0.005143086766872542 0.025074040448566152 -0.0011761840531977934 -0.00765624440748309 0.0013313153163811435 0.012074796632189745
 0.0013979858360333873 0.012066180791128174 -0.0011761840531977934 -0.00765624440748309 0.005132725343096805 0.0250760322704104 0.9937161502354596 -0.059826408546680525
 -0.0011757261259957275 -0.007656268023162629 0.0013313153163811435 0.012074796632189745 0.9937161502354596 -0.059826408546680525 0.005143225275031095 0.02507527598210361
0.100041684035 0.005501444754228332 0.0268782066032627 0.9932273790645617 -0.06392295559257785 0.0015587185038883654 0.012872595308513712 -0.0013084933546965054 -0.008171469801319301
 0.9932273790645617 -0.06392295559257785 0.0055131765971194275 0.02687734828129798 -0.0013090129350385184 -0.008171439577357997 0.0014828194188664385 0.012882629055912446
 0.0015587185038883654 0.012872595308513712 -0.0013090129350385184 -0.008171439577357997 0.005501388408723225 0.026879509872731685 0.9932274356182502 -0.06392161263347076
 -0.0013084933546965054 -0.008171469801319301 0.0014828194188664385 0.012882629055912446 0.9932274356182502 -0.06392161263347076 0.005513333206918345 0.026878663672451678
0.1059090909091 0.005863196025892962 0.02858378970427758 0.9927481020103032 -0.0677777396594586 0.001718061902323767 0.013628960945390548 -0.0014401093128147842 -0.00865484272220849
 0.9927481020103032 -0.0677777396594586 0.005876343722069119 0.02858283979988264 -0.0014406901370212792 -0.008654805486354993 0.0016329534311124367 0.01364046061935756
 0.001718061902323767 0.013628960945390548 -0.0014406901370212792 -0.008654805486354993 0.005863132605162454 0.02858516568574974 0.9927481653378042 -0.06777631679723964
 -0.0014401093128147842 -0.00865484272220849 0.0016329534311124367 0.01364046061935756 0.9927481653378042 -0.06777631679723964 0.005876518239394639 0.02858422967690291
0.1062942892872 0.005887485818171217 0.028696206657051103 0.99271593174761 -0.06803120389986027 0.0017288126383247962 0.013678601522728729 -0.0014489894679710245 -0.008686570747664693
 0.99271593174761 -0.06803120389986027 0.00590072930087676 0.028695250548032226 -0.0014495744270482376 -0.008686533023063766 0.001643080943980816 0.013690202185655342
 0.0017288126383247962 0.013678601522728729 -0.0014495744270482376 -0.008686533023063766 0.005887421917491603 0.028697587392113297 0.9927159955344375 -0.06802977578432613
 -0.0014489894679710245 -0.008686570747664693 0.001643080943980816 0.013690202185655342 0.9927159955344375 -0.06802977578432613 0.005900905024564089 0.028696645299149212
0.11254689453939999 0.00629117625219527 0.030528544636872205 0.9921814854301436 -0.07215222960846567 0.0019083378020503042 0.014484065431845312 -0.0015972854714281788 -0.009201441773289161
 0.9921814854301436 -0.07215222960846567 0.006306023472793824 0.030527484430779413 -0.0015979395055369075 -0.009201395609179189 0.0018121686942700974 0.014497390088618837
 0.0019083378020503042 0.014484065431845312 -0.0015979395055369075 -0.009201395609179189 0.006291104294152342 0.03053000217619651 0.9921815569327416 -0.0721507160839248
 -0.0015972854714281788 -0.009201441773289161 0.0018121686942700974 0.014497390088618837 0.9921815569327416 -0.0721507160839248 0.0063062193038476546 0.030528958011904035
0.11879949979160001 0.006712792572325932 0.03237495720958089 0.9916237684541469 -0.07628584106014567 0.0020973613974029606 0.015288850174390248 -0.0017534502014293783 -0.00971595154466387
 0.9916237684541469 -0.07628584106014567 0.0067293358101681916 0.03237378639350675 -0.0017541769772329288 -0.00971589595568705 0.0019901494087513987 0.015304064053657336
 0.0020973613974029606 0.015288850174390248 -0.0017541769772329288 -0.00971589595568705 0.006712712044713925 0.03237649086025602 0.9916238481658146 -0.07628424185562818
 -0.0017534502014293783 -0.00971595154466387 0.0019901494087513987 0.015304064053657336 0.9916238481658146 -0.07628424185562818 0.006729552722505147 0.03237533824243132
0.1250521050438 0.007152609280466762 0.034235179597515826 0.991042510710881 -0.08043183754582207 0.002295948580967066 0.01609281610040986 -0.0019175502498084847 -0.010229966461837551
 0.991042510710881 -0.08043183754582207 0.007170941015936838 0.03423389144948723 -0.0019183534039293553 -0.010229900416187269 0.002177087681926561 0.016110092660915194
 0.002295948580967066 0.01609281610040986 -0.0019183534039293553 -0.010229900416187269 0.007152519660465143 0.03423678863037639 0.9910425991371304 -0.08043015237709665
 -0.0019175502498084847 -0.010229966461837551 0.002177087681926561 0.016110092660915194 0.9910425991371304 -0.08043015237709665 0.007171179963886581 0.03423552096685318
0.131304710296 0.007610898761562221 0.03610894497496117 0.9904374437842416 -0.08459000989364478 0.002504162179177931 0.01689582083898755 -0.002089649887401933 -0.01074335064510358
 0.9904374437842416 -0.08459000989364478 0.007631111696287367 0.03610753255690247 -0.0020905330260756107 -0.01074327306458272 0.0023730458831287657 0.01691534184793877
 0.002504162179177931 0.01689582083898755 -0.0020905330260756107 -0.01074327306458272 0.007610799514276441 0.03611062863055755 0.9904375414425672 -0.08458823845736436
 -0.002089649887401933 -0.01074335064510358 0.0023730458831287657 0.01691534184793877 0.9904375414425672 -0.08458823845736436 0.007631373614151848 0.03610923911203823
0.1375573155481 0.007981525895222847 0.037751410428351784 0.9899147429951591 -0.08851547596285332 0.002696053697834154 0.017673184787140042 -0.0022439581326111715 -0.01123133429243533
 0.9899147429951591 -0.08851547596285332 0.008003718881224423 0.03774989716065676 -0.0022449263414173696 -0.011231245097018899 0.0025523830662849746 0.017694919303738874
 0.002696053697834154 0.017673184787140042 -0.0022449263414173696 -0.011231245097018899 0.007981415575900742 0.037753168597598155 0.9899148503111298 -0.08851361808108126
 -0.0022439581326111715 -0.01123133429243533 0.0025523830662849746 0.017694919303738874 0.9899148503111298 -0.08851361808108126 0.00800400577591108 0.037751679657240966
0.1438099208003 0.008365146996669468 0.03938541031851609 0.9893737270233143 -0.09243117980540022 0.0028957181444506245 0.01844743815172773 -0.002404443884625565 -0.011716539435502799
 0.9893737270233143 -0.09243117980540022 0.00838941394427099 0.03938379104887086 -0.0024055009928539454 -0.011716437572839654 0.002738941633898962 0.018471552100698122
 0.0028957181444506245 0.01844743815172773 -0.0024055009928539454 -0.011716437572839654 0.008365024888028693 0.03938724227203006 0.9893738445137508 -0.09242923518020335
 -0.002404443884625565 -0.011716539435502799 0.002738941633898962 0.018471552100698122 0.9893738445137508 -0.09242923518020335 0.008389726915851176 0.03938564876502815
0.1500625260525 0.008761629246547864 0.041010813741919366 0.9888145325316112 -0.09633702976758757 0.0031030889243124607 0.019218502735816708 -0.002571043811027213 -0.012198894653742397
 0.9888145325316112 -0.09633702976758757 0.008788064305683895 0.041009082992916335 -0.0025721936367211033 -0.012198779029715402 0.0029326581180025356 0.019245168098009156
 0.0031030889243124607 0.019218502735816708 -0.0025721936367211033 -0.012198779029715402 0.008761494608356324 0.04101271872098417 0.9888146607233971 -0.09633499809287989
 -0.002571043811027213 -0.012198894653742397 0.0029326581180025356 0.019245168098009156 0.9888146607233971 -0.09633499809287989 0.008788404447587552 0.04101101517266709
0.15631513130469998 0.009170838911835798 0.0426274937793833 0.9882372968434575 -0.10023293440887035 0.0033180986680000314 0.01998630161736707 -0.0027436938140820368 -0.012678330014756026
