! Created with skrf 1.8.0 (http://scikit-rf.org).
# GHz S RI R 50.0 
!freq ReS11 ImS11 ReS12 ImS12 ReS13 ImS13
! ReS14 ImS14
! ReS21 ImS21 ReS22 ImS22 ReS23 ImS23
! ReS24 ImS24
! ReS31 ImS31 ReS32 ImS32 ReS33 ImS33
! ReS34 ImS34
! ReS41 ImS41 ReS42 ImS42 ReS43 ImS43
! ReS44 ImS44
!
0.0 0.001424970387584 0.0 0.9985750295698 0.0 5.515513445471e-05 0.0 -5.515513498754e-05 6.754555951903105e-21
 0.9985750295698 0.0 0.001424970387566 0.0 -5.515513498789e-05 6.754555951945968e-21 5.515513445495e-05 0.0
 5.515513445471e-05 0.0 -5.515513498789e-05 6.754555951945968e-21 0.001424970408896 0.0 0.9985750295911 0.0
 -5.515513498754e-05 6.754555951903105e-21 5.515513445495e-05 0.0 0.9985750295911 0.0 0.001424970408863 0.0
0.005 0.0015329127757574273 0.001158750891215977 0.9984384897436872 -0.0029856945476968667 7.82277407598865e-05 0.0006515057562397253 -7.57042016864446e-05 -0.0004013589305651811
 0.9984384897436872 -0.0029856945476968667 0.0015329264105676484 0.0011587429649881629 -7.570466037200723e-05 -0.000401359339322333 7.813397344772719e-05 0.0006515413129932839
 7.82277407598865e-05 0.0006515057562397253 -7.570466037200723e-05 -0.000401359339322333 0.0015329119233591713 0.001158684165787422 0.9984384893955318 -0.002985761613966626
 -7.57042016864446e-05 -0.0004013589305651811 7.813397344772719e-05 0.0006515413129932839 0.9984384893955318 -0.002985761613966626 0.0015329265699448617 0.0011586755603879319
0.006252605252188 0.0015611294137151356 0.0014530435059448288 0.9984025819845102 -0.003732866171512353 8.477916864205882e-05 0.0008146827918582447 -8.146820071515626e-05 -0.0005022333068275073
 0.9984025819845102 -0.003732866171512353 0.0015611507274917967 0.0014530334698890403 -8.146891402860423e-05 -0.0005022338120787072 8.463266339674978e-05 0.0008147289665371578
 8.477916864205882e-05 0.0008146827918582447 -8.146891402860423e-05 -0.0005022338120787072 0.0015611281547228345 0.0014529601242166932 0.9984025815141367 -0.0037329499860084964
 -8.146820071515626e-05 -0.0005022333068275073 8.463266339674978e-05 0.0008147289665371578 0.9984025815141367 -0.0037329499860084964 0.0015611510508621391 0.0014529492283614812
0.01250521050438 0.0017091246401922373 0.0029369302258840835 0.9982130429914701 -0.0074666677744036816 0.00012213624016185455 0.0016296226368555178 -0.00011396977520446107 -0.0010070048678794974
 0.9982130429914701 -0.0074666677744036816 0.001709209744969043 0.0029369088824817854 -0.00011397258092610727 -0.0010070058169215908 0.00012155194080919658 0.0016297335281002451
 0.00012213624016185455 0.0016296226368555178 -0.00011397258092610727 -0.0010070058169215908 0.0017091201696896208 0.002936763773389751 0.9982130416754048 -0.007466835173296017
 -0.00011396977520446107 -0.0010070048678794974 0.00012155194080919658 0.0016297335281002451 0.9982130416754048 -0.007466835173296017 0.0017092116066599067 0.002936740592028348
0.01875781575657 0.0018692610231288026 0.004442284737086195 0.9980061901982668 -0.011210519693012922 0.00016730843973650976 0.0024454255403267375 -0.00015275690784534224 -0.001513540229437471
 0.9980061901982668 -0.011210519693012922 0.0018694522535414395 0.004442250762745496 -0.00015276315734115553 -0.0015135415517428749 0.00016599570784480087 0.0024456230782697835
 0.00016730843973650976 0.0024454255403267375 -0.00015276315734115553 -0.0015135415517428749 0.001869251386856063 0.004442035429793709 0.9980061876603764 -0.01121077057858619
 -0.00015275690784534224 -0.001513540229437471 0.00016599570784480087 0.0024456230782697835 0.9980061876603764 -0.01121077057858619 0.0018694568728784254 0.004441998489955478
0.02501042100875 0.002041835490650782 0.005967004071031395 0.997781792990895 -0.014966255799217032 0.00022037955808906206 0.003262148488930103 -0.00019792359672463847 -0.0020216091036227473
 0.997781792990895 -0.014966255799217032 0.0020421750961357615 0.005966956106823896 -0.00019793462298072956 -0.002021610718045357 0.0002180475367419974 0.0032624578707121407
 0.00022037955808906206 0.003262148488930103 -0.00019793462298072956 -0.002021610718045357 0.0020418187361830654 0.00596667210650109 0.9977817888583472 -0.01496659012913358
 -0.00019792359672463847 -0.0020216091036227473 0.0002180475367419974 0.0032624578707121407 0.9977817888583472 -0.01496659012913358 0.00204218370323395 0.005966619870008471
0.03126302626094 0.0022271325773419084 0.007510015058721848 0.9975396083586783 -0.01873467158116661 0.00028143419225855484 0.004079768440977062 -0.00024956126196764417 -0.002531056314443228
 0.9975396083586783 -0.01873467158116661 0.002227662746576041 0.007509951714763234 -0.0002495783827166823 -0.002531058129089017 0.000277791533786672 0.0040802181509386965
 0.00028143419225855484 0.004079768440977062 -0.0002495783827166823 -0.002531058129089017 0.0022271067462912722 0.007509600657847293 0.9975396022543613 -0.01873508932711681
 -0.00024956126196764417 -0.002531056314443228 0.000277791533786672 0.0040802181509386965 0.9975396022543613 -0.01873508932711681 0.002227676575699956 0.007509531525213016
0.037515631513130004 0.002425430741548048 0.009070624856490904 0.9972793873794736 -0.022516173561754938 0.00035055681714927194 0.004898231056756511 -0.0003077594774401027 -0.003041753056953038
 0.9972793873794736 -0.022516173561754938 0.002426193619703869 0.009070544714291579 -0.0003077839969233971 -0.0030417549691396503 0.00034531155816088535 0.004898852900954614
 0.00035055681714927194 0.004898231056756511 -0.0003077839969233971 -0.0030417549691396503 0.0024253938754192662 0.009070128256027215 0.9972793789272903 -0.022516674717209965
 -0.0003077594774401027 -0.003041753056953038 0.00034531155816088535 0.004898852900954614 0.9972793789272903 -0.022516674717209965 0.0024262139146305384 0.00907004056859984
0.043768236765320004 0.0026370048208478577 0.010648323270647547 0.9970008778465456 -0.026310976910004627 0.00042783136089673556 0.0057174655155520625 -0.0003726062392353115 -0.003553582073103791
 0.9970008778465456 -0.026310976910004627 0.0026380425234647175 0.010648224884906727 -0.00037263944920264196 -0.003553583969391609 0.0004206908601899071 0.005718294660808887
 0.00042783136089673556 0.0057174655155520625 -0.00037263944920264196 -0.003553583969391609 0.0026369549595768394 0.010647744739114976 0.9970008666694161 -0.02631156147478078
 -0.0003726062392353115 -0.003553582073103791 0.0004206908601899071 0.005718294660808887 0.9970008666694161 -0.02631156147478078 0.002638070536227974 0.010647636780326401
0.050020842017509996 0.002862127172213503 0.012242701088262607 0.9967038255819747 -0.030119187044515404 0.0005133409549025617 0.0065373906391305615 -0.00044418807252936417 -0.00406643152350597
 0.9967038255819747 -0.030119187044515404 0.002863481796859169 0.012242582988229568 -0.00044423125299559123 -0.004066433279722411 0.0005040118644174103 0.006538465653947913
 0.0005133409549025617 0.0065373906391305615 -0.00044423125299559123 -0.004066433279722411 0.0028620623542289854 0.012242040916682255 0.9967038113007987 -0.030119855034334692
 -0.00044418807252936417 -0.00406643152350597 0.0005040118644174103 0.006538465653947913 0.9967038113007987 -0.030119855034334692 0.002863518787119588 0.012241910913025589
0.055454545454549996 0.0030689782704868144 0.013641537816366674 0.9964304208760524 -0.03343955403452837 0.0005944030902855804 0.007250422709377911 -0.0005119306746712216 -0.004512856943874375
 0.9964304208760524 -0.03343955403452837 0.003070642493202385 0.01364140137061215 -0.0005119835505928724 -0.00451285846921032 0.0005829332588399656 0.0072517453879624915
 0.0005944030902855804 0.007250422709377911 -0.0005119835505928724 -0.00451285846921032 0.0030688988608401115 0.013640806956361112 0.9964304035882429 -0.03344029454327381
 -0.0005119306746712216 -0.004512856943874375 0.0005829332588399656 0.0072517453879624915 0.9964304035882429 -0.03344029454327381 0.003070688314323754 0.013640656310930439
0.056273447269699996 0.0031010682619292125 0.01385340996972336 0.9963879752043615 -0.03394083967548517 0.0006071677634154109 0.007357917890138986 -0.0005225900635165466 -0.004580191986837601
 0.9963879752043615 -0.03394083967548517 0.00310278189983223 0.013853270660241359 -0.0005226444832444703 -0.004580193468112315 0.0005953560196358011 0.0073592807864577645
 0.0006071677634154109 0.007357917890138986 -0.0005226444832444703 -0.004580193468112315 0.003100986524663749 0.013852668478543903 0.9963879574384553 -0.03394159111550797
 -0.0005225900635165466 -0.004580191986837601 0.0005953560196358011 0.0073592807864577645 0.9963879574384553 -0.03394159111550797 0.0031028291352972527 0.013852514600095074
0.06252605252188 0.0033540969877810314 0.015480140414066992 0.9960530706313855 -0.03777592277582486 0.0007093928512251044 0.008178953022152723 -0.000607895855289378 -0.0050947548104233
 0.9960530706313855 -0.03777592277582486 0.0033562117344054297 0.015479978376238534 -0.0006079627722036889 -0.0050947558712233654 0.0006948036794040464 0.008180649297533107
 0.0007093928512251044 0.008178953022152723 -0.0006079627722036889 -0.0050947558712233654 0.0033539963682239723 0.015479317955166744 0.9960530489976691 -0.03777675769900457
 -0.000607895855289378 -0.0050947548104233 0.0006948036794040464 0.008180649297533107 0.9960530489976691 -0.03777675769900457 0.003356270490695843 0.015479138315817818
0.06877865777407 0.003621480855379983 0.017122608616198996 0.9956988554397207 -0.04162438966284246 0.0008200960721568686 0.009000397063820434 -0.0007001876229199346 -0.005610011129828189
 0.9956988554397207 -0.04162438966284246 0.00362403882098473 0.01712242230778984 -0.0007002682844089486 -0.0056100116139965964 0.0008024340001810883 0.009002475743694048
 0.0008200960721568686 0.009000397063820434 -0.0007002682844089486 -0.0056100116139965964 0.0036213593905047203 0.017121705571242887 0.9956988295524892 -0.04162530811187652
 -0.0007001876229199346 -0.005610011129828189 0.0008024340001810883 0.009002475743694048 0.9956988295524892 -0.04162530811187652 0.0036241103815869593 0.01712149822865107
0.07503126302626001 0.0039034860648870604 0.018780548132898044 0.9953250731385632 -0.045486167273859186 0.0009393559713756158 0.009822146943086793 -0.0007995460346915945 -0.006125851251597085
 0.9953250731385632 -0.045486167273859186 0.003906529384650703 0.01878033598852658 -0.0007996416778094621 -0.006125850992389146 0.0009183248502715285 0.009824660622998192
 0.0009393559713756158 0.009822146943086793 -0.0007996416778094621 -0.006125850992389146 0.0039033417925702697 0.018779564914936233 0.9953250426098652 -0.04548716930006536
 -0.0007995460346915945 -0.006125851251597085 0.0009183248502715285 0.009824660622998192 0.9953250426098652 -0.04548716930006536 0.003906615041671041 0.01877932787022197
0.08128386827845 0.004200377546846909 0.02045370434040149 0.9949314673955725 -0.049361161653867676 0.001067249694602508 0.01064409590673355 -0.0009060502053664848 -0.0066421642441368105
 0.9949314673955725 -0.049361161653867676 0.0042039483914044235 0.020453464771317424 -0.0009061620571021349 -0.006642163064247237 0.001042552724655159 0.010647100794385782
 0.001067249694602508 0.01064409590673355 -0.0009061620571021349 -0.006642163064247237 0.0042002085061950386 0.020452641392463486 0.9949314318340755 -0.04936224731879632
 -0.0009060502053664848 -0.0066421642441368105 0.001042552724655159 0.010647100794385782 0.9949314318340755 -0.04936224731879632 0.004204049444651745 0.020452372589609576
0.08753647353064001 0.004512418959498133 0.022141830597015476 0.9945177822266458 -0.053249261741437834 0.0012038529026318645 0.011466133810709723 -0.0010197776435438735 -0.007158837661323414
 0.9945177822266458 -0.053249261741437834 0.004516559545122485 0.022141561990638096 -0.0010199069209435045 -0.0071588353729275175 0.0011751926638071902 0.01146968976774406
 0.0012038529026318645 0.011466133810709723 -0.0010199069209435045 -0.0071588353729275175 0.004512223191366789 0.02214068839684049 0.9945177412377918 -0.053250431112491566
 -0.0010197776435438735 -0.007158837661323414 0.0011751926638071902 0.01146968976774406 0.9945177412377918 -0.053250431112491566 0.0045166773024630956 0.022140385721744666
0.09378907878283 0.004839872662234118 0.023844685506652204 0.9940837621653152 -0.05715034205751696 0.0013492396893844644 0.012288147332382841 -0.0011408041944959391 -0.007675757347934151
 0.9940837621653152 -0.05715034205751696 0.0048446252611497554 0.02384438622582421 -0.0011409521048446497 -0.007675753752713063 0.0013163181752061841 0.01229231791581402
 0.0013492396893844644 0.012288147332382841 -0.0011409521048446497 -0.007675753752713063 0.0048396482103053 0.02384346456167821 0.9940837153510047 -0.057151595213277964
 -0.0011408041944959391 -0.007675757347934151 0.0013163181752061841 0.01229231791581402 0.9940837153510047 -0.057151595213277964 0.004844761038565677 0.023843125841024285
0.100041684035 0.005182999671802883 0.02556203090807948 0.9936291524174473 -0.06106426467256852 0.0015034825018102132 0.013110020130581186 -0.0012692039801196861 -0.008192807300962977
 0.9936291524174473 -0.06106426467256852 0.005188406622491154 0.025561699289991528 -0.0012693717209925808 -0.00819280219014327 0.0014660011565443296 0.013114872633880394
 0.0015034825018102132 0.013110020130581186 -0.0012693717209925808 -0.00819280219014327 0.005182744582404529 0.02556073176212039 0.9936290993754362 -0.06106560169643968
 -0.0012692039801196861 -0.008192807300962977 0.0014660011565443296 0.013114872633880394 0.9936290993754362 -0.06106560169643968 0.00518856174384547 0.025560354761786457
0.1059090909091 0.005519473959500978 0.027186545731897865 0.9931835970404943 -0.06474861334374483 0.0016563405004788993 0.013881026418091818 -0.0013964638961680733 -0.008678017276743761
 0.9931835970404943 -0.06474861334374483 0.005525533524451381 0.027186182232317183 -0.0013966513265639287 -0.00867801054452595 0.0016143082498563956 0.013886583397564501
 0.0016563405004788993 0.013881026418091818 -0.0013966513265639287 -0.00867801054452595 0.00551918834689744 0.02718517372434525 0.9931835377847418 -0.06475002915451253
 -0.0013964638961680733 -0.008678017276743761 0.0016143082498563956 0.013886583397564501 0.9931835377847418 -0.06475002915451253 0.005525708009297651 0.0271847587149948
0.1062942892872 0.005542059603412844 0.02729363036626714 0.9931536990039038 -0.06499088067572034 0.0016666520616218396 0.013931632968603485 -0.0014050493362113903 -0.00870986957201059
 0.9931536990039038 -0.06499088067572034 0.005548163321004753 0.027293264721017407 -0.0014052380956369498 -0.00870986272638617 0.0016243118199869208 0.013937238462254612
 0.0016666520616218396 0.013931632968603485 -0.0014052380956369498 -0.00870986272638617 0.005541771926936104 0.027292253593576725 0.9931536393276089 -0.06499230166204559
 -0.0014050493362113903 -0.00870986957201059 0.0016243118199869208 0.013937238462254612 0.9931536393276089 -0.06499230166204559 0.0055483391182597095 0.027291836016894826
0.11254689453939999 0.0059173106039564945 0.029039248017336636 0.9926571488973217 -0.06893003129454123 0.0018388172878291012 0.014752863814599624 -0.001548410748057351 -0.009226824196118965
 0.9926571488973217 -0.06893003129454123 0.005924153590933007 0.029038846626222834 -0.0015486217045760995 -0.009226815386086393 0.0017913186172539223 0.014759297186248247
 0.0018388172878291012 0.014752863814599624 -0.0015486217045760995 -0.009226815386086393 0.005916988395296065 0.029037794226344837 0.9926570821758716 -0.06893153634513091
 -0.001548410748057351 -0.009226824196118965 0.0017913186172539223 0.014759297186248247 0.9926570821758716 -0.06893153634513091 0.005924351404131532 0.029037333711929236
0.11879949979160001 0.006309009276146462 0.03079864766754243 0.9921392501531993 -0.07288154876536887 0.0020200452202927474 0.015573587923711529 -0.0016993567842737342 -0.009743549143108382
 0.9921392501531993 -0.07288154876536887 0.006316634132767461 0.030798208780949885 -0.0016995911070544188 -0.00974353812868431 0.0019670881651576875 0.015580927917688284
 0.0020200452202927474 0.015573587923711529 -0.0016995911070544188 -0.00974353812868431 0.006308650595400028 0.030797117500417293 0.9921391759705463 -0.07288313799017025
 -0.0016993567842737342 -0.009743549143108382 0.0019670881651576875 0.015580927917688284 0.9921391759705463 -0.07288313799017025 0.006316855309738698 0.030796611619695786
0.1250521050438 0.006717410596561622 0.032571592084382234 0.9915997520366809 -0.07684525701587475 0.0022104009434253478 0.016393677909256377 -0.0018579540296770139 -0.010259920283903877
 0.9915997520366809 -0.07684525701587475 0.006725860031750854 0.03257111391938104 -0.0018582128784921134 -0.01025990681476833 0.0021516851716123263 0.016402007165548578
 0.0022104009434253478 0.016393677909256377 -0.0018582128784921134 -0.01025990681476833 0.006717013509481502 0.032569986218030235 0.9915996699716114 -0.07684693053221521
 -0.0018579540296770139 -0.010259920283903877 0.0021516851716123263 0.016402007165548578 0.9915996699716114 -0.07684693053221521 0.006726105928496894 0.032569432472385786
0.131304710296 0.007142767828577322 0.03435784242837034 0.9910384051470269 -0.08082097221205604 0.002409947510783255 0.017213003805604178 -0.0020242670168450464 -0.010775811369446416
 0.9910384051470269 -0.08082097221205604 0.007152084670531824 0.03435732316586717 -0.002024551542270306 -0.010775795184949102 0.0023451723616905915 0.017222408898208037
 0.002409947510783255 0.017213003805604178 -0.002024551542270306 -0.010775795184949102 0.007142330407847248 0.03435616157306985 0.9910383147729082 -0.08082273014605927
 -0.0020242670168450464 -0.010775811369446416 0.0023451723616905915 0.017222408898208037 0.9910383147729082 -0.08082273014605927 0.007152356650921578 0.034355557390755985
0.1375573155481 0.007485096853468574 0.0359221835308171 0.990555229470508 -0.0845734410322628 0.0025931349170166653 0.01800711870159191 -0.0021728273917257777 -0.011266739218628733
 0.990555229470508 -0.0845734410322628 0.007495327761324476 0.035921633046815234 -0.0021731394527063482 -0.011266720325107237 0.0025221551182085327 0.01801758205754679
 0.0025931349170166653 0.01800711870159191 -0.0021731394527063482 -0.011266720325107237 0.007484617927836141 0.035920428026657396 0.990555130409931 -0.08457528343690618
 -0.0021728273917257777 -0.011266739218628733 0.0025221551182085327 0.01801758205754679 0.990555130409931 -0.08457528343690618 0.007495626343411366 0.03591978315443201
0.1438099208003 0.007839358215411096 0.037478667188385564 0.9900552426063159 -0.0883168221690901 0.0027837473473298294 0.018798334715499628 -0.002327355404796521 -0.01175505674741134
 0.9900552426063159 -0.0883168221690901 0.007850546779617051 0.03747808431365197 -0.0023276962661184755 -0.01175503488683791 0.0027062898744714616 0.018809935043216465
 0.0027837473473298294 0.018798334715499628 -0.0023276962661184755 -0.01175503488683791 0.007838836003480811 0.03747683773165014 0.9900551344347387 -0.0883187491641455
 -0.002327355404796521 -0.01175505674741134 0.0027062898744714616 0.018809935043216465 0.9900551344347387 -0.0883187491641455 0.007850873184696022 0.03747615029617803
0.1500625260525 0.008205432611295796 0.03902717568549429 0.9895385675693346 -0.09205103562561569 0.0029817237869126196 0.019586580579522304 -0.002487792448094619 -0.012240697356844276
 0.9895385675693346 -0.09205103562561569 0.008217622561259203 0.03902655914832221 -0.0024881633741856844 -0.012240672260536949 0.0028975171065508867 0.019599399446845866
 0.0029817237869126196 0.019586580579522304 -0.0024881633741856844 -0.012240672260536949 0.008204865347131626 0.03902527299853044 0.9895384498579303 -0.09205304733562542
 -0.002487792448094619 -0.012240697356844276 0.0028975171065508867 0.019599399446845866 0.9895384498579303 -0.09205304733562542 0.008217978008143572 0.03902454099854564
0.15631513130469998 0.008583199951490943 0.040567594933364065 0.9890053279342832 -0.09577600142837503 0.0031870025397095388 0.020371786135011692 -0.0026540792274024993 -0.01272359580819807
