! Created with skrf 1.8.0 (http://scikit-rf.org).
# GHz S RI R 50.0 
!freq ReS11 ImS11 ReS12 ImS12 ReS13 ImS13
! ReS14 ImS14
! ReS21 ImS21 ReS22 ImS22 ReS23 ImS23
! ReS24 ImS24
! ReS31 ImS31 ReS32 ImS32 ReS33 ImS33
! ReS34 ImS34
! ReS41 ImS41 ReS42 ImS42 ReS43 ImS43
! ReS44 ImS44
!
0.0 0.001300556007705 0.0 0.9986994439696 0.0 4.970166242849e-05 0.0 -4.97016619407e-05 6.086698120798208e-21
 0.9986994439696 0.0 0.001300556007653 0.0 -4.970166193902e-05 6.086698120592468e-21 4.970166242825e-05 0.0
 4.970166242849e-05 0.0 -4.970166193902e-05 6.086698120592468e-21 0.001300556017596 0.0 0.9986994439795 0.0
 -4.97016619407e-05 6.086698120798208e-21 4.970166242825e-05 0.0 0.9986994439795 0.0 0.00130055601763 0.0
0.005 0.0013986728040418946 0.0010653951797247175 0.9985754111087041 -0.0027250365498441595 6.913900543262011e-05 0.0005415033895415382 -6.723345260925682e-05 -0.0003410692632616136
 0.9985754111087041 -0.0027250365498441595 0.0013986831397090188 0.0010653890965481156 -6.723282334278276e-05 -0.0003410687357381315 6.907732023558188e-05 0.0005415268107812951
 6.913900543262011e-05 0.0005415033895415382 -6.723282334278276e-05 -0.0003410687357381315 0.0013986736873862267 0.001065461884153577 0.9985754114431236 -0.0027249694826535684
 -6.723345260925682e-05 -0.0003410692632616136 6.907732023558188e-05 0.0005415268107812951 0.9985754114431236 -0.0027249694826535684 0.0013986829205911815 0.0010654565223390678
0.006252605252188 0.0014242278376208764 0.0013359552369240676 0.9985429304404693 -0.0034069892820237676 7.45953499764262e-05 0.0006771554076411356 -7.210069843493652e-05 -0.00042678630626622816
 0.9985429304404693 -0.0034069892820237676 0.0014242439946355607 0.001335947520630114 -7.209971957917331e-05 -0.00042678565471881226 7.449897084331903e-05 0.0006771858049330589
 7.45953499764262e-05 0.0006771554076411356 -7.209971957917331e-05 -0.00042678565471881226 0.001424229141831315 0.0013360386101313145 0.998542930886403 -0.0034069054486021563
 -7.210069843493652e-05 -0.00042678630626622816 7.449897084331903e-05 0.0006771858049330589 0.998542930886403 -0.0034069054486021563 0.0014242435747562595 0.0013360318049813096
0.01250521050438 0.0015577186403544583 0.002700121824496548 0.998372274091602 -0.006814939917933584 0.00010537480374063181 0.0013547462676406837 -9.927319969281236e-05 -0.0008557466671256011
 0.998372274091602 -0.006814939917933584 0.0015577831626603746 0.002700105257963892 -9.926934611735558e-05 -0.0008557454487003142 0.00010499042361458012 0.0013548190246321186
 0.00010537480374063181 0.0013547462676406837 -9.926934611735558e-05 -0.0008557454487003142 0.0015577233229501564 0.0027002882214716925 0.9983722753424957 -0.006814772514374594
 -9.927319969281236e-05 -0.0008557466671256011 0.00010499042361458012 0.0013548190246321186 0.9983722753424957 -0.006814772514374594 0.0015577809486892245 0.0027002735815327976
0.01875781575657 0.0017012831436054865 0.004083973142055801 0.9981872891923491 -0.010232182390061975 0.00014210539720993588 0.0020332414496455242 -0.00013129474884090105 -0.0012862944254722138
 0.9981872891923491 -0.010232182390061975 0.001701428140670149 0.004083946501851779 -0.00013128616060917818 -0.0012862927374923839 0.0001412418264124496 0.002033370576889885
 0.00014210539720993588 0.0020332414496455242 -0.00013128616060917818 -0.0012862927374923839 0.0017012932485031107 0.004084222358501881 0.998187291578573 -0.010231931485340223
 -0.00013129474884090105 -0.0012862944254722138 0.0001412418264124496 0.002033370576889885 0.998187291578573 -0.010231931485340223 0.00170142272440465 0.00408419879465502
0.02501042100875 0.0018551704116711353 0.005485612870236105 0.9979877837058402 -0.013660410426581735 0.00018485361715022124 0.0027126905696671626 -0.00016823910062618868 -0.00171825873877449
 0.9979877837058402 -0.013660410426581735 0.0018554279347509628 0.005485574855134914 -0.00016822394155194227 -0.0017182566932297575 0.00018331951874963468 0.0027128920421905286
 0.00018485361715022124 0.0027126905696671626 -0.00016822394155194227 -0.0017182566932297575 0.0018551879981461106 0.005485944695106052 0.9979877875734807 -0.013660076047664399
 -0.00016823910062618868 -0.00171825873877449 0.00018331951874963468 0.0027128920421905286 0.9979877875734807 -0.013660076047664399 0.0018554179160811363 0.005485911069314281
0.03126302626094 0.002019619007353823 0.006904084199135969 0.9977735545652375 -0.017100371766257873 0.00023368665953500662 0.0033930822605623364 -0.00021017830321243145 -0.002151526262144534
 0.9977735545652375 -0.017100371766257873 0.0020200210655618722 0.006904033432412275 -0.00021015475675745647 -0.0021515239859358675 0.00023129036474213357 0.003393374028728342
 0.00023368665953500662 0.0033930822605623364 -0.00021015475675745647 -0.0021515239859358675 0.002019646131165423 0.006904498385662186 0.997773560257088 -0.017099953926819192
 -0.00021017830321243145 -0.002151526262144534 0.00023129036474213357 0.003393374028728342 0.997773560257088 -0.017099953926819192 0.0020200050322943626 0.006904453513379961
0.037515631513130004 0.002194862516245832 0.00833877769000478 0.9975443933123984 -0.020552460246267907 0.00028867177338714925 0.0040743813862559155 -0.0002571832249442847 -0.0025860039206668083
 0.9975443933123984 -0.020552460246267907 0.0021954410868075553 0.00833871272052951 -0.00025714949199192547 -0.0025860015556597566 0.0002852211945276308 0.0040747833961948
 0.00028867177338714925 0.0040743813862559155 -0.00025714949199192547 -0.0025860015556597566 0.0021949012362597322 0.008339273970553854 0.9975444011754657 -0.020551958931423586
 -0.0002571832249442847 -0.0025860039206668083 0.0002852211945276308 0.0040747833961948 0.9975444011754657 -0.020551958931423586 0.002195417621430851 0.008339216622192835
0.043768236765320004 0.0023811317012652302 0.009789251121987433 0.9973000883682641 -0.02401689589817759 0.00034987596532892246 0.004756540351186103 -0.00030932374807293977 -0.003021607588059066
 0.9973000883682641 -0.02401689589817759 0.0023819187373218947 0.009789170424853574 -0.00030927804567561847 -0.003021605291079391 0.00034517855012820625 0.004757074568241186
 0.00034987596532892246 0.004756540351186103 -0.00030927804567561847 -0.003021605291079391 0.0023811840749936686 0.009789829191102793 0.9973000987498362 -0.024016311081048212
 -0.00030932374807293977 -0.003021607588059066 0.00034517855012820625 0.004757074568241186 0.9973000987498362 -0.024016311081048212 0.0023818864119509765 0.009789758093132265
0.050020842017509996 0.00257865550570063 0.011255155011281076 0.9970404261548502 -0.027493799369401228 0.00041736582561938866 0.005439503773871266 -0.0003666688498005823 -0.0034582574022717187
 0.9970404261548502 -0.027493799369401228 0.002579682942769398 0.01125505698831111 -0.00036660941024918364 -0.0034582553451093035 0.00041122853349037164 0.005440194207299055
 0.00041736582561938866 0.005439503773871266 -0.00036660941024918364 -0.0034582553451093035 0.002578723591228184 0.01125581453157593 0.9970404394052855 -0.02749313100482697
 -0.0003666688498005823 -0.0034582574022717187 0.00041122853349037164 0.005440194207299055 0.9970404394052855 -0.02749313100482697 0.002579640321489583 0.01125572836733325
0.055454545454549996 0.0027596266386563533 0.012541372533772932 0.9968021329461368 -0.0305255052621871 0.00048117260792742 0.006033625832725762 -0.0004207831470445262 -0.003838508398754387
 0.9968021329461368 -0.0305255052621871 0.0027608889174419696 0.012541258099434892 -0.0004207103452550988 -0.003838506701111461 0.0004736268592063552 0.006034473127811795
 0.00048117260792742 0.006033625832725762 -0.0004207103452550988 -0.003838506701111461 0.00275971004938298 0.012542102534980415 0.9968021489763338 -0.03052476424492055
 -0.0004207831470445262 -0.003838508398754387 0.0004736268592063552 0.006034473127811795 0.9968021489763338 -0.03052476424492055 0.0027608361758516098 0.012542002175426762
0.056273447269699996 0.0027876615831780418 0.012736196061379025 0.9967651917461288 -0.030983228413487714 0.0004912074104487495 0.006123210776503682 -0.00042928663028615467 -0.003895875466385039
 0.9967651917461288 -0.030983228413487714 0.00278896134462069 0.012736079041293112 -0.00042921170049091515 -0.003895873835760166 0.0004834367018993944 0.006124083504787273
 0.0004912074104487495 0.006123210776503682 -0.00042921170049091515 -0.003895873835760166 0.0027877474379455736 0.012736936657905502 0.9967652082181931 -0.030982476443129695
 -0.00042928663028615467 -0.003895875466385039 0.0004834367018993944 0.006124083504787273 0.9967652082181931 -0.030982476443129695 0.002788906982472511 0.01273683406831359
0.06252605252188 0.0030083765912438513 0.014232117067727656 0.9964741692846896 -0.03448519792630097 0.0005714661524983863 0.006807596236507606 -0.0004972443134230643 -0.004334384589022536
 0.9964741692846896 -0.03448519792630097 0.003009980594084338 0.01423197930628859 -0.0004971521544721629 -0.004334383586566057 0.0005618679872348739 0.00680867943300889
 0.0005714661524983863 0.006807596236507606 -0.0004971521544721629 -0.004334383586566057 0.0030084822716028078 0.014232938330320955 0.9964741893346617 -0.03448436227607169
 -0.0004972443134230643 -0.004334384589022536 0.0005618679872348739 0.00680867943300889 0.9964741893346617 -0.03448436227607169 0.0030099130366309564 0.014232817914394824
0.06877865777407 0.003241026357041265 0.01574268494096669 0.9961671422735124 -0.03799969186524846 0.0006582067857323242 0.007492591535461542 -0.0005706082335978762 -0.004773707529143924
 0.9961671422735124 -0.03799969186524846 0.0032429665164184873 0.015742524620917336 -0.0005704971203955142 -0.0047737073713636875 0.0006465866267125613 0.007493915494188426
 0.0006582067857323242 0.007492591535461542 -0.0005704971203955142 -0.0047737073713636875 0.00324115391849156 0.015743586418738895 0.9961671662617427 -0.037998772450314536
 -0.0005706082335978762 -0.004773707529143924 0.0006465866267125613 0.007493915494188426 0.9961671662617427 -0.037998772450314536 0.003242884300491025 0.015743446734053722
0.07503126302626001 0.0034858359704814886 0.01726768310041359 0.9958438937973232 -0.04152667079955774 0.0007514932796403841 0.008178125030563603 -0.0006494438124540016 -0.005213766520082362
 0.9958438937973232 -0.04152667079955774 0.0034881442049809796 0.017267498331346404 -0.000649312033450201 -0.005213767438341726 0.0007376561017656355 0.00817972219200396
 0.0007514932796403841 0.008178125030563603 -0.000649312033450201 -0.005213767438341726 0.0034859874656158686 0.017268664305167568 0.9958439220874706 -0.041525667520537365
 -0.0006494438124540016 -0.005213766520082362 0.0007376561017656355 0.00817972219200396 0.9958439220874706 -0.041525667520537365 0.003488045856970454 0.01726850386814679
0.08128386827845 0.003743029829604329 0.018806906427517377 0.9955042066981692 -0.04506607690247377 0.0008513887789565141 0.008864122368766178 -0.0007338155297411098 -0.005654482952894092
 0.9955042066981692 -0.04506607690247377 0.0037457380657996866 0.018806695245572203 -0.0007336613867486603 -0.005654485193376941 0.0008351390809903607 0.008866027345671941
 0.0008513887789565141 0.008864122368766178 -0.0007336613867486603 -0.005654485193376941 0.003743207308863888 0.01880796683057642 0.9955042396587029 -0.04506498964828676
 -0.0007338155297411098 -0.005654482952894092 0.0008351390809903607 0.008866027345671941 0.9955042396587029 -0.04506498964828676 0.0037456221025445016 0.01880778411659766
0.08753647353064001 0.004012831654595185 0.02036015775523441 0.9951478637224425 -0.04861783740954566 0.0009579555468812447 0.009550506704852024 -0.0008237868897336588 -0.006095777157775062
 0.9951478637224425 -0.04861783740954566 0.004015971831747595 0.020359918122679024 -0.0008236086977230718 -0.006095780981459689 0.0009390973663069927 0.009552756307950785
 0.0009579555468812447 0.009550506704852024 -0.0008236086977230718 -0.006095780981459689 0.004013037164648139 0.020361296791753965 0.9951479017264592 -0.04861666605275503
 -0.0008237868897336588 -0.006095777157775062 0.0009390973663069927 0.009552756307950785 0.9951479017264592 -0.04861666605275503 0.0040158367597379245 0.020361090235218465
0.09378907878283 0.004295464481254689 0.02192724537912905 0.9947746476495817 -0.05218186705738486 0.0010712549103544097 0.010237198856553624 -0.0009194203848110097 -0.006537568250560475
 0.9947746476495817 -0.05218186705738486 0.004299068556219148 0.021926975183813154 -0.0009192164718399926 -0.006537573933188728 0.001049591840449104 0.010239832120140012
 0.0010712549103544097 0.010237198856553624 -0.0009192164718399926 -0.006537573933188728 0.004295700065077984 0.02192846243986915 0.9947746910754521 -0.05218061146204373
 -0.0009194203848110097 -0.006537568250560475 0.001049591840449104 0.010239832120140012 0.9947746910754521 -0.05218061146204373 0.004298912871584387 0.021928230434091655
0.100041684035 0.004591150639508657 0.02350798121519667 0.9943843414073564 -0.05575806987787848 0.0011913472072149196 0.010924117419624667 -0.0010207774563816539 -0.00697977402148402
 0.9943843414073564 -0.05575806987787848 0.004595250591223084 0.023507678269873215 -0.001020546163458219 -0.006979781853528189 0.0011666824160437921 0.010927175626965858
 0.0011913472072149196 0.010924117419624667 -0.001020546163458219 -0.006979781853528189 0.0045914183354255796 0.023509275652599533 0.9943843906394269 -0.05575672989321865
 -0.0010207774563816539 -0.00697977402148402 0.0011666824160437921 0.010927175626965858 0.9943843906394269 -0.05575672989321865 0.004595072779543838 0.023509016549559482
0.1059090909091 0.00488069000024866 0.02500358146448745 0.9940023439338794 -0.05912493457406786 0.0013102720230086088 0.011568849167427436 -0.001121149621010074 -0.00739503991346727
 0.9940023439338794 -0.05912493457406786 0.004885284387996643 0.025003245729844376 -0.0011208911375238724 -0.00739505003978993 0.0012826110577600761 0.011572345711628825
 0.0013102720230086088 0.011568849167427436 -0.0011208911375238724 -0.00739505003978993 0.00488098967872255 0.02500494788681879 0.994002398968894 -0.05912351525013517
 -0.001121149621010074 -0.00739503991346727 0.0012826110577600761 0.011572345711628825 0.994002398968894 -0.05912351525013517 0.004885084425284569 0.025004661819813763
0.1062942892872 0.004900111719979993 0.025102179418195373 0.9939767281789175 -0.05934634053457592 0.0013182917341405108 0.01161117885714897 -0.0011279184540805007 -0.007422310851936441
 0.9939767281789175 -0.05934634053457592 0.0049047395541911756 0.025101841459678136 -0.001127658135069928 -0.0074223211385704155 0.0012904279852436783 0.011614705565727364
 0.0013182917341405108 0.01161117885714897 -0.001127658135069928 -0.0074223211385704155 0.004900413560638892 0.025103550544555892 0.993976783607056 -0.05934491599649174
 -0.0011279184540805007 -0.007422310851936441 0.0012904279852436783 0.011614705565727364 0.993976783607056 -0.05934491599649174 0.004904538090044968 0.025103262654465785
0.11254689453939999 0.0052225685321923 0.026709655325906547 0.9935515915017397 -0.0629465653353112 0.0014521466952584945 0.012298297567286 -0.00124090259348575 -0.007865093655110502
 0.9935515915017397 -0.0629465653353112 0.005227756286218977 0.026709280014141166 -0.0012406116151006527 -0.007865106716177454 0.001420886369804849 0.012302338633850548
 0.0014521466952584945 0.012298297567286 -0.0012406116151006527 -0.007865106716177454 0.005222906544487857 0.026711102411450242 0.9935516535226493 -0.06294505606808538
 -0.00124090259348575 -0.007865093655110502 0.001420886369804849 0.012302338633850548 0.9935516535226493 -0.06294505606808538 0.005227529633196594 0.02671078400226597
0.11879949979160001 0.005558741056646623 0.028330224630549277 0.9931087153642842 -0.06655862302069387 0.0015929691510609672 0.012985385940017963 -0.0013597879127584549 -0.008308035830102164
 0.9931087153642842 -0.06655862302069387 0.005564520804058611 0.028329809547478206 -0.0013594646544785086 -0.0083080520000797 0.0015581142713694627 0.012989989545322702
 0.0015929691510609672 0.012985385940017963 -0.0013594646544785086 -0.0083080520000797 0.005559117260432565 0.028331746904487413 0.9931087843814878 -0.06655702883562833
 -0.0013597879127584549 -0.008308035830102164 0.0015581142713694627 0.012989989545322702 0.9931087843814878 -0.06655702883562833 0.005564267414291367 0.028331396201221423
0.1250521050438 0.005908848390932366 0.029963702727602525 0.9926478842975432 -0.07018238537775123 0.001740814967823667 0.01367235440286998 -0.0014846312280071754 -0.008751049229441766
 0.9926478842975432 -0.07018238537775123 0.005915252246428416 0.02996324537588706 -0.0014842740820810816 -0.0087510688574094 0.0017021672220297586 0.01367757107618977
 0.001740814967823667 0.01367235440286998 -0.0014842740820810816 -0.0087510688574094 0.005909264798605845 0.029965299376572576 0.9926479607220045 -0.07018070607454073
 -0.0014846312280071754 -0.008751049229441766 0.0017021672220297586 0.01367757107618977 0.9926479607220045 -0.07018070607454073 0.0059149705604386 0.029964914560434257
0.131304710296 0.006273108691502398 0.03160990418538185 0.992168883465324 -0.07381771773561994 0.001895738766872797 0.014359111461517818 -0.0016154880880959312 -0.009194044134223244
 0.992168883465324 -0.07381771773561994 0.006280168815596893 0.031609401987040556 -0.0016150954594728092 -0.009194067583832798 0.0018530995347837244 0.014364994104926195
 0.001895738766872797 0.014359111461517818 -0.0016150954594728092 -0.009194067583832798 0.006273567307090127 0.03161157435523913 0.9921689677155948 -0.0738159531003582
 -0.0016154880880959312 -0.009194044134223244 0.0018530995347837244 0.014364994104926195 0.9921689677155948 -0.0738159531003582 0.006279857262238605 0.031611153562590824
0.1375573155481 0.006562448366817024 0.033053794646908774 0.9917608144887197 -0.07724956634748426 0.0020367984015845367 0.0150235827536777 -0.0017314703536394792 -0.009614923148521833
 0.9917608144887197 -0.07724956634748426 0.0065701984121478915 0.03305325524533845 -0.0017310397664069453 -0.009614950393252565 0.0019900702312410506 0.015030117443947517
 0.0020367984015845367 0.0150235827536777 -0.0017310397664069453 -0.009614950393252565 0.006562950535065348 0.033055537802468275 0.9917609069205267 -0.07724771625993279
 -0.0017314703536394792 -0.009614923148521833 0.0019900702312410506 0.015030117443947517 0.9917609069205267 -0.07724771625993279 0.0065698561903190875 0.03305508889870179
0.1438099208003 0.006861767145965806 0.03449102573707493 0.991338760948001 -0.08067367037524234 0.002183561998306596 0.015685901119786967 -0.0018521037740735502 -0.010033844260138303
 0.991338760948001 -0.08067367037524234 0.00687023954698693 0.03449044719609088 -0.0018516334927840279 -0.01003387565501773 0.0021325641511684857 0.015693135679520555
 0.002183561998306596 0.015685901119786967 -0.0018516334927840279 -0.01003387565501773 0.00686231473952265 0.034492841020715904 0.9913388619784109 -0.08067173462521422
 -0.0018521037740735502 -0.010033844260138303 0.0021325641511684857 0.015693135679520555 0.9913388619784109 -0.08067173462521422 0.006869865208130557 0.03449236275101281
0.1500625260525 0.007170971612844793 0.0359215054962027 0.9909028193905817 -0.08408997336839645 0.002335986269963756 0.016346016753788932 -0.0019773465894464253 -0.010450760218705614
 0.9909028193905817 -0.08408997336839645 0.0071801988534667596 0.035920885774091325 -0.0019768348802313112 -0.010450796133093548 0.002280538892601776 0.016354000737536928
 0.002335986269963756 0.016346016753788932 -0.0019768348802313112 -0.010450796133093548 0.007171566488391149 0.035923392014548756 0.990902929443153 -0.08408795173965883
 -0.0019773465894464253 -0.010450760218705614 0.002280538892601776 0.016354000737536928 0.990902929443153 -0.08408795173965883 0.00717979094696329 0.03592288304408279
0.15631513130469998 0.007489967830072022 0.0373451448959302 0.9904530866972036 -0.08749841853561605 0.0024940275020168567 0.017003880565188055 -0.0021071566026889354 -0.010865624684055782
