! Created with skrf 1.8.0 (http://scikit-rf.org).
# GHz S RI R 50.0 
!freq ReS11 ImS11 ReS12 ImS12 ReS13 ImS13
! ReS14 ImS14
! ReS21 ImS21 ReS22 ImS22 ReS23 ImS23
! ReS24 ImS24
! ReS31 ImS31 ReS32 ImS32 ReS33 ImS33
! ReS34 ImS34
! ReS41 ImS41 ReS42 ImS42 ReS43 ImS43
! ReS44 ImS44
!
0.0 0.00145147745502 0.0 0.9985485225248 0.0 5.56579344493e-05 0.0 -5.565793495502e-05 6.816131188981683e-21
 0.9985485225248 0.0 0.001451477454985 0.0 -5.565793495379e-05 6.816131188831051e-21 5.565793444921e-05 0.0
 5.56579344493e-05 0.0 -5.565793495379e-05 6.816131188831051e-21 0.001451477464665 0.0 0.9985485225344 0.0
 -5.565793495502e-05 6.816131188981683e-21 5.565793444921e-05 0.0 0.9985485225344 0.0 0.0014514774647 0.0
0.005 0.0015613726659800314 0.0011909235184260174 0.9984095414854084 -0.003040539365349092 7.735897784925162e-05 0.0005936464060086813 -7.524724779771501e-05 -0.00037609423899871377
 0.9984095414854084 -0.003040539365349092 0.0015613914111497391 0.0011909126235325831 -7.524880015928059e-05 -0.00037609546600347735 7.724285983886745e-05 0.0005936906750600112
 7.735897784925162e-05 0.0005936464060086813 -7.524880015928059e-05 -0.00037609546600347735 0.0015613713317498606 0.0011908570674497771 0.9984095411298607 -0.00304060643231584
 -7.524724779771501e-05 -0.00037609423899871377 7.724285983886745e-05 0.0005936906750600112 0.9984095411298607 -0.00304060643231584 0.0015613920413943751 0.0011908449471731719
0.006252605252188 0.0015901166517463053 0.0014933345394977768 0.9983729727162812 -0.0038014282900134563 8.35209902653839e-05 0.0007423591015414141 -8.073821112363839e-05 -0.0004706038572746382
 0.9983729727162812 -0.0038014282900134563 0.0015901459529863065 0.0014933206675455883 -8.07406264767609e-05 -0.00047060537105541683 8.333956655990157e-05 0.0007424165556781007
 8.35209902653839e-05 0.0007423591015414141 -8.07406264767609e-05 -0.00047060537105541683 0.0015901146463023058 0.0014932515000920972 0.9983729722409315 -0.0038015121073830403
 -8.073821112363839e-05 -0.0004706038572746382 8.333956655990157e-05 0.0007424165556781007 0.9983729722409315 -0.0038015121073830403 0.0015901470191282733 0.001493236086865564
0.01250521050438 0.0017409762225881324 0.003017942643519497 0.9981798351378849 -0.007603718232564832 0.00011865835733917243 0.0014851586371576206 -0.00011167939418264133 -0.0009435179372012052
 0.9981798351378849 -0.007603718232564832 0.0017410932118602951 0.0030179123445740973 -0.00011168890987757875 -0.0009435207470019346 0.00011793488644583927 0.0014852963176337803
 0.00011865835733917243 0.0014851586371576206 -0.00011168890987757875 -0.0009435207470019346 0.0017409687781601126 0.0030177768987481577 0.9981798338064023 -0.007603885643499003
 -0.00011167939418264133 -0.0009435179372012052 0.00011793488644583927 0.0014852963176337803 0.9981798338064023 -0.007603885643499003 0.0017410980447010052 0.003017743403413574
0.01875781575657 0.0019043702892595912 0.0045642896786507675 0.9979688806301749 -0.011416136538914146 0.00016114889453113873 0.0022288818754806748 -0.00014857304999402752 -0.0014180982492702236
 0.9979688806301749 -0.011416136538914146 0.0019046331483635244 0.004564240220750588 -0.0001485942663859106 -0.0014181020983737806 0.0001595237030652209 0.0022291268321298604
 0.00016114889453113873 0.0022288818754806748 -0.0001485942663859106 -0.0014181020983737806 0.0019043539750743827 0.004564041496412587 0.997968878056811 -0.011416387466323038
 -0.00014857304999402752 -0.0014180982492702236 0.0001595237030652209 0.0022291268321298604 0.997968878056811 -0.011416387466323038 0.0019046444458759903 0.0045639870190062465
0.02501042100875 0.002080604499053046 0.006130235495428857 0.9977398713840693 -0.015240546561410592 0.00021107290541511045 0.0029735629979743662 -0.00019150814842279338 -0.0018941452629671097
 0.9977398713840693 -0.015240546561410592 0.002081071277998493 0.0061301639878406115 -0.0001915456098260841 -0.0018941498509494632 0.0002081861742059969 0.002973946395729584
 0.00021107290541511045 0.0029735629979743662 -0.0001915456098260841 -0.0018941498509494632 0.0020805758903410815 0.006129905154927353 0.9977398671836014 -0.01524088099639129
 -0.00019150814842279338 -0.0018941452629671097 0.0002081861742059969 0.002973946395729584 0.9977398671836014 -0.01524088099639129 0.0020810917463826508 0.00612982658509399
0.03126302626094 0.0022699718198675636 0.007714686973303455 0.9974925569049778 -0.019077755722241192 0.0002685113185296351 0.0037191704483976237 -0.00024057139537907797 -0.002371520472569417
 0.9974925569049778 -0.019077755722241192 0.0022707004671188385 0.0077145903701994105 -0.00024062959966183952 -0.0023715254547226525 0.00026400273821416606 0.0037197275896004643
 0.0002685113185296351 0.0037191704483976237 -0.00024062959966183952 -0.0023715254547226525 0.002269927493620494 0.007714274808897332 0.997492550689164 -0.019078173680604358
 -0.00024057139537907797 -0.002371520472569417 0.00026400273821416606 0.0037197275896004643 0.997492550689164 -0.019078173680604358 0.0022707328191924753 0.007714168829347164
0.037515631513130004 0.0024727590036187934 0.009316937617502869 0.997226680649249 -0.022928175857712094 0.00033354487933573494 0.0044656467458304575 -0.0002958478308025505 -0.002850106571574994
 0.997226680649249 -0.022928175857712094 0.002473807386030435 0.009316812719955932 -0.0002959312343598852 -0.0028501115587560924 0.0003270534912022978 0.004466417111543517
 0.00033354487933573494 0.0044656467458304575 -0.0002959312343598852 -0.0028501115587560924 0.0024726955402283456 0.009316444021629731 0.9972266720270756 -0.022928677377629877
 -0.0002958478308025505 -0.002850106571574994 0.0003270534912022978 0.004466417111543517 0.9972266720270756 -0.022928677377629877 0.002473854343588372 0.009316307109541658
0.043768236765320004 0.0026892490933162305 0.010936466570472361 0.9969419827065561 -0.026792024139318797 0.0004062537734308123 0.005212920593488049 -0.00035742104586111923 -0.0033297953362560317
 0.9969419827065561 -0.026792024139318797 0.002690675011467494 0.010936310027727932 -0.00035753406656053075 -0.0033297998948373445 0.0003974178895609674 0.005213947890800151
 0.0004062537734308123 0.005212920593488049 -0.00035753406656053075 -0.0033297998948373445 0.00268916307646965 0.010935891986053981 0.9969419712833911 -0.026792609289481704
 -0.00035742104586111923 -0.0033297953362560317 0.0003974178895609674 0.005213947890800151 0.9969419712833911 -0.026792609289481704 0.0026907393058458458 0.010935720413725215
0.050020842017509996 0.0029197225889228073 0.012572855555044733 0.9966382011459278 -0.030669406060959185 0.00048671740081193763 0.005960911878250984 -0.0004253732657652948 -0.003810482621094752
 0.9966382011459278 -0.030669406060959185 0.0029215837903958757 0.012572663865405963 -0.0004255202848331546 -0.003810486272969899 0.0004751745660976146 0.005962244090089823
 0.00048671740081193763 0.005960911878250984 -0.0004255202848331546 -0.003810486272969899 0.002919610605807254 0.012572200489637099 0.9966381865227013 -0.030670074927067765
 -0.0004253732657652948 -0.003810482621094752 0.0004751745660976146 0.005962244090089823 0.9966381865227013 -0.030670074927067765 0.002921668163081185 0.01257199032454793
0.055454545454549996 0.0031315836629286814 0.014008341625355792 0.9963585031672193 -0.034049987547549086 0.0005630014839846864 0.006611454584882011 -0.0004896691836406367 -0.004228945721770484
 0.9963585031672193 -0.034049987547549086 0.003133870004874182 0.014008116431350049 -0.0004898492789883019 -0.004228948162879985 0.0005488112633611436 0.006613094103878631
 0.0005630014839846864 0.006611454584882011 -0.0004898492789883019 -0.004228948162879985 0.0031314463461044003 0.014007617078068302 0.99635848543504 -0.034050729252486624
 -0.0004896691836406367 -0.004228945721770484 0.0005488112633611436 0.006613094103878631 0.99635848543504 -0.034050729252486624 0.003133974060808331 0.014007370021792833
0.056273447269699996 0.0031644580506032813 0.014225748105874956 0.9963150728019742 -0.034560356138170385 0.0005750142209150137 0.006709534120897458 -0.0004997853682739779 -0.004292065906119438
 0.9963150728019742 -0.034560356138170385 0.003166812242109013 0.014225517617219706 -0.0004999707316618976 -0.004292068128723847 0.0005604012001994596 0.0067112235570277005
 0.0005750142209150137 0.006709534120897458 -0.0004999707316618976 -0.004292068128723847 0.0031643166928453565 0.014225013126331901 0.9963150545746566 -0.03456110882890059
 -0.0004997853682739779 -0.004292065906119438 0.0005604012001994596 0.0067112235570277005 0.9963150545746566 -0.03456110882890059 0.0031669194451666677 0.01422476023094711
0.06252605252188 0.003423732427576006 0.015894827151655976 0.9959723337901987 -0.03846486025839801 0.000671221629118665 0.0074586958242176616 -0.000580736873291554 -0.004774442949155718
 0.9959723337901987 -0.03846486025839801 0.0034266372861826095 0.01589455406163077 -0.0005809648925328453 -0.004774443175494523 0.0006531744111178037 0.007460799172790316
 0.000671221629118665 0.0074586958242176616 -0.0005809648925328453 -0.004774443175494523 0.0034235582920499217 0.01589401288944354 0.9959723115490835 -0.0384656969006075
 -0.000580736873291554 -0.004774442949155718 0.0006531744111178037 0.007460799172790316 0.9959723115490835 -0.0384656969006075 0.0034267700833728564 0.015893712920631818
0.06877865777407 0.003697821236408655 0.01757980165670139 0.9956097198755895 -0.04238286897435487 0.0007754158535404187 0.008208301276411426 -0.0006683059130492709 -0.0052575109858065535
 0.9956097198755895 -0.04238286897435487 0.003701334420398878 0.017579482012659367 -0.0006685808659101792 -0.005257508604499836 0.0007535696663456019 0.008210879655716019
 0.0007754158535404187 0.008208301276411426 -0.0006685808659101792 -0.005257508604499836 0.003697610925668494 0.017578908804010123 0.995609693204675 -0.042383789717630946
 -0.0006683059130492709 -0.0052575109858065535 0.0007535696663456019 0.008210879655716019 0.995609693204675 -0.042383789717630946 0.0037014955872951625 0.017578557212171053
0.07503126302626001 0.003986998650193008 0.019280398140314323 0.9952269667550763 -0.046314305922476255 0.0008876718619914494 0.008958251061426161 -0.0007625691920692988 -0.005741166225672379
 0.9952269667550763 -0.046314305922476255 0.0039911778097834385 0.01928002783894698 -0.0007628953229997421 -0.00574116058099485 0.0008616611972414273 0.008961370071614988
 0.0008876718619914494 0.008958251061426161 -0.0007628953229997421 -0.00574116058099485 0.003986748774043656 0.019279427454159618 0.9952269352315339 -0.04631531093556471
 -0.0007625691920692988 -0.005741166225672379 0.0008616611972414273 0.008961370071614988 0.9952269352315339 -0.04631531093556471 0.003991370134973656 0.019279019482002478
0.08128386827845 0.004291537533352152 0.02099635504023106 0.9948238102885761 -0.050259073400818324 0.0010080632760952415 0.00970844240241107 -0.0008636019393733704 -0.006225303518788712
 0.9948238102885761 -0.050259073400818324 0.004296440321184899 0.020995929826825226 -0.0008639834598035522 -0.006225293910722465 0.0009775219201196316 0.009712172177040334
 0.0010080632760952415 0.00970844240241107 -0.0008639834598035522 -0.006225293910722465 0.004291244708772 0.020995307344032564 0.9948237734814643 -0.050260162870547354
 -0.0008636019393733704 -0.006225303518788712 0.0009775219201196316 0.009712172177040334 0.9948237734814643 -0.050260162870547354 0.004296666605915734 0.020994838025107782
0.08753647353064001 0.004611709437287546 0.022727418813796432 0.9943999866948752 -0.05421705621271346 0.0011366622899629795 0.010458769399372741 -0.0009714778556262967 -0.006709816131326141
 0.9943999866948752 -0.05421705621271346 0.004617393518834735 0.02272693428126501 -0.0009719189441641758 -0.006709801815610596 0.0011012233600984859 0.01046318465664793
 0.0011366622899629795 0.010458769399372741 -0.0009719189441641758 -0.006709801815610596 0.004611370290424091 0.022726294996103933 0.994399944165619 -0.05421823034574035
 -0.0009714778556262967 -0.006709816131326141 0.0011012233600984859 0.01046318465664793 0.994399944165619 -0.05421823034574035 0.004617656578582355 0.02272575915299348
0.09378907878283 0.0049477845732490726 0.02447334115054313 0.9939552327270134 -0.05818812440295301 0.0012735395913243044 0.011209123206232482 -0.0010862690568661769 -0.007194595585456701
 0.9939552327270134 -0.05818812440295301 0.004954307637195021 0.024472792738091585 -0.001086773859400134 -0.007194575773647709 0.0012328355768073964 0.011214303299907854
 0.0012735395913243044 0.011209123206232482 -0.001086773859400134 -0.007194575773647709 0.004947395739375705 0.024472142167245466 0.9939551840272453 -0.05818938342407732
 -0.0010862690568661769 -0.007194595585456701 0.0012328355768073964 0.011214303299907854 0.9939551840272453 -0.05818938342407732 0.00495461030123783 0.024471534409413704
0.100041684035 0.005300031764556033 0.02623387692837606 0.9934892858307063 -0.06217213525443325 0.0014187642849101956 0.011959392159194206 -0.0012080460150733173 -0.007679531551645257
 0.9934892858307063 -0.06217213525443325 0.005307451533364188 0.0262332599198358 -0.0012086186448063262 -0.007679505411180411 0.001372427091775688 0.011965421128904322
 0.0014187642849101956 0.011959392159194206 -0.0012086186448063262 -0.007679505411180411 0.005299589890069647 0.026232603798433 0.9934892305030459 -0.06217347941123159
 -0.0012080460150733173 -0.007679531551645257 0.001372427091775688 0.011965421128904322 0.9934892305030459 -0.06217347941123159 0.005307796646348485 0.026231918519784583
0.1059090909091 0.005645524895075347 0.02789902688915274 0.993032536210926 -0.06592234106914956 0.00156269422059387 0.012663260972449866 -0.001328735522703872 -0.008134634891984148
 0.993032536210926 -0.06592234106914956 0.005653838663655782 0.027898341080999624 -0.0013293755128875975 -0.008134602016296335 0.0015107356322621112 0.012670167173382848
 0.00156269422059387 0.012663260972449866 -0.0013293755128875975 -0.008134602016296335 0.005645030208012718 0.027897685170973723 0.9930324742381192 -0.06592376535494805
 -0.001328735522703872 -0.008134634891984148 0.0015107356322621112 0.012670167173382848 0.9930324742381192 -0.06592376535494805 0.005654226211117467 0.027896921854100355
0.1062942892872 0.005668718386462914 0.028008782672084752 0.9930018842928621 -0.06616893478666538 0.0015724038171142536 0.012709461882152618 -0.0013368774967100672 -0.008164511767632311
 0.9930018842928621 -0.06616893478666538 0.005677092626970479 0.028008092193911746 -0.0013375220341811358 -0.008164478421894246 0.0015200648163597016 0.012716428503313384
 0.0015724038171142536 0.012709461882152618 -0.0013375220341811358 -0.008164478421894246 0.005668220129537719 0.028007436485112464 0.9930018218692844 -0.06617036434230236
 -0.0013368774967100672 -0.008164511767632311 0.0015200648163597016 0.012716428503313384 0.9930018218692844 -0.06617036434230236 0.0056774830487444795 0.028006667861188977
0.11254689453939999 0.006054110295661312 0.02979781538468805 0.9924927673827227 -0.07017835888602576 0.0017345239013896382 0.013459215369338954 -0.0014728304997926086 -0.00864942198411209
 0.9924927673827227 -0.07017835888602576 0.006063496829280856 0.02979704640364986 -0.0014735509927608387 -0.008649380512511746 0.0016758139800551936 0.013467213202402665
 0.0017345239013896382 0.013459215369338954 -0.0014735509927608387 -0.008649380512511746 0.00605355232699945 0.029796397296584985 0.9924926973838261 -0.07017987412396846
 -0.0014728304997926086 -0.00864942198411209 0.0016758139800551936 0.013467213202402665 0.9924926973838261 -0.07017987412396846 0.006063935435526324 0.02979553928139935
0.11879949979160001 0.006456471750971018 0.031600731628758184 0.9919616754870788 -0.07420023419049157 0.0019051884443371152 0.01420853305568175 -0.0016159701893757382 -0.009134145926663765
 0.9919616754870788 -0.07420023419049157 0.0064669284646119785 0.03159987894917277 -0.0016167706527507922 -0.009134095364710574 0.001839738059335568 0.014217660494768783
 0.0019051884443371152 0.01420853305568175 -0.0016167706527507922 -0.009134095364710574 0.006455850755463256 0.031599242863905704 0.9919615974220491 -0.07420183541261294
 -0.0016159701893757382 -0.009134145926663765 0.001839738059335568 0.014217660494768783 0.9919615974220491 -0.07420183541261294 0.006467418147775439 0.0315982891864547
0.1250521050438 0.006876065328049981 0.03341728680198797 0.9914083502422193 -0.07823437878486701 0.0020844594722556117 0.01495729287793141 -0.001766359831899892 -0.009618565270973298
 0.9914083502422193 -0.07823437878486701 0.0068876501849677975 0.033416345062622456 -0.0017672442476425227 -0.009618504610357813 0.002011898706799984 0.014967653198708276
 0.0020844594722556117 0.01495729287793141 -0.0017672442476425227 -0.009618504610357813 0.006875378005792752 0.03341572865255335 0.9914082636074963 -0.07823606631247597
 -0.001766359831899892 -0.009618565270973298 0.002011898706799984 0.014967653198708276 0.9914082636074963 -0.07823606631247597 0.006888193854301137 0.03341467281292367
0.131304710296 0.0073131518291220474 0.0352472345582913 0.9908325346630295 -0.08228060275551075 0.0022723970580987656 0.015705370328328173 -0.0019240607288709094 -0.010102559629674424
 0.9908325346630295 -0.08228060275551075 0.007325922879245165 0.03524619822893758 -0.0019250330457341964 -0.010102487818371047 0.0021923556802477956 0.01571707173519411
 0.0022723970580987656 0.015705370328328173 -0.0019250330457341964 -0.010102487818371047 0.007312394896324681 0.035245608384656804 0.9908324389417651 -0.08228237692897716
 -0.0019240607288709094 -0.010102559629674424 0.0021923556802477956 0.01571707173519411 0.9908324389417651 -0.08228237692897716 0.007326523461825483 0.03524444364975463
0.1375573155481 0.007665298500698073 0.036852473762258746 0.990336698561571 -0.08610077067014511 0.002444974135634066 0.016428916769490903 -0.00206514011742319 -0.010562230319524931
 0.990336698561571 -0.08610077067014511 0.007679319331177777 0.036851361540467295 -0.002066206272243937 -0.010562147317193748 0.0023572640906718684 0.01644193916092527
 0.002444974135634066 0.016428916769490903 -0.002066206272243937 -0.010562147317193748 0.007664469307191086 0.03685078063350733 0.9903365933340529 -0.08610263169135066
 -0.00206514011742319 -0.010562230319524931 0.0023572640906718684 0.01644193916092527 0.9903365933340529 -0.08610263169135066 0.007679978951215293 0.03684952487364716
0.1438099208003 0.008029764970599118 0.038449688774201955 0.989823559428283 -0.08991167203953092 0.0026245315552965174 0.017149698465858405 -0.0022118640727199364 -0.011019396608919844
 0.989823559428283 -0.08991167203953092 0.008045094621358963 0.03844849668960758 -0.0022130283245975417 -0.011019301382826962 0.0025288151131260808 0.017164140546777784
 0.0026245315552965174 0.017149698465858405 -0.0022130283245975417 -0.011019301382826962 0.00802886037014618 0.038447930083329224 0.9898234441784695 -0.08991362024220653
 -0.0022118640727199364 -0.011019396608919844 0.0025288151131260808 0.017164140546777784 0.9898234441784695 -0.08991362024220653 0.008045816086166533 0.03844657812925719
0.1500625260525 0.00840642850860433 0.04003875846537103 0.9892932436513988 -0.09371322451046246 0.0028110109565916033 0.017867647486810485 -0.002364176538910192 -0.011473995289332864
 0.9892932436513988 -0.09371322451046246 0.008423126141531016 0.04003748231852201 -0.002365443139077128 -0.011473886765282484 0.0027069521994812938 0.017883611573247204
 0.0028110109565916033 0.017867647486810485 -0.002365443139077128 -0.011473886765282484 0.008405445378055234 0.040036935659965314 0.9892931178518456 -0.09371526024183366
 -0.002364176538910192 -0.011473995289332864 0.0027069521994812938 0.017883611573247204 0.9892931178518456 -0.09371526024183366 0.008423912266167531 0.040035482065759645
0.15631513130469998 0.008795165583988438 0.04161956541744765 0.9887458781813059 -0.09750534577374155 0.0030043533278884976 0.018582696987731035 -0.0025220208069311853 -0.0119259644392071
