! Created with skrf 1.8.0 (http://scikit-rf.org).
# GHz S RI R 50.0 
!freq ReS11 ImS11 ReS12 ImS12 ReS13 ImS13
! ReS14 ImS14
! ReS21 ImS21 ReS22 ImS22 ReS23 ImS23
! ReS24 ImS24
! ReS31 ImS31 ReS32 ImS32 ReS33 ImS33
! ReS34 ImS34
! ReS41 ImS41 ReS42 ImS42 ReS43 ImS43
! ReS44 ImS44
!
0.0 0.001662080923151 0.0 0.9983379190655 0.0 6.46108483476e-05 0.0 -6.461084843577e-05 7.91254687270605e-21
 0.9983379190655 0.0 0.00166208092319 0.0 -6.461084843761e-05 7.912546872931385e-21 6.461084834821e-05 0.0
 6.46108483476e-05 0.0 -6.461084843761e-05 7.912546872931385e-21 0.001662080916101 0.0 0.9983379190584 0.0
 -6.461084843577e-05 7.91254687270605e-21 6.461084834821e-05 0.0 0.9983379190584 0.0 0.001662080916049 0.0
0.005 0.0017886957528853134 0.0013537775694743904 0.9981776487614946 -0.003481500649769277 9.163884329067589e-05 0.0007458813411516577 -8.873293562653308e-05 -0.00046217311584090346
 0.9981776487614946 -0.003481500649769277 0.0017887084753906812 0.0013537701734430746 -8.873351125194526e-05 -0.0004621736217240783 9.155827395006557e-05 0.000745912065101815
 9.163884329067589e-05 0.0007458813411516577 -8.873351125194526e-05 -0.0004621736217240783 0.001788694775909049 0.0013537109127249474 0.9981776483921934 -0.0034815677104730342
 -8.873293562653308e-05 -0.00046217311584090346 9.155827395006557e-05 0.000745912065101815 0.9981776483921934 -0.0034815677104730342 0.0017887087120978234 0.0013537027047130779
0.006252605252188 0.0018220138918253034 0.0016975578250195413 0.9981351866945241 -0.004352711803629768 9.943433250496998e-05 0.0009326890750784911 -9.560209669632546e-05 -0.0005783146470461449
 0.9981351866945241 -0.004352711803629768 0.0018220337789868891 0.0016975484227577846 -9.560299190123262e-05 -0.0005783152720635426 9.930845136956613e-05 0.0009327289788004076
 9.943433250496998e-05 0.0009326890750784911 -9.560299190123262e-05 -0.0005783152720635426 0.0018220124434274755 0.0016974745147497233 0.9981351861964933 -0.004352795623635584
 -9.560209669632546e-05 -0.0005783146470461449 9.930845136956613e-05 0.0009327289788004076 0.9981351861964933 -0.004352795623635584 0.0018220342288267325 0.0016974640846495461
0.01250521050438 0.001998053480905428 0.003430714789948961 0.9979092487950961 -0.00870612915444214 0.0001445281270553326 0.001865574564124222 -0.0001348911938710219 -0.0011593874129852517
 0.9979092487950961 -0.00870612915444214 0.0019981328854430176 0.0034306944074160256 -0.00013489471561692334 -0.001159388583049281 0.00014402616315869235 0.0018656706235429571
 0.0001445281270553326 0.001865574564124222 -0.00013489471561692334 -0.001159388583049281 0.00199804824153524 0.0034305484771514397 0.9979092473593243 -0.008706296531439957
 -0.0001348911938710219 -0.0011593874129852517 0.00014402616315869235 0.0018656706235429571 0.9979092473593243 -0.008706296531439957 0.0019981352409094762 0.0034305258954656507
0.01875781575657 0.0021906081774252066 0.005188493061785873 0.9976598076185098 -0.01307082551657279 0.00019999928022420093 0.0027992983056867914 -0.00018260506474021093 -0.0017423167207027113
 0.9976598076185098 -0.01307082551657279 0.0021907865935803803 0.005188460025151835 -0.00018261290972781607 -0.001742318341691924 0.0001988717236958651 0.002799470141394934
 0.00019999928022420093 0.0027992983056867914 -0.00018261290972781607 -0.001742318341691924 0.0021905968150154314 0.005188243910785546 0.9976598048206476 -0.013071076325734739
 -0.00018260506474021093 -0.0017423167207027113 0.0001988717236958651 0.002799470141394934 0.9976598048206476 -0.013071076325734739 0.0021907923272337405 0.00518820731760519
0.02501042100875 0.0024000729330773494 0.006968390186554448 0.9973865530849171 -0.01744888562962875 0.00026595655186161654 0.0037338862673088067 -0.000238865775219072 -0.002326809390209219
 0.9973865530849171 -0.01744888562962875 0.002400389772087595 0.006968342739654696 -0.00023887961714027828 -0.0023268113520102485 0.0002639538371057049 0.0037341567603476683
 0.00026595655186161654 0.0037338862673088067 -0.00023887961714027828 -0.0023268113520102485 0.002400053104407723 0.006968058319476056 0.9973865484966763 -0.01744921978273211
 -0.000238865775219072 -0.002326809390209219 0.0002639538371057049 0.0037341567603476683 0.9973865484966763 -0.01744921978273211 0.0024004003544153877 0.006968005731007303
0.03126302626094 0.0026268262945809647 0.008769102392896778 0.9970891602277973 -0.021841182188289936 0.00034250900562643796 0.0046692738072768095 -0.00030379146159429114 -0.002912655349553671
 0.9970891602277973 -0.021841182188289936 0.0026273209081581414 0.00876903869991157 -0.0003038129550377427 -0.0029126575258861085 0.00033938128398491635 0.004669669118382207
 0.00034250900562643796 0.0046692738072768095 -0.0003038129550377427 -0.0029126575258861085 0.00262679565020717 0.008768687931326536 0.9970891534228575 -0.02184159959237618
 -0.00030379146159429114 -0.002912655349553671 0.00033938128398491635 0.004669669118382207 0.9970891534228575 -0.02184159959237618 0.002627337813514053 0.00876861724222035
0.037515631513130004 0.0028712382779948475 0.010589767514059437 0.9967672973722634 -0.02624813286182058 0.00042976482964231054 0.005605360269618629 -0.00037749722679222716 -0.003499673054291653
 0.9967672973722634 -0.02624813286182058 0.0028719499749757568 0.010589685660942087 -0.00037752800937583975 -0.0034996753026873724 0.0004252618703084321 0.00560590987170222
 0.00042976482964231054 0.005605360269618629 -0.00037752800937583975 -0.0034996753026873724 0.002871194464531288 0.010589270572047976 0.9967672879288328 -0.02624863342650916
 -0.00037749722679222716 -0.003499673054291653 0.0004252618703084321 0.00560590987170222 0.9967672879288328 -0.02624863342650916 0.002871974683264499 0.010589179556345736
0.043768236765320004 0.0031336734097678226 0.012429734591855764 0.9964206294833473 -0.030669930621192613 0.0005278307790213182 0.006542025584544778 -0.00046009544917149686 -0.0040876929053030395
 0.9964206294833473 -0.030669930621192613 0.003134641469551305 0.012429632587196439 -0.00046013714277290277 -0.004087695067146389 0.0005217019250895852 0.006542762299280465
 0.0005278307790213182 0.006542025584544778 -0.00046013714277290277 -0.004087695067146389 0.0031336140665116576 0.012429155279804031 0.9964206169819425 -0.030670514255342504
 -0.00046009544917149686 -0.0040876929053030395 0.0005217019250895852 0.006542762299280465 0.9964206169819425 -0.030670514255342504 0.0031346754629009307 0.012429041591148604
0.050020842017509996 0.003414492119890059 0.014288468652762388 0.9960488198717193 -0.03510663889329028 0.0006368118348133605 0.007479137137805108 -0.000551695885369924 -0.0046765504021471956
 0.9960488198717193 -0.03510663889329028 0.0034157558046949543 0.014288344428073049 -0.0005517500970515834 -0.004676552302714503 0.0006288059884648601 0.007480097173859172
 0.0006368118348133605 0.007479137137805108 -0.0005517500970515834 -0.004676552302714503 0.0034144148796767058 0.014287807089398918 0.9960488038954408 -0.035107305493376095
 -0.000551695885369924 -0.0046765504021471956 0.0006288059884648601 0.007480097173859172 0.9960488038954408 -0.035107305493376095 0.0034158005671687617 0.014287668260758633
0.055454545454549996 0.0036737391763964756 0.01591864305113421 0.9957050259216036 -0.03897436841761079 0.0007404640947173417 0.008293767948157978 -0.0006386936196270654 -0.00518883927594526
 0.9957050259216036 -0.03897436841761079 0.003675291649384957 0.015918497776839947 -0.0006387600039887408 -0.005188840795076324 0.0007306228225994384 0.008294954122849396
 0.0007404640947173417 0.008293767948157978 -0.0006387600039887408 -0.005188840795076324 0.003673644456225997 0.015917910100441433 0.9957050065901195 -0.03897510703553637
 -0.0006386936196270654 -0.00518883927594526 0.0007306228225994384 0.008294954122849396 0.9957050065901195 -0.03897510703553637 0.003675346977337759 0.015917747326762634
0.056273447269699996 0.003714051448649656 0.01616550399540006 0.9956515312160747 -0.03955823820635041 0.0007568109583638066 0.008416553144662315 -0.0006524056812147061 -0.005266082797170435
 0.9956515312160747 -0.03955823820635041 0.003715650014988999 0.01616535540511766 -0.0006524740038174345 -0.005266084245669275 0.0007466765838254057 0.008417776136598807
 0.0007568109583638066 0.008416553144662315 -0.0006524740038174345 -0.005266084245669275 0.0037139539381570966 0.016164760294152494 0.9956515113519422 -0.03955898767049398
 -0.0006524056812147061 -0.005266082797170435 0.0007466765838254057 0.008417776136598807 0.9956515113519422 -0.03955898767049398 0.0037157070324721083 0.016164593737281782
0.06252605252188 0.0040327054123897805 0.01806041848958399 0.9952284262513572 -0.04402465182882314 0.0008879288935988516 0.00935412451467138 -0.0007623293354434724 -0.005856127264817737
 0.9952284262513572 -0.04402465182882314 0.004034678121934832 0.018060243310690005 -0.0007624133480968104 -0.005856128054438333 0.0008754140318635703 0.009355653562043301
 0.0008879288935988516 0.00935412451467138 -0.0007624133480968104 -0.005856128054438333 0.004032585251179356 0.018059592771565092 0.9952284020890144 -0.044025484044280375
 -0.0007623293354434724 -0.005856127264817737 0.0008754140318635703 0.009355653562043301 0.9952284020890144 -0.044025484044280375 0.00403474887998986 0.018059395776008676
0.06877865777407 0.004370805181898343 0.01997281827227797 0.9947791682724303 -0.04850576101710586 0.0010302639963970283 0.010291695967995286 -0.0008815686361201679 -0.006446519825882249
 0.9947791682724303 -0.04850576101710586 0.004373191312052705 0.01997261420361494 -0.0008816699045395766 -0.006446519733845381 0.0010151162883415385 0.010293577674352452
 0.0010302639963970283 0.010291695967995286 -0.0008816699045395766 -0.006446519733845381 0.004370659982929682 0.019971910662207656 0.9947791394055092 -0.048506675864895425
 -0.0008815686361201679 -0.006446519825882249 0.0010151162883415385 0.010293577674352452 0.9947791394055092 -0.048506675864895425 0.004373277296085354 0.01997168039396504
0.07503126302626001 0.004728699150989702 0.021902328041503993 0.9943034215340724 -0.05300141467248864 0.0011839120789296103 0.011229106759484393 -0.0010102225813088763 -0.007037094670792578
 0.9943034215340724 -0.05300141467248864 0.004731538005544572 0.021902092702648073 -0.0010103426581183127 -0.00703709345838434 0.0011658787945202627 0.011231391271149863
 0.0011839120789296103 0.011229106759484393 -0.0010103426581183127 -0.00703709345838434 0.004728526520842095 0.021901338669486358 0.9943033875603785 -0.053002412026000874
 -0.0010102225813088763 -0.007037094670792578 0.0011658787945202627 0.011231391271149863 0.9943033875603785 -0.053002412026000874 0.004731640699804803 0.02190107216944552
0.08128386827845 0.005106732935437558 0.023848584607777844 0.9938008515848985 -0.05751143574755133 0.0013489662644982892 0.012166191161512697 -0.0011483872881035138 -0.007627683731231281
 0.9938008515848985 -0.05751143574755133 0.005110063855406785 0.023848315537582144 -0.0011485277131068146 -0.007627681143845508 0.00132779433728665 0.012168932205965651
 0.0013489662644982892 0.012166191161512697 -0.0011485277131068146 -0.007627681143845508 0.0051065304735364 0.023847513611679975 0.9938008121055636 -0.05751251547066662
 -0.0011483872881035138 -0.007627683731231281 0.00132779433728665 0.012168932205965651 0.9938008121055636 -0.05751251547066662 0.0051101847409247185 0.023847207793556223
0.08753647353064001 0.005505249324954336 0.025811232441632404 0.9932711255584644 -0.06203562566457766 0.0015255168482894257 0.013102778819821232 -0.0012961558952438732 -0.00821811638611624
 0.9932711255584644 -0.06203562566457766 0.005509111698587497 0.025810927096446026 -0.0012963181955117935 -0.008218112153297869 0.0015009529135420804 0.013106033743604919
 0.0015255168482894257 0.013102778819821232 -0.0012963181955117935 -0.008218112153297869 0.005505014624250221 0.025810079960866563 0.993271080179513 -0.062036787618391404
 -0.0012961558952438732 -0.00821811638611624 0.0015009529135420804 0.013106033743604919 0.993271080179513 -0.062036787618391404 0.005509252253683608 0.025809731608847104
0.09378907878283 0.005924588203965284 0.027789920483024522 0.992713912437977 -0.06657376748008695 0.001713651162810165 0.014038695010946933 -0.0014536184597112366 -0.008808219273453845
 0.992713912437977 -0.06657376748008695 0.005929021477912543 0.02778957623444084 -0.0014538041498652022 -0.008808213108919934 0.0016854415992595235 0.01404252481700355
 0.001713651162810165 0.014038695010946933 -0.0014538041498652022 -0.008808213108919934 0.005924318851301861 0.027788686670156996 0.9927138607700369 -0.06657501151179447
 -0.0014536184597112366 -0.008808219273453845 0.0016854415992595235 0.01404252481700355 0.9927138607700369 -0.06657501151179447 0.005929183176403007 0.027788292436261942
0.100041684035 0.006365086448901176 0.029784299831670188 0.9921288833000032 -0.0711256281771307 0.0019134534462218664 0.014973760848828817 -0.001620861850120476 -0.009397816160777263
 0.9921288833000032 -0.0711256281771307 0.006370130138133011 0.02978391396396535 -0.0016210724323259204 -0.009397807762469002 0.0018813444207287447 0.014978230233233381
 0.0019134534462218664 0.014973760848828817 -0.0016210724323259204 -0.009397807762469002 0.006364780024376983 0.029782984843036917 0.992128824958572 -0.0711269541299337
 -0.001620861850120476 -0.009397816160777263 0.0018813444207287447 0.014978230233233381 0.992128824958572 -0.0711269541299337 0.00637031444877027 0.029782541243924727
0.1059090909091 0.006797988884986466 0.031669773957847175 0.991554306180765 -0.07540932367606254 0.0021116307968003507 0.01585028471729527 -0.0017867720753206246 -0.009950470526545522
 0.991554306180765 -0.07540932367606254 0.00680364139343643 0.031669346484650474 -0.0017870073714051729 -0.009950459743305792 0.002075631534033442 0.015855416439973777
 0.0021116307968003507 0.01585028471729527 -0.0017870073714051729 -0.009950459743305792 0.006797645466254112 0.0316683829450042 0.9915542412318066 -0.07541072635230404
 -0.0017867720753206246 -0.009950470526545522 0.002075631534033442 0.015855416439973777 0.9915542412318066 -0.07541072635230404 0.00680384825321863 0.031667889730260565
0.1062942892872 0.006827077808231043 0.031794021995613 0.991515711546078 -0.07569096040813418 0.0021250047132742255 0.01590779345154736 -0.0017979696368097796 -0.009986727863348543
 0.991515711546078 -0.07569096040813418 0.006832771507382 0.031793591702712745 -0.0017982066010293724 -0.00998671691344134 0.0020887422278805757 0.015912970839530992
 0.0021250047132742255 0.01590779345154736 -0.0017982066010293724 -0.00998671691344134 0.006826731885986252 0.031792625996798024 0.9915156461519024 -0.07569236811626429
 -0.0017979696368097796 -0.009986727863348543 0.0020887422278805757 0.015912970839530992 0.9915156461519024 -0.07569236811626429 0.006832979892346722 0.031792129410385665
0.11254689453939999 0.007310892770129395 0.033818737571469436 0.9908740731236966 -0.08026950381512364 0.0023483826272239806 0.01684060608272329 -0.0019850219807693303 -0.010574772195649302
 0.9908740731236966 -0.08026950381512364 0.0073172761635603035 0.03381825995351955 -0.001985286804673545 -0.01057475836060099 0.0023077125687369494 0.016846563663934718
 0.0023483826272239806 0.01684060608272329 -0.001985286804673545 -0.01057475836060099 0.007310504917989921 0.03381726073609268 0.9908740003030216 -0.0802709931056345
 -0.0019850219807693303 -0.010574772195649302 0.0023077125687369494 0.016846563663934718 0.9908740003030216 -0.0802709931056345 0.007317510078333211 0.03381670739753237
0.11879949979160001 0.00781685841941056 0.03585809521679227 0.9902036467408155 -0.08486098606723064 0.00258366137427443 0.017772008275592215 -0.0021820955199421048 -0.011161763948434229
 0.9902036467408155 -0.08486098606723064 0.007823971292426547 0.0358575672763015 -0.0021823896691964815 -0.011161746878979051 0.002538329565617013 0.01777882203863355
 0.00258366137427443 0.017772008275592215 -0.0021823896691964815 -0.011161746878979051 0.007816426199328307 0.03585653772841568 0.9902035661257718 -0.08486255675860481
 -0.0021820955199421048 -0.011161763948434229 0.002538329565617013 0.01777882203863355 0.9902035661257718 -0.08486255675860481 0.007824232183809444 0.035855923725944226
0.1250521050438 0.008345298287152234 0.03791174084925205 0.9895041140753743 -0.0894651236809957 0.00283091153806693 0.018701805946158445 -0.0023892632556768777 -0.011747514884978978
 0.9895041140753743 -0.0894651236809957 0.008353180536588492 0.03791115948678643 -0.002389588183801312 -0.011747494216206376 0.002780663792086615 0.018709555712149075
 0.00283091153806693 0.018701805946158445 -0.002389588183801312 -0.011747494216206376 0.008344819255054838 0.037910102898986685 0.9895040253041067 -0.08946677558610672
 -0.0023892632556768777 -0.011747514884978978 0.002780663792086615 0.018709555712149075 0.9895040253041067 -0.08946677558610672 0.008353469842369388 0.037909424169141705
0.131304710296 0.008896532193366885 0.03997931700801448 0.988775159980203 -0.0940816226882011 0.0030901999762673726 0.019629801498317265 -0.002606594437661598 -0.012331833753762116
 0.988775159980203 -0.0940816226882011 0.008905223838510279 0.039978679017461424 -0.0026069515862372733 -0.012331809105070268 0.003034782150733943 0.019638570953720617
 0.0030901999762673726 0.019629801498317265 -0.0026069515862372733 -0.012331809105070268 0.008896003899827271 0.03997759880012963 0.988775062697201 -0.09408335560921961
 -0.002606594437661598 -0.012331833753762116 0.003034782150733943 0.019638570953720617 0.988775062697201 -0.09408335560921961 0.008905542986031599 0.039976851122636665
0.1375573155481 0.00934858082791695 0.04178989711659617 0.9881388216765423 -0.09843947340414323 0.003330434097985124 0.020528937473489405 -0.0028030659092179817 -0.01288764276930592
 0.9881388216765423 -0.09843947340414323 0.00935812577957715 0.04178921411691244 -0.002803457598432694 -0.012887614095400087 0.003269717898951352 0.020538717956818463
 0.003330434097985124 0.020528937473489405 -0.002803457598432694 -0.012887614095400087 0.009348001750917543 0.041788098454213336 0.9881387155084879 -0.09844128715193265
 -0.0028030659092179817 -0.01288764276930592 0.003269717898951352 0.020538717956818463 0.9881387155084879 -0.09844128715193265 0.00935847529027105 0.0417872932055666
0.1438099208003 0.00981664070188659 0.043590121352169095 0.987479864853844 -0.10278546732440237 0.003580364276440906 0.021423942553572124 -0.0030073758910565624 -0.013439703522122384
 0.987479864853844 -0.10278546732440237 0.009827079748947625 0.0435893910017829 -0.003007803703214906 -0.0134396704409306 0.0035141183353223785 0.02143481101504299
 0.003580364276440906 0.021423942553572124 -0.003007803703214906 -0.0134396704409306 0.009816008549757822 0.04358824237797273 0.9874797494518673 -0.10278736169116506
 -0.0030073758910565624 -0.013439703522122384 0.0035141183353223785 0.02143481101504299 0.9874797494518673 -0.10278736169116506 0.009827460869534276 0.04358737626221211
0.1500625260525 0.010300534657223422 0.04537981557236306 0.9867984713438437 -0.10711947236063413 0.0038398969763031266 0.022314708823816407 -0.0032194340617539303 -0.013987915762416708
 0.9867984713438437 -0.10711947236063413 0.010311908729037474 0.045379035366745646 -0.00321989957817342 -0.013987877875843473 0.003767891416299323 0.022326745031760863
 0.0038398969763031266 0.022314708823816407 -0.00321989957817342 -0.013987877875843473 0.010299847143290715 0.04537785643131759 0.9867983463656085 -0.10712144713187159
 -0.0032194340617539303 -0.013987915762416708 0.003767891416299323 0.022326745031760863 0.9867983463656085 -0.10712144713187159 0.010312322684811259 0.04537692595535384
0.15631513130469998 0.010800084125043302 0.04715881085140017 0.9860948240744059 -0.1114413574230509 0.004108937461837128 0.023201130355603488 -0.003439148902862528 -0.014532181506122621
 0.9860948240744059 -0.1114413574230509 0.010812434295561224 0.04715797811706858 -0.003439653703904414 -0.014532138400011232 0.004030943922219464 0.02321441686560681
