! Created with skrf 1.8.0 (http://scikit-rf.org).
# GHz S RI R 50.0 
!freq ReS11 ImS11 ReS12 ImS12 ReS13 ImS13
! ReS14 ImS14
! ReS21 ImS21 ReS22 ImS22 ReS23 ImS23
! ReS24 ImS24
! ReS31 ImS31 ReS32 ImS32 ReS33 ImS33
! ReS34 ImS34
! ReS41 ImS41 ReS42 ImS42 ReS43 ImS43
! ReS44 ImS44
!
0.0 0.001978596779001 0.0 0.9980214032096 0.0 7.688082263022e-05 0.0 -7.688082271891e-05 9.415185345852825e-21
 0.9980214032096 0.0 0.00197859677901 0.0 -7.688082271972e-05 9.41518534595202e-21 7.688082263075e-05 0.0
 7.688082263022e-05 0.0 -7.688082271972e-05 9.41518534595202e-21 0.001978596780438 0.0 0.9980214032111 0.0
 -7.688082271891e-05 9.415185345852825e-21 7.688082263075e-05 0.0 0.9980214032111 0.0 0.001978596780401 0.0
0.005 0.002130349894943414 0.0016200934224775763 0.9978291387801791 -0.004142847356068251 0.00010824188206707053 0.0008291434207929408 -0.00010503893607256685 -0.0005232919593785524
 0.9978291387801791 -0.004142847356068251 0.002130380467373148 0.0016200754840403008 -0.0001050375587135646 -0.0005232908429888112 0.00010805455242757231 0.0008292148512331152
 0.00010824188206707053 0.0008291434207929408 -0.0001050375587135646 -0.0005232908429888112 0.0021303513076532817 0.0016201598190883383 0.9978291391762639 -0.004142780305162256
 -0.00010503893607256685 -0.0005232919593785524 0.00010805455242757231 0.0008292148512331152 0.9978291391762639 -0.004142780305162256 0.00213037984273715 0.0016201431873399104
0.006252605252188 0.002170624722940871 0.002031409245141858 0.9977777150329743 -0.0051794932784985145 0.00011747297958890556 0.0010368073034968455 -0.00011320123981338926 -0.0006547584486814752
 0.9977777150329743 -0.0051794932784985145 0.0021706725141178514 0.0020313864838650882 -0.00011319909703844532 -0.0006547570716781701 0.00011718030023632094 0.0010369001783491053
 0.00011747297958890556 0.0010368073034968455 -0.00011319909703844532 -0.0006547570716781701 0.0021706268582065815 0.002031492236609231 0.9977777155786748 -0.005179409460321303
 -0.00011320123981338926 -0.0006547584486814752 0.00011718030023632094 0.0010369001783491053 0.9977777155786748 -0.005179409460321303 0.00217067146353766 0.002031471124009179
0.01250521050438 0.002385401650642428 0.004104540041149987 0.9975013262217904 -0.01035917317269028 0.00017184268062240345 0.0020737774725380492 -0.00016065075976653165 -0.001312354735359122
 0.9975013262217904 -0.01035917317269028 0.0023855924966201016 0.004104491071850191 -0.00016064232166890919 -0.0013123521875424617 0.00017067565426775801 0.002074002591899266
 0.00017184268062240345 0.0020737774725380492 -0.00016064232166890919 -0.0013123521875424617 0.0023854096136700603 0.00410470565849758 0.9975013278306343 -0.01035900579238227
 -0.00016065075976653165 -0.001312354735359122 0.00017067565426775801 0.002074002591899266 0.9975013278306343 -0.01035900579238227 0.002385587721555718 0.004104660165761967
0.01875781575657 0.002623493410567073 0.0062062527255887425 0.9971918252525265 -0.015551519364083829 0.000240128260000545 0.0031114979724302084 -0.0002193933489145889 -0.0019717892448116825
 0.9971918252525265 -0.015551519364083829 0.002623922283516088 0.006206173751789933 -0.00021937454122820168 -0.001971785779808411 0.0002375069473887348 0.003111903962421527
 0.000240128260000545 0.0031114979724302084 -0.00021937454122820168 -0.001971785779808411 0.002623510888570395 0.006206500727809249 0.9971918284406124 -0.015551268493494318
 -0.0002193933489145889 -0.0019717892448116825 0.0002375069473887348 0.003111903962421527 0.9971918284406124 -0.015551268493494318 0.0026239111065547312 0.006206427316112216
0.02501042100875 0.0028854426428183526 0.008333480982347178 0.9968487820682121 -0.020758916332381833 0.0003224695090160941 0.0041499176446373786 -0.00028958535370314666 -0.002632689419449512
 0.9968487820682121 -0.020758916332381833 0.0028862043545082607 0.00833336789177289 -0.0002895521546992458 -0.002632685342461199 0.0003178140148104697 0.004150562150871709
 0.0003224695090160941 0.0041499176446373786 -0.0002895521546992458 -0.002632685342461199 0.002885473325501274 0.008333811076130652 0.9968487873550406 -0.02075858203698606
 -0.00028958535370314666 -0.002632689419449512 0.0003178140148104697 0.004150562150871709 0.9968487873550406 -0.02075858203698606 0.0028861840959266516 0.00833370596690524
0.03126302626094 0.0031717688869979696 0.01048458055855855 0.9964717487706706 -0.025982304682832063 0.00041900521606843513 0.005188889771501057 -0.0003713769426636164 -0.0032947666656072384
 0.9964717487706706 -0.025982304682832063 0.0031729581489127272 0.01048442892846607 -0.0003713253745740066 -0.0032947623337756644 0.00041173520677296836 0.005189839515260544
 0.00041900521606843513 0.005188889771501057 -0.0003713253745740066 -0.0032947623337756644 0.003171816461438255 0.010484992426002544 0.996471756674227 -0.025981886993442012
 -0.0003713769426636164 -0.0032947666656072384 0.00041173520677296836 0.005189839515260544 0.996471756674227 -0.025981886993442012 0.003172926120107863 0.010484851606999582
0.037515631513130004 0.0034829787063791664 0.012658429220698326 0.9960602703222609 -0.03122208116430318 0.0005298716142305002 0.006228228528540909 -0.00046491310482000745 -0.003957759980863287
 0.9960602703222609 -0.03122208116430318 0.0034846901724003045 0.012658234319318524 -0.0004648392295011797 -0.00395775580331688 0.0005194061338411003 0.006229559393629667
 0.0005298716142305002 0.006228228528540909 -0.0004648392295011797 -0.00395775580331688 0.003483046858723981 0.012658922497092827 0.9960602813609355 -0.031221580098607715
 -0.00046491310482000745 -0.003957759980863287 0.0005194061338411003 0.006229559393629667 0.9960602813609355 -0.031221580098607715 0.003484643677525158 0.012658741724672773
0.043768236765320004 0.0038195695497817627 0.014854152846578438 0.995613888989596 -0.036478372538035396 0.0006552016079651156 0.0072677261832405065 -0.0005703339532082195 -0.004621418848399568
 0.995613888989596 -0.036478372538035396 0.003821897852257253 0.01485390963258292 -0.0005702338695245271 -0.004621415286203054 0.0006409590222475999 0.007269523311816218
 0.0006552016079651156 0.0072677261832405065 -0.0005702338695245271 -0.004621415286203054 0.0038196619651627603 0.014854727119357983 0.9956139036839516 -0.03647778810100464
 -0.0005703339532082195 -0.004621418848399568 0.0006409590222475999 0.007269523311816218 0.9956139036839516 -0.03647778810100464 0.0038218341891098004 0.014854501918846843
0.050020842017509996 0.004182031495125163 0.01707101226598447 0.9951321466775278 -0.04175114870059754 0.0007951242764204164 0.008307160227084685 -0.0006877747802798659 -0.0052854962101000925
 0.9951321466775278 -0.04175114870059754 0.0041850712768087455 0.017070715386365277 -0.0006876446225373528 -0.005285493776161514 0.000776522285248389 0.008309518118675209
 0.0007951242764204164 0.008307160227084685 -0.0006876446225373528 -0.005285493776161514 0.00418215185676945 0.017071667071483203 0.995132165549942 -0.041750480886928724
 -0.0006877747802798659 -0.0052854962101000925 0.000776522285248389 0.008309518118675209 0.995132165549942 -0.041750480886928724 0.004184987736598058 0.01707139273617116
0.055454545454549996 0.004518408112826099 0.01901418133799277 0.9946844255813455 -0.046346638458487126 0.0009286694488483799 0.009210226948394093 -0.0007996975241042403 -0.005862747617395302
 0.9946844255813455 -0.046346638458487126 0.004522143084361147 0.01901383322942177 -0.0007995381184019442 -0.005862746620692772 0.0009058056269915431 0.009213156247641357
 0.0009286694488483799 0.009210226948394093 -0.0007995381184019442 -0.005862746620692772 0.004518555749087039 0.019014905710587598 0.9946844485099318 -0.04634589817729234
 -0.0007996975241042403 -0.005862747617395302 0.0009058056269915431 0.009213156247641357 0.9946844485099318 -0.04634589817729234 0.004522040064877751 0.01901458467122282
0.056273447269699996 0.004570848089766475 0.019308347712673344 0.9946145863668938 -0.047040278204800445 0.0009497644971161125 0.009346296911832933 -0.0008173660039315862 -0.005949745048438292
 0.9946145863668938 -0.047040278204800445 0.004574694034750148 0.019307991499344035 -0.0008172019408143097 -0.005949744307426129 0.0009262201893785296 0.009349319523024022
 0.0009497644971161125 0.009346296911832933 -0.0008172019408143097 -0.005949744307426129 0.0045710000775923505 0.01930908253346034 0.9946146099413344 -0.047039527000973774
 -0.0008173660039315862 -0.005949745048438292 0.0009262201893785296 0.009349319523024022 0.9946146099413344 -0.047039527000973774 0.0045745879017720596 0.019308754122183955
0.06252605252188 0.0049864967425409384 0.021565548332150502 0.9940607531102827 -0.052345558737516264 0.0011192426325542185 0.01038489321863525 -0.0009592330563481816 -0.006613916549339314
 0.9940607531102827 -0.052345558737516264 0.004991243605794694 0.021565126797273137 -0.0009590312902532068 -0.006613918117575783 0.0010901725689802118 0.010388694062239434
 0.0011192426325542185 0.01038489321863525 -0.0009590312902532068 -0.006613918117575783 0.004986684033484572 0.021566362595736157 0.9940607819143028 -0.05234472412232305
 -0.0009592330563481816 -0.006613916549339314 0.0010901725689802118 0.010388694062239434 0.9940607819143028 -0.05234472412232305 0.004991112158697678 0.021565974929323058
0.06877865777407 0.005429448874632543 0.023842034000576398 0.9934701947941357 -0.05766673530123538 0.0013036742506957579 0.011422698068683661 -0.001113496241697302 -0.007277759037939638
 0.9934701947941357 -0.05766673530123538 0.0054351915102630695 0.02384154083074117 -0.001113253008170113 -0.007277763583320592 0.0012684945671353953 0.01142740031170157
 0.0013036742506957579 0.011422698068683661 -0.001113253008170113 -0.007277763583320592 0.005429675140290348 0.023842927080045918 0.9934702293580395 -0.05766581724466222
 -0.001113496241697302 -0.007277759037939638 0.0012684945671353953 0.01142740031170157 0.9934702293580395 -0.05766581724466222 0.00543503202212144 0.02384247473629062
0.07503126302626001 0.005900169920587376 0.026137243839258324 0.9928424627565222 -0.06300351171626516 0.001503169867164919 0.01245945311907273 -0.0012802705737841454 -0.007941017344217462
 0.9928424627565222 -0.06300351171626516 0.005907003311196948 0.026136672388197495 -0.0012799821413829618 -0.007941025586091903 0.0014612963932632706 0.012465189678774276
 0.001503169867164919 0.01245945311907273 -0.0012799821413829618 -0.007941025586091903 0.0059004388270276755 0.02613821505459505 0.992842503614218 -0.06300251017743419
 -0.0012802705737841454 -0.007941017344217462 0.0014612963932632706 0.012465189678774276 0.992842503614218 -0.06300251017743419 0.0059068130494282604 0.026137692362142605
0.08128386827845 0.006399119240058964 0.02845062858526323 0.9921771123212609 -0.06835555828391714 0.0017178347004714457 0.013494893333370403 -0.0014596656022749794 -0.008603432409161352
 0.9921771123212609 -0.06835555828391714 0.006407138524169516 0.02844997186546652 -0.0014593282723256126 -0.00860344511824119 0.0016686830909048154 0.013501806971366976
 0.0017178347004714457 0.013494893333370403 -0.0014593282723256126 -0.00860344511824119 0.0063994344462030206 0.028451677195079034 0.9921771600107929 -0.06835447321883745
 -0.0014596656022749794 -0.008603432409161352 0.0016686830909048154 0.013501806971366976 0.9921771600107929 -0.06835447321883745 0.006406914751396373 0.028451078225877117
0.08753647353064001 0.006926749967078711 0.03078164533333965 0.9914737032752687 -0.07372251709635731 0.001947768437382225 0.01452874740168405 -0.0016517852303519233 -0.009264741057283523
 0.9914737032752687 -0.07372251709635731 0.006936050468140065 0.030780896006170087 -0.00165139533693487 -0.00926475905553763 0.001890754313066104 0.014536990815503565
 0.001947768437382225 0.01452874740168405 -0.00165139533693487 -0.00926475905553763 0.006927115123839919 0.03078277054223618 0.9914737583389961 -0.07372134845005687
 -0.0016517852303519233 -0.009264741057283523 0.001890754313066104 0.014536990815503565 0.9914737583389961 -0.07372134845005687 0.00693579044259401 0.030782089102640863
0.09378907878283 0.007483508817244783 0.03312975381971558 0.9907318003067385 -0.07910400582330429 0.0021930650045336717 0.015560738083988288 -0.0018567275277995433 -0.009924675861833685
 0.9907318003067385 -0.07910400582330429 0.007494186071306386 0.03312890418432541 -0.0018562814377924327 -0.009924700022376573 0.0021276041028320237 0.015570473995950466
 0.0021930650045336717 0.015560738083988288 -0.0018562814377924327 -0.009924700022376573 0.007483927565899038 0.033130954772329316 0.9907318632916663 -0.07910275353528663
 -0.0018567275277995433 -0.009924675861833685 0.0021276041028320237 0.015570473995950466 0.9907318632916663 -0.07910275353528663 0.007493887046849336 0.033130184392880416
0.100041684035 0.008069835864549063 0.03549441370768649 0.9899509734182427 -0.0844996205160202 0.0024538123461873627 0.01659058249144383 -0.002074584540387856 -0.010582965088308435
 0.9899509734182427 -0.0844996205160202 0.008081985648716981 0.0354934556884283 -0.0020740786535263615 -0.010582996335306544 0.002379320678516325 0.01660198373463176
 0.0024538123461873627 0.01659058249144383 -0.0020740786535263615 -0.010582996335306544 0.008070311835975617 0.03549568949218622 0.9899510448772043 -0.0844982845163535
 -0.002074584540387856 -0.010582965088308435 0.002379320678516325 0.01660198373463176 0.9899510448772043 -0.0844982845163535 0.00808164487590848 0.0354948234158689
0.1059090909091 0.008647319535820694 0.03772796638280279 0.9891824712943101 -0.08957530307866048 0.002712621279734595 0.017554773492072746 -0.0022908425719543146 -0.011198957222663015
 0.9891824712943101 -0.08957530307866048 0.008660938480434815 0.037726898965980964 -0.002290277327130354 -0.011198996005419964 0.0026291244531446083 0.017567903741254946
 0.002712621279734595 0.017554773492072746 -0.002290277327130354 -0.011198996005419964 0.008647852496023766 0.037729311504631845 0.9891825512125565 -0.08957388845696408
 -0.0022908425719543146 -0.011198957222663015 0.0026291244531446083 0.017567903741254946 0.9891825512125565 -0.08957388845696408 0.00866055602750537 0.03772834921393938
0.1062942892872 0.008686164297191852 0.0378750825828447 0.9891307983208172 -0.08990893772138585 0.0027300922061133663 0.017617992337567258 -0.002305442097939194 -0.011239332684464429
 0.9891307983208172 -0.08990893772138585 0.008699882657214471 0.037874007715337506 -0.0023048728470152777 -0.011239371992997793 0.0026459862221671665 0.01763124193874275
 0.0027300922061133663 0.017617992337567258 -0.0023048728470152777 -0.011239371992997793 0.008686701109985095 0.03787643222576624 0.9891308788118759 -0.08990751793544878
 -0.002305442097939194 -0.011239332684464429 0.0026459862221671665 0.01763124193874275 0.9891308788118759 -0.08990751793544878 0.008699497383150004 0.0378754633949521
0.11254689453939999 0.009332920155389706 0.04027121444066232 0.9882708568137663 -0.09533151612377716 0.0030219799135557043 0.018642674164400054 -0.0025493796212760936 -0.011893498312114295
 0.9882708568137663 -0.09533151612377716 0.009348303434351033 0.04027001385633924 -0.0025487434722660093 -0.011893546708077093 0.0029276766721423974 0.018657965423530983
 0.0030219799135557043 0.018642674164400054 -0.0025487434722660093 -0.011893546708077093 0.009333521415045428 0.040272636909820275 0.9882709469010595 -0.09533001246899919
 -0.0025493796212760936 -0.011893498312114295 0.0029276766721423974 0.018657965423530983 0.9882709469010595 -0.09533001246899919 0.009347870903468279 0.040271557951579315
0.11879949979160001 0.010010522058316698 0.042682258535617794 0.987370737153004 -0.10076689784568925 0.0033295441731557426 0.019664329556755126 -0.0028064699296196064 -0.012545177407430948
 0.987370737153004 -0.10076689784568925 0.010027666923975857 0.04268092294483533 -0.002805763381963939 -0.012545235967429314 0.003224461518139268 0.019681866123154073
 0.0033295441731557426 0.019664329556755126 -0.002805763381963939 -0.012545235967429314 0.010011191355577778 0.042683752739846606 0.9873708374077447 -0.10076531023161735
 -0.0028064699296196064 -0.012545177407430948 0.003224461518139268 0.019681866123154073 0.9873708374077447 -0.10076531023161735 0.010027184378776036 0.04268255594978311
0.1250521050438 0.010719380921127869 0.04510765850831555 0.9864300344135286 -0.10621460949147425 0.003652846858551691 0.02068265534886028 -0.0030767790486208616 -0.013194081265843921
 0.9864300344135286 -0.10621460949147425 0.010738384394181328 0.045106178181913446 -0.003075998635490855 -0.013194151117032017 0.003536403600293044 0.020702651293577724
 0.003652846858551691 0.02068265534886028 -0.003075998635490855 -0.013194151117032017 0.010720121830500851 0.045109223293855534 0.9864301454132633 -0.10621293782295262
 -0.0030767790486208616 -0.013194081265843921 0.003536403600293044 0.020702651293577724 0.9864301454132633 -0.10621293782295262 0.010737849075018168 0.04510790061843427
0.131304710296 0.011459899664856723 0.04754685170199913 0.985448350841982 -0.11167416302240664 0.0039919428098622875 0.021697343825662376 -0.003360366020114599 -0.01383991714904841
 0.985448350841982 -0.11167416302240664 0.011480859146063237 0.0475452164513908 -0.003359508308600332 -0.013839999469010818 0.0038635589110575744 0.021720023710246585
 0.0039919428098622875 0.021697343825662376 -0.003359508308600332 -0.013839999469010818 0.011460715743162906 0.04754848585684928 0.9854484731720227 -0.11167240719523201
 -0.003360366020114599 -0.01383991714904841 0.0038635589110575744 0.021720023710246585 0.9854484731720227 -0.11167240719523201 0.01148026829235403 0.04754702887412066
0.1375573155481 0.01207860538360249 0.049683580226168846 0.9845792571150972 -0.1168291371800129 0.004309160228962178 0.022679053009296214 -0.0036197145987909548 -0.014453268883059206
 0.9845792571150972 -0.1168291371800129 0.012101624070942481 0.049681809847866125 -0.0036187742659038926 -0.014453363980039238 0.004168545914048489 0.0227044157471294
 0.004309160228962178 0.022679053009296214 -0.0036187742659038926 -0.014453363980039238 0.012079499244698607 0.04968528305575511 0.9845793912923134 -0.11682729718735588
 -0.0036197145987909548 -0.014453268883059206 0.004168545914048489 0.0227044157471294 0.9845793912923134 -0.11682729718735588 0.012100975993476515 0.04968371246351961
0.1438099208003 0.012719481461403738 0.05180591457342008 0.983678701862151 -0.12196782611746995 0.00463904309358626 0.02365465860685128 -0.0038892493766749386 -0.015061106858696877
 0.983678701862151 -0.12196782611746995 0.012744658048506276 0.051804000208269696 -0.0038882226990138162 -0.015061215920181812 0.004485672140413821 0.023682912659447136
 0.00463904309358626 0.02365465860685128 -0.0038882226990138162 -0.015061215920181812 0.0127204564695932 0.05180768488698339 0.9836788484670874 -0.12196590187111565
 -0.0038892493766749386 -0.015061106858696877 0.004485672140413821 0.023682912659447136 0.9836788484670874 -0.12196590187111565 0.012743950179385148 0.05180599354463589
0.1500625260525 0.013382247902245606 0.05391358465009518 0.9827469706453901 -0.12709000649608998 0.0049814406169174635 0.024623993626567774 -0.00416882566831387 -0.015663279690497352
 0.9827469706453901 -0.12709000649608998 0.01340968144609546 0.05391151686130083 -0.004167708932590107 -0.01566340395283543 0.004814791201995684 0.024655355056793914
 0.0049814406169174635 0.024623993626567774 -0.004167708932590107 -0.01566340395283543 0.013383307394564562 0.05391542121361943 0.9827471302642157 -0.1270879979046337
 -0.00416882566831387 -0.015663279690497352 0.004814791201995684 0.024655355056793914 0.9827471302642157 -0.1270879979046337 0.013408911229606172 0.05391360146717491
0.15631513130469998 0.014066622085700345 0.056006328574413254 0.9817843511824565 -0.1321954581238554 0.005336199845835517 0.025586894819313574 -0.004458296682969422 -0.01625963998760074
 0.9817843511824565 -0.1321954581238554 0.014096412014240544 0.056004097328381845 -0.0044570861864054725 -0.016259780735821298 0.005155754627225163 0.025621587190723234
