! Created with skrf 1.8.0 (http://scikit-rf.org).
# GHz S RI R 50.0 
!freq ReS11 ImS11 ReS12 ImS12 ReS13 ImS13
! ReS14 ImS14
! ReS21 ImS21 ReS22 ImS22 ReS23 ImS23
! ReS24 ImS24
! ReS31 ImS31 ReS32 ImS32 ReS33 ImS33
! ReS34 ImS34
! ReS41 ImS41 ReS42 ImS42 ReS43 ImS43
! ReS44 ImS44
!
0.0 0.001482868696603 0.0 0.9985171312849 0.0 5.677633213045e-05 0.0 -5.677633154147e-05 6.953095268959015e-21
 0.9985171312849 0.0 0.00148286869664 0.0 -5.677633154235e-05 6.953095269066783e-21 5.677633213021e-05 0.0
 5.677633213045e-05 0.0 -5.677633154235e-05 6.953095269066783e-21 0.001482868705873 0.0 0.9985171312941 0.0
 -5.677633154147e-05 6.953095268959015e-21 5.677633213021e-05 0.0 0.9985171312941 0.0 0.00148286870586 0.0
0.005 0.00159520177733585 0.001219249208211765 0.9983750686384354 -0.003106042798889076 7.854115224924688e-05 0.0005896586925802769 -7.650357106838985e-05 -0.0003764220049689424
 0.9983750686384354 -0.003106042798889076 0.0015952138621510741 0.0012192420941921419 -7.650487691224392e-05 -0.00037642292763204367 7.844612359597841e-05 0.00058969456236469
 7.854115224924688e-05 0.0005896586925802769 -7.650487691224392e-05 -0.00037642292763204367 0.001595201176899188 0.001219182239793596 0.9983750682816972 -0.003106109860478588
 -7.650357106838985e-05 -0.0003764220049689424 7.844612359597841e-05 0.00058969456236469 0.9983750682816972 -0.003106109860478588 0.0015952137566635767 0.0012191749461272963
0.006252605252188 0.0016246096855173243 0.00152883707583096 0.9983376546142431 -0.0038833186668566985 8.472767506503143e-05 0.0007373789372402788 -8.204097476678569e-05 -0.00047100883660570434
 0.9983376546142431 -0.0038833186668566985 0.0016246285772925056 0.00152882811172672 -8.204300740262592e-05 -0.00047100997259288935 8.457919743998152e-05 0.0007374255556303627
 8.472767506503143e-05 0.0007373789372402788 -8.204300740262592e-05 -0.00047100997259288935 0.0016246088215280225 0.0015287533774704992 0.9983376541307307 -0.0038834024780685732
 -8.204097476678569e-05 -0.00047100883660570434 8.457919743998152e-05 0.0007374255556303627 0.9983376541307307 -0.0038834024780685732 0.0016246284862211546 0.0015287442025812724
0.01250521050438 0.001779106983426785 0.003089555203162646 0.9981398551263265 -0.007767460611364394 0.00012003925568644536 0.0014752412035112911 -0.00011328586911439536 -0.0009442990171259063
 0.9981398551263265 -0.007767460611364394 0.001779182431066885 0.003089536567382071 -0.00011329388759798928 -0.0009443010984976562 0.00011944703643596045 0.0014753535731043738
 0.00012003925568644536 0.0014752412035112911 -0.00011329388759798928 -0.0009443010984976562 0.0017791041270186594 0.003089388009025502 0.9981398537776697 -0.007767628017207654
 -0.00011328586911439536 -0.0009442990171259063 0.00011944703643596045 0.0014753535731043738 0.9981398537776697 -0.007767628017207654 0.0017791826438714245 0.003089369088688801
0.01875781575657 0.001946687319924273 0.0046724130689336065 0.997923494395496 -0.011661883628486018 0.00016279177499579976 0.002214044977075342 -0.00015060405792359424 -0.0014192451855274324
 0.997923494395496 -0.011661883628486018 0.001946856872009842 0.004672384008717813 -0.00015062195074319387 -0.00141924798310592 0.00016146112302219386 0.002214245803828577
 0.00016279177499579976 0.002214044977075342 -0.00015062195074319387 -0.00141924798310592 0.0019466813462910965 0.0046721624950227265 0.9979234917854225 -0.011662134554919802
 -0.00015060405792359424 -0.0014192451855274324 0.00016146112302219386 0.002214245803828577 0.9979234917854225 -0.011662134554919802 0.0019468577615515208 0.004672133211001694
0.02501042100875 0.0021276683487665106 0.00627522013979183 0.9976883248400633 -0.015568485325201806 0.00021306714674516376 0.002953816405634417 -0.00019408597426467472 -0.0018956491704145732
 0.9976883248400633 -0.015568485325201806 0.0021279694895359877 0.00627517987488831 -0.00019411758731505856 -0.001895652412736518 0.00021070307752609052 0.0029541318567194432
 0.00021306714674516376 0.002953816405634417 -0.00019411758731505856 -0.001895652412736518 0.0021276581547762788 0.006274886293627087 0.9976883205762852 -0.015568819761986293
 -0.00019408597426467472 -0.0018956491704145732 0.00021070307752609052 0.0029541318567194432 0.9976883205762852 -0.015568819761986293 0.0021279714278909785 0.006274845999401276
0.03126302626094 0.0023223545773635086 0.007896854879105701 0.9974340858472994 -0.01948808487628377 0.0002709477865485864 0.0036945182348860667 -0.00024381973264148095 -0.0023733712966127712
 0.9974340858472994 -0.01948808487628377 0.002322824748697256 0.007896802606547095 -0.00024386887648389938 -0.0023733746693956528 0.00026725475111036696 0.003694977963248559
 0.0002709477865485864 0.0036945182348860667 -0.00024386887648389938 -0.0023733746693956528 0.0023223390724665203 0.00789643789878916 0.9974340795320371 -0.01948850283803772
 -0.00024381973264148095 -0.0023733712966127712 0.00026725475111036696 0.003694977963248559 0.9974340795320371 -0.01948850283803772 0.002322828100051683 0.007896385924640007
0.037515631513130004 0.002531044034958606 0.00953659037533053 0.9971605106299487 -0.02342109733560027 0.0003365158183287934 0.004436088101609104 -0.0002998917233823844 -0.0028522920835622563
 0.9971605106299487 -0.02342109733560027 0.002531720652222203 0.009536525272228981 -0.0002999621769354553 -0.002852295229490627 0.0003311975794558773 0.004436725284455724
 0.0003365158183287934 0.004436088101609104 -0.0002999621769354553 -0.002852295229490627 0.0025310221463926926 0.009536090425773944 0.9971605018642197 -0.023421598865699295
 -0.0002998917233823844 -0.0028522920835622563 0.0003311975794558773 0.004436725284455724 0.9971605018642197 -0.023421598865699295 0.0025317257789101467 0.00953602608183153
0.043768236765320004 0.002754030846293573 0.011193889114982692 0.9968673289899663 -0.02736773879357953 0.0004098527097503521 0.005178450179121867 -0.0003623868180863507 -0.0033323005946681835
 0.9968673289899663 -0.02736773879357953 0.002754951311005252 0.011193810340677074 -0.0003624823307147598 -0.003332303113264241 0.0004026122808076531 0.00517930156084238
 0.0004098527097503521 0.005178450179121867 -0.0003624823307147598 -0.003332303113264241 0.0027540015169905973 0.011193306394283556 0.9968673173709159 -0.027368323958000446
 -0.0003623868180863507 -0.0033323005946681835 0.0004026122808076531 0.00517930156084238 0.9968673173709159 -0.027368323958000446 0.0027549585724492443 0.011193228972833208
0.050020842017509996 0.0029916064334122444 0.012868318155105217 0.9965542687147818 -0.031328111133142586 0.0004910390503096428 0.005921519977799505 -0.00043138844494169975 -0.00381328963403648
 0.9965542687147818 -0.031328111133142586 0.002992808144954516 0.01286822485272056 -0.0004315127378079011 -0.003813291081570417 0.00048157866749434406 0.0059226259146927
 0.0004910390503096428 0.005921519977799505 -0.0004315127378079011 -0.003813291081570417 0.002991568622330045 0.012867652891458909 0.9965542538346608 -0.0313287800236708
 -0.00043138844494169975 -0.00381328963403648 0.00048157866749434406 0.0059226259146927 0.9965542538346608 -0.0313287800236708 0.002992817898235545 0.012867561668706035
0.055454545454549996 0.003210139447275573 0.014337071144289785 0.9962658536406094 -0.034780969923601586 0.0005680289676332097 0.006567774525815904 -0.000496700769988445 -0.004231997799649954
 0.9962658536406094 -0.034780969923601586 0.0032116159501508748 0.01433696450903571 -0.0004968530745023973 -0.004231997922392694 0.0005563969473563514 0.0065691372926018924
 0.0005680289676332097 0.006567774525815904 -0.0004968530745023973 -0.004231997922392694 0.003210093433300878 0.014336334363124648 0.996265835591787 -0.03478171166333249
 -0.000496700769988445 -0.004231997799649954 0.0005563969473563514 0.0065691372926018924 0.996265835591787 -0.03478171166333249 0.003211628158672758 0.014336230547302955
0.056273447269699996 0.00324406013255955 0.014559507490696434 0.99622105639146 -0.035302243591160805 0.0005801543955020477 0.006665206708359221 -0.0005069786029375751 -0.004295153383101142
 0.99622105639146 -0.035302243591160805 0.0032455804989414633 0.014559398788409807 -0.0005071353698151961 -0.004295153272524302 0.0005681755100075084 0.006666611214235845
 0.0005801543955020477 0.006665206708359221 -0.0005071353698151961 -0.004295153272524302 0.0032440128159975314 0.014558759950008488 0.9962210378378237 -0.03530299631801654
 -0.0005069786029375751 -0.004295153383101142 0.0005681755100075084 0.006666611214235845 0.9962210378378237 -0.03530299631801654 0.003245593100810706 0.014558654187391952
0.06252605252188 0.0035116795300809507 0.01626712717490386 0.9958674179438276 -0.03929011556900247 0.0006772771416701425 0.007409414579947831 -0.0005892378468237043 -0.004777786105445944
 0.9958674179438276 -0.03929011556900247 0.003513555978292818 0.01626700218695255 -0.0005894307545969491 -0.004777783906326733 0.0006624804253305913 0.007411165372156293
 0.0006772771416701425 0.007409414579947831 -0.0005894307545969491 -0.004777783906326733 0.0035116217008935168 0.016266297658684634 0.9958673952977094 -0.039290952263057434
 -0.0005892378468237043 -0.004777786105445944 0.0006624804253305913 0.007411165372156293 0.9958673952977094 -0.039290952263057434 0.0035135717849946037 0.016266176604020032
0.06877865777407 0.0037947506422426175 0.017990873662561784 0.9954930790168621 -0.04329167022276969 0.0007824844210271968 0.008154043567534911 -0.0006782452524202192 -0.005261081385590168
 0.9954930790168621 -0.04329167022276969 0.003797020628671838 0.017990731489842995 -0.0006784779414165409 -0.005261076524061202 0.0007645697810394819 0.008156192113101842
 0.0007824844210271968 0.008154043567534911 -0.0006784779414165409 -0.005261076524061202 0.0037946813117725234 0.01798996250695252 0.9954930518536517 -0.04329259103667981
 -0.0006782452524202192 -0.005261081385590168 0.0007645697810394819 0.008156192113101842 0.9954930518536517 -0.04329259103667981 0.003797039998079842 0.01798982539510925
0.07503126302626001 0.004093558004081787 0.019730461158675595 0.995097765273642 -0.047306823051633674 0.0008958520053834672 0.00889898991087596 -0.0007740783726488025 -0.005744931639629113
 0.995097765273642 -0.047306823051633674 0.00409625902440983 0.019730300889110874 -0.0007743544567894611 -0.005744923498345911 0.0008745186061742243 0.008901591472618731
 0.0008958520053834672 0.00889898991087596 -0.0007743544567894611 -0.005744923498345911 0.004093476200956753 0.01972946873715622 0.9950977331602205 -0.047307828157158005
 -0.0007740783726488025 -0.005744931639629113 0.0008745186061742243 0.008901591472618731 0.9950977331602205 -0.047307828157158005 0.004096282315341987 0.019729314790558755
0.08128386827845 0.00440838469932259 0.021485615865987604 0.9946812026368861 -0.05133546759087534 0.0010174542175591533 0.009644146442003185 -0.0008768131852658176 -0.0062292278009951725
 0.9946812026368861 -0.05133546759087534 0.004411554298659049 0.021485436574637005 -0.00087713625206051 -0.006229215719095488 0.000992400508094814 0.009647260124462395
 0.0010174542175591533 0.009644146442003185 -0.00087713625206051 -0.006229215719095488 0.004408289471577912 0.021484542588707075 0.9946811651330332 -0.05133655717977138
 -0.0008768131852658176 -0.0062292278009951725 0.000992400508094814 0.009647260124462395 0.9946811651330332 -0.05133655717977138 0.004411581873650464 0.021484371017418194
0.08753647353064001 0.004739512354075101 0.023256071997223845 0.9942431174977071 -0.05537747934444819 0.0011473638463750549 0.010389402818109293 -0.0009865240361383255 -0.006713859104540658
 0.9942431174977071 -0.05537747934444819 0.0047431881371424985 0.023255872745992924 -0.0009868976466690816 -0.006713842377619362 0.0011182875917639561 0.010393091613250834
 0.0011473638463750549 0.010389402818109293 -0.0009868976466690816 -0.006713842377619362 0.004739402769126859 0.0232549183113743 0.9942430741542617 -0.055378653627998146
 -0.0009865240361383255 -0.006713859104540658 0.0011182875917639561 0.010393091613250834 0.9942430741542617 -0.055378653627998146 0.004743220362541742 0.023254728312919082
0.09378907878283 0.005087221102619101 0.025041568933119537 0.9937832368992633 -0.059432718575692774 0.0012856520646018332 0.011134645692709413 -0.0011032835785842142 -0.007198712936246972
 0.9937832368992633 -0.059432718575692774 0.005091440744046145 0.025041348770252204 -0.001103711267370483 -0.007198690816333041 0.0012522503815290981 0.011138976525304961
 0.0012856520646018332 0.011134645692709413 -0.001103711267370483 -0.007198690816333041 0.005087096247994602 0.025040335322557408 0.9937831872579327 -0.05943397778521507
 -0.0011032835785842142 -0.007198712936246972 0.0012522503815290981 0.011138976525304961 0.9937831872579327 -0.05943397778521507 0.005091477991231874 0.025040126081478275
0.100041684035 0.00545178953487388 0.02684184913303156 0.9933012887059878 -0.06350103235029117 0.0014323883487667216 0.01187975884195038 -0.0012271627100673105 -0.007683674731810378
 0.9933012887059878 -0.06350103235029117 0.005456590789546025 0.026841607092200404 -0.0012276479849054423 -0.007683646427349182 0.0013943577438849779 0.011884802614538958
 0.0014323883487667216 0.01187975884195038 -0.0012276479849054423 -0.007683646427349182 0.005451648518743324 0.02684053611789442 0.99330123229806 -0.06350237673738815
 -0.0012271627100673105 -0.007683674731810378 0.0013943577438849779 0.011884802614538958 0.99330123229806 -0.06350237673738815 0.005456633435728497 0.026840306804901227
0.1059090909091 0.0058094787910521 0.028544438290218865 0.9928287196525855 -0.06733045800094718 0.001577828542044428 0.012578744555743614 -0.0013499468807398423 -0.008138754301298644
 0.9928287196525855 -0.06733045800094718 0.005814860245923138 0.028544174826426592 -0.0013504893602228635 -0.008138719434562928 0.0015351776540315338 0.012584525414483948
 0.001577828542044428 0.012578744555743614 -0.0013504893602228635 -0.008138719434562928 0.005809321816656931 0.0285430512705477 0.9928286564591631 -0.06733188256228301
 -0.0013499468807398423 -0.008138754301298644 0.0015351776540315338 0.012584525414483948 0.9928286564591631 -0.06733188256228301 0.005814908307818239 0.02854280235467321
0.1062942892872 0.005833494630110787 0.028656656567337548 0.992797001761309 -0.06758225606183972 0.001587640399983171 0.012624623269947882 -0.0013582305068714467 -0.00816862790025679
 0.992797001761309 -0.06758225606183972 0.005838915343140631 0.028656391666528898 -0.0013587768485492692 -0.008168592576110398 0.0015446768112247786 0.012630454907405221
 0.001587640399983171 0.012624623269947882 -0.0013587768485492692 -0.008168592576110398 0.0058333365816754905 0.028655264707138105 0.9927969381073803 -0.0675836858953644
 -0.0013582305068714467 -0.00816862790025679 0.0015446768112247786 0.012630454907405221 0.9927969381073803 -0.0675836858953644 0.005838963772578689 0.02865501447800611
0.11254689453939999 0.006232611678733839 0.030485735522061425 0.9922701060373644 -0.07167621459022769 0.0017514740661068713 0.013369117288248682 -0.0014965541566778272 -0.008653453777676824
 0.9922701060373644 -0.07167621459022769 0.006238689796506886 0.030485446762026195 -0.0014971650187900329 -0.008653410555126773 0.001703272906331098 0.013375815781789462
 0.0017514740661068713 0.013369117288248682 -0.0014971650187900329 -0.008653410555126773 0.00623243574963407 0.0304842654111023 0.9922700346463839 -0.07167773016073441
 -0.0014965541566778272 -0.008653453777676824 0.001703272906331098 0.013375815781789462 0.9922700346463839 -0.07167773016073441 0.006238744401539943 0.03048399340515219
0.11879949979160001 0.0066494141971721946 0.03232882965770227 0.9917203327798947 -0.07578272321090221 0.0019239532638275767 0.014113116590281853 -0.001642198890480628 -0.009138031590264386
 0.9917203327798947 -0.07578272321090221 0.006656187777489461 0.03232851602008653 -0.0016428776990464555 -0.009137979547025062 0.0018702094668779006 0.014120765041011308
 0.0019239532638275767 0.014113116590281853 -0.0016428776990464555 -0.009137979547025062 0.006649219561322184 0.032327281929011444 0.9917202531484652 -0.07578432482655113
 -0.001642198890480628 -0.009138031590264386 0.0018702094668779006 0.014120765041011308 0.9917202531484652 -0.07578432482655113 0.006656248959594972 0.0323269872672674
0.1250521050438 0.0070841738347037775 0.0341856812782248 0.9911474146481928 -0.0799015882990185 0.0021051399017495195 0.01485649430966009 -0.0017952279129240557 -0.009622238437890094
 0.9911474146481928 -0.0799015882990185 0.007091681057858799 0.03418534172337708 -0.0017959780661252875 -0.00962217660812719 0.0020455479703474807 0.014865179971479016
 0.0021051399017495195 0.01485649430966009 -0.0017959780661252875 -0.00962217660812719 0.007083959689681938 0.034184056601291216 0.9911473262599512 -0.0799032762877225
 -0.0017952279129240557 -0.009622238437890094 0.0020455479703474807 0.014865179971479016 0.9911473262599512 -0.0799032762877225 0.0070917492287114366 0.03418373838432332
0.131304710296 0.0075371602761163 0.03605603074012983 0.9905510858535832 -0.0840326078989391 0.0022950938035790104 0.015599121077996329 -0.001955702332012006 -0.010105949282673636
 0.9905510858535832 -0.0840326078989391 0.007545439455374572 0.03605566420450079 -0.0019565271997524277 -0.010105876657054369 0.002229347859290227 0.01560893539988246
 0.0022950938035790104 0.015599121077996329 -0.0019565271997524277 -0.010105876657054369 0.007536925843419199 0.0360543298210188 0.9905509881781391 -0.08403438260800697
 -0.001955702332012006 -0.010105949282673636 0.002229347859290227 0.01560893539988246 0.9905509881781391 -0.08403438260800697 0.007545515038043357 0.03605398712633869
0.1375573155481 0.00790307936516136 0.03769729355928926 0.9900366813276427 -0.08793314905840505 0.0024696147522598353 0.016316978488795274 -0.0020995068739707106 -0.010565105473867669
 0.9900366813276427 -0.08793314905840505 0.007912171689193597 0.03769690454192049 -0.0021004112045239576 -0.010565021975040759 0.002397572873612494 0.016327905425731083
 0.0024696147522598353 0.016316978488795274 -0.0021004112045239576 -0.010565021975040759 0.007902822801369273 0.037695517544276816 0.9900365739349637 -0.0879350106916729
 -0.0020995068739707106 -0.010565105473867669 0.002397572873612494 0.016327905425731083 0.9900365739349637 -0.0879350106916729 0.007912255998389529 0.03769515391603282
0.1438099208003 0.008281839200823612 0.03933024375699465 0.9895042672365985 -0.0918241047825371 0.0026511831138826924 0.017031990655237878 -0.00224905490155531 -0.011021675791803055
 0.9895042672365985 -0.0918241047825371 0.008291783598277367 0.03932983129908813 -0.0022500422728248294 -0.011021580434143434 0.0025725685154799486 0.017044113541337856
 0.0026511831138826924 0.017031990655237878 -0.0022500422728248294 -0.011021580434143434 0.00828155956901789 0.03932839344437657 0.9895041495970975 -0.0918260536817859
 -0.00224905490155531 -0.011021675791803055 0.0025725685154799486 0.017044113541337856 0.9895041495970975 -0.0918260536817859 0.008291877234372151 0.039328007946052214
0.1500625260525 0.008673310676848383 0.04095475386720137 0.988953976448769 -0.09570538713473836 0.002839738265731987 0.017744087101398638 -0.0024042880521814845 -0.011475594696531621
 0.988953976448769 -0.09570538713473836 0.0086841462172817 0.04095431691709376 -0.0024053620317250166 -0.011475486455213858 0.0027542756984077358 0.01775749231276979
 0.002839738265731987 0.017744087101398638 -0.0024053620317250166 -0.011475486455213858 0.008673007050703797 0.04095283009173198 0.9889538480207801 -0.09570742365187193
 -0.0024042880521814845 -0.011475594696531621 0.0027542756984077358 0.01775749231276979 0.9889538480207801 -0.09570742365187193 0.008684249802432755 0.04095242169077451
0.15631513130469998 0.009077363826006149 0.04257070030397462 0.9883859424441198 -0.09957690831278689 0.003035218893047087 0.01845319850785437 -0.0025651472708214055 -0.011926797999203268
 0.9883859424441198 -0.09957690831278689 0.009089129724015661 0.04257023771199017 -0.0025663114156021334 -0.01192667581044695 0.002942634664533611 0.01846797543321621
