! Created with skrf 1.8.0 (http://scikit-rf.org).
# GHz S RI R 50.0 
!freq ReS11 ImS11 ReS12 ImS12 ReS13 ImS13
! ReS14 ImS14
! ReS21 ImS21 ReS22 ImS22 ReS23 ImS23
! ReS24 ImS24
! ReS31 ImS31 ReS32 ImS32 ReS33 ImS33
! ReS34 ImS34
! ReS41 ImS41 ReS42 ImS42 ReS43 ImS43
! ReS44 ImS44
!
0.0 0.001626112201725 0.0 0.9983738877983 0.0 6.274446759232e-05 0.0 -6.274446794815e-05 7.68398118369056e-21
 0.9983738877983 0.0 0.00162611220172 0.0 -6.274446794756e-05 7.683981183618304e-21 6.274446759287e-05 0.0
 6.274446759232e-05 0.0 -6.274446794756e-05 7.683981183618304e-21 0.001626112190329 0.0 0.9983738877869 0.0
 -6.274446794815e-05 7.68398118369056e-21 6.274446759287e-05 0.0 0.9983738877869 0.0 0.00162611219036 0.0
0.005 0.0017497950160147839 0.0013322121209732338 0.9982173936908671 -0.0034059046073612147 8.766413530198467e-05 0.0006782586950353417 -8.524661957937368e-05 -0.0004279606958429987
 0.9982173936908671 -0.0034059046073612147 0.0017497871714828566 0.0013322167611683822 -8.524764307534438e-05 -0.00042796153274122833 8.770023384701718e-05 0.0006782448273762801
 8.766413530198467e-05 0.0006782586950353417 -8.524764307534438e-05 -0.00042796153274122833 0.001749794584729667 0.001332279686953709 0.9982173940525647 -0.0034058375499163448
 -8.524661957937368e-05 -0.0004279606958429987 8.770023384701718e-05 0.0006782448273762801 0.9982173940525647 -0.0034058375499163448 0.0017497883222119099 0.0013322833075667874
0.006252605252188 0.0017823088066265507 0.0016704852830083628 0.9981759883271315 -0.004258200871879698 9.48057992497691e-05 0.0008481543794094343 -9.162854948844343e-05 -0.0005354967300985078
 0.9981759883271315 -0.004258200871879698 0.0017822965439854717 0.0016704912051931262 -9.16301417201893e-05 -0.0005354977629578534 9.486219832286135e-05 0.0008481363874307184
 9.48057992497691e-05 0.0008481543794094343 -9.16301417201893e-05 -0.0005354977629578534 0.001782308066283111 0.0016705697359633198 0.9981759888268724 -0.004258117059261857
 -9.162854948844343e-05 -0.0005354967300985078 9.486219832286135e-05 0.0008481363874307184 0.9981759888268724 -0.004258117059261857 0.0017822982776099642 0.0016705743716062909
0.01250521050438 0.001953907805048051 0.0033757716430946744 0.9979559937146726 -0.00851710899359135 0.00013588004304757723 0.001696684530683022 -0.00012799280823702934 -0.001073528742117295
 0.9979559937146726 -0.00851710899359135 0.0019538588352518947 0.0033757847370801774 -0.00012799907816662644 -0.0010735306623608038 0.00013610490401491784 0.001696641414874135
 0.00013588004304757723 0.001696684530683022 -0.00012799907816662644 -0.0010735306623608038 0.0019539042605888446 0.003375940364821906 0.997955995130601 -0.008516941598442513
 -0.00012799280823702934 -0.001073528742117295 0.00013610490401491784 0.001696641414874135 0.997955995130601 -0.008516941598442513 0.0019538651837946058 0.003375950748255589
0.01875781575657 0.0021412995057774904 0.005105140731803703 0.9977136192121395 -0.012787069217383018 0.0001860659479783672 0.002546132722256052 -0.00017195200702983414 -0.00161332835608261
 0.9977136192121395 -0.012787069217383018 0.0021411894579384974 0.005105162376016902 -0.0001719659823181239 -0.0016133309903973402 0.0001865709665621545 0.002546055871889764
 0.0001860659479783672 0.002546132722256052 -0.0001719659823181239 -0.0016133309903973402 0.0021412911106893752 0.005105393676994435 0.9977136219811927 -0.012786818333492548
 -0.00017195200702983414 -0.00161332835608261 0.0001865709665621545 0.002546055871889764 0.9977136219811927 -0.012786818333492548 0.0021412033207827337 0.005105410997764674
0.02501042100875 0.002344861792062312 0.006856157545432304 0.9974485683915255 -0.01707013067614391 0.0002454631058363943 0.003396519205918738 -0.00022361695808110162 -0.0021546432359675896
 0.9974485683915255 -0.01707013067614391 0.002344666338979462 0.00685618924058868 -0.0002236416278600972 -0.002154646380016165 0.0002463599539605293 0.003396398586106337
 0.0002454631058363943 0.003396519205918738 -0.0002236416278600972 -0.002154646380016165 0.0023448464793035225 0.006856494714545624 0.997448572936536 -0.01706979635294733
 -0.00022361695808110162 -0.0021546432359675896 0.0002463599539605293 0.003396398586106337 0.997448572936536 -0.01706979635294733 0.0023446906017754996 0.006856520235003147
0.03126302626094 0.002564956945233681 0.008627558911148334 0.9971605302799093 -0.021367158266590382 0.00031417122348860287 0.004247787351436334 -0.000283095184698662 -0.0026972913124352535
 0.9971605302799093 -0.021367158266590382 0.0025646517926304615 0.008627602279995263 -0.00028313350620103825 -0.0026972947305559034 0.0003155716542871816 0.004247611496563398
 0.00031417122348860287 0.004247787351436334 -0.00028313350620103825 -0.0026972947305559034 0.0025649326415619665 0.00862798033210329 0.9971605370251284 -0.021366740527556573
 -0.000283095184698662 -0.0026972913124352535 0.0003155716542871816 0.004247611496563398 0.9971605370251284 -0.021366740527556573 0.002564689341955364 0.0086280153865928
0.037515631513130004 0.0028019392543523988 0.01041851356778518 0.9968491872472822 -0.025678572505356486 0.0003922892185023083 0.005099849908235444 -0.00035049166771984966 -0.0032411145374447144
 0.9968491872472822 -0.025678572505356486 0.002801500133437822 0.010418570355262268 -0.0003505465695338223 -0.0032411179625478066 0.00039430511246962016 0.005099605909013652
 0.0003922892185023083 0.005099849908235444 -0.0003505465695338223 -0.0032411179625478066 0.002801903882839784 0.0104190192849063 0.9968491966218804 -0.025678071359072692
 -0.00035049166771984966 -0.0032411145374447144 0.00039430511246962016 0.005099605909013652 0.9968491966218804 -0.025678071359072692 0.0028015538606042502 0.010419065279561244
0.043768236765320004 0.003056157953341623 0.012228397002511613 0.996514218221804 -0.03000457461935033 0.00047991478521246977 0.00595260305866711 -0.00042590910204872497 -0.0037859648438524417
 0.996514218221804 -0.03000457461935033 0.003055560615783391 0.012228469076334734 -0.00042598348621294675 -0.0037859679774541227 0.00048265817103876834 0.005952276547229723
 0.00047991478521246977 0.00595260305866711 -0.00042598348621294675 -0.0037859679774541227 0.003056109427699516 0.012228987073985545 0.9965142306546331 -0.030003990062178226
 -0.00042590910204872497 -0.0037859648438524417 0.00048265817103876834 0.005952276547229723 0.9965142306546331 -0.030003990062178226 0.003055633410440487 0.012229045486468736
0.050020842017509996 0.00332795857236611 0.014056698386327147 0.9961553003231104 -0.03434523953578957 0.0005771441241067212 0.006805932242899844 -0.0005094479816376347 -0.004331698335279109
 0.9961553003231104 -0.03434523953578957 0.0033271787864470118 0.014056787737577004 -0.0005095447249741096 -0.0043317008475205416 0.0005807271861865288 0.006805507377078465
 0.0005771441241067212 0.006805932242899844 -0.0005095447249741096 -0.0043317008475205416 0.0033278947983790956 0.01405737288236897 0.9961553162443075 -0.034344571553920754
 -0.0005094479816376347 -0.004331698335279109 0.0005807271861865288 0.006805507377078465 0.9961553162443075 -0.034344571553920754 0.0033272735374935167 0.01405744526189054
0.055454545454549996 0.0035787062985892654 0.015660160206194124 0.9958236889733433 -0.038129313893611835 0.0006695122495578516 0.00754787403382592 -0.00058871780593793 -0.00480656381117765
 0.9958236889733433 -0.038129313893611835 0.003577748290050108 0.015660266285560057 -0.0005888362974550668 -0.004806565491221701 0.0006739162436457575 0.0075473496722192725
 0.0006695122495578516 0.00754787403382592 -0.0005888362974550668 -0.004806565491221701 0.0035786275672963124 0.015660908138675506 0.9958237082778891 -0.03812857339157057
 -0.00058871780593793 -0.00480656381117765 0.0006739162436457575 0.0075473496722192725 0.9958237082778891 -0.03812857339157057 0.0035778644683608267 0.01566099396979355
0.056273447269699996 0.003617683625442531 0.01590297490693148 0.995772109834141 -0.038700561477029195 0.0006840717451660022 0.007659715008337057 -0.0006012066057428575 -0.004878172455102535
 0.995772109834141 -0.038700561477029195 0.003616697171821117 0.015903083650971934 -0.0006013285606925132 -0.004878173984798793 0.0006886068228716872 0.007659174455645306
 0.0006840717451660022 0.007659715008337057 -0.0006013285606925132 -0.004878173984798793 0.0036176025018995507 0.015903733915964873 0.9957721296769857 -0.03869981004046103
 -0.0006012066057428575 -0.004878172455102535 0.0006886068228716872 0.007659174455645306 0.9957721296769857 -0.03869981004046103 0.0036168167684587685 0.01590382188341501
0.06252605252188 0.003925672974011359 0.017766826661855997 0.9953643228551845 -0.04307047899910464 0.000800790305530521 0.008513822589968795 -0.0007012810470460289 -0.005425244429170354
 0.9953643228551845 -0.04307047899910464 0.003924455642807527 0.017766957039204744 -0.000701431042347646 -0.005425244583859928 0.0008063898874792134 0.008513147511444176
 0.000800790305530521 0.008513822589968795 -0.000701431042347646 -0.005425244583859928 0.003925572391674494 0.01776767027434023 0.9953643470551122 -0.04306964407800333
 -0.0007012810470460289 -0.005425244429170354 0.0008063898874792134 0.008513147511444176 0.9953643470551122 -0.04306964407800333 0.0039246029725204775 0.01776777552244549
0.06877865777407 0.004252264006547073 0.01964788167754049 0.9949316157771775 -0.04745488990919452 0.0009273904697014586 0.009368120850591613 -0.0008097650950017217 -0.005972770353786525
 0.9949316157771775 -0.04745488990919452 0.004250791594197944 0.019648036054956727 -0.0008099459361619952 -0.005972768709782717 0.0009341671837754012 0.00936729088469745
 0.0009273904697014586 0.009368120850591613 -0.0008099459361619952 -0.005972768709782717 0.00425214184852624 0.019648810006060047 0.9949316447726523 -0.04745397145408411
 -0.0008097650950017217 -0.005972770353786525 0.0009341671837754012 0.00936729088469745 0.9949316447726523 -0.04745397145408411 0.004250969542341084 0.019648934299773175
0.07503126302626001 0.004597791713697362 0.021545786439670506 0.9944736656552717 -0.051853660677640766 0.0010639607793129055 0.010222470889116694 -0.0009267501870123973 -0.00652060462116321
 0.9944736656552717 -0.051853660677640766 0.004596040019834037 0.02154596731134286 -0.0009269646565794595 -0.006520600723601229 0.001072027380073961 0.010221464135753162
 0.0010639607793129055 0.010222470889116694 -0.0009269646565794595 -0.006520600723601229 0.00459764585559177 0.02154679960281732 0.9944736998880124 -0.05185265863567549
 -0.0009267501870123973 -0.00652060462116321 0.001072027380073961 0.010221464135753162 0.9944736998880124 -0.05185265863567549 0.004596251469508436 0.021546944779819537
0.08128386827845 0.004962588697430786 0.023460199570185896 0.9939901505203221 -0.0562666327096003 0.0012105875310930644 0.011076729452779792 -0.0010523253295419235 -0.007068599546794237
 0.9939901505203221 -0.0562666327096003 0.004960533522366267 0.023460409559007748 -0.0010525761873775071 -0.007068592909697113 0.001220056884952699 0.011075522457408957
 0.0012105875310930644 0.011076729452779792 -0.0010525761873775071 -0.007068592909697113 0.0049624170071689835 0.023461297700969462 0.9939901904360483 -0.05626554701643298
 -0.0010523253295419235 -0.007068599546794237 0.001220056884952699 0.011075522457408957 0.9939901904360483 -0.05626554701643298 0.004960781353003787 0.023461465672152824
0.08753647353064001 0.005346985134249004 0.02539078747382102 0.9934807496492086 -0.06069362665370399 0.0013673546599488127 0.011930749227103283 -0.0011865770125645443 -0.007616605125122117
 0.9934807496492086 -0.06069362665370399 0.0053446022759485005 0.02539102933281767 -0.001186866995996002 -0.0076165952314406135 0.0013783397284405658 0.011929316965159139
 0.0013673546599488127 0.011930749227103283 -0.001186866995996002 -0.0076165952314406135 0.005346785472115186 0.025391970713362907 0.9934807956973682 -0.060692457240049444
 -0.0011865770125645443 -0.007616605125122117 0.0013783397284405658 0.011929316965159139 0.9934807956973682 -0.060692457240049444 0.00534488936262725 0.025392163463696542
0.09378907878283 0.005751308708596265 0.027337221215981287 0.9929451438086961 -0.06513444548660419 0.0015343436240803465 0.012784379055600389 -0.0013295891204375902 -0.008164468861731151
 0.9929451438086961 -0.06513444548660419 0.005748573960142318 0.027337497829835803 -0.001329920944350181 -0.008164455163407846 0.001546957445777176 0.01278269491710387
 0.0015343436240803465 0.012784379055600389 -0.001329920944350181 -0.008164455163407846 0.005751078927485172 0.02733848972355682 0.9929451964430205 -0.06513319226838535
 -0.0013295891204375902 -0.008164468861731151 0.001546957445777176 0.01278269491710387 0.9929451964430205 -0.06513319226838535 0.005748903172994036 0.027338709312882934
0.100041684035 0.00617588452329948 0.02929917425834288 0.992383015479736 -0.06958887674689057 0.0017116332935330836 0.013637464108693797 -0.0014814428383558146 -0.008712035662705085
 0.992383015479736 -0.06958887674689057 0.0061727736699778955 0.029299488645108843 -0.0014818191952266715 -0.008712017580733042 0.0017259889644109054 0.013635499883151578
 0.0017116332935330836 0.013637464108693797 -0.0014818191952266715 -0.008712017580733042 0.0061756224687768 0.029300528200837703 0.9923830751593631 -0.06958753963621621
 -0.0014814428383558146 -0.008712035662705085 0.0017259889644109054 0.013635499883151578 0.9923830751593631 -0.06958753963621621 0.006173147873408431 0.029300776764886814
0.1059090909091 0.006593010325447261 0.031154083449869235 0.9918311146017177 -0.0737810670650481 0.0018874371106571198 0.014437357460591924 -0.00163205266106617 -0.00922545846632568
 0.9918311146017177 -0.0737810670650481 0.006589524505540776 0.03115443614775299 -0.0016324732362573342 -0.00922543571664532 0.0019035302148578963 0.014435103307188652
 0.0018874371106571198 0.014437357460591924 -0.0016324732362573342 -0.00922543571664532 0.00659271601965048 0.03115551772909628 0.9918311813142531 -0.07377965114042882
 -0.00163205266106617 -0.00922545846632568 0.0019035302148578963 0.014435103307188652 0.9918311813142531 -0.07377965114042882 0.006589943526797751 0.031155795493858867
0.1062942892872 0.006621034994091653 0.03127632073630773 0.9917940490711523 -0.07405669423512572 0.0018992998392029002 0.014489846022866867 -0.0016422165572076227 -0.009259147760408844
 0.9917940490711523 -0.07405669423512572 0.006617523810993672 0.03127667604917046 -0.0016426401171559012 -0.009259124684890556 0.0019155104920286113 0.014487571884470972
 0.0018992998392029002 0.014489846022866867 -0.0016426401171559012 -0.009259124684890556 0.00662073850427697 0.03127776029475023 0.9917941162597914 -0.07405527313389894
 -0.0016422165572076227 -0.009259147760408844 0.0019155104920286113 0.014487571884470972 0.9917941162597914 -0.07405527313389894 0.006617945862417213 0.03127804004626691
0.11254689453939999 0.0070870797313949485 0.03326833416427152 0.9911779311216123 -0.07853765929351204 0.0020974166234329463 0.015341363014013221 -0.0018119857761457574 -0.009805644671694992
 0.9911779311216123 -0.07853765929351204 0.0070831439806661334 0.033268733693536744 -0.0018124591868977588 -0.009805615961894429 0.002115595406275734 0.015338747507178792
 0.0020974166234329463 0.015341363014013221 -0.0018124591868977588 -0.009805615961894429 0.007086746637156031 0.03326985953342519 0.99117800628889 -0.0785361540942401
 -0.0018119857761457574 -0.009805644671694992 0.002115595406275734 0.015338747507178792 0.99117800628889 -0.0785361540942401 0.007083616730066176 0.03327017276352603
0.11879949979160001 0.0075743354126515975 0.035274886421712615 0.9905343504976444 -0.08303152181323836 0.002306054091759212 0.01619184998184742 -0.001990823003841169 -0.010351363171952212
 0.9905343504976444 -0.08303152181323836 0.0075699508409940875 0.03527533359681479 -0.001991348890677531 -0.010351328156375546 0.0023263141451187754 0.016188860007119384
 0.002306054091759212 0.01619184998184742 -0.001991348890677531 -0.010351328156375546 0.00757396353766738 0.03527649780788876 0.99053443411899 -0.08302993240152569
 -0.001990823003841169 -0.010351363171952212 0.0023263141451187754 0.016188860007119384 0.99053443411899 -0.08302993240152569 0.007570477129408529 0.03527684688750067
0.1250521050438 0.008083115646058124 0.03729564696185295 0.989862998584195 -0.08753802102729107 0.0025252796649227285 0.017041138599079384 -0.0021787976587350896 -0.010896137291396131
 0.989862998584195 -0.08753802102729107 0.008078257981912406 0.03729614535363265 -0.0021793786244690434 -0.010896095267823168 0.0025477340983946534 0.017037739399386742
 0.0025252796649227285 0.017041138599079384 -0.0021793786244690434 -0.010896095267823168 0.008082702807075955 0.03729734458494584 0.989863091141451 -0.08753634728004128
 -0.0021787976587350896 -0.010896137291396131 0.0025477340983946534 0.017037739399386742 0.989863091141451 -0.08753634728004128 0.008078840641169824 0.037297731966448304
0.131304710296 0.008613730829116262 0.039330282182000104 0.989163569474308 -0.09205688615025777 0.002755157631863468 0.01788905739896927 -0.0023759759686028097 -0.011439798319915925
 0.989163569474308 -0.09205688615025777 0.008608375780349304 0.039330835505060065 -0.002376614593449561 -0.011439748555516783 0.002779919499984421 0.01788521254627732
 0.002755157631863468 0.01788905739896927 -0.002376614593449561 -0.011439748555516783 0.008613274835701708 0.0393320662762344 0.9891636714560317 -0.09205512793549608
 -0.0023759759686028097 -0.011439798319915925 0.002779919499984421 0.01788521254627732 0.9891636714560317 -0.09205512793549608 0.008609017631752106 0.039332494495097424
0.1375573155481 0.00904759869595608 0.041114122303651204 0.9885547015963182 -0.09632336127171232 0.002967286937264649 0.01870949072740184 -0.0025539359041629006 -0.011956272013296989
 0.9885547015963182 -0.09632336127171232 0.009041721324478655 0.041114722816526714 -0.0025546361666811766 -0.011956214419871465 0.0029944170907484275 0.018705204312418348
 0.002967286937264649 0.01870949072740184 -0.0025546361666811766 -0.011956214419871465 0.009047098267630446 0.04111599285395961 0.988554813432865 -0.09632151854312004
 -0.0025539359041629006 -0.011956272013296989 0.0029944170907484275 0.018705204312418348 0.988554813432865 -0.09632151854312004 0.009042424385410823 0.041116453630899615
0.1438099208003 0.009496832222791105 0.042888095005726865 0.9879242450115063 -0.10057852942032801 0.003187959247156104 0.019526299248724285 -0.0027389901752647057 -0.012469392170432489
 0.9879242450115063 -0.10057852942032801 0.009490408141212986 0.04288874565973922 -0.00273975487481345 -0.012469326019386294 0.0032175612343709114 0.019521537746573822
 0.003187959247156104 0.019526299248724285 -0.00273975487481345 -0.012469326019386294 0.009496285324406202 0.04289005221886032 0.9879243671885797 -0.10057660205568378
 -0.0027389901752647057 -0.012469392170432489 0.0032175612343709114 0.019521537746573822 0.9879243671885797 -0.10057660205568378 0.009491175073549919 0.042890547363460006
0.1500625260525 0.00996126645453642 0.04465203747983975 0.9872723691278045 -0.10482226993239267 0.003417093443208136 0.02033939012486962 -0.002931059369847032 -0.012979070481826534
 0.9872723691278045 -0.10482226993239267 0.009954271258508738 0.04465274137153546 -0.0029318913008695067 -0.012978995014836495 0.003449270157842301 0.02033411878177168
 0.003417093443208136 0.02033939012486962 -0.0029318913008695067 -0.012978995014836495 0.009960671055439317 0.04465408157042226 0.987272502136566 -0.10482025780484845
 -0.002931059369847032 -0.012979070481826534 0.003449270157842301 0.02033411878177168 0.987272502136566 -0.10482025780484845 0.00995510470475846 0.044654612994374086
0.15631513130469998 0.010440735183976533 0.046405791780790046 0.9865992443053188 -0.10905446288976736 0.0036546073983646965 0.021148672207777 -0.0031300630515200475 -0.013485220583510722
 0.9865992443053188 -0.10905446288976736 0.01043314445108418 0.04640655215350356 -0.003130965003529852 -0.01348513501255637 0.0036894610681854753 0.02114285505455986
