! Created with skrf 1.8.0 (http://scikit-rf.org).
# GHz S RI R 50.0 
!freq ReS11 ImS11 ReS12 ImS12 ReS13 ImS13
! ReS14 ImS14
! ReS21 ImS21 ReS22 ImS22 ReS23 ImS23
! ReS24 ImS24
! ReS31 ImS31 ReS32 ImS32 ReS33 ImS33
! ReS34 ImS34
! ReS41 ImS41 ReS42 ImS42 ReS43 ImS43
! ReS44 ImS44
!
0.0 0.001576338805147 0.0 0.9984236611891 0.0 6.105378904273e-05 0.0 -6.10537887772e-05 7.476932700181658e-21
 0.9984236611891 0.0 0.00157633880523 0.0 -6.105378877833e-05 7.476932700320043e-21 6.105378904561e-05 0.0
 6.105378904273e-05 0.0 -6.105378877833e-05 7.476932700320043e-21 0.00157633880801 0.0 0.998423661192 0.0
 -6.10537887772e-05 7.476932700181658e-21 6.105378904561e-05 0.0 0.998423661192 0.0 0.001576338808041 0.0
0.005 0.001696150902633784 0.001285798117309241 0.9982720556525739 -0.003302145806052833 8.616005342514387e-05 0.0006947080221220037 -8.353088020226604e-05 -0.0004321945656604094
 0.9982720556525739 -0.003302145806052833 0.0016961570960780225 0.0012857945686734866 -8.353303811534485e-05 -0.0004321962563747807 8.61129859212928e-05 0.0006947259422953595
 8.616005342514387e-05 0.0006947080221220037 -8.353303811534485e-05 -0.0004321962563747807 0.0016961500009572712 0.0012858659680438443 0.9982720560240231 -0.0033020787383460587
 -8.353088020226604e-05 -0.0004321945656604094 8.61129859212928e-05 0.0006947259422953595 0.9982720560240231 -0.0033020787383460587 0.001696158738201955 0.0012858608527467042
0.006252605252188 0.0017276036627468213 0.0016123185623605643 0.9982319992915272 -0.004128486632237366 9.335178806349702e-05 0.000868709214990084 -8.989351213223929e-05 -0.0005408051191190526
 0.9982319992915272 -0.004128486632237366 0.0017276133435661096 0.0016123140440986459 -8.989686975681669e-05 -0.0005408072043694773 9.327824951432417e-05 0.0008687324859036324
 9.335178806349702e-05 0.000868709214990084 -8.989686975681669e-05 -0.0005408072043694773 0.0017276021613665 0.0016124033641871322 0.9982319997805815 -0.00412840281368272
 -8.989351213223929e-05 -0.0005408051191190526 9.327824951432417e-05 0.0008687324859036324 0.9982319997805815 -0.00412840281368272 0.0017276158194790875 0.0016123968776317282
0.01250521050438 0.0018933504855885375 0.0032585020276047335 0.9980194895270365 -0.008257762060245546 0.00013469476315192765 0.0017376952402474377 -0.00012608287526639809 -0.0010842320173098674
 0.9980194895270365 -0.008257762060245546 0.0018933891316181496 0.003258492174418367 -0.00012609610425930463 -0.0010842358791172116 0.00013440150825397534 0.0017377511902244712
 0.00013469476315192765 0.0017376952402474377 -0.00012609610425930463 -0.0010842358791172116 0.0018933439261554002 0.003258671436994795 0.9980194909227309 -0.008257594670453944
 -0.00012608287526639809 -0.0010842320173098674 0.00013440150825397534 0.0017377511902244712 0.9980194909227309 -0.008257594670453944 0.0018933984661814673 0.003258657524370063
0.01875781575657 0.0020739482811371972 0.004928159152313188 0.9977858627996634 -0.012397872034947138 0.000185179126448085 0.002607558212024169 -0.0001697353813720647 -0.001629462926744093
 0.9977858627996634 -0.012397872034947138 0.0020740351019857975 0.004928143127594035 -0.0001697648781980398 -0.001629468196794656 0.0001845203571122628 0.0026076581248104295
 0.000185179126448085 0.002607558212024169 -0.0001697648781980398 -0.001629468196794656 0.002073933100749843 0.004928413152248267 0.9977858655087826 -0.012397621170891548
 -0.0001697353813720647 -0.001629462926744093 0.0001845203571122628 0.0026076581248104295 0.9977858655087826 -0.012397621170891548 0.0020740556601849787 0.004928390782881458
0.02501042100875 0.0022697547056726684 0.00661893612791344 0.9975308391972967 -0.016550813465512536 0.0002449027485843471 0.0034783333749579585 -0.0002209605726961925 -0.00217623864039933
 0.9975308391972967 -0.016550813465512536 0.002269908861165289 0.006618913081025774 -0.00022101265600199316 -0.002176244884225449 0.00024373260315483164 0.0034784903473887093
 0.0002449027485843471 0.0034783333749579585 -0.00022101265600199316 -0.002176244884225449 0.00226972734796056 0.006619274760516458 0.997530843633914 -0.01655047919000826
 -0.0002209605726961925 -0.00217623864039933 0.00024373260315483164 0.0034784903473887093 0.997530843633914 -0.01655047919000826 0.002269945012989146 0.006619242821955858
0.03126302626094 0.002481112618184248 0.008329616426502 0.9972541248088412 -0.020717434546768672 0.00031396394355211584 0.004349973105343147 -0.00027986472895402274 -0.0027243764722898298
 0.9972541248088412 -0.020717434546768672 0.0024813532302294214 0.008329585494590104 -0.00027994565278353044 -0.0027243831885096844 0.00031213635649379024 0.004350202058963007
 0.00031396394355211584 0.004349973105343147 -0.00027994565278353044 -0.0027243831885096844 0.002481069520552452 0.008330039783904923 0.9972541313832437 -0.020717016897623057
 -0.00027986472895402274 -0.0027243764722898298 0.00031213635649379024 0.004350202058963007 0.9972541313832437 -0.020717016897623057 0.002481409340929907 0.008329997083345054
0.037515631513130004 0.0027083573549324526 0.010059402909484488 0.9969554192468962 -0.024898152589631677 0.00039246045950193815 0.0052223969882194445 -0.00034655166606969176 -0.003273720185238474
 0.9969554192468962 -0.024898152589631677 0.0027087035162464794 0.01005936321876451 -0.0003466676267030156 -0.0032737268053353004 0.0003898290959995247 0.005222714688684495
 0.00039246045950193815 0.0052223969882194445 -0.0003466676267030156 -0.0032737268053353004 0.0027082949535681684 0.01005991110819362 0.9969554283715881 -0.024897651605440215
 -0.00034655166606969176 -0.003273720185238474 0.0003898290959995247 0.005222714688684495 0.9969554283715881 -0.024897651605440215 0.0027087839521321346 0.010059856373120662
0.043768236765320004 0.002951819550868126 0.01180769933775823 0.9966344187194077 -0.02909317244065162 0.00048048900257418063 0.006095507059202551 -0.0004211230202186883 -0.0038241247553758334
 0.9966344187194077 -0.02909317244065162 0.0029522903321761405 0.011807650004541951 -0.00042128016012330514 -0.003824130643641768 0.00047690722477090165 0.006095932138126303
 0.00048048900257418063 0.006095507059202551 -0.00042128016012330514 -0.003824130643641768 0.0029517342764432608 0.01180829253855604 0.9966344308048509 -0.02909258814115532
 -0.0004211230202186883 -0.0038241247553758334 0.00047690722477090165 0.006095932138126303 0.9966344308048509 -0.02909258814115532 0.0029523994572766715 0.011808224416834018
0.050020842017509996 0.003211826437924542 0.013574020088109116 0.996290817580867 -0.03330257669369347 0.0005781449507537362 0.006969194092850381 -0.0005036783462486293 -0.004375450092856605
 0.996290817580867 -0.03330257669369347 0.003212440894738456 0.013573960219653989 -0.0005038827567073977 -0.004375454546391844 0.0005734658012943487 0.0069697470707993266
 0.0005781449507537362 0.006969194092850381 -0.0005038827567073977 -0.004375454546391844 0.003211714718029957 0.01357469847822208 0.9962908330388441 -0.03330190909800556
 -0.0005036783462486293 -0.004375450092856605 0.0005734658012943487 0.0069697470707993266 0.9962908330388441 -0.03330190909800556 0.0032125830729637333 0.013574615537955002
0.055454545454549996 0.003451468696774299 0.01512331745578359 0.9959736252313687 -0.0369723634608066 0.0006709024849795248 0.007728832159715147 -0.000581981157071894 -0.004855208919332444
 0.9959736252313687 -0.0369723634608066 0.0034522234804495364 0.015123247700338353 -0.0005822315555120141 -0.0048552115030352045 0.0006651500858321671 0.007729514435753388
 0.0006709024849795248 0.007728832159715147 -0.0005822315555120141 -0.0048552115030352045 0.0034513310915070283 0.015124070055067211 0.9959736439553842 -0.036971623488940515
 -0.000581981157071894 -0.004855208919332444 0.0006651500858321671 0.007729514435753388 0.9959736439553842 -0.036971623488940515 0.0034523979267380876 0.015123973012012777
0.056273447269699996 0.00348870251242343 0.01535794583692788 0.9959243092579694 -0.03752636993617495 0.0006855221489830813 0.00784334069568968 -0.0005943151362571212 -0.004927557961721845
 0.9959243092579694 -0.03752636993617495 0.0034894796915836868 0.015357874532101195 -0.0005945728591189352 -0.004927560210462041 0.0006795983444867788 0.007844044005715941
 0.0006855221489830813 0.00784334069568968 -0.0005945728591189352 -0.004927560210462041 0.003488560771719471 0.015358709636648963 0.9959243285010742 -0.0375256190564199
 -0.0005943151362571212 -0.004927557961721845 0.0006795983444867788 0.007844044005715941 0.9959243285010742 -0.0375256190564199 0.0034896592865638885 0.015358610365901573
0.06252605252188 0.0037827698870425714 0.017159099202462825 0.9955345868626125 -0.04176450303991827 0.0008027127451956587 0.008717823009706352 -0.0006931287967391168 -0.005480310293691733
 0.9955345868626125 -0.04176450303991827 0.003783728832877797 0.01715901555229341 -0.000693445825585716 -0.0054803095004414895 0.0007953966764365904 0.008718701021178499
 0.0008027127451956587 0.008717823009706352 -0.000693445825585716 -0.0054803095004414895 0.0037825945461601547 0.01715994866548857 0.9955346103040973 -0.041763668881246975
 -0.0006931287967391168 -0.005480310293691733 0.0007953966764365904 0.008718701021178499 0.9955346103040973 -0.041763668881246975 0.0037839502067023275 0.01715983147178904
0.06877865777407 0.004094348470740184 0.018977130214574214 0.9951213436382851 -0.046016887629036225 0.0009298070501574737 0.009592511731425956 -0.0008002126008294799 -0.006033568191140853
 0.9951213436382851 -0.046016887629036225 0.004095508231242832 0.018977033302579892 -0.0008005948818325348 -0.0060335634516178955 0.000920950787100938 0.009593590774028993
 0.0009298070501574737 0.009592511731425956 -0.0008005948818325348 -0.0060335634516178955 0.004094135947207578 0.01897806562516862 0.995121371692153 -0.046015970192885135
 -0.0008002126008294799 -0.006033568191140853 0.000920950787100938 0.009593590774028993 0.995121371692153 -0.046015970192885135 0.004095775744526702 0.018977928834863718
0.07503126302626001 0.004423756047625546 0.020811707112652903 0.9946842733082176 -0.05028340522460672 0.001066893409509871 0.010467272762786653 -0.00091565762738083 -0.00658719130341501
 0.9946842733082176 -0.05028340522460672 0.004425135680768939 0.020811596015049963 -0.0009161110598058162 -0.006587181646309014 0.0010563487096831288 0.010468581150542305
 0.001066893409509871 0.010467272762786653 -0.0009161110598058162 -0.006587181646309014 0.004423502756063019 0.020812728786547736 0.9946843063900367 -0.050282404508077846
 -0.00091565762738083 -0.00658719130341501 0.0010563487096831288 0.010468581150542305 0.9946843063900367 -0.050282404508077846 0.004425453692513802 0.020812570643978463
0.08128386827845 0.00477130829278839 0.022662510222795928 0.9942230703652436 -0.054563913315562276 0.0012140580852147585 0.011341967652973215 -0.0010395526890333525 -0.0071410374175129125
 0.9942230703652436 -0.054563913315562276 0.004772926872535389 0.02266238400852425 -0.0010400831255820207 -0.007141021804544527 0.0012016764051536093 0.011343535708224627
 0.0012140580852147585 0.011341967652973215 -0.0010400831255820207 -0.007141021804544527 0.004771010644652641 0.02266361850438713 0.9942231088918575 -0.05456282931469287
 -0.0010395526890333525 -0.0071410374175129125 0.0012016764051536093 0.011343535708224627 0.9942231088918575 -0.05456282931469287 0.004773299739387473 0.022663437170839122
0.08753647353064001 0.00513731874457253 0.02452922771790586 0.9937374303220002 -0.05885824955261056 0.0013713851420830527 0.012216453907945835 -0.0011719842543456338 -0.0076949621865929916
 0.9937374303220002 -0.05885824955261056 0.005139195367492171 0.024529085448478875 -0.0011725975014422083 -0.0076949395125666415 0.0013570176505912127 0.012218313985378908
 0.0013713851420830527 0.012216453907945835 -0.0011725975014422083 -0.0076949395125666415 0.005136973149111905 0.024530422988258027 0.9937374747115177 -0.05885708225461773
 -0.0011719842543456338 -0.0076949621865929916 0.0013570176505912127 0.012218313985378908 0.9937374747115177 -0.05885708225461773 0.0051396274430928705 0.024530216540925028
0.09378907878283 0.005522098748572524 0.026411552608277846 0.9932270499354555 -0.06316623471780622 0.0015389563375414377 0.01309058522338044 -0.0013130363653184047 -0.00824881894079147
 0.9932270499354555 -0.06316623471780622 0.005524252539903846 0.026411393337422397 -0.0013137381830916092 -0.008248788033679762 0.0015224539310587139 0.013092771733862916
 0.0015389563375414377 0.01309058522338044 -0.0013137381830916092 -0.008248788033679762 0.005521701612558817 0.02641283527863215 0.9932271006081704 -0.06316498410809675
 -0.0013130363653184047 -0.00824881894079147 0.0015224539310587139 0.013092771733862916 0.9932271006081704 -0.06316498410809675 0.005524748174622771 0.026412601709145816
0.100041684035 0.005925957379198182 0.028309180518790188 0.9926916274138832 -0.06748767491396354 0.0017168510142662888 0.01396421166005593 -0.001462790551179037 -0.008802458561517668
 0.9926916274138832 -0.06748767491396354 0.005928407499274554 0.028309003291973674 -0.0014635866535058792 -0.008802418182533885 0.0016980643334735526 0.013966761094354933
 0.0017168510142662888 0.01396421166005593 -0.0014635866535058792 -0.008802418182533885 0.005925505107625466 0.02831055103343998 0.9926916847919907 -0.06748634097356092
 -0.001462790551179037 -0.008802458561517668 0.0016980643334735526 0.013966761094354933 0.9926916847919907 -0.06748634097356092 0.005928971039487656 0.02831028824647007
0.1059090909091 0.006322560918606864 0.03010355068619852 0.992166147232345 -0.07155494121338492 0.001893243858677329 0.014783421599422218 -0.0016113037553939667 -0.009321658086420916
 0.992166147232345 -0.07155494121338492 0.0063253065748437795 0.030103355733460423 -0.0016121934891869002 -0.009321607633030925 0.0018721775764610946 0.014786346660647914
 0.001893243858677329 0.014783421599422218 -0.0016121934891869002 -0.009321607633030925 0.006322053636799167 0.03010500406558832 0.9921662112881892 -0.07155352905646563
 -0.0016113037553939667 -0.009321658086420916 0.0018721775764610946 0.014786346660647914 0.9921662112881892 -0.07155352905646563 0.006325937785740597 0.03010471187643628
0.1062942892872 0.0063492013474980525 0.030221808033719544 0.9921308626128545 -0.0718223631933558 0.0019051459944134893 0.014837179785849086 -0.0016213257394283147 -0.009355729395068613
 0.9921308626128545 -0.0718223631933558 0.0063519669981929585 0.030221611887405624 -0.001622221793809528 -0.009355678238753044 0.0018839254426520789 0.014840130738208104
 0.0019051459944134893 0.014837179785849086 -0.001622221793809528 -0.009355678238753044 0.0063486903432980555 0.0302232668693905 0.992130927120162 -0.07182094589990536
 -0.0016213257394283147 -0.009355729395068613 0.0018839254426520789 0.014840130738208104 0.992130927120162 -0.07182094589990536 0.006352602785363653 0.030222972680893502
0.11254689453939999 0.006792134894821529 0.03214913142724856 0.9915444572200328 -0.07617008080747 0.0021039154750658656 0.01570933279371266 -0.0017887181651641709 -0.009908477196492363
 0.9915444572200328 -0.07617008080747 0.006795235326313437 0.032148915387938855 -0.001789719792605859 -0.009908413890803509 0.0020801112378349296 0.015712725985230755
 0.0021039154750658656 0.01570933279371266 -0.001789719792605859 -0.009908413890803509 0.006791561560023756 0.032150679092940136 0.9915445292830872 -0.07616858013578913
 -0.0017887181651641709 -0.009908477196492363 0.0020801112378349296 0.015712725985230755 0.9915445292830872 -0.07616858013578913 0.006795947696844473 0.032150351228251925
0.11879949979160001 0.00725505967914446 0.034090845681164945 0.9909321149361398 -0.08053059817674434 0.002313230924842903 0.01658051060536879 -0.0019650412789161856 -0.010460545093919946
 0.9909321149361398 -0.08053059817674434 0.007258514196288107 0.03409060876437979 -0.0019661540536513927 -0.010460468200338463 0.002286692990069243 0.016584388907183303
 0.002313230924842903 0.01658051060536879 -0.0019661540536513927 -0.010460468200338463 0.007254420414384619 0.03409248272063575 0.9909321949836453 -0.08052901409682105
 -0.0019650412789161856 -0.010460545093919946 0.002286692990069243 0.016584388907183303 0.9909321949836453 -0.08052901409682105 0.007259307480417447 0.0340921188124109
0.1250521050438 0.007738274652793098 0.03604664371160932 0.9902935416497559 -0.08490367565887208 0.0025331609810537274 0.01745054995895059 -0.0021503656529782643 -0.011011773575417123
 0.9902935416497559 -0.08490367565887208 0.0077421026220556325 0.03604638492041286 -0.00215159510226652 -0.011011681589051706 0.002503739160789236 0.017454958415180275
 0.0025331609810537274 0.01745054995895059 -0.00215159510226652 -0.011011681589051706 0.007737565858258125 0.036048370703955106 0.9902936301132963 -0.08490200813552815
 -0.0021503656529782643 -0.011011773575417123 0.002503739160789236 0.017454958415180275 0.9902936301132963 -0.08490200813552815 0.00774298114334984 0.036047968289894025
0.131304710296 0.008242075934855538 0.03801621575732245 0.9896284456097935 -0.08928906416280104 0.0027637713477823493 0.018319284493494084 -0.002344758887251415 -0.011562000485398839
 0.9896284456097935 -0.08928906416280104 0.00824629679083616 0.0380159340808754 -0.0023461104910444887 -0.01156189183511029 0.0027313153006916346 0.018324270343934537
 0.0027637713477823493 0.018319284493494084 -0.0023461104910444887 -0.01156189183511029 0.008241294010380346 0.03801803331353627 0.9896285429236732 -0.08928731315966142
 -0.002344758887251415 -0.011562000485398839 0.0027313153006916346 0.018324270343934537 0.9896285429236732 -0.08928731315966142 0.008247264865358784 0.03801758983386371
0.1375573155481 0.008652588079913849 0.03974171872085918 0.9890507517289466 -0.09342885347183436 0.0029765972562721785 0.019160737398194263 -0.0025197980753951534 -0.012085243241451105
 0.9890507517289466 -0.09342885347183436 0.008657224480482902 0.0397414212948563 -0.002521280054241213 -0.012085117774952367 0.0029410311168741542 0.019166294451741287
 0.0029765972562721785 0.019160737398194263 -0.002521280054241213 -0.012085117774952367 0.008651730196353546 0.03974362733508649 0.989050858293332 -0.09342701900834276
 -0.0025197980753951534 -0.012085243241451105 0.0029410311168741542 0.019166294451741287 0.989050858293332 -0.09342701900834276 0.008658285717757064 0.039743148718807714
0.1438099208003 0.009077578393032571 0.041457848964787464 0.9884526609499026 -0.0975578764076914 0.0031980226742467314 0.019998636601177993 -0.002701836668587522 -0.012605245945924189
 0.9884526609499026 -0.0975578764076914 0.009082650392453605 0.041457535273414815 -0.002703454927922252 -0.012605102112417013 0.0031592093371605656 0.020004808199913595
 0.0031980226742467314 0.019998636601177993 -0.002703454927922252 -0.012605102112417013 0.009076641089815077 0.04145984925425791 0.9884527771954112 -0.0975559584558048
 -0.002701836668587522 -0.012605245945924189 0.0031592093371605656 0.020004808199913595 0.9884527771954112 -0.0975559584558048 0.009083808971516057 0.04145933343129057
0.1500625260525 0.009516893266146853 0.04316445497047067 0.9878343311751898 -0.10167602228023023 0.0034279692749424424 0.020832891392968313 -0.0028907987186121806 -0.013121923456480982
 0.9878343311751898 -0.10167602228023023 0.00952242100981105 0.04316412444213089 -0.002892559151480911 -0.013121759642580612 0.003385772346592428 0.02083972248991429
 0.0034279692749424424 0.020832891392968313 -0.002892559151480911 -0.013121759642580612 0.009515873091863926 0.043166547577658254 0.9878344575343846 -0.10167402081051939
 -0.0028907987186121806 -0.013121923456480982 0.003385772346592428 0.02083972248991429 0.9878344575343846 -0.10167402081051939 0.009523681094804223 0.043165992360959485
0.15631513130469998 0.00997037795044824 0.04486138977442502 0.9871959211665903 -0.10578318096419445 0.0036663577766545405 0.02166341264379469 -0.0030866073138221574 -0.01363519247517743
 0.9871959211665903 -0.10578318096419445 0.009976381677400456 0.04486104177868616 -0.0030885158006887896 -0.01363500700509302 0.0036206415841018766 0.021670949788996835
