! Created with skrf 1.8.0 (http://scikit-rf.org).
# GHz S RI R 50.0 
!freq ReS11 ImS11 ReS12 ImS12 ReS13 ImS13
! ReS14 ImS14
! ReS21 ImS21 ReS22 ImS22 ReS23 ImS23
! ReS24 ImS24
! ReS31 ImS31 ReS32 ImS32 ReS33 ImS33
! ReS34 ImS34
! ReS41 ImS41 ReS42 ImS42 ReS43 ImS43
! ReS44 ImS44
!
0.0 0.001478694238802 0.0 0.99852130574 0.0 5.698475297803e-05 0.0 -5.698475294468e-05 6.978619529390508e-21
 0.99852130574 0.0 0.00147869423882 0.0 -5.698475294491e-05 6.978619529418675e-21 5.698475297817e-05 0.0
 5.698475297803e-05 0.0 -5.698475294491e-05 6.978619529418675e-21 0.001478694249384 0.0 0.9985213057506 0.0
 -5.698475294468e-05 6.978619529390508e-21 5.698475297817e-05 0.0 0.9985213057506 0.0 0.001478694249392 0.0
0.005 0.0015908052008324395 0.0012087311316889907 0.9983795266602163 -0.0030977785626670807 7.974994503118353e-05 0.0006343130804376333 -7.756920699143536e-05 -0.0003970316958549288
 0.9983795266602163 -0.0030977785626670807 0.0015907686638022827 0.001208752506633607 -7.756847049572382e-05 -0.0003970312048107095 7.998508326489537e-05 0.0006342237607714406
 7.974994503118353e-05 0.0006343130804376333 -7.756847049572382e-05 -0.0003970312048107095 0.0015908055525993892 0.0012087982483881764 0.9983795270137118 -0.0030977114952813424
 -7.756920699143536e-05 -0.0003970316958549288 7.998508326489537e-05 0.0006342237607714406 0.9983795270137118 -0.0030977114952813424 0.0015907690142351477 0.0012088195202535953
0.006252605252188 0.0016201610905764118 0.0015156810974114219 0.9983421847142849 -0.0038729896664560872 8.618395036748966e-05 0.0007932016796044952 -8.335591423159023e-05 -0.0004968074973643711
 0.9983421847142849 -0.0038729896664560872 0.0016201039758476756 0.0015157082091042278 -8.33547675944776e-05 -0.0004968068934333723 8.655133571410633e-05 0.0007930856922086633
 8.618395036748966e-05 0.0007932016796044952 -8.33547675944776e-05 -0.0004968068934333723 0.0016201615681859204 0.0015157649819690804 0.9983421851950502 -0.0038729058478589686
 -8.335591423159023e-05 -0.0004968074973643711 8.655133571410633e-05 0.0007930856922086633 0.9983421851950502 -0.0038729058478589686 0.0016201044521733604 0.0015157919518121428
0.01250521050438 0.0017744200764457983 0.003063229464801332 0.9981447513964005 -0.007746842464692174 0.00012271483294688614 0.0015867911376070162 -0.00011605443939659525 -0.0009960634973301007
 0.9981447513964005 -0.007746842464692174 0.0017741920062307398 0.0030632876367917847 -0.00011604991316718958 -0.0009960623982650794 0.0001241799837507087 0.0015865125101887753
 0.00012271483294688614 0.0015867911376070162 -0.00011604991316718958 -0.0009960623982650794 0.001774421397618523 0.0030633970271589915 0.9981447527404189 -0.007746675064794737
 -0.00011605443939659525 -0.0009960634973301007 0.0001241799837507087 0.0015865125101887753 0.9981447527404189 -0.007746675064794737 0.0017741933384126671 0.003063454781635746
0.01875781575657 0.001941797144756658 0.0046329189268277905 0.9979287678224522 -0.011630998915904163 0.0001666628273132172 0.002381318099953293 -0.00015517883816218144 -0.0014970472995863673
 0.9979287678224522 -0.011630998915904163 0.001941284642775675 0.0046330123770754374 -0.00015516873413247504 -0.001497045836922253 0.00016995437499701244 0.002380821372061734
 0.0001666628273132172 0.002381318099953293 -0.00015516873413247504 -0.001497045836922253 0.0019417996736080991 0.004633170091108806 0.9979287704235477 -0.011630748009514167
 -0.00015517883816218144 -0.0014970472995863673 0.00016995437499701244 0.002380821372061734 0.9979287704235477 -0.011630748009514167 0.0019412872277267115 0.00463326270452716
0.02501042100875 0.0021226092743530244 0.006222561422974693 0.9976939869277255 -0.015527352021554867 0.00021811334329271457 0.0031768286067284067 -0.000200824592090907 -0.0019995365557831115
 0.9976939869277255 -0.015527352021554867 0.002121699080976745 0.006222694596900864 -0.00020080673482834914 -0.0019995348858440148 0.00022396035575433516 0.0031760498194202376
 0.00021811334329271457 0.0031768286067284067 -0.00020080673482834914 -0.0019995348858440148 0.00212261335693453 0.006222896120194114 0.9976939911753308 -0.015527017645368573
 -0.000200824592090907 -0.0019995365557831115 0.00022396035575433516 0.0031760498194202376 0.9976939911753308 -0.015527017645368573 0.002121703315497566 0.006223027883400571
0.03126302626094 0.002317160328752603 0.007831036105662992 0.9974401486652401 -0.019436718116313118 0.0002771519419975552 0.003973295069203826 -0.0002530845981435168 -0.0025033774050205993
 0.9974401486652401 -0.019436718116313118 0.0023157393380694195 0.007831213667120342 -0.00025305683110623395 -0.0025033757092134193 0.0002862846049737493 0.003972161713863649
 0.0002771519419975552 0.003973295069203826 -0.00025305683110623395 -0.0025033757092134193 0.0023171663004289264 0.007831454266804285 0.9974401549519932 -0.01943630027571493
 -0.0002530845981435168 -0.0025033774050205993 0.0002862846049737493 0.003972161713863649 0.9974401549519932 -0.01943630027571493 0.00231574562511866 0.007831629678022888
0.037515631513130004 0.0025257476963357747 0.009457616058848506 0.9971669868502313 -0.023359510087458298 0.00034386370485504436 0.004770660952453286 -0.0003120498495204205 -0.0030084398092744134
 0.9971669868502313 -0.023359510087458298 0.002523702914660298 0.009457842885303167 -0.0003120100331746279 -0.0030084382942462927 0.0003570136323553106 0.004769091882568762
 0.00034386370485504436 0.004770660952453286 -0.0003120100331746279 -0.0030084382942462927 0.0025257558788153245 0.009458117600174768 0.9971669955690488 -0.023359008771168158
 -0.0003120498495204205 -0.0030084398092744134 0.0003570136323553106 0.004769091882568762 0.9971669955690488 -0.023359008771168158 0.002523711659145896 0.009458341359865622
0.043768236765320004 0.002748664854815545 0.0111017634237931 0.9968742319225375 -0.027295942180001913 0.00041833293133773175 0.0055688543592050214 -0.0003778096809525994 -0.003514603973229353
 0.9968742319225375 -0.027295942180001913 0.002745883366658853 0.01110204460327412 -0.0003777556915551522 -0.003514602870949427 0.0004362333174791037 0.005566759690628591
 0.00041833293133773175 0.0055688543592050214 -0.0003777556915551522 -0.003514602870949427 0.0027486755573194015 0.011102348253568949 0.9968742434689435 -0.027295357353266457
 -0.0003778096809525994 -0.003514603973229353 0.0004362333174791037 0.005566759690628591 0.9968742434689435 -0.027295357353266457 0.0027458949768635306 0.011102625261142566
0.050020842017509996 0.0029862025656728036 0.012763044728981461 0.9965616123406996 -0.03124611459611494 0.0005006429512070131 0.0063677936432363705 -0.0004504518605778746 -0.004021754732374075
 0.9965616123406996 -0.03124611459611494 0.002982571504975458 0.012763385558102459 -0.000450381589611281 -0.004021754300220897 0.0005240286378910279 0.006365074649656879
 0.0005006429512070131 0.0063677936432363705 -0.000450381589611281 -0.004021754300220897 0.0029862160854532307 0.0127637127343712 0.9965616271135442 -0.031245446213820863
 -0.0004504518605778746 -0.004021754732374075 0.0005240286378910279 0.006365074649656879 0.9965616271135442 -0.031245446213820863 0.002982586391680051 0.012764048085908471
0.055454545454549996 0.0032047279469253824 0.014220374383881402 0.9962735921457242 -0.03469011579340452 0.0005786044243872721 0.0070626331329733715 -0.000519236428665894 -0.004463197348022811
 0.9962735921457242 -0.03469011579340452 0.0032002669392331355 0.014220771512857642 -0.0005191503076499194 -0.004463197727026642 0.0006073550781287116 0.007059284456634658
 0.0005786044243872721 0.0070626331329733715 -0.0005191503076499194 -0.004463197727026642 0.0032047441464920813 0.01422111456920629 0.996273610048963 -0.034689374748133585
 -0.000519236428665894 -0.004463197348022811 0.0006073550781287116 0.007059284456634658 0.996273610048963 -0.034689374748133585 0.003200285007994374 0.014221504913770036
0.056273447269699996 0.003238649490908258 0.014441089309505606 0.9962288553999348 -0.035210055006105336 0.0005908759882832052 0.007167390160411178 -0.0005300626119486281 -0.004529778804534838
 0.9962288553999348 -0.035210055006105336 0.003234056014191358 0.0144414952922102 -0.0005299739656828482 -0.004529779325348594 0.0006204834823692948 0.0071639391665943835
 0.0005908759882832052 0.007167390160411178 -0.0005299739656828482 -0.004529779325348594 0.003238666112379002 0.014441840365161966 0.9962288738015143 -0.035209303004015986
 -0.0005300626119486281 -0.004529778804534838 0.0006204834823692948 0.0071639391665943835 0.9962288738015143 -0.035209303004015986 0.0032340745895931985 0.014442239352066642
0.06252605252188 0.0035062925254755557 0.016135566478088087 0.9958756877691604 -0.03918774130955003 0.0006891130481757495 0.007967549782450381 -0.0006167266017984736 -0.0050385632809339595
 0.9958756877691604 -0.03918774130955003 0.003500623786470592 0.016136043325287664 -0.0006166175011005985 -0.005038565063077776 0.0007256805051568785 0.00796325005657708
 0.0006891130481757495 0.007967549782450381 -0.0006166175011005985 -0.005038565063077776 0.003506312520211214 0.016136400436901698 0.9958757102051947 -0.039186905613557664
 -0.0006167266017984736 -0.0050385632809339595 0.0007256805051568785 0.00796325005657708 0.9958757102051947 -0.039186905613557664 0.0035006464631841885 0.01613686854529805
0.06877865777407 0.0037894169754864124 0.017846171887369804 0.9955018358759231 -0.04317911520835326 0.0007954338203339881 0.008768173802075306 -0.0007105269070332118 -0.005547994728860525
 0.9955018358759231 -0.04317911520835326 0.0037825601000425336 0.017846725517354407 -0.0007103952871896673 -0.00554799810627685 0.0008397010042892339 0.008762899447829329
 0.0007954338203339881 0.008768173802075306 -0.0007103952871896673 -0.00554799810627685 0.00378944060204651 0.017847088585931953 0.9955018627567835 -0.04317819572905409
 -0.0007105269070332118 -0.005547994728860525 0.0008397010042892339 0.008762899447829329 0.9955018627567835 -0.04317819572905409 0.0037825872909160235 0.01784763149677232
0.07503126302626001 0.004088306645338419 0.019572618892506957 0.9951070262049835 -0.04718409078306619 0.000909916587392446 0.009569159504926655 -0.0008115449695588066 -0.006057958630950238
 0.9951070262049835 -0.04718409078306619 0.004080148707810931 0.01957325543178906 -0.0008113887802974323 -0.006057963963189342 0.0009626248136187667 0.009562775353770713
 0.000909916587392446 0.009569159504926655 -0.0008113887802974323 -0.006057963963189342 0.004088334148979405 0.01957361815343585 0.9951070579457878 -0.047183087413230664
 -0.0008115449695588066 -0.006057958630950238 0.0009626248136187667 0.009562775353770713 0.9951070579457878 -0.047183087413230664 0.004080180824667859 0.019574241743378108
0.08128386827845 0.004403243867117638 0.021314632816685195 0.9946909855412469 -0.051202560169567445 0.0010326381395909649 0.010370400557453405 -0.0009198605429506774 -0.006568339012028677
 0.9946909855412469 -0.051202560169567445 0.004393671865993669 0.021315358601980892 -0.0009196777484721959 -0.006568346684301997 0.0010945302032045843 0.010362762061480383
 0.0010326381395909649 0.010370400557453405 -0.0009196777484721959 -0.006568346684301997 0.004403275479393796 0.0213157144395309 0.994691022562099 -0.05120147279343768
 -0.0009198605429506774 -0.006568339012028677 0.0010945302032045843 0.010362762061480383 0.994691022562099 -0.05120147279343768 0.004393709318623872 0.021316424782572795
0.08753647353064001 0.004734509492272067 0.023071946959754206 0.9942534411785832 -0.055234397497398044 0.0011636736920750117 0.011171787275444899 -0.0010355516332394379 -0.007079018189221701
 0.9942534411785832 -0.055234397497398044 0.004723410326339819 0.023072768540380758 -0.001035340212291706 -0.00707902861243471 0.0012354937857746871 0.0111627404009267
 0.0011636736920750117 0.011171787275444899 -0.001035340212291706 -0.00707902861243471 0.004734545431286853 0.02307311072834256 0.9942534839054542 -0.055233225983209004
 -0.0010355516332394379 -0.007079018189221701 0.0012354937857746871 0.0111627404009267 0.9942534839054542 -0.055233225983209004 0.0047234535223092105 0.023073914098152147
0.09378907878283 0.005082382857131618 0.024844299770048272 0.9937941211056143 -0.05927946166883907 0.0013030968039057188 0.011973206820918236 -0.0011586944359278624 -0.007589876597611163
 0.9937941211056143 -0.05927946166883907 0.005069643301435396 0.024845223911262003 -0.0011584523819322412 -0.007589890208383403 0.0013855904263783852 0.011962587942917265
 0.0013030968039057188 0.011973206820918236 -0.0011584523819322412 -0.007589890208383403 0.005082423326942048 0.024845545449841258 0.9937941699707712 -0.059278205871529974
 -0.0011586944359278624 -0.007589876597611163 0.0013855904263783852 0.011962587942917265 0.9937941699707712 -0.059278205871529974 0.00506969264489692 0.02484644832293471
0.100041684035 0.005447141728971341 0.02663143275638749 0.9933127541750357 -0.06333759840257336 0.0014509792984903744 0.012774543352628146 -0.0012893632696496272 -0.008100792666471795
 0.9933127541750357 -0.06333759840257336 0.005432648410822528 0.0266324664434501 -0.0012890885908396741 -0.008100809927166362 0.0015448931549688616 0.012762179150592771
 0.0014509792984903744 0.012774543352628146 -0.0012890885908396741 -0.008100809927166362 0.005447186919601224 0.026632760093604012 0.9933128096177269 -0.06333625816474775
 -0.0012893632696496272 -0.008100792666471795 0.0015448931549688616 0.012762179150592771 0.9933128096177269 -0.06333625816474775 0.00543270430197641 0.026633769153271102
0.1059090909091 0.005805032423393812 0.028321680982925805 0.9928407503548003 -0.06715747098656384 0.001597507437342449 0.013526331470367524 -0.0014188914488986381 -0.008580175521466931
 0.9928407503548003 -0.06715747098656384 0.005788790121245351 0.028322824020417494 -0.0014185843570469101 -0.008580196650686194 0.0017028180736438437 0.013512163106432261
 0.001597507437342449 0.013526331470367524 -0.0014185843570469101 -0.008580196650686194 0.0058050822035537785 0.028323084696828864 0.9928408123752724 -0.06715605135835934
 -0.0014188914488986381 -0.008580175521466931 0.0017028180736438437 0.013512163106432261 0.9928408123752724 -0.06715605135835934 0.005788852515703516 0.028324199668032075
0.1062942892872 0.005829062239017382 0.02843308892731255 0.9928090702631035 -0.06740864175490517 0.0016073911845276277 0.013575678141165767 -0.0014276305077398892 -0.008611642735108734
 0.9928090702631035 -0.06740864175490517 0.005812701613826039 0.02843423937036441 -0.0014273212273615565 -0.008611664133846264 0.0017134730804269178 0.01356138549590195
 0.0016073911845276277 0.013575678141165767 -0.0014273212273615565 -0.008611664133846264 0.0058291123256053665 0.028434497647809833 0.9928091327293125 -0.06740721690798449
 -0.0014276305077398892 -0.008611642735108734 0.0017134730804269178 0.01356138549590195 0.9928091327293125 -0.06740721690798449 0.0058127644473665715 0.028435619788832148
0.11254689453939999 0.00622841880337999 0.03024901158952663 0.9922828004199284 -0.07149241528665352 0.001772400577795107 0.014376489665263694 -0.0015735665076861663 -0.009122300991887024
 0.9922828004199284 -0.07149241528665352 0.006210077130333273 0.030250286229298855 -0.0015732206642034149 -0.009122327042558397 0.0018913993061188677 0.014360075557262687
 0.001772400577795107 0.014376489665263694 -0.0015732206642034149 -0.009122327042558397 0.006228473946527501 0.03025050140313643 0.99228287036379 -0.07149090564671329
 -0.0015735665076861663 -0.009122300991887024 0.0018913993061188677 0.014360075557262687 0.99228287036379 -0.07149090564671329 0.006210147295226272 0.030251743737426964
0.11879949979160001 0.006645484037035471 0.032078943420233486 0.9917336770150588 -0.07558873296145156 0.001946073622820829 0.015176853690845723 -0.0017272395394989845 -0.009632639434996603
 0.9917336770150588 -0.07558873296145156 0.006625047354507047 0.03208034993465213 -0.001726855186821409 -0.009632670677256832 0.0020787388460191763 0.015158115100089473
 0.001946073622820829 0.015176853690845723 -0.001726855186821409 -0.009632670677256832 0.006645544382279891 0.03208051401858861 0.9917337548987805 -0.0755871383313951
 -0.0017272395394989845 -0.009632639434996603 0.0020787388460191763 0.015158115100089473 0.9917337548987805 -0.0755871383313951 0.006625125232891501 0.03208188388169056
0.1250521050438 0.007080528660431148 0.033922625733556346 0.9911614338794165 -0.07969739985513029 0.002128474415146099 0.015976643341112765 -0.0018887157126098223 -0.010142527846709276
 0.9911614338794165 -0.07969739985513029 0.0070578827613764225 0.03392417204516923 -0.001888290920258608 -0.010142564845987436 0.0022755565418819353 0.01595536714857409
 0.002128474415146099 0.015976643341112765 -0.001888290920258608 -0.010142564845987436 0.007080594337800063 0.03392427678880566 0.9911615201738109 -0.07969572002619592
 -0.0018887157126098223 -0.010142527846709276 0.0022755565418819353 0.01595536714857409 0.9911615201738109 -0.07969572002619592 0.007057968727635195 0.03392578174719269
0.131304710296 0.007533821400323907 0.03577979788783376 0.9905658064426174 -0.08381821272969035 0.002319664923617104 0.01677572915787825 -0.0020580589019114407 -0.010651833781120574
 0.9905658064426174 -0.08381821272969035 0.007508851807492 0.0357814921721788 -0.0020575917554117944 -0.010651877128603935 0.002481914980598408 0.01675169204868977
 0.002319664923617104 0.01677572915787825 -0.0020575917554117944 -0.010651877128603935 0.007533892524513737 0.03578152905362442 0.9905659016283066 -0.08381644748062311
 -0.0020580589019114407 -0.010651833781120574 0.002481914980598408 0.01675169204868977 0.9905659016283066 -0.08381644748062311 0.007508946227504004 0.03578317691303179
0.1375573155481 0.007900492160892308 0.0374077419333583 0.9900517109384442 -0.08770838370044774 0.0024943559000795137 0.017549354627043073 -0.0022097935244032724 -0.01113594869398801
 0.9900517109384442 -0.08770838370044774 0.00787307638692674 0.03740955646703465 -0.0022092814100602124 -0.011135998433861644 0.00267214262675668 0.01752259603210502
 0.0024943559000795137 0.017549354627043073 -0.0022092814100602124 -0.011135998433861644 0.007900569840121665 0.037409552466953364 0.9900518154225398 -0.08770653291023796
 -0.0022097935244032724 -0.01113594869398801 0.00267214262675668 0.01752259603210502 0.9900518154225398 -0.08770653291023796 0.007873178763354215 0.03741131608386135
0.1438099208003 0.008280032168200287 0.0390273527055294 0.9895196262451624 -0.0915889460483303 0.00267607659455341 0.01832012149209526 -0.0023676050373365996 -0.011617345308528954
 0.9895196262451624 -0.0915889460483303 0.00825005416810594 0.03902929358689196 -0.0023670459373615685 -0.011617402015636982 0.0028700827854440435 0.018290437715074038
 0.00267607659455341 0.01832012149209526 -0.0023670459373615685 -0.011617402015636982 0.008280116675035726 0.03902924219192201 0.9895197405062156 -0.09158700950154251
 -0.0023676050373365996 -0.011617345308528954 0.0028700827854440435 0.018290437715074038 0.9895197405062156 -0.09158700950154251 0.008250164697889547 0.039031127389909596
0.1500625260525 0.008672311985273354 0.040638502003230506 0.9889696858479997 -0.09545981092935474 0.002864765616998866 0.019087960301786503 -0.0025314317641494787 -0.01209595397225276
 0.9889696858479997 -0.09545981092935474 0.008639655415060758 0.040640575719999884 -0.0025308236674978545 -0.012096018244102832 0.0030756702254467498 0.01905514021750761
 0.002864765616998866 0.019087960301786503 -0.0025308236674978545 -0.012096018244102832 0.008672403589170664 0.04064047000935895 0.9889698103724015 -0.09545778840223128
 -0.0025314317641494787 -0.01209595397225276 0.0030756702254467498 0.01905514021750761 0.9889698103724015 -0.09545778840223128 0.008639774276537997 0.040642482994329356
0.15631513130469998 0.00907720130217206 0.04224106551583097 0.9884020238652331 -0.09932088966236366 0.003060360879763771 0.019852802767026875 -0.0027012112892879263 -0.012571706475109677
