! Created with skrf 1.8.0 (http://scikit-rf.org).
# GHz S RI R 50.0 
!freq ReS11 ImS11 ReS12 ImS12 ReS13 ImS13
! ReS14 ImS14
! ReS21 ImS21 ReS22 ImS22 ReS23 ImS23
! ReS24 ImS24
! ReS31 ImS31 ReS32 ImS32 ReS33 ImS33
! ReS34 ImS34
! ReS41 ImS41 ReS42 ImS42 ReS43 ImS43
! ReS44 ImS44
!
0.0 0.001727051506351 0.0 0.9982729484839 0.0 6.713570093333e-05 0.0 -6.713570080013e-05 8.221752109339362e-21
 0.9982729484839 0.0 0.001727051506345 0.0 -6.713570079989e-05 8.221752109309969e-21 6.713570093317e-05 0.0
 6.713570093333e-05 0.0 -6.713570079989e-05 8.221752109309969e-21 0.001727051511227 0.0 0.9982729484888 0.0
 -6.713570080013e-05 8.221752109339362e-21 6.713570093317e-05 0.0 0.9982729484888 0.0 0.001727051511225 0.0
0.005 0.0018588054561784531 0.0014083211022305135 0.9981061496003454 -0.0036173317978225677 9.501856518225773e-05 0.0007636836535012011 -9.209189753036064e-05 -0.0004750502673900853
 0.9981061496003454 -0.0036173317978225677 0.0018588096951914744 0.0014083187325434742 -9.20888244329829e-05 -0.00047504803397082696 9.500003362892681e-05 0.0007636907556698102
 9.501856518225773e-05 0.0007636836535012011 -9.20888244329829e-05 -0.00047504803397082696 0.001858806778208421 0.0014083876763936385 0.9981061499724051 -0.0036172647315717327
 -9.209189753036064e-05 -0.0004750502673900853 9.500003362892681e-05 0.0007636907556698102 0.9981061499724051 -0.0036172647315717327 0.0018588091058806743 0.001408386279377709
0.006252605252188 0.0018935389039407746 0.0017659350047563027 0.9980618707780627 -0.004522522473770807 0.00010308423876230057 0.0009549515751005872 -9.922584968527422e-05 -0.0005944213449928554
 0.9980618707780627 -0.004522522473770807 0.0018935455293275785 0.001765932001391633 -9.922106672515688e-05 -0.0005944185946799661 0.00010305528572679493 0.0009549607940422134
 0.00010308423876230057 0.0009549515751005872 -9.922106672515688e-05 -0.0005944185946799661 0.0018935408985103464 0.0017660182267312929 0.9980618712884355 -0.004522438640308814
 -9.922584968527422e-05 -0.0005944213449928554 0.00010305528572679493 0.0009549607940422134 0.9980618712884355 -0.004522438640308814 0.0018935445371521225 0.0017660164209751695
0.01250521050438 0.0020774214569891526 0.0035687415796107173 0.9978257695069577 -0.009045661066099263 0.00014986516318926508 0.0019101044095961009 -0.00014017428507358728 -0.0011916243970457217
 0.9978257695069577 -0.009045661066099263 0.002077447896407889 0.0035687351485761375 -0.00014015542414997156 -0.0011916193567407514 0.0001497497280713817 0.0019101265638944709
 0.00014986516318926508 0.0019101044095961009 -0.00014015542414997156 -0.0011916193567407514 0.0020774288576936527 0.0035689077748684737 0.9978257709972047 -0.009045493641951757
 -0.00014017428507358728 -0.0011916243970457217 0.0001497497280713817 0.0019101265638944709 0.9978257709972047 -0.009045493641951757 0.0020774433924625494 0.0035689035681273538
0.01875781575657 0.002279138095291762 0.005397001164984818 0.9975643248312308 -0.013580384046779652 0.00020759217230423928 0.0028660940072063666 -0.00019011531026133112 -0.0017906875671807796
 0.9975643248312308 -0.013580384046779652 0.002279197475150913 0.005396990828475969 -0.00019007323426124275 -0.0017906808005056349 0.00020733291334283912 0.0028661336180603536
 0.00020759217230423928 0.0028660940072063666 -0.00019007323426124275 -0.0017906808005056349 0.0022791542670357622 0.005397250181525842 0.9975643277565422 -0.013580133069601406
 -0.00019011531026133112 -0.0017906875671807796 0.00020733291334283912 0.0028661336180603536 0.9975643277565422 -0.013580133069601406 0.0022791869392345125 0.005397242958991387
0.02501042100875 0.0024991124624385284 0.00724809887154564 0.9972772033436078 -0.01812884114304133 0.0002763802981562517 0.0038229342279441727 -0.00024917789817748546 -0.0023913026176480734
 0.9972772033436078 -0.01812884114304133 0.0024992178653158335 0.007248084102406998 -0.0002491035750914883 -0.0023912948002753204 0.000275919885918477 0.003822996594179553
 0.0002763802981562517 0.0038229342279441727 -0.0002491035750914883 -0.0023912948002753204 0.0024991407553412804 0.007248430507538626 0.9972772081733975 -0.018128506593599263
 -0.00024917789817748546 -0.0023913026176480734 0.000275919885918477 0.003822996594179553 0.9972772081733975 -0.018128506593599263 0.002499198797612553 0.007248419635132038
0.03126302626094 0.0027377505792657328 0.00912066447372746 0.9969640561068704 -0.022691922531795826 0.0003563445601852234 0.004780547208714661 -0.0003174867051439573 -0.0029932447780417026
 0.9969640561068704 -0.022691922531795826 0.0027379150515625048 0.009120644696101571 -0.0003173711907471438 -0.0029932366988283934 0.00035562562394665843 0.004780638410942209
 0.0003563445601852234 0.004780547208714661 -0.0003173711907471438 -0.0029932366988283934 0.0027377943161486394 0.00912107846617961 0.9969640633127388 -0.022691504345207173
 -0.0003174867051439573 -0.0029932447780417026 0.00035562562394665843 0.004780638410942209 0.9969640633127388 -0.022691504345207173 0.002737884955439096 0.009121063290817613
0.037515631513130004 0.002995449155812757 0.011013785964337944 0.9966245273195995 -0.02727004522851593 0.0004475987805848002 0.00573881842637316 -0.0003951629844457733 -0.003596317712707992
 0.9966245273195995 -0.02727004522851593 0.0029956857126061183 0.011013760553906921 -0.0003949974136252479 -0.0035963102740925123 0.00044656388504497 0.00573894533432332
 0.0004475987805848002 0.00573881842637316 -0.0003949974136252479 -0.0035963102740925123 0.002995511635676162 0.011014281974308173 0.9966245373803309 -0.02726954330876816
 -0.0003951629844457733 -0.003596317712707992 0.00044656388504497 0.00573894533432332 0.9966245373803309 -0.02726954330876816 0.00299564209601834 0.011014261824117482
0.043768236765320004 0.003272598791434532 0.01292677023079729 0.9962582578722134 -0.03186339234378519 0.0005502550112008489 0.006697613462325103 -0.00048232489769773886 -0.0042003367871831935
 0.9962582578722134 -0.03186339234378519 0.0032729204213626847 0.012926738514459198 -0.00048210047962803906 -0.004200331005360315 0.0005488466460665825 0.006697783743186315
 0.0005502550112008489 0.006697613462325103 -0.00048210047962803906 -0.004200331005360315 0.0032726832870578347 0.01292734785361373 0.996258271271997 -0.031862806553064935
 -0.00048232489769773886 -0.0042003367871831935 0.0005488466460665825 0.006697783743186315 0.996258271271997 -0.031862806553064935 0.0032728607918816664 0.012927322037976361
0.050020842017509996 0.003569585442493251 0.014859044136625955 0.99586488717251 -0.03647201193390833 0.0006644231802906516 0.007656784927976484 -0.0005790876082613117 -0.0048051221780920144
 0.99586488717251 -0.03647201193390833 0.0035700051101199078 0.014859005392537488 -0.0005787956233693298 -0.004805119183123906 0.0006625837563199997 0.007657007055234789
 0.0006644231802906516 0.007656784927976484 -0.0005787956233693298 -0.004805119183123906 0.0035696952024107443 0.014859702891619603 0.9958649044059316 -0.03647134210259176
 -0.0005790876082613117 -0.0048051221780920144 0.0006625837563199997 0.007657007055234789 0.9958649044059316 -0.03647134210259176 0.003569926976224037 0.014859670701454365
0.055454545454549996 0.0038440827330722257 0.016553523369108557 0.9955007462284361 -0.040489416824448905 0.0007730714677199104 0.00849051801297252 -0.0006710615465746479 -0.005331182809447752
 0.9955007462284361 -0.040489416824448905 0.003844598111737941 0.016553477893236676 -0.0006707038167285594 -0.005331183242562366 0.0007708106105385144 0.008490792710734482
 0.0007730714677199104 0.00849051801297252 -0.0006707038167285594 -0.005331183242562366 0.0038442170660863573 0.01655425218112417 0.995500767202264 -0.040488673796382574
 -0.0006710615465746479 -0.005331182809447752 0.0007708106105385144 0.008490792710734482 0.995500767202264 -0.040488673796382574 0.003844501871212417 0.016554213861085534
0.056273447269699996 0.003886791156333196 0.016810105996116334 0.9954440542460846 -0.041095865462588595 0.0007902108313257144 0.008616175879222315 -0.0006855632812832134 -0.005410495500227699
 0.9954440542460846 -0.041095865462588595 0.003887321806289268 0.016810059453184038 -0.0006851950795030797 -0.0054104965360899935 0.0007878826814350008 0.00861645914156601
 0.0007902108313257144 0.008616175879222315 -0.0006851950795030797 -0.0054104965360899935 0.003886929402487863 0.016810845330711102 0.9954440758170807 -0.041095111384644216
 -0.0006855632812832134 -0.005410495500227699 0.0007878826814350008 0.00861645914156601 0.9954440758170807 -0.041095111384644216 0.003887222673326047 0.016810806038472945
0.06252605252188 0.004224594447074619 0.01877949889236301 0.9949953984809767 -0.04573485442480708 0.0009277229106357359 0.00957562170193813 -0.0008018610345949312 -0.0060162779695139956
 0.9949953984809767 -0.04573485442480708 0.0042252490069252194 0.018779443729885565 -0.0008014080343701586 -0.006016284394137311 0.0009248482928300005 0.009575976212315405
 0.0009277229106357359 0.00957562170193813 -0.0008014080343701586 -0.006016284394137311 0.004224764374898175 0.018780318170077397 0.9949954249047392 -0.04573401586957809
 -0.0008018610345949312 -0.0060162779695139956 0.0009248482928300005 0.009575976212315405 0.9949954249047392 -0.04573401586957809 0.0042251263758057885 0.018780271029810496
0.06877865777407 0.004583370471875349 0.020766794766145617 0.9945185601783977 -0.05038883620760268 0.0010770615815704743 0.010534951246646586 -0.0009280868610859071 -0.006622289324522919
 0.9945185601783977 -0.05038883620760268 0.004584161854501872 0.020766730113276836 -0.0009275405487313562 -0.00662230260979411 0.0010735826842190052 0.010535387951268358
 0.0010770615815704743 0.010534951246646586 -0.0009275405487313562 -0.00662230260979411 0.004583575248242482 0.020767693281129918 0.9945185919825571 -0.050387912904895665
 -0.0009280868610859071 -0.006622289324522919 0.0010735826842190052 0.010535387951268358 0.9945185919825571 -0.050387912904895665 0.004584013219495285 0.020767637528480556
0.07503126302626001 0.004963491088144135 0.02277158435664102 0.9940131809907584 -0.055057634107033154 0.0012383260534043826 0.011493987564547045 -0.001064343534862801 -0.007228347154625099
 0.9940131809907584 -0.055057634107033154 0.004964432195416627 0.022771509291720952 -0.0010636954645129538 -0.007228368886375577 0.0012341850020683171 0.011494518251838856
 0.0012383260534043826 0.011493987564547045 -0.0010636954645129538 -0.007228368886375577 0.0049637338516196625 0.022772561319088575 0.9940132187170949 -0.055056625761584384
 -0.001064343534862801 -0.007228347154625099 0.0012341850020683171 0.011494518251838856 0.9940132187170949 -0.055056625761584384 0.00496425504262463 0.022772496171101272
0.08128386827845 0.005365324840920863 0.02479347048915745 0.9934789042925695 -0.059741044007179 0.0014116124211316992 0.012452548407423627 -0.0012107305055153912 -0.007834266472653754
 0.9934789042925695 -0.059741044007179 0.005366428565742211 0.024793384039078322 -0.001209972299137171 -0.007834298350635763 0.0014067512865230231 0.012453185716899365
 0.0014116124211316992 0.012452548407423627 -0.001209972299137171 -0.007834298350635763 0.005365608699446506 0.024794525039980458 0.9934789484975493 -0.05973995028378053
 -0.0012107305055153912 -0.007834266472653754 0.0014067512865230231 0.012453185716899365 0.9934789484975493 -0.05973995028378053 0.0053662203708372816 0.02479444969497535
0.08753647353064001 0.005789236896447213 0.026832063468704596 0.9929153755035519 -0.06443883896258845 0.0015970135110165808 0.0134104465904191 -0.0013673437854383682 -0.008439859433371671
 0.9929153755035519 -0.06443883896258845 0.005790516126238485 0.026831964607944372 -0.0013664671332812542 -0.008439903271179506 0.0015913743176593366 0.01341120402139857
 0.0015970135110165808 0.0134104465904191 -0.0013664671332812542 -0.008439903271179506 0.005789564926982891 0.026833194662321827 0.9929154267600552 -0.06443765950314681
 -0.0013673437854383682 -0.008439859433371671 0.0015913743176593366 0.01341120402139857 0.9929154267600552 -0.06443765950314681 0.0057902743523243795 0.026833108299665263
0.09378907878283 0.006235588945370069 0.028886977772861616 0.9923222423845156 -0.06915077249141527 0.0017946187309806582 0.014367490266251025 -0.001534275831468626 -0.009044935149309818
 0.9923222423845156 -0.06915077249141527 0.006237056564027365 0.028886865422683757 -0.001533272492441593 -0.009044992874322335 0.0017881434669303154 0.01436838218655636
 0.0017946187309806582 0.014367490266251025 -0.001533272492441593 -0.009044992874322335 0.006235964192197341 0.028888184589150358 0.9923223012830774 -0.06914950690307424
 -0.001534275831468626 -0.009044935149309818 0.0017881434669303154 0.01436838218655636 0.9923223012830774 -0.06914950690307424 0.006236778660223111 0.028888086368879375
0.100041684035 0.006704739078405598 0.030957829646361908 0.9916991553105787 -0.07387658097697586 0.0020045139236988065 0.015323483142272784 -0.0017116154231756745 -0.00964929957293829
 0.9916991553105787 -0.07387658097697586 0.006706407969635302 0.030957702673692702 -0.0017104772255742721 -0.009649373226194677 0.001997144550863069 0.015324524796650515
 0.0020045139236988065 0.015323483142272784 -0.0017104772255742721 -0.009649373226194677 0.006705164552606897 0.030959110987209403 0.9916992224610905 -0.073875228835492
 -0.0017116154231756745 -0.00964929957293829 0.001997144550863069 0.015324524796650515 0.9916992224610905 -0.073875228835492 0.006706091369094292 0.0309590000496837
0.1059090909091 0.0071660370296189255 0.03291525766781527 0.9910869024662019 -0.07832362183625616 0.002212729108191652 0.016219446769219107 -0.0018875711174455559 -0.010215608880169898
 0.9910869024662019 -0.07832362183625616 0.007167906513471498 0.03291511589359314 -0.0018862989997183402 -0.010215699437849503 0.0022044679101847313 0.016220643586570285
 0.002212729108191652 0.016219446769219107 -0.0018862989997183402 -0.010215699437849503 0.00716651234387504 0.03291660787120243 0.9910869779326968 -0.0783221880629057
 -0.0018875711174455559 -0.010215608880169898 0.0022044679101847313 0.016220643586570285 0.9910869779326968 -0.0783221880629057 0.007167551248941899 0.03291648420005034
0.1062942892872 0.007197041646398037 0.033044235305635064 0.9910457675317672 -0.07861598546991298 0.0022267812228580833 0.0162782246593467 -0.0018994475379789466 -0.010252755426235442
 0.9910457675317672 -0.07861598546991298 0.007198924696264083 0.033044092521945116 -0.0018981663801774643 -0.010252847162312683 0.002218459687702654 0.016279432177820678
 0.0022267812228580833 0.0162782246593467 -0.0018981663801774643 -0.010252847162312683 0.007197520323745391 0.03304558999214318 0.9910458435641311 -0.07861454632267312
 -0.0018994475379789466 -0.010252755426235442 0.002218459687702654 0.016279432177820678 0.9910458435641311 -0.07861454632267312 0.007198566813597218 0.03304546545751486
0.11254689453939999 0.0077128471049104 0.03514580956657284 0.9903617354218327 -0.08336869307807597 0.0024614989104717417 0.017231510145888248 -0.0020978532247251038 -0.010855102164555036
 0.9903617354218327 -0.08336869307807597 0.00771495720454094 0.03514564972663637 -0.0020964210760730405 -0.010855214251407995 0.002452167155846068 0.01723290055190062
 0.0024614989104717417 0.017231510145888248 -0.0020964210760730405 -0.010855214251407995 0.007713381924912391 0.035147236341575405 0.9903618209877096 -0.08336716644172047
 -0.0020978532247251038 -0.010855102164555036 0.002452167155846068 0.01723290055190062 0.9903618209877096 -0.08336716644172047 0.007714555434372956 0.035147097309207245
0.11879949979160001 0.008252501848840818 0.03726216478930723 0.9896467187200868 -0.08813439805048423 0.0027087412766739812 0.018183130957494232 -0.0023069094758804767 -0.011456135964422944
 0.9896467187200868 -0.08813439805048423 0.008254851897124547 0.03726198658981886 -0.002305318377535029 -0.011456270783196285 0.0026983412534013055 0.018184722175859955
 0.0027087412766739812 0.018183130957494232 -0.002305318377535029 -0.011456270783196285 0.008253095713464512 0.03726366231659239 0.9896468144943045 -0.08813278341198558
 -0.0023069094758804767 -0.011456135964422944 0.0026983412534013055 0.018184722175859955 0.9896468144943045 -0.08813278341198558 0.008254403612281788 0.03726350786437395
0.1250521050438 0.008816348039046658 0.03939291005442365 0.9889003807676467 -0.0929127826411805 0.0029685784803999923 0.019132874602965567 -0.002526689098836067 -0.012055649734738707
 0.9889003807676467 -0.0929127826411805 0.008818950945260624 0.03939271213249822 -0.002524931164875666 -0.012055809779564466 0.002957052159689957 0.019134685467622408
 0.0029685784803999923 0.019132874602965567 -0.002524931164875666 -0.012055809779564466 0.00881700381147391 0.03939447692064466 0.9889004874496419 -0.09291107945625861
 -0.002526689098836067 -0.012055649734738707 0.002957052159689957 0.019134685467622408 0.9889004874496419 -0.09291107945625861 0.00881845349452344 0.039394306104295146
0.131304710296 0.009404723421624371 0.04153765051788378 0.9881223887395177 -0.09770351780618966 0.003241076411501757 0.020080524864307746 -0.002757260587179915 -0.012653433143762655
 0.9881223887395177 -0.09770351780618966 0.009407592108216354 0.0415374314494527 -0.0027553280054896847 -0.012653621021500505 0.003228365797996833 0.020082575125878212
 0.003241076411501757 0.020080524864307746 -0.0027553280054896847 -0.012653621021500505 0.009405443924581293 0.04153928522748054 0.9881225070546236 -0.09770172550488364
 -0.002757260587179915 -0.012653433143762655 0.003228365797996833 0.020082575125878212 0.9881225070546236 -0.09770172550488364 0.009407042814675763 0.04153909707963048
0.1375573155481 0.009889377497960152 0.04341599538373344 0.9874410587688056 -0.10222610892970883 0.0034938731396785207 0.02099844712665659 -0.0029662844581394275 -0.013221870141603653
 0.9874410587688056 -0.10222610892970883 0.009892527577093042 0.04341575792192753 -0.002964165933680738 -0.01322208629724401 0.0034799471920016808 0.021000735309684902
 0.0034938731396785207 0.02099844712665659 -0.002964165933680738 -0.01322208629724401 0.009890166956412294 0.04341769579470111 0.9874411892722118 -0.10222422715283142
 -0.0029662844581394275 -0.013221870141603653 0.0034799471920016808 0.021000735309684902 0.9874411892722118 -0.10222422715283142 0.009891922656672106 0.04341749514022634
0.1438099208003 0.01039125721640423 0.0452832281090417 0.9867354004000096 -0.10673601019507449 0.0037568454475507998 0.021911908295488104 -0.0031836243112484354 -0.01378622672052396
 0.9867354004000096 -0.10673601019507449 0.010394702089066303 0.04528297104760671 -0.0031813115106756632 -0.013786473729600393 0.0037416510788006556 0.02191445264480596
 0.0037568454475507998 0.021911908295488104 -0.0031813115106756632 -0.013786473729600393 0.010392118649959672 0.04528499256894022 0.9867355438193225 -0.10673403838092288
 -0.0031836243112484354 -0.01378622672052396 0.0037416510788006556 0.02191445264480596 0.9867355438193225 -0.10673403838092288 0.01039403862551984 0.045284778854753995
0.1500625260525 0.010910167029972459 0.04713915690104169 0.9860056141569833 -0.11123307298435738 0.004029890318001407 0.022820790718128574 -0.003409180038904556 -0.014346392877397939
 0.9860056141569833 -0.11123307298435738 0.010913920136306552 0.04713887896277587 -0.0034066646578648874 -0.014346673418093538 0.004013374782222033 0.0228236101524372
 0.004029890318001407 0.022820790718128574 -0.0034066646578648874 -0.014346673418093538 0.0109111034366241 0.04714098368956912 0.9860057712420155 -0.11123101055047148
 -0.003409180038904556 -0.014346392877397939 0.004013374782222033 0.0228236101524372 0.9860057712420155 -0.11123101055047148 0.01091319517463808 0.04714075632658203
0.15631513130469998 0.011445909773663407 0.04898359570557092 0.9852519018414819 -0.11571715002670985 0.004312903374425965 0.023724979011391298 -0.0036428501729779622 -0.014902261171970589
 0.9852519018414819 -0.11571715002670985 0.011449984593924843 0.048983295540836864 -0.0036401239366167393 -0.014902578024491657 0.00429501427194611 0.023728093116104507
