! Created with skrf 1.8.0 (http://scikit-rf.org).
# GHz S RI R 50.0 
!freq ReS11 ImS11 ReS12 ImS12 ReS13 ImS13
! ReS14 ImS14
! ReS21 ImS21 ReS22 ImS22 ReS23 ImS23
! ReS24 ImS24
! ReS31 ImS31 ReS32 ImS32 ReS33 ImS33
! ReS34 ImS34
! ReS41 ImS41 ReS42 ImS42 ReS43 ImS43
! ReS44 ImS44
!
0.0 0.001386348160424 0.0 0.9986136518378 0.0 5.331779066058e-05 0.0 -5.331779135896e-05 6.529546252535678e-21
 0.9986136518378 0.0 0.001386348160467 0.0 -5.331779135914e-05 6.5295462525577205e-21 5.331779065864e-05 0.0
 5.331779066058e-05 0.0 -5.331779135914e-05 6.5295462525577205e-21 0.001386348161146 0.0 0.9986136518386 0.0
 -5.331779135896e-05 6.529546252535678e-21 5.331779065864e-05 0.0 0.9986136518386 0.0 0.001386348161183 0.0
0.005 0.0014912123694411576 0.0011324925782522583 0.9984810554284893 -0.0029046073841402097 7.471115761884675e-05 0.0005995540571854695 -7.257347324614672e-05 -0.0003742863371298775
 0.9984810554284893 -0.0029046073841402097 0.0014912048391377685 0.0011324969955556134 -7.257436026413348e-05 -0.000374287063761702 7.477118990581394e-05 0.0005995315198822353
 7.471115761884675e-05 0.0005995540571854695 -7.257436026413348e-05 -0.000374287063761702 0.001491211348385942 0.0011324259598811694 0.9984810550858059 -0.0029046744445329347
 -7.257347324614672e-05 -0.0003742863371298775 7.477118990581394e-05 0.0005995315198822353 0.9984810550858059 -0.0029046744445329347 0.0014912051815443794 0.0011324295000767974
0.006252605252188 0.0015185954655600829 0.0014200968356713934 0.9984462334650422 -0.0036314895398312954 8.074102299896939e-05 0.0007497361455608279 -7.795432888231871e-05 -0.0004683517886839498
 0.9984462334650422 -0.0036314895398312954 0.001518583693311965 0.0014201023633445542 -7.795570881374867e-05 -0.00046835268574679225 8.083482234366488e-05 0.0007497068457418853
 8.074102299896939e-05 0.0007497361455608279 -7.795570881374867e-05 -0.00046835268574679225 0.0015185939390373797 0.0014200135757480201 0.99844623299917 -0.0036315733605149295
 -7.795432888231871e-05 -0.0004683517886839498 8.083482234366488e-05 0.0007497068457418853 0.99844623299917 -0.0036315733605149295 0.001518584298878993 0.0014200179971728118
0.01250521050438 0.0016620495702892408 0.002870194378507963 0.9982627058945255 -0.007263912206568576 0.00011488798751958046 0.0014998505645208342 -0.00010818547689271134 -0.0009390640579617578
 0.9982627058945255 -0.007263912206568576 0.00166200255261691 0.0028702054807167813 -0.00010819091096799419 -0.0009390657304142769 0.0001152621675332164 0.001499779908214228
 0.00011488798751958046 0.0014998505645208342 -0.00010819091096799419 -0.0009390657304142769 0.0016620440319923826 0.002870028200722752 0.9982627045949442 -0.0072640796162013275
 -0.00010818547689271134 -0.0009390640579617578 0.0001152621675332164 0.001499779908214228 0.9982627045949442 -0.0072640796162013275 0.0016620055406313015 0.0028700369796026116
0.01875781575657 0.0018169988279833596 0.004341186241100733 0.9980628586896076 -0.010906136782717051 0.00015583445391043174 0.002250876905566039 -0.00014409925870364403 -0.0014114587332797282
 0.9980628586896076 -0.010906136782717051 0.0018168931589811232 0.004341202966111457 -0.00014411137135310055 -0.0014114610396485535 0.00015667531566999226 0.002250750720384333
 0.00015583445391043174 0.002250876905566039 -0.00014411137135310055 -0.0014114610396485535 0.001816986798250847 0.004340937393054871 0.9980628561898452 -0.010906387717905192
 -0.00014409925870364403 -0.0014114587332797282 0.00015667531566999226 0.002250750720384333 0.9980628561898452 -0.010906387717905192 0.0018169003136877808 0.004340950429074107
0.02501042100875 0.001983724449140596 0.005831035854740065 0.9978464738370887 -0.014559954420276609 0.0002036569570846962 0.003002867999762787 -0.00018578120890034493 -0.001885334205985419
 0.9978464738370887 -0.014559954420276609 0.001983536756190446 0.0058310582385816285 -0.0001858025916255672 -0.0018853369822134291 0.00020515106381580826 0.0030026700633298833
 0.0002036569570846962 0.003002867999762787 -0.0001858025916255672 -0.0018853369822134291 0.0019837034462094885 0.005830704610390891 0.9978464697652166 -0.014560288864522855
 -0.00018578120890034493 -0.001885334205985419 0.00020515106381580826 0.0030026700633298833 0.9978464697652166 -0.014560288864522855 0.001983549866280167 0.005830721754818905
0.03126302626094 0.002162495900452381 0.007338708004404326 0.9976133213330405 -0.018226147067829507 0.0002584325671049469 0.003755806622775334 -0.00023331468742955125 -0.0023605546159041414
 0.9976133213330405 -0.018226147067829507 0.0021622028288002483 0.007338736067363606 -0.00023334790443292015 -0.002360557675008926 0.0002607669161163905 0.003755518646720949
 0.0002584325671049469 0.003755806622775334 -0.00023334790443292015 -0.002360557675008926 0.0021624634484220468 0.007338294677171569 0.9976133153200983 -0.018226565038788386
 -0.00023331468742955125 -0.0023605546159041414 0.0002607669161163905 0.003755518646720949 0.9976133153200983 -0.018226565038788386 0.002162223697391164 0.007338315729137326
0.037515631513130004 0.0023535769800260373 0.008863537444790402 0.9973631654124353 -0.021905118797979514 0.0003202382033388372 0.004509648165089949 -0.00028678150713477504 -0.002837007179441512
 0.9973631654124353 -0.021905118797979514 0.002353155182635314 0.008863571189226786 -0.00028682909835809066 -0.0028370103114504527 0.0003236003065158154 0.0045092497708355
 0.0003202382033388372 0.004509648165089949 -0.00028682909835809066 -0.0028370103114504527 0.0023535305991280566 0.008863042396381778 0.9973631570807927 -0.021905620339103066
 -0.00028678150713477504 -0.002837007179441512 0.0003236003065158154 0.0045092497708355 0.9973631570807927 -0.021905620339103066 0.00235318561750552 0.008863067100239326
0.043768236765320004 0.0025572281636124282 0.010405036740561547 0.9970957670477223 -0.025597087903672364 0.0003891503156244902 0.0052643336069362135 -0.0003462621662136334 -0.0033145892085149737
 0.9970957670477223 -0.025597087903672364 0.002556654292234579 0.010405076149387378 -0.0003463266490371136 -0.0033145921804484417 0.00039372824112982903 0.005263802298840741
 0.0003891503156244902 0.0052643336069362135 -0.0003463266490371136 -0.0033145921804484417 0.0025571653784697682 0.010404460379911093 0.997095756019179 -0.025597673085780058
 -0.0003462621662136334 -0.0033145892085149737 0.00039372824112982903 0.005263802298840741 0.997095756019179 -0.025597673085780058 0.0025566961152192168 0.010404488423159894
0.050020842017509996 0.002773707702050106 0.011962816868734948 0.996810885201283 -0.029302166230473495 0.00046524469470677395 0.006019794879763435 -0.0004118359405298409 -0.0037932027427190333
 0.996810885201283 -0.029302166230473495 0.0027729583995634976 0.011962861904207322 -0.00041191981098003195 -0.003793205298607878 0.0004712270879174306 0.006019106017146095
 0.00046524469470677395 0.006019794879763435 -0.00041191981098003195 -0.003793205298607878 0.0027736260390915503 0.011962159659426937 0.996810871092807 -0.029302835144890294
 -0.0004118359405298409 -0.0037932027427190333 0.0004712270879174306 0.006019106017146095 0.996810871092807 -0.029302835144890294 0.0027730134437559855 0.011962190670936011
0.055454545454549996 0.0029724524951235424 0.013329539993206293 0.9965489273445602 -0.03253267353415398 0.000537264165581935 0.006676885960284023 -0.00047383056398310453 -0.0042098956438742785
 0.9965489273445602 -0.03253267353415398 0.002971531756706867 0.013329589870927153 -0.0004739332940418927 -0.0042098976124983895 0.0005446207418279727 0.006676038479362414
 0.000537264165581935 0.006676885960284023 -0.0004739332940418927 -0.0042098976124983895 0.0029723524202672586 0.013328812945213287 0.9965489102445935 -0.03253341530258953
 -0.00047383056398310453 -0.0042098956438742785 0.0005446207418279727 0.006676038479362414 0.9965489102445935 -0.03253341530258953 0.0029715997884598904 0.013328846188073673
0.056273447269699996 0.003003272191503789 0.013536548238268822 0.9965082775529177 -0.03302039809208702 0.0005485963412343973 0.0067759574852441625 -0.0004835809115104434 -0.004272751925228834
 0.9965082775529177 -0.03302039809208702 0.00300232408485199 0.01353659884095754 -0.0004836866451374514 -0.0042727537861457655 0.0005561724334385823 0.006775084253846801
 0.0005485963412343973 0.0067759574852441625 -0.0004836866451374514 -0.0042727537861457655 0.0030031691801883803 0.013535810701495395 0.9965082599765751 -0.033021150848124375
 -0.0004835809115104434 -0.004272751925228834 0.0005561724334385823 0.006775084253846801 0.9965082599765751 -0.033021150848124375 0.003002394195419257 0.013535844249897216
0.06252605252188 0.003246176888325446 0.015125939263919329 0.9961877009739666 -0.036751781632482036 0.0006392793609547753 0.0075327419443827585 -0.0005615739644125119 -0.004753141550499505
 0.9961877009739666 -0.036751781632482036 0.00324500658133719 0.01512599535201409 -0.0005617040167904943 -0.004753142414590015 0.0006486389697329344 0.007531655327558648
 0.0006392793609547753 0.0075327419443827585 -0.0005617040167904943 -0.004753142414590015 0.00324605006161141 0.015125121970009286 0.996187679536379 -0.036752618366498006
 -0.0005615739644125119 -0.004753141550499505 0.0006486389697329344 0.007531655327558648 0.996187679536379 -0.036752618366498006 0.0032450936166060662 0.015125157562339252
0.06877865777407 0.0035026758813647575 0.016730723582021836 0.9958489118627927 -0.04049628154856939 0.0007373668771519618 0.00829006465249432 -0.0006458907663493953 -0.005234276208391915
 0.9958489118627927 -0.04049628154856939 0.003501259947963823 0.016730785050670553 -0.0006460475735594618 -0.005234275750914996 0.0007487004011403571 0.008288733402223653
 0.0007373668771519618 0.00829006465249432 -0.0006460475735594618 -0.005234275750914996 0.003502522776048821 0.016729827164485244 0.9958488861638449 -0.04049720241035508
 -0.0006458907663493953 -0.005234276208391915 0.0007487004011403571 0.008288733402223653 0.9958488861638449 -0.04049720241035508 0.0035013657792509313 0.016729864244995334
0.07503126302626001 0.003773022182824011 0.018350651958020135 0.9954916664006774 -0.04425383712310094 0.0008429309512131797 0.00904783842563106 -0.00073660573419147 -0.0057160597393470965
 0.9954916664006774 -0.04425383712310094 0.0037713371602481225 0.018350718679006933 -0.0007367917131017958 -0.0057160576127144504 0.000856429360616952 0.009046229033499073
 0.0008429309512131797 0.00904783842563106 -0.0007367917131017958 -0.0057160576127144504 0.003772840341328933 0.018349677101981102 0.9954916360338455 -0.04425484228792787
 -0.00073660573419147 -0.0057160597393470965 0.000856429360616952 0.009046229033499073 0.9954916360338455 -0.04425484228792787 0.003771463673734734 0.01834971505108744
0.08128386827845 0.0040574677670044 0.019985486887222837 0.9951157207586031 -0.04802436756726513 0.0009560425090597739 0.00980597286446254 -0.000833791994700127 -0.0061983948748017105
 0.9951157207586031 -0.04802436756726513 0.00405549014912584 0.01998555870864531 -0.0008340095432683353 -0.006198390708617641 0.0009718973327420774 0.009804049532680069
 0.0009560425090597739 0.00980597286446254 -0.0008340095432683353 -0.006198390708617641 0.004057254737670815 0.01998443434004568 0.995115685309925 -0.04802545722565954
 -0.000833791994700127 -0.0061983948748017105 0.0009718973327420774 0.009804049532680069 0.995115685309925 -0.04802545722565954 0.004055639245383 0.019984472473514307
0.08753647353064001 0.0043562635754632595 0.021634998873155703 0.9947208312736684 -0.05180777568851429 0.001076771271175515 0.010564374606410477 -0.0009375213394654675 -0.006681182992200097
 0.9947208312736684 -0.05180777568851429 0.00435396980594649 0.021635075619463772 -0.0009377728368476177 -0.0066811763933063645 0.0010951745811805102 0.010562099218887707
 0.001076771271175515 0.010564374606410477 -0.0009377728368476177 -0.0066811763933063645 0.00435601691334098 0.021633869436065274 0.9947207903206213 -0.051808950054984766
 -0.0009375213394654675 -0.006681182992200097 0.0010951745811805102 0.010562099218887707 0.9947207903206213 -0.051808950054984766 0.004354143401075716 0.02163390700435573
0.09378907878283 0.0046696594978021585 0.023298963753543834 0.994306754602927 -0.05560395051381565 0.001205185684831473 0.011322947508227744 -0.0010478641760535083 -0.007164323942530826
 0.994306754602927 -0.05560395051381565 0.00466702596326429 0.023299045225660783 -0.0010481519827758295 -0.007164314495054474 0.0012263300787724771 0.011320279601750527
 0.001205185684831473 0.011322947508227744 -0.0010481519827758295 -0.007164314495054474 0.004669376765778298 0.023297758288272408 0.9943067077142671 -0.05560520982072981
 -0.0010478641760535083 -0.007164323942530826 0.0012263300787724771 0.011320279601750527 0.9943067077142671 -0.05560520982072981 0.00466722598925926 0.023297794476045554
0.100041684035 0.004997904335534018 0.024977160749403877 0.9938732478640004 -0.05941276919339243 0.0013413528575557086 0.012081592783540793 -0.001164889476796299 -0.007647715925900263
 0.9938732478640004 -0.05941276919339243 0.004994907358688439 0.02497724672502757 -0.001165215934784857 -0.007647703191304494 0.0013654314390112777 0.012078489519117951
 0.0013413528575557086 0.012081592783540793 -0.001165215934784857 -0.007647703191304494 0.004997583105074059 0.024975880176847397 0.9938731945990573 -0.05941411369251403
 -0.001164889476796299 -0.007647715925900263 0.0013654314390112777 0.012078489519117951 0.9938731945990573 -0.05941411369251403 0.004995135764431407 0.024975914102621937
0.1059090909091 0.005319652859921404 0.026564719604115 0.9934485604969062 -0.06299832238455579 0.0014762409015890478 0.012793476507394983 -0.001280843070284936 -0.00810146413594334
 0.9934485604969062 -0.06299832238455579 0.005316293233660863 0.026564809583412022 -0.0012812079118795154 -0.008101447897736211 0.0015032489643436728 0.012789923602789815
 0.0014762409015890478 0.012793476507394983 -0.0012812079118795154 -0.008101447897736211 0.005319293302846178 0.026563369441701623 0.9934485008386659 -0.0629997470740018
 -0.001280843070284936 -0.00810146413594334 0.0015032489643436728 0.012789923602789815 0.9934485008386659 -0.0629997470740018 0.005316550058626412 0.02656340038422464
0.1062942892872 0.0053412457537992085 0.026669370995491336 0.9934200687650421 -0.06323409842614408 0.0014853384920342177 0.012840209107386058 -0.0012886647247956874 -0.008131255403383922
 0.9934200687650421 -0.06323409842614408 0.005337861586459675 0.026669461229634553 -0.0012890321575060497 -0.008131238920506158 0.0015125448492400817 0.012836625241776168
 0.0014853384920342177 0.012840209107386058 -0.0012890321575060497 -0.008131238920506158 0.005340883606391352 0.026668016295373718 0.9934200086731353 -0.06323552838932976
 -0.0012886647247956874 -0.008131255403383922 0.0015125448492400817 0.012836625241776168 0.9934200086731353 -0.06323552838932976 0.005338120338107253 0.026668047011538507
0.11254689453939999 0.005699930223327667 0.02837537641049415 0.992946975728824 -0.06706779554928645 0.001637206821116056 0.013598692700621057 -0.001419255858703111 -0.008614837032173812
 0.992946975728824 -0.06706779554928645 0.0056961350393582 0.02837547063623763 -0.0014196665710788923 -0.008614816317293114 0.0016677350044601318 0.01359458055800058
 0.001637206821116056 0.013598692700621057 -0.0014196665710788923 -0.008614816317293114 0.00569952475064992 0.02837394862269559 0.9929469083479803 -0.06706931126741918
 -0.001419255858703111 -0.008614837032173812 0.0016677350044601318 0.01359458055800058 0.9929469083479803 -0.06706931126741918 0.005696426120820585 0.028373975115509074
0.11879949979160001 0.006074202954714295 0.03009495882241606 0.9924537280100432 -0.07091370937634746 0.0017970205436661432 0.014356937399503097 -0.00155672721580494 -0.009098353618870706
 0.9924537280100432 -0.07091370937634746 0.006069972843022847 0.030095056751767824 -0.0015571834943211103 -0.009098328165746941 0.0018310650415736297 0.014352246843454644
 0.0017970205436661432 0.014356937399503097 -0.0015571834943211103 -0.009098328165746941 0.006073751760376303 0.030093459046168513 0.9924536528669807 -0.0709153111603909
 -0.00155672721580494 -0.009098353618870706 0.0018310650415736297 0.014352246843454644 0.9924536528669807 -0.0709153111603909 0.006070298256984957 0.030093480236122502
0.1250521050438 0.00646430782705446 0.031827899272575046 0.9919400858107067 -0.07477168086053873 0.0019648407603927824 0.015114834712839538 -0.00170114147411226 -0.009581696088723602
 0.9919400858107067 -0.07477168086053873 0.0064596187843556805 0.03182800059766232 -0.0017016455867689935 -0.009581665368664609 0.002002596474145864 0.015109513118510534
 0.0019648407603927824 0.015114834712839538 -0.0017016455867689935 -0.009581665368664609 0.0064638085272579245 0.03182632866802284 0.9919400024197824 -0.07477336904007678
 -0.00170114147411226 -0.009581696088723602 0.002002596474145864 0.015109513118510534 0.9919400024197824 -0.07477336904007678 0.0064599805524645955 0.03182634341034824
0.131304710296 0.006870487311241306 0.03357397745935254 0.9914058103918705 -0.07864154362218957 0.002140726909825227 0.01587227387461926 -0.0018525595935229059 -0.010064753462803765
 0.9914058103918705 -0.07864154362218957 0.0068653152347120765 0.03357408185373785 -0.0018531137898017097 -0.010064716924719686 0.0021823891273603626 0.01586626610117435
 0.002140726909825227 0.01587227387461926 -0.0018531137898017097 -0.010064716924719686 0.006869937536049334 0.03357233724798615 0.9914057182545502 -0.07864331854525843
 -0.0018525595935229059 -0.010064753462803765 0.0021823891273603626 0.01586626610117435 0.9914057182545502 -0.07864331854525843 0.006865715398689807 0.033572344333395045
0.1375573155481 0.007196174516125485 0.03510452048413478 0.9909475041395482 -0.08229458813725722 0.002301254807712049 0.016605681300957072 -0.001987506588029618 -0.010523999593933563
 0.9909475041395482 -0.08229458813725722 0.007190494106051278 0.03510462834500255 -0.0019881143165335364 -0.010523957247472442 0.002346910022349606 0.016598999503698583
 0.002301254807712049 0.016605681300957072 -0.0019881143165335364 -0.010523957247472442 0.007195572552782536 0.035102811540323235 0.9909474028539587 -0.08229645002033212
 -0.001987506588029618 -0.010523999593933563 0.002346910022349606 0.016598999503698583 0.9909474028539587 -0.08229645002033212 0.0071909338801602555 0.03510281097513729
0.1438099208003 0.0075331938345949935 0.03662761372713819 0.9904733206638217 -0.08593900542472742 0.0024682665135649594 0.017336567654822114 -0.0021278689776819855 -0.010980906890627376
 0.9904733206638217 -0.08593900542472742 0.007526980680547125 0.03662772498949653 -0.002128532677140299 -0.010980858196096326 0.00251809088394595 0.017329161877520264
 0.0024682665135649594 0.017336567654822114 -0.002128532677140299 -0.010980858196096326 0.007532537451398729 0.03662583729479669 0.9904732097320718 -0.08594095461260798
 -0.0021278689776819855 -0.010980906890627376 0.00251809088394595 0.017329161877520264 0.9904732097320718 -0.08594095461260798 0.007527461985774149 0.03662582815865459
0.1500625260525 0.007881435162161596 0.0381431483620506 0.9899833736389649 -0.08957472400343042 0.0026417096168209696 0.018064873010197918 -0.0022735952398395343 -0.011435416890678838
 0.9899833736389649 -0.08957472400343042 0.007874664755745284 0.03814326298751187 -0.0022743173457092994 -0.011435361286734187 0.0026958784063109515 0.018056691480266493
 0.0026417096168209696 0.018064873010197918 -0.0022743173457092994 -0.011435361286734187 0.007880722148667488 0.03814130573505046 0.9899832525522045 -0.08957676085375003
 -0.0022735952398395343 -0.011435416890678838 0.0026958784063109515 0.018056691480266493 0.9899832525522045 -0.08957676085375003 0.007875189522756485 0.038141287100866644
0.15631513130469998 0.008240787712746203 0.0396510189379513 0.9894777772086963 -0.09320167227051869 0.002821531149576998 0.018790538365617244 -0.0024246332723174553 -0.01188747229812496
