! Created with skrf 1.8.0 (http://scikit-rf.org).
# GHz S RI R 50.0 
!freq ReS11 ImS11 ReS12 ImS12 ReS13 ImS13
! ReS14 ImS14
! ReS21 ImS21 ReS22 ImS22 ReS23 ImS23
! ReS24 ImS24
! ReS31 ImS31 ReS32 ImS32 ReS33 ImS33
! ReS34 ImS34
! ReS41 ImS41 ReS42 ImS42 ReS43 ImS43
! ReS44 ImS44
!
0.0 0.001929852708595 0.0 0.9980701472914 0.0 7.530158909062e-05 0.0 -7.530158926888e-05 9.221785026884257e-21
 0.9980701472914 0.0 0.001929852708544 0.0 -7.530158926682e-05 9.221785026631979e-21 7.530158908984e-05 0.0
 7.530158909062e-05 0.0 -7.530158926682e-05 9.221785026631979e-21 0.001929852698602 0.0 0.9980701472815 0.0
 -7.530158926888e-05 9.221785026884257e-21 7.530158908984e-05 0.0 0.9980701472815 0.0 0.001929852698654 0.0
0.005 0.0020778045422509494 0.0015732969387135336 0.9978827242094586 -0.004041353848710693 0.00010692105396283297 0.0008546073774433754 -0.0001036179198025024 -0.000531790572108783
 0.9978827242094586 -0.004041353848710693 0.002077790071697714 0.0015733054836472873 -0.00010361799793600218 -0.0005317907150633666 0.00010700428534453726 0.0008545755563778736
 0.00010692105396283297 0.0008546073774433754 -0.00010361799793600218 -0.0005317907150633666 0.00207780448262372 0.0015733643164711677 0.9978827246033306 -0.0040412867923783355
 -0.0001036179198025024 -0.000531790572108783 0.00010700428534453726 0.0008545755563778736 0.9978827246033306 -0.0040412867923783355 0.0020777909101709945 0.001573372210723017
0.006252605252188 0.002117028598364864 0.001972770896832866 0.9978326592161257 -0.005052614679918012 0.00011617692838996665 0.0010686345848089512 -0.00011181412951797405 -0.0006654052288321167
 0.9978326592161257 -0.005052614679918012 0.002117005977587245 0.001972781766998715 -0.00011181425043485934 -0.0006654054068706154 0.00011630696633115041 0.0010685932309789973
 0.00011617692838996665 0.0010686345848089512 -0.00011181425043485934 -0.0006654054068706154 0.0021170284260453253 0.0019728551179898925 0.9978326597534292 -0.005052530864768131
 -0.00011181412951797405 -0.0006654052288321167 0.00011630696633115041 0.0010685932309789973 0.9978326597534292 -0.005052530864768131 0.0021170072103285434 0.0019728651586210315
0.01250521050438 0.0023259603863713236 0.003986387321887086 0.9975639341538909 -0.010105536410588345 0.00017043164131348346 0.002137348843909426 -0.00015939865110583146 -0.0013337703947093867
 0.9975639341538909 -0.010105536410588345 0.0023258700497175064 0.003986410985481372 -0.0001593991196456084 -0.001333770744672598 0.00017095012617598346 0.0021372488436703706
 0.00017043164131348346 0.002137348843909426 -0.0001593991196456084 -0.001333770744672598 0.0023259591321615255 0.003986555562763332 0.9975639357462222 -0.010105369005370258
 -0.00015939865110583146 -0.0013337703947093867 0.00017095012617598346 0.0021372488436703706 0.9975639357462222 -0.010105369005370258 0.0023258744242183787 0.003986577391163646
0.01875781575657 0.0025571892399984925 0.006028033300165082 0.9972635783559095 -0.015170959567671952 0.00023820443278649194 0.0032068152239926482 -0.0002182194884423064 -0.002004029214041659
 0.9972635783559095 -0.015170959567671952 0.0025569862243664146 0.0060280718565825465 -0.0002182205222285303 -0.0020040297317658836 0.0002393689622657181 0.0032066352750416984
 0.00023820443278649194 0.0032068152239926482 -0.0002182205222285303 -0.0020040297317658836 0.002557185970941717 0.006028285479099082 0.9972635815114427 -0.015170708634599631
 -0.0002182194884423064 -0.002004029214041659 0.0002393689622657181 0.0032066352750416984 0.9972635815114427 -0.015170708634599631 0.0025569956397689503 0.0060283209753729215
0.02501042100875 0.0028112347464829017 0.008094727039867206 0.9969311805397889 -0.020251223856112714 0.0003196346830099461 0.004277010794419846 -0.000288433293593865 -0.0026757993450793735
 0.9969311805397889 -0.020251223856112714 0.002810874161427935 0.008094782750433887 -0.0002884351042015422 -0.0026758000279445086 0.0003217027985559802 0.0042767256963084956
 0.0003196346830099461 0.004277010794419846 -0.0002884351042015422 -0.0026758000279445086 0.002811228522293351 0.008095063079462408 0.9969311857761117 -0.020250889409600306
 -0.000288433293593865 -0.0026757993450793735 0.0003217027985559802 0.0042767256963084956 0.9969311857761117 -0.020250889409600306 0.0028108905243584797 0.008095114242970785
0.03126302626094 0.0030885944508765167 0.010184875466511508 0.996566312029471 -0.02534725979178722 0.00041486077991775605 0.005347809181588015 -0.000370190585591751 -0.0033487906271903746
 0.996566312029471 -0.02534725979178722 0.00308803145179475 0.010184950752695189 -0.00037019337958167593 -0.003348791474161031 0.00041809018299268424 0.005347389813621059
 0.00041486077991775605 0.005347809181588015 -0.00037019337958167593 -0.003348791474161031 0.0030885843122269558 0.010185295287795626 0.9965663198638168 -0.02534684180447364
 -0.000370190585591751 -0.0033487906271903746 0.00041809018299268424 0.005347389813621059 0.9965663198638168 -0.02534684180447364 0.003088056665409328 0.01018536423463983
0.037515631513130004 0.0033897536315871286 0.01229739549272138 0.9961685370763503 -0.0304594673987973 0.000524018714100476 0.00641904211093241 -0.0004636368391221873 -0.004022743630454359
 0.9961685370763503 -0.0304594673987973 0.0033889434010073694 0.012297492935851532 -0.0004636408187412458 -0.004022744642154527 0.0005286673487264595 0.006418455396119725
 0.000524018714100476 0.00641904211093241 -0.0004636408187412458 -0.004022744642154527 0.0033897386045856396 0.012297898998793376 0.9961685480317285 -0.03045896581782321
 -0.0004636368391221873 -0.004022743630454359 0.0005286673487264595 0.006418455396119725 0.9961685480317285 -0.03045896581782321 0.0033889793688276866 0.012297987960965238
0.043768236765320004 0.0037151890303227146 0.014431446667008222 0.9957374171330192 -0.035587983516026565 0.000647241381387403 0.007490518142414744 -0.0005689128257018615 -0.0046974110084231245
 0.9957374171330192 -0.035587983516026565 0.0037140867622877187 0.014431569009027088 -0.0005689181893638373 -0.004697412187215298 0.0006535674593536969 0.007489727007431577
 0.000647241381387403 0.007490518142414744 -0.0005689181893638373 -0.004697412187215298 0.0037151681237451873 0.014432033748034773 0.9957374317375219 -0.03558739825833734
 -0.0005689128257018615 -0.0046974110084231245 0.0006535674593536969 0.007489727007431577 0.9957374317375219 -0.03558739825833734 0.0037141353847874236 0.01443214507345013
0.050020842017509996 0.004065370542721983 0.016586320679551948 0.9952725130928212 -0.040732792249561035 0.0007846581284296767 0.008562030445437789 -0.0006861546963056844 -0.005372549818216707
 0.9952725130928212 -0.040732792249561035 0.004063931428900477 0.016586470824188314 -0.0006861616389154928 -0.005372551168287502 0.0007929201236541299 0.008560993779149576
 0.0007846581284296767 0.008562030445437789 -0.0006861616389154928 -0.005372551168287502 0.004065342748780281 0.016586991203789755 0.9952725318818625 -0.040732123211007
 -0.0006861546963056844 -0.005372549818216707 0.0007929201236541299 0.008560993779149576 0.9952725318818625 -0.040732123211007 0.004063994604075868 0.016587127356742795
0.055454545454549996 0.004390146166482492 0.018475391237368147 0.994840720136404 -0.04521693151807379 0.000915702311163286 0.009493067196158332 -0.0007978614389174977 -0.005959460628868587
 0.994840720136404 -0.04521693151807379 0.004388377921965466 0.01847556802855906 -0.000797869909513479 -0.005959462132660625 0.0009258567751141262 0.009491780601079317
 0.000915702311163286 0.009493067196158332 -0.000797869909513479 -0.005959462132660625 0.0043901115543064145 0.018476134154084497 0.99484074300238 -0.04521618956890527
 -0.0007978614389174977 -0.005959460628868587 0.0009258567751141262 0.009491780601079317 0.99484074300238 -0.04521618956890527 0.004388455280914086 0.018476293975491557
0.056273447269699996 0.004440762035756086 0.018761387144195965 0.9947733866610398 -0.04589377915704935 0.0009363944096217544 0.009633360630931878 -0.0008154939443348375 -0.006047917793594332
 0.9947733866610398 -0.04589377915704935 0.00443894125232667 0.018761568158832367 -0.0008155026576321735 -0.006047919321035227 0.0009468510338109104 0.009632033242663632
 0.0009363944096217544 0.009633360630931878 -0.0008155026576321735 -0.006047919321035227 0.004440726328008019 0.01876214096046325 0.9947734101773636 -0.04589302621026264
 -0.0008154939443348375 -0.006047917793594332 0.0009468510338109104 0.009632033242663632 0.9947734101773636 -0.04589302621026264 0.004439020872653204 0.018762304522781742
0.06252605252188 0.004841821738949495 0.02095606381448736 0.9942396013070782 -0.05107076100983835 0.0011025714981423046 0.010704280893141037 -0.0009570573096676413 -0.006723271320221062
 0.9942396013070782 -0.05107076100983835 0.004839574434274126 0.020956278932510557 -0.0009570679825144372 -0.006723273033087931 0.001115481663720884 0.01070261347120192
 0.0011025714981423046 0.010704280893141037 -0.0009570679825144372 -0.006723273033087931 0.004841777072315268 0.02095690075762474 0.9942396301019782 -0.05106992399894977
 -0.0009570573096676413 -0.006723271320221062 0.001115481663720884 0.01070261347120192 0.9942396301019782 -0.05106992399894977 0.00483967238585493 0.020957094430425514
0.06877865777407 0.005269002397322045 0.023169798850881985 0.9936707229834024 -0.05626350351724025 0.0012833062275208092 0.011774555307990825 -0.001110966648856894 -0.007398364267218178
 0.9936707229834024 -0.05626350351724025 0.005266283679505133 0.02317005147458838 -0.0011109794674420289 -0.007398366175626574 0.0012989290016430888 0.011772494378762943
 0.0012833062275208092 0.011774555307990825 -0.0011109794674420289 -0.007398366175626574 0.005268947706954744 0.023170718729050944 0.9936707576179354 -0.05626258227104872
 -0.001110966648856894 -0.007398364267218178 0.0012989290016430888 0.011772494378762943 0.9936707576179354 -0.05626258227104872 0.005266401840666273 0.023170945334812305
0.07503126302626001 0.005722751284569343 0.025402059576784215 0.9930663207105253 -0.06147173257662386 0.0014787107516604854 0.012843940690541893 -0.0012773387849302693 -0.008072947273172785
 0.9930663207105253 -0.06147173257662386 0.005719516209504035 0.02540235328078344 -0.0012773539330374862 -0.008072949389347826 0.001497305303126136 0.012841428578463647
 0.0014787107516604854 0.012843940690541893 -0.0012773539330374862 -0.008072949389347826 0.00572268548523225 0.025403062186072817 0.9930663617563774 -0.06147072689431665
 -0.0012773387849302693 -0.008072947273172785 0.001497305303126136 0.012841428578463647 0.9930663617563774 -0.06147072689431665 0.005719656449086069 0.0254033246714529
0.08128386827845 0.006203510128819072 0.027652325040467125 0.9924259670803579 -0.06669514173318128 0.0016888923169852707 0.013912187191312939 -0.0014562853437287 -0.00874676730737945
 0.9924259670803579 -0.06669514173318128 0.0061997136883224675 0.027652663575743662 -0.001456303002963805 -0.008746769645720295 0.0017107178578249572 0.013909161979747937
 0.0016888923169852707 0.013912187191312939 -0.001456303002963805 -0.008746769645720295 0.006203432114115512 0.027653410152688032 0.9924260151210714 -0.06669405139715279
 -0.0014562853437287 -0.00874676730737945 0.0017107178578249572 0.013909161979747937 0.9924260151210714 -0.06669405139715279 0.006199877864032607 0.027653711591872843
0.08753647353064001 0.006711714977982324 0.02992008087915456 0.9917492387032488 -0.07193339735419167 0.00191395304237643 0.014979038740299652 -0.0016479125822177515 -0.009419567397767071
 0.9917492387032488 -0.07193339735419167 0.006707312087936932 0.029920468177530704 -0.0016479329322343023 -0.009419569974895991 0.0019392687647091817 0.014975434233625271
 0.00191395304237643 0.014979038740299652 -0.0016479329322343023 -0.009419569974895991 0.006711623619725538 0.029921248248373663 0.9917492943353888 -0.07193222212390482
 -0.0016479125822177515 -0.009419567397767071 0.0019392687647091817 0.014975434233625271 0.9917492943353888 -0.07193222212390482 0.006707502044926452 0.029921591847028264
0.09378907878283 0.0072477960254618565 0.03220481566750844 0.9910357166202504 -0.07718614233531913 0.0021539897052185305 0.016044233397041047 -0.0018523212107235496 -0.010091086467564018
 0.9910357166202504 -0.07718614233531913 0.007242741514102134 0.032205255846882525 -0.001852344429457265 -0.010091089302378543 0.0021830547144497505 0.016039979083879705
 0.0021539897052185305 0.016044233397041047 -0.001852344429457265 -0.010091089302378543 0.00724769017270847 0.03220606503059862 0.9910357804539457 -0.07718488194747906
 -0.0018523212107235496 -0.010091086467564018 0.0021830547144497505 0.016039979083879705 0.9910357804539457 -0.07718488194747906 0.007242959082889248 0.032206454130319244
0.100041684035 0.007812177406147014 0.034506018275064325 0.9902849866888837 -0.08245299881595991 0.002409093531987907 0.01710750363558492 -0.002069606211748151 -0.010761059252159606
 0.9902849866888837 -0.08245299881595991 0.00780642600236151 0.034506515645062574 -0.0020696324756114713 -0.010761062365887634 0.0024421667765617554 0.017102524653378085
 0.002409093531987907 0.01710750363558492 -0.0020696324756114713 -0.010761062365887634 0.007812055884705454 0.03450734934948529 0.9902850593495541 -0.08245165298733811
 -0.002069606211748151 -0.010761059252159606 0.0024421667765617554 0.017102524653378085 0.9902850593495541 -0.08245165298733811 0.007806672997503784 0.034507787432939065
0.1059090909091 0.008367900618853195 0.03667997336810879 0.9895463017791682 -0.08740786625252321 0.002662261049233862 0.018103276748970807 -0.0022852954819571653 -0.011388111321648391
 0.9895463017791682 -0.08740786625252321 0.0083614539826396 0.03668052850146883 -0.0022853247625889777 -0.011388114718508946 0.0026993309040265236 0.018097545749211727
 0.002662261049233862 0.018103276748970807 -0.0022853247625889777 -0.011388114718508946 0.008367763304077649 0.03668138084755108 0.9895463833059078 -0.087406439970285
 -0.0022852954819571653 -0.011388111321648391 0.0026993309040265236 0.018097545749211727 0.9895463833059078 -0.087406439970285 0.00836173022566235 0.036681868195227264
0.1062942892872 0.008405276971831476 0.03682317588845368 0.9894966399512682 -0.08773357024724844 0.0026793499928881993 0.018168576593781766 -0.0022998566562626123 -0.011429216266739522
 0.9894966399512682 -0.08773357024724844 0.008398783292943605 0.036823734956900264 -0.002299886140332971 -0.01142921968296315 0.002716690190869842 0.018162793694858573
 0.0026793499928881993 0.018168576593781766 -0.002299886140332971 -0.01142921968296315 0.008405138582908495 0.03682458837494458 0.9894967220801975 -0.08773213867278502
 -0.0022998566562626123 -0.011429216266739522 0.002716690190869842 0.018162793694858573 0.9894967220801975 -0.08773213867278502 0.008399061511166333 0.03682507907165184
0.11254689453939999 0.009027506050013524 0.03915577253666086 0.988670272989781 -0.09302744297578257 0.0029648385991644928 0.01922717429527509 -0.0025431555193458867 -0.012095283816856874
 0.988670272989781 -0.09302744297578257 0.009020224590941444 0.03915639801641416 -0.0025431883976023226 -0.012095287561541586 0.0030067041624964952 0.01922050381428526
 0.0029648385991644928 0.01922717429527509 -0.0025431883976023226 -0.012095287561541586 0.00902734956996684 0.03915726611819363 0.9886703652452987 -0.09302592533043007
 -0.0025431555193458867 -0.012095283816856874 0.0030067041624964952 0.01922050381428526 0.9886703652452987 -0.09302592533043007 0.009020535809143838 0.03915781321090546
0.11879949979160001 0.009679269191289435 0.04150328795112697 0.9878054882705687 -0.0983341875108116 0.003265632704589419 0.020283013855325185 -0.0027995794948315095 -0.012758984040574897
 0.9878054882705687 -0.0983341875108116 0.009671154312318575 0.04150398476778455 -0.002799615940392733 -0.012758988142114043 0.0033122816604640656 0.0202753676783554
 0.003265632704589419 0.020283013855325185 -0.002799615940392733 -0.012758988142114043 0.009679093370698673 0.041504862294378296 0.9878055913295323 -0.09833258344896752
 -0.0027995794948315095 -0.012758984040574897 0.0033122816604640656 0.0202753676783554 0.9878055913295323 -0.09833258344896752 0.009671500286277026 0.04150546972609576
0.1250521050438 0.010360963907445505 0.04386519670181002 0.986901894481649 -0.10365335953469954 0.003581799309204781 0.021335807677485573 -0.0030691988109680535 -0.013420034975567222
 0.986901894481649 -0.10365335953469954 0.010351969822903226 0.043865970001941174 -0.00306923899626984 -0.01342003946477401 0.0036334892195488155 0.021327093212774404
 0.003581799309204781 0.021335807677485573 -0.00306923899626984 -0.01342003946477401 0.010360767470300491 0.04386685145734307 0.9869020090399117 -0.10365166869092753
 -0.0030691988109680535 -0.013420034975567222 0.0036334892195488155 0.021327093212774404 0.9869020090399117 -0.10365166869092753 0.010352352284914457 0.04386752333911834
0.131304710296 0.011072980402347306 0.04624096752460127 0.9859591068629755 -0.10898450074122625 0.003913398866716273 0.022385263644793183 -0.003352077046736005 -0.0140781506475424
 0.9859591068629755 -0.10898450074122625 0.01106306116940004 0.04624182268460604 -0.003352121143779258 -0.01407815555767385 0.003970386745300888 0.022375383795152665
 0.003913398866716273 0.022385263644793183 -0.003352121143779258 -0.01407815555767385 0.01107276204514043 0.046242702327098574 0.9859592336369277 -0.10898272273116005
 -0.003352077046736005 -0.0140781506475424 0.003970386745300888 0.022375383795152665 0.9859592336369277 -0.10898272273116005 0.011063481826742026 0.04624344294634029
0.1375573155481 0.011666857436255751 0.048320598148638566 0.9851256818458729 -0.1140174355370594 0.004222665552372419 0.02340180592059584 -0.0036103969695051707 -0.014703846663241482
 0.9851256818458729 -0.1140174355370594 0.011655965023165595 0.048321523285545315 -0.0036104454610941966 -0.014703852006758437 0.004285082704949563 0.023390762579055518
 0.004222665552372419 0.02340180592059584 -0.0036104454610941966 -0.014703852006758437 0.01166661707540848 0.04832241222141397 0.9851258214133621 -0.11401557014713104
 -0.0036103969695051707 -0.014703846663241482 0.004285082704949563 0.023390762579055518 0.9851258214133621 -0.11401557014713104 0.011656424609233395 0.04832320969514977
0.1438099208003 0.012281987116802198 0.0503864356453549 0.9842621614032424 -0.11903474431109254 0.0045442963668497335 0.02441251964040365 -0.0038789043534626635 -0.015324147623672117
 0.9842621614032424 -0.11903474431109254 0.012270075110884158 0.05038743519659337 -0.0038789574661214675 -0.01532415342537622 0.004612376418195423 0.024400222781716344
 0.0045442963668497335 0.02441251964040365 -0.0038789574661214675 -0.01532415342537622 0.012281723629718003 0.05038832854140479 0.9842623144808298 -0.11903279117082229
 -0.0038789043534626635 -0.015324147623672117 0.004612376418195423 0.024400222781716344 0.9842623144808298 -0.11903279117082229 0.012270575122884248 0.05038918630930281
0.1500625260525 0.012918105431174144 0.05243822408915331 0.9833688153186961 -0.12403621730802013 0.004878148554501709 0.025417247246545288 -0.004157459127505266 -0.01593890509713673
 0.9833688153186961 -0.12403621730802013 0.012905127274153669 0.05243930276674094 -0.0041575170907581635 -0.01593891138216086 0.004952123174129769 0.025403603578377495
 0.004878148554501709 0.025417247246545288 -0.0041575170907581635 -0.01593891138216086 0.012917817683052871 0.05244019534635631 0.983368982640138 -0.12403417603275022
 -0.004157459127505266 -0.01593890509713673 0.004952123174129769 0.025403603578377495 0.983368982640138 -0.12403417603275022 0.012905669174406274 0.05244111708646527
0.15631513130469998 0.013574945921791131 0.054475715295463044 0.9824459153834415 -0.12902164758535709 0.005224077350909983 0.026415834651028428 -0.004445919198553891 -0.01654797447731091
 0.9824459153834415 -0.12902164758535709 0.013560854906850621 0.054476878094045465 -0.004445982245058197 -0.01654798127099511 0.0053041762155427025 0.026400747658673514
