! Created with skrf 1.8.0 (http://scikit-rf.org).
# GHz S RI R 50.0 
!freq ReS11 ImS11 ReS12 ImS12 ReS13 ImS13
! ReS14 ImS14
! ReS21 ImS21 ReS22 ImS22 ReS23 ImS23
! ReS24 ImS24
! ReS31 ImS31 ReS32 ImS32 ReS33 ImS33
! ReS34 ImS34
! ReS41 ImS41 ReS42 ImS42 ReS43 ImS43
! ReS44 ImS44
!
0.0 0.001546424035861 0.0 0.9984535759556 0.0 5.963066898602e-05 0.0 -5.96306687185e-05 7.302650757712723e-21
 0.9984535759556 0.0 0.001546424035817 0.0 -5.963066871711e-05 7.302650757542498e-21 5.963066898253e-05 0.0
 5.963066898602e-05 0.0 -5.963066871711e-05 7.302650757542498e-21 0.001546424037245 0.0 0.9984535759571 0.0
 -5.96306687185e-05 7.302650757712723e-21 5.963066898253e-05 0.0 0.9984535759571 0.0 0.001546424037276 0.0
0.005 0.0016638290578116438 0.0012655611561041716 0.998305050383977 -0.003239282650643456 8.346306992367718e-05 0.0006544069819156961 -8.109007406839756e-05 -0.000411212179542419
 0.998305050383977 -0.003239282650643456 0.0016638326670148447 0.001265559075096239 -8.109244679490109e-05 -0.00041121402850815506 8.34399710758782e-05 0.0006544158957855984
 8.346306992367718e-05 0.0006544069819156961 -8.109244679490109e-05 -0.00041121402850815506 0.0016638273506736968 0.0012654949195794307 0.9983050500328513 -0.003239349719165009
 -8.109007406839756e-05 -0.000411212179542419 8.34399710758782e-05 0.0006544158957855984 0.9983050500328513 -0.003239349719165009 0.0016638336750393922 0.0012654911763654052
0.006252605252188 0.0016946229068574693 0.0015869273348020718 0.998265849564573 -0.004049894951881024 9.026615210716757e-05 0.0008183271698605704 -8.714713500520649e-05 -0.0005145460680432984
 0.998265849564573 -0.004049894951881024 0.0016946285480720178 0.001586924646904536 -8.715082695529416e-05 -0.0005145483483384686 9.023006372594338e-05 0.0008183387251803354
 9.026615210716757e-05 0.0008183271698605704 -8.715082695529416e-05 -0.0005145483483384686 0.0016946203008103282 0.001586844571432708 0.9982658490786604 -0.004049978760983031
 -8.714713500520649e-05 -0.0005145460680432984 9.023006372594338e-05 0.0008183387251803354 0.9982658490786604 -0.004049978760983031 0.0016946301872081007 0.0015868397963265917
0.01250521050438 0.001856740329209819 0.0032070761800778217 0.9980581175896628 -0.008100586973616824 0.00012925030473960293 0.0016370218495934724 -0.0001215047981344524 -0.0010315820643758463
 0.9980581175896628 -0.008100586973616824 0.001856762846742036 0.0032070699330976546 -0.00012151934545391821 -0.0010315862861253492 0.00012910643448046287 0.0016370494306689421
 0.00012925030473960293 0.0016370218495934724 -0.00012151934545391821 -0.0010315862861253492 0.0018567304796503461 0.003206910957061991 0.998058116210445 -0.008100754364535454
 -0.0001215047981344524 -0.0010315820643758463 0.00012910643448046287 0.0016370494306689421 0.998058116210445 -0.008100754364535454 0.0018567699601211034 0.003206900416777784
0.01875781575657 0.0020331313194440113 0.004850265755603746 0.9978301210364501 -0.012161932822649919 0.00017667386293607543 0.0024566273212511943 -0.00016280955365746596 -0.0015503662948553852
 0.9978301210364501 -0.012161932822649919 0.002033181903386175 0.004850255037758505 -0.00016284199154154767 -0.0015503720542552344 0.00017635077234855374 0.0024566763004475185
 0.00017667386293607543 0.0024566273212511943 -0.00016284199154154767 -0.0015503720542552344 0.002033109606091911 0.004850018297934342 0.997830118364738 -0.01216218370168956
 -0.00016280955365746596 -0.0015503662948553852 0.00017635077234855374 0.0024566763004475185 0.997830118364738 -0.01216218370168956 0.0020331983293200785 0.004850000886637041
0.02501042100875 0.002224140332949806 0.006514195674337236 0.9975815906461868 -0.016235898145027853 0.00023262872307361717 0.003277174996045 -0.0002111638482727633 -0.0020706631299729256
 0.9975815906461868 -0.016235898145027853 0.002224230141198586 0.006514179534445093 -0.00021122112686616947 -0.0020706699510724138 0.00023205500507144148 0.003277251609916461
 0.00023262872307361717 0.003277174996045 -0.00021122112686616947 -0.0020706699510724138 0.0022241021288771272 0.006513866228435729 0.9975815862721698 -0.01623623245015179
 -0.0002111638482727633 -0.0020706631299729256 0.00023205500507144148 0.003277251609916461 0.9975815862721698 -0.01623623245015179 0.002224259708378161 0.006513840729636989
0.03126302626094 0.0024300975841501206 0.008197680838094799 0.9973122434577312 -0.02032332254900841 0.00029720717343317376 0.004098621168223869 -0.0002666672251549263 -0.0025923062451123423
 0.9973122434577312 -0.02032332254900841 0.002430237747776601 0.0081976582859636 -0.00026675622407550955 -0.002592313578971949 0.00029631138328817545 0.004098732520611552
 0.00029720717343317376 0.004098621168223869 -0.00026675622407550955 -0.002592313578971949 0.0024300382731683246 0.008197269665197925 0.9973122369794775 -0.02032374025679035
 -0.0002666672251549263 -0.0025923062451123423 0.00029631138328817545 0.004098732520611552 0.9973122369794775 -0.02032374025679035 0.002430284295645322 0.008197234751790253
0.037515631513130004 0.0026513261358718336 0.009899947537504462 0.9970217901256799 -0.02442462344324893 0.000370501000367813 0.004920892401676831 -0.0003294170439341516 -0.003115153236286753
 0.9970217901256799 -0.02442462344324893 0.0026515277626805085 0.00989991754415435 -0.0003295445796588961 -0.0031151604607365306 0.00036921162509895495 0.004921046471057611
 0.000370501000367813 0.004920892401676831 -0.0003295445796588961 -0.0031151604607365306 0.002651241100809792 0.009899454954380424 0.9970217811376558 -0.02442512452878154
 -0.0003294170439341516 -0.003115153236286753 0.00036921162509895495 0.004921046471057611 0.9970217811376558 -0.02442512452878154 0.002651595131227372 0.00989940918808022
0.043768236765320004 0.002888144629351874 0.011620419291033494 0.9967099378789316 -0.028540010126880375 0.0004526010725097303 0.005743899323231321 -0.0003995087301567098 -0.0036390718295481804
 0.9967099378789316 -0.028540010126880375 0.0028884188067369206 0.011620380788882306 -0.00039968156044228024 -0.0036390782490991025 0.00045084651649425803 0.005744104971373046
 0.0004526010725097303 0.005743899323231321 -0.00039968156044228024 -0.0036390782490991025 0.002888029254706903 0.011619845646446624 0.9967099259745567 -0.028540594587844196
 -0.0003995087301567098 -0.0036390718295481804 0.00045084651649425803 0.005744104971373046 0.9967099259745567 -0.028540594587844196 0.0028885108396616084 0.011619787477146863
0.050020842017509996 0.0031408685545009896 0.013358628294480406 0.9963763920245011 -0.03266957226731426 0.0005435970839839468 0.006567542330018252 -0.00047703586704518267 -0.004163934178489308
 0.9963763920245011 -0.03266957226731426 0.003141226351819778 0.013358580177461974 -0.0004772606937063007 -0.004163939024330028 0.0005413056631037968 0.006567809311186847
 0.0005435970839839468 0.006567542330018252 -0.0004772606937063007 -0.004163939024330028 0.0031407182279294204 0.013357973985416632 0.9963763767971273 -0.0326702401084629
 -0.00047703586704518267 -0.004163934178489308 0.0005413056631037968 0.006567809311186847 0.9963763767971273 -0.0326702401084629 0.003141346898501593 0.013357901750301888
0.055454545454549996 0.0033736536004303572 0.014883275587721395 0.9960686830466184 -0.03626981095191899 0.0006299686106897316 0.007283746662924635 -0.0005505191016566361 -0.004620723881673444
 0.9960686830466184 -0.03626981095191899 0.0033740930435872977 0.01488321818704164 -0.0005507945154595721 -0.004620726678608449 0.0006271523529391196 0.007284075566228372
 0.0006299686106897316 0.007283746662924635 -0.0005507945154595721 -0.004620726678608449 0.0033734691546659745 0.01488255154257511 0.9960686645995104 -0.03627055125887123
 -0.0005505191016566361 -0.004620723881673444 0.0006271523529391196 0.007284075566228372 0.9960686645995104 -0.03627055125887123 0.003374241498185915 0.014882465645231695
0.056273447269699996 0.00340981090221412 0.015114171973611746 0.9960208568357679 -0.03681332327622151 0.0006435773736506688 0.007391714383223833 -0.0005620902102210828 -0.004689614078623854
 0.9960208568357679 -0.03681332327622151 0.003410263373306999 0.01511411309730475 -0.0005623736810694293 -0.004689616508637405 0.0006406773153376085 0.007392053353567459
 0.0006435773736506688 0.007391714383223833 -0.0005623736810694293 -0.004689616508637405 0.003409621012453334 0.015113437448733646 0.9960208378764238 -0.03681407450657439
 -0.0005620902102210828 -0.004689614078623854 0.0006406773153376085 0.007392053353567459 0.9960208378764238 -0.03681407450657439 0.003410416286220305 0.015113349371399683
0.06252605252188 0.003695282509593293 0.016886689109230118 0.9956430361382893 -0.04097122411598076 0.0007526287792489145 0.008216302549062375 -0.0006547616672489547 -0.005215985438271651
 0.9956430361382893 -0.04097122411598076 0.003695840694685446 0.016886618290929464 -0.0006551103773574291 -0.005215984537073032 0.0007490482250701948 0.008216725076114867
 0.0007526287792489145 0.008216302549062375 -0.0006551103773574291 -0.005215984537073032 0.003695048448300181 0.016885874864433405 0.9956430130365636 -0.04097205875398503
 -0.0006547616672489547 -0.005215985438271651 0.0007490482250701948 0.008216725076114867 0.9956430130365636 -0.04097205875398503 0.003696029831249731 0.01688576905387908
0.06877865777407 0.00399759224108161 0.01867584558847468 0.9952426337353953 -0.045143197483564886 0.0008708365112973554 0.009041188922481833 -0.0007551382551555818 -0.00574292137095948
 0.9952426337353953 -0.045143197483564886 0.003998267168969415 0.01867576160717897 -0.0007555587477531607 -0.005742916149930281 0.0008665035227252867 0.00904170749463336
 0.0008708365112973554 0.009041188922481833 -0.0007555587477531607 -0.005742916149930281 0.003997309402711721 0.018674952166358595 0.9952426060786004 -0.04514411555824649
 -0.0007551382551555818 -0.00574292137095948 0.0008665035227252867 0.00904170749463336 0.9952426060786004 -0.04514411555824649 0.003998496390766616 0.018674826615970936
0.07503126302626001 0.00431704707172679 0.02048132537184386 0.9948193537391268 -0.04932913678324851 0.0009982840390776423 0.009866251215572367 -0.0008633060450483969 -0.006270293627528709
 0.9948193537391268 -0.04932913678324851 0.004317849761738025 0.020481226968175382 -0.0008638048121162603 -0.00627028302487727 0.0009931266046292484 0.009866879251485706
 0.0009982840390776423 0.009866251215572367 -0.0008638048121162603 -0.00627028302487727 0.004316710854135807 0.020480353369412733 0.9948193211122455 -0.049330138327187585
 -0.0008633060450483969 -0.006270293627528709 0.0009931266046292484 0.009866879251485706 0.9948193211122455 -0.049330138327187585 0.004318122934652401 0.02048020595581206
0.08128386827845 0.00465395210755485 0.022302824497901073 0.9943729008428428 -0.05352891206635376 0.0011350529843579388 0.010691363151660627 -0.0009793490972254241 -0.006797972227254913
 0.9943729008428428 -0.05352891206635376 0.004654893571666025 0.02230271037401202 -0.000979932579850176 -0.006797955108076439 0.0011289990284542011 0.010692115009593035
 0.0011350529843579388 0.010691363151660627 -0.000979932579850176 -0.006797955108076439 0.004653557912878225 0.02230177456187513 0.9943728628285603 -0.053529997121058014
 -0.0009793490972254241 -0.006797972227254913 0.0011289990284542011 0.010692115009593035 0.9943728628285603 -0.053529997121058014 0.004655214566207796 0.022301603043723587
0.08753647353064001 0.0050086105666160875 0.024140046921745765 0.9939029805578634 -0.057742374142520335 0.0012812230189974741 0.011516394747880954 -0.0011033493912944931 -0.007325825205373642
 0.9939029805578634 -0.057742374142520335 0.005009701811253754 0.024139915741056887 -0.0011040239798825052 -0.007325800361706214 0.0012742004117428888 0.011517285734884789
 0.0012812230189974741 0.011516394747880954 -0.0011040239798825052 -0.007325800361706214 0.0050081538010187075 0.024138919749638894 0.9939029367353256 -0.05774354275791232
 -0.0011033493912944931 -0.007325825205373642 0.0012742004117428888 0.011517285734884789 0.9939029367353256 -0.05774354275791232 0.0050100745015927315 0.024138721766396996
0.09378907878283 0.00538132372943508 0.025992701551226884 0.9934092994227913 -0.06196935749859619 0.0014368717661787658 0.012341212521032978 -0.0012353867512243848 -0.007853718442296783
 0.9934092994227913 -0.06196935749859619 0.00538257575769481 0.025992551938221524 -0.0012361587855720874 -0.007853684593208374 0.0014288083343688808 0.012342258902008943
 0.0014368717661787658 0.012341212521032978 -0.0012361587855720874 -0.007853684593208374 0.0053807998046598755 0.025991497896556415 0.993409249368326 -0.06197060972850718
 -0.0012353867512243848 -0.007853718442296783 0.0014288083343688808 0.012342258902008943 0.993409249368326 -0.06197060972850718 0.005383004022455782 0.025991270967158985
0.100041684035 0.005772390871191412 0.02786050007830148 0.9928915651986263 -0.06620968242833834 0.00160207470379963 0.013165679644589708 -0.0013755387674001893 -0.008381515546904103
 0.9928915651986263 -0.06620968242833834 0.005773814684839936 0.02786033061812665 -0.001376414536682746 -0.008381471338563535 0.0015928982423764747 0.01316689865117319
 0.00160207470379963 0.013165679644589708 -0.001376414536682746 -0.008381471338563535 0.005771795204900554 0.027859220747601596 0.9928915084851259 -0.06621101833402275
 -0.0013755387674001893 -0.008381515546904103 0.0015928982423764747 0.01316689865117319 0.9928915084851259 -0.06621101833402275 0.005774302406467357 0.027858962269081092
0.1059090909091 0.006156323407013344 0.029626748291094757 0.9923835914302099 -0.07020074051056303 0.0017658548380169148 0.013938910976885223 -0.0015145038472372764 -0.00887658615687004
 0.9923835914302099 -0.07020074051056303 0.006157918429352919 0.029626558884295984 -0.0015154826354626442 -0.008876530931325833 0.001755568229263633 0.013940308515093773
 0.0017658548380169148 0.013938910976885223 -0.0015154826354626442 -0.008876530931325833 0.0061556562570862635 0.02962539872778751 0.9923835280760351 -0.07020215499941605
 -0.0015145038472372764 -0.00887658615687004 0.001755568229263633 0.013940308515093773 0.9923835280760351 -0.07020215499941605 0.006158465479390488 0.02962510816652161
0.1062942892872 0.006182109177495359 0.029743155344388896 0.9923494870499394 -0.07046315663386545 0.0017769050685007405 0.013989656076857957 -0.0015238807167552604 -0.008909077773928947
 0.9923494870499394 -0.07046315663386545 0.006183715778752452 0.029742964582477407 -0.0015248664593773321 -0.008909021779706535 0.0017665433531091675 0.013991065916139848
 0.0017769050685007405 0.013989656076857957 -0.0015248664593773321 -0.008909021779706535 0.006181437193860118 0.029741801197273543 0.992349423246475 -0.0704645762845952
 -0.0015238807167552604 -0.008909077773928947 0.0017665433531091675 0.013991065916139848 0.992349423246475 -0.0704645762845952 0.006184266843541365 0.029741508443298
0.11254689453939999 0.006610773649205585 0.031640380093727674 0.9917827757191314 -0.07472957644555779 0.001961433761929107 0.01481299866391023 -0.0016804854800607201 -0.009436263972059517
 0.9917827757191314 -0.07472957644555779 0.006612574042870117 0.03164016653526978 -0.00168158738348137 -0.009436194692628543 0.0019498145619153027 0.014814618526916725
 0.001961433761929107 0.01481299866391023 -0.00168158738348137 -0.009436194692628543 0.006610020779724494 0.03163895204546051 0.9917827043905547 -0.07473107991654501
 -0.0016804854800607201 -0.009436263972059517 0.0019498145619153027 0.014814618526916725 0.9917827043905547 -0.07473107991654501 0.0066131923406935345 0.03163862216477585
0.11879949979160001 0.007058676997452457 0.033551886007184804 0.9911911436934879 -0.07900872776769416 0.00215572925680825 0.015635561229733093 -0.001845423458630813 -0.009962930550281744
 0.9911911436934879 -0.07900872776769416 0.0070606821932089996 0.03355164811652681 -0.001846647659153068 -0.009962846413720704 0.0021427803488073423 0.015637411299744733
 0.00215572925680825 0.015635561229733093 -0.001846647659153068 -0.009962846413720704 0.007057838682094002 0.03355038502910621 0.9911910644005991 -0.07901031514026136
 -0.001845423458630813 -0.009962930550281744 0.0021427803488073423 0.015637411299744733 0.9911910644005991 -0.07901031514026136 0.007061371617561202 0.03355001504397925
0.1250521050438 0.007526109533070384 0.03547738293944548 0.9905743053691957 -0.08330038682733647 0.002359857504250218 0.01645719465481993 -0.0020187624894280535 -0.010488931461458299
 0.9905743053691957 -0.08330038682733647 0.007528330547122629 0.035477119139452847 -0.002020115071824638 -0.010488830823369204 0.002345506686303819 0.01645929611546429
 0.002359857504250218 0.01645719465481993 -0.002020115071824638 -0.010488830823369204 0.00752518122051181 0.03547581005824548 0.9905742176680125 -0.08330205819019976
 -0.0020187624894280535 -0.010488931461458299 0.002345506686303819 0.01645929611546429 0.9905742176680125 -0.08330205819019976 0.007529094994701547 0.03547539686272033
0.131304710296 0.008013359048107429 0.0374165783110072 0.9899319772106241 -0.0876043207753118 0.0025738818410020008 0.017277746950333062 -0.0022005677595102846 -0.01101411819612343
 0.9899319772106241 -0.0876043207753118 0.008015806905527889 0.03741628698224595 -0.002202054756753257 -0.011013999339777857 0.00255805694735384 0.01728012199339566
 0.0025738818410020008 0.017277746950333062 -0.002202054756753257 -0.011013999339777857 0.008012336196956725 0.03741493461016667 0.9899318806523282 -0.08760607622354069
 -0.0022005677595102846 -0.01101411819612343 0.00255805694735384 0.01728012199339566 0.9899318806523282 -0.08760607622354069 0.008016650276022233 0.03741447496835963
0.1375573155481 0.008409318791655521 0.03911660449349094 0.989375313127753 -0.0916676021602464 0.0027709706073763053 0.018071915708728226 -0.002364026752796272 -0.011513192961067231
 0.989375313127753 -0.0916676021602464 0.008412006172054846 0.039116292787411376 -0.002365657180832819 -0.011513055736372318 0.002753631298253601 0.01807456115164758
 0.0027709706073763053 0.018071915708728226 -0.002365657180832819 -0.011513055736372318 0.008408197519245666 0.03911489086493083 0.9893752073095764 -0.09166944171750925
 -0.002364026752796272 -0.011513192961067231 0.002753631298253601 0.01807456115164758 0.9893752073095764 -0.09166944171750925 0.008412931621204277 0.039114390573353724
0.1438099208003 0.00881922701415592 0.040807617370652804 0.988799044682671 -0.09572051675204651 0.0029760145949222867 0.01886280743800569 -0.0025340181803990723 -0.012009267767995376
 0.988799044682671 -0.09572051675204651 0.008822165220289672 0.04080728430703316 -0.0025357985348255013 -0.01200911048302932 0.002957094509123434 0.018865743657736234
 0.0029760145949222867 0.01886280743800569 -0.0025357985348255013 -0.01200911048302932 0.008818002910774156 0.040805834911760645 0.9887989291587957 -0.09572244050527348
 -0.0025340181803990723 -0.012009267767995376 0.002957094509123434 0.018865743657736234 0.9887989291587957 -0.09572244050527348 0.00882317651740664 0.040805291354748384
0.1500625260525 0.009242938581622498 0.04248947368009164 0.9882033211719089 -0.09976296175184104 0.0031889422653292054 0.019650339427098835 -0.0027104725673942004 -0.012502264695414218
 0.9882033211719089 -0.09976296175184104 0.009246138937752703 0.04248911822230418 -0.002712409329991601 -0.012502085590072137 0.003168375444415757 0.019653587545618505
 0.0031889422653292054 0.019650339427098835 -0.002712409329991601 -0.012502085590072137 0.009241607254476149 0.04248762353241114 0.9882031954926189 -0.09976496979015022
 -0.0027104725673942004 -0.012502264695414218 0.003168375444415757 0.019653587545618505 0.9882031954926189 -0.09976496979015022 0.009247239846383827 0.042487033972821456
0.15631513130469998 0.009680307320684544 0.04416203447811429 0.9875882926626499 -0.10379483477046662 0.0034096812233782277 0.020434430384463655 -0.0028933195746263397 -0.012992107483286781
 0.9875882926626499 -0.10379483477046662 0.009683781173252776 0.04416165553202292 -0.0028954192131298013 -0.012991904729572156 0.0033874021184628574 0.02043801226068118
