! Created with skrf 1.8.0 (http://scikit-rf.org).
# GHz S RI R 50.0 
!freq ReS11 ImS11 ReS12 ImS12 ReS13 ImS13
! ReS14 ImS14
! ReS21 ImS21 ReS22 ImS22 ReS23 ImS23
! ReS24 ImS24
! ReS31 ImS31 ReS32 ImS32 ReS33 ImS33
! ReS34 ImS34
! ReS41 ImS41 ReS42 ImS42 ReS43 ImS43
! ReS44 ImS44
!
0.0 0.001373634175557 0.0 0.9986263658031 0.0 5.305783662087e-05 0.0 -5.305783639412e-05 6.4977109509743e-21
 0.9986263658031 0.0 0.001373634175547 0.0 -5.305783639341e-05 6.4977109508873506e-21 5.305783662191e-05 0.0
 5.305783662087e-05 0.0 -5.305783639341e-05 6.4977109508873506e-21 0.001373634186195 0.0 0.9986263658138 0.0
 -5.305783639412e-05 6.4977109509743e-21 5.305783662191e-05 0.0 0.9986263658138 0.0 0.00137363418622 0.0
0.005 0.0014775447540523953 0.001117349684939868 0.9984949431342665 -0.002878346694598166 7.513842559370281e-05 0.0006249583638043819 -7.272778656875515e-05 -0.0003853232202125563
 0.9984949431342665 -0.002878346694598166 0.0014775651145109777 0.001117337775841427 -7.272445733378327e-05 -0.0003853206541160426 7.502110436133577e-05 0.0006250029350847784
 7.513842559370281e-05 0.0006249583638043819 -7.272445733378327e-05 -0.0003853206541160426 0.0014775468326875447 0.0011174156979517006 0.9984949434785649 -0.002878279639027758
 -7.272778656875515e-05 -0.0003853232202125563 7.502110436133577e-05 0.0006250029350847784 0.9984949434785649 -0.002878279639027758 0.0014775637207341328 0.0011174058712893817
0.006252605252188 0.0015046665958373543 0.0014011319160355446 0.9984604382406201 -0.0035986604818925103 8.138819897031692e-05 0.0007814895228966546 -7.822610288622415e-05 -0.00048216935018791226
 0.9984604382406201 -0.0035986604818925103 0.0015046984234311721 0.0014011168214339241 -7.822092233493924e-05 -0.00048216618529273067 8.120489292558114e-05 0.0007815473792723301
 8.138819897031692e-05 0.0007814895228966546 -7.822092233493924e-05 -0.00048216618529273067 0.0015046697738551715 0.0014012144270562406 0.9984604387073176 -0.003598576663277494
 -7.822610288622415e-05 -0.00048216935018791226 8.120489292558114e-05 0.0007815473792723301 0.9984604387073176 -0.003598576663277494 0.001504696172737105 0.0014012019414932299
0.01250521050438 0.0016466810655078512 0.0028320549464367784 0.9982786326091879 -0.007198286135237434 0.00011691883277191921 0.001563258164058056 -0.00010912634554005687 -0.0009668004236619315
 0.9982786326091879 -0.007198286135237434 0.0016468081602459027 0.0028320226621978473 -0.00010910592911834566 -0.0009667945582144919 0.00011618778978363074 0.0015633968153822729
 0.00011691883277191921 0.001563258164058056 -0.00010910592911834566 -0.0009667945582144919 0.0016466931833536399 0.0028322196653826435 0.9982786338973477 -0.007198118735137948
 -0.00010912634554005687 -0.0009668004236619315 0.00011618778978363074 0.0015633968153822729 0.9982786338973477 -0.007198118735137948 0.0016467985918142596 0.0028321926843302555
0.01875781575657 0.001799961802445639 0.004283739505342708 0.9980807416425569 -0.010807672512194841 0.00015972617948307424 0.0023458910205065705 -0.0001458487377525147 -0.001453157545355441
 0.9980807416425569 -0.010807672512194841 0.0018002474025718379 0.004283687782912458 -0.0001458032070300963 -0.0014531495236000849 0.00015808382486621363 0.00234613750102005
 0.00015972617948307424 0.0023458910205065705 -0.0001458032070300963 -0.0014531495236000849 0.0017999886191383606 0.004283986215017051 0.9980807441190019 -0.010807421618533422
 -0.0001458487377525147 -0.001453157545355441 0.00015808382486621363 0.00234613750102005 0.9980807441190019 -0.010807421618533422 0.0018002254714279062 0.004283942654366643
0.02501042100875 0.0019647860150477808 0.00575416696987769 0.9978665506856127 -0.01442859651550751 0.00020988842364913482 0.0031294482050422943 -0.00018848081277817358 -0.0019410257039136048
 0.9978665506856127 -0.01442859651550751 0.001965293239976829 0.005754093430650063 -0.00018840040595009082 -0.0019410161600876624 0.00020697094183864034 0.003129833486260606
 0.00020988842364913482 0.0031294482050422943 -0.00018840040595009082 -0.0019410161600876624 0.0019648332769319123 0.005754495431433866 0.9978665547125226 -0.014428262176925576
 -0.00018848081277817358 -0.0019410257039136048 0.00020697094183864034 0.003129833486260606 0.9978665547125226 -0.014428262176925576 0.001965253898709758 0.005754433151265809
0.03126302626094 0.002141419284459652 0.0072423117505667186 0.9976358332347595 -0.01806183430526875 0.000267484641707773 0.003913913420481981 -0.00023710781121983053 -0.0024302618962504102
 0.9976358332347595 -0.01806183430526875 0.002142211168418609 0.007242213890481061 -0.0002369828628311748 -0.002430251555897755 0.00026292763064399757 0.003914472433375811
 0.000267484641707773 0.003913913420481981 -0.0002369828628311748 -0.002430251555897755 0.0021414927317801214 0.007242721692203971 0.997635839174254 -0.018061416542228897
 -0.00023710781121983053 -0.0024302618962504102 0.00026292763064399757 0.003914472433375811 0.997635839174254 -0.018061416542228897 0.0021421493687626154 0.007242638501439044
0.037515631513130004 0.0023301215683879544 0.008747515181158464 0.9973883570850994 -0.021707787355824147 0.0003325939181381293 0.00469924057749568 -0.000291813360374117 -0.0029207484950380877
 0.9973883570850994 -0.021707787355824147 0.0023312610824501143 0.0087473903728329 -0.0002916342909100125 -0.002920738175441961 0.00032603222957617645 0.004700012253067641
 0.0003325939181381293 0.00469924057749568 -0.0002916342909100125 -0.002920738175441961 0.0023302269373758244 0.008748006285851356 0.9973883653006095 -0.021707286172289907
 -0.000291813360374117 -0.0029207484950380877 0.00032603222957617645 0.004700012253067641 0.9973883653006095 -0.021707286172289907 0.002331171774883532 0.008747899945080033
0.043768236765320004 0.002531149531919929 0.010269294971246814 0.9971238868081828 -0.025366672942003968 0.0004052949433613717 0.0054853679674676655 -0.0003526797271703927 -0.0034123790654684836
 0.9971238868081828 -0.025366672942003968 0.0025326996006824155 0.010269140465186854 -0.00035243703677208764 -0.0034123696758246577 0.00039636260186685316 0.005486395283055059
 0.0004052949433613717 0.0054853679674676655 -0.00035243703677208764 -0.0034123696758246577 0.002531292555097577 0.01026986687077146 0.9971238976647286 -0.025366088330793665
 -0.0003526797271703927 -0.0034123790654684836 0.00039636260186685316 0.005486395283055059 0.9971238976647286 -0.025366088330793665 0.0025325777337172535 0.01026973509442156
0.050020842017509996 0.0027447576342928275 0.011807266460415517 0.9968421849887862 -0.0290386028218402 0.0004856657820885851 0.006272224111032409 -0.00041978791844547134 -0.0039050525085367674
 0.9968421849887862 -0.0290386028218402 0.0027467811503907457 0.011807079385655376 -0.0004194721828607358 -0.003905045050038101 0.00047399594610958353 0.006273554138976946
 0.0004856657820885851 0.006272224111032409 -0.0004194721828607358 -0.003905045050038101 0.0027449440402676243 0.01180791873323789 0.9968421988529504 -0.029037934766023614
 -0.00041978791844547134 -0.0039050525085367674 0.00047399594610958353 0.006273554138976946 0.9968421988529504 -0.029037934766023614 0.002746621669626928 0.011807759191314429
0.055454545454549996 0.002940802546181297 0.013156705927091455 0.9965831981012052 -0.03224025078765038 0.0005617993441958843 0.006956557049107851 -0.00048323808777156875 -0.00433397095933588
 0.9965831981012052 -0.03224025078765038 0.002943288563734244 0.013156488123443257 -0.0004828512766665793 -0.004333966063637306 0.000547451939188968 0.0069581915895942075
 0.0005617993441958843 0.006956557049107851 -0.0004828512766665793 -0.004333966063637306 0.002941031301882812 0.013157427669363406 0.9965832148778667 -0.03223951018767021
 -0.00048323808777156875 -0.00433397095933588 0.000547451939188968 0.0069581915895942075 0.9965832148778667 -0.03223951018767021 0.002943092287648365 0.013157242072597048
0.056273447269699996 0.002971198693460681 0.013361103958327052 0.9965430129429047 -0.032723621833401086 0.0005737837148117815 0.007059730630690415 -0.0004932177154427673 -0.004398670182418055
 0.9965430129429047 -0.032723621833401086 0.0029737585304897857 0.01336088132271854 -0.0004928195832492215 -0.004398665748297929 0.0005590086630142706 0.007061414588131712
 0.0005737837148117815 0.007059730630690415 -0.0004928195832492215 -0.004398665748297929 0.002971434206605446 0.013361836137183496 0.996543030182889 -0.03272287029793905
 -0.0004932177154427673 -0.004398670182418055 0.0005590086630142706 0.007061414588131712 0.996543030182889 -0.03272287029793905 0.0029735563778855753 0.013361646456648573
0.06252605252188 0.0032107241965484133 0.014930519517184555 0.996226131184902 -0.03642172906063592 0.0006697251170549962 0.007847803825083738 -0.0005730476736208717 -0.004893134324562845
 0.996226131184902 -0.03642172906063592 0.0032138832214344895 0.014930258207304002 -0.0005725578643362146 -0.004893134100111813 0.0006514762511392628 0.007849897124255966
 0.0006697251170549962 0.007847803825083738 -0.0005725578643362146 -0.004893134100111813 0.0032110145375681062 0.014931331071681165 0.9962261521716179 -0.03642089400902707
 -0.0005730476736208717 -0.004893134324562845 0.0006514762511392628 0.007849897124255966 0.9962261521716179 -0.03642089400902707 0.0032136333355656643 0.014931108837499743
0.06877865777407 0.0034635844743327146 0.01651525023769927 0.9958912997611331 -0.0401328904674184 0.0007735653595509893 0.008636355607282181 -0.0006593551027015486 -0.005388347112311921
 0.9958912997611331 -0.0401328904674184 0.0034674055585499877 0.0165149470184446 -0.0006587644053685953 -0.005388352374876471 0.000751473218680537 0.008638917905996258
 0.0007735653595509893 0.008636355607282181 -0.0006587644053685953 -0.005388352374876471 0.0034639353594914987 0.0165161405876831 0.995891324867714 -0.040131971847672726
 -0.0006593551027015486 -0.005388347112311921 0.000751473218680537 0.008638917905996258 0.995891324867714 -0.040131971847672726 0.003467102874243412 0.01651588334366122
0.07503126302626001 0.00373002878878969 0.018115050252497458 0.9955382784993752 -0.04385704685678653 0.000885378719575305 0.009425294100562958 -0.0007522160355259682 -0.0058842100687274135
 0.9955382784993752 -0.04385704685678653 0.003734574820193583 0.018114701766340193 -0.0007515153078083635 -0.005884222187704266 0.0008590730035829228 0.009428389352644168
 0.000885378719575305 0.009425294100562958 -0.0007515153078083635 -0.005884222187704266 0.003730445929759311 0.01811601875739683 0.9955383081022975 -0.043856044611278996
 -0.0007522160355259682 -0.0058842100687274135 0.0008590730035829228 0.009428389352644168 0.9955383081022975 -0.043856044611278996 0.0037342142680959175 0.018115724006529606
0.08128386827845 0.004010305374249244 0.01972968536786169 0.995166827215435 -0.04759411917427243 0.0010052383007635364 0.010214524035838763 -0.0008517051883130735 -0.0063806236696113405
 0.995166827215435 -0.04759411917427243 0.004015639267865985 0.019729288133803174 -0.0008508853558274196 -0.006380644106422082 0.0009743478999230577 0.010218220541387234
 0.0010052383007635364 0.010214524035838763 -0.0008508853558274196 -0.006380644106422082 0.004010794477666416 0.019730731335830237 0.9951668616942941 -0.047593033229861324
 -0.0008517051883130735 -0.0063806236696113405 0.0009743478999230577 0.010218220541387234 0.9951668616942941 -0.047593033229861324 0.004015215774456325 0.019730396540537955
0.08753647353064001 0.004304661442085321 0.021358929381010857 0.9947767058850879 -0.051344012138691233 0.001133215957025254 0.011003947027873818 -0.0009578959159834991 -0.006877487074662105
 0.9947767058850879 -0.051344012138691233 0.004310846151170495 0.021358479793193053 -0.0009569479718385148 -0.0068775173827322605 0.0010973689874282098 0.011008317483220932
 0.001133215957025254 0.011003947027873818 -0.0009569479718385148 -0.0068775173827322605 0.004305228208469514 0.02136005205607162 0.994776745622625 -0.051342842418884496
 -0.0009578959159834991 -0.006877487074662105 0.0010973689874282098 0.011008317483220932 0.994776745622625 -0.051342842418884496 0.004310354638309794 0.02135967463792511
0.09378907878283 0.004613343161772358 0.023002561424788185 0.9943676747959354 -0.05510661684857834 0.0012693822202646846 0.0117934617742344 -0.001070860163071015 -0.007374697938975247
 0.9943676747959354 -0.05510661684857834 0.004620441689104886 0.023002055750761686 -0.0010697751676828542 -0.007374739763682598 0.001228206063509572 0.011798583321527474
 0.0012693822202646846 0.0117934617742344 -0.0010697751676828542 -0.007374739763682598 0.004613993285992035 0.02300375999274129 0.9943677201789732 -0.05510536326689595
 -0.001070860163071015 -0.007374697938975247 0.001228206063509572 0.011798583321527474 0.9943677201789732 -0.05510536326689595 0.004619877074505623 0.02300333733201819
0.100041684035 0.004936595627135913 0.02466036403339814 0.9939394946859238 -0.0588818126707403 0.0014138062296353308 0.012582964205538538 -0.0011906684122491111 -0.007872152276367181
 0.9939394946859238 -0.0588818126707403 0.004944671035825416 0.024659798412139812 -0.0011894374932221717 -0.007872207354999588 0.0013669275763660111 0.012588918481894102
 0.0014138062296353308 0.012582964205538538 -0.0011894374932221717 -0.007872207354999588 0.004937334797210031 0.024661637623324562 0.993939546105665 -0.058880475128565056
 -0.0011906684122491111 -0.007872152276367181 0.0013669275763660111 0.012588918481894102 0.993939546105665 -0.058880475128565056 0.004944028232446721 0.024661167058173193
0.1059090909091 0.005253403055460068 0.026228731919383668 0.993520064618896 -0.06243576849867911 0.00155690347922421 0.013323722266484036 -0.00130938174639451 -0.008339087692765776
 0.993520064618896 -0.06243576849867911 0.005262452582293563 0.026228106415732286 -0.0013080058840370186 -0.008339156870658122 0.0015043335427030943 0.013330536265572773
 0.00155690347922421 0.013323722266484036 -0.0013080058840370186 -0.008339156870658122 0.005254230952341159 0.026230075060867778 0.9935201220629389 -0.06243435207327539
 -0.00130938174639451 -0.008339087692765776 0.0015043335427030943 0.013330536265572773 0.9935201220629389 -0.06243435207327539 0.005261731776396924 0.02622955708296077
0.1062942892872 0.005274662808252203 0.026332121687963447 0.993491926871606 -0.0626694686527096 0.001566555662759632 0.013372347598352066 -0.0013173896300506661 -0.008369744363303
 0.993491926871606 -0.0626694686527096 0.005283778232737203 0.026331492127397153 -0.0013160039821990567 -0.008369814524992488 0.0015136005594916227 0.013379220784461975
 0.001566555662759632 0.013372347598352066 -0.0013160039821990567 -0.008369814524992488 0.005275496704917889 0.026333469365389845 0.9934919847233553 -0.0626680470453232
 -0.0013173896300506661 -0.008369744363303 0.0015136005594916227 0.013379220784461975 0.9934919847233553 -0.0626680470453232 0.005283052148997603 0.026332948190597047
0.11254689453939999 0.005627787494828662 0.0280176196944261 0.993024733368637 -0.0664694446059717 0.0017276966674574033 0.014161502668936224 -0.0014510912111721683 -0.008867366665320462
 0.993024733368637 -0.0664694446059717 0.005638006152164436 0.02801692206870436 -0.0014495420966399643 -0.008867453830973173 0.0016682905665203434 0.014169385537097179
 0.0017276966674574033 0.014161502668936224 -0.0014495420966399643 -0.008867453830973173 0.005628721790828453 0.028019040466603393 0.9930247980527995 -0.06646793881678043
 -0.0014510912111721683 -0.008867366665320462 0.0016682905665203434 0.014169385537097179 0.9930247980527995 -0.06646793881678043 0.005637191691813007 0.028018465932036343
0.11879949979160001 0.005996211232312255 0.029716643321653875 0.9925376770085984 -0.07028159193298292 0.0018972937945562927 0.014950317646589146 -0.0015918389211073657 -0.009364909787176906
 0.9925376770085984 -0.07028159193298292 0.006007596432950483 0.029715873368014064 -0.0015901176695541656 -0.009365015969388395 0.0018310616065019252 0.014959305608132713
 0.0018972937945562927 0.014950317646589146 -0.0015901176695541656 -0.009365015969388395 0.0059972515916286405 0.029718136130246955 0.9925377489306177 -0.07028000184008165
 -0.0015918389211073657 -0.009364909787176906 0.0018310616065019252 0.014959305608132713 0.9925377489306177 -0.07028000184008165 0.006006688495036739 0.02971750543896784
0.1250521050438 0.006380174251274746 0.03142897710605952 0.9920305215513934 -0.0741057542914588 0.002075409930904339 0.015738678337795527 -0.0017396968376544937 -0.009862262435794399
 0.9920305215513934 -0.0741057542914588 0.006392789410852268 0.03142813042131709 -0.001737794846592582 -0.009862389738759787 0.0020019760794647385 0.015748871489818246
 0.002075409930904339 0.015738678337795527 -0.001737794846592582 -0.009862389738759787 0.006381326328844152 0.03143054083293751 0.9920306011221334 -0.07410407976118732
 -0.0017396968376544937 -0.009862262435794399 0.0020019760794647385 0.015748871489818246 0.9920306011221334 -0.07410407976118732 0.0063917828896775 0.03142985113883596
0.131304710296 0.006779915393309131 0.033154404305294094 0.9915030317952311 -0.07794176811329506 0.002262106232805797 0.016526468180893223 -0.0018947272915378537 -0.010359311396150876
 0.9915030317952311 -0.07794176811329506 0.006793824043231932 0.03315347634198767 -0.0018926360265637207 -0.010359462015525631 0.0021810947121131403 0.016537971352265576
 0.002262106232805797 0.016526468180893223 -0.0018926360265637207 -0.010359462015525631 0.006781184833790823 0.03315603776779295 0.9915031194316474 -0.07794000900447826
 -0.0018947272915378537 -0.010359311396150876 0.0021810947121131403 0.016537971352265576 0.9915031194316474 -0.07794000900447826 0.006792713828596866 0.03315528617292597
0.1375573155481 0.00710002130401266 0.03466567495162212 0.9910506532904241 -0.08156235702383598 0.002433151968334762 0.017289953944034802 -0.0020328012799001372 -0.010832274783650432
 0.9910506532904241 -0.08156235702383598 0.007115290683594951 0.03466468017900269 -0.002030508145820461 -0.010832448695316342 0.002344377642072851 0.01730274330719774
 0.002433151968334762 0.017289953944034802 -0.002030508145820461 -0.010832448695316342 0.007101413262982117 0.03466737697095695 0.9910507493589161 -0.08156051327353094
 -0.0020328012799001372 -0.010832274783650432 0.002344377642072851 0.01730274330719774 0.9910507493589161 -0.08156051327353094 0.007114072242814251 0.03466657971524476
0.1438099208003 0.007431232371996919 0.0361695771960836 0.9905826263063141 -0.08517440428585574 0.002611136147144883 0.01805079058254948 -0.002176426889525735 -0.011302858176147967
 0.9905826263063141 -0.08517440428585574 0.007447926723439873 0.036168512231108535 -0.0021739227181406828 -0.01130305751867103 0.0025142569373083575 0.018064961241678217
 0.002611136147144883 0.01805079058254948 -0.0021739227181406828 -0.01130305751867103 0.007432752392494949 0.03617134655056169 0.9905827312216143 -0.08517247575847024
 -0.002176426889525735 -0.011302858176147967 0.0025142569373083575 0.018064961241678217 0.9905827312216143 -0.08517247575847024 0.007446595043902032 0.0361705019580889
0.1500625260525 0.0077734399996474395 0.03766600393805951 0.990099062912091 -0.08877783951940016 0.0027960039577819167 0.018808914174994307 -0.0023255516426260127 -0.01177100178642181
 0.990099062912091 -0.08877783951940016 0.007791623695453604 0.03766486519770619 -0.0023228272819142 -0.011771228783896151 0.002690679596432766 0.01882456468164948
 0.0027960039577819167 0.018808914174994307 -0.0023228272819142 -0.011771228783896151 0.007775093609535456 0.03766783935690011 0.9900991770935044 -0.08877582607412686
 -0.0023255516426260127 -0.01177100178642181 0.002690679596432766 0.01882456468164948 0.9900991770935044 -0.08877582607412686 0.0077901737667402295 0.03766694562088127
0.15631513130469998 0.00812653491110704 0.03915485141605218 0.9896000756445577 -0.09237259221358642 0.0029877000032493754 0.01956426175645811 -0.0024801224702954592 -0.012236647020791212
