! Created with skrf 1.8.0 (http://scikit-rf.org).
# GHz S RI R 50.0 
!freq ReS11 ImS11 ReS12 ImS12 ReS13 ImS13
! ReS14 ImS14
! ReS21 ImS21 ReS22 ImS22 ReS23 ImS23
! ReS24 ImS24
! ReS31 ImS31 ReS32 ImS32 ReS33 ImS33
! ReS34 ImS34
! ReS41 ImS41 ReS42 ImS42 ReS43 ImS43
! ReS44 ImS44
!
0.0 0.001239594999595 0.0 0.9987604049591 0.0 4.756664835176e-05 0.0 -4.756664852951e-05 5.8252343867831576e-21
 0.9987604049591 0.0 0.001239594999615 0.0 -4.756664853018e-05 5.82523438686521e-21 4.756664835265e-05 0.0
 4.756664835176e-05 0.0 -4.756664853018e-05 5.82523438686521e-21 0.001239595020235 0.0 0.9987604049798 0.0
 -4.756664852951e-05 5.8252343867831576e-21 4.756664835265e-05 0.0 0.9987604049798 0.0 0.001239595020219 0.0
0.005 0.001333041142808966 0.0010096177182995429 0.9986422839135983 -0.0025978429591975325 6.694204222889148e-05 0.0005539267069254588 -6.492627116293386e-05 -0.00034261303746651293
 0.9986422839135983 -0.0025978429591975325 0.0013330365046692874 0.0010096204787308088 -6.492718044993654e-05 -0.00034261377634399915 6.696750530311953e-05 0.0005539170515226247
 6.694204222889148e-05 0.0005539267069254588 -6.492718044993654e-05 -0.00034261377634399915 0.0013330408097813752 0.0010096852010693332 0.99864228424205 -0.002597775897216511
 -6.492627116293386e-05 -0.00034261303746651293 6.696750530311953e-05 0.0005539170515226247 0.99864228424205 -0.002597775897216511 0.0013330374928364897 0.0010096871191602069
0.006252605252188 0.0013573412897987859 0.0012660463930327642 0.9986114064477981 -0.00324797383536214 7.235222444425934e-05 0.0006926769420264433 -6.973216158897482e-05 -0.000428728766766206
 0.9986114064477981 -0.00324797383536214 0.0013573340389147178 0.0012660498881859894 -6.973357620715674e-05 -0.0004287296789923131 7.239200913538508e-05 0.0006926644108386337
 7.235222444425934e-05 0.0006926769420264433 -6.973357620715674e-05 -0.0004287296789923131 0.0013573406988644987 0.001266130735524255 0.9986114068911957 -0.0032478900226291683
 -6.973216158897482e-05 -0.000428728766766206 7.239200913538508e-05 0.0006926644108386337 0.9986114068911957 -0.0032478900226291683 0.0013573355140171228 0.0012661331692627985
0.01250521050438 0.0014840517262622408 0.0025591083922700017 0.998449491456326 -0.006496964122351598 0.00010271691967169834 0.0013857016243638402 -9.648822759038098e-05 -0.0008597019542768612
 0.998449491456326 -0.006496964122351598 0.0014840227652324193 0.0025591158330074294 -9.649379904706166e-05 -0.000859703656348911 0.00010287559673345812 0.0013856716466447312
 0.00010271691967169834 0.0013857016243638402 -9.649379904706166e-05 -0.000859703656348911 0.0014840488044662993 0.002559276887610584 0.9984494926707735 -0.00649679672570686
 -9.648822759038098e-05 -0.0008597019542768612 0.00010287559673345812 0.0013856716466447312 0.9984494926707735 -0.00649679672570686 0.0014840281044158825 0.0025592821112732198
0.01875781575657 0.001619959374240062 0.003871055627879116 0.9982744900759578 -0.009754927584671759 0.0001387236708555006 0.0020796004510670596 -0.0001279081450545532 -0.0012922856128127565
 0.9982744900759578 -0.009754927584671759 0.0016198942822940007 0.003871067503555666 -0.00012792056521805973 -0.0012922879644572886 0.00013908018159265728 0.0020795473043727676
 0.0001387236708555006 0.0020796004510670596 -0.00012792056521805973 -0.0012922879644572886 0.0016199523752356208 0.0038713082179240538 0.9982744923838203 -0.009754676709325423
 -0.0001279081450545532 -0.0012922856128127565 0.00013908018159265728 0.0020795473043727676 0.9982744923838203 -0.009754676709325423 0.0016199058683942604 0.0038713165945627346
0.02501042100875 0.0017652926421412734 0.005200085393013903 0.9980862269839994 -0.013023487621834345 0.0001804362508480759 0.0027744400540721664 -0.0001640633820933105 -0.0017263023375987138
 0.9980862269839994 -0.013023487621834345 0.001765177018596945 0.00520010222619611 -0.00016408530967112412 -0.0017263051777655202 0.00018106960869827528 0.0027743572430121368
 0.0001804362508480759 0.0027744400540721664 -0.00016408530967112412 -0.0017263051777655202 0.0017652798186344647 0.005200422068603769 0.9980862307105706 -0.013023153330942894
 -0.0001640633820933105 -0.0017263023375987138 0.00018106960869827528 0.0027743572430121368 0.9980862307105706 -0.013023153330942894 0.001765197238455144 0.005200433964116206
0.03126302626094 0.0019202701939358359 0.006545291794747657 0.9978845164764872 -0.016303365125976795 0.0002279191478764236 0.0034702204377579982 -0.00020502371231900668 -0.0021616381403941603
 0.9978845164764872 -0.016303365125976795 0.001920089651172631 0.006545314140175837 -0.00020505777869127053 -0.0021616412868930668 0.00022890851487421235 0.003470100689672096
 0.0002279191478764236 0.0034702204377579982 -0.00020505777869127053 -0.0021616412868930668 0.0019202497914950092 0.006545712579134441 0.9978845219441623 -0.01630294745714183
 -0.00020502371231900668 -0.0021616381403941603 0.00022890851487421235 0.003470100689672096 0.9978845219441623 -0.01630294745714183 0.0019201208908558982 0.006545728361123761
0.037515631513130004 0.00208510612799947 0.0079061007195675 0.9976691677475247 -0.019594943469302198 0.00028123695427922945 0.004166915838087046 -0.0002508577772228905 -0.0025982015822579195
 0.9976691677475247 -0.019594943469302198 0.0020848462868266597 0.007906129163774976 -0.00025090658949786997 -0.002598204831648384 0.0002826616771524761 0.004166751094909357
 0.00028123695427922945 0.004166915838087046 -0.00025090658949786997 -0.002598204831648384 0.0020850763883014495 0.00790660565161723 0.9976691752797069 -0.01959444245142587
 -0.0002508577772228905 -0.0025982015822579195 0.0002826616771524761 0.004166751094909357 0.9976691752797069 -0.01959444245142587 0.0020848909353884154 0.007906625688677225
0.043768236765320004 0.002260011997461207 0.009282097870728064 0.9974399870103733 -0.022898440414318325 0.00034045408888376007 0.0048644871348151415 -0.0003016333014634403 -0.003035911350418878
 0.9974399870103733 -0.022898440414318325 0.0022596584840254823 0.009282133031828718 -0.00030169944436437526 -0.003035914477984446 0.0003423937184017792 0.004864268543726739
 0.00034045408888376007 0.0048644871348151415 -0.00030169944436437526 -0.003035914477984446 0.0022599711569577853 0.009282687003965742 0.9974399969305288 -0.02289785606863333
 -0.0003016333014634403 -0.003035911350418878 0.0003423937184017792 0.004864268543726739 0.9974399969305288 -0.02289785606863333 0.0022597189320756788 0.009282711665053268
0.050020842017509996 0.0024451977519276487 0.01067295770402605 0.9971967785412231 -0.026213979123811085 0.0004056346386201604 0.005562886980972056 -0.0003574171837959383 -0.0034746911176475217
 0.9971967785412231 -0.026213979123811085 0.002444736194884368 0.010673000231638894 -0.0003575032208424576 -0.0034746938773906246 0.0004081689398224337 0.005562604884512052
 0.0004056346386201604 0.005562886980972056 -0.0003575032208424576 -0.0034746938773906246 0.0024451440417733758 0.010673631106634664 0.9971967911728207 -0.02621331146401999
 -0.0003574171837959383 -0.0034746911176475217 0.0004081689398224337 0.005562604884512052 0.9971967911728207 -0.02621331146401999 0.002444814835076317 0.010673660760472907
0.055454545454549996 0.0026146405278767975 0.011893515408099221 0.9969738777563415 -0.0291051124485735 0.0004671709783346413 0.0061704493984200345 -0.0004100138302921622 -0.003856815600831105
 0.9969738777563415 -0.0291051124485735 0.0026140734067523833 0.011893564889454618 -0.0004101192220984612 -0.003856817824613311 0.0004702870162595806 0.006170103638325624
 0.0004671709783346413 0.0061704493984200345 -0.0004101192220984612 -0.003856817824613311 0.0026145741942842954 0.011894262104234691 0.9969738930086094 -0.029104372397506205
 -0.0004100138302921622 -0.003856815600831105 0.0004702870162595806 0.006170103638325624 0.9969738930086094 -0.029104372397506205 0.0026141698018714837 0.011894296395931498
0.056273447269699996 0.0026408722338751816 0.012078408557734732 0.9969393452785303 -0.029541622976407816 0.00047684225161553407 0.006262062314630019 -0.0004182755333292997 -0.003914467019948014
 0.9969393452785303 -0.029541622976407816 0.002640288262252961 0.01207845913295547 -0.0004183840077781346 -0.003914469144587461 0.0004800512086000532 0.006261706240614206
 0.00047684225161553407 0.006262062314630019 -0.0004183840077781346 -0.003914469144587461 0.0026408038810165867 0.012079166305493542 0.9969393609464613 -0.029540872015804152
 -0.0004182755333292997 -0.003914467019948014 0.0004800512086000532 0.006261706240614206 0.9969393609464613 -0.029540872015804152 0.002640387489637735 0.012079201320226503
0.06252605252188 0.0028472434589169354 0.013498213458285674 0.9966674892092611 -0.03288139470682053 0.0005541400562258176 0.006961955734957051 -0.0004842736777765473 -0.0043551662710733284
 0.9966674892092611 -0.03288139470682053 0.002846522699764792 0.013498272793768926 -0.0004844071132628511 -0.004355167472059276 0.000558103873426502 0.0069615143862097
 0.0005541400562258176 0.006961955734957051 -0.0004844071132628511 -0.004355167472059276 0.0028471586853403546 0.013499055644521522 0.9966675082386924 -0.032880560448487396
 -0.0004842736777765473 -0.0043551662710733284 0.000558103873426502 0.0069615143862097 0.9966675082386924 -0.032880560448487396 0.002846644910830368 0.013499096387225061
0.06877865777407 0.003064518775233406 0.014932158706756312 0.9963810116348444 -0.036233287766277114 0.0006375905939302943 0.007662506322932842 -0.000555476156110345 -0.004796716333654311
 0.9963810116348444 -0.036233287766277114 0.0030636468515906692 0.014932227546816567 -0.0005556370570453385 -0.0047967163011926675 0.0006423896950644083 0.00766196756699093
 0.0006375905939302943 0.007662506322932842 -0.0005556370570453385 -0.0047967163011926675 0.0030644157969898266 0.014933085435936933 0.9963810343508329 -0.03623237020968245
 -0.000555476156110345 -0.004796716333654311 0.0006423896950644083 0.00766196756699093 0.9963810343508329 -0.03623237020968245 0.00306379444370337 0.014933132272253465
0.07503126302626001 0.003292904952776948 0.01638004661520254 0.9960797133702485 -0.03959727353443865 0.0007272557608458887 0.008363650158784404 -0.0006319467011885138 -0.005239044395114217
 0.9960797133702485 -0.03959727353443865 0.0032918674819707627 0.016380125735942185 -0.0006321375532388498 -0.005239042798168405 0.0007329707858137812 0.008363001017568969
 0.0007272557608458887 0.008363650158784404 -0.0006321375532388498 -0.005239042798168405 0.0032927819821530757 0.016381058003441126 0.996079740099528 -0.039596272674864305
 -0.0006319467011885138 -0.005239044395114217 0.0007329707858137812 0.008363001017568969 0.996079740099528 -0.039596272674864305 0.0032920428542450673 0.01638111129733488
0.08128386827845 0.0035326082325968255 0.017841690689984934 0.9957633949043019 -0.04297330608543079 0.0008231967542196544 0.009065320665245118 -0.0007137482161212295 -0.00568207701931183
 0.9957633949043019 -0.04297330608543079 0.0035313908241497516 0.017841780899558783 -0.0007139714864102232 -0.005682073505635527 0.0008299085547658991 0.009064547304747497
 0.0008231967542196544 0.009065320665245118 -0.0007139714864102232 -0.005682073505635527 0.0035324634767037056 0.01784278686411392 0.9957634259741976 -0.042972221915222875
 -0.0007137482161212295 -0.00568207701931183 0.0008299085547658991 0.009064547304747497 0.9957634259741976 -0.042972221915222875 0.003531596376392612 0.01784284697754065
0.08753647353064001 0.0037838343437941774 0.01931691228490942 0.9954318565298895 -0.04636132548608142 0.0009254740220493406 0.009767448845023494 -0.0008009427462925438 -0.006125739905698237
 0.9954318565298895 -0.04636132548608142 0.003782422597675445 0.01931701442374292 -0.0008012008836728354 -0.006125734101842386 0.0009332636561657043 0.00976653656501013
 0.0009254740220493406 0.009767448845023494 -0.0008012008836728354 -0.006125734101842386 0.0037836660053707895 0.019318093385164013 0.9954318922689896 -0.046360157992045986
 -0.0008009427462925438 -0.006125739905698237 0.0009332636561657043 0.00976653656501013 0.9954318922689896 -0.046360157992045986 0.0037826607302840222 0.019318160677934258
0.09378907878283 0.004046788503280804 0.020805538225960128 0.9950848984589935 -0.04976126012408601 0.0010341472149016516 0.010469963449438575 -0.0008935914480376593 -0.006569957719037969
 0.9950848984589935 -0.04976126012408601 0.004045168008057394 0.020805653167090637 -0.0008938868832321161 -0.0065699492303802655 0.0010430959404602363 0.010468896673201169
 0.0010341472149016516 0.010469963449438575 -0.0008938868832321161 -0.0065699492303802655 0.004046594780457972 0.020806804402638813 0.995084939196965 -0.04976000929086004
 -0.0008935914480376593 -0.006569957719037969 0.0010430959404602363 0.010468896673201169 0.995084939196965 -0.04976000929086004 0.004045441121710128 0.02080687923222619
0.100041684035 0.004321675400441404 0.02230739904885474 0.9947223209242132 -0.05317302842512044 0.0011492751389514371 0.011172791104469348 -0.0009917545550942358 -0.007014653963570686
 0.9947223209242132 -0.05317302842512044 0.0043198317313300335 0.022307527698292307 -0.000992089700826531 -0.007014642374335608 0.0011594644065058952 0.011171553368630599
 0.0011492751389514371 0.011172791104469348 -0.000992089700826531 -0.007014642374335608 0.004321454487155802 0.02230875046573181 0.9947223669921048 -0.05317169423207093
 -0.0009917545550942358 -0.007014653963570686 0.0011594644065058952 0.011171553368630599 0.9947223669921048 -0.05317169423207093 0.0043201422267736865 0.02230883318719642
0.1059090909091 0.00459066214157138 0.023728624272421818 0.994367696783094 -0.056385293397410906 0.0012632325942370495 0.011832537886856318 -0.001088938325271762 -0.007432320111503267
 0.994367696783094 -0.056385293397410906 0.004588595915165904 0.023728766639361458 -0.0010893129135495423 -0.0074323052157319195 0.001274660221893903 0.011831123951574036
 0.0012632325942370495 0.011832537886856318 -0.0010893129135495423 -0.0074323052157319195 0.004590414066653317 0.02373005583611196 0.994367748154855 -0.056383880959528315
 -0.001088938325271762 -0.007432320111503267 0.001274660221893903 0.011831123951574036 0.994367748154855 -0.056383880959528315 0.004588943672521336 0.02373014628399537
0.1062942892872 0.004608699171018519 0.023822327688809382 0.9943439242722072 -0.05659654012003235 0.001270915710116306 0.011875856404322864 -0.0010954913429955257 -0.007459750891536626
 0.9943439242722072 -0.05659654012003235 0.004606617888463843 0.02382247098592612 -0.0010958685940998544 -0.007459735764812169 0.001282427154950504 0.011874430348710443
 0.001270915710116306 0.011875856404322864 -0.0010958685940998544 -0.007459735764812169 0.0046084492569351595 0.02382376452000781 0.9943439760023537 -0.056595122544335914
 -0.0010954913429955257 -0.007459750891536626 0.001282427154950504 0.011874430348710443 0.9943439760023537 -0.056595122544335914 0.004606968165945446 0.023823855485951003
0.11254689453939999 0.00490806336461687 0.025350158465726087 0.9939495090513732 -0.0600316972182217 0.0013991259086079497 0.012579081984147741 -0.0012048600920798475 -0.007905169434556842
 0.9939495090513732 -0.0600316972182217 0.004905730011995299 0.025350317383765 -0.0012052818255680715 -0.007905150312326132 0.0014120413421975964 0.012577449341769518
 0.0013991259086079497 0.012579081984147741 -0.0012052818255680715 -0.007905150312326132 0.004907782635494464 0.02535168089856508 0.9939495667781874 -0.060030196232302435
 -0.0012048600920798475 -0.007905169434556842 0.0014120413421975964 0.012577449341769518 0.9939495667781874 -0.060030196232302435 0.004906122471172352 0.02535178045918876
0.11879949979160001 0.005219970904756411 0.026890726296772766 0.9935388760953605 -0.06347839475621023 0.0015339617337261678 0.013282388579529866 -0.0013199180492805425 -0.008350829150191717
 0.9935388760953605 -0.06347839475621023 0.0052173710067887165 0.026890901843368023 -0.0013203866243696712 -0.008350805553352264 0.0015483631348278924 0.013280530166566275
 0.0015339617337261678 0.013282388579529866 -0.0013203866243696712 -0.008350805553352264 0.005219657542287247 0.026892334529410776 0.9935389401545508 -0.06347681033012229
 -0.0013199180492805425 -0.008350829150191717 0.0015483631348278924 0.013280530166566275 0.9935389401545508 -0.06347681033012229 0.005217808046160687 0.02689244303256266
0.1250521050438 0.005544624044477307 0.02844386607041336 0.9931118266031465 -0.06693652138665303 0.0016754781591027078 0.013985695073346866 -0.0014407213887928803 -0.0087966481832476
 0.9931118266031465 -0.06693652138665303 0.005541743105493296 0.028444059288162755 -0.0014412391469767352 -0.008796619611637177 0.0016914476641771226 0.013983590779350848
 0.0016754781591027078 0.013985695073346866 -0.0014412391469767352 -0.008796619611637177 0.005544276226670673 0.02844556031532539 0.9931118973322745 -0.06693485348484608
 -0.0014407213887928803 -0.0087966481832476 0.0016914476641771226 0.013983590779350848 0.9931118973322745 -0.06693485348484608 0.005542227121950974 0.028445678106663784
0.131304710296 0.005882224317973285 0.03000941214573182 0.9926681622165904 -0.07040595984453638 0.001823729087892652 0.014688918535518156 -0.0015673251719593904 -0.009242543236334437
 0.9926681622165904 -0.07040595984453638 0.005879047819765431 0.030009624112860706 -0.0015678944369691785 -0.009242509168766167 0.0018413489811084048 0.01468654731360065
 0.001823729087892652 0.014688918535518156 -0.0015678944369691785 -0.009242509168766167 0.005881840219165025 0.030011192626385286 0.9926682399555128 -0.07040420842927345
 -0.0015673251719593904 -0.009242543236334437 0.0018413489811084048 0.01468654731360065 0.9926682399555128 -0.07040420842927345 0.005879581208487897 0.030011320049634034
0.1375573155481 0.006148969811858414 0.03138118430101083 0.992291709952227 -0.07368051001231583 0.00195803559144701 0.015370222849835554 -0.0016790316261055074 -0.009666701437858416
 0.992291709952227 -0.07368051001231583 0.006145483231393054 0.031381412241096925 -0.0016796559244002037 -0.009666661934036114 0.001977345651613775 0.015367591016824073
 0.00195803559144701 0.015370222849835554 -0.0016796559244002037 -0.009666661934036114 0.0061485482886309215 0.0313830510877065 0.9922917950165949 -0.073678675086907
 -0.0016790316261055074 -0.009666701437858416 0.001977345651613775 0.015367591016824073 0.9922917950165949 -0.073678675086907 0.006146067749844495 0.031383185009252516
0.1438099208003 0.006424848280795989 0.0327467639407026 0.9919024673759635 -0.07694783910550912 0.0020977698625006327 0.016049520006247014 -0.0017952305367449435 -0.010089016340612864
 0.9919024673759635 -0.07694783910550912 0.00642103709152663 0.032747008689690514 -0.0017959123834378568 -0.010088970895821963 0.002118844883662626 0.016046608620686426
 0.0020977698625006327 0.016049520006247014 -0.0017959123834378568 -0.010088970895821963 0.006424387626752119 0.03274871724646116 0.9919025601032416 -0.07694592063649443
 -0.0017952305367449435 -0.010089016340612864 0.002118844883662626 0.016046608620686426 0.9919025601032416 -0.07694592063649443 0.006421675016712381 0.032748857789052586
0.1500625260525 0.006709775895527358 0.034106068500897826 0.991500521296287 -0.08020789858606718 0.0022428922271064454 0.016726765047722508 -0.0019158831190054897 -0.010509443930268451
 0.991500521296287 -0.08020789858606718 0.006705625554123316 0.03410633093793817 -0.0019166250267732869 -0.010509392019523929 0.0022658066477987218 0.016723554486373044
 0.0022428922271064454 0.016726765047722508 -0.0019166250267732869 -0.010509392019523929 0.006709274409062938 0.03410810854609589 0.9915006220251317 -0.08020589653912652
 -0.0019158831190054897 -0.010509443930268451 0.0022658066477987218 0.016723554486373044 0.9915006220251317 -0.08020589653912652 0.006706319153737891 0.03410825584879254
0.15631513130469998 0.007003668382556876 0.035459018099779936 0.9910859587968422 -0.08346063947920593 0.00239336264008172 0.01740191363009789 -0.002040950197970243 -0.010927941032134963
