! Created with skrf 1.8.0 (http://scikit-rf.org).
# GHz S RI R 50.0 
!freq ReS11 ImS11 ReS12 ImS12 ReS13 ImS13
! ReS14 ImS14
! ReS21 ImS21 ReS22 ImS22 ReS23 ImS23
! ReS24 ImS24
! ReS31 ImS31 ReS32 ImS32 ReS33 ImS33
! ReS34 ImS34
! ReS41 ImS41 ReS42 ImS42 ReS43 ImS43
! ReS44 ImS44
!
0.0 0.001675824378402 0.0 0.9983241756216 0.0 6.48887831069e-05 0.0 -6.488878312858e-05 7.946584055898227e-21
 0.9983241756216 0.0 0.001675824378437 0.0 -6.488878312956e-05 7.946584056018242e-21 6.488878310683e-05 0.0
 6.48887831069e-05 0.0 -6.488878312956e-05 7.946584056018242e-21 0.00167582436191 0.0 0.9983241756051 0.0
 -6.488878312858e-05 7.946584055898227e-21 6.488878310683e-05 0.0 0.9983241756051 0.0 0.001675824361901 0.0
0.005 0.0018034727175858334 0.0013701141468413856 0.9981626209156227 -0.003509947751866748 9.120751437971898e-05 0.0007180521515454596 -8.854733583727126e-05 -0.0004500862351936797
 0.9981626209156227 -0.003509947751866748 0.0018034726202015748 0.0013701142185473462 -8.855095410900339e-05 -0.00045008902530853563 9.120319540007084e-05 0.0007180539075508176
 9.120751437971898e-05 0.0007180521515454596 -8.855095410900339e-05 -0.00045008902530853563 0.001803470428318885 0.001370048241161118 0.9981626205469821 -0.003510014819559015
 -8.854733583727126e-05 -0.0004500862351936797 9.120319540007084e-05 0.0007180539075508176 0.9981626205469821 -0.003510014819559015 0.0018034741774386413 0.0013700459930478656
0.006252605252188 0.0018370752827386754 0.0017180172464063919 0.998119806944316 -0.004388273489969775 9.878667877159396e-05 0.000897904147589317 -9.528249195698143e-05 -0.0005631829109689483
 0.998119806944316 -0.004388273489969775 0.0018370751299567468 0.0017180172892522069 -9.52881221797855e-05 -0.0005631863507557099 9.877993204540702e-05 0.0008979064110746626
 9.878667877159396e-05 0.000897904147589317 -9.52881221797855e-05 -0.0005631863507557099 0.001837071776787024 0.0017179348816887393 0.9981198064409756 -0.004388357313958057
 -9.528249195698143e-05 -0.0005631829109689483 9.877993204540702e-05 0.0008979064110746626 0.9981198064409756 -0.004388357313958057 0.0018370776375920292 0.0017179320155305503
0.01250521050438 0.002014689608410886 0.0034718544910768184 0.9978919302435606 -0.008777211050745262 0.000142568829338027 0.0017961071508925126 -0.00013379446401417988 -0.0011290170653619402
 0.9978919302435606 -0.008777211050745262 0.0020146889915586053 0.0034718541128916755 -0.00013381665072943906 -0.001129023416726232 0.00014254196350454556 0.0017961124344109817
 0.000142568829338027 0.0017961071508925126 -0.00013381665072943906 -0.001129023416726232 0.00201467616621961 0.003471690106554195 0.9978919287943103 -0.008777378453933308
 -0.00013379446401417988 -0.0011290170653619402 0.00014254196350454556 0.0017961124344109817 0.9978919287943103 -0.008777378453933308 0.0020146995735077777 0.003471683781590781
0.01875781575657 0.0022090812434953215 0.005250449935363347 0.9976402436964799 -0.013177464866811367 0.00019634115590959296 0.0026951949589510056 -0.00018054886354301424 -0.0016966650614993754
 0.9976402436964799 -0.013177464866811367 0.0022090798452606966 0.005250448675821936 -0.0001805983380889228 -0.0016966736863332711 0.00019628089385168935 0.002695204200628334
 0.00019634115590959296 0.0026951949589510056 -0.0001805983380889228 -0.0016966736863332711 0.0022090514533579225 0.005250203805939848 0.9976402408604628 -0.013177715765377233
 -0.00018054886354301424 -0.0016966650614993754 0.00019628089385168935 0.002695204200628334 0.9976402408604628 -0.013177715765377233 0.0022091040604419673 0.005250193323180738
0.02501042100875 0.002420650300499142 0.007051280816648068 0.99736443287513 -0.01759113452299684 0.0002602107605361383 0.0035951860624094437 -0.00023566526462059535 -0.0022658495775918102
 0.99736443287513 -0.01759113452299684 0.0024206477949740616 0.007051278216461156 -0.00023575262852829204 -0.002265859717165349 0.0002601038700798443 0.0035952003704989507
 0.0002602107605361383 0.0035951860624094437 -0.00023575262852829204 -0.002265859717165349 0.0024205977596176626 0.007050953252662896 0.9973644282103938 -0.01759146888624611
 -0.00023566526462059535 -0.0022658495775918102 0.0002601038700798443 0.0035952003704989507 0.9973644282103938 -0.01759146888624611 0.0024206912014394302 0.0070509378094426554
0.03126302626094 0.0026497803310223575 0.008873032041364743 0.9970641682988552 -0.022019098347518504 0.00033428486525863765 0.0044960153014893065 -0.0002992594976743039 -0.0028363695929131466
 0.9970641682988552 -0.022019098347518504 0.0026497763828639983 0.008873027642003314 -0.000299395244363921 -0.0028363803666129044 0.00033411814268359546 0.004496035954052821
 0.00033428486525863765 0.0044960153014893065 -0.000299395244363921 -0.0028363803666129044 0.002649698642538798 0.008872623417756857 0.9970641613614828 -0.02201951616906889
 -0.0002992594976743039 -0.0028363695929131466 0.00033411814268359546 0.004496035954052821 0.9970641613614828 -0.02201951616906889 0.002649844540201184 0.00887260210710618
0.037515631513130004 0.0028968462812770865 0.010714833356065883 0.9967391137022168 -0.026461776179289385 0.0004186697667177871 0.005397584146805804 -0.0003714444803110802 -0.0034080501273441436
 0.9967391137022168 -0.026461776179289385 0.002896840545317445 0.010714826699863058 -0.00037163900604766524 -0.0034080605323403373 0.00041843002835069643 0.005397612592538256
 0.0004186697667177871 0.005397584146805804 -0.00037163900604766524 -0.0034080605323403373 0.0028967290553187958 0.010714344122897661 0.9967391040475052 -0.02646227746745797
 -0.0003714444803110802 -0.0034080501273441436 0.00041843002835069643 0.005397612592538256 0.9967391040475052 -0.02646227746745797 0.0028969390183187383 0.010714315932472698
0.043768236765320004 0.003162217555574837 0.012576027250182713 0.9963889294120208 -0.030919361393375016 0.0005134703351520076 0.0062997759857914585 -0.0004523305013930504 -0.0039807269743595145
 0.9963889294120208 -0.030919361393375016 0.003162209676482531 0.01257601788066978 -0.0004525941117038077 -0.003980735885524099 0.0005131444124057275 0.006299813845330804
 0.0005134703351520076 0.0062997759857914585 -0.0004525941117038077 -0.003980735885524099 0.0031620584068576584 0.01257545792841316 0.9963889165921722 -0.03091994617618076
 -0.0004523305013930504 -0.0039807269743595145 0.0005131444124057275 0.006299813845330804 0.9963889165921722 -0.03091994617618076 0.0031623440341324548 0.012575421739455223
0.050020842017509996 0.003446259425187486 0.014456073010352035 0.9960132740740124 -0.03539191677356848 0.0006187897032665085 0.007202462453453816 -0.0005420253128456636 -0.0045542403926439
 0.9960132740740124 -0.03539191677356848 0.0034462490370820026 0.01445606047262456 -0.0005423682264846181 -0.004554246562577857 0.0006183644395080511 0.007202511520868065
 0.0006187897032665085 0.007202462453453816 -0.0005423682264846181 -0.004554246562577857 0.0034460519745669145 0.014455424195373186 0.9960132576385005 -0.0353925850963274
 -0.0005420253128456636 -0.0045542403926439 0.0006183644395080511 0.007202511520868065 0.9960132576385005 -0.0353925850963274 0.0034464248553622984 0.014455378781418672
0.055454545454549996 0.0037085443355653466 0.01610483273548823 0.9956658669851782 -0.03929084595210323 0.0007189366020033934 0.007987219816089096 -0.000627208420329117 -0.005053197343426217
 0.9956658669851782 -0.03929084595210323 0.0037085314619567738 0.016104817076527535 -0.0006276284845098263 -0.005053200023178342 0.0007184143309323678 0.007987280216379684
 0.0007189366020033934 0.007987219816089096 -0.0006276284845098263 -0.005053200023178342 0.0037082897318978696 0.016104115384145253 0.99566584703794 -0.03929158692010459
 -0.000627208420329117 -0.005053197343426217 0.0007184143309323678 0.007987280216379684 0.99566584703794 -0.03929158692010459 0.0037087478428728844 0.016104060872874994
0.056273447269699996 0.003749333741987195 0.016354499638124017 0.9956118056877581 -0.03987942152466867 0.0007347290394378938 0.008105506536181126 -0.0006406341346412873 -0.005128432029335507
 0.9956118056877581 -0.03987942152466867 0.003749320468637545 0.016354483479196175 -0.0006410664862763673 -0.005128434088416016 0.0007341912880681862 0.008105568780558915
 0.0007347290394378938 0.008105506536181126 -0.0006410664862763673 -0.005128434088416016 0.003749071614588666 0.016353772006665074 0.9956117851813082 -0.03988017344386814
 -0.0006406341346412873 -0.005128432029335507 0.0007341912880681862 0.008105568780558915 0.9956117851813082 -0.03988017344386814 0.003749543328474569 0.01635371603244066
0.06252605252188 0.004071799304176916 0.018270879972521113 0.995184182299822 -0.04438179708445003 0.0008613873623290314 0.00900876428972045 -0.0007482596164303215 -0.005703143234639446
 0.995184182299822 -0.04438179708445003 0.004071782758840883 0.018270859741795337 -0.0007487914582896986 -0.00570313969112401 0.0008607239854650029 0.009008841856803392
 0.0008613873623290314 0.00900876428972045 -0.0007487914582896986 -0.00570313969112401 0.0040714761325989545 0.018270074277776376 0.9951841572639994 -0.04438263267376851
 -0.0007482596164303215 -0.005703143234639446 0.0008607239854650029 0.009008841856803392 0.9951841572639994 -0.04438263267376851 0.004072058249831366 0.018270006297855055
0.06877865777407 0.004414012038860289 0.02020481525773525 0.9947300625170892 -0.04889892249672818 0.0009988613798088126 0.009912085870493218 -0.0008650017726970636 -0.006278214069242627
 0.9947300625170892 -0.04889892249672818 0.004413991823995872 0.02020479050737434 -0.0008656430756200913 -0.006278203309363228 0.0009980592475167058 0.009912181084397913
 0.0009988613798088126 0.009912085870493218 -0.0008656430756200913 -0.006278203309363228 0.0044136214616690055 0.020203932332903792 0.994730032488379 -0.04889984184437417
 -0.0008650017726970636 -0.006278214069242627 0.0009980592475167058 0.009912181084397913 0.994730032488379 -0.04889984184437417 0.004414325543070217 0.02020385079056654
0.07503126302626001 0.004776325068570565 0.022155925366187112 0.9942491059103453 -0.05343064413577752 0.0011472453407380958 0.010815316196854328 -0.0009909579032220818 -0.006853482688344571
 0.9942491059103453 -0.05343064413577752 0.0047763007761394615 0.02215589565169136 -0.00099171855733395 -0.00685346297644647 0.0011462913306275965 0.010815431561814472
 0.0011472453407380958 0.010815316196854328 -0.00099171855733395 -0.00685346297644647 0.00477586073141708 0.022154966129581618 0.9942490704195729 -0.05343164734036293
 -0.0009909579032220818 -0.006853482688344571 0.0011462913306275965 0.010815431561814472 0.9942490704195729 -0.05343164734036293 0.004776698328113039 0.022154869355477114
0.08128386827845 0.005159088709001979 0.024123842304054496 0.9937409733521848 -0.05797678215580578 0.001306630895600423 0.011718295403024374 -0.001126222503160329 -0.007428784939909971
 0.9937409733521848 -0.05797678215580578 0.005159059920348992 0.02412380718462293 -0.0011271123181403008 -0.007428754418585211 0.0013055118926885493 0.011718433605142548
 0.001306630895600423 0.011718295403024374 -0.0011271123181403008 -0.007428754418585211 0.005158544266106347 0.02412280775518559 0.9937409319249092 -0.05797786933120991
 -0.001126222503160329 -0.007428784939909971 0.0013055118926885493 0.011718433605142548 0.9937409319249092 -0.05797786933120991 0.005159526919252372 0.0241226939661534
0.08753647353064001 0.005562650420473613 0.026108205710422206 0.9932053273135778 -0.06253713495461295 0.0014771069627644616 0.01262085916108487 -0.0012708871660984 -0.008003954101908324
 0.9932053273135778 -0.06253713495461295 0.00556261670617589 0.026108164749470683 -0.0012719158711991495 -0.00800391079216317 0.0014758098594169905 0.01262102307011971
 0.0014771069627644616 0.01262085916108487 -0.0012719158711991495 -0.00800391079216317 0.0055620195342884916 0.02610709693429967 0.9932052794684937 -0.06253830622653465
 -0.0012708871660984 -0.008003954101908324 0.0014758098594169905 0.01262102307011971 0.9932052794684937 -0.06253830622653465 0.005563158774760172 0.02610696423202667
0.09378907878283 0.005987354726012083 0.028108659659551727 0.9926418321316367 -0.06711148234248462 0.0016587595984196833 0.013522838922223213 -0.001425040482017691 -0.00857882070773327
 0.9926418321316367 -0.06711148234248462 0.005987315646418208 0.02810861242516596 -0.0014262177259553332 -0.008578762509159543 0.001657271294728301 0.013523031593402297
 0.0016587595984196833 0.013522838922223213 -0.0014262177259553332 -0.008578762509159543 0.0059866310688304865 0.028107477827449653 0.9926417773806097 -0.06711273784863751
 -0.001425040482017691 -0.00857882070773327 0.001657271294728301 0.013523031593402297 0.9926417773806097 -0.06711273784863751 0.005987938416790223 0.02810732419725436
0.100041684035 0.0064335431062689 0.03012485031884821 0.9920501542576232 -0.07169958786399411 0.0018516718692806022 0.014424062107548534 -0.0015887679318634692 -0.009153212429498162
 0.9920501542576232 -0.07169958786399411 0.006433498211306345 0.030124796384270822 -0.0015901032824760086 -0.009153137120472223 0.0018499792733379867 0.014424286783388576
 0.0018516718692806022 0.014424062107548534 -0.0015901032824760086 -0.009153137120472223 0.006432720361162423 0.030123596685863337 0.9920500921051013 -0.07170092775732172
 -0.0015887679318634692 -0.009153212429498162 0.0018499792733379867 0.014424286783388576 0.9920500921051013 -0.07170092775732172 0.00643420732551651 0.030123419995418812
0.1059090909091 0.006872084519558091 0.032030828880784463 0.9914690004188284 -0.07601732775906062 0.0020430113504587887 0.015268919250875762 -0.001751189670779435 -0.009691630152642244
 0.9914690004188284 -0.07601732775906062 0.006872033748899439 0.03203076827568621 -0.0017526820171359452 -0.009691536658943591 0.002041115148542896 0.01526917707718394
 0.0020430113504587887 0.015268919250875762 -0.0017526820171359452 -0.009691536658943591 0.006871163055946299 0.032029509092404415 0.9914689308630927 -0.07601874698825692
 -0.001751189670779435 -0.009691630152642244 0.002041115148542896 0.01526917707718394 0.9914689308630927 -0.07601874698825692 0.006872829027839375 0.032029308717117816
0.1062942892872 0.006901553877927322 0.03215642418873488 0.991429962491631 -0.07630120054681237 0.0020559237269507616 0.015324352263569345 -0.0017621517795368528 -0.009726954004445449
 0.991429962491631 -0.07630120054681237 0.006901502706979156 0.032156363132879125 -0.0017636547233090278 -0.009726859242353385 0.0020540137553941434 0.01532461237571078
 0.0020559237269507616 0.015324352263569345 -0.0017636547233090278 -0.009726859242353385 0.006900625739234041 0.03215510009997529 0.9914298924340341 -0.07630262499016165
 -0.0017621517795368528 -0.009726954004445449 0.0020540137553941434 0.01532461237571078 0.9914298924340341 -0.07630262499016165 0.006902303816946561 0.03215489809803091
0.11254689453939999 0.007391722057213404 0.03420302676949651 0.9907809282079315 -0.08091605623283186 0.0022715918840000983 0.016223529194887436 -0.0019452709617157654 -0.010299867191952434
 0.9907809282079315 -0.08091605623283186 0.007391664139872045 0.03420295817739559 -0.0019469509032904713 -0.010299750513410375 0.0022694514625935516 0.016223828365905812
 0.0022715918840000983 0.016223529194887436 -0.0019469509032904713 -0.010299750513410375 0.007390682232224984 0.034201633655830885 0.9907808497330189 -0.08091756540398487
 -0.0019452709617157654 -0.010299867191952434 0.0022694514625935516 0.016223828365905812 0.9907808497330189 -0.08091756540398487 0.007392562907934684 0.03420140397093778
0.11879949979160001 0.007904379215867676 0.03626430152447494 0.9901027255730436 -0.08554387862231312 0.0024987496912726123 0.017121409078804897 -0.002138200976526983 -0.010871770756619274
 0.9901027255730436 -0.08554387862231312 0.007904314071406047 0.03626422498781201 -0.002140067237929069 -0.010871629577772404 0.0024963657555146183 0.017121751124090638
 0.0024987496912726123 0.017121409078804897 -0.002140067237929069 -0.010871629577772404 0.00790322142486276 0.036262840907162384 0.990102638159222 -0.08554547271017572
 -0.002138200976526983 -0.010871770756619274 0.0024963657555146183 0.017121751124090638 0.990102638159222 -0.08554547271017572 0.007905316170233793 0.0362625810463961
0.1250521050438 0.008439853325645038 0.03833988907452413 0.9893950317583887 -0.09018438009667037 0.002737467016021511 0.018017804573536106 -0.002341013770957602 -0.011442480465927057
 0.9893950317583887 -0.09018438009667037 0.008439780463762887 0.038339804192041166 -0.0023430755910294177 -0.011442312082699344 0.002734826512039777 0.018018193503131608
 0.002737467016021511 0.018017804573536106 -0.0023430755910294177 -0.011442312082699344 0.00843857130403642 0.038338362564320216 0.9893949348742259 -0.0901860593027555
 -0.002341013770957602 -0.011442480465927057 0.002734826512039777 0.018018193503131608 0.9893949348742259 -0.0901860593027555 0.008440891576813304 0.03833806991201274
0.131304710296 0.008998468599377647 0.04042942655125638 0.9886575271495314 -0.09483726239213332 0.0029878101212424267 0.018912524916673605 -0.0025537776279745744 -0.012011809105830488
 0.9886575271495314 -0.09483726239213332 0.008998387519905072 0.04042933292932728 -0.002556044161434846 -0.01201161069423858 0.0029849000065777934 0.018912964937130437
 0.0029878101212424267 0.018912524916673605 -0.002556044161434846 -0.01201161069423858 0.008997056098251511 0.040427835850190004 0.988657420253368 -0.0948390269295716
 -0.0025537776279745744 -0.012011809105830488 0.0029849000065777934 0.018912964937130437 0.988657420253368 -0.0948390269295716 0.008999613341844168 0.04042750766665799
0.1375573155481 0.009456912432065463 0.042260508638607426 0.9880135856179584 -0.09923003021709423 0.00321950207006021 0.019778710259923848 -0.0027462230294065374 -0.0125529208120678
 0.9880135856179584 -0.09923003021709423 0.009456823462994188 0.04226041095483021 -0.002748707937813165 -0.012552691960711173 0.0032163118224396788 0.01977920114046911
 0.00321950207006021 0.019778710259923848 -0.002748707937813165 -0.012552691960711173 0.009455363799241936 0.04225885530454225 0.9880134682483304 -0.0992318801899562
 -0.0027462230294065374 -0.0125529208120678 0.0032163118224396788 0.01977920114046911 0.9880134682483304 -0.0992318801899562 0.009458168947525557 0.042258494029766315
0.1438099208003 0.009931624707595467 0.04408112549958663 0.9873467265452791 -0.10361083283098163 0.0034605322248387007 0.020640910212886023 -0.0029463373423973477 -0.013090355585735809
 0.9873467265452791 -0.10361083283098163 0.009931527471783724 0.04408102378505929 -0.00294905047054848 -0.01309009349765821 0.0034570492768871692 0.020641455908418312
 0.0034605322248387007 0.020640910212886023 -0.00294905047054848 -0.01309009349765821 0.009929933821215178 0.04407941128300655 0.9873465981624908 -0.10361276844324656
 -0.0029463373423973477 -0.013090355585735809 0.0034570492768871692 0.020641455908418312 0.9873465981624908 -0.10361276844324656 0.009932998197177674 0.04407901454020035
0.1500625260525 0.010422426123625792 0.04589110038447283 0.986657133838663 -0.1079795364440897 0.0037108100656313317 0.021499021466918636 -0.003154032162751205 -0.013624015482889624
 0.986657133838663 -0.1079795364440897 0.010422320241820719 0.04589099466984648 -0.00315698332880172 -0.013623717248787364 0.0037070218893073717 0.02149962608884117
 0.0037108100656313317 0.021499021466918636 -0.00315698332880172 -0.013623717248787364 0.01042058688306661 0.04588932710616086 0.9866569938945293 -0.1079815579075842
 -0.003154032162751205 -0.013624015482889624 0.0037070218893073717 0.02149962608884117 0.9866569938945293 -0.1079815579075842 0.01042392178905803 0.045888892418228466
0.15631513130469998 0.010929135956662292 0.04769026180642294 0.9859449925019977 -0.1123360082839383 0.003970243924090256 0.02235294264378542 -0.003369217921423191 -0.01415380476722846
 0.9859449925019977 -0.1123360082839383 0.01092902104801858 0.04769015212179466 -0.0033724169164674076 -0.014153467366080778 0.003966138031160878 0.02235361045923554
