! Created with skrf 1.8.0 (http://scikit-rf.org).
# GHz S RI R 50.0 
!freq ReS11 ImS11 ReS12 ImS12 ReS13 ImS13
! ReS14 ImS14
! ReS21 ImS21 ReS22 ImS22 ReS23 ImS23
! ReS24 ImS24
! ReS31 ImS31 ReS32 ImS32 ReS33 ImS33
! ReS34 ImS34
! ReS41 ImS41 ReS42 ImS42 ReS43 ImS43
! ReS44 ImS44
!
0.0 0.001179915229947 0.0 0.99882008477 0.0 4.518459270531e-05 0.0 -4.518459368181e-05 5.533516802320233e-21
 0.99882008477 0.0 0.00117991522994 0.0 -4.518459368194e-05 5.5335168023361544e-21 4.518459270441e-05 0.0
 4.518459270531e-05 0.0 -4.518459368194e-05 5.5335168023361544e-21 0.001179915216534 0.0 0.9988200847566 0.0
 -4.518459368181e-05 5.533516802320233e-21 4.518459270441e-05 0.0 0.9988200847566 0.0 0.001179915216513 0.0
0.005 0.0012687299937495537 0.0009604449518293577 0.9987078340113875 -0.0024730052197127015 6.361542242068744e-05 0.0005300896974898541 -6.167906621989761e-05 -0.0003272514915891901
 0.9987078340113875 -0.0024730052197127015 0.0012687265548820192 0.0009604470066937133 -6.168143440763859e-05 -0.00032725332681635876 6.362104360263996e-05 0.0005300874293110255
 6.361542242068744e-05 0.0005300896974898541 -6.168143440763859e-05 -0.00032725332681635876 0.0012687290366662364 0.0009605127883321174 0.9987078343359556 -0.002472938153469786
 -6.167906621989761e-05 -0.0003272514915891901 6.362104360263996e-05 0.0005300874293110255 0.9987078343359556 -0.002472938153469786 0.001268728156436983 0.0009605132980578396
0.006252605252188 0.001291786140840328 0.0012043930640072554 0.9986785474099044 -0.003091900697854339 6.874191893308296e-05 0.0006628697263130093 -6.622670544394355e-05 -0.0004095093341202922
 0.9986785474099044 -0.003091900697854339 0.001291780765118531 0.001204395694883847 -6.623039049076443e-05 -0.00040951159838343367 6.875070007185928e-05 0.0006628668045911339
 6.874191893308296e-05 0.0006628697263130093 -6.623039049076443e-05 -0.00040951159838343367 0.0012917845766082351 0.0012044778370352387 0.9986785478493757 -0.003091816888185675
 -6.622670544394355e-05 -0.0004095093341202922 6.875070007185928e-05 0.0006628668045911339 0.9986785478493757 -0.003091816888185675 0.0012917832011212537 0.001204478531012248
0.01250521050438 0.0014117770392834425 0.0024345684171480394 0.9985253003933419 -0.006184835465820485 9.740645530192216e-05 0.0013260840608984809 -9.144242135857372e-05 -0.0008211916215286223
 0.9985253003933419 -0.006184835465820485 0.0014117555698191604 0.002434574318370791 -9.145694373605228e-05 -0.0008211958298525958 9.744142797211837e-05 0.0013260772853933727
 9.740645530192216e-05 0.0013260840608984809 -9.145694373605228e-05 -0.0008211958298525958 0.0014117702200681153 0.0024347377517822183 0.9985253015814574 -0.006184668056758454
 -9.144242135857372e-05 -0.0008211916215286223 9.744142797211837e-05 0.0013260772853933727 0.9985253015814574 -0.006184668056758454 0.0014117647326982302 0.002434739708184455
0.01875781575657 0.0015400999056371348 0.0036827921435443707 0.9983601892107847 -0.009286387280088737 0.0001312358346847876 0.0019901556116075072 -0.00012089885236663717 -0.0012344408782210745
 0.9983601892107847 -0.009286387280088737 0.0015400516545638321 0.0036828020202429677 -0.00012093123895839545 -0.0012344466632874236 0.00013131429352090305 0.0019901438787022197
 0.0001312358346847876 0.0019901556116075072 -0.00012093123895839545 -0.0012344466632874236 0.0015400841489775084 0.003683045932972899 0.9983601914604552 -0.009286136366740668
 -0.00012089885236663717 -0.0012344408782210745 0.00013131429352090305 0.0019901438787022197 0.9983601914604552 -0.009286136366740668 0.0015400718278621266 0.0036830497335245786
0.02501042100875 0.0016769630009796014 0.004947355148601582 0.9981830547897075 -0.01239810939161867 0.00017028854011392867 0.002655154007780028 -0.00015466153904192733 -0.0016490913053050517
 0.9981830547897075 -0.01239810939161867 0.0016768772986814064 0.004947369769765193 -0.00015471873442228604 -0.0016490982453813933 0.0001704277272815439 0.0026551360572859145
 0.00017028854011392867 0.002655154007780028 -0.00015471873442228604 -0.0016490982453813933 0.0016769346238578032 0.004947693341402952 0.9981830584151667 -0.012397775001154937
 -0.00015466153904192733 -0.0016490913053050517 0.0001704277272815439 0.0026551360572859145 0.9981830584151667 -0.012397775001154937 0.001676912760834213 0.004947699583019009
0.03126302626094 0.0018225655767695357 0.006227402477848856 0.9979937283105565 -0.01552069597834452 0.00021462381964232138 0.0033210848193857127 -0.0001927945133038095 -0.0020650383707485546
 0.9979937283105565 -0.01552069597834452 0.0018224317679456353 0.006227422676648687 -0.0001928833943287636 -0.002065045988703481 0.00021484094501352422 0.003321059235563894
 0.00021462381964232138 0.0033210848193857127 -0.0001928833943287636 -0.002065045988703481 0.0018225208914866829 0.006227825034862081 0.9979937336254264 -0.015520278112900666
 -0.0001927945133038095 -0.0020650383707485546 0.00021484094501352422 0.003321059235563894 0.9979937336254264 -0.015520278112900666 0.0018224867919097493 0.006227834330014355
0.037515631513130004 0.0019771027260632834 0.007522395297149196 0.9977920361417503 -0.018654520122151026 0.0002643011047564646 0.003987928919266774 -0.00023536083056138125 -0.002482199437166827
 0.9977920361417503 -0.018654520122151026 0.0019769101676904146 0.0075224219715558345 -0.000235488213935266 -0.002482207200127571 0.0002646133554773495 0.003987894130472119
 0.0002643011047564646 0.003987928919266774 -0.000235488213935266 -0.002482207200127571 0.001977038041434466 0.007522902184670128 0.997792043462126 -0.018654018765666285
 -0.00023536083056138125 -0.002482199437166827 0.0002646133554773495 0.003987894130472119 0.997792043462126 -0.018654018765666285 0.001976989023958073 0.007522915161600997
0.043768236765320004 0.0021407672644486895 0.008831947188546699 0.9975778018032405 -0.021799797465376452 0.00031937975109252764 0.00465565445659506 -0.00028242277381412026 -0.002900501776526269
 0.9975778018032405 -0.021799797465376452 0.002140505324649322 0.008831981302003706 -0.00028259542068543176 -0.0029005090957351268 0.0003198042965525305 0.004655608734450767
 0.00031937975109252764 0.00465565445659506 -0.00028259542068543176 -0.0029005090957351268 0.002140678884496009 0.008832538381034758 0.9975778114474415 -0.02179921258093363
 -0.00028242277381412026 -0.002900501776526269 0.0003198042965525305 0.004655608734450767 0.9975778114474415 -0.02179921258093363 0.002140612280948402 0.008832555683766048
0.050020842017509996 0.0023137506146885477 0.010155756492583788 0.9973508469360809 -0.024956653819033916 0.000379918893229411 0.005324221794108377 -0.0003340419408998359 -0.003319877620887403
 0.9973508469360809 -0.024956653819033916 0.0023134086719644245 0.010155799074657893 -0.00033426655984022344 -0.0033198838516166882 0.0003804728878253727 0.0053241632524989235
 0.000379918893229411 0.005324221794108377 -0.00033426655984022344 -0.0033198838516166882 0.0023136348373476072 0.010156431963594208 0.9973508592246257 -0.024955985358192868
 -0.0003340419408998359 -0.003319877620887403 0.0003804728878253727 0.0053241632524989235 0.9973508592246257 -0.024955985358192868 0.002313547992988128 0.010156454251895389
0.055454545454549996 0.0024717943686693496 0.011317570478107013 0.9971431461263839 -0.027709515971877572 0.00043700952048018795 0.0059058758727159695 -0.000382648938052348 -0.003685149046893854
 0.9971431461263839 -0.027709515971877572 0.0024713742827116338 0.011317621307707023 -0.0003829241312547723 -0.003685153764605519 0.00043768993094540936 0.005905804535520637
 0.00043700952048018795 0.0059058758727159695 -0.0003829241312547723 -0.003685153764605519 0.0024716517714028063 0.011318319173338635 0.997143160976107 -0.02770877482658994
 -0.000382648938052348 -0.003685149046893854 0.00043768993094540936 0.005905804535520637 0.997143160976107 -0.02770877482658994 0.002471545191329004 0.011318346342264198
0.056273447269699996 0.0024962432714391684 0.01149357309838243 0.9971109918521754 -0.028125158322918557 0.00044597734639586193 0.005993585932518446 -0.00039027928320343205 -0.0037402617264286108
 0.9971109918521754 -0.028125158322918557 0.0024958107141624386 0.011493625245503658 -0.0003905625323359456 -0.003740266167943267 0.00044667793060994396 0.005993512526502302
 0.00044597734639586193 0.005993585932518446 -0.0003905625323359456 -0.003740266167943267 0.002496096388896 0.011494332827150597 0.9971110071090465 -0.028124406219248912
 -0.00039027928320343205 -0.0037402617264286108 0.00044667793060994396 0.005993512526502302 0.9971110071090465 -0.028124406219248912 0.0024959866620616234 0.01149436077648836
0.06252605252188 0.0026884350673866486 0.01284518018363794 0.9968580558880056 -0.031305341656024166 0.000517613534914653 0.006663697833646709 -0.00045119511609148245 -0.004161590039561387
 0.9968580558880056 -0.031305341656024166 0.0026879012934166347 0.012845243059747222 -0.00045154360456641245 -0.004161591935086626 0.0005184778356446828 0.006663607358340337
 0.000517613534914653 0.006663697833646709 -0.00045154360456641245 -0.004161591935086626 0.0026882533643955943 0.012846024152561262 0.9968580744397224 -0.031304505827774005
 -0.00045119511609148245 -0.004161590039561387 0.0005184778356446828 0.006663607358340337 0.9968580744397224 -0.031304505827774005 0.0026881181266556037 0.012846058454052539
0.06877865777407 0.0028905153240717245 0.014210383333999271 0.9965918576444865 -0.03449720686815656 0.0005948854318741432 0.007334505213471273 -0.0005168491169676096 -0.004583798894133074
 0.9965918576444865 -0.03449720686815656 0.002889869740814454 0.014210458171330775 -0.0005172694060796554 -0.0045837974308419885 0.0005959305620746795 0.007334395302913404
 0.0005948854318741432 0.007334505213471273 -0.0005172694060796554 -0.0045837974308419885 0.002890295078174806 0.014211311527834483 0.9965918798211905 -0.034496287219371646
 -0.0005168491169676096 -0.004583798894133074 0.0005959305620746795 0.007334395302913404 0.9965918798211905 -0.034496287219371646 0.0028901317144050536 0.014211352888152312
0.07503126302626001 0.0031026729422496176 0.015589003641183936 0.9963122151676269 -0.0377007362338017 0.000677850509461117 0.00800595303403727 -0.0005873003116295713 -0.005006824510891512
 0.9963122151676269 -0.0377007362338017 0.0031019049663558083 0.015589091740916456 -0.0005877989156130684 -0.0050068188198991405 0.0006790935672156307 0.008005821160061662
 0.000677850509461117 0.00800595303403727 -0.0005877989156130684 -0.0050068188198991405 0.0031024104233525166 0.015590016045946894 0.9963122413038372 -0.03769973265560535
 -0.0005873003116295713 -0.005006824510891512 0.0006790935672156307 0.008005821160061662 0.9963122413038372 -0.03769973265560535 0.0031022163316273563 0.015590065187243488
0.08128386827845 0.003325096450693302 0.016980873101327204 0.9960189460901039 -0.04091589580678227 0.0007665656914024852 0.008677983840995735 -0.0006626070573520049 -0.005430602652564993
 0.9960189460901039 -0.04091589580678227 0.003324195508121827 0.016980975834388463 -0.0006631904439554457 -0.0054305918089281695 0.0007680237587788892 0.008677827312115739
 0.0007665656914024852 0.008677983840995735 -0.0006631904439554457 -0.0054305918089281695 0.0033247879203120744 0.016981969707665003 0.9960189765243354 -0.04091480817426603
 -0.0006626070573520049 -0.005430602652564993 0.0007680237587788892 0.008677827312115739 0.9960189765243354 -0.04091480817426603 0.0033245605121115527 0.016982027367466738
0.08753647353064001 0.003557974028043732 0.018385831449736368 0.9957118677467892 -0.044142638539689416 0.0008610873106632717 0.00935053798392097 -0.0007428270198445499 -0.005855068397466595
 0.9957118677467892 -0.044142638539689416 0.0035569295540862247 0.01838595025744036 -0.0007435016108097224 -0.005855051420187632 0.0008627774521102694 0.009350353944226104
 0.0008610873106632717 0.00935053798392097 -0.0007435016108097224 -0.005855051420187632 0.003557615739372092 0.018387012248392995 0.9957119028226682 -0.0441414667167346
 -0.0007428270198445499 -0.005855068397466595 0.0008627774521102694 0.009350353944226104 0.9957119028226682 -0.0441414667167346 0.0035573524393068693 0.01838707917954013
0.09378907878283 0.003801493507847934 0.019803723878222997 0.9953907972757932 -0.0473809065221001 0.0009614710677424029 0.01002355378270518 -0.0008280171485703567 -0.006280155968399489
 0.9953907972757932 -0.0473809065221001 0.003800294947386103 0.01980386027307677 -0.0008287893198984648 -0.0062801318204440395 0.0009634103284467711 0.010023339210784129
 0.0009614710677424029 0.01002355378270518 -0.0008287893198984648 -0.0062801318204440395 0.0038010817046666284 0.019804988866216976 0.9953908373417024 -0.04737965035552428
 -0.0008280171485703567 -0.006280155968399489 0.0009634103284467711 0.010023339210784129 0.9953908373417024 -0.04737965035552428 0.003800779950830697 0.01980506583674143
0.100041684035 0.004055842369039934 0.021234399375020044 0.9950555517059486 -0.05063063259762094 0.001067771990946455 0.010696967644186392 -0.0009182336493323291 -0.006705798612737947
 0.9950555517059486 -0.05063063259762094 0.00405447917637178 0.021234554941454296 -0.0009191097314878784 -0.006705766201050589 0.001069977394760908 0.010696719352097695
 0.001067771990946455 0.010696967644186392 -0.0009191097314878784 -0.006705766201050589 0.0040553732861341 0.021235748548305407 0.9950555971161876 -0.050629291924768234
 -0.0009182336493323291 -0.006705798612737947 0.001069977394760908 0.010696719352097695 0.9950555971161876 -0.050629291924768234 0.00405503052985347 0.021235836341381324
0.1059090909091 0.004304537679724317 0.02258843035558024 0.9947279041871319 -0.053690509982938825 0.0011729541246700158 0.011329198913812247 -0.0010075130857575309 -0.007105663525048239
 0.9947279041871319 -0.053690509982938825 0.004303010414861961 0.0225886054182437 -0.0010084923942488301 -0.007105622314719889 0.0011754247378007285 0.01132891593026344
 0.0011729541246700158 0.011329198913812247 -0.0010084923942488301 -0.007105622314719889 0.0043040114124225076 0.022589858530150116 0.9947279549396197 -0.05368908984688459
 -0.0010075130857575309 -0.007105663525048239 0.0011754247378007285 0.01132891593026344 0.9947279549396197 -0.05368908984688459 0.0043036278736958734 0.0225899572047102
0.1062942892872 0.004321207718401939 0.02267770946223878 0.9947059480388378 -0.0538917415848636 0.0011800443976407535 0.011370714150872928 -0.00101353195478765 -0.007131928511963483
 0.9947059480388378 -0.0538917415848636 0.004319669357737485 0.022677885857355806 -0.0010145182328243412 -0.007131886687493779 0.0011825329450770319 0.011370428783107223
 0.0011800443976407535 0.011370714150872928 -0.0010145182328243412 -0.007131886687493779 0.004320677580401871 0.022679142823626434 0.9947059991531786 -0.05389031622602983
 -0.00101353195478765 -0.007131928511963483 0.0011825329450770319 0.011370428783107223 0.9947059991531786 -0.05389031622602983 0.004320291286523871 0.022679242237438956
0.11254689453939999 0.004597776264628479 0.024133507240467634 0.9943418033231666 -0.057164151192885204 0.0012983418553941624 0.012044726130867637 -0.0011139666944717029 -0.007558476711479792
 0.9943418033231666 -0.057164151192885204 0.004596052210097806 0.02413370619475747 -0.001115069408095876 -0.007558424269208033 0.001301130521255719 0.012044400163400498
 0.0012983418553941624 0.012044726130867637 -0.001115069408095876 -0.007558424269208033 0.004597181286313377 0.024135024795093624 0.9943418605082196 -0.057162640956254104
 -0.0011139666944717029 -0.007558476711479792 0.001301130521255719 0.012044400163400498 0.9943418605082196 -0.057162640956254104 0.004596748932930309 0.0241351366427758
0.11879949979160001 0.004885734287803304 0.025601646631026695 0.9939629347266943 -0.0604477727406369 0.00142271714410688 0.012718934709728727 -0.0012195916628564636 -0.007985373070108786
 0.9939629347266943 -0.0604477727406369 0.004883814023747777 0.02560186994919447 -0.001220817006395657 -0.007985308749092798 0.0014258228751588813 0.012718564449023568
 0.00142271714410688 0.012718934709728727 -0.001220817006395657 -0.007985308749092798 0.004885070673347526 0.025603248389035313 0.9939629983555379 -0.060446177419872
 -0.0012195916628564636 -0.007985373070108786 0.0014258228751588813 0.012718564449023568 0.9939629983555379 -0.060446177419872 0.004884589752054055 0.02560337349859384
0.1250521050438 0.0051852676035702904 0.02708198178698294 0.9935691596043766 -0.06374251170933959 0.0015532222179234505 0.013393269356912502 -0.0013304597869610811 -0.008412546216618397
 0.9935691596043766 -0.06374251170933959 0.005183140624905048 0.02708223134863966 -0.0013318139093113333 -0.008412468700032611 0.0015566619303586605 0.01339285093907893
 0.0015532222179234505 0.013393269356912502 -0.0013318139093113333 -0.008412468700032611 0.005184531546229155 0.02708366776044211 0.9935692300572493 -0.06374083108714014
 -0.0013304597869610811 -0.008412546216618397 0.0015566619303586605 0.01339285093907893 0.9935692300572493 -0.06374083108714014 0.005183999562197456 0.02708380697465501
0.131304710296 0.005496561524296682 0.028574366603087646 0.9931602955648231 -0.06704826819778342 0.0016899081675609113 0.014067657919214015 -0.001446623092781993 -0.008839923520947583
 0.9931602955648231 -0.06704826819778342 0.005494217336570312 0.028574644363587687 -0.0014481120973298153 -0.008839831436135152 0.0016936987443438186 0.014067187309106423
 0.0016899081675609113 0.014067657919214015 -0.0014481120973298153 -0.008839831436135152 0.005495749206091615 0.028576136813123973 0.9931603732297525 -0.06704650203910455
 -0.001446623092781993 -0.008839923520947583 0.0016936987443438186 0.014067187309106423 0.9931603732297525 -0.06704650203910455 0.005495163677798934 0.028576290989482122
0.1375573155481 0.005740840948920517 0.02988196350194077 0.9928151394900777 -0.07016818995693487 0.0018133211603778435 0.014721087575125325 -0.001548627340686645 -0.009246502854991656
 0.9928151394900777 -0.07016818995693487 0.005738269163428963 0.029882265318664808 -0.0015502602100532976 -0.009246396398803794 0.001817475710424971 0.014720566183511643
 0.0018133211603778435 0.014721087575125325 -0.0015502602100532976 -0.009246396398803794 0.005739949111663912 0.029883818060802446 0.9928152246919069 -0.07016633812269336
 -0.001548627340686645 -0.009246502854991656 0.001817475710424971 0.014720566183511643 0.9928152246919069 -0.07016633812269336 0.0057393066547199376 0.029883981909665118
0.1438099208003 0.005993418680355582 0.031183840683142106 0.9924583661035712 -0.07328142421989761 0.0019417210178878657 0.015372714840467958 -0.0016547344531581555 -0.009651432751220382
 0.9924583661035712 -0.07328142421989761 0.005990608849107814 0.031184168037492563 -0.0016565177443886867 -0.00965131060514465 0.001946255689166355 0.015372139002578493
 0.0019417210178878657 0.015372714840467958 -0.0016565177443886867 -0.00965131060514465 0.005992443590918002 0.031185779602448158 0.992458459228723 -0.07327948648036825
 -0.0016547344531581555 -0.009651432751220382 0.001946255689166355 0.015372139002578493 0.992458459228723 -0.07327948648036825 0.00599174159221913 0.03118595347167387
0.1500625260525 0.00625422034418491 0.032479925004848316 0.9920900524990756 -0.0763879305481198 0.0020750728806218925 0.0160225006458961 -0.0017649104520123125 -0.010054674817966316
 0.9920900524990756 -0.0763879305481198 0.006251162032410309 0.03248027944161516 -0.0017668507134288199 -0.010054535611265448 0.0020800037452050183 0.01602186656342293
 0.0020750728806218925 0.0160225006458961 -0.0017668507134288199 -0.010054535611265448 0.00625315826508232 0.032481948297815526 0.9920901539402257 -0.0763859066629516
 -0.0017649104520123125 -0.010054674817966316 0.0020800037452050183 0.01602186656342293 0.9920901539402257 -0.0763859066629516 0.0062523941156256094 0.032482132552925626
0.15631513130469998 0.006523171201614294 0.03377014576109632 0.9917102759814848 -0.07948766797020183 0.0022133415855623926 0.016670406427280755 -0.0018791210373383304 -0.010456191382963859
