! Created with skrf 1.8.0 (http://scikit-rf.org).
# GHz S RI R 50.0 
!freq ReS11 ImS11 ReS12 ImS12 ReS13 ImS13
! ReS14 ImS14
! ReS21 ImS21 ReS22 ImS22 ReS23 ImS23
! ReS24 ImS24
! ReS31 ImS31 ReS32 ImS32 ReS33 ImS33
! ReS34 ImS34
! ReS41 ImS41 ReS42 ImS42 ReS43 ImS43
! ReS44 ImS44
!
0.0 0.001602011832438 0.0 0.9983979881505 0.0 6.175190070299e-05 0.0 -6.175190034718e-05 7.562426710144032e-21
 0.9983979881505 0.0 0.001602011832434 0.0 -6.175190034725e-05 7.562426710152605e-21 6.175190070198e-05 0.0
 6.175190070299e-05 0.0 -6.175190034725e-05 7.562426710152605e-21 0.001602011839545 0.0 0.9983979881576 0.0
 -6.175190034718e-05 7.562426710144032e-21 6.175190070198e-05 0.0 0.9983979881576 0.0 0.001602011839542 0.0
0.005 0.0017237691853288079 0.0013129961486567426 0.9982439256294161 -0.0033554802590914836 8.624482550240536e-05 0.0006647378347486338 -8.381310711767894e-05 -0.000419954089920524
 0.9982439256294161 -0.0033554802590914836 0.0017237912211483534 0.0013129832417537474 -8.381193934947604e-05 -0.0004199531457806607 8.611791849413683e-05 0.0006647862233314741
 8.624482550240536e-05 0.0006647378347486338 -8.381193934947604e-05 -0.0004199531457806607 0.0017237703902138293 0.0013130626685120966 0.9982439259898448 -0.003355413194369492
 -8.381310711767894e-05 -0.000419954089920524 8.611791849413683e-05 0.0006647862233314741 0.9982439259898448 -0.003355413194369492 0.0017237907296998678 0.0013130508447903213
0.006252605252188 0.0017557506901407598 0.0016463910970894065 0.99820319485835 -0.004195161567011132 9.327414052612274e-05 0.0008312479254900208 -9.005989996513995e-05 -0.0005254788767357729
 0.99820319485835 -0.004195161567011132 0.0017557851363159186 0.0016463746898321364 -9.00580831907248e-05 -0.0005254777117066418 9.307586124739224e-05 0.0008313107579879663
 9.327414052612274e-05 0.0008312479254900208 -9.00580831907248e-05 -0.0005254777117066418 0.0017557525072397038 0.0016464742307622275 0.998203195355135 -0.0041950777432226
 -9.005989996513995e-05 -0.0005254788767357729 9.307586124739224e-05 0.0008313107579879663 0.998203195355135 -0.0041950777432226 0.001755784300907588 0.0016464591891089877
0.01250521050438 0.0019243892837761392 0.003327098838535466 0.9979869628714622 -0.00839105398132305 0.00013375310842002005 0.0016628730643241183 -0.00012560027391386012 -0.0010534567422126886
 0.9979869628714622 -0.00839105398132305 0.0019245268317450034 0.0033270632437451186 -0.00012559311873009223 -0.0010534545782806453 0.0001329624439893348 0.001663024118192494
 0.00013375310842002005 0.0016628730643241183 -0.00012559311873009223 -0.0010534545782806453 0.001924395973066399 0.0033272647396762585 0.9979869642844603 -0.008390886579380124
 -0.00012560027391386012 -0.0010534567422126886 0.0001329624439893348 0.001663024118192494 0.9979869642844603 -0.008390886579380124 0.0019245229152640279 0.003327232010058055
0.01875781575657 0.002108307056684706 0.005031569590823977 0.9977490154655424 -0.012597873708962351 0.00018328388634469036 0.002495403505346103 -0.00016848412597931137 -0.0015831871724841622
 0.9977490154655424 -0.012597873708962351 0.002108616141927029 0.005031511778390748 -0.00016846817604686213 -0.001583184207564457 0.0001815078122563076 0.0024956732978455983
 0.00018328388634469036 0.002495403505346103 -0.00016846817604686213 -0.001583184207564457 0.002108321672201683 0.0050318180061201595 0.9977490182188673 -0.01259762278108104
 -0.00016848412597931137 -0.0015831871724841622 0.0001815078122563076 0.0024956732978455983 0.9977490182188673 -0.01259762278108104 0.002108606898181992 0.005031764745814036
0.02501042100875 0.0023078715505767547 0.006757410130056443 0.9974890646570688 -0.016817644951958918 0.00024196313370064874 0.003328858352386335 -0.00021881885481093822 -0.0021144264685815954
 0.9974890646570688 -0.016817644951958918 0.0023084204767241704 0.006757326842604017 -0.00021879069727691577 -0.002114422935964931 0.00023880852714503397 0.0033292823558388035
 0.00024196313370064874 0.003328858352386335 -0.00021879069727691577 -0.002114422935964931 0.002307897145427571 0.0067577407529804834 0.9974890691778058 -0.01681731052380177
 -0.00021881885481093822 -0.0021144264685815954 0.00023880852714503397 0.0033292823558388035 0.9974890691778058 -0.01681731052380177 0.0023084036526262014 0.006757663943540443
0.03126302626094 0.0025234351264505836 0.008503381781038474 0.9972068081771648 -0.021051225489614845 0.00030988789804653596 0.0041631817777630226 -0.0002767087462271679 -0.002646999528212427
 0.9972068081771648 -0.021051225489614845 0.002524292101689473 0.00850326953768481 -0.00027666500436332263 -0.0026469956969502714 0.00030496117742885836 0.0041638004474379596
 0.00030988789804653596 0.0041631817777630226 -0.00027666500436332263 -0.0026469956969502714 0.002523474749758318 0.00850379426761197 0.9972068148928173 -0.021050807544098202
 -0.0002767087462271679 -0.002646999528212427 0.00030496117742885836 0.0041638004474379596 0.9972068148928173 -0.021050807544098202 0.002524265432568245 0.008503690718943933
0.037515631513130004 0.002755342413084864 0.01026867155449434 0.9969019371745318 -0.02529903547931092 0.0003871546183962965 0.004998288114364201 -0.00034225568865996637 -0.003180754753546082
 0.9969019371745318 -0.02529903547931092 0.0027565755742074674 0.010268526652410128 -0.0003421930180756208 -0.0031807509285519376 0.00038006158586202004 0.0049991469370853706
 0.0003871546183962965 0.004998288114364201 -0.0003421930180756208 -0.0031807509285519376 0.0027553991118392765 0.010269165502016437 0.9969019465155603 -0.025298533977362814
 -0.00034225568865996637 -0.003180754753546082 0.00038006158586202004 0.0049991469370853706 0.9969019465155603 -0.025298533977362814 0.0027565367851161604 0.010269031854460917
0.043768236765320004 0.003003933178482353 0.012052670302411335 0.9965741393453824 -0.029561279229089094 0.0004738586521970313 0.005834075570369002 -0.00041555942285368373 -0.003715550342195171
 0.9965741393453824 -0.029561279229089094 0.003005610609804132 0.012052488817165629 -0.00041547450922504715 -0.0037155468642170566 0.00046420442225537885 0.00583522511960862
 0.0004738586521970313 0.005834075570369002 -0.00041547450922504715 -0.0037155468642170566 0.0030040099974045563 0.012053245253827298 0.9965741517470221 -0.029560694104576735
 -0.00041555942285368373 -0.003715550342195171 0.00046420442225537885 0.00583522511960862 0.9965741517470221 -0.029560694104576735 0.003005557415395851 0.012053077979367936
0.050020842017509996 0.003269543665419435 0.013854881054910612 0.9962231005334095 -0.03383803678658176 0.000570093988023043 0.00667043189689825 -0.000496717623911351 -0.004251248629356014
 0.9962231005334095 -0.03383803678658176 0.003271733415500347 0.013854658840354757 -0.0004966071816115116 -0.004251245874960345 0.0005574829627571259 0.006671927890380809
 0.000570093988023043 0.00667043189689825 -0.0004966071816115116 -0.004251245874960345 0.0032696436461121517 0.013855536491580712 0.9962231164354738 -0.033837367953034915
 -0.000496717623911351 -0.004251248629356014 0.0005574829627571259 0.006671927890380809 0.9962231164354738 -0.033837367953034915 0.0032716635184567664 0.01385533189444665
0.055454545454549996 0.003514448316370873 0.015435512198417715 0.9958989179623426 -0.037566457727759 0.000661537808579445 0.007397619906460763 -0.0005736996619799918 -0.004717413913104726
 0.9958989179623426 -0.037566457727759 0.0035171385338768693 0.01543525104894851 -0.0005735643876526594 -0.0047174121211127715 0.0006460354130834377 0.007399466259513407
 0.000661537808579445 0.007397619906460763 -0.0005735643876526594 -0.0047174121211127715 0.0035145708919198902 0.015436237108737656 0.9958989372676392 -0.037565716063433244
 -0.0005736996619799918 -0.004717413913104726 0.0006460354130834377 0.007399466259513407 0.9958989372676392 -0.037565716063433244 0.0035170522462232624 0.015435996945436873
0.056273447269699996 0.003552507265394838 0.01567487402067997 0.9958485056710957 -0.038129308866381585 0.0006759530388185567 0.007507237176143878 -0.0005858259106390519 -0.004787713313865786
 0.9958485056710957 -0.038129308866381585 0.0035552773615830885 0.01567460670821605 -0.0005856866816857519 -0.004787711695373663 0.0006599889105453988 0.00750914053450401
 0.0006759530388185567 0.007507237176143878 -0.0005856866816857519 -0.004787711695373663 0.0035526334447716894 0.015675609362704603 0.9958485255186198 -0.03812855621597144
 -0.0005858259106390519 -0.004787713313865786 0.0006599889105453988 0.00750914053450401 0.9958485255186198 -0.03812855621597144 0.00355518845189643 0.015675363579449476
0.06252605252188 0.003853154878351756 0.01751226185621466 0.9954500394124172 -0.042435041511900085 0.0007915264775151336 0.008344365349438028 -0.0006829778148210419 -0.005324807948999455
 0.9954500394124172 -0.042435041511900085 0.0038565733407823063 0.017511944853741027 -0.0006828065681788023 -0.0053248079144496375 0.0007718122502563241 0.008346742255217159
 0.0007915264775151336 0.008344365349438028 -0.0006828065681788023 -0.0053248079144496375 0.003853310288256223 0.017513076456114756 0.9954500636567251 -0.04243420492134009
 -0.0006829778148210419 -0.005324807948999455 0.0007718122502563241 0.008346742255217159 0.9954500636567251 -0.04243420492134009 0.003856463095757298 0.017512785455237618
0.06877865777407 0.004171815093137606 0.019366684913858165 0.995027386590881 -0.04675514078334062 0.0009169030943328082 0.009181685141191118 -0.0007882647300015965 -0.005862395042509055
 0.995027386590881 -0.04675514078334062 0.004175949948436234 0.01936631340396543 -0.0007880582611686479 -0.00586239707557979 0.0008930411181067819 0.009184607097713831
 0.0009169030943328082 0.009181685141191118 -0.0007880582611686479 -0.00586239707557979 0.004172002759354958 0.01936757806598555 0.9950274156899734 -0.046754220103745095
 -0.0007882647300015965 -0.005862395042509055 0.0008930411181067819 0.009184607097713831 0.9950274156899734 -0.046754220103745095 0.004175816031589704 0.01936723764714391
0.07503126302626001 0.004508814266820236 0.021237801896321393 0.9945802325798143 -0.05108948204395618 0.0010521696678023325 0.010019060646477177 -0.0009017758463276314 -0.006400335498301763
 0.9945802325798143 -0.05108948204395618 0.004513733561113633 0.021237370834308423 -0.0009015309769401375 -0.006400340118258191 0.0010237616829460586 0.010022604536341203
 0.0010521696678023325 0.010019060646477177 -0.0009015309769401375 -0.006400340118258191 0.004509037208001842 0.021238772826374153 0.9945802669996372 -0.05108847711099334
 -0.0009017758463276314 -0.006400335498301763 0.0010237616829460586 0.010022604536341203 0.9945802669996372 -0.05108847711099334 0.0045135736221133356 0.0212383786190339
0.08128386827845 0.004864476537348222 0.023125283639483223 0.9941082635911263 -0.055437916124254125 0.0011974108441990588 0.010856351732710294 -0.0010235980764418942 -0.006938488249518063
 0.9941082635911263 -0.055437916124254125 0.004870248349140619 0.023124787750795246 -0.0010233116540913155 -0.006938496011144192 0.0011640580334100793 0.010860599875748573
 0.0011974108441990588 0.010856351732710294 -0.0010233116540913155 -0.006938496011144192 0.0048647377637335365 0.023126331510316796 0.9941083038057373 -0.05543682675178026
 -0.0010235980764418942 -0.006938488249518063 0.0011640580334100793 0.010860599875748573 0.9941083038057373 -0.05543682675178026 0.004870060022716549 0.02312587897205448
0.08753647353064001 0.005239123792438113 0.025028808814860765 0.9936111669336326 -0.05980027357242035 0.0013527090224643844 0.011693414319390864 -0.0011538159753224247 -0.0074767100193392265
 0.9936111669336326 -0.05980027357242035 0.005245816245868642 0.025028242592014267 -0.0011534848734243873 -0.007476721512863629 0.0013140120690113598 0.011698454529883391
 0.0013527090224643844 0.011693414319390864 -0.0011534848734243873 -0.007476721512863629 0.005239426305173338 0.02502993272418652 0.9936112134264118 -0.059799099554428206
 -0.0011538159753224247 -0.0074767100193392265 0.0013140120690113598 0.011698454529883391 0.9936112134264118 -0.059799099554428206 0.005245597151645789 0.025029417138440754
0.09378907878283 0.005633075609615391 0.026948060862871673 0.993088631246873 -0.0641763676807046 0.0015181442425709496 0.012530100592422249 -0.0012925116558319574 -0.008014855153025666
 0.993088631246873 -0.0641763676807046 0.005640756886920494 0.026947418561950955 -0.0012921327734989796 -0.008014871004060852 0.001473703393832227 0.01253602623546214
 0.0015181442425709496 0.012530100592422249 -0.0012921327734989796 -0.008014871004060852 0.005633422399020071 0.026949259838827996 0.993088684511061 -0.06417510879528977
 -0.0012925116558319574 -0.008014855153025666 0.001473703393832227 0.01253602623546214 0.993088684511061 -0.06417510879528977 0.005640504628721693 0.026948676312116466
0.100041684035 0.0060466491735024315 0.0288827257437415 0.9925403467156539 -0.06856599670068762 0.0016937940766271148 0.013366259166122363 -0.0014397647007817868 -0.008552775508331032
 0.9925403467156539 -0.06856599670068762 0.006055387527980376 0.02888200138035006 -0.0014393349628670173 -0.008552796377781563 0.0016432092121195412 0.013373169213067257
 0.0016937940766271148 0.013366259166122363 -0.0014393349628670173 -0.008552796377781563 0.006047043218171514 0.028883998749855186 0.9925404072547439 -0.06856465270479024
 -0.0014397647007817868 -0.008552775508331032 0.0016432092121195412 0.013373169213067257 0.9925404072547439 -0.06856465270479024 0.00605509969305638 0.028883342208631858
0.1059090909091 0.006452870221126038 0.03071194233597744 0.9920021470983759 -0.07269731634330517 0.0018679797353662597 0.014150287493578936 -0.0015857974871253018 -0.009057218063513985
 0.9920021470983759 -0.07269731634330517 0.00646266268066178 0.030711135304750184 -0.0015853172527321002 -0.00905724427468427 0.0018112651942933196 0.014158216354342508
 0.0018679797353662597 0.014150287493578936 -0.0015853172527321002 -0.00905724427468427 0.006453311307442962 0.03071328380798055 0.9920022149325742 -0.07269589224348788
 -0.0015857974871253018 -0.009057218063513985 0.0018112651942933196 0.014158216354342508 0.9920022149325742 -0.07269589224348788 0.006462339251634536 0.03071255397227048
0.1062942892872 0.0064801591771003544 0.030832490254346846 0.9919660052721294 -0.07296894549990213 0.0018797335213745605 0.01420173521533051 -0.001595652072974788 -0.009090320381990376
 0.9919660052721294 -0.07296894549990213 0.006490022945947966 0.030831677599122354 -0.0015951684300338654 -0.009090346965991895 0.001822604224925681 0.014209734298197406
 0.0018797335213745605 0.01420173521533051 -0.0015951684300338654 -0.009090346965991895 0.006480603442840596 0.030833836186348614 0.9919660736014757 -0.07296751613227317
 -0.001595652072974788 -0.009090320381990376 0.001822604224925681 0.014209734298197406 0.9919660736014757 -0.07296751613227317 0.0064896971050754015 0.030833101373165975
0.11254689453939999 0.0069339177118206445 0.032797040741151154 0.9913653007900121 -0.07738498682960451 0.0020760348924651357 0.015036370587817753 -0.0017602480230643322 -0.009627336462233668
 0.9913653007900121 -0.07738498682960451 0.006944975329083454 0.0327961333145712 -0.0017597074514598878 -0.009627369492052685 0.002011960527672264 0.015045569052560494
 0.0020760348924651357 0.015036370587817753 -0.0017597074514598878 -0.009627369492052685 0.00693441515007942 0.03279845842603902 0.9913653774370618 -0.07738347181140179
 -0.0017602480230643322 -0.009627336462233668 0.002011960527672264 0.015045569052560494 0.9913653774370618 -0.07738347181140179 0.006944609035248134 0.03279763989525909
0.11879949979160001 0.007408234147061135 0.03477606210245984 0.9907379292717703 -0.08181388231069553 0.0022827677194794216 0.01587000389924651 -0.001933623996084905 -0.010163667805147904
 0.9907379292717703 -0.08181388231069553 0.007420554156199564 0.03477505316937083 -0.0019330234980341067 -0.01016370804710431 0.0022113475087548523 0.015880517857837336
 0.0022827677194794216 0.01587000389924651 -0.0019330234980341067 -0.01016370804710431 0.0074087876935474 0.03477755030086452 0.9907380147766373 -0.08181228134301291
 -0.001933623996084905 -0.010163667805147904 0.0022113475087548523 0.015880517857837336 0.9907380147766373 -0.08181228134301291 0.007420144944490315 0.034776642413872245
0.1250521050438 0.007903415002138403 0.036769237005573635 0.9900835890305796 -0.08625538321257649 0.0024999986418610004 0.01670247062158367 -0.0021158485371019224 -0.010699155824108015
 0.9900835890305796 -0.08625538321257649 0.007917066069248337 0.036768119568908346 -0.0021151851407998565 -0.010699204079492508 0.0024208317482188 0.016714422002800405
 0.0024999986418610004 0.01670247062158367 -0.0021151851407998565 -0.010699204079492508 0.007904027576054427 0.03677079440881358 0.9900836839477236 -0.08625369597926882
 -0.0021158485371019224 -0.010699155824108015 0.0024208317482188 0.016714422002800405 0.9900836839477236 -0.08625369597926882 0.007916611456364442 0.03676979132853844
0.131304710296 0.008419763812441557 0.038776245262701244 0.9894019808701505 -0.09070923108114583 0.0027277913055077574 0.01753360316386273 -0.0023069871960503083 -0.011233639293529817
 0.9894019808701505 -0.09070923108114583 0.008434814739101583 0.03877501205676086 -0.0023062579557855648 -0.011233696398476895 0.0026404769172888244 0.01754711976277156
 0.0027277913055077574 0.01753360316386273 -0.0023062579557855648 -0.011233696398476895 0.008420438314677864 0.03877787049403603 0.9894020857681808 -0.09070745724740989
 -0.0023069871960503083 -0.011233639293529817 0.0026404769172888244 0.01754711976277156 0.9894020857681808 -0.09070745724740989 0.00843431222257286 0.03877676617897247
0.1375573155481 0.008840969462515476 0.040536064802452795 0.9888094671394347 -0.0949143413847939 0.002938314434875193 0.01833768751067877 -0.002479313780719082 -0.011741352456283504
 0.9888094671394347 -0.0949143413847939 0.008857493290737409 0.04053473382381625 -0.002478514185793271 -0.011741418502822643 0.002842649930135024 0.018352753396317995
 0.002938314434875193 0.01833768751067877 -0.002478514185793271 -0.011741418502822643 0.008841708052984744 0.04053775689025846 0.9888095824826195 -0.09491248075838296
 -0.002479313780719082 -0.011741352456283504 0.002842649930135024 0.018352753396317995 0.9888095824826195 -0.09491248075838296 0.008856941291730853 0.040536569970747414
0.1438099208003 0.009277061498636113 0.04228629407448451 0.9881959851544085 -0.09910844559151774 0.003157335674553824 0.01913821238897297 -0.002658513582905744 -0.01224584289253692
 0.9881959851544085 -0.09910844559151774 0.009295127828959837 0.04228485956058432 -0.002657640443628172 -0.012245918709730321 0.003052956065784643 0.01915494483016536
 0.003157335674553824 0.01913821238897297 -0.002657640443628172 -0.012245918709730321 0.009277866919058844 0.04228805162299729 0.9881961115109161 -0.09910649784689081
 -0.002658513582905744 -0.01224584289253692 0.003052956065784643 0.01915494483016536 0.9881961115109161 -0.09910649784689081 0.009294523984404078 0.04228677753260192
0.1500625260525 0.009727881319287408 0.04402677679794501 0.9875616977971865 -0.103291428895587 0.0033847761555276484 0.019935086308642255 -0.0028445108557788716 -0.012747026158519323
 0.9875616977971865 -0.103291428895587 0.009747559898942194 0.044025232660868344 -0.0028435609887963254 -0.012747112608975892 0.0032713187678237226 0.019953606854606083
 0.0033847761555276484 0.019935086308642255 -0.0028435609887963254 -0.012747112608975892 0.009728756285483406 0.04402859835882927 0.9875618357473939 -0.10328939369336822
 -0.0028445108557788716 -0.012747026158519323 0.0032713187678237226 0.019953606854606083 0.9875618357473939 -0.10328939369336822 0.009746901838061482 0.044027232252363414
0.15631513130469998 0.01019326914054438 0.04575736138177266 0.9869067688389813 -0.10746317712122488 0.0036205560331341565 0.020728219399500255 -0.003037228886351016 -0.013244819651593322
