! Created with skrf 1.8.0 (http://scikit-rf.org).
# GHz S RI R 50.0 
!freq ReS11 ImS11 ReS12 ImS12 ReS13 ImS13
! ReS14 ImS14
! ReS21 ImS21 ReS22 ImS22 ReS23 ImS23
! ReS24 ImS24
! ReS31 ImS31 ReS32 ImS32 ReS33 ImS33
! ReS34 ImS34
! ReS41 ImS41 ReS42 ImS42 ReS43 ImS43
! ReS44 ImS44
!
0.0 0.001527956909768 0.0 0.9984720430874 0.0 5.895901236223e-05 0.0 -5.895901351608e-05 7.22039671833529e-21
 0.9984720430874 0.0 0.001527956909713 0.0 -5.895901351566e-05 7.220396718283856e-21 5.895901236029e-05 0.0
 5.895901236223e-05 0.0 -5.895901351566e-05 7.220396718283856e-21 0.001527956891273 0.0 0.998472043069 0.0
 -5.895901351608e-05 7.22039671833529e-21 5.895901236029e-05 0.0 0.998472043069 0.0 0.001527956891243 0.0
0.005 0.001643934774672962 0.0012491533897773409 0.9983253415562507 -0.003200735899639476 8.261905970355768e-05 0.0006550823846284632 -8.030183381873303e-05 -0.000410222553909858
 0.9983253415562507 -0.003200735899639476 0.001643913882796958 0.0012491656007839911 -8.030279988491151e-05 -0.00041022334523999033 8.275658314170194e-05 0.0006550302415163911
 8.261905970355768e-05 0.0006550823846284632 -8.030279988491151e-05 -0.00041022334523999033 0.0016439336657862302 0.0012490868120238574 0.9983253411930544 -0.0032008029571373316
 -8.030183381873303e-05 -0.000410222553909858 8.275658314170194e-05 0.0006550302415163911 0.9983253411930544 -0.0032008029571373316 0.0016439142657313605 0.001249098062109843
0.006252605252188 0.0016743427086065206 0.001566361353339494 0.9982866431392189 -0.00400170511466073 8.934411999772564e-05 0.0008191703933110308 -8.632078203331908e-05 -0.0005133105177224258
 0.9982866431392189 -0.00400170511466073 0.001674310050075661 0.0015663768040416193 -8.632228492907333e-05 -0.0005133114944859197 8.955899040206689e-05 0.0008191026553737727
 8.934411999772564e-05 0.0008191703933110308 -8.632228492907333e-05 -0.0005133114944859197 0.0016743410609101372 0.0015662781450605573 0.9982866426576437 -0.004001788927680712
 -8.632078203331908e-05 -0.0005133105177224258 8.955899040206689e-05 0.0008191026553737727 0.9982866426576437 -0.004001788927680712 0.0016743107352252217 0.0015662923835551997
0.01250521050438 0.0018343607045406384 0.003165584551161241 0.9980816937582992 -0.008004231127938405 0.00012773026177620577 0.001638706188505909 -0.00012043427268561827 -0.0010291226266187228
 0.9980816937582992 -0.008004231127938405 0.0018342302906412143 0.00316561732820677 -0.00012044019081473274 -0.0010291244449351638 0.00012858720081046802 0.0016385431457915725
 0.00012773026177620577 0.001638706188505909 -0.00012044019081473274 -0.0010291244449351638 0.001834354677842839 0.003165418431569073 0.9980816923951246 -0.008004398512523403
 -0.00012043427268561827 -0.0010291226266187228 0.00012858720081046802 0.0016385431457915725 0.9980816923951246 -0.008004398512523403 0.0018342335927319603 0.003165448657988335
0.01875781575657 0.002008357972318686 0.004787611218474407 0.9978569416342321 -0.012017322544166499 0.0001742076358046177 0.0024591660588533667 -0.00016140419438383962 -0.0015466875936435759
 0.9978569416342321 -0.012017322544166499 0.002008064913092947 0.0047876633344110546 -0.00016141738562759877 -0.0015466900940686768 0.00017613285630497963 0.002458874830615335
 0.0001742076358046177 0.0024591660588533667 -0.00016141738562759877 -0.0015466900940686768 0.002008344839486835 0.004787362368123283 0.9978569389940518 -0.012017573390581036
 -0.00016140419438383962 -0.0015466875936435759 0.00017613285630497963 0.002458874830615335 0.9978569389940518 -0.012017573390581036 0.002008072769415915 0.004787410423687032
0.02501042100875 0.002196671493132489 0.006430171120649983 0.9976121235201467 -0.016042925370197657 0.0002288669310925868 0.0032805893332395965 -0.00020933185417828658 -0.002065770259767916
 0.9976121235201467 -0.016042925370197657 0.002196151019179199 0.00643024469892375 -0.00020935514028942858 -0.0020657732556411575 0.0002322869251318906 0.0032801318989940428
 0.0002288669310925868 0.0032805893332395965 -0.00020935514028942858 -0.0020657732556411575 0.00219664852193746 0.006429839707672928 0.9976121192062367 -0.016043259595830736
 -0.00020933185417828658 -0.002065770259767916 0.0002322869251318906 0.0032801318989940428 0.9976121192062367 -0.016043259595830736 0.002196165368067184 0.006429907500878468
0.03126302626094 0.0023996243237924915 0.008092096366456712 0.9973469626622828 -0.02008187287074626 0.0002917990550818515 0.004102939265773017 -0.0002643157185154128 -0.0025862058892293055
 0.9973469626622828 -0.02008187287074626 0.002398811748634659 0.008092193635738595 -0.00026435189130713575 -0.0025862091663339274 0.00029714098445051995 0.004102272432612736
 0.0002917990550818515 0.004102939265773017 -0.00026435189130713575 -0.0025862091663339274 0.002399588781133581 0.008091682549167574 0.9973469562809737 -0.020082290417810397
 -0.0002643157185154128 -0.0025862058892293055 0.00029714098445051995 0.004102272432612736 0.9973469562809737 -0.020082290417810397 0.002398834535064279 0.008091772049824282
0.037515631513130004 0.002617532554995415 0.009772625743964336 0.997061175983705 -0.024134581170002365 0.00036309437807564827 0.004926149082400544 -0.0003264521257039348 -0.003107854136894797
 0.997061175983705 -0.024134581170002365 0.002616363250169154 0.009772749034865325 -0.00032650395029582463 -0.003107857453375147 0.00037078624915012453 0.004925224431051684
 0.00036309437807564827 0.004926149082400544 -0.00032650395029582463 -0.003107857453375147 0.0026174817049258296 0.00977212969830232 0.9970611671430146 -0.024135081978363785
 -0.0003264521257039348 -0.003107854136894797 0.00037078624915012453 0.004925224431051684 0.9970611671430146 -0.024135081978363785 0.002616396423878242 0.00977224293388165
0.043768236765320004 0.0028507080038570162 0.011471193066519725 0.9967544769991797 -0.028201260834608936 0.00044284236741191815 0.005750135993185053 -0.00039583554484462957 -0.003630585041107327
 0.9967544769991797 -0.028201260834608936 0.0028491173777318666 0.011471344809804628 -0.0003959057615276518 -0.003630588127465542 0.0004533131135792911 0.00574889981750834
 0.00044284236741191815 0.005750135993185053 -0.0003959057615276518 -0.003630588127465542 0.0028506391054938323 0.01147061498157388 0.996754465307034 -0.02820184484678574
 -0.00039583554484462957 -0.003630585041107327 0.0004533131135792911 0.00574889981750834 0.996754465307034 -0.02820184484678574 0.002849162891662501 0.011470754034721514
0.050020842017509996 0.0030994594577443643 0.013187339673250493 0.9964265772842718 -0.03228200430108596 0.0005311313669844601 0.006574806967220529 -0.00047255866538168945 -0.004154273253539582
 0.9964265772842718 -0.03228200430108596 0.0030973829378839104 0.013187522398515505 -0.00047264999095283607 -0.004154275812666224 0.0005448108821664167 0.006573200210983333
 0.0005311313669844601 0.006574806967220529 -0.00047264999095283607 -0.004154275812666224 0.0030993697673338174 0.013186679746561755 0.9964265623501495 -0.032282671467341845
 -0.00047255866538168945 -0.004154273253539582 0.0005448108821664167 0.006573200210983333 0.9964265623501495 -0.032282671467341845 0.0030974427495000156 0.013186846753115456
0.055454545454549996 0.003328519649885638 0.014692692393455166 0.9961241800911187 -0.03583973031055192 0.0006148611745942778 0.007291948736674098 -0.0005452647832462686 -0.004610055639509691
 0.9961241800911187 -0.03583973031055192 0.003325968435279305 0.014692904173552178 -0.0005453766418806019 -0.0046100574777419735 0.0006316790829407439 0.007289967770244451
 0.0006148611745942778 0.007291948736674098 -0.0005453766418806019 -0.0046100574777419735 0.003328409659369056 0.014691961519687447 0.9961241620231346 -0.03584046969730662
 -0.0005452647832462686 -0.004610055639509691 0.0006316790829407439 0.007289967770244451 0.9961241620231346 -0.03584046969730662 0.003326042264195541 0.014692154593540643
0.056273447269699996 0.003364093317288805 0.01492067148057126 0.9960771873450345 -0.036376828753033594 0.0006280484333666038 0.007400061582979871 -0.0005567124184812875 -0.00467879519562365
 0.9960771873450345 -0.036376828753033594 0.0033614663336813118 0.014920887815540474 -0.0005568275471208478 -0.004678796902825546 0.0006453675759351584 0.007398019775485363
 0.0006280484333666038 0.007400061582979871 -0.0005568275471208478 -0.004678796902825546 0.003363980087385923 0.014919929928676062 0.9960771687794727 -0.03637757902129553
 -0.0005567124184812875 -0.00467879519562365 0.0006453675759351584 0.007398019775485363 0.9960771687794727 -0.03637757902129553 0.0033615424038234243 0.014920127076437698
0.06252605252188 0.0036449139386026843 0.016670835381840318 0.9957060171918264 -0.040485699653098756 0.0007336792060215552 0.008225793578567201 -0.0006483859572866921 -0.005204027518243504
 0.9957060171918264 -0.040485699653098756 0.0036416719075976207 0.01667108805215323 -0.0006485275611957217 -0.005204028021278249 0.0007550697832551254 0.008223246769805004
 0.0007336792060215552 0.008225793578567201 -0.0006485275611957217 -0.005204028021278249 0.0036447744183018722 0.016670012440847874 0.9957059946062415 -0.04048653296883835
 -0.0006483859572866921 -0.005204027518243504 0.0007550697832551254 0.008223246769805004 0.9957059946062415 -0.04048653296883835 0.0036417662001726457 0.01667024196870842
0.06877865777407 0.003942223813515836 0.01843750517374156 0.9953127767537139 -0.04460854475166808 0.0008481077913633205 0.009051891797720547 -0.0007476666188428008 -0.005729846169312333
 0.9953127767537139 -0.04460854475166808 0.003938302122187067 0.018437797003357476 -0.0007478373487003714 -0.005729845088437513 0.0008740025298045482 0.009048764493520007
 0.0008481077913633205 0.009051891797720547 -0.0007478373487003714 -0.005729845088437513 0.003942055248464489 0.0184366010968343 0.9953127497602948 -0.04460946106082896
 -0.0007476666188428008 -0.005729846169312333 0.0008740025298045482 0.009048764493520007 0.9953127497602948 -0.04460946106082896 0.003938416603619427 0.018436865294440663
0.07503126302626001 0.004256323653131218 0.02022037262616865 0.9948971762001708 -0.04874526295620547 0.000971416658940814 0.009878240777759516 -0.0008546398702077106 -0.006256125823527598
 0.9948971762001708 -0.04874526295620547 0.0042516576440384 0.020220706538047452 -0.0008548423554969861 -0.006256122751532874 0.0010022491646327625 0.00987445187516213
 0.000971416658940814 0.009878240777759516 -0.0008548423554969861 -0.006256122751532874 0.004256123286060544 0.0202193876856614 0.9948971444124352 -0.04874626220366991
 -0.0008546398702077106 -0.006256125823527598 0.0010022491646327625 0.00987445187516213 0.9948971444124352 -0.04874626220366991 0.004251794283310702 0.020219688893563258
0.08128386827845 0.004587512411727831 0.02201914155629885 0.994458926206717 -0.05289573020102488 0.0011036865415830245 0.010704721152032401 -0.0009693892480901233 -0.006782739501900215
 0.994458926206717 -0.05289573020102488 0.004582037367479648 0.02201952057374535 -0.0009696260973547212 -0.006782734004159475 0.0011398912520065704 0.01070018387509511
 0.0011036865415830245 0.010704721152032401 -0.0009696260973547212 -0.006782734004159475 0.004587277482380657 0.022018076044315885 0.9944588892392392 -0.05289681233030184
 -0.0009693892480901233 -0.006782739501900215 0.0011398912520065704 0.01070018387509511 0.9944588892392392 -0.05289681233030184 0.004582198135325562 0.022018416654639467
0.08753647353064001 0.004936087268878732 0.023833523712587554 0.9939977381828735 -0.05705980351196914 0.0012449963410370599 0.01153120993200413 -0.0010919962905433782 -0.007309558316238882
 0.9939977381828735 -0.05705980351196914 0.004929738397563639 0.023833950960919552 -0.0010922700916033536 -0.007309549930740445 0.0012870084707215625 0.011525831768177959
 0.0012449963410370599 0.01153120993200413 -0.0010922700916033536 -0.007309549930740445 0.004935815014684525 0.02383237793912646 0.9939976956511609 -0.05706096846770524
 -0.0010919962905433782 -0.007309558316238882 0.0012870084707215625 0.011525831768177959 0.9939976956511609 -0.05706096846770524 0.004929925266042666 0.02383276039664992
0.09378907878283 0.005302343586321039 0.02566323584684049 0.9935133244766187 -0.06123732388823669 0.0013954230347724735 0.012357580714807664 -0.0012225404659732633 -0.007836451292755035
 0.9935133244766187 -0.06123732388823669 0.005295056005337735 0.025663714555764217 -0.0012228537859758568 -0.007836439530159695 0.0014436785150801377 0.012351263352025047
 0.0013954230347724735 0.012357580714807664 -0.0012228537859758568 -0.007836439530159695 0.005302031241860356 0.025662010147675166 0.9935132759971572 -0.06123857160865729
 -0.0012225404659732633 -0.007836451292755035 0.0014436785150801377 0.012351263352025047 0.9935132759971572 -0.06123857160865729 0.00529527094729171 0.025662436951551428
0.100041684035 0.005686574841591565 0.02750799757187208 0.9930053985610224 -0.06542811840405154 0.0015550415850656097 0.013183703840899605 -0.0013610990978566615 -0.008363285250607182
 0.9930053985610224 -0.06542811840405154 0.005678283563312182 0.027508531078171024 -0.0013614544834653622 -0.008363269594282553 0.0016099769995184528 0.013176343105433188
 0.0015550415850656097 0.013183703840899605 -0.0013614544834653622 -0.008363269594282553 0.005686219639855909 0.02750669229963935 0.9930053437516653 -0.06542944883043116
 -0.0013610990978566615 -0.008363285250607182 0.0016099769995184528 0.013176343105433188 0.9930053437516653 -0.06542944883043116 0.005678528551834398 0.027507166005518245
0.1059090909091 0.00606374283650019 0.029252549551183397 0.9925071257732088 -0.06937264237970599 0.0017132514857229485 0.013958589284487807 -0.0014984776670829536 -0.008857488719031756
 0.9925071257732088 -0.06937264237970599 0.006054450481538732 0.029253137612156727 -0.0014988748246674683 -0.008857468914712728 0.001774852898057863 0.013950149434261696
 0.0017132514857229485 0.013958589284487807 -0.0014988748246674683 -0.008857468914712728 0.006063344899588646 0.02925116995119167 0.9925070646772884 -0.06937405035911753
 -0.0014984776670829536 -0.008857488719031756 0.001774852898057863 0.013950149434261696 0.9925070646772884 -0.06937405035911753 0.0060547254602140565 0.029251690046779782
0.1062942892872 0.0060890725500729066 0.029367529737476927 0.9924736752110701 -0.06963200179764231 0.001723924849259172 0.01400944651906925 -0.0015077472873385883 -0.00888992471788358
 0.9924736752110701 -0.06963200179764231 0.006079712465710545 0.029368121488431216 -0.0015081472646829653 -0.008889904623952134 0.0017859773645269557 0.014000932314306797
 0.001723924849259172 0.01400944651906925 -0.0015081472646829653 -0.008889904623952134 0.00608867172219485 0.029366145269398982 0.9924736136907029 -0.06963341486698832
 -0.0015077472873385883 -0.00888992471788358 0.0017859773645269557 0.014000932314306797 0.9924736136907029 -0.06963341486698832 0.006079989473940585 0.02936666849227829
0.11254689453939999 0.006510126173080806 0.031241553207107704 0.9919178706701188 -0.07384877766549092 0.0019021434901964796 0.014834672929063326 -0.0016625578342399508 -0.00941623187524685
 0.9919178706701188 -0.07384877766549092 0.00649963203752724 0.03124220676429564 -0.00166300490898502 -0.00941620677263774 0.001971750783462718 0.014824889175226175
 0.0019021434901964796 0.014834672929063326 -0.00166300490898502 -0.00941620677263774 0.006509676948887824 0.031240089940478895 0.9919178020588706 -0.07385027331549752
 -0.0016625578342399508 -0.00941623187524685 0.001971750783462718 0.014824889175226175 0.9919178020588706 -0.07385027331549752 0.00649994303791525 0.031240665357889892
0.11879949979160001 0.006950023019088298 0.03312978789097938 0.991337702812777 -0.07807823940602363 0.0020897658877882014 0.015659244309698114 -0.0018256011560690937 -0.009942066519238558
 0.991337702812777 -0.07807823940602363 0.006938329435453746 0.033130506934768565 -0.0018260978134142995 -0.009942035809736828 0.0021673660708096273 0.015648068884609772
 0.0020897658877882014 0.015659244309698114 -0.0018260978134142995 -0.009942035809736828 0.0069495226272735374 0.03312824624809017 0.9913376267317623 -0.07807981757068101
 -0.0018256011560690937 -0.009942066519238558 0.0021673660708096273 0.015648068884609772 0.9913376267317623 -0.07807981757068101 0.006938676399094919 0.033128876604012196
0.1250521050438 0.007409048136446567 0.03503195199898628 0.9907328913010792 -0.08232017094990822 0.0022868580507561 0.01648301903639294 -0.0019969452063283966 -0.010467286041520243
 0.9907328913010792 -0.08232017094990822 0.007396089540126993 0.03503274033350621 -0.001997493910934228 -0.010467249099801446 0.0023728895906416207 0.01647032371732665
 0.0022868580507561 0.01648301903639294 -0.001997493910934228 -0.010467249099801446 0.0074084938051993034 0.035030332424293244 0.990732807373007 -0.08232183156271573
 -0.0019969452063283966 -0.010467286041520243 0.0023728895906416207 0.01647032371732665 0.990732807373007 -0.08232183156271573 0.007396474436619916 0.035031020533651765
0.131304710296 0.0078874842013814 0.036947761431851495 0.990103157739818 -0.08657434735840248 0.0024934835287144883 0.01730585269002094 -0.002176655391668043 -0.010991745422201951
 0.990103157739818 -0.08657434735840248 0.007873194844420905 0.03694862299063305 -0.0021772585877021335 -0.010991701595902797 0.002588385165859819 0.017291503096813814
 0.0024934835287144883 0.01730585269002094 -0.0021772585877021335 -0.010991701595902797 0.007886873158509692 0.03694606439285811 0.9901030655882485 -0.08657609035192619
 -0.002176655391668043 -0.010991745422201951 0.002588385165859819 0.017291503096813814 0.9901030655882485 -0.08657609035192619 0.00787361964084974 0.03694681314658663
0.1375573155481 0.008275942420801687 0.038627010403725355 0.9895579397701812 -0.09059049361251276 0.002683109186134468 0.0181024566698504 -0.002338089651957643 -0.01149025213007015
 0.9895579397701812 -0.09059049361251276 0.00826025181852952 0.03862793261694426 -0.002338751099302431 -0.011490201375820866 0.0027870926870471866 0.018086473848183432
 0.002683109186134468 0.0181024566698504 -0.002338751099302431 -0.011490201375820866 0.008275272694350992 0.03862523605029236 0.989557839027437 -0.09059231889602416
 -0.002338089651957643 -0.01149025213007015 0.0027870926870471866 0.018086473848183432 0.989557839027437 -0.09059231889602416 0.008260717660445253 0.03862603241364563
0.1438099208003 0.008678075730709665 0.040297425407114854 0.9889935527544991 -0.09459647472084115 0.002880376663868423 0.018895924180202178 -0.002505982447381867 -0.011985819500065978
 0.9889935527544991 -0.09459647472084115 0.008660917173124663 0.04029841139703904 -0.002506704797494317 -0.011985761172878754 0.0029938401489416717 0.018878185360477077
 0.002880376663868423 0.018895924180202178 -0.002506704797494317 -0.011985761172878754 0.008677344691681457 0.04029557417641449 0.9889934430485179 -0.09459838221697843
 -0.002505982447381867 -0.011985819500065978 0.0029938401489416717 0.018878185360477077 0.9889934430485179 -0.09459838221697843 0.008661425874303377 0.040296420263767216
0.1500625260525 0.00909374327748101 0.04195886708819874 0.9884101417377398 -0.09859219157969783 0.0030852176811307906 0.019686177317017117 -0.002680266074604287 -0.012478371363425098
 0.9884101417377398 -0.09859219157969783 0.00907504985602041 0.04195992019372622 -0.0026810519750664094 -0.012478304792063853 0.0032085569049148965 0.019666555256661767
 0.0030852176811307906 0.019686177317017117 -0.0026810519750664094 -0.012478304792063853 0.009092948305835893 0.04195693943292055 0.9884100226984318 -0.09859418120843116
 -0.002680266074604287 -0.012478371363425098 0.0032085569049148965 0.019666555256661767 0.9884100226984318 -0.09859418120843116 0.009075603218129218 0.04195783753736403
0.15631513130469998 0.009522803213531123 0.043611200295164465 0.9878078524992632 -0.10257754542720053 0.0032975631555381135 0.020473139511241106 -0.00286087199674115 -0.012967833162173658
 0.9878078524992632 -0.10257754542720053 0.00950250781534099 0.043612324079819235 -0.0028617240912329105 -0.012967757649186508 0.0034311714711909376 0.0204515025413286
