! Created with skrf 1.8.0 (http://scikit-rf.org).
# GHz S RI R 50.0 
!freq ReS11 ImS11 ReS12 ImS12 ReS13 ImS13
! ReS14 ImS14
! ReS21 ImS21 ReS22 ImS22 ReS23 ImS23
! ReS24 ImS24
! ReS31 ImS31 ReS32 ImS32 ReS33 ImS33
! ReS34 ImS34
! ReS41 ImS41 ReS42 ImS42 ReS43 ImS43
! ReS44 ImS44
!
0.0 0.00135176161114 0.0 0.9986482383889 0.0 5.165629610452e-05 0.0 -5.165629619348e-05 6.326071778915289e-21
 0.9986482383889 0.0 0.001351761611134 0.0 -5.165629619338e-05 6.326071778903042e-21 5.165629610469e-05 0.0
 5.165629610452e-05 0.0 -5.165629619338e-05 6.326071778903042e-21 0.001351761599773 0.0 0.9986482383775 0.0
 -5.165629619348e-05 6.326071778915289e-21 5.165629610469e-05 0.0 0.9986482383775 0.0 0.001351761599778 0.0
0.005 0.0014538548795318402 0.0011092805221933997 0.9985191700077389 -0.002831973286767357 7.162438047789052e-05 0.0005510057588337504 -6.972017607987662e-05 -0.0003491112412715188
 0.9985191700077389 -0.002831973286767357 0.001453861838206485 0.0011092764974303644 -6.972279529981539e-05 -0.0003491132672714303 7.157743393038613e-05 0.0005510236760639099
 7.162438047789052e-05 0.0005510057588337504 -6.972279529981539e-05 -0.0003491132672714303 0.0014538531176323643 0.0011092143162237846 0.9985191696669203 -0.0028320403544973304
 -6.972017607987662e-05 -0.0003491112412715188 7.157743393038613e-05 0.0005510236760639099 0.9985191696669203 -0.0028320403544973304 0.0014538629213787851 0.0011092085699505633
0.006252605252188 0.0014804844694905712 0.001390970556713603 0.9984853170500703 -0.0035406806721729528 7.72455695984897e-05 0.0006890418164160729 -7.474973839953094e-05 -0.0004368445347899169
 0.9984853170500703 -0.0035406806721729528 0.0014804953465253022 0.0013909654112184901 -7.475381405555038e-05 -0.0004368470337381483 7.717221985962157e-05 0.0006890650585446363
 7.72455695984897e-05 0.0006890418164160729 -7.475381405555038e-05 -0.0004368470337381483 0.0014804817956195497 0.0013908878121018725 0.998485316597813 -0.0035407644985820546
 -7.474973839953094e-05 -0.0004368445347899169 7.717221985962157e-05 0.0006890650585446363 0.998485316597813 -0.0035407644985820546 0.0014804971208000214 0.0013908805076738048
0.01250521050438 0.0016198162709893478 0.0028111825651935757 0.9983071411191871 -0.007082287500547712 0.00010904046685611843 0.0013785482243930162 -0.0001029081898173949 -0.0008758802127298834
 0.9983071411191871 -0.007082287500547712 0.0016198596961093318 0.0028111711262538554 -0.00010292425127187263 -0.0008758848462157319 0.000108747968758122 0.0013786037656259762
 0.00010904046685611843 0.0013785482243930162 -0.00010292425127187263 -0.0008758848462157319 0.0016198061239170128 0.0028110173961538336 0.9983071398470057 -0.00708245489769866
 -0.0001029081898173949 -0.0008758802127298834 0.000108747968758122 0.0013786037656259762 0.9983071398470057 -0.00708245489769866 0.001619867320330396 0.002811001546325757
0.01875781575657 0.0017700309790131214 0.00425177051520426 0.9981135106892688 -0.010633467777292656 0.0001471103121368651 0.0020689788908918993 -0.00013621161745894868 -0.0013165186225601797
 0.9981135106892688 -0.010633467777292656 0.0017701285451817846 0.004251751578281309 -0.0001362474353156883 -0.0013165249639316837 0.00014645325370258965 0.002069077405655754
 0.0001471103121368651 0.0020689788908918993 -0.0001362474353156883 -0.0013165249639316837 0.0017700085910256308 0.004251523121897675 0.9981135082504294 -0.010633718662403396
 -0.00013621161745894868 -0.0013165186225601797 0.00014645325370258965 0.002069077405655754 0.9981135082504294 -0.010633718662403396 0.0017701461093827006 0.004251497359826366
0.02501042100875 0.0019313960846670624 0.00571075687634247 0.9979042188246141 -0.014195973614819554 0.00019152546369324565 0.0027603769647932147 -0.00017473797036224192 -0.0017585840893828374
 0.9979042188246141 -0.014195973614819554 0.0019315693331916402 0.0057107291861462186 -0.00017480122321092027 -0.0017585916417688847 0.00019035837153742377 0.002760530676955807
 0.00019152546369324565 0.0027603769647932147 -0.00017480122321092027 -0.0017585916417688847 0.0019313566870776935 0.005710427480551331 0.99790421486628 -0.014196307934361599
 -0.00017473797036224192 -0.0017585840893828374 0.00019035837153742377 0.002760530676955807 0.99790421486628 -0.014196307934361599 0.0019316009208585382 0.005710390323644197
0.03126302626094 0.0021041678736154405 0.007187139933845059 0.9976790469831821 -0.017770574079342908 0.00024235690379784827 0.0034527248632429033 -0.00021856336043242798 -0.0022019578496391967
 0.9976790469831821 -0.017770574079342908 0.0021044383051686292 0.00718710218566687 -0.00021866165086114228 -0.00220196604493937 0.00024053410091348887 0.0034529475537273735
 0.00024235690379784827 0.0034527248632429033 -0.00021866165086114228 -0.00220196604493937 0.0021041067004790165 0.007186728780165411 0.997679041151701 -0.017770991808092444
 -0.00021856336043242798 -0.0022019578496391967 0.00024053410091348887 0.0034529475537273735 0.997679041151701 -0.017770991808092444 0.002104488000731296 0.00718667863125435
0.037515631513130004 0.002288597274782719 0.008680278605676472 0.9974377709978727 -0.021357670319504352 0.00029967557933911754 0.004145981227263355 -0.00026776259780491565 -0.0026465410840326832
 0.9974377709978727 -0.021357670319504352 0.002288986356265371 0.0086802294462307 -0.00026790346059268796 -0.0026465492825793677 0.0002970511177376432 0.00414628824940566
 0.00029967557933911754 0.004145981227263355 -0.00026790346059268796 -0.0026465492825793677 0.0022885095632971778 0.008679785977169268 0.9974377629398838 -0.02135817144540099
 -0.00026776259780491565 -0.0026465410840326832 0.0002970511177376432 0.00414628824940566 0.9974377629398838 -0.02135817144540099 0.0022890582477911544 0.008679721124766735
0.043768236765320004 0.0024849321285543703 0.010189705273954651 0.9971801634794153 -0.02495748267362908 0.00036355209703388094 0.004840092152238228 -0.0003224093896116581 -0.003092243676629498
 0.9971801634794153 -0.02495748267362908 0.002485461298688652 0.01018964330202487 -0.00032260029666751405 -0.003092251167060824 0.0003599797226778368 0.004840500449599492
 0.00036355209703388094 0.004840092152238228 -0.00032260029666751405 -0.003092251167060824 0.0024848131163095004 0.01018913149993346 0.9971801528390718 -0.024958067190461727
 -0.0003224093896116581 -0.003092243676629498 0.0003599797226778368 0.004840500449599492 0.9971801528390718 -0.024958067190461727 0.0024855594759693646 0.010189050118092555
0.050020842017509996 0.0026934182431113027 0.011715048409617596 0.9969059950100919 -0.028570127981465677 0.00043405654274069824 0.005534995829821795 -0.0003825764202354731 -0.0035389795635993393
 0.9969059950100919 -0.028570127981465677 0.0026941089171228566 0.011714972176680074 -0.000382824783810376 -0.0035389855627991503 0.00042938967748024976 0.005535523955063937
 0.00043405654274069824 0.005534995829821795 -0.000382824783810376 -0.0035389855627991503 0.0026932631707307256 0.011714393857460323 0.9969059814316744 -0.028570795897708706
 -0.0003825764202354731 -0.0035389795635993393 0.00042938967748024976 0.005535523955063937 0.9969059814316744 -0.028570795897708706 0.002694237474934232 0.011714294005530623
0.055454545454549996 0.002884657096381274 0.01305329948369085 0.9966541055975013 -0.03172008917640505 0.0005007636812726946 0.006139479732458694 -0.00043940220104258084 -0.003927980263838297
 0.9966541055975013 -0.03172008917640505 0.002885505498740004 0.013053209644703334 -0.00043970647104796273 -0.003927984275382235 0.0004950263728609836 0.006140128323031993
 0.0005007636812726946 0.006139479732458694 -0.00043970647104796273 -0.003927984275382235 0.0028844668228627255 0.013052575066503598 0.9966540891755553 -0.031720829582303815
 -0.00043940220104258084 -0.003927980263838297 0.0004950263728609836 0.006140128323031993 0.9966540891755553 -0.031720829582303815 0.0028856637866732917 0.013052457498015568
0.056273447269699996 0.0029142999507305468 0.013255994602812252 0.9966150348387941 -0.03219565749020924 0.0005112583597235344 0.006230624818986978 -0.00044833537447947055 -0.003986664454335501
 0.9966150348387941 -0.03219565749020924 0.002915173524455356 0.013255902613455236 -0.0004486485493465141 -0.003986668107413813 0.0005053500931216555 0.006231292953197058
 0.0005112583597235344 0.006230624818986978 -0.0004486485493465141 -0.003986668107413813 0.0029141040605157203 0.013255259685842388 0.9966150179647961 -0.03219640882174505
 -0.00044833537447947055 -0.003986664454335501 0.0005053500931216555 0.006231292953197058 0.9966150179647961 -0.03219640882174505 0.002915336561447554 0.01325513930796704
0.06252605252188 0.003147820412324389 0.014812267682384443 0.9963070513283855 -0.035834077672344984 0.000595226251414389 0.006926907291969285 -0.0005197569362030436 -0.004435214579396437
 0.9963070513283855 -0.035834077672344984 0.0031488982661080607 0.014812158394693287 -0.0005201422211620663 -0.004435214959684563 0.0005879293394700336 0.006927737264282595
 0.000595226251414389 0.006926907291969285 -0.0005201422211620663 -0.004435214959684563 0.003147578948564909 0.014811452857084403 0.996307030799953 -0.03583491244591337
 -0.0005197569362030436 -0.004435214579396437 0.0005879293394700336 0.006927737264282595 0.996307030799953 -0.03583491244591337 0.0031490998854281534 0.014811309781670041
0.06877865777407 0.0033942217892797325 0.016383616261674134 0.9959818122720477 -0.039485362618787156 0.0006860281010355628 0.007623767778327986 -0.0005969107696651935 -0.004884545942343758
 0.9959818122720477 -0.039485362618787156 0.0033955252918410894 0.01638348808755182 -0.0005973754086092629 -0.00488454205141268 0.000677194969768246 0.00762478308566913
 0.0006860281010355628 0.007623767778327986 -0.0005973754086092629 -0.00488454205141268 0.0033939299975287284 0.016382722034329562 0.9959817877275343 -0.03948628086594892
 -0.0005969107696651935 -0.004884545942343758 0.000677194969768246 0.00762478308566913 0.9959817877275343 -0.03948628086594892 0.0033957696004882744 0.01638255397331485
0.07503126302626001 0.0036537453350326925 0.017969805856940132 0.9956390851327552 -0.0431494618612987 0.0007837309000865218 0.008321127634756245 -0.0006798654915809838 -0.005334573847997821
 0.9956390851327552 -0.0431494618612987 0.0036552958472249107 0.01796965716227875 -0.0006804166742737433 -0.005334564615669953 0.0007732136521246976 0.00832235346159796
 0.0007837309000865218 0.008321127634756245 -0.0006804166742737433 -0.005334564615669953 0.003653398464013215 0.017968832780486034 0.9956390562089686 -0.04315046362220625
 -0.0006798654915809838 -0.005334573847997821 0.0007732136521246976 0.00832235346159796 0.9956390562089686 -0.04315046362220625 0.0036555869576260407 0.017968637328578733
0.08128386827845 0.003926631438290085 0.019570613623060208 0.9952786372362215 -0.04682630557982098 0.0008884006818355156 0.009018905358057562 -0.000768688636869286 -0.005785212589794303
 0.9952786372362215 -0.04682630557982098 0.003928450316763764 0.01957044272784486 -0.0007693334994964788 -0.0057851968741726755 0.0008760511060228268 0.009020368596161
 0.0008884006818355156 0.009018905358057562 -0.0007693334994964788 -0.0057851968741726755 0.003926224739221542 0.01956956229967202 0.9952786035672728 -0.04682739090120618
 -0.000768688636869286 -0.005785212589794303 0.0008760511060228268 0.009020368596161 0.9952786035672728 -0.04682739090120618 0.0039287923456425835 0.019569336933524504
0.08753647353064001 0.0042131196326935716 0.021185824726902495 0.994900235933462 -0.05051580817462896 0.0010001024588541733 0.009717016802293312 -0.000863446619677706 -0.00623637523535649
 0.994900235933462 -0.05051580817462896 0.004215228233466218 0.02118562990523899 -0.0008641922450869722 -0.006236351822865206 0.0009857720419540477 0.00971874607038847
 0.0010001024588541733 0.009717016802293312 -0.0008641922450869722 -0.006236351822865206 0.004212648359742322 0.02118469580406218 0.9949001971510149 -0.05051697711447467
 -0.000863446619677706 -0.00623637523535649 0.0009857720419540477 0.00971874607038847 0.9949001971510149 -0.05051697711447467 0.004215625302788291 0.02118443788117995
0.09378907878283 0.004513448583813578 0.022815229741306155 0.9945036487432759 -0.054217870820582235 0.0011189001624922227 0.010415375336703784 -0.0009642046913279532 -0.006687973473810945
 0.9945036487432759 -0.054217870820582235 0.004515868265815733 0.022815009221360625 -0.0009650581092978412 -0.006687941079238074 0.001102440102609394 0.010417401000054302
 0.0011189001624922227 0.010415375336703784 -0.0009650581092978412 -0.006687941079238074 0.0045129079946518 0.022814023917947332 0.9945036044757714 -0.054219123442454345
 -0.0009642046913279532 -0.006687973473810945 0.001102440102609394 0.010417401000054302 0.9945036044757714 -0.054219123442454345 0.004516324502443323 0.022813730675701586
0.100041684035 0.004827856060121301 0.024458622743779787 0.9940886434806656 -0.05793238331935225 0.0012448565842262556 0.011113891959401646 -0.0010710268956415764 -0.0071399175098642124
 0.9940886434806656 -0.05793238331935225 0.004830608188884647 0.024458374707548233 -0.0010719950829049692 -0.007139874776415224 0.0012261178055431499 0.011116246149268242
 0.0012448565842262556 0.011113891959401646 -0.0010719950829049692 -0.007139874776415224 0.0048272414163212036 0.02445734077106778 0.9940885933534311 -0.05793371969228825
 -0.0010710268956415764 -0.0071399175098642124 0.0012261178055431499 0.011116246149268242 0.9940885933534311 -0.05793371969228825 0.004831127725002169 0.024457009325443865
0.1059090909091 0.0051359093725137864 0.026013313081522587 0.993682247561208 -0.06142927540008959 0.0013696189842607094 0.011769438221054732 -0.0011768394158484178 -0.00756425218911111
 0.993682247561208 -0.06142927540008959 0.005138992908398239 0.02601303752934501 -0.0011779215999796996 -0.007564198456016 0.001348606057389156 0.011772131511291075
 0.0013696189842607094 0.011769438221054732 -0.0011779215999796996 -0.007564198456016 0.005135220930652089 0.02601196037808669 0.9936821915916058 -0.06143069043501882
 -0.0011768394158484178 -0.00756425218911111 0.001348606057389156 0.011772131511291075 0.9936821915916058 -0.06143069043501882 0.005139575606872255 0.026011590350412114
0.1062942892872 0.005156578891757834 0.026115799880912352 0.9936549883761773 -0.06165922548882598 0.0013780333172706868 0.011812475390179282 -0.0011839760226102056 -0.007592115981516934
 0.9936549883761773 -0.06165922548882598 0.0051596848434172626 0.026115522463927576 -0.0011850659029105496 -0.007592061480871509 0.0013568664865619695 0.01181519202307419
 0.0013780333172706868 0.011812475390179282 -0.0011850659029105496 -0.007592061480871509 0.0051558854593181476 0.026114442560309207 0.993654932011173 -0.06166064568984974
 -0.0011839760226102056 -0.007592115981516934 0.0013568664865619695 0.01181519202307419 0.993654932011173 -0.06166064568984974 0.0051602718161022285 0.02611406990461591
0.11254689453939999 0.005499852920652812 0.02778655826911997 0.9932024521882024 -0.06539826821943623 0.001518490699740123 0.012511032139017938 -0.0013031135602582266 -0.008044475904663211
 0.9932024521882024 -0.06539826821943623 0.005503334085147259 0.027786249560092256 -0.0013043320041742784 -0.008044408137054433 0.0014947462434727586 0.012514146935848666
 0.001518490699740123 0.012511032139017938 -0.0013043320041742784 -0.008044408137054433 0.005499075970202153 0.027785126453353546 0.9932023892036127 -0.06539977233316846
 -0.0013031135602582266 -0.008044475904663211 0.0014947462434727586 0.012514146935848666 0.9932023892036127 -0.06539977233316846 0.005503992636781085 0.02778470945683636
0.11879949979160001 0.005857912942796626 0.029470695137924944 0.9927308043108586 -0.06914937429097452 0.0016662877575130673 0.013209466565774885 -0.001428499645342337 -0.008496902629466502
 0.9927308043108586 -0.06914937429097452 0.005861790728002873 0.029470353178154014 -0.0014298534701976343 -0.008496820023752941 0.0016398158803586091 0.01321301707074719
 0.0016662877575130673 0.013209466565774885 -0.0014298534701976343 -0.008496820023752941 0.005857047750509939 0.0294691897310857 0.9927307343209314 -0.0691509624100715
 -0.001428499645342337 -0.008496902629466502 0.0016398158803586091 0.01321301707074719 0.9927307343209314 -0.0691509624100715 0.005862525006166024 0.02946872513737071
0.1250521050438 0.006230992645465246 0.031168007149702276 0.992239814878146 -0.07291239901627573 0.0018214821475735939 0.013907680928003744 -0.0015601930131379903 -0.008949299811388756
 0.992239814878146 -0.07291239901627573 0.006235288480748821 0.03116762993249253 -0.0015616889827608678 -0.008949200725151417 0.0017921328518035193 0.013911706527350772
 0.0018214821475735939 0.013907680928003744 -0.0015616889827608678 -0.008949200725151417 0.006230034493508162 0.03116642911013579 0.9922397374930259 -0.07291407123911436
 -0.0015601930131379903 -0.008949299811388756 0.0017921328518035193 0.013911706527350772 0.9922397374930259 -0.07291407123911436 0.006236102638354933 0.031165913535631275
0.131304710296 0.0066193245394162055 0.03287828985585142 0.9917292548655733 -0.07668719075192583 0.0019841301017162758 0.014605575424099264 -0.0016982509461043876 -0.009401569389899604
 0.9917292548655733 -0.07668719075192583 0.00662405987952912 0.0328778753257386 -0.0016998957705555197 -0.009401452109536097 0.0019517532072983541 0.014610117364509404
 0.0019841301017162758 0.014605575424099264 -0.0016998957705555197 -0.009401452109536097 0.006618268716212975 0.03287664019550846 0.991729169690606 -0.07668894718377899
 -0.0016982509461043876 -0.009401569389899604 0.0019517532072983541 0.014610117364509404 0.991729169690606 -0.07668894718377899 0.006624958074646847 0.03287607012756744
0.1375573155481 0.006929358991268978 0.03437878119545721 0.991292705107977 -0.08025096196364963 0.0021325364046500834 0.015280549650202934 -0.0018210167001969455 -0.009831096364271168
 0.991292705107977 -0.08025096196364963 0.006934557522265422 0.034378338502536424 -0.0018228203029637153 -0.009830960914418051 0.002097054769379695 0.0152855983392434
 0.0021325364046500834 0.015280549650202934 -0.0018228203029637153 -0.009830960914418051 0.006928201320357971 0.03437706085774423 0.9912926117901093 -0.08025280264529405
 -0.0018210167001969455 -0.009831096364271168 0.002097054769379695 0.0152855983392434 0.9912926117901093 -0.08025280264529405 0.00693554330333806 0.03437644401416221
0.1438099208003 0.007250148187589307 0.035872177480886704 0.9908410944959849 -0.08380650381101451 0.002286940387109432 0.015953220908459863 -0.0019487001634228554 -0.010258516085603044
 0.9908410944959849 -0.08380650381101451 0.007255831751000006 0.03587170535265372 -0.0019506697563258877 -0.010258360796961893 0.002248216795446801 0.015958813800222914
 0.002286940387109432 0.015953220908459863 -0.0019506697563258877 -0.010258360796961893 0.00724888406253395 0.03587038750596963 0.9908409926430355 -0.08380842884224242
 -0.0019487001634228554 -0.010258516085603044 0.002248216795446801 0.015958813800222914 0.9908409926430355 -0.08380842884224242 0.0072569091730771106 0.03586972111409022
0.1500625260525 0.007581589627123914 0.0373583776083072 0.990374528833277 -0.08735375196277186 0.0024472949588906856 0.016623535023507666 -0.0020812557119252624 -0.010683777009034365
 0.990374528833277 -0.08735375196277186 0.007587780104881808 0.03735787469775349 -0.002083398494010095 -0.010683600145593034 0.0024051928711969167 0.016629710938543443
 0.0024472949588906856 0.016623535023507666 -0.002083398494010095 -0.010683600145593034 0.0075802144538708646 0.03735651907815079 0.9903744180495002 -0.08735576144736508
 -0.0020812557119252624 -0.010683777009034365 0.0024051928711969167 0.016629710938543443 0.9903744180495002 -0.08735576144736508 0.007588953221380468 0.03735580022984187
0.15631513130469998 0.007923580206984318 0.038837283642570164 0.9898931143211878 -0.09089264185466386 0.0026135525468694663 0.017291438633129274 -0.0022186372275765716 -0.011106828597232693
