! Created with skrf 1.8.0 (http://scikit-rf.org).
# GHz S RI R 50.0 
!freq ReS11 ImS11 ReS12 ImS12 ReS13 ImS13
! ReS14 ImS14
! ReS21 ImS21 ReS22 ImS22 ReS23 ImS23
! ReS24 ImS24
! ReS31 ImS31 ReS32 ImS32 ReS33 ImS33
! ReS34 ImS34
! ReS41 ImS41 ReS42 ImS42 ReS43 ImS43
! ReS44 ImS44
!
0.0 0.001597118500456 0.0 0.9984028814995 0.0 6.211029716893e-05 0.0 -6.211029716879e-05 7.606317662184958e-21
 0.9984028814995 0.0 0.001597118500454 0.0 -6.211029716949e-05 7.606317662270684e-21 6.211029716938e-05 0.0
 6.211029716893e-05 0.0 -6.211029716949e-05 7.606317662270684e-21 0.001597118494783 0.0 0.9984028814939 0.0
 -6.211029716879e-05 7.606317662184958e-21 6.211029716938e-05 0.0 0.9984028814939 0.0 0.001597118494749 0.0
0.005 0.0017186330160181087 0.0012986215568231952 0.9982491079414074 -0.003345836923990313 8.824281477808937e-05 0.0007311261388905127 -8.546620414614134e-05 -0.00045070117128924675
 0.9982491079414074 -0.003345836923990313 0.0017186164984658264 0.0012986312603757784 -8.546556759144898e-05 -0.000450700764348064 8.835559190449555e-05 0.000731083392712712
 8.824281477808937e-05 0.0007311261388905127 -8.546556759144898e-05 -0.000450700764348064 0.0017186333048480379 0.0012986887151088514 0.9982491083024863 -0.003345769859519067
 -8.546620414614134e-05 -0.00045070117128924675 8.835559190449555e-05 0.000731083392712712 0.9982491083024863 -0.003345769859519067 0.0017186169264257506 0.0012986982262423394
0.006252605252188 0.0017505565086566933 0.0016284144676931454 0.9982084469425215 -0.0041831097676325165 9.572375748653155e-05 0.0009142377518425416 -9.209266905726983e-05 -0.0005639666250513981
 0.9982084469425215 -0.0041831097676325165 0.0017505306873944284 0.0016284267418726487 -9.209167786483899e-05 -0.0005639661250773495 9.589996346030596e-05 0.0009141822048095479
 9.572375748653155e-05 0.0009142377518425416 -9.209167786483899e-05 -0.0005639661250773495 0.0017505568888459401 0.001628498415696528 0.9982084474363022 -0.004183025941514717
 -9.209266905726983e-05 -0.0005639666250513981 9.589996346030596e-05 0.0009141822048095479 0.9982084474363022 -0.004183025941514717 0.0017505312861273892 0.001628510435352674
0.01250521050438 0.001918922258643636 0.0032911511479417357 0.9979925476982361 -0.008367007690852945 0.0001387052790492776 0.0018286817445775 -0.0001298633277976284 -0.0011306757780619994
 0.9979925476982361 -0.008367007690852945 0.0019188191359347621 0.0032911771350968306 -0.00012985941366263972 -0.0011306748748146685 0.00013940801923322313 0.0018285478163062492
 0.0001387052790492776 0.0018286817445775 -0.00012985941366263972 -0.0011306748748146685 0.001918923206104657 0.003291318825343379 0.9979925491101838 -0.008366840290025728
 -0.0001298633277976284 -0.0011306757780619994 0.00013940801923322313 0.0018285478163062492 0.9979925491101838 -0.008366840290025728 0.0019188209724198201 0.0032913441584268774
0.01875781575657 0.0021025946993297635 0.004977669949174774 0.9977549073749231 -0.012561871789065076 0.0001911566918040535 0.0027439902663370878 -0.0001755422606954326 -0.0016992386906254432
 0.9977549073749231 -0.012561871789065076 0.0021023629410982137 0.0049777111633452584 -0.00017553352107448235 -0.0016992375030063494 0.00019273548434100998 0.002743750584513466
 0.0001911566918040535 0.0027439902663370878 -0.00017553352107448235 -0.0016992375030063494 0.0021025963837107207 0.004977921289291848 0.9977549101252263 -0.012561620880999743
 -0.0001755422606954326 -0.0016992386906254432 0.00019273548434100998 0.002743750584513466 0.9977549101252263 -0.012561620880999743 0.002102366655754051 0.004977961288999091
0.02501042100875 0.0023019409425583995 0.006685578761543304 0.9974952384331472 -0.016769720189755335 0.0002531807327710398 0.0036602065984515453 -0.0002292450537341275 -0.0022693747102158104
 0.9974952384331472 -0.016769720189755335 0.0023015292900728564 0.006685636770390838 -0.00022922960538607906 -0.0022693733810260587 0.00025598531204581125 0.003659829392277649
 0.0002531807327710398 0.0036602065984515453 -0.00022922960538607906 -0.0022693733810260587 0.0023019435249644446 0.006685913699825674 0.997495242947406 -0.016769385807880576
 -0.0002292450537341275 -0.0022693747102158104 0.00025598531204581125 0.003659829392277649 0.997495242947406 -0.016769385807880576 0.0023015355320177068 0.0066859697565942395
0.03126302626094 0.0025173128840906334 0.008413638233482627 0.9972132391107432 -0.02099140631709407 0.00032488038441787394 0.0045772838728935965 -0.00029108371343835254 -0.0028408865559543155
 0.9972132391107432 -0.02099140631709407 0.0025166701223694153 0.00841371465338199 -0.00029105968927962354 -0.0028408852521583966 0.0003292610124130992 0.004576732944455566
 0.00032488038441787394 0.0045772838728935965 -0.00029105968927962354 -0.0028408852521583966 0.0025173165103873495 0.008414056703096405 0.9972132458135048 -0.02099098846510305
 -0.00029108371343835254 -0.0028408865559543155 0.0003292610124130992 0.004576732944455566 0.9972132458135048 -0.02099098846510305 0.0025166795413551902 0.008414130239476247
0.037515631513130004 0.0027490546378582293 0.010161033998708989 0.9969086011277178 -0.025227346603922837 0.00040635789627168576 0.0054951396144413064 -0.00036116754113249024 -0.003413605797918813
 0.9969086011277178 -0.025227346603922837 0.0027481295734208995 0.010161130492241564 -0.00036113308864511623 -0.003413604710775682 0.00041266549771343876 0.005494374292886433
 0.00040635789627168576 0.0054951396144413064 -0.00036113308864511623 -0.003413604710775682 0.0027490594417251815 0.010161535921480997 0.9969086104460889 -0.025226845264814415
 -0.00036116754113249024 -0.003413605797918813 0.00041266549771343876 0.005494374292886433 0.9969086104460889 -0.025226845264814415 0.002748142822322605 0.010161628389232796
0.043768236765320004 0.0029975054055387646 0.01192715517291962 0.9965810128248024 -0.029477741925250513 0.0004977143184223537 0.0064136723351244556 -0.0004396034436698597 -0.003987376276732762
 0.9965810128248024 -0.029477741925250513 0.002996246848713265 0.011927273447295734 -0.00043955672415713125 -0.00398737562188431 0.0005063005404618347 0.006412647425571097
 0.0004977143184223537 0.0064136723351244556 -0.00043955672415713125 -0.00398737562188431 0.0029975115086428926 0.011927740462021861 0.9965810251889705 -0.029477157058541856
 -0.0004396034436698597 -0.003987376276732762 0.0005063005404618347 0.006412647425571097 0.9965810251889705 -0.029477157058541856 0.0029962645820905847 0.011927853340340706
0.050020842017509996 0.003263000802075002 0.013711502838015447 0.9962301607598288 -0.03374266904339665 0.0005990492194688838 0.007332768390108036 -0.0005264960407133761 -0.004562047262474796
 0.9962301607598288 -0.03374266904339665 0.0032613575500993427 0.013711644644112514 -0.0005264352287462107 -0.0045620472800053545 0.0006102664504077325 0.007331434120439376
 0.0005990492194688838 0.007332768390108036 -0.0005264352287462107 -0.0045620472800053545 0.0032630083131659857 0.013712171385112873 0.9962301766032944 -0.03374200059792869
 -0.0005264960407133761 -0.004562047262474796 0.0006102664504077325 0.007331434120439376 0.9962301766032944 -0.03374200059792869 0.0032613804231851526 0.013712306179373301
0.055454545454549996 0.003507825130700708 0.015276620554369676 0.9959061225919125 -0.037460821100662206 0.0006952921277935071 0.008131853299970807 -0.0006089557610310762 -0.005062069622247457
 0.9959061225919125 -0.037460821100662206 0.003505805963133913 0.015276784265804269 -0.0006088812300423534 -0.0050620704381053394 0.000709082540058872 0.008130206170412551
 0.0006952921277935071 0.008131853299970807 -0.0006088812300423534 -0.0050620704381053394 0.003507833944050252 0.015277361357155413 0.995906141813755 -0.037460079966142666
 -0.0006089557610310762 -0.005062069622247457 0.000709082540058872 0.008130206170412551 0.995906141813755 -0.037460079966142666 0.0035058338343524733 0.015277516439505817
0.056273447269699996 0.003545873530352821 0.015513645105643688 0.9958557306579856 -0.03802212547558838 0.0007104604792950304 0.008252305342346498 -0.0006219476861138246 -0.005137470108032151
 0.9958557306579856 -0.03802212547558838 0.003543794352850649 0.01551381223764452 -0.000621870969380652 -0.00513747106253111 0.000724661844022875 0.008250607309217508
 0.0007104604792950304 0.008252305342346498 -0.000621870969380652 -0.00513747106253111 0.0035458825457422892 0.01551439678796986 0.9958557504179688 -0.03802137338234595
 -0.0006219476861138246 -0.005137470108032151 0.000724661844022875 0.008250607309217508 0.9958557504179688 -0.03802137338234595 0.003543823020382675 0.015514555029191718
0.06252605252188 0.0038464537346171554 0.017333192428891617 0.995457408043205 -0.042316054117455516 0.000832044123720725 0.00917215382200487 -0.0007260584424097605 -0.005713496412123268
 0.995457408043205 -0.042316054117455516 0.003843887358570416 0.017333386724369744 -0.00072596402160034 -0.00571349859272666 0.0008495834621315355 0.009170032936640083
 0.000832044123720725 0.00917215382200487 -0.00072596402160034 -0.00571349859272666 0.0038464643380891855 0.01733402710924157 0.9954574321614952 -0.04231521828956915
 -0.0007260584424097605 -0.005713496412123268 0.0008495834621315355 0.009170032936640083 0.9954574321614952 -0.04231521828956915 0.003843922474044175 0.017334210353934808
0.06877865777407 0.004165069181204179 0.019169782880224646 0.9950348787019666 -0.04662435790513131 0.0009638941791986137 0.010092178637414203 -0.0008389260303692851 -0.006289976935825134
 0.9950348787019666 -0.04662435790513131 0.004161964276559899 0.01917000622074441 -0.0008388121191318639 -0.0062899806562626654 0.0009851260134727492 0.010089571071558855
 0.0009638941791986137 0.010092178637414203 -0.0008388121191318639 -0.0062899806562626654 0.004165081443448408 0.0191707004007702 0.9950349076254803 -0.046623438244042546
 -0.0008389260303692851 -0.006289976935825134 0.0009851260134727492 0.010089571071558855 0.9950349076254803 -0.046623438244042546 0.004162006491059609 0.01917091023135319
0.07503126302626001 0.0045020453329580904 0.021023072814979626 0.9945878290451188 -0.05094690909724763 0.0011061025410979048 0.011012239485289859 -0.0009606457617981362 -0.006866760925334439
 0.9945878290451188 -0.05094690909724763 0.004498350498907268 0.02102332712710897 -0.0009605105868982748 -0.006866766523948407 0.0011313820344364444 0.011009076617536716
 0.0011061025410979048 0.011012239485289859 -0.0009605105868982748 -0.006866766523948407 0.004502059312208613 0.02102407300227354 0.994587863226299 -0.05094590548759749
 -0.0009606457617981362 -0.006866760925334439 0.0011313820344364444 0.011009076617536716 0.994587863226299 -0.05094590548759749 0.0044984004602283256 0.021024311028011843
0.08128386827845 0.004857705360630714 0.022892730673975382 0.9941159464089968 -0.055283555423881 0.0012587588494299155 0.011932191434991793 -0.0010913104627833935 -0.007443695666395343
 0.9941159464089968 -0.055283555423881 0.004853369110787163 0.022893017930881807 -0.0010911522641543457 -0.007443703506176083 0.0012884417574622385 0.011928399797678933
 0.0012587588494299155 0.011932191434991793 -0.0010911522641543457 -0.007443703506176083 0.004857721101822064 0.02289381333500434 0.9941159863066147 -0.055282467737565594
 -0.0010913104627833935 -0.007443695666395343 0.0012884417574622385 0.011928399797678933 0.9941159863066147 -0.055282467737565594 0.004853427462299193 0.02289408119330661
0.08753647353064001 0.005232370109368412 0.024778432682018958 0.993618919318098 -0.05963412434607874 0.0014219503699417159 0.01285188526382354 -0.0012310103887141245 -0.00802062619380027
 0.993618919318098 -0.05963412434607874 0.005227340858525798 0.02477875490547997 -0.001230827419723404 -0.008020636662394047 0.0014563929873065977 0.012847386490591133
 0.0014219503699417159 0.01285188526382354 -0.001230827419723404 -0.008020636662394047 0.0052323876441795 0.02477959760812586 0.9936189653974445 -0.05963295243831293
 -0.0012310103887141245 -0.00802062619380027 0.0014563929873065977 0.012847386490591133 0.9936189653974445 -0.05963295243831293 0.005227408237563899 0.02477989696656076
0.09378907878283 0.005626358036118563 0.026679859801595124 0.9930964377195826 -0.06399842606693215 0.0015957618780331356 0.013771167713594237 -0.0013798331355169323 -0.008597395085801377
 0.9930964377195826 -0.06399842606693215 0.005620584085439073 0.026680219064558117 -0.001379623663119995 -0.008597408595519183 0.0016353209797237713 0.013765878487741965
 0.0015957618780331356 0.013771167713594237 -0.001379623663119995 -0.008597408595519183 0.005626377383251235 0.02668110676514517 0.9930964904534814 -0.06399716977959156
 -0.0013798331355169323 -0.008597395085801377 0.0016353209797237713 0.013765878487741965 0.9930964904534814 -0.06399716977959156 0.005620661123057626 0.026681439323872593
0.100041684035 0.006039985124809545 0.028596695485692363 0.992548193200997 -0.06837625575053856 0.0017802755453072132 0.014689881683131881 -0.0015378635462384772 -0.00917384232897182
 0.992548193200997 -0.06837625575053856 0.006033414647637414 0.02859709391535795 -0.0015376258511776808 -0.009173859316803238 0.0018253083245035957 0.014683713686849167
 0.0017802755453072132 0.014689881683131881 -0.0015376258511776808 -0.009173859316803238 0.006040006288954271 0.028598024239172376 0.992548253070003 -0.06837491491320401
 -0.0015378635462384772 -0.00917384232897182 0.0018253083245035957 0.014683713686849167 0.992548253070003 -0.06837491491320401 0.006033501966891691 0.02859839173384583
0.1059090909091 0.006446271097196044 0.0304091751233949 0.992010019665161 -0.07249649390665289 0.0019632263628341453 0.015551337096020966 -0.0016946056724460121 -0.009714339496405778
 0.992010019665161 -0.07249649390665289 0.006438905902731867 0.030409612292977433 -0.001694339942360764 -0.009714360167473426 0.002013720785314745 0.015544259644120468
 0.0019632263628341453 0.015551337096020966 -0.001694339942360764 -0.009714360167473426 0.006446293958870813 0.03041058038919169 0.9920100866744295 -0.07249507355825055
 -0.0016946056724460121 -0.009714339496405778 0.002013720785314745 0.015544259644120468 0.9920100866744295 -0.07249507355825055 0.006439003428908521 0.03041098228089361
0.1062942892872 0.006473564785613484 0.03052862399136401 0.991973879195215 -0.07276739518767363 0.001975570828036824 0.015607866385318107 -0.001705183615038985 -0.00974980522512745
 0.991973879195215 -0.07276739518767363 0.006466145813750292 0.030529063772749287 -0.0017049159922019087 -0.00974982615271135 0.002026434829808508 0.015600726249889894
 0.001975570828036824 0.015607866385318107 -0.0017049159922019087 -0.00974982615271135 0.006473587758196484 0.030530034272121153 0.9919739466884127 -0.07276596961292671
 -0.001705183615038985 -0.00974980522512745 0.002026434829808508 0.015600726249889894 0.9919739466884127 -0.07276596961292671 0.006466244028728776 0.03053043847750231
0.11254689453939999 0.006927407742929493 0.032475329112476095 0.9913731911760173 -0.07717161404965531 0.0021817243562005273 0.016524957475828266 -0.0018818723894249243 -0.010325118333275545
 0.9913731911760173 -0.07717161404965531 0.006919088151524164 0.03247581249261884 -0.0018815731480029314 -0.010325143686897019 0.002238777408417137 0.016516746732850356
 0.0021817243562005273 0.016524957475828266 -0.0018815731480029314 -0.010325143686897019 0.006927432501177042 0.032476820636794065 0.9913732667916902 -0.0771701035391544
 -0.0018818723894249243 -0.010325118333275545 0.002238777408417137 0.016516746732850356 0.9913732667916902 -0.0771701035391544 0.006919197866252724 0.03247726337087006
0.11879949979160001 0.00740182191264147 0.03443649317411501 0.990745826847972 -0.08158867088851168 0.0023988098239200698 0.017440987165753968 -0.0020680058704142146 -0.010899613434483908
 0.990745826847972 -0.08158867088851168 0.007392549406265283 0.03443702246675324 -0.002067673334351695 -0.010899643725026283 0.0024624099652509027 0.01743160219947352
 0.0023988098239200698 0.017440987165753968 -0.002067673334351695 -0.010899643725026283 0.007401848419746006 0.034438065642344536 0.9907459110937513 -0.08158707522795149
 -0.0020680058704142146 -0.010899613434483908 0.0024624099652509027 0.01743160219947352 0.9907459110937513 -0.08158707522795149 0.007392671213176991 0.0344385487709653
0.1250521050438 0.007897112272312386 0.036411796259075355 0.9900914863301308 -0.08601831391288411 0.0026268978805331377 0.018355784321285772 -0.002263656912053804 -0.011473119516648545
 0.9900914863301308 -0.08601831391288411 0.007886834370199934 0.036412373849997036 -0.0022632894201738093 -0.011473155279602538 0.0026974032856737933 0.018345116322110656
 0.0026268978805331377 0.018355784321285772 -0.0022632894201738093 -0.011473155279602538 0.007897140477304042 0.03641344935255944 0.9900915797240437 -0.08601663287525114
 -0.002263656912053804 -0.011473119516648545 0.0026974032856737933 0.018345116322110656 0.9900915797240437 -0.08601663287525114 0.00788696884945326 0.03641397479480684
0.131304710296 0.008413580725898493 0.03840091558586732 0.9894098723378385 -0.09046028162064727 0.0028660560224614416 0.019269174556291117 -0.0024688951196686275 -0.012045462773479796
 0.9894098723378385 -0.09046028162064727 0.008402244747159218 0.03840154393877087 -0.0024684910261140855 -0.012045504568844354 0.0029438249246829186 0.019257109475564534
 0.0028660560224614416 0.019269174556291117 -0.0024684910261140855 -0.012045504568844354 0.008413610563204107 0.03840264896870336 0.9894099754090181 -0.09045851496474992
 -0.0024688951196686275 -0.012045462773479796 0.0029438249246829186 0.019257109475564534 0.9894099754090181 -0.09045851496474992 0.008402392465293344 0.0384032187027795
0.1375573155481 0.008835421979212247 0.04014243403544141 0.9888168446025284 -0.094653074172388 0.003086547379293359 0.020154519190216182 -0.002653897502835702 -0.012590094078668172
 0.9888168446025284 -0.094653074172388 0.008822973103682578 0.040143103334609284 -0.0026534545939123086 -0.012590141977361653 0.003171751031425375 0.020141072012318403
 0.003086547379293359 0.020154519190216182 -0.0026534545939123086 -0.012590141977361653 0.008835454440924527 0.04014424696185684 0.9888169577967553 -0.09465122177127298
 -0.002653897502835702 -0.012590094078668172 0.003171751031425375 0.020141072012318403 0.9888169577967553 -0.09465122177127298 0.008823133717280386 0.04014485168320369
0.1438099208003 0.009272159964048376 0.04187430956274346 0.9882028437556917 -0.09883480029129568 0.0033159354393714736 0.021036156460113115 -0.0028463023166408856 -0.013131280510225626
 0.9882028437556917 -0.09883480029129568 0.0092585449748037 0.04187502169887369 -0.0028458188660297856 -0.013131335057964974 0.0034088984033557226 0.02102122277527123
 0.0033159354393714736 0.021036156460113115 -0.0028458188660297856 -0.013131335057964974 0.009272195156520752 0.04187620162380479 0.9882029676002647 -0.0988328619132713
 -0.0028463023166408856 -0.013131280510225626 0.0034088984033557226 0.02102122277527123 0.9882029676002647 -0.0988328619132713 0.00925871886563434 0.04187684283672918
0.1500625260525 0.009723634764348817 0.04359638428297294 0.9875680342865104 -0.10300534317978026 0.0035541376013721268 0.021913991872809974 -0.0030460280757738747 -0.013668930729798868
 0.9875680342865104 -0.10300534317978026 0.009708800257337277 0.04359714130452287 -0.003045502364928994 -0.013668992493504577 0.0036551823359566964 0.02189746348047738
 0.0035541376013721268 0.021913991872809974 -0.003045502364928994 -0.013668992493504577 0.009723672792920166 0.04359835505333207 0.9875681693178968 -0.1030033185828122
 -0.0030460280757738747 -0.013668930729798868 0.0036551823359566964 0.02189746348047738 0.9875681693178968 -0.1030033185828122 0.00970898778285116 0.0435990344098177
0.15631513130469998 0.01018968524597452 0.04530850504638489 0.986912581617018 -0.10716458672888417 0.003801070247236996 0.02278793261844067 -0.0032529922459740095 -0.014202955403303227
 0.986912581617018 -0.10716458672888417 0.010173577624881526 0.04530930916742592 -0.0032524225643188716 -0.014203024970911842 0.003910517074140746 0.022769697570083864
