! Created with skrf 1.8.0 (http://scikit-rf.org).
# GHz S RI R 50.0 
!freq ReS11 ImS11 ReS12 ImS12 ReS13 ImS13
! ReS14 ImS14
! ReS21 ImS21 ReS22 ImS22 ReS23 ImS23
! ReS24 ImS24
! ReS31 ImS31 ReS32 ImS32 ReS33 ImS33
! ReS34 ImS34
! ReS41 ImS41 ReS42 ImS42 ReS43 ImS43
! ReS44 ImS44
!
0.0 0.00178295148836 0.0 0.9982170485031 0.0 6.942107434827e-05 0.0 -6.942107488043e-05 8.501629714568732e-21
 0.9982170485031 0.0 0.001782951488336 0.0 -6.942107488049e-05 8.50162971457608e-21 6.942107434688e-05 0.0
 6.942107434827e-05 0.0 -6.942107488049e-05 8.50162971457608e-21 0.001782951485521 0.0 0.9982170485003 0.0
 -6.942107488043e-05 8.501629714568732e-21 6.942107434688e-05 0.0 0.9982170485003 0.0 0.00178295148549 0.0
0.005 0.0019191710305021183 0.0014531712072266337 0.9980445730838188 -0.0037342545814503685 9.839492687517236e-05 0.0007929871904013799 -9.53805876932869e-05 -0.0004926716971302944
 0.9980445730838188 -0.0037342545814503685 0.0019191557388922222 0.0014531802198033729 -9.53807217394217e-05 -0.0004926718759279712 9.849493753737897e-05 0.0007929492039426541
 9.839492687517236e-05 0.0007929871904013799 -9.53807217394217e-05 -0.0004926718759279712 0.0019191709684984023 0.0014532385718574244 0.9980445734680004 -0.0037341875286301036
 -9.53805876932869e-05 -0.0004926716971302944 9.849493753737897e-05 0.0007929492039426541 0.9980445734680004 -0.0037341875286301036 0.0019191565604792585 0.0014532469527257295
0.006252605252188 0.0019551403991436025 0.0018221685326904491 0.9979987072000289 -0.004668694823503746 0.00010679260740774073 0.0009915901475111048 -0.00010282796851537743 -0.0006164679614234914
 0.9979987072000289 -0.004668694823503746 0.0019551164943282713 0.0018221799402716574 -0.00010282817649783174 -0.000616468183479807 0.00010694886465550172 0.000991540765567243
 0.00010679260740774073 0.0009915901475111048 -0.00010282817649783174 -0.000616468183479807 0.0019551402192910703 0.0018222527431251332 0.9979987077182287 -0.004668611006228853
 -0.00010282796851537743 -0.0006164679614234914 0.00010694886465550172 0.000991540765567243 0.9979987077182287 -0.004668611006228853 0.0019551176967262294 0.0018222633463871678
0.01250521050438 0.0021459053010134004 0.0036823176116062544 0.9977536872424613 -0.00933793239523692 0.00015558571504141288 0.0019833486453938324 -0.00014571659139995732 -0.0012357854124006758
 0.9977536872424613 -0.00933793239523692 0.002145809830225941 0.003682341852225201 -0.00014571740370518033 -0.001235785841541746 0.0001562088491667665 0.0019832292146027557
 0.00015558571504141288 0.0019833486453938324 -0.00014571740370518033 -0.001235785841541746 0.002145904014614621 0.003682485820986079 0.9977536887559183 -0.009337764986239675
 -0.00014571659139995732 -0.0012357854124006758 0.0001562088491667665 0.0019832292146027557 0.9977536887559183 -0.009337764986239675 0.0021458140802769333 0.0036825082934807307
0.01875781575657 0.0023557124299954314 0.0055686440276510735 0.9974816489617835 -0.014019021390017714 0.00021592164888589353 0.002975932208389419 -0.00019823002751708966 -0.0018569830441335174
 0.9974816489617835 -0.014019021390017714 0.0023554978652205205 0.005568682633703274 -0.00019823182880186518 -0.001856983665042431 0.00021732148169824266 0.002975717591252977
 0.00021592164888589353 0.002975932208389419 -0.00019823182880186518 -0.001856983665042431 0.0023557090925672626 0.005568896143974266 0.9974816519426323 -0.014018770448644238
 -0.00019823002751708966 -0.0018569830441335174 0.00021732148169824266 0.002975717591252977 0.9974816519426323 -0.014018770448644238 0.0023555070022288835 0.005568931820306967
0.02501042100875 0.0025850111433392887 0.007478433050248612 0.9971822380573343 -0.018714165692459057 0.00028792246007992714 0.003969348931418738 -0.0002605053705390833 -0.002479730978566691
 0.9971822380573343 -0.018714165692459057 0.0025846300235302646 0.007478487641832371 -0.0002605085376327055 -0.0024797317750070765 0.00029040891736444995 0.0039690096428203
 0.00028792246007992714 0.003969348931418738 -0.0002605085376327055 -0.0024797317750070765 0.0025850048004828386 0.007478768978896794 0.9971822429833482 -0.018713831233453604
 -0.0002605053705390833 -0.002479730978566691 0.00029040891736444995 0.0039690096428203 0.9971822429833482 -0.018713831233453604 0.0025846458904778165 0.007478819243647081
0.03126302626094 0.002834232035931209 0.009410254478851347 0.9968550841573733 -0.02342426832975524 0.0003717098475724462 0.004963511038795091 -0.00033267490616588986 -0.0031037861570473394
 0.9968550841573733 -0.02342426832975524 0.002833636937079873 0.009410326760039209 -0.00033267980947343794 -0.003103787111877631 0.00037559322492329827 0.004963013217699388
 0.0003717098475724462 0.004963511038795091 -0.00033267980947343794 -0.003103787111877631 0.00283422171784938 0.009410674124352675 0.9968550915082306 -0.023423850321558196
 -0.00033267490616588986 -0.0031037861570473394 0.00037559322492329827 0.004963013217699388 0.9968550915082306 -0.023423850321558196 0.0028336613751359925 0.009410740407829707
0.037515631513130004 0.0031037956483117406 0.011363150692931893 0.9964998099325372 -0.028149743368442923 0.0004674039761406432 0.005958292333579133 -0.0004148670879680383 -0.003728934942584234
 0.9964998099325372 -0.028149743368442923 0.0031029391614643314 0.011363242450118083 -0.00041487409218886524 -0.003728936037808633 0.000472995047594542 0.005957597699052512
 0.0004674039761406432 0.005958292333579133 -0.00041487409218886524 -0.003728936037808633 0.0031037803706870258 0.011363653938509449 0.9964998201928775 -0.028149241753632655
 -0.0004148670879680383 -0.003728934942584234 0.000472995047594542 0.005957597699052512 0.9964998201928775 -0.028149241753632655 0.0031029740110809236 0.011363737714479199
0.043768236765320004 0.0033941158063335863 0.013336389573810168 0.9961160348398247 -0.03289076292870744 0.0005751228980207056 0.006953545677498146 -0.0005072068627338805 -0.00435497568607525
 0.9961160348398247 -0.03289076292870744 0.003392950520109973 0.013336502675042676 -0.0005072163274714361 -0.004354976902901397 0.0005827329570813621 0.006952611480063254
 0.0005751228980207056 0.006953545677498146 -0.0005072163274714361 -0.004354976902901397 0.0033940945688486924 0.013336976282870977 0.9961160484988931 -0.03289017762258648
 -0.0005072068627338805 -0.00435497568607525 0.0005827329570813621 0.006952611480063254 0.9961160484988931 -0.03289017762258648 0.003392997618394374 0.013337079067424044
0.050020842017509996 0.003705601151991309 0.015329362389528941 0.9957033770607796 -0.03764735923598508 0.0006949821874317813 0.007949110227835678 -0.0006098157649208809 -0.004981711539098089
 0.9957033770607796 -0.03764735923598508 0.0037040796360814335 0.01532949878459179 -0.0006098280450304 -0.004981712858017857 0.0007049230519185471 0.00794788919906748
 0.0006949821874317813 0.007949110227835678 -0.0006098280450304 -0.004981712858017857 0.003705572938740664 0.015330032406304548 0.9957033946147448 -0.03764669012610594
 -0.0006098157649208809 -0.004981711539098089 0.0007049230519185471 0.00794788919906748 0.9957033946147448 -0.03764669012610594 0.003704140817045557 0.015330155757228176
0.055454545454549996 0.003993794116716044 0.017076925385303917 0.9953210120407288 -0.04179359272338615 0.0008090907015651954 0.008814406149751998 -0.0007074176185545844 -0.00552677662469141
 0.9953210120407288 -0.04179359272338615 0.003991924481122502 0.01707708367080849 -0.0007074326300543829 -0.0055267780159737505 0.0008213107355810626 0.008812893920135234
 0.0008090907015651954 0.008814406149751998 -0.0007074326300543829 -0.0055267780159737505 0.003993759003064327 0.01707766765264434 0.9953210333877606 -0.04179285067767537
 -0.0007074176185545844 -0.00552677662469141 0.0008213107355810626 0.008812893920135234 0.9953210333877606 -0.04179285067767537 0.003991999385706031 0.017077810173920936
0.056273447269699996 0.004038655902244133 0.017341533692408394 0.9952614546731261 -0.04241947466505247 0.0008270946668867285 0.008944815005476631 -0.0007228119095920257 -0.005608946942075638
 0.9952614546731261 -0.04241947466505247 0.004036730692349245 0.01734169541343983 -0.0007228273555209237 -0.005608948342920253 0.0008396786621175492 0.008943255307042009
 0.0008270946668867285 0.008944815005476631 -0.0007228273555209237 -0.005608948342920253 0.0040386196801063794 0.017342286836131798 0.9952614766248256 -0.04241872161712357
 -0.0007228119095920257 -0.005608946942075638 0.0008396786621175492 0.008943255307042009 0.9952614766248256 -0.04241872161712357 0.004036807784398994 0.017342432352992737
0.06252605252188 0.004393680226993594 0.019372413785453794 0.9947898864460213 -0.0472069892222891 0.0009715701814214943 0.00994048086281283 -0.0008463099319714146 -0.006236485720440169
 0.9947898864460213 -0.0472069892222891 0.004391303809760885 0.01937260294819885 -0.0008463288900190437 -0.006236487182448974 0.0009871101083929706 0.00993852603557424
 0.0009715701814214943 0.00994048086281283 -0.0008463288900190437 -0.006236487182448974 0.0043936349458704605 0.019373249853081514 0.9947899133073604 -0.047206152077720366
 -0.0008463099319714146 -0.006236485720440169 0.0009871101083929706 0.00993852603557424 0.9947899133073604 -0.047206152077720366 0.0043913986354031246 0.0193734191778911
0.06877865777407 0.004771070423725828 0.021421542293793186 0.9942882924382614 -0.05200973693204566 0.0011285153973802713 0.01093592168065429 -0.0009804208981007657 -0.006864129960572843
 0.9942882924382614 -0.05200973693204566 0.004768195222531374 0.021421761099340634 -0.0009804437106789138 -0.0068641314624477 0.0011473244907227404 0.010933510594131389
 0.0011285153973802713 0.01093592168065429 -0.0009804437106789138 -0.0068641314624477 0.004771015015286399 0.021422461057564804 0.9942883247298998 -0.05200881551057541
 -0.0009804208981007657 -0.006864129960572843 0.0011473244907227404 0.010933510594131389 0.9942883247298998 -0.05200881551057541 0.004768309596120705 0.021422655875957354
0.07503126302626001 0.0051712189638095825 0.023488477784562294 0.9937562944720331 -0.05682751618403962 0.0012980336176662828 0.011930945137131126 -0.0011252521963569804 -0.007491679322955915
 0.9937562944720331 -0.05682751618403962 0.0051677973242437655 0.02348872852175209 -0.0011252792021864098 -0.007491680842927803 0.0013204254955123387 0.011928011939637318
 0.0012980336176662828 0.011930945137131126 -0.0011252792021864098 -0.007491680842927803 0.005171152340670705 0.023489478997181085 0.9937563327249335 -0.056826510278974354
 -0.0011252521963569804 -0.007491679322955915 0.0013204254955123387 0.011928011939637318 0.9937563327249335 -0.056826510278974354 0.00516793305058717 0.023489701040121366
0.08128386827845 0.00559451446373008 0.025572790853364565 0.9931935165378536 -0.061660096625058294 0.0014802246061589842 0.012925353240711437 -0.001280907417567184 -0.008118930600954463
 0.9931935165378536 -0.061660096625058294 0.0055904986394450015 0.025573075901574167 -0.0012809389518988205 -0.008118932116824181 0.0015065132136365463 0.012921827310239269
 0.0014802246061589842 0.012925353240711437 -0.0012809389518988205 -0.008118932116824181 0.00559443551908092 0.025573874240619653 0.9931935612940864 -0.0616590060108035
 -0.001280907417567184 -0.008118930600954463 0.0015065132136365463 0.012921827310239269 0.9931935612940864 -0.0616590060108035 0.005590657512431211 0.025574125286857017
0.08753647353064001 0.006041341603278123 0.027674059356995084 0.9925995851498621 -0.06650722391503414 0.001675184418433777 0.013918942716103532 -0.00144748622713937 -0.008745677436691864
 0.9925995851498621 -0.06650722391503414 0.006036683741786373 0.027674381189693367 -0.0014475226219800683 -0.008745678925875527 0.0017056839661872974 0.01391474861219041
 0.001675184418433777 0.013918942716103532 -0.0014475226219800683 -0.008745678925875527 0.006041249210247727 0.02767522462470752 0.9925996369637604 -0.06650604834072693
 -0.00144748622713937 -0.008745677436691864 0.0017056839661872974 0.01391474861219041 0.9925996369637604 -0.06650604834072693 0.006036867542633413 0.027675506503661053
0.09378907878283 0.0065120810090331036 0.02979186502458601 0.9919741296712898 -0.0713686231165929 0.001883005237197457 0.0149115052968776 -0.0016250842317273308 -0.009371710140429198
 0.9919741296712898 -0.0713686231165929 0.0065067331370404265 0.029792226213389075 -0.001625125815928384 -0.009371711580011684 0.001918030135247147 0.014906562713487503
 0.001883005237197457 0.0149115052968776 -0.001625125815928384 -0.009371711580011684 0.006511974019373515 0.02979311185649411 0.9919741891102253 -0.07136736230862493
 -0.0016250842317273308 -0.009371710140429198 0.001918030135247147 0.014906562713487503 0.9919741891102253 -0.07136736230862493 0.006506943632926034 0.029793426451769262
0.100041684035 0.007007109110162789 0.03192579097827743 0.9913167826163208 -0.07624400118697097 0.0021037752109555274 0.015902827963240405 -0.001813792841657447 -0.00999681557540242
 0.9913167826163208 -0.07624400118697097 0.007001023119735667 0.03192619419759046 -0.0018138399411892982 -0.009996816942171043 0.002143639999000536 0.015897051682774777
 0.0021037752109555274 0.015902827963240405 -0.0018138399411892982 -0.009996816942171043 0.007006986354406053 0.031927119032867976 0.9913168502622398 -0.07624265485264824
 -0.001813792841657447 -0.00999681557540242 0.002143639999000536 0.015897051682774777 0.9913168502622398 -0.07624265485264824 0.007001262062060061 0.031927468286482553
0.1059090909091 0.007494062277077199 0.03394254362648927 0.9906706027528184 -0.08083146474876277 0.0023227963722441377 0.01683175769627246 -0.0020010584539454975 -0.010582374445254498
 0.9906706027528184 -0.08083146474876277 0.007487239754478518 0.03394298881555292 -0.002001111023110418 -0.010582375722340238 0.002367489005222693 0.01682511716062301
 0.0023227963722441377 0.01683175769627246 -0.002001111023110418 -0.010582375722340238 0.00749392364265561 0.03394394757283289 0.9906706786423303 -0.08083003786833438
 -0.0020010584539454975 -0.010582374445254498 0.002367489005222693 0.01682511716062301 0.9906706786423303 -0.08083003786833438 0.007487506967684084 0.03394433117211757
0.1062942892872 0.007526797976946357 0.0340754198779719 0.9906271799383787 -0.08113304885802186 0.0023375782949532535 0.016892693136464243 -0.00201369913131236 -0.010620777096562149
 0.9906271799383787 -0.08113304885802186 0.007519925610940767 0.034075867910330626 -0.002013752069471083 -0.010620778367016172 0.0023825975690645444 0.01688599298509224
 0.0023375782949532535 0.016892693136464243 -0.002013752069471083 -0.010620778367016172 0.007526658262944144 0.034076828795450584 0.9906272563879714 -0.08113161667915894
 -0.00201369913131236 -0.010620777096562149 0.0023825975690645444 0.01688599298509224 0.9906272563879714 -0.08113161667915894 0.007520194733301395 0.03407721471264439
0.11254689453939999 0.008071515144193471 0.03624033252636933 0.9899049613058648 -0.08603544206885046 0.0025844940945742635 0.01788087885259074 -0.0022248856972463915 -0.011243374521072139
 0.9899049613058648 -0.08603544206885046 0.008063807981695608 0.036240828268368976 -0.0022249447946412607 -0.011243375671516396 0.0026349824309599506 0.017873159656812937
 0.0025844940945742635 0.01788087885259074 -0.0022249447946412607 -0.011243375671516396 0.008071357256617631 0.036241821923139544 0.9899050471720106 -0.0860339237079905
 -0.0022248856972463915 -0.011243374521072139 0.0026349824309599506 0.017873159656812937 0.9899050471720106 -0.0860339237079905 0.008064108998747726 0.03624224657780032
0.11879949979160001 0.008641623423631334 0.03842010678560284 0.9891497703705163 -0.09095084309960663 0.002844597710318141 0.01886715891537163 -0.002447430515212303 -0.011864384130503856
 0.9891497703705163 -0.09095084309960663 0.008633032865685866 0.03842065325451743 -0.002447496090098837 -0.011864385136987649 0.002900869586326557 0.01885832046000232
 0.002844597710318141 0.01886715891537163 -0.002447496090098837 -0.011864385136987649 0.008641446123385242 0.03842167625668958 0.9891498662837112 -0.09094923819826861
 -0.002447430515212303 -0.011864384130503856 0.002900869586326557 0.01885832046000232 0.9891498662837112 -0.09094923819826861 0.008633367471194952 0.0384221417975495
0.1250521050438 0.009237480707538277 0.04061431673554413 0.9883612550294633 -0.0958789014769931 0.0031179595847608405 0.019851303040535187 -0.002681406796769027 -0.012483578692921611
 0.9883612550294633 -0.0958789014769931 0.00922795796276915 0.04061491707657398 -0.0026814791652056418 -0.012483579531328523 0.0031803292971641145 0.019841240028201982
 0.0031179595847608405 0.019851303040535187 -0.0026814791652056418 -0.012483579531328523 0.009237282730987032 0.04061596585761918 0.9883613616384451 -0.09587720965343856
 -0.002681406796769027 -0.012483578692921611 0.0031803292971641145 0.019841240028201982 0.9883613616384451 -0.09587720965343856 0.009228327827861657 0.04061647451506384
0.131304710296 0.00985943976624437 0.04282253202324542 0.9875390676828218 -0.10081925470210663 0.00340464535094236 0.02083307699238316 -0.002926882845819755 -0.01310072750391932
 0.9875390676828218 -0.10081925470210663 0.009848935836307693 0.04282318951746745 -0.0029269623217785634 -0.013100728149922443 0.0034734269318851354 0.020821679004514662
 0.00340464535094236 0.02083307699238316 -0.0029269623217785634 -0.013100728149922443 0.009859219824293887 0.04282426035068152 0.9875391856554554 -0.10081747555602426
 -0.002926882845819755 -0.01310072750391932 0.0034734269318851354 0.020821679004514662 0.9875391856554554 -0.10081747555602426 0.009849342607601114 0.04282481444437469
0.1375573155481 0.010373780531086974 0.0447560552402966 0.9868170032939925 -0.105483078448718 0.003670762327792387 0.021784173303339392 -0.0031498934827569143 -0.013687614244865703
 0.9868170032939925 -0.105483078448718 0.010362244548247896 0.04475676109304778 -0.0031499807441284365 -0.01368761470085875 0.003746107790543696 0.02177144758410258
 0.003670762327792387 0.021784173303339392 -0.0031499807441284365 -0.01368761470085875 0.0103735384682431 0.04475786197553067 0.9868171331659387 -0.10548121174706691
 -0.0031498934827569143 -0.013687614244865703 0.003746107790543696 0.02177144758410258 0.9868171331659387 -0.10548121174706691 0.01036268897210752 0.044758452711859964
0.1438099208003 0.010906448649638516 0.04667775806002846 0.9860690656852088 -0.11013343648799312 0.003947565634610326 0.022730485765851925 -0.003381758741549551 -0.014270066535202278
 0.9860690656852088 -0.11013343648799312 0.010893831120173012 0.04667851503843596 -0.003381854164397934 -0.014270066770069796 0.004029759445067636 0.02271633052237685
 0.003947565634610326 0.022730485765851925 -0.003381854164397934 -0.014270066770069796 0.010906183345400777 0.046679642678403396 0.9860692081249658 -0.11013148184053315
 -0.003381758741549551 -0.014270066535202278 0.004029759445067636 0.02271633052237685 0.9860692081249658 -0.11013148184053315 0.010894314646431029 0.04668027194414629
0.1500625260525 0.011457231055968449 0.04858743182962056 0.9852954732160787 -0.1147701643215927 0.004234942793665743 0.02367188766079169 -0.0036223680552100656 -0.014847963944013644
 0.9852954732160787 -0.1147701643215927 0.011443482296848887 0.04858824290609292 -0.0036224720177796864 -0.014847963924784045 0.0043242673075663245 0.023656197397491575
 0.004234942793665743 0.02367188766079169 -0.0036224720177796864 -0.014847963924784045 0.011456941378748005 0.04858939378616724 0.9852956289081658 -0.1147681213237688
 -0.0036223680552100656 -0.014847963944013644 0.0043242673075663245 0.023656197397491575 0.9852956289081658 -0.1147681213237688 0.01144400634125396 0.04859006364209064
0.15631513130469998 0.012025912858448775 0.05048487413790192 0.984496445708126 -0.11939309915613908 0.00453277981680285 0.024608254818715303 -0.0038716093247078156 -0.015421188924062607
 0.984496445708126 -0.11939309915613908 0.012010982992756658 0.05048574249893987 -0.003871722207575341 -0.015421188615805608 0.004629515242390618 0.024590920383006216
