! Created with skrf 1.8.0 (http://scikit-rf.org).
# GHz S RI R 50.0 
!freq ReS11 ImS11 ReS12 ImS12 ReS13 ImS13
! ReS14 ImS14
! ReS21 ImS21 ReS22 ImS22 ReS23 ImS23
! ReS24 ImS24
! ReS31 ImS31 ReS32 ImS32 ReS33 ImS33
! ReS34 ImS34
! ReS41 ImS41 ReS42 ImS42 ReS43 ImS43
! ReS44 ImS44
!
0.0 0.00147438159429 0.0 0.9985256183638 0.0 5.654971806594e-05 0.0 -5.654971804374e-05 6.925343119495152e-21
 0.9985256183638 0.0 0.001474381594265 0.0 -5.654971804336e-05 6.925343119448615e-21 5.654971806554e-05 0.0
 5.654971806594e-05 0.0 -5.654971804336e-05 6.925343119448615e-21 0.001474381615241 0.0 0.9985256183848 0.0
 -5.654971804374e-05 6.925343119495152e-21 5.654971806554e-05 0.0 0.9985256183848 0.0 0.001474381615242 0.0
0.005 0.0015860822795984374 0.0012101703361616966 0.998384362820101 -0.003088413651850337 7.847809012954631e-05 0.0006001087207326882 -7.642464997783245e-05 -0.00038071369397126107
 0.998384362820101 -0.003088413651850337 0.0015860748060552855 0.0012101747057847968 -7.642699001003618e-05 -0.0003807155139553728 7.851425292274693e-05 0.0006000949174541187
 7.847809012954631e-05 0.0006001087207326882 -7.642699001003618e-05 -0.0003807155139553728 0.0015860806026121105 0.0012101040954995198 0.9983843624702806 -0.0030884807032390237
 -7.642464997783245e-05 -0.00038071369397126107 7.851425292274693e-05 0.0006000949174541187 0.9983843624702806 -0.0030884807032390237 0.001586075784186506 0.0012101068429847864
0.006252605252188 0.0016153212043008487 0.001517463589337234 0.9983471691432881 -0.0038612798167892114 8.469249961582859e-05 0.0007504419905093579 -8.200327850466491e-05 -0.00047638234967157844
 0.9983471691432881 -0.0038612798167892114 0.0016153095219043944 0.0015174691403196268 -8.200691963886478e-05 -0.00047638459435245717 8.474900031235925e-05 0.0007504240780853323
 8.469249961582859e-05 0.0007504419905093579 -8.200691963886478e-05 -0.00047638459435245717 0.001615318658260653 0.0015173807835900605 0.9983471686721821 -0.0038613636401615002
 -8.200327850466491e-05 -0.00047638234967157844 8.474900031235925e-05 0.0007504240780853323 0.9983471686721821 -0.0038613636401615002 0.0016153111270161026 0.001517384298183064
0.01250521050438 0.0017689105069289964 0.0030666578148291724 0.9981505793897446 -0.007723400879629872 0.00012006550370501853 0.0015013429145662644 -0.0001134795707157146 -0.0009550884964380133
 0.9981505793897446 -0.007723400879629872 0.0017688638587799027 0.003066669827185354 -0.00011349391836952709 -0.0009550926547642857 0.00012029080522622877 0.0015013000004967562
 0.00012006550370501853 0.0015013429145662644 -0.00011349391836952709 -0.0009550926547642857 0.001768900885212767 0.0030664925129873202 0.9981505780590104 -0.0077235682701022575
 -0.0001134795707157146 -0.0009550884964380133 0.00012029080522622877 0.0015013000004967562 0.9981505780590104 -0.0077235682701022575 0.0017688708241187755 0.0030665003413325046
0.01875781575657 0.0019354729288911345 0.004637894681521976 0.997935613054531 -0.011595770992855966 0.00016275017755817755 0.002253187337314345 -0.00015107245174803344 -0.0014354682469201452
 0.997935613054531 -0.011595770992855966 0.0019353681084156233 0.004637914165282276 -0.00015110444543235156 -0.0014354739267626153 0.00016325627207496393 0.0022531109782120196
 0.00016275017755817755 0.002253187337314345 -0.00015110444543235156 -0.0014354739267626153 0.0019354517130525223 0.004637647072951896 0.9979356104793462 -0.011596021848013626
 -0.00015107245174803344 -0.0014354682469201452 0.00016325627207496393 0.0022531109782120196 0.9979356104793462 -0.011596021848013626 0.0019353841863235775 0.00463766004282941
0.02501042100875 0.0021153230152050778 0.006228996400529536 0.9977020250515888 -0.015480278485400466 0.00021282866475898736 0.0030060084198471264 -0.00019487306101373064 -0.0019173178695328303
 0.9977020250515888 -0.015480278485400466 0.002115136864006579 0.006229024458037282 -0.00019492955691967887 -0.0019173246106150765 0.0002137275818972989 0.0030058888693523947
 0.00021282866475898736 0.0030060084198471264 -0.00019492955691967887 -0.0019173246106150765 0.0021152856954403075 0.00622866667497717 0.9977020208540658 -0.01548061273444628
 -0.00019487306101373064 -0.0019173178695328303 0.0002137275818972989 0.0030058888693523947 0.9977020208540658 -0.01548061273444628 0.00211516581215715 0.006228685638889456
0.03126302626094 0.0023087622987283864 0.007838848490512564 0.9974495573652695 -0.019377739072613174 0.00027038345799954326 0.0037597731946904214 -0.00024497017048644073 -0.0024004948544846367
 0.9974495573652695 -0.019377739072613174 0.00230847169494721 0.00783888631560662 -0.0002450579557558411 -0.0024005021275055214 0.00027178737496952955 0.0037595993962159964
 0.00027038345799954326 0.0037597731946904214 -0.0002450579557558411 -0.0024005021275055214 0.0023087043637741926 0.00783843685711529 0.9974495511659001 -0.01937815665757132
 -0.00024497017048644073 -0.0024004948544846367 0.00027178737496952955 0.0037595993962159964 0.9974495511659001 -0.01937815665757132 0.002308517269889857 0.007838462691269433
0.037515631513130004 0.0025160859035054774 0.00946672901070281 0.997177945844159 -0.02328856656237238 0.00033549669339354675 0.004514422578893425 -0.00030145079548009855 -0.002884877901739822
 0.997177945844159 -0.02328856656237238 0.0025156677549559568 0.009466777888385283 -0.0003015765955725618 -0.002884885108108896 0.00033751798717742733 0.004514182152219427
 0.00033549669339354675 0.004514422578893425 -0.0003015765955725618 -0.002884885108108896 0.0025160028407190593 0.009466235699168275 0.9971779372627115 -0.023289067437325946
 -0.00030145079548009855 -0.002884877901739822 0.00033751798717742733 0.004514182152219427 0.9971779372627115 -0.023289067437325946 0.0025157337133089844 0.009466269302594787
0.043768236765320004 0.00273758509727732 0.011112104428153892 0.9968869229436608 -0.027212976918688764 0.00040824981556744064 0.005269883553815588 -0.00036440041479442273 -0.0033703547389625586
 0.9968869229436608 -0.027212976918688764 0.0027370163358559707 0.011112165734682393 -0.00036457089781843357 -0.003370361210710612 0.00041100109040798495 0.005269562779744096
 0.00040824981556744064 0.005269883553815588 -0.00036457089781843357 -0.003370361210710612 0.002737472395118472 0.011111529700813052 0.9968869116017317 -0.02721356103828544
 -0.00036440041479442273 -0.0033703547389625586 0.00041100109040798495 0.005269562779744096 0.9968869116017317 -0.02721356103828544 0.0027371064377965017 0.011111571994595218
0.050020842017509996 0.0029735484866679263 0.012774545269665028 0.996576219113114 -0.03115107253874621 0.0004887233756760444 0.006026074178929834 -0.0004339030497611353 -0.0038568171061173274
 0.996576219113114 -0.03115107253874621 0.0029728060640342863 0.012774620472828138 -0.00043412482929122204 -0.0038568221058741903 0.0004923174774011571 0.006025657983092984
 0.0004887233756760444 0.006026074178929834 -0.00043412482929122204 -0.0038568221058741903 0.0029734016320495664 0.012773889415286512 0.9965762046321613 -0.03115173986489383
 -0.0004339030497611353 -0.0038568171061173274 0.0004923174774011571 0.006025657983092984 0.9965762046321613 -0.03115173986489383 0.0029729240708981815 0.012773941341924276
0.055454545454549996 0.003190577117070354 0.014232829931224026 0.9962900144888428 -0.03458453586219613 0.0005649890580089609 0.006683750798838018 -0.0004996889698095021 -0.004280285117530658
 0.9962900144888428 -0.03458453586219613 0.0031896650718432683 0.014232918474373643 -0.0004999606576749529 -0.004280288185356408 0.0005694074391103607 0.0066832383713586255
 0.0005649890580089609 0.006683750798838018 -0.0004999606576749529 -0.004280288185356408 0.003190396917414161 0.01423210383723469 0.996289996972996 -0.034585275465380844
 -0.0004996889698095021 -0.004280285117530658 0.0005694074391103607 0.0066832383713586255 0.996289996972996 -0.034585275465380844 0.0031898103853456724 0.014232164916742266
0.056273447269699996 0.003224262627321611 0.014453684701367498 0.9962455636012649 -0.03510288360289363 0.000576996885025703 0.006782906066003709 -0.0005100412829725546 -0.004344158281712719
 0.9962455636012649 -0.03510288360289363 0.0032233235108431128 0.014453775360853169 -0.0005103209199465102 -0.0043441610027214 0.0005815469076559622 0.006782378002219224
 0.000576996885025703 0.006782906066003709 -0.0005103209199465102 -0.0043441610027214 0.0032240771069183666 0.014452948043299066 0.9962455456036212 -0.03510363409729848
 -0.0005100412829725546 -0.004344158281712719 0.0005815469076559622 0.006782378002219224 0.9962455456036212 -0.03510363409729848 0.0032234731864866245 0.014453010566107635
0.06252605252188 0.003490012358830849 0.016149195763108658 0.9958946849899186 -0.03906839077187825 0.0006731486993552114 0.00754028572773398 -0.00059289624334173 -0.004832271737269819
 0.9958946849899186 -0.03906839077187825 0.0034888535281485146 0.01614930353098008 -0.0005932402473708897 -0.0048322713034043546 0.0006787679863345428 0.007539627961114883
 0.0006731486993552114 0.00754028572773398 -0.0005932402473708897 -0.0048322713034043546 0.003489783658510693 0.01614837866023137 0.9958946630982838 -0.03906922439568473
 -0.00059289624334173 -0.004832271737269819 0.0006787679863345428 0.007539627961114883 0.9958946630982838 -0.03906922439568473 0.0034890386381104224 0.0161484527628144
0.06877865777407 0.0037710809835200133 0.017860777800686466 0.9955233115738646 -0.04304753868885761 0.0007772559171472613 0.008298115389791649 -0.0006825475744285131 -0.005321050331431448
 0.9955233115738646 -0.04304753868885761 0.003769679427037383 0.017860904421914143 -0.0006829624047118062 -0.005321045797221528 0.0007840580592051769 0.008297308679758492
 0.0007772559171472613 0.008298115389791649 -0.0006829624047118062 -0.005321045797221528 0.0037708045882879604 0.01785988064397898 0.9955232854110243 -0.04304845540665722
 -0.0006825475744285131 -0.005321050331431448 0.0007840580592051769 0.008297308679758492 0.9955232854110243 -0.04304845540665722 0.003769903738281079 0.017859967329873803
0.07503126302626001 0.004067750353474424 0.019588147856884713 0.9951311716534981 -0.04704024452593515 0.0008893942887552782 0.009056293505777779 -0.0007790733901236065 -0.005810385804495377
 0.9951311716534981 -0.04704024452593515 0.004066083064833156 0.01958829517006529 -0.0007795654560399108 -0.005810376155182286 0.0008974931188730216 0.009055317188988082
 0.0008893942887552782 0.009056293505777779 -0.0007795654560399108 -0.005810376155182286 0.004067421748355617 0.019587171073187453 0.9951311408431031 -0.047041244302630604
 -0.0007790733901236065 -0.005810385804495377 0.0008974931188730216 0.009055317188988082 0.9951311408431031 -0.047041244302630604 0.004066350346297263 0.01958727136545825
0.08128386827845 0.004380300904088899 0.021331034942746442 0.9947179937769375 -0.05104640365411827 0.0010096381306123282 0.009814715099532939 -0.0008825502232568221 -0.006300168449126696
 0.9947179937769375 -0.05104640365411827 0.004378344879351173 0.02133120488083264 -0.0008831258847851246 -0.0063001526007012065 0.001019147717029703 0.009813547072812658
 0.0010096381306123282 0.009814715099532939 -0.0008831258847851246 -0.0063001526007012065 0.0043799155734796655 0.021329978994886548 0.9947179579424612 -0.05104748645547076
 -0.0008825502232568221 -0.006300168449126696 0.001019147717029703 0.009813547072812658 0.9947179579424612 -0.05104748645547076 0.004378658900795211 0.021330093935974827
0.08753647353064001 0.0047090116456542565 0.023089176079798806 0.9942835069426403 -0.05506589354625097 0.0011380602424952706 0.010573272010717219 -0.000993052969659351 -0.006790286881466272
 0.9942835069426403 -0.05506589354625097 0.004706743879751861 0.02308937067099251 -0.0009937185376140936 -0.006790263680728249 0.0011490948800004278 0.010571888714026976
 0.0011380602424952706 0.010573272010717219 -0.0009937185376140936 -0.006790263680728249 0.004708565073834846 0.023088041468325785 0.9942834657079249 -0.05506705933768433
 -0.000993052969659351 -0.006790286881466272 0.0011490948800004278 0.010571888714026976 0.9942834657079249 -0.05506705933768433 0.0047071084116588205 0.023088172119847757
0.09378907878283 0.005054160131493032 0.024862313468492374 0.9938274407828719 -0.05909857655794163 0.0012747318280086444 0.011331853069727092 -0.0011106548275014699 -0.007280627886757994
 0.9938274407828719 -0.05909857655794163 0.005051557615330454 0.024862534837138912 -0.0011114165636096204 -0.007280596111377863 0.0012874060279492161 0.011330229469163384
 0.0012747318280086444 0.011331853069727092 -0.0011114165636096204 -0.007280596111377863 0.005053647803026787 0.02486110073120383 0.9938273937720604 -0.05909982530570616
 -0.0011106548275014699 -0.007280627886757994 0.0012874060279492161 0.011330229469163384 0.9938273937720604 -0.05909982530570616 0.005051976429057404 0.024861248173937853
0.100041684035 0.0054160224070389515 0.026650192411571946 0.9933495257307443 -0.06314430195791637 0.0014197224162025993 0.012090344231203596 -0.0012354272342661385 -0.0077710763103004885
 0.9933495257307443 -0.06314430195791637 0.005413062124284365 0.02665044277927404 -0.0012362913512089053 -0.007771034668895145 0.0014341508951895546 0.012088453802073651
 0.0014197224162025993 0.012090344231203596 -0.0012362913512089053 -0.007771034668895145 0.005415439806771222 0.02664890212532574 0.9933494725679441 -0.06314563362784982
 -0.0012354272342661385 -0.0077710763103004885 0.0014341508951895546 0.012088453802073651 0.9933494725679441 -0.06314563362784982 0.005413538991133806 0.026649067459240595
0.1059090909091 0.005771037298382534 0.028341108931659698 0.9928809425274218 -0.06695250362221525 0.0015634071447251634 0.01280192195667484 -0.0013590964734261734 -0.008231303483702554
 0.9928809425274218 -0.06695250362221525 0.005767720347349047 0.028341388620077373 -0.0013600622705275322 -0.008231251348133803 0.001579586334094227 0.012799755670605359
 0.0015634071447251634 0.01280192195667484 -0.0013600622705275322 -0.008231251348133803 0.005770384650144272 0.028339746432617302 0.9928808832501054 -0.06695391307570568
 -0.0013590964734261734 -0.008231303483702554 0.001579586334094227 0.012799755670605359 0.9928808832501054 -0.06695391307570568 0.005768255121059661 0.02833992957316649
0.1062942892872 0.005794872943468047 0.02845255975566991 0.9928494931747446 -0.0672029074448346 0.0015730997841750583 0.012848628680607856 -0.001367439801569676 -0.00826151497940594
 0.9928494931747446 -0.0672029074448346 0.005791531867300988 0.028452841442463628 -0.0013684124629009967 -0.008261462111613225 0.0015893974517894208 0.012846443390669739
 0.0015730997841750583 0.012848628680607856 -0.0013684124629009967 -0.008261462111613225 0.00579421555748986 0.02845119253485655 0.9928494334843881 -0.06720432200452335
 -0.001367439801569676 -0.00826151497940594 0.0015893974517894208 0.012846443390669739 0.9928494334843881 -0.06720432200452335 0.005792070558792772 0.028451376879313102
0.11254689453939999 0.006190984562776354 0.030269162700238845 0.9923270756074748 -0.07127422030147666 0.0017349298802973188 0.013606586919942565 -0.0015067602482090902 -0.008751824650389744
 0.9923270756074748 -0.07127422030147666 0.006187239653138043 0.030269478125770015 -0.0015078475682000884 -0.00875175912696044 0.0017532118261065536 0.01360407721261721
 0.0017349298802973188 0.013606586919942565 -0.0015078475682000884 -0.00875175912696044 0.006190247877883128 0.030267719201198934 0.9923270090140617 -0.0712757177164964
 -0.0015067602482090902 -0.008751824650389744 0.0017532118261065536 0.01360407721261721 0.9923270090140617 -0.0712757177164964 0.006187843939817288 0.03026792369520723
0.11879949979160001 0.006604628353088078 0.03209974786221379 0.9917820067680247 -0.07535805829824128 0.0019052767482577223 0.014364096839470769 -0.001653454331824745 -0.009241883973788459
 0.9917820067680247 -0.07535805829824128 0.0066004565529287585 0.032100099547213996 -0.0016546623752587573 -0.009241804296678454 0.0019256582276082296 0.01436123161735336
 0.0019052767482577223 0.014364096839470769 -0.0016546623752587573 -0.009241804296678454 0.006603807857765524 0.03209822878091954 0.9917819328960428 -0.07535963853498635
 -0.001653454331824745 -0.009241883973788459 0.0019256582276082296 0.01436123161735336 0.9917819328960428 -0.07535963853498635 0.006601130204692416 0.03209845458357033
0.1250521050438 0.007036073577518953 0.033944060552005634 0.9912140217802444 -0.07945423039030627 0.0020842024509164876 0.015121033781819657 -0.0018075857795525779 -0.009731569471597963
 0.9912140217802444 -0.07945423039030627 0.007031451810197162 0.03394445111973602 -0.0018089205614245495 -0.009731474074086513 0.0021067988704835403 0.015117780390204782
 0.0020842024509164876 0.015121033781819657 -0.0018089205614245495 -0.009731474074086513 0.007035164761957245 0.03394246662305265 0.9912139402541227 -0.07945589341770654
 -0.0018075857795525779 -0.009731569471597963 0.0021067988704835403 0.015117780390204782 0.9912139402541227 -0.07945589341770654 0.007032198595456209 0.03394271491401529
0.131304710296 0.007485587578037552 0.03580184417590676 0.9906228572884841 -0.08356253729375072 0.002271766994966792 0.0158772705978857 -0.001969216217619582 -0.010220755527079867
 0.9906228572884841 -0.08356253729375072 0.007480492743995277 0.03580227635375574 -0.001970683702974737 -0.010220642773867828 0.0022966938971781875 0.015873594808544708
 0.002271766994966792 0.0158772705978857 -0.001970683702974737 -0.010220642773867828 0.007484585935289384 0.03580017617945962 0.9906227677330951 -0.08356428307688588
 -0.001969216217619582 -0.010220755527079867 0.0022966938971781875 0.015873594808544708 0.9906227677330951 -0.08356428307688588 0.007481316429604739 0.035800448159569905
0.1375573155481 0.007848662606371033 0.03743157464879217 0.9901130632262287 -0.08744140055150901 0.002443637526350813 0.016608638698664597 -0.0021139869756618616 -0.010685306859638958
 0.9901130632262287 -0.08744140055150901 0.007843070081092895 0.0374320428347529 -0.0021155960501646203 -0.01068517666192538 0.0024709546966832792 0.016604546385050205
 0.002443637526350813 0.016608638698664597 -0.0021155960501646203 -0.01068517666192538 0.007847564275448799 0.037429833228287114 0.9901129652809344 -0.08744322902963189
 -0.0021139869756618616 -0.010685306859638958 0.0024709546966832792 0.016604546385050205 0.9901129652809344 -0.08744322902963189 0.007843973754956355 0.03743012197076982
0.1438099208003 0.008224474072309298 0.03905305837253497 0.989585437347587 -0.09131075073803423 0.0026224364432192006 0.017337199693326834 -0.002264544689250023 -0.01114726189260747
 0.989585437347587 -0.09131075073803423 0.008218360491449847 0.039053564773979484 -0.0022663017719624728 -0.011147112644649638 0.00265224953285136 0.0173326595598718
 0.0026224364432192006 0.017337199693326834 -0.0022663017719624728 -0.011147112644649638 0.008223274664693074 0.0390512443107197 0.9895853306408683 -0.0913126618690173
 -0.002264544689250023 -0.01114726189260747 0.00265224953285136 0.0173326595598718 0.9895853306408683 -0.0913126618690173 0.008219347794572354 0.03905155047117078
0.1500625260525 0.008612894390262641 0.04066616926424671 0.9890401110974631 -0.09517050107905801 0.0028081038517414124 0.01806288471326905 -0.0024208307644189497 -0.01160655471373692
 0.9890401110974631 -0.09517050107905801 0.008606236357820431 0.04066671620025442 -0.002422742261641003 -0.011606384745261622 0.0028405179962670514 0.018057864305284544
 0.0028081038517414124 0.01806288471326905 -0.002422742261641003 -0.011606384745261622 0.008611589526968909 0.040664283372565446 0.9890399952581465 -0.0951724948212864
 -0.0024208307644189497 -0.01160655471373692 0.0028405179962670514 0.018057864305284544 0.9890399952581465 -0.0951724948212864 0.008607310921319167 0.04066460765607776
0.15631513130469998 0.00901379512748469 0.04227078507979415 0.9884772165256073 -0.09902056492074264 0.0030005791762972365 0.018785626025483133 -0.0025827859118782407 -0.01206312076907584
