! Created with skrf 1.8.0 (http://scikit-rf.org).
# GHz S RI R 50.0 
!freq ReS11 ImS11 ReS12 ImS12 ReS13 ImS13
! ReS14 ImS14
! ReS21 ImS21 ReS22 ImS22 ReS23 ImS23
! ReS24 ImS24
! ReS31 ImS31 ReS32 ImS32 ReS33 ImS33
! ReS34 ImS34
! ReS41 ImS41 ReS42 ImS42 ReS43 ImS43
! ReS44 ImS44
!
0.0 0.001344592509157 0.0 0.9986554074893 0.0 5.170575790259e-05 0.0 -5.170575755871e-05 6.332129049176326e-21
 0.9986554074893 0.0 0.001344592509147 0.0 -5.170575755814e-05 6.332129049106522e-21 5.170575790259e-05 0.0
 5.170575790259e-05 0.0 -5.170575755814e-05 6.332129049106522e-21 0.00134459250337 0.0 0.9986554074835 0.0
 -5.170575755871e-05 6.332129049176326e-21 5.170575790259e-05 0.0 0.9986554074835 0.0 0.001344592503391 0.0
0.005 0.0014462023327424726 0.0010970439775216095 0.9985269321138628 -0.002817402312991089 7.26327422501164e-05 0.0005895425239833809 -7.047705034532583e-05 -0.00036667409770589713
 0.9985269321138628 -0.002817402312991089 0.0014462018466202273 0.0010970443148451505 -7.047854733274763e-05 -0.00036667528228436115 7.261725732240003e-05 0.0005895481996768764
 7.26327422501164e-05 0.0005895425239833809 -7.047854733274763e-05 -0.00036667528228436115 0.0014462017400293607 0.0010971116199565588 0.9985269324581719 -0.0028173352540652587
 -7.047705034532583e-05 -0.00036667409770589713 7.261725732240003e-05 0.0005895481996768764 0.9985269324581719 -0.0028173352540652587 0.0014462031276910028 0.0010971107913524821
0.006252605252188 0.0014727035444999632 0.0013756567433746546 0.9984932360688706 -0.0035224666820683503 7.852545619216122e-05 0.0007372142839294068 -7.570922976778239e-05 -0.00045883013440820334
 0.9984932360688706 -0.0035224666820683503 0.0014727027846481206 0.0013756572206942038 -7.571155895311007e-05 -0.0004588315960907166 7.850125961141886e-05 0.0007372216838470858
 7.852545619216122e-05 0.0007372142839294068 -7.571155895311007e-05 -0.0004588315960907166 0.0014727025362967945 0.0013757412912072293 0.998493236525745 -0.003522382868250948
 -7.570922976778239e-05 -0.00045883013440820334 7.850125961141886e-05 0.0007372216838470858 0.998493236525745 -0.003522382868250948 0.0014727047062950919 0.0013757403025636637
0.01250521050438 0.0016113501246001658 0.0027804734095776104 0.9983158938031841 -0.00704589669010819 0.00011186448680779855 0.0014747846555979893 -0.00010503286842372684 -0.0009200003701678127
 0.9983158938031841 -0.00704589669010819 0.0016113470875780223 0.002780474944586985 -0.00010504204476246477 -0.0009200030871885346 0.0001117679117928064 0.0014748026974048768
 0.00011186448680779855 0.0014747846555979893 -0.00010504204476246477 -0.0009200030871885346 0.0016113455376195527 0.002780642319537223 0.9983158950721468 -0.0070457293040404444
 -0.00010503286842372684 -0.0009200003701678127 0.0001117679117928064 0.0014748026974048768 0.9983158950721468 -0.0070457293040404444 0.0016113542109977908 0.002780640822349782
0.01875781575657 0.0017608044351783247 0.004205621088352091 0.9981231821362604 -0.010578900586121367 0.00015179496663163917 0.0022132472527399204 -0.00013976074571318408 -0.0013828392395306556
 0.9981231821362604 -0.010578900586121367 0.0017607976031533165 0.004205624330768165 -0.00013978120586247999 -0.0013828429716339515 0.00015157782274740492 0.002213279707970068
 0.00015179496663163917 0.0022132472527399204 -0.00013978120586247999 -0.0013828429716339515 0.0017607936907828331 0.004205874340776273 0.9981231845617655 -0.010578649732096589
 -0.00013976074571318408 -0.0013828392395306556 0.00015157782274740492 0.002213279707970068 0.9981231845617655 -0.010578649732096589 0.001760813195093369 0.004205872837861543
0.02501042100875 0.0019213322348823698 0.005649130155480787 0.9979148955697243 -0.014123222479471351 0.0001983900987594145 0.002952658768322594 -0.00017997462223153359 -0.0018471507206932862
 0.9979148955697243 -0.014123222479471351 0.001921320091103107 0.005649135827499181 -0.0001800107492360079 -0.0018471551890939636 0.00019800405694354428 0.0029527099284902577
 0.0001983900987594145 0.002952658768322594 -0.0001800107492360079 -0.0018471551890939636 0.0019213127605608813 0.005649467781877908 0.9979148995027183 -0.01412288823803301
 -0.00017997462223153359 -0.0018471507206932862 0.00019800405694354428 0.0029527099284902577 0.9979148995027183 -0.01412288823803301 0.0019213474259934422 0.00564946680438459
0.03126302626094 0.0020931881320181123 0.007110002686725796 0.997690817084844 -0.017679627581300962 0.0002517237847515255 0.003693006129666106 -0.0002257542032739449 -0.0023128045511005184
 0.997690817084844 -0.017679627581300962 0.002093169162353776 0.007110011584723485 -0.0002258103358697086 -0.002312809437895153 0.0002511203360466877 0.0036930808122495394
 0.0002517237847515255 0.003693006129666106 -0.0002258103358697086 -0.002312809437895153 0.0020931573489628087 0.007110424768233935 0.9976908228719823 -0.01767921001074991
 -0.0002257542032739449 -0.0023128045511005184 0.0002511203360466877 0.0036930808122495394 0.9976908228719823 -0.01767921001074991 0.002093211512531108 0.0071104248772002766
0.037515631513130004 0.00227662138770778 0.00858759990957499 0.9974507240821449 -0.021248514699588685 0.000311869895175264 0.004434249081034412 -0.0002771777646716923 -0.0027796936364908914
 0.9974507240821449 -0.021248514699588685 0.002276594082700937 0.008587612905503214 -0.00027725820216441233 -0.002779698584484403 0.0003110003310014408 0.0044343526369896745
 0.000311869895175264 0.004434249081034412 -0.00027725820216441233 -0.002779698584484403 0.0022765767148035334 0.008588106564393898 0.9974507320697484 -0.021248013848673013
 -0.0002771777646716923 -0.0027796936364908914 0.0003110003310014408 0.0044343526369896745 0.9974507320697484 -0.021248013848673013 0.0022766547230190963 0.00858810835169424
0.043768236765320004 0.0024718781723610975 0.010081455791464654 0.9971943907734964 -0.02483010259080089 0.0003789019442495859 0.005176333120311066 -0.00033432237833406933 -0.003247721104879493
 0.9971943907734964 -0.02483010259080089 0.002471841029385893 0.01008147383407445 -0.0003344313835181372 -0.003247725717523989 0.0003777173460087727 0.005176471442105056
 0.0003789019442495859 0.005176333120311066 -0.0003344313835181372 -0.003247725717523989 0.002471817025542673 0.010082047162076625 0.9971944013069299 -0.024829518511709062
 -0.00033432237833406933 -0.003247721104879493 0.0003777173460087727 0.005176471442105056 0.9971944013069299 -0.024829518511709062 0.0024719232369705348 0.010082051251082887
0.050020842017509996 0.0026792026185336383 0.011591199980709222 0.9969215893724584 -0.02842450695700238 0.0004528928957103022 0.005919194841534309 -0.0003972640069334876 -0.003716794955351035
 0.9969215893724584 -0.02842450695700238 0.002679154143558764 0.01159122409679581 -0.00039740580797475544 -0.0037167987967292246 0.00045134412938874945 0.005919374371374545
 0.0004528928957103022 0.005919194841534309 -0.00039740580797475544 -0.0037167987967292246 0.0026791224108709284 0.01159187624122987 0.9969216027966282 -0.02842383969824014
 -0.0003972640069334876 -0.003716794955351035 0.00045134412938874945 0.005919374371374545 0.9969216027966282 -0.02842383969824014 0.0026792611983345875 0.011591883287339866
0.055454545454549996 0.002869362743509068 0.012915872961462238 0.9966709646823939 -0.031558602164151364 0.0005229009100860204 0.006565341765485711 -0.0004567282612863723 -0.004125214396606839
 0.9966709646823939 -0.031558602164151364 0.0028693032160307867 0.012915903250839491 -0.00045690197086150426 -0.004125217183133229 0.0005209955985902434 0.00656556277146352
 0.0005229009100860204 0.006565341765485711 -0.00045690197086150426 -0.004125217183133229 0.002869263867601302 0.012916623161118808 0.9966709808974352 -0.03155786265514264
 -0.0004567282612863723 -0.004125214396606839 0.0005209955985902434 0.00656556277146352 0.9966709808974352 -0.03155786265514264 0.0028694345285811447 0.01291663333452469
0.056273447269699996 0.0028988373709379787 0.013116520003342735 0.9966320907851218 -0.032031778186923564 0.0005339150307202472 0.006662764556621079 -0.0004660775359519649 -0.004186825429034078
 0.9966320907851218 -0.032031778186923564 0.00289877608105161 0.013116551298775266 -0.0004662563277544983 -0.0041868280238571 0.0005319527443381669 0.006662992294810719
 0.0005339150307202472 0.006662764556621079 -0.0004662563277544983 -0.0041868280238571 0.002898735511739713 0.013117281361882322 0.9966321074432262 -0.032031027791167906
 -0.0004660775359519649 -0.004186825429034078 0.0005319527443381669 0.006662992294810719 0.9966321074432262 -0.032031027791167906 0.002898911264462104 0.013117292052982026
0.06252605252188 0.003131023889665576 0.014657140476145084 0.9963256650558769 -0.03565192208200046 0.0006220398460588734 0.007406967731861463 -0.0005408367744964671 -0.004657723567103288
 0.9963256650558769 -0.03565192208200046 0.0031309483152977373 0.014657180136930882 -0.0005410567196660698 -0.004657724400724666 0.000619614468958483 0.007407251245242743
 0.0006220398460588734 0.007406967731861463 -0.0005410567196660698 -0.004657724400724666 0.0031308977872023715 0.014657987163481772 0.9963256852916015 -0.035651088597634835
 -0.0005408367744964671 -0.004657723567103288 0.000619614468958483 0.007407251245242743 0.9963256852916015 -0.035651088597634835 0.0031311149127162944 0.01465800222032903
0.06877865777407 0.0033760026227010347 0.01621281070285386 0.9960020816852202 -0.03928491220066716 0.0007173379691020593 0.00815172584035371 -0.0006216144379723514 -0.005129400354943376
 0.9960020816852202 -0.03928491220066716 0.0033759113097546496 0.01621285999615812 -0.0006218796674390224 -0.005129398873375287 0.0007143997129904912 0.008152073270771639
 0.0007173379691020593 0.00815172584035371 -0.0006218796674390224 -0.005129398873375287 0.0033758496817176344 0.016213742981310928 0.9960021058407046 -0.03928399567323372
 -0.0006216144379723514 -0.005129400354943376 0.0007143997129904912 0.008152073270771639 0.9960021058407046 -0.03928399567323372 0.0033761126082314124 0.016213763157810597
0.07503126302626001 0.0036340130940968975 0.01778329681542377 0.9956611098660743 -0.04293069765990872 0.0008198790815721615 0.008896956911488963 -0.0007084821211469442 -0.005601766171484667
 0.9956611098660743 -0.04293069765990872 0.003633904606233053 0.01778335709047151 -0.000708796734694612 -0.005601761781422017 0.0008163779420731235 0.00889737698430289
 0.0008198790815721615 0.008896956911488963 -0.000708796734694612 -0.005601761781422017 0.0036338307176926004 0.01778431497518852 0.9956611382829006 -0.04292969813594685
 -0.0007084821211469442 -0.005601766171484667 0.0008163779420731235 0.00889737698430289 0.9956611382829006 -0.04292969813594685 0.0036341438958109023 0.017784341058682148
0.08128386827845 0.003905293947953415 0.01936837655238584 0.9953025186782016 -0.046589208301610584 0.0009297318502423402 0.009642575885498363 -0.0008015102626869706 -0.0060747304359049445
 0.9953025186782016 -0.046589208301610584 0.003905166869505619 0.01936844924134847 -0.000801878329339901 -0.006074722504746742 0.0009256176095908575 0.009643077918085791
 0.0009297318502423402 0.009642575885498363 -0.000801878329339901 -0.006074722504746742 0.0039050795370888965 0.019369480912462298 0.9953025516970161 -0.04658812582799174
 -0.0008015102626869706 -0.0060747304359049445 0.0009256176095908575 0.009643077918085791 0.9953025516970161 -0.04658812582799174 0.0039054474421652647 0.01936951372388056
0.08753647353064001 0.004190082956525926 0.020967835626827396 0.9949260772493235 -0.05026035827221317 0.0010469638611003043 0.010388494867021505 -0.0009007681052994225 -0.0065482013578019764
 0.9949260772493235 -0.05026035827221317 0.004189935894671761 0.0209679222456361 -0.0009011936635822615 -0.006548189213676755 0.001042186091366943 0.010389088777309222
 0.0010469638611003043 0.010388494867021505 -0.0009011936635822615 -0.006548189213676755 0.004189833911039411 0.020969026534541798 0.994926115210304 -0.05025919289679943
 -0.0009007681052994225 -0.0065482013578019764 0.001042186091366943 0.010389088777309222 0.994926115210304 -0.05025919289679943 0.004190261044896223 0.020969066928624318
0.09378907878283 0.004488617007578286 0.02258146514963354 0.9945315548978043 -0.05394404854934941 0.0011716415558317927 0.011134623305547505 -0.001006323652395877 -0.007022085763134258
 0.9945315548978043 -0.05394404854934941 0.004488448594900919 0.0225815672987721 -0.0010068107104676293 -0.007022068694941669 0.0011661496226524147 0.011135319620523543
 0.0011716415558317927 0.011134623305547505 -0.0010068107104676293 -0.007022068694941669 0.004488330725715485 0.022582742981206886 0.9945315981401586 -0.0539428003207724
 -0.001006323652395877 -0.007022085763134258 0.0011661496226524147 0.011135319620523543 0.9945315981401586 -0.0539428003207724 0.004488821619086184 0.02258279184650832
0.100041684035 0.004801132074497741 0.024209059728221124 0.9941187212610253 -0.057640168796268224 0.0013038301701843078 0.011880868130098815 -0.001118243621718959 -0.0074962889685994405
 0.9941187212610253 -0.057640168796268224 0.004800940971723633 0.024209179093448448 -0.0011187961575241305 -0.007496266226033382 0.001297573236903522 0.011881677994312926
 0.0013038301701843078 0.011880868130098815 -0.0011187961575241305 -0.007496266226033382 0.004800805953954948 0.024210424888315443 0.9941187701234473 -0.057638837764485154
 -0.001118243621718959 -0.0074962889685994405 0.001297573236903522 0.011881677994312926 0.9941187701234473 -0.057638837764485154 0.0048013651683718895 0.02421048314732119
0.1059090909091 0.0051073192640371246 0.025748904536122143 0.9937144619477798 -0.06111978353882788 0.0014347632627167192 0.012581160570256008 -0.00122911527529647 -0.007941482582104687
 0.9937144619477798 -0.06111978353882788 0.005107105678374264 0.025749041666505088 -0.0012297328460174864 -0.007941453797458586 0.0014277420465151462 0.012582087681797733
 0.0014347632627167192 0.012581160570256008 -0.0012297328460174864 -0.007941453797458586 0.0051069533915850856 0.02575035203921927 0.9937145163908564 -0.06111837485076459
 -0.00122911527529647 -0.007941482582104687 0.0014277420465151462 0.012582087681797733 0.9937145163908564 -0.06111837485076459 0.005107580896204059 0.025750419982401684
0.1062942892872 0.0051278631756359605 0.02585041603947896 0.9936873464152264 -0.06134859874472228 0.0014435936732825434 0.012627133849709468 -0.0012365933969978584 -0.007970714693075262
 0.9936873464152264 -0.06134859874472228 0.005127648074282109 0.025850554392459184 -0.0012372153583023644 -0.007970685486664998 0.0014365207056164272 0.012628069033755547
 0.0014435936732825434 0.012627133849709468 -0.0012372153583023644 -0.007970685486664998 0.005127494613194173 0.025851868962256455 0.9936874012350237 -0.06134718496019261
 -0.0012365933969978584 -0.007970714693075262 0.0014365207056164272 0.012628069033755547 0.9936874012350237 -0.06134718496019261 0.005128126743270716 0.025851937571357654
0.11254689453939999 0.00546904432318288 0.027505331735584154 0.993237200986567 -0.06506920924819072 0.0015909947076914246 0.013373322639253067 -0.001361436977964719 -0.008445264986497062
 0.993237200986567 -0.06506920924819072 0.005468803948282626 0.027505490934489316 -0.001362132282379506 -0.008445228487654964 0.0015830544786072944 0.013374395548245493
 0.0015909947076914246 0.013373322639253067 -0.001362132282379506 -0.008445228487654964 0.0054686307156937885 0.027506872885017127 0.9932372621007511 -0.06506771276189594
 -0.001361436977964719 -0.008445264986497062 0.0015830544786072944 0.013374395548245493 0.9932372621007511 -0.06506771276189594 0.005469340391235671 0.027506952834397608
0.11879949979160001 0.005824908466111125 0.0291736045927005 0.9927680562593741 -0.06880186309553889 0.0017460945297679098 0.014119334401799502 -0.0014928369290547945 -0.008919840185224827
 0.9927680562593741 -0.06880186309553889 0.005824641579096503 0.029173786582778166 -0.001493609464026775 -0.008919795526283619 0.001737235624797943 0.014120558083803848
 0.0017460945297679098 0.014119334401799502 -0.001493609464026775 -0.008919795526283619 0.0058244472106173395 0.029175234460197416 0.9927681240041738 -0.0688002839614727
 -0.0014928369290547945 -0.008919840185224827 0.001737235624797943 0.014120558083803848 0.9927681240041738 -0.0688002839614727 0.005825239098771591 0.02917532677374428
0.1250521050438 0.006195687427218992 0.03085503183548768 0.9922796842806247 -0.07254641565205316 0.001908952950699758 0.014865066826659485 -0.0016308543267403589 -0.00939433887473427
 0.9922796842806247 -0.07254641565205316 0.0061953928287048305 0.03085523864947884 -0.0016317079494843048 -0.009394285148995688 0.0018991237734433562 0.014866454981075512
 0.001908952950699758 0.014865066826659485 -0.0016317079494843048 -0.009394285148995688 0.006195175921189204 0.03085675094417383 0.9922797589909323 -0.07254475392311663
 -0.0016308543267403589 -0.00939433887473427 0.0018991237734433562 0.014866454981075512 0.9922797589909323 -0.07254475392311663 0.006196054728727378 0.030856856679310762
0.131304710296 0.006581611834946999 0.032549409596238345 0.9917718579607222 -0.07630271536947983 0.002079628277257244 0.015610415436880616 -0.001775548706274548 -0.009868657865921561
 0.9917718579607222 -0.07630271536947983 0.006581288367667641 0.03254964335480778 -0.0017764872436829978 -0.009868594127725323 0.002068777055246641 0.01561198242283868
 0.002079628277257244 0.015610415436880616 -0.0017764872436829978 -0.009868594127725323 0.00658104747676711 0.032551218496609115 0.9917719399708486 -0.07630097110211911
 -0.001775548706274548 -0.009868657865921561 0.002068777055246641 0.01561198242283868 0.9917719399708486 -0.07630097110211911 0.006582017952495988 0.03255133874401187
0.1375573155481 0.006889804730328317 0.03403437881334164 0.9913374855723828 -0.0798483692277913 0.0022353396415481373 0.016332285253944836 -0.0019041586209066334 -0.010319705106361918
 0.9913374855723828 -0.0798483692277913 0.006889452213434784 0.03403463588337402 -0.001905187805960803 -0.010319631386285928 0.002223448341016895 0.016334027582242335
 0.0022353396415481373 0.016332285253944836 -0.001905187805960803 -0.010319631386285928 0.006889185594609797 0.034036277929844504 0.9913375752101795 -0.07984654249268797
 -0.0019041586209066334 -0.010319705106361918 0.002223448341016895 0.016334027582242335 0.9913375752101795 -0.07984654249268797 0.006890252127899941 0.03403640833241387
0.1438099208003 0.007208672965634046 0.0355122681532301 0.9908881413272618 -0.08338580769226783 0.002397350156013909 0.017051745645265456 -0.002037933671817458 -0.01076855225332144
 0.9908881413272618 -0.08338580769226783 0.007208290472553362 0.03551255014673032 -0.0020390576313467387 -0.010768467629949298 0.0023843728558290726 0.017053676235507007
 0.002397350156013909 0.017051745645265456 -0.0020390576313467387 -0.010768467629949298 0.007207996575544489 0.03551425804451755 0.9908882389238024 -0.08338389855337626
 -0.002037933671817458 -0.01076855225332144 0.0023843728558290726 0.017053676235507007 0.9908882389238024 -0.08338389855337626 0.007209163903564726 0.0355143991890144
0.1500625260525 0.007538114257596796 0.03698297668686883 0.9904239308708132 -0.08691496619629398 0.0025656104925650004 0.017768739732519488 -0.0021768259520345387 -0.011215144887874631
 0.9904239308708132 -0.08691496619629398 0.007537700911530313 0.03698328527432636 -0.002178048806835756 -0.011215048402800448 0.0025515014961367283 0.017770871970730222
 0.0025656104925650004 0.017768739732519488 -0.002178048806835756 -0.011215048402800448 0.007537378145171547 0.036985057937530624 0.9904240367558708 -0.08691297471642573
 -0.0021768259520345387 -0.011215144887874631 0.0025515014961367283 0.017770871970730222 0.9904240367558708 -0.08691297471642573 0.00753865103898165 0.03698521042925311
0.15631513130469998 0.007878025712070576 0.03844640665149024 0.9899449602584499 -0.0904357799535521 0.002740070812581869 0.01848321147951336 -0.00232078702937483 -0.011659429663684523
