! Created with skrf 1.8.0 (http://scikit-rf.org).
# GHz S RI R 50.0 
!freq ReS11 ImS11 ReS12 ImS12 ReS13 ImS13
! ReS14 ImS14
! ReS21 ImS21 ReS22 ImS22 ReS23 ImS23
! ReS24 ImS24
! ReS31 ImS31 ReS32 ImS32 ReS33 ImS33
! ReS34 ImS34
! ReS41 ImS41 ReS42 ImS42 ReS43 ImS43
! ReS44 ImS44
!
0.0 0.001776284517142 0.0 0.9982237154403 0.0 6.899776041145e-05 0.0 -6.89977603228e-05 8.449788632765327e-21
 0.9982237154403 0.0 0.00177628451709 0.0 -6.899776032136e-05 8.449788632588978e-21 6.899776041038e-05 0.0
 6.899776041145e-05 0.0 -6.899776032136e-05 8.449788632588978e-21 0.001776284538419 0.0 0.9982237154616 0.0
 -6.89977603228e-05 8.449788632765327e-21 6.899776041038e-05 0.0 0.9982237154616 0.0 0.001776284538444 0.0
0.005 0.0019119205039452617 0.0014507165547816049 0.9980519749898457 -0.0037200825936734134 9.743121138878591e-05 0.0007708534618093488 -9.44596831554916e-05 -0.00048185703960640987
 0.9980519749898457 -0.0037200825936734134 0.0019119401577480711 0.0014507051327033356 -9.445764116523963e-05 -0.00048185558217023953 9.731769150931117e-05 0.0007708968207828223
 9.743121138878591e-05 0.0007708534618093488 -9.445764116523963e-05 -0.00048185558217023953 0.0019119206332891936 0.0014506492700790143 0.9980519746183847 -0.0037201496542344703
 -9.44596831554916e-05 -0.00048185703960640987 9.731769150931117e-05 0.0007708968207828223 0.9980519746183847 -0.0037201496542344703 0.0019119392869644388 0.0014506382957250783
0.006252605252188 0.0019477226537657397 0.0018190782035809024 0.9980063179853279 -0.004650976561599732 0.00010569219719502092 0.0009639194916198374 -0.00010175709234755103 -0.0006029324667897164
 0.9980063179853279 -0.004650976561599732 0.001947753375512761 0.001819063686396842 -0.00010175391399713714 -0.0006029306728028229 0.00010551483595876116 0.0009639758156039398
 0.00010569219719502092 0.0009639194916198374 -0.00010175391399713714 -0.0006029306728028229 0.0019477229180682924 0.0018189941217049133 0.9980063174672446 -0.004651060371885412
 -0.00010175709234755103 -0.0006029324667897164 0.00010551483595876116 0.0009639758156039398 0.9980063174672446 -0.004651060371885412 0.0019477520775590786 0.001818980146990843
0.01250521050438 0.0021375254830530536 0.0036759783560880318 0.997762490224308 -0.009302491747581907 0.00015379319083004672 0.0019280476603349202 -0.0001437438197625994 -0.0012086413491542206
 0.997762490224308 -0.009302491747581907 0.0021376481451698764 0.003675946890929135 -0.00014373128403265425 -0.0012086380711571817 0.0001530859866324618 0.0019281834671816447
 0.00015379319083004672 0.0019280476603349202 -0.00014373128403265425 -0.0012086380711571817 0.0021375270983001317 0.0036758105165366614 0.9977624887252452 -0.009302659128500142
 -0.0001437438197625994 -0.0012086413491542206 0.0001530859866324618 0.0019281834671816447 0.9977624887252452 -0.009302659128500142 0.0021376435422566656 0.0036757799673999138
0.01875781575657 0.0023461555497417005 0.005558948999827494 0.9974918952394161 -0.01396581076741872 0.00021341844392716334 0.002893001173950132 -0.00019509716119835475 -0.0018162033539115168
 0.9974918952394161 -0.01396581076741872 0.0023464311583551393 0.005558897943941136 -0.00019506919267790488 -0.0018161989741604973 0.00021182996224184368 0.002893244678690774
 0.00021341844392716334 0.002893001173950132 -0.00019506919267790488 -0.0018161989741604973 0.002346159587248441 0.005558697588290591 0.9974918922980763 -0.013966061612543495
 -0.00019509716119835475 -0.0018162033539115168 0.00021182996224184368 0.002893244678690774 0.9974918922980763 -0.013966061612543495 0.0023464212634828024 0.00555864766468686
0.02501042100875 0.0025740587117411267 0.007465289683277427 0.997194181574794 -0.018643131729276168 0.00028468732391338195 0.003858780675987345 -0.0002559506870979519 -0.0024253024444462405
 0.997194181574794 -0.018643131729276168 0.0025745481425528934 0.007465216202059536 -0.00025590127950698863 -0.0024252974232429453 0.0002818661328071539 0.003859164995838584
 0.00028468732391338195 0.003858780675987345 -0.00025590127950698863 -0.0024252974232429453 0.0025740662271816826 0.007464954845137711 0.9971941767273796 -0.01864346596872596
 -0.0002559506870979519 -0.0024253024444462405 0.0002818661328071539 0.003859164995838584 0.9971941767273796 -0.01864346596872596 0.00257453098105366 0.0074648825641076095
0.03126302626094 0.002821662229704927 0.009393579262347499 0.9968689817508799 -0.023335357336543988 0.00036771913303960583 0.0048252956306130655 -0.00032643339268597916 -0.003035704966695751
 0.9968689817508799 -0.023335357336543988 0.002822426263889003 0.009393480332842541 -0.000326356597641695 -0.0030356998431428006 0.00036331349320730235 0.004825858812892258
 0.00036771913303960583 0.0048252956306130655 -0.000326356597641695 -0.0030356998431428006 0.0028216742704530455 0.009393161129051556 0.9968689745368394 -0.023335774910998575
 -0.00032643339268597916 -0.003035704966695751 0.00036331349320730235 0.004825858812892258 0.9968689745368394 -0.023335774910998575 0.0028223998774672657 0.009393063327858836
0.037515631513130004 0.00308938342481212 0.011342867304630605 0.996515921309387 -0.028042903430124423 0.0004626318174935275 0.0057924188874291125 -0.00040667062036728026 -0.0036472051156968424
 0.996515921309387 -0.028042903430124423 0.0030904827734120604 0.011342739716751794 -0.00040656054178507577 -0.0036472005079559596 0.0004562895546311051 0.0057932039563276345
 0.0004626318174935275 0.0057924188874291125 -0.00040656054178507577 -0.0036472005079559596 0.0030894010280962023 0.011342365993608373 0.9965159112687613 -0.028043404291142448
 -0.00040667062036728026 -0.0036472051156968424 0.0004562895546311051 0.0057932039563276345 0.9965159112687613 -0.028043404291142448 0.0030904452168025328 0.011342239330818432
0.043768236765320004 0.0033776330095896786 0.013312428029987191 0.9961346225347759 -0.0327659449824705 0.000569541347441859 0.006760003265759447 -0.0004967843634312196 -0.004259608388699277
 0.9961346225347759 -0.0327659449824705 0.0033791283340591062 0.013312268386722262 -0.0004966351544416905 -0.004259604994125122 0.0005609098020754565 0.006761058274873859
 0.000569541347441859 0.006760003265759447 -0.0004966351544416905 -0.004259604994125122 0.0033776572029551367 0.013311843647415887 0.9961346092077888 -0.03276652908989562
 -0.0004967843634312196 -0.004259608388699277 0.0005609098020754565 0.006761058274873859 0.9961346092077888 -0.03276652908989562 0.003379077673880835 0.013311684603122176
0.050020842017509996 0.00368681660695482 0.015301658620919756 0.9957247063705399 -0.03750451772168994 0.0006885613283503759 0.0077278884355767305 -0.0005968933545034222 -0.0048727247480616995
 0.9957247063705399 -0.03750451772168994 0.0036887685369288155 0.015301463337740127 -0.0005966992157229001 -0.0048727233432704796 0.000677287347597402 0.0077292665225753236
 0.0006885613283503759 0.0077278884355767305 -0.0005966992157229001 -0.0048727233432704796 0.0036868484106155797 0.015300991267777534 0.9957246892989066 -0.0375051850376856
 -0.0005968933545034222 -0.0048727247480616995 0.000677287347597402 0.0077292665225753236 0.9957246892989066 -0.0375051850376856 0.0036887028519800124 0.01530079614319359
0.055454545454549996 0.003972819266973476 0.017045921899808043 0.9953449414382767 -0.04163505424199329 0.0008019147103419298 0.008569122352241202 -0.0006920982219952463 -0.0054059738560905905
 0.9953449414382767 -0.04163505424199329 0.003975217227217218 0.017045692586962678 -0.000691860364089541 -0.005405974872790946 0.0007880571992091854 0.008570828348211337
 0.0008019147103419298 0.008569122352241202 -0.000691860364089541 -0.005405974872790946 0.003972858505092658 0.017045182523910466 0.9953449207390643 -0.041635793836768915
 -0.0006920982219952463 -0.0054059738560905905 0.0007880571992091854 0.008570828348211337 0.9953449207390643 -0.041635793836768915 0.003975136932037027 0.017044952900863927
0.056273447269699996 0.004017335509691262 0.017310029322100132 0.9952857935800652 -0.04225856797093537 0.0008198027168410948 0.008695904294742231 -0.0007071130558441444 -0.005486365295209781
 0.9952857935800652 -0.04225856797093537 0.004019804659282245 0.017309794625902843 -0.0007068682342470837 -0.005486366736134471 0.0008055326714044268 0.008697663736750218
 0.0008198027168410948 0.008695904294742231 -0.0007068682342470837 -0.005486366736134471 0.0040173759340280295 0.017309279095828852 0.9952857723040662 -0.04225931845852157
 -0.0007071130558441444 -0.005486365295209781 0.0008055326714044268 0.008697663736750218 0.9952857723040662 -0.04225931845852157 0.004019722037480774 0.017309044012213108
0.06252605252188 0.004369587059054203 0.019337056009823973 0.9948175055344273 -0.04702798002514898 0.0009633735878924529 0.00966387284373032 -0.0008275556002999765 -0.006100340455279741
 0.9948175055344273 -0.04702798002514898 0.004372634043008028 0.01933677793714719 -0.0008272543886603151 -0.006100345677190604 0.0009457534060151177 0.009666077112715391
 0.0009633735878924529 0.00966387284373032 -0.0008272543886603151 -0.006100345677190604 0.004369637107990437 0.01933622300172319 0.994817479595541 -0.04702881365079625
 -0.0008275556002999765 -0.006100340455279741 0.0009457534060151177 0.009666077112715391 0.994817479595541 -0.04702881365079625 0.004372532583658641 0.019335943898844785
0.06877865777407 0.004743964820471658 0.021382283853385777 0.9943194648010593 -0.05181259244396728 0.0011193789313048974 0.010631609320445452 -0.000958329703657535 -0.006714458910322621
 0.9943194648010593 -0.05181259244396728 0.004747650269481223 0.02138195824808878 -0.0009579664404179109 -0.0067144689278229525 0.0010980541446188488 0.010634327138236888
 0.0011193789313048974 0.010631609320445452 -0.0009579664404179109 -0.0067144689278229525 0.004744025490645943 0.021381368151750804 0.994319433740428 -0.05181350917460817
 -0.000958329703657535 -0.006714458910322621 0.0010980541446188488 0.010634327138236888 0.994319433740428 -0.05181350917460817 0.004747528080648209 0.021381040785782412
0.07503126302626001 0.005140858633670865 0.023445276951703665 0.9937912956129364 -0.056612208379152124 0.0012879204652598418 0.01159892292927657 -0.001099540559779222 -0.007328526947378215
 0.9937912956129364 -0.056612208379152124 0.005145243209506599 0.023444899462052936 -0.0010991096289721123 -0.00732854285440639 0.0012625362638121022 0.011602228321908423
 0.0012879204652598418 0.01159892292927657 -0.0010991096289721123 -0.00732854285440639 0.005140930914980902 0.023444278638612308 0.9937912589715581 -0.056613208185397945
 -0.001099540559779222 -0.007328526947378215 0.0012625362638121022 0.011602228321908423 0.9937912589715581 -0.056613208185397945 0.005145098408389909 0.023443898579379212
0.08128386827845 0.005560654586305233 0.02552561146095652 0.9932326242665019 -0.06142660242090462 0.0014690964605554302 0.012565617348502985 -0.0012512897244346957 -0.007942348037677347
 0.9932326242665019 -0.06142660242090462 0.00556579899678305 0.02552517753613103 -0.0012507855559387743 -0.007942371007470684 0.0014392977552472861 0.012569589699616825
 0.0014690964605554302 0.012565617348502985 -0.0012507855559387743 -0.007942371007470684 0.005560739462520167 0.025524530616977893 0.9932325815850332 -0.06142768527241286
 -0.0012512897244346957 -0.007942348037677347 0.0014392977552472861 0.012569589699616825 0.9932325815850332 -0.06142768527241286 0.005565629708969215 0.02552409324476515
0.08753647353064001 0.006003734935278164 0.02762287084401866 0.9926430794713328 -0.06625552533330466 0.0016630015724224485 0.01353149109614166 -0.0014136749915143814 -0.008555722567044809
 0.9926430794713328 -0.06625552533330466 0.006009699949191677 0.027622375729992793 -0.0014130920614093513 -0.008555753852096476 0.0016284330630157706 0.013536215199442614
 0.0016630015724224485 0.01353149109614166 -0.0014130920614093513 -0.008555753852096476 0.006003833385056316 0.027621707542092856 0.992643030290394 -0.06625669120486048
 -0.0014136749915143814 -0.008555722567044809 0.0016284330630157706 0.013536215199442614 0.992643030290394 -0.06625669120486048 0.006009504308647949 0.027621208043797803
0.09378907878283 0.00647047799403548 0.029736642482518907 0.9920222926708799 -0.07109870743818288 0.0018697266770442368 0.014496337809207884 -0.0015867902638859882 -0.009168447662843783
 0.9920222926708799 -0.07109870743818288 0.006477324456348448 0.029736081217282537 -0.0015861230949462143 -0.00916848859482368 0.0018300329255405028 0.01450190391974231
 0.0018697266770442368 0.014496337809207884 -0.0015861230949462143 -0.00916848859482368 0.0064705909907787264 0.029735396797851848 0.9920222365304551 -0.0710999562998362
 -0.0015867902638859882 -0.009168447662843783 0.0018300329255405028 0.01450190391974231 0.9920222365304551 -0.0710999562998362 0.006477100604112935 0.029734830162554397
0.100041684035 0.006961257992397846 0.03186651522153339 0.9913698983390817 -0.07595586107800774 0.0020893587119657007 0.015459946469050632 -0.0017707254207300772 -0.009780317085091602
 0.9913698983390817 -0.07595586107800774 0.006969046838826118 0.03186588262970934 -0.0017699685829059186 -0.009780369074777582 0.0020441842199569044 0.015466450353132847
 0.0020893587119657007 0.015459946469050632 -0.0017699685829059186 -0.009780369074777582 0.006961386504826211 0.03186518722131271 0.9913698347788219 -0.07595719290536447
 -0.0017707254207300772 -0.009780317085091602 0.0020441842199569044 0.015466450353132847 0.9913698347788219 -0.07595719290536447 0.0069687929232121444 0.031864548235144355
0.1059090909091 0.007443993939916606 0.03387945206194401 0.9907286260525284 -0.08052622118438758 0.002307272642373178 0.016362873101500412 -0.0019532460372678 -0.010353526689750842
 0.9907286260525284 -0.08052622118438758 0.007452722628284596 0.033878747635330345 -0.0019524001587448766 -0.01035359040937073 0.00225663175253895 0.016370349037157547
 0.002307272642373178 0.016362873101500412 -0.0019524001587448766 -0.01035359040937073 0.007444137889706644 0.033878046877436126 0.9907285551103019 -0.0805276308427978
 -0.0019532460372678 -0.010353526689750842 0.00225663175253895 0.016370349037157547 0.9907285551103019 -0.0805276308427978 0.007452438823274603 0.03387733506995914
0.1062942892872 0.007476444918483421 0.034012077506986434 0.9906855342639177 -0.08082668249814053 0.0023219805191441734 0.016422101588842428 -0.001965566182047562 -0.010391121165667106
 0.9906855342639177 -0.08082668249814053 0.007485237190525504 0.034011368193744645 -0.001964714293132526 -0.010391185702812502 0.0022709698092311143 0.016429644572708176
 0.0023219805191441734 0.016422101588842428 -0.001964714293132526 -0.010391185702812502 0.0074765899113361884 0.034010667257346056 0.9906854628227024 -0.08082809726532114
 -0.001965566182047562 -0.010391121165667106 0.0022709698092311143 0.016429644572708176 0.9906854628227024 -0.08082809726532114 0.007484951366521441 0.03400995049785892
0.11254689453939999 0.008016404345557754 0.03617291600175736 0.9899688418180889 -0.08571085326250716 0.00256767069023146 0.017382583376905916 -0.0021713939716042647 -0.011000646782248368
 0.9899688418180889 -0.08571085326250716 0.00802626120535558 0.036172124346058376 -0.002170441697929214 -0.011000725435498288 0.0025104683909801992 0.01739127239383336
 0.00256767069023146 0.017382583376905916 -0.002170441697929214 -0.011000725435498288 0.008016566780223243 0.03617142356346698 0.9899687620343852 -0.085712350946476
 -0.0021713939716042647 -0.011000646782248368 0.0025104683909801992 0.01739127239383336 0.9899687620343852 -0.085712350946476 0.008025941634253223 0.03617062339322422
0.11879949979160001 0.008581497249230465 0.03834861449801648 0.9892194662239056 -0.09060804138576642 0.0028265034142458414 0.018341167884112768 -0.0023882857785200206 -0.011608677358912207
 0.9892194662239056 -0.09060804138576642 0.008592479994467207 0.03834773464523615 -0.002387227835712689 -0.01160877177556959 0.0027627543479155766 0.018351115520011885
 0.0028265034142458414 0.018341167884112768 -0.002387227835712689 -0.01160877177556959 0.008581678083919481 0.03834703993034727 0.98921937763518 -0.09060962196229891
 -0.0023882857785200206 -0.011608677358912207 0.0027627543479155766 0.018351115520011885 0.98921937763518 -0.09060962196229891 0.008592124843466874 0.03834615048999131
0.1250521050438 0.009172079814319344 0.040538753085215394 0.9884370568102804 -0.09551790222270241 0.0030985483265664098 0.01929762714196664 -0.0026163140184779065 -0.01221499288667222
 0.9884370568102804 -0.09551790222270241 0.009184249893183222 0.04053777893892857 -0.0026151451722349044 -0.012215104792585028 0.003027897600100659 0.019308951679309846
 0.0030985483265664098 0.01929762714196664 -0.0026151451722349044 -0.012215104792585028 0.009172280004699766 0.040537096440043316 0.9884369589531593 -0.09551956567228094
 -0.0026163140184779065 -0.01221499288667222 0.003027897600100659 0.019308951679309846 0.9884369589531593 -0.09551956567228094 0.009183857334864527 0.04053611164049654
0.131304710296 0.00978850323591692 0.04274290748618568 0.9876212672656011 -0.10044007920259093 0.0033838703598591696 0.020251729293948844 -0.002855546394706846 -0.012819369961866979
 0.9876212672656011 -0.10044007920259093 0.009801922261810543 0.0427418326992965 -0.0028542614615726185 -0.012819501161237326 0.0033059634585484434 0.02026455475399134
 0.0033838703598591696 0.020251729293948844 -0.0028542614615726185 -0.012819501161237326 0.009788723735547806 0.042741168815652326 0.98762115967587 -0.10044182550262234
 -0.002855546394706846 -0.012819369961866979 0.0033059634585484434 0.02026455475399134 0.98762115967587 -0.10044182550262234 0.009801490474000996 0.04274008232974251
0.1375573155481 0.010297693384513968 0.044673658337684385 0.9869052419371704 -0.10508704592891475 0.0036492271576470687 0.021175564654767665 -0.0030728370992022212 -0.013393864804067322
 0.9869052419371704 -0.10508704592891475 0.010312428715023747 0.04467249895253346 -0.003071428642312676 -0.01339401564131466 0.0035638832218378566 0.02118988307598965
 0.0036492271576470687 0.021175564654767665 -0.003071428642312676 -0.01339401564131466 0.010297936311974554 0.04467183693115499 0.9869051241784289 -0.10508887501018468
 -0.0030728370992022212 -0.013393864804067322 0.0035638832218378566 0.02118988307598965 0.9869051241784289 -0.10508887501018468 0.010311954653031363 0.04467066624137587
0.1438099208003 0.010825017523694636 0.04659271022234021 0.9861635665191733 -0.1097206809463424 0.003925260231883954 0.022094659231829517 -0.003298754008107751 -0.013964052241352217
 0.9861635665191733 -0.1097206809463424 0.010841131883064235 0.046591461129047204 -0.003297216511204616 -0.013964224500057463 0.0038321565801880684 0.0221105851201276
 0.003925260231883954 0.022094659231829517 -0.003297216511204616 -0.013964224500057463 0.0108252840401305 0.04659080603794737 0.9861634381325634 -0.10972259277578568
 -0.003298754008107751 -0.013964052241352217 0.0038321565801880684 0.0221105851201276 0.9861634381325634 -0.10972259277578568 0.010840613508061009 0.04658954621877717
0.1500625260525 0.011370265569335833 0.04849985754623134 0.9853964560830294 -0.11434082274535866 0.004211858745880328 0.02300888679663784 -0.0035331902123488736 -0.014529815688823982
 0.9853964560830294 -0.11434082274535866 0.01138782187269779 0.04849851331646338 -0.003531518180846517 -0.014530011223359248 0.004110675049516266 0.023026538835621713
 0.004211858745880328 0.02300888679663784 -0.003531518180846517 -0.014530011223359248 0.011370556847497484 0.04849787053510084 0.9853963166097767 -0.11434281728902398
 -0.0035331902123488736 -0.014529815688823982 0.004110675049516266 0.023026538835621713 0.9853963166097767 -0.11434281728902398 0.011387257135290355 0.048496516358179226
0.15631513130469998 0.011933225652032817 0.05039490086455226 0.984604127117954 -0.11894731144550555 0.004508910375099854 0.02391812362095822 -0.0037760373301322274 -0.015091041333360188
 0.984604127117954 -0.11894731144550555 0.011952287009949122 0.05039345574242655 -0.003774225291646786 -0.015091262068352065 0.004399328699755496 0.023937624621065853
