! Created with skrf 1.8.0 (http://scikit-rf.org).
# GHz S RI R 50.0 
!freq ReS11 ImS11 ReS12 ImS12 ReS13 ImS13
! ReS14 ImS14
! ReS21 ImS21 ReS22 ImS22 ReS23 ImS23
! ReS24 ImS24
! ReS31 ImS31 ReS32 ImS32 ReS33 ImS33
! ReS34 ImS34
! ReS41 ImS41 ReS42 ImS42 ReS43 ImS43
! ReS44 ImS44
!
0.0 0.001388657076906 0.0 0.9986113428975 0.0 5.373186365775e-05 0.0 -5.373186436822e-05 6.580255571076034e-21
 0.9986113428975 0.0 0.001388657076886 0.0 -5.373186436795e-05 6.580255571042969e-21 5.373186365737e-05 0.0
 5.373186365775e-05 0.0 -5.373186436795e-05 6.580255571042969e-21 0.001388657078321 0.0 0.998611342899 0.0
 -5.373186436822e-05 6.580255571076034e-21 5.373186365737e-05 0.0 0.998611342899 0.0 0.001388657078314 0.0
0.005 0.0014937792973358935 0.0011283103706329165 0.9984784025024291 -0.0029098448837040665 7.618082932112888e-05 0.0006402058764727246 -7.380301091147378e-05 -0.0003934998834158941
 0.9984784025024291 -0.0029098448837040665 0.0014937589621312915 0.0011283222766879674 -7.380430918641647e-05 -0.0003935009226764042 7.630608343054464e-05 0.0006401583296661915
 7.618082932112888e-05 0.0006402058764727246 -7.380430918641647e-05 -0.0003935009226764042 0.0014937787824436887 0.0011283779784621584 0.9984784028490755 -0.002909777818074067
 -7.380301091147378e-05 -0.0003934998834158941 7.630608343054464e-05 0.0006401583296661915 0.9984784028490755 -0.002909777818074067 0.001493760169885476 0.0011283888014091382
0.006252605252188 0.0015212358255031878 0.0014148802346097273 0.9984434808966632 -0.0036380398439066464 8.25093488461923e-05 0.0008005541918049518 -7.942005912212444e-05 -0.0004924019852040154
 0.9984434808966632 -0.0036380398439066464 0.001521204037215216 0.0014148953242358513 -7.942207902403712e-05 -0.000492403267743603 8.27050498066321e-05 0.0008004924634928471
 8.25093488461923e-05 0.0008005541918049518 -7.942207902403712e-05 -0.000492403267743603 0.001521234946999191 0.0014149647352589773 0.998443481365269 -0.0036379560260282415
 -7.942005912212444e-05 -0.0004924019852040154 8.27050498066321e-05 0.0008004924634928471 0.998443481365269 -0.0036379560260282415 0.0015212058523523734 0.0014149784617800178
0.01250521050438 0.0016651098320362386 0.0028598697027056572 0.9982593746007039 -0.007277042556374124 0.00011835383457289752 0.0016013845217046586 -0.00011102334036124452 -0.0009873167472689542
 0.9982593746007039 -0.007277042556374124 0.0016649828908716884 0.0028599019538179515 -0.00011103129694828649 -0.000987319132959175 0.00011913432272812011 0.0016012364823660985
 0.00011835383457289752 0.0016013845217046586 -0.00011103129694828649 -0.000987319132959175 0.0016651057396750932 0.0028600385122292474 0.9982593758937771 -0.007276875172240797
 -0.00011102334036124452 -0.0009873167472689542 0.00011913432272812011 0.0016012364823660985 0.9982593758937771 -0.007276875172240797 0.0016649895665258481 0.0028600679308067936
0.01875781575657 0.0018205693326077204 0.004325835495207877 0.9980588122239472 -0.010925898682799296 0.0001613448945992289 0.0024031007203078533 -0.00014863492036964841 -0.0014839819288790907
 0.9980588122239472 -0.010925898682799296 0.001820284070718633 0.004325887105718451 -0.0001486526590516269 -0.0014839852084735177 0.00016309836280150122 0.0024028373702727076
 0.0001613448945992289 0.0024031007203078533 -0.0001486526590516269 -0.0014839852084735177 0.001820559702184622 0.004326088601043738 0.9980588147065856 -0.01092564783339368
 -0.00014863492036964841 -0.0014839819288790907 0.00016309836280150122 0.0024028373702727076 0.9980588147065856 -0.01092564783339368 0.0018202986607769743 0.004326135758859599
0.02501042100875 0.001987897310893604 0.005810733603293346 0.9978415743502672 -0.014586401939466467 0.0002115627972353463 0.003205768660839407 -0.0001923451485392871 -0.00198217436665216
 0.9978415743502672 -0.014586401939466467 0.0019873906743781266 0.00581080687312043 -0.0001923764675297181 -0.001982178297009363 0.00021467771282264575 0.003205356749743083
 0.0002115627972353463 0.003205768660839407 -0.0001923764675297181 -0.001982178297009363 0.0019878798133030826 0.005811071039609496 0.9978415783847241 -0.014586067706376275
 -0.0001923451485392871 -0.00198217436665216 0.00021467771282264575 0.003205356749743083 0.9978415783847241 -0.014586067706376275 0.0019874162319290733 0.005811138043665335
0.03126302626094 0.0021673649291485786 0.007313523997774353 0.9976074295566627 -0.018259334092488973 0.00026908835459989584 0.004009375115449783 -0.00024224195657901796 -0.0024817454349184026
 0.9976074295566627 -0.018259334092488973 0.0021665739434059425 0.007313621323869863 -0.00024229061509899072 -0.0024817497385185533 0.00027395382665592276 0.00400877711733143
 0.00026908835459989584 0.004009375115449783 -0.00024229061509899072 -0.0024817497385185533 0.0021673372297560073 0.0073139458507455145 0.997607435502142 -0.01825891653261796
 -0.00024224195657901796 -0.0024817454349184026 0.00027395382665592276 0.00400877711733143 0.997607435502142 -0.01825891653261796 0.0021666135219471946 0.007314034862689721
0.037515631513130004 0.002359237609550735 0.008833537573148573 0.9973561406561231 -0.02194509795748018 0.000334002204975481 0.004813876021615493 -0.0002984115644012735 -0.0029825727838810588
 0.9973561406561231 -0.02194509795748018 0.0023580993563517556 0.008833661446911749 -0.0002984812868776992 -0.0029825771486862527 0.0003410081544953558 0.0048130500905467265
 0.000334002204975481 0.004813876021615493 -0.0002984812868776992 -0.0029825771486862527 0.0023591973697867563 0.00883404395960935 0.9973561488708825 -0.021944597124503612
 -0.0002984115644012735 -0.0029825727838810588 0.0003410081544953558 0.0048130500905467265 0.9973561488708825 -0.021944597124503612 0.0023581560126406474 0.00883415719260623
0.043768236765320004 0.002563777398735961 0.010370283461217747 0.9970874672211409 -0.025643910023069066 0.00040638447057475877 0.005619211186593968 -0.0003609387519276547 -0.003484545631330006
 0.9970874672211409 -0.025643910023069066 0.002562228998223021 0.010370436466841318 -0.0003610332305209169 -0.0034845497107523936 0.00041592171619570537 0.005618111106203103
 0.00040638447057475877 0.005619211186593968 -0.0003610332305209169 -0.0034845497107523936 0.0025637222762218974 0.010370874527154692 0.9970874780627618 -0.02564332596923847
 -0.0003609387519276547 -0.003484545631330006 0.00041592171619570537 0.005618111106203103 0.9970874780627618 -0.02564332596923847 0.002562305792918304 0.010371014243566685
0.050020842017509996 0.0027812440655963287 0.011923369424129887 0.9968011668411886 -0.029355879993475237 0.00048631456292028504 0.006425310335187595 -0.0004299069614504907 -0.003987558709906687
 0.9968011668411886 -0.029355879993475237 0.0027792226607555406 0.011923554237534693 -0.0004300298577755428 -0.003987562122810607 0.0004987748619713964 0.006423885465713035
 0.00048631456292028504 0.006425310335187595 -0.0004300298577755428 -0.003987562122810607 0.0027811717141614043 0.011924045347599915 0.996801180666721 -0.0293552127669113
 -0.0004299069614504907 -0.003987558709906687 0.0004987748619713964 0.006423885465713035 0.996801180666721 -0.0293552127669113 0.0027793226583193074 0.011924213857310342
0.055454545454549996 0.0029809278583221473 0.013286058875868935 0.9965378586871159 -0.032592414045544506 0.0005619670305650616 0.007126395416838705 -0.000495137151104839 -0.004425457293768106
 0.9965378586871159 -0.032592414045544506 0.0029784443578100683 0.013286273575084724 -0.0004952876940915823 -0.004425459791092238 0.0005772864465886193 0.007124643693940436
 0.0005619670305650616 0.007126395416838705 -0.0004952876940915823 -0.004425459791092238 0.0029808386255983834 0.013286808703627175 0.9965378753945036 -0.03259167458428765
 -0.000495137151104839 -0.004425457293768106 0.0005772864465886193 0.007124643693940436 0.9965378753945036 -0.03259167458428765 0.00297856701086464 0.013287004147369915
0.056273447269699996 0.0030118956756787305 0.013492462765658148 0.9964969958593765 -0.03308104981320982 0.0005738710425019767 0.007232096086872115 -0.0005053983350357577 -0.004491509286097025
 0.9964969958593765 -0.03308104981320982 0.0030093384180162096 0.013492682153792764 -0.000505553281257034 -0.004491511616809903 0.0005896471053915531 0.00723029131096346
 0.0005738710425019767 0.007232096086872115 -0.000505553281257034 -0.004491511616809903 0.0030118037446869783 0.013493223746978094 0.9964970130244009 -0.03308029946783083
 -0.0005053983350357577 -0.004491509286097025 0.0005896471053915531 0.00723029131096346 0.9964970130244009 -0.03308029946783083 0.0030094646865567835 0.01349342340600171
0.06252605252188 0.003255988902610737 0.015077268837582395 0.9961747098484931 -0.036819415097866084 0.0006691315097264963 0.008039485592301483 -0.0005874937144211674 -0.004996295521663838
 0.9961747098484931 -0.036819415097866084 0.0032528329388473607 0.01507752565824197 -0.0005876843141009764 -0.004996296320015411 0.0006886169966051637 0.008037241260324162
 0.0006691315097264963 0.008039485592301483 -0.0005876843141009764 -0.004996296320015411 0.0032558750381160954 0.015078115114070097 0.9961747307082869 -0.03681858167903313
 -0.0005874937144211674 -0.004996295521663838 0.0006886169966051637 0.008037241260324162 0.9961747307082869 -0.03681858167903313 0.0032529885510162054 0.015078348323572886
0.06877865777407 0.003513779202251936 0.01667751824913402 0.9958340639523962 -0.040570937864370944 0.0007721725121105628 0.008847391502648983 -0.000676272620520815 -0.0055018155046775135
 0.9958340639523962 -0.040570937864370944 0.003509961661284535 0.016677815451007334 -0.0006765024492087752 -0.0055018142860237375 0.0007957620170360525 0.008844643377766652
 0.0007721725121105628 0.008847391502648983 -0.0006765024492087752 -0.0055018142860237375 0.003513641046582751 0.016678450079267618 0.9958340888610224 -0.040570021424923226
 -0.000676272620520815 -0.0055018155046775135 0.0007957620170360525 0.008844643377766652 0.9958340888610224 -0.040570021424923226 0.0035101496937223063 0.01667871928500363
0.07503126302626001 0.003785520901068002 0.018292958722935484 0.9954748131439279 -0.04433555461700462 0.0008830694612675991 0.009655722588328332 -0.0007718132199637562 -0.0060079666337654585
 0.9954748131439279 -0.04433555461700462 0.0037809788812083437 0.018293299346055013 -0.0007720858256164227 -0.006007962879032536 0.0009111584871991596 0.009652401791643651
 0.0008830694612675991 0.009655722588328332 -0.0007720858256164227 -0.006007962879032536 0.003785356092881289 0.018293976400867773 0.9954748424545696 -0.04433455520296782
 -0.0007718132199637562 -0.0060079666337654585 0.0009111584871991596 0.009652401791643651 0.9954748424545696 -0.04433455520296782 0.0037812024145413583 0.018294284092817418
0.08128386827845 0.0040714672338382826 0.019923349707574964 0.9950967124361383 -0.04811318167959919 0.0010018965552889738 0.010464384148617478 -0.00087419228372883 -0.006514645214370971
 0.9950967124361383 -0.04811318167959919 0.0040661377905100654 0.01992373688413636 -0.0008745111870306718 -0.006514638370093782 0.001034881482031933 0.010460417104476736
 0.0010018965552889738 0.010464384148617478 -0.0008745111870306718 -0.006514638370093782 0.004071273409015107 0.01992445354915891 0.9950967465013184 -0.04811209934446398
 -0.00087419228372883 -0.006514645214370971 0.001034881482031933 0.010460417104476736 0.9950967465013184 -0.04811209934446398 0.00406639990991682 0.019924802261645367
0.08753647353064001 0.0043718703472625615 0.021568458625295817 0.994699517060513 -0.05190371889589533 0.0011287267048722118 0.011273278304225953 -0.0009834851401971235 -0.007021746175035908
 0.994699517060513 -0.05190371889589533 0.004365690480223437 0.02156889558083234 -0.0009838538347671836 -0.007021735653401673 0.0011670047509419767 0.011268586685895237
 0.0011287267048722118 0.011273278304225953 -0.0009838538347671836 -0.007021735653401673 0.004371645138238784 0.021569648977351343 0.9946995562316572 -0.05190255369153685
 -0.0009834851401971235 -0.007021746175035908 0.0011670047509419767 0.011268586685895237 0.9946995562316572 -0.05190255369153685 0.004365994274560114 0.02157004128951432
0.09378907878283 0.004686981278197989 0.02322805820736611 0.9942829826242102 -0.055707052245356777 0.0012636314619287588 0.012082304195991718 -0.0010997656236100193 -0.007529162880765482
 0.9942829826242102 -0.055707052245356777 0.004679887919327953 0.023228548262265752 -0.00110018757615256 -0.007529148059658989 0.0013076006420034353 0.01207680487165233
 0.0012636314619287588 0.012082304195991718 -0.00110018757615256 -0.007529148059658989 0.004686722314887954 0.023229335446299768 0.9942830272517789 -0.0557058042237016
 -0.0010997656236100193 -0.007529162880765482 0.0013076006420034353 0.01207680487165233 0.9942830272517789 -0.0557058042237016 0.004680236481801056 0.023229773982833057
0.100041684035 0.005017049916445677 0.02490192453747247 0.9938468652528454 -0.05952305575445047 0.0014066809497114096 0.012891358146349292 -0.0012231060197810803 -0.00803678698685666
 0.9938468652528454 -0.05952305575445047 0.005008979916978252 0.024902471108938413 -0.0012235846701713119 -0.008036767209913784 0.001456740027715568 0.012884963125646978
 0.0014066809497114096 0.012891358146349292 -0.0012235846701713119 -0.008036767209913784 0.005016754826548849 0.02490328906643803 0.9938469156867469 -0.059521724970572565
 -0.0012231060197810803 -0.00803678698685666 0.001456740027715568 0.012884963125646978 0.9938469156867469 -0.059521724970572565 0.005009376345057244 0.02490377649881946
0.1059090909091 0.005340609744960555 0.02648544818578182 0.9934195882234823 -0.06311537223509696 0.0015483864152354813 0.013650500260049001 -0.001345331795784105 -0.008513228901316571
 0.9934195882234823 -0.06311537223509696 0.005331565756045611 0.026486050988218355 -0.0013458667557519426 -0.008513203846431516 0.0016045235111510428 0.013643180322620659
 0.0015483864152354813 0.013650500260049001 -0.0013458667557519426 -0.008513203846431516 0.005340278594083832 0.026486895020409025 0.9934196444229447 -0.0631139638379685
 -0.001345331795784105 -0.008513228901316571 0.0016045235111510428 0.013643180322620659 0.9934196444229447 -0.0631139638379685 0.005332009921129211 0.02648743080909511
0.1062942892872 0.005362324954288496 0.026589835568444416 0.9933909217240083 -0.06335159293829175 0.001557943793704119 0.013700333775288405 -0.0013535770094285395 -0.008544508341635842
 0.9933909217240083 -0.06335159293829175 0.005353215072405123 0.026590442172782097 -0.0013541157707573606 -0.008544482918298265 0.0016144922325312253 0.013692950156405244
 0.001557943793704119 0.013700333775288405 -0.0013541157707573606 -0.008544482918298265 0.005361991362757069 0.026591287820401294 0.9933909783127299 -0.06335017944753313
 -0.0013535770094285395 -0.008544508341635842 0.0016144922325312253 0.013692950156405244 0.9933909783127299 -0.06335017944753313 0.005353662466947834 0.02659182686847348
0.11254689453939999 0.005723053825859024 0.02829157000112016 0.9929149095921659 -0.06719251788384763 0.0017174870535779005 0.014509122095986576 -0.0014912476093569295 -0.009052214912964889
 0.9929149095921659 -0.06719251788384763 0.005712840714148646 0.028292240256459582 -0.0014918498679638056 -0.009052183118532843 0.0017809249615378933 0.014500652013323895
 0.0017174870535779005 0.014509122095986576 -0.0014918498679638056 -0.009052183118532843 0.005722679356235384 0.028293110437768762 0.9929149726835741 -0.06719102174317804
 -0.0014912476093569295 -0.009052214912964889 0.0017809249615378933 0.014500652013323895 0.9929149726835741 -0.06719102174317804 0.0057133421801876996 0.028293703871724772
0.11879949979160001 0.006099482640327306 0.030006906405616946 0.9924185873102087 -0.07104567609471406 0.0018853761550736944 0.015317611593509159 -0.001636185112593218 -0.009559792735295324
 0.9924185873102087 -0.07104567609471406 0.006088102832701375 0.03000764403501225 -0.001636854227983021 -0.009559753810994762 0.0019561042295476432 0.015307952166065977
 0.0018853761550736944 0.015317611593509159 -0.001636854227983021 -0.009559753810994762 0.006099064914264477 0.030008535517658655 0.9924186572510225 -0.07104409736263587
 -0.001636185112593218 -0.009559792735295324 0.0019561042295476432 0.015307952166065977 0.9924186572510225 -0.07104409736263587 0.006088661478941542 0.030009186160410647
0.1250521050438 0.006491856107564177 0.031735622524166715 0.9919017143459595 -0.07491090515819497 0.0020616748226279027 0.01612568829123358 -0.001788455026785915 -0.010067125872597829
 0.9919017143459595 -0.07491090515819497 0.0064792460067941765 0.031736431359224666 -0.0017891943316394958 -0.010067079025640423 0.0021400942910349274 0.016114731571653898
 0.0020616748226279027 0.01612568829123358 -0.0017891943316394958 -0.010067079025640423 0.006491392745387271 0.031737340832139464 0.9919017914817572 -0.07490924389424265
 -0.001788455026785915 -0.010067125872597829 0.0021400942910349274 0.016114731571653898 0.9919017914817572 -0.07490924389424265 0.006479864945235575 0.031738051562199554
0.131304710296 0.006900417460086507 0.0334774947149236 0.9913640512969226 -0.07878803527580683 0.0022464450118742695 0.016933235805422213 -0.0019481210119197912 -0.010574096396878301
 0.9913640512969226 -0.07878803527580683 0.006886513324753157 0.03347837869974072 -0.001948933811972939 -0.010574040800533018 0.0023329575703185026 0.016920868729898023
 0.0022464450118742695 0.016933235805422213 -0.001948933811972939 -0.010574040800533018 0.006899906081187108 0.033479302769203946 0.991364135972309 -0.07878629154063345
 -0.0019481210119197912 -0.010574096396878301 0.0023329575703185026 0.016920868729898023 0.991364135972309 -0.07878629154063345 0.006887195670910814 0.03348007652392742
0.1375573155481 0.0072284331748922025 0.03500282848253906 0.9909023687504773 -0.0824473240943683 0.002415033904976088 0.017716076003752076 -0.0020904315113157213 -0.011056610677666473
 0.9909023687504773 -0.0824473240943683 0.007213167617089184 0.03500377275167109 -0.0020913228000749096 -0.011056546344248087 0.0025098358640256125 0.01770232345331588
 0.002415033904976088 0.017716076003752076 -0.0020913228000749096 -0.011056546344248087 0.007227872118698802 0.035004726662497515 0.990902461304114 -0.08244549796939815
 -0.0020904315113157213 -0.011056610677666473 0.0025098358640256125 0.01770232345331588 0.990902461304114 -0.08244549796939815 0.007213915781422881 0.03500554796408167
0.1438099208003 0.0075678595290903745 0.036520640436218915 0.99042468729574 -0.086097903702859 0.002590435956719875 0.01849627348022858 -0.002238465041753111 -0.011536661183060709
 0.99042468729574 -0.086097903702859 0.00755116807636392 0.03652164779698031 -0.002239438390212097 -0.011536587304857729 0.002693892519436995 0.01848103282083419
 0.002590435956719875 0.01849627348022858 -0.002239438390212097 -0.011536587304857729 0.007567246544421841 0.03652262929746941 0.9904247880686765 -0.08609599525675073
 -0.002238465041753111 -0.011536661183060709 0.002693892519436995 0.01848103282083419 0.9904247880686765 -0.08609599525675073 0.0075519850532538195 0.036523499961553255
0.1500625260525 0.007918584809537603 0.03803081999987182 0.9899311223261805 -0.08973970072462994 0.0027725959967313356 0.019273765314567586 -0.002392166941587039 -0.01201418565107151
 0.9899311223261805 -0.08973970072462994 0.007900402835049187 0.038031893441162756 -0.002393225915299339 -0.012014101387990524 0.0028850704259605637 0.019256930187787607
 0.0027725959967313356 0.019273765314567586 -0.002393225915299339 -0.012014101387990524 0.007917917652781544 0.03803290012096687 0.9899312316582448 -0.08973771002829665
 -0.002392166941587039 -0.01201418565107151 0.0028850704259605637 0.019256930187787607 0.9899312316582448 -0.08973771002829665 0.007901291614280718 0.03803382210574074
0.15631513130469998 0.008280496595222031 0.039533260019096204 0.9894217897320259 -0.09337264169897631 0.002961458264081827 0.020048489556704685 -0.0025514819266234928 -0.012489123071526682
