! Created with skrf 1.8.0 (http://scikit-rf.org).
# GHz S RI R 50.0 
!freq ReS11 ImS11 ReS12 ImS12 ReS13 ImS13
! ReS14 ImS14
! ReS21 ImS21 ReS22 ImS22 ReS23 ImS23
! ReS24 ImS24
! ReS31 ImS31 ReS32 ImS32 ReS33 ImS33
! ReS34 ImS34
! ReS41 ImS41 ReS42 ImS42 ReS43 ImS43
! ReS44 ImS44
!
0.0 0.001491564128381 0.0 0.9985084358318 0.0 5.749550111892e-05 0.0 -5.749550174086e-05 7.041168217231527e-21
 0.9985084358318 0.0 0.001491564128391 0.0 -5.749550174061e-05 7.041168217200911e-21 5.749550111908e-05 0.0
 5.749550111892e-05 0.0 -5.749550174061e-05 7.041168217200911e-21 0.001491564148262 0.0 0.9985084358517 0.0
 -5.749550174086e-05 7.041168217231527e-21 5.749550111908e-05 0.0 0.9985084358517 0.0 0.001491564148281 0.0
0.005 0.0016046694327451958 0.0012193774611152285 0.9983653736895811 -0.003124688894376398 8.056344350472118e-05 0.0006390839252459345 -7.826480666901798e-05 -0.0004001859913437684
 0.9983653736895811 -0.003124688894376398 0.001604664729615288 0.0012193801400952687 -7.826546797893267e-05 -0.00040018642531503397 8.060083674361298e-05 0.0006390698181487606
 8.056344350472118e-05 0.0006390839252459345 -7.826546797893267e-05 -0.00040018642531503397 0.0016046698250664765 0.0012194444527752581 0.9983653740496825 -0.0031246218285632555
 -7.826480666901798e-05 -0.0004001859913437684 8.060083674361298e-05 0.0006390698181487606 0.9983653740496825 -0.0031246218285632555 0.001604665052794651 0.001219447276062863
0.006252605252188 0.0016342915337494185 0.0015290289768382726 0.9983276786154094 -0.003906632482592872 8.711674604127068e-05 0.0007991654712499046 -8.410806808313685e-05 -0.000500753652520345
 0.9983276786154094 -0.003906632482592872 0.001634284182207407 0.0015290323408475687 -8.41090977358098e-05 -0.0005007541860721272 8.717517114313508e-05 0.0007991471357796285
 8.711674604127068e-05 0.0007991654712499046 -8.41090977358098e-05 -0.0005007541860721272 0.0016342920551370228 0.001529112695039012 0.9983276790861072 -0.003906548663164664
 -8.410806808313685e-05 -0.000500753652520345 8.717517114313508e-05 0.0007991471357796285 0.9983276790861072 -0.003906548663164664 0.0016342845945403841 0.0015291162524875854
0.01250521050438 0.001789983985644952 0.003090186199813089 0.9981282909777367 -0.007814116929367938 0.00012450321176995136 0.001598697499330519 -0.00011715090400403107 -0.0010039675445035463
 0.9981282909777367 -0.007814116929367938 0.001789954638028217 0.0030901930704345464 -0.00011715496905979348 -0.0010039685132060502 0.0001247362468163875 0.0015986532898827706
 0.00012450321176995136 0.001598697499330519 -0.00011715496905979348 -0.0010039685132060502 0.0017899855455437168 0.00309035329384755 0.998128292329338 -0.007813949532192964
 -0.00011715090400403107 -0.0010039675445035463 0.0001247362468163875 0.0015986532898827706 0.998128292329338 -0.007813949532192964 0.0017899557466716568 0.0030903606857141056
0.01875781575657 0.0019589730277754028 0.004673659051763769 0.9979100310392404 -0.01173197321158832 0.00016974081314876573 0.0023991435425400305 -0.00015672404480782852 -0.001508914945464129
 0.9979100310392404 -0.01173197321158832 0.001958907099315321 0.004673669570012969 -0.0001567331202889817 -0.0015089162298830194 0.0001702644166224329 0.0023990645080066765
 0.00016974081314876573 0.0023991435425400305 -0.0001567331202889817 -0.0015089162298830194 0.0019589761236137224 0.004673909309366317 0.9979100336560377 -0.011731722308607657
 -0.00015672404480782852 -0.001508914945464129 0.0001702644166224329 0.0023990645080066765 0.9979100336560377 -0.011731722308607657 0.001958909149112402 0.00467392082287523
0.02501042100875 0.0021415808669819425 0.006277238241052055 0.997672647569119 -0.01566210821363275 0.0002229163752599288 0.003200544377912046 -0.00020292439780068212 -0.002015370477410643
 0.997672647569119 -0.01566210821363275 0.002141463811199416 0.006277252538850295 -0.0002029404385100684 -0.0020153719352574103 0.00022384661827624236 0.003200420198526224
 0.0002229163752599288 0.003200544377912046 -0.0002029404385100684 -0.0020153719352574103 0.0021415860093868325 0.0062775714397320685 0.997672651844048 -0.01566177384686725
 -0.00020292439780068212 -0.002015370477410643 0.00022384661827624236 0.003200420198526224 0.997672651844048 -0.01566177384686725 0.002141467042558586 0.006277587365510357
0.03126302626094 0.0023381163662152997 0.007899790848611223 0.997415876222299 -0.01960534275088472 0.0002841171356353067 0.004002866635636774 -0.00025584621974332066 -0.0025231776186822445
 0.997415876222299 -0.01960534275088472 0.0023379336656629925 0.007899809046566094 -0.00025587116380208145 -0.002523179084542467 0.000285570306915231 0.004002685613396578
 0.0002841171356353067 0.004002866635636774 -0.00025587116380208145 -0.002523179084542467 0.002338124070661316 0.007900206756869836 0.997415882549275 -0.019604924930843794
 -0.00025584621974332066 -0.0025231776186822445 0.000285570306915231 0.004002685613396578 0.997415882549275 -0.019604924930843794 0.0023379383062146564 0.007900227387085028
0.037515631513130004 0.0025488817707045057 0.009540581226991592 0.9971394464668185 -0.023562090610052773 0.00035342994693481235 0.004806047738682627 -0.00031558180478789046 -0.00303220376732037
 0.9971394464668185 -0.023562090610052773 0.0025486189301227105 0.00954060343294169 -0.00031561757531488934 -0.0030322050524985602 0.0003555225999545782 0.004805796782326396
 0.00035342994693481235 0.004806047738682627 -0.00031561757531488934 -0.0030322050524985602 0.002548892557802173 0.009541079593922325 0.9971394552423269 -0.023561589325704815
 -0.00031558180478789046 -0.00303220376732037 0.0003555225999545782 0.004805796782326396 0.9971394552423269 -0.023561589325704815 0.0025486251958283987 0.009541105221224483
0.043768236765320004 0.0027741753119524108 0.01119906434271692 0.9968430843894274 -0.02753256513777634 0.0004309409015544686 0.0056100095636127745 -0.000382221732022399 -0.0035423265799403958
 0.9968430843894274 -0.02753256513777634 0.00277381785260652 0.011199090650680948 -0.0003822702381309014 -0.003542327472380902 0.00043378987684896444 0.005609674171916302
 0.0004309409015544686 0.0056100095636127745 -0.0003822702381309014 -0.003542327472380902 0.0027741897061744573 0.011199644891792268 0.996843096012182 -0.02753198036247687
 -0.000382221732022399 -0.0035423265799403958 0.00043378987684896444 0.005609674171916302 0.996843096012182 -0.02753198036247687 0.002773825946647883 0.01119967580848071
0.050020842017509996 0.003014292414220361 0.012874800363840219 0.9965265141058874 -0.03151686458260424 0.0005167351027272362 0.006414664088972993 -0.00045585495873009797 -0.0040534283239340675
 0.9965265141058874 -0.03151686458260424 0.003013825868568236 0.01287483085312639 -0.0004559180960645105 -0.004053428588136433 0.0005204575372372174 0.006414228333334632
 0.0005167351027272362 0.006414664088972993 -0.0004559180960645105 -0.004053428588136433 0.0030143109426506785 0.012875462790063807 0.9965265289768597 -0.03151619627657301
 -0.00045585495873009797 -0.0040534283239340675 0.0005204575372372174 0.006414228333334632 0.9965265289768597 -0.03151619627657301 0.0030138359808808764 0.012875499287511043
0.055454545454549996 0.0032352277916663746 0.014344783642060474 0.9962347782706937 -0.03499058984080529 0.0005980851058874631 0.007114422057858193 -0.000525591763661097 -0.004498296221032026
 0.9962347782706937 -0.03499058984080529 0.0032346547026633186 0.01434481781744914 -0.0005256691453356119 -0.004498295729758009 0.0006026619637643587 0.007113885025050539
 0.0005980851058874631 0.007114422057858193 -0.0005256691453356119 -0.004498295729758009 0.0032352503431457968 0.014345516953888892 0.996234796292344 -0.03498984889956356
 -0.000525591763661097 -0.004498296221032026 0.0006026619637643587 0.007113885025050539 0.996234796292344 -0.03498984889956356 0.0032346667128436437 0.014345558536784602
0.056273447269699996 0.0032695263190194537 0.014567412742762017 0.9961894585928606 -0.03551501394220794 0.0006108965040492805 0.0072199161607966215 -0.0005365688407704762 -0.0045653931148251625
 0.9961894585928606 -0.03551501394220794 0.003268936226183403 0.01456744747719477 -0.0005366484919317781 -0.004565392491771818 0.0006156098324624705 0.007219362667535109
 0.0006108965040492805 0.0072199161607966215 -0.0005366484919317781 -0.004565392491771818 0.003269549511805865 0.014568156714973794 0.9961894771162292 -0.03551426204987308
 -0.0005365688407704762 -0.0045653931148251625 0.0006156098324624705 0.007219362667535109 0.9961894771162292 -0.03551426204987308 0.0032689485336251474 0.014568199083209938
0.06252605252188 0.003540168422100312 0.016276565162288092 0.9958316402352073 -0.03952698794988101 0.0007135077797371897 0.008025665018705828 -0.0006244491191527547 -0.005078105396046787
 0.9958316402352073 -0.03952698794988101 0.003539440323177955 0.016276604189636217 -0.0006245471538446895 -0.005078103603149631 0.0007193297306339797 0.00802497495123338
 0.0007135077797371897 0.008025665018705828 -0.0006245471538446895 -0.005078103603149631 0.0035401968112813687 0.01627739031772995 0.9958316628186445 -0.03952615240504857
 -0.0006244491191527547 -0.005078105396046787 0.0007193297306339797 0.00802497495123338 0.9958316628186445 -0.03952615240504857 0.0035394549890596107 0.016277438845085004
0.06877865777407 0.003826508450812187 0.018001947802439883 0.9954527812169818 -0.04355272474321671 0.0008246502137253694 0.008831805202026715 -0.0007195798852314717 -0.00559144904214704
 0.9954527812169818 -0.04355272474321671 0.003825627884020316 0.018001991153945924 -0.0007196981603473828 -0.005591445773180949 0.0008316988019950585 0.008830958243010629
 0.0008246502137253694 0.008831805202026715 -0.0007196981603473828 -0.005591445773180949 0.0038265425697093167 0.018002853754453523 0.9954528082721062 -0.04355180546109055
 -0.0007195798852314717 -0.00559144904214704 0.0008316988019950585 0.008830958243010629 0.9954528082721062 -0.04355180546109055 0.0038256450579653 0.018002908727400714
0.07503126302626001 0.004128834551588549 0.01974326862219415 0.9950526038270456 -0.04759213452155596 0.0009444035990503177 0.00963822713228673 -0.0008220435335210354 -0.006105306789303737
 0.9950526038270456 -0.04759213452155596 0.00412778704792015 0.01974331631225991 -0.0008221838932279835 -0.006105301714359991 0.000952797115463094 0.009637201465870047
 0.0009444035990503177 0.00963822713228673 -0.0008221838932279835 -0.006105301714359991 0.0041288749343135756 0.01974425495085853 0.9950526357696204 -0.04759113140779572
 -0.0008220435335210354 -0.006105306789303737 0.000952797115463094 0.009637201465870047 0.9950526357696204 -0.04759113140779572 0.004127806865121162 0.01974431665398021
0.08128386827845 0.004447433317313189 0.021500247568658502 0.9946308307069255 -0.05164510527987189 0.001072846143463782 0.010444817500028033 -0.0009319207064244286 -0.0066195598654658966
 0.9946308307069255 -0.05164510527987189 0.004446204395983898 0.021500299594637 -0.0009320849820579447 -0.006619552630901549 0.0010827031422729002 0.010443589794146406
 0.001072846143463782 0.010444817500028033 -0.0009320849820579447 -0.006619552630901549 0.004447480498887065 0.02150131382295856 0.9946308679583641 -0.05164401822824941
 -0.0009319207064244286 -0.0066195598654658966 0.0010827031422729002 0.010443589794146406 0.9946308679583641 -0.05164401822824941 0.004446226978190093 0.02150138253897169
0.08753647353064001 0.004782589778333933 0.02327261256067703 0.9941871850655666 -0.055711506772820614 0.0012100543796331406 0.011251459538365536 -0.0010492902328359526 -0.007134087737829294
 0.9941871850655666 -0.055711506772820614 0.004781164941994309 0.02327266890282445 -0.0010494802428484427 -0.007134077966219513 0.0012214936642054378 0.011250004927222525
 0.0012100543796331406 0.011251459538365536 -0.0010494802428484427 -0.007134077966219513 0.004782644292650086 0.02327375826047483 0.9941872280520802 -0.05571033566296549
 -0.0010492902328359526 -0.007134087737829294 0.0012214936642054378 0.011250004927222525 0.9941872280520802 -0.05571033566296549 0.004781190395610946 0.023273834270481387
0.09378907878283 0.00513458736371512 0.025060096634939556 0.9937213908688215 -0.05979119332051142 0.0013561030777500174 0.01205803322257256 -0.0011742290627583625 -0.0076487679385504005
 0.9937213908688215 -0.05979119332051142 0.005132952093977461 0.025060157256524083 -0.001174446612587418 -0.0076487552286546925 0.0013692436848822612 0.012056325289269735
 0.0013561030777500174 0.01205803322257256 -0.001174446612587418 -0.0076487552286546925 0.00513464974388154 0.02506132126673279 0.9937214400228308 -0.05978993802204065
 -0.0011742290627583625 -0.0076487679385504005 0.0013692436848822612 0.012056325289269735 0.9937214400228308 -0.05978993802204065 0.005132980510844141 0.025061404850573125
0.100041684035 0.005503707845606985 0.026862435837868254 0.9932331730138382 -0.06388400587370853 0.001511065159982925 0.012864415421706455 -0.0013068121988672658 -0.008163475942781034
 0.9932331730138382 -0.06388400587370853 0.005501847598425744 0.026862500685350666 -0.001307059080819587 -0.008163459869506257 0.0015260263428329552 0.012862426181094028
 0.001511065159982925 0.012864415421706455 -0.001307059080819587 -0.008163459869506257 0.005503778622966779 0.026863738860460857 0.9932332287741437 -0.06388266624034768
 -0.0013068121988672658 -0.008163475942781034 0.0015260263428329552 0.012862426181094028 0.9932332287741437 -0.06388266624034768 0.005501879054905841 0.026863830297162092
0.1059090909091 0.00586591083909104 0.028567016734938135 0.9927543941708546 -0.06773646224243922 0.0016646505255966506 0.013620833129233482 -0.0014382448633194034 -0.008646387295197802
 0.9927543941708546 -0.06773646224243922 0.0058638262198030516 0.028567085484667746 -0.0014385208885640977 -0.008646367657853865 0.001681428761931744 0.013618553047499201
 0.0016646505255966506 0.013620833129233482 -0.0014385208885640977 -0.008646367657853865 0.005865989977047292 0.02856839279598676 0.9927544565350113 -0.06773504332856457
 -0.0014382448633194034 -0.008646387295197802 0.001681428761931744 0.013618553047499201 0.9927544565350113 -0.06773504332856457 0.005863860583919762 0.02856849185537829
0.1062942892872 0.005890231268767351 0.028679367655395246 0.9927222574927561 -0.06798977354581426 0.0016750116160528013 0.013670480017776408 -0.001447112625757167 -0.008678085083675489
 0.9927222574927561 -0.06798977354581426 0.005888131469763908 0.028679436658824307 -0.0014473906188082692 -0.008678065198042654 0.001691912826050888 0.013668179899516892
 0.0016750116160528013 0.013670480017776408 -0.0014473906188082692 -0.008678065198042654 0.005890310971874835 0.028680748493240135 0.9927223203043812 -0.06798834942194437
 -0.001447112625757167 -0.008678085083675489 0.001691912826050888 0.013668179899516892 0.9927223203043812 -0.06798834942194437 0.005888166026328514 0.0286808480616703
0.11254689453939999 0.006294435868746401 0.030510629801632796 0.9921883715468379 -0.07210831479138982 0.0018480114198812416 0.014476098003817191 -0.0015952012371126456 -0.009192466493127731
 0.9921883715468379 -0.07210831479138982 0.00629208190827752 0.030510702875189005 -0.0015955121067392532 -0.009192442322253159 0.001866972287582422 0.01447345583567214
 0.0018480114198812416 0.014476098003817191 -0.0015955121067392532 -0.009192442322253159 0.006294525023313859 0.0305120878483659 0.9921884418624808 -0.07210680600838502
 -0.0015952012371126456 -0.009192466493127731 0.001866972287582422 0.01447345583567214 0.9921884418624808 -0.07210680600838502 0.006292119609623458 0.030512195828002475
0.11879949979160001 0.006716597982207914 0.03235595928600197 0.9916312438168348 -0.07623943831152262 0.0020301314465642683 0.015281137565467303 -0.001751146761677803 -0.00970648906362073
 0.9916312438168348 -0.07623943831152262 0.006713975210819909 0.03235603632864668 -0.0017514922596351878 -0.009706460110697729 0.0020512717616920327 0.015278120556903927
 0.0020301314465642683 0.015281137565467303 -0.0017514922596351878 -0.009706460110697729 0.006716697109665125 0.03235749390310612 0.9916313220967167 -0.07623784468904177
 -0.001751146761677803 -0.00970648906362073 0.0020512717616920327 0.015278120556903927 0.9916313220967167 -0.07623784468904177 0.006714016084953761 0.032357610574948584
0.1250521050438 0.007156991949808536 0.03421509166884125 0.9910506044878378 -0.08038294377622753 0.002221436390019544 0.01608546415369443 -0.0019150156879077704 -0.010220019423895964
 0.9910506044878378 -0.08038294377622753 0.007154085673215061 0.03421517256518596 -0.0019153975519903895 -0.01021998516818334 0.0022448760805137582 0.016082037879698727
 0.002221436390019544 0.01608546415369443 -0.0019153975519903895 -0.01021998516818334 0.0071571015674006715 0.03421670218673041 0.9910506912006264 -0.08038126512106472
 -0.0019150156879077704 -0.010220019423895964 0.0022448760805137582 0.016082037879698727 0.9910506912006264 -0.08038126512106472 0.007154129731754279 0.03421682783440596
0.131304710296 0.007615890014599989 0.036087760473640894 0.9904461854322033 -0.0845386223960109 0.0024219886807674614 0.01688894054864833 -0.002086872187808058 -0.01073292192827477
 0.9904461854322033 -0.0845386223960109 0.007612685489011105 0.0360878450949271 -0.002087292141698705 -0.010732881825073462 0.002447847791237653 0.01688506893390622
 0.0024219886807674614 0.01688894054864833 -0.002087292141698705 -0.010732881825073462 0.00761601063396207 0.03608944619030415 0.9904462810553506 -0.08453685850342174
 -0.002086872187808058 -0.01073292192827477 0.002447847791237653 0.01688506893390622 0.9904462810553506 -0.08453685850342174 0.007612732726020375 0.03608958110130187
0.1375573155481 0.007987244827806982 0.03772928316341666 0.9899240784073704 -0.08846173683931587 0.0026060583032243376 0.017666775629686573 -0.0022409579705592562 -0.011220442794230527
 0.9899240784073704 -0.08846173683931587 0.007983724695333622 0.03772937017400612 -0.002241418348290245 -0.011220396795834402 0.0026343923165245827 0.017662464960491283
 0.0026060583032243376 0.017666775629686573 -0.002241418348290245 -0.011220396795834402 0.007987376092292513 0.03773104392636158 0.9899241833487348 -0.08845988760476363
 -0.0022409579705592562 -0.011220442794230527 0.0026343923165245827 0.017662464960491283 0.9899241833487348 -0.08845988760476363 0.007983776096130376 0.03773118623905075
0.1438099208003 0.00837163252299394 0.03936234728063709 0.9893836789084107 -0.09237509900042307 0.002797557902608673 0.01844160280794204 -0.0024012122051497997 -0.011705189305509083
 0.9893836789084107 -0.09237509900042307 0.008367781534737844 0.039362436598671065 -0.002401714820269623 -0.011705136881910883 0.002828475362119009 0.018436820219969702
 0.002797557902608673 0.01844160280794204 -0.002401714820269623 -0.011705136881910883 0.008371774780084796 0.039364182415478524 0.9893837936434476 -0.09237316422613315
 -0.0024012122051497997 -0.011705189305509083 0.002828475362119009 0.018436820219969702 0.9893837936434476 -0.09237316422613315 0.00836783724853111 0.03936433237301104
0.1500625260525 0.008768920639151252 0.04098682196231504 0.9888251234045997 -0.09627861740001907 0.002996422856845214 0.019213347583781643 -0.0025675716644270514 -0.012187090162321012
 0.9888251234045997 -0.09627861740001907 0.008764723476350735 0.04098691352779672 -0.002568118324387514 -0.012187030762464295 0.003030031668957284 0.01920805901964954
 0.002996422856845214 0.019213347583781643 -0.002568118324387514 -0.012187030762464295 0.008769074221224436 0.040988730770608175 0.9888252484160227 -0.09627659687974756
 -0.0025675716644270514 -0.012187090162321012 0.003030031668957284 0.01920805901964954 0.9888252484160227 -0.09627659687974756 0.008764783647457884 0.04098888864830352
0.15631513130469998 0.009178975808534742 0.04260258032254408 0.9882485490248716 -0.10017220076509378 0.003202587796783876 0.019981936693395957 -0.0027399723573937364 -0.012666075551148848
 0.9882485490248716 -0.10017220076509378 0.009174417080592832 0.042602674099853875 -0.002740564863376409 -0.012666008603119162 0.0032389952217179397 0.019976106915014294
