! Created with skrf 1.8.0 (http://scikit-rf.org).
# GHz S RI R 50.0 
!freq ReS11 ImS11 ReS12 ImS12 ReS13 ImS13
! ReS14 ImS14
! ReS21 ImS21 ReS22 ImS22 ReS23 ImS23
! ReS24 ImS24
! ReS31 ImS31 ReS32 ImS32 ReS33 ImS33
! ReS34 ImS34
! ReS41 ImS41 ReS42 ImS42 ReS43 ImS43
! ReS44 ImS44
!
0.0 0.001593113759075 0.0 0.9984068862267 0.0 6.179000273441e-05 0.0 -6.179000304509e-05 7.567092944847467e-21
 0.9984068862267 0.0 0.001593113759071 0.0 -6.179000304517e-05 7.567092944857264e-21 6.179000273402e-05 0.0
 6.179000273441e-05 0.0 -6.179000304517e-05 7.567092944857264e-21 0.001593113760501 0.0 0.9984068862281 0.0
 -6.179000304509e-05 7.567092944847467e-21 6.179000273402e-05 0.0 0.9984068862281 0.0 0.001593113760492 0.0
0.005 0.0017142654760752005 0.0012984020316893713 0.9982535741126307 -0.0033372256750489448 8.740004166902917e-05 0.0007096876208267625 -8.468546984464687e-05 -0.00044038649240506835
 0.9982535741126307 -0.0033372256750489448 0.0017142702176977046 0.0012983992629349616 -8.469040611694565e-05 -0.00044039027282675867 8.735490940857128e-05 0.0007097047972299286
 8.740004166902917e-05 0.0007096876208267625 -8.469040611694565e-05 -0.00044039027282675867 0.0017142626339228632 0.001298336446571544 0.9982535737452445 -0.0033372927342491514
 -8.468546984464687e-05 -0.00044038649240506835 8.735490940857128e-05 0.0007097047972299286 0.9982535737452445 -0.0033372927342491514 0.0017142723282126912 0.0012983307312667025
0.006252605252188 0.0017460855682359232 0.001628125884979792 0.9982130440982693 -0.004172343060795965 9.47460797567842e-05 0.0008874366302667683 -9.117479548479694e-05 -0.0005510562212614264
 0.9982130440982693 -0.004172343060795965 0.001746092980063855 0.001628122346579398 -9.118247680922476e-05 -0.0005510608819362005 9.46755647489771e-05 0.0008874589396249677
 9.47460797567842e-05 0.0008874366302667683 -9.118247680922476e-05 -0.0005510608819362005 0.0017460812077460632 0.0016280439114853022 0.9982130436067118 -0.004172426881033042
 -9.117479548479694e-05 -0.0005510562212614264 9.46755647489771e-05 0.0008874589396249677 0.9982130436067118 -0.004172426881033042 0.0017460963623547974 0.0016280366835360652
0.01250521050438 0.001913859358533639 0.0032904643965422113 0.9979978915796229 -0.008345463784685083 0.00013702863912925826 0.0017751212213691877 -0.00012812906783538615 -0.0011047796562956293
 0.9979978915796229 -0.008345463784685083 0.0019138889532335458 0.003290456561805863 -0.00012815934044065522 -0.0011047882646526381 0.0001367474381024733 0.0017751749057244213
 0.00013702863912925826 0.0017751212213691877 -0.00012815934044065522 -0.0011047882646526381 0.0019138425023673582 0.0032903007691462848 0.9979978901751635 -0.008345631174150003
 -0.00012812906783538615 -0.0011047796562956293 0.0001367474381024733 0.0017751749057244213 0.9979978901751635 -0.008345631174150003 0.0019139030230327532 0.0032902854502401455
0.01875781575657 0.002096811828410179 0.004976508462820474 0.9977611539736824 -0.012529512039618695 0.00018873658942160457 0.0026636712476212866 -0.00017276964849165466 -0.0016603256816592853
 0.9977611539736824 -0.012529512039618695 0.002096878327217 0.004976495582288924 -0.00017283715898735034 -0.0016603373825741644 0.000188104895986064 0.002663767183930482
 0.00018873658942160457 0.0026636712476212866 -0.00017283715898735034 -0.0016603373825741644 0.0020967743685123344 0.004976263415175051 0.997761151239801 -0.012529762913667152
 -0.00017276964849165466 -0.0016603256816592853 0.000188104895986064 0.002663767183930482 0.997761151239801 -0.012529762913667152 0.0020969103758165506 0.004976239022690946
0.02501042100875 0.002295307922916763 0.006683874906486552 0.9975025454973995 -0.016726502016263425 0.0002499703347494137 0.0035531215131102806 -0.00022520914695396124 -0.0022174257534852398
 0.9975025454973995 -0.016726502016263425 0.0022954260163152154 0.006683856243878534 -0.00022532836722041768 -0.0022174395350140585 0.0002488482926742667 0.003553272329775926
 0.0002499703347494137 0.0035531215131102806 -0.00022532836722041768 -0.0022174395350140585 0.0022952417620474685 0.006683548720916744 0.9975025410159949 -0.01672683631847538
 -0.00022520914695396124 -0.0022174257534852398 0.0002488482926742667 0.003553272329775926 0.9975025410159949 -0.01672683631847538 0.0022954833258548245 0.006683514164723186
0.03126302626094 0.00250969746039132 0.008411329974344309 0.9972217661818672 -0.020937286672221337 0.00032083068627435394 0.004443421319010841 -0.00028555673930307743 -0.002775890224406871
 0.9972217661818672 -0.020937286672221337 0.0025098818169922345 0.00841130480837632 -0.00028574199603387403 -0.002775904915994352 0.0003190782645524643 0.004443641405876666
 0.00032083068627435394 0.004443421319010841 -0.00028574199603387403 -0.002775904915994352 0.0025095945119428848 0.008410922988171997 0.9972217595361561 -0.020937704368513235
 -0.00028555673930307743 -0.002775890224406871 0.0003190782645524643 0.004443641405876666 0.9972217595361561 -0.020937704368513235 0.002509971667670349 0.008410877071988508
0.037515631513130004 0.002740322545727139 0.010158063682953777 0.996918509546348 -0.02516228332597048 0.0004014178184590192 0.005334486117453863 -0.00035391899768554794 -0.0033355566967229557
 0.996918509546348 -0.02516228332597048 0.0027405878195559973 0.010158031308700187 -0.00035418448747248887 -0.003335570968655497 0.0003988947579277106 0.005334791642998943
 0.0004014178184590192 0.005334486117453863 -0.00035418448747248887 -0.003335570968655497 0.00274017472912304 0.01015757629592044 0.9969185003177256 -0.025162784397867382
 -0.00035391899768554794 -0.0033355566967229557 0.0003988947579277106 0.005334791642998943 0.9969185003177256 -0.025162784397867382 0.002740717487959815 0.010157517717572674
0.043768236765320004 0.0029875204230002846 0.011923468994159634 0.9965924657121552 -0.029401694411314152 0.0004918307734656972 0.0062262132310810046 -0.0004304001863913099 -0.0038962743117039902
 0.9965924657121552 -0.029401694411314152 0.0029878812594938257 0.01192342872423065 -0.000430759984531718 -0.0038962866749176098 0.0004883965640836492 0.006226622161763069
 0.0004918307734656972 0.0062262132310810046 -0.000430759984531718 -0.0038962866749176098 0.002987319664681671 0.011922901675554085 0.996592453481426 -0.029402278849869224
 -0.0004304001863913099 -0.0038962743117039902 0.0004883965640836492 0.006226622161763069 0.996592453481426 -0.029402278849869224 0.0029880580216896787 0.01192282902657419
0.050020842017509996 0.003251624798821194 0.013707050540515775 0.9962433229907418 -0.03365559868067317 0.0005921671630917789 0.0071184883434584284 -0.0005151023639668137 -0.004457897271174219
 0.9962433229907418 -0.03365559868067317 0.0032520958402866584 0.013707001706207908 -0.0005155704300582846 -0.004457906077205301 0.0005876810375635224 0.0071190204638789676
 0.0005921671630917789 0.0071184883434584284 -0.0005155704300582846 -0.004457906077205301 0.0032513630316116536 0.013706403835227891 0.9962433073377706 -0.033656266481447934
 -0.0005151023639668137 -0.004457897271174219 0.0005876810375635224 0.0071190204638789676 0.9962433073377706 -0.033656266481447934 0.0032523269723681767 0.013706315600156067
0.055454545454549996 0.003495126663010999 0.015271464323180604 0.9959209055287548 -0.03736414193449094 0.0006874961456742435 0.007894252325556147 -0.0005954651916237286 -0.004946588110142057
 0.9959209055287548 -0.03736414193449094 0.003495705369194192 0.015271407518210331 -0.0005960385957328105 -0.00494659236231615 0.0006819813556093442 0.007894908996569671
 0.0006874961456742435 0.007894252325556147 -0.0005960385957328105 -0.00494659236231615 0.0034948053305092954 0.01527074912104948 0.9959208865594111 -0.037364882188920985
 -0.0005954651916237286 -0.004946588110142057 0.0006819813556093442 0.007894908996569671 0.9959208865594111 -0.037364882188920985 0.0034959896591716996 0.015270646026713689
0.056273447269699996 0.0035329665148783403 0.015508379855744651 0.9958707688262581 -0.037923995905249176 0.0007025229547432434 0.008011188688943426 -0.0006081254017627053 -0.005020281663766001
 0.9958707688262581 -0.037923995905249176 0.003533562406218181 0.015508321807825336 -0.0006087155834568984 -0.005020285104747365 0.0006968438919925228 0.00801186562231645
 0.0007025229547432434 0.008011188688943426 -0.0006087155834568984 -0.005020285104747365 0.003532635677841542 0.015507654371686287 0.9958707493294301 -0.03792474708196823
 -0.0006081254017627053 -0.005020281663766001 0.0006968438919925228 0.00801186562231645 0.9958707493294301 -0.03792474708196823 0.003533855184046386 0.015507548927210409
0.06252605252188 0.0038318739029814114 0.017327070728674225 0.9954744904235927 -0.04220683145542597 0.0008229923003337699 0.008904184812156445 -0.0007095669589049578 -0.005583283726301802
 0.9954744904235927 -0.04220683145542597 0.003832609296912455 0.01732700283817024 -0.0007102929943053404 -0.005583279835008494 0.0008159790355754655 0.008905030040821486
 0.0008229923003337699 0.008904184812156445 -0.0007102929943053404 -0.005583279835008494 0.0038314659415966 0.017326267155208606 0.9954744666595039 -0.042207666022610675
 -0.0007095669589049578 -0.005583283726301802 0.0008159790355754655 0.008905030040821486 0.9954744666595039 -0.042207666022610675 0.003832970996918065 0.01732614276894792
0.06877865777407 0.004148672964055331 0.01916276453461555 0.9950541752050055 -0.046504010908364715 0.0009536673890495628 0.009797341619503864 -0.0008195224322057616 -0.006146758818281139
 0.9950541752050055 -0.046504010908364715 0.004149562526387227 0.01916268619330482 -0.0008203979515049918 -0.00614674546818179 0.0009451784284812893 0.009798380505345048
 0.0009536673890495628 0.009797341619503864 -0.0008203979515049918 -0.00614674546818179 0.004148179830194199 0.019161883637514514 0.9950541467480358 -0.04650492888747468
 -0.0008195224322057616 -0.006146758818281139 0.0009451784284812893 0.009798380505345048 0.9950541467480358 -0.04650492888747468 0.0041500004251916614 0.01916173846672057
0.07503126302626001 0.00448368744648728 0.021015120936303314 0.9946095111703734 -0.05081540929140793 0.0010946383138784382 0.010690519054337117 -0.0009380848909889376 -0.006710560778201795
 0.9946095111703734 -0.05081540929140793 0.004484745861455985 0.021015031557151377 -0.0009391234174564414 -0.006710535683551853 0.0010845319529368318 0.010691778858993493
 0.0010946383138784382 0.010690519054337117 -0.0009391234174564414 -0.006710535683551853 0.004483101099214052 0.021014163555836074 0.9946094775928882 -0.05081641071387208
 -0.0009380848909889376 -0.006710560778201795 0.0010845319529368318 0.010691778858993493 0.9946094775928882 -0.05081641071387208 0.0044852672364858286 0.02101399564583311
0.08128386827845 0.004837238857018367 0.022883811685375816 0.9941401871938178 -0.05514087723085169 0.0012459929469117272 0.011583572552068324 -0.0010653450018111897 -0.007274541505623582
 0.9941401871938178 -0.05514087723085169 0.004838480832637513 0.02288371070272721 -0.0010665599523562658 -0.007274502221564156 0.0012341272913216725 0.01158508245687556
 0.0012459929469117272 0.011583572552068324 -0.0010665599523562658 -0.007274502221564156 0.004836551262914522 0.022882778741724626 0.9941401480657142 -0.05514196213375854
 -0.0010653450018111897 -0.007274541505623582 0.0012341272913216725 0.01158508245687556 0.9941401480657142 -0.05514196213375854 0.004839092961942864 0.022882586024178943
0.08753647353064001 0.005209646430361994 0.024768516348346134 0.9936458932833788 -0.05948024518257946 0.001407816820059835 0.012476353364936698 -0.0012013909465807473 -0.007838550679538299
 0.9936458932833788 -0.05948024518257946 0.005211086703852494 0.02476840321790079 -0.0012027956319593815 -0.007838494602219945 0.0013940498090527062 0.01247814449057774
 0.001407816820059835 0.012476353364936698 -0.0012027956319593815 -0.007838494602219945 0.0052088495638804595 0.024767408843070115 0.9936458481711954 -0.059481413608196435
 -0.0012013909465807473 -0.007838550679538299 0.0013940498090527062 0.01247814449057774 0.9936458481711954 -0.059481413608196435 0.005211796865779237 0.024767189134076516
0.09378907878283 0.00560122706767107 0.026668919261743414 0.9931263208122647 -0.06383332643982757 0.0015801930098541994 0.013368708799512867 -0.0013463083353426905 -0.008402435570085614
 0.9931263208122647 -0.06383332643982757 0.005602880411004568 0.026668793460416784 -0.001347915960103194 -0.008402359936810249 0.0015643824413765432 0.013370814225227965
 0.0015801930098541994 0.013368708799512867 -0.001347915960103194 -0.008402359936810249 0.005600312912069188 0.02666773827600382 0.9931262692798828 -0.06383457843861517
 -0.0013463083353426905 -0.008402435570085614 0.0015643824413765432 0.013370814225227965 0.9931262692798828 -0.06383457843861517 0.005603695884393423 0.026667489273967542
0.100041684035 0.006012295254296662 0.02858470729003748 0.9925811627341644 -0.06819991934545716 0.0017632020245136896 0.014260482403965559 -0.0015001801158925476 -0.008966040906743898
 0.9925811627341644 -0.06819991934545716 0.006014176479665165 0.028584568315558338 -0.001502003778104174 -0.008965942796131911 0.0017452055820095596 0.014262937186426778
 0.0017632020245136896 0.014260482403965559 -0.001502003778104174 -0.008965942796131911 0.006011255802168312 0.028583453987159318 0.9925811043417584 -0.06820125497443656
 -0.0015001801158925476 -0.008966040906743898 0.0017452055820095596 0.014262937186426778 0.9925811043417584 -0.06820125497443656 0.006015104543459238 0.028583173270462316
0.1059090909091 0.006416040795717752 0.03039618556483417 0.9920460479209388 -0.07230960104067112 0.0019446763762988356 0.01509664564407641 -0.001652787854167779 -0.009494529868319206
 0.9920460479209388 -0.07230960104067112 0.006418149376270299 0.030396033790031942 -0.001654826061879938 -0.00949440786696699 0.0019244992103063332 0.015099461922129884
 0.0019446763762988356 0.01509664564407641 -0.001654826061879938 -0.00949440786696699 0.006414876492469499 0.030394865534189273 0.9920459826880488 -0.07231101520340219
 -0.001652787854167779 -0.009494529868319206 0.0019244992103063332 0.015099461922129884 0.9920459826880488 -0.07231101520340219 0.0064191897145265625 0.030394552745080617
0.1062942892872 0.006443162961335134 0.03051556814690228 0.9920101137845959 -0.0725798089476903 0.0019569216930806895 0.015151514115459199 -0.0016630864804761153 -0.009529208792835331
 0.9920101137845959 -0.0725798089476903 0.006445286926552936 0.030515415517290242 -0.0016651391712481083 -0.009529085125022017 0.0019365969737000863 0.015154355307206758
 0.0019569216930806895 0.015151514115459199 -0.0016651391712481083 -0.009529085125022017 0.006441990215435204 0.030514243774314914 0.9920100480889658 -0.07258122826958595
 -0.0016630864804761153 -0.009529208792835331 0.0019365969737000863 0.015154355307206758 0.9920100480889658 -0.07258122826958595 0.006446334859871174 0.030513928798786144
0.11254689453939999 0.0068941395350269885 0.03246118912690018 0.9914128706746587 -0.07697276825299149 0.0021614270557426523 0.01604164038373015 -0.0018351047705257681 -0.010091778650408133
 0.9914128706746587 -0.07697276825299149 0.006896521149283856 0.03246102237961851 -0.0018373993733812916 -0.010091626187255303 0.002138631600006029 0.016044907051077025
 0.0021614270557426523 0.01604164038373015 -0.0018373993733812916 -0.010091626187255303 0.0068928255088095206 0.03245979501838027 0.9914127972282044 -0.07697427133501494
 -0.0018351047705257681 -0.010091778650408133 0.002138631600006029 0.016044907051077025 0.9914127972282044 -0.07697427133501494 0.006897696231085546 0.032459443114560275
0.11879949979160001 0.007365531576931801 0.034421256106010226 0.9907891322769289 -0.08137855921761121 0.0023767902555100052 0.01693069428042556 -0.0020163093797884147 -0.010653587186019923
 0.9907891322769289 -0.08137855921761121 0.00736818580649075 0.03442107479695281 -0.0020188586699908325 -0.01065340253133722 0.00235138157791272 0.01693442752093238
 0.0023767902555100052 0.01693069428042556 -0.0020188586699908325 -0.01065340253133722 0.007364068295709212 0.03441979367689329 0.9907890506281825 -0.08138014613727898
 -0.0020163093797884147 -0.010653587186019923 0.00235138157791272 0.01693442752093238 0.9907890506281825 -0.08138014613727898 0.007369495315312676 0.034419402047073513
0.1250521050438 0.007857642816073348 0.03639545276418877 0.9901385998081181 -0.08579693352496802 0.0026030804303544385 0.01781850559323773 -0.0022067716564902118 -0.011214468378486676
 0.9901385998081181 -0.08579693352496802 0.00786058469007282 0.03639525646648861 -0.0022095883001754463 -0.011214247978335774 0.0025749160512698365 0.01782274855259218
 0.0026030804303544385 0.01781850559323773 -0.0022095883001754463 -0.011214247978335774 0.007856022317770231 0.03639392352010489 0.9901385095008113 -0.08579860436233192
 -0.0022067716564902118 -0.011214468378486676 0.0025749160512698365 0.01782274855259218 0.9901385095008113 -0.08579860436233192 0.007862035903585245 0.036393489235177726
0.131304710296 0.008370773976037884 0.03838345997092051 0.989460977007254 -0.09022763320793792 0.0028403636065354094 0.018704900915475324 -0.002406559804560044 -0.011774253478133424
 0.989460977007254 -0.09022763320793792 0.00837401859199974 0.03838324827345049 -0.00240965635775937 -0.011773993621103191 0.002809301085035417 0.018709698803868177
 0.0028403636065354094 0.018704900915475324 -0.00240965635775937 -0.011773993621103191 0.008368988311997146 0.03838186550378513 0.9894608775803048 -0.09022938805056877
 -0.002406559804560044 -0.011774253478133424 0.002809301085035417 0.018709698803868177 0.9894608775803048 -0.09022938805056877 0.008375618786999188 0.03838138549981343
0.1375573155481 0.008789482726718761 0.04012478174852899 0.9888717578781084 -0.09441009112053288 0.003059513820839223 0.019563622511055024 -0.0025865867352168254 -0.012306679593077371
 0.9888717578781084 -0.09441009112053288 0.008793047149093226 0.04012456173563711 -0.0025899817985208244 -0.012306379880921666 0.0030254827806541857 0.019568969286637164
 0.003059513820839223 0.019563622511055024 -0.0025899817985208244 -0.012306379880921666 0.008787524423494444 0.040123123724086364 0.9888716489170098 -0.09441192998410572
 -0.0025865867352168254 -0.012306679593077371 0.0030254827806541857 0.019568969286637164 0.9888716489170098 -0.09441192998410572 0.008794803041771677 0.04012260215833413
0.1438099208003 0.009222971273832469 0.04185653578671209 0.9882617068796584 -0.09858156506599253 0.0032875159305683975 0.02041865762940806 -0.002773809712053558 -0.012835750535731221
 0.9882617068796584 -0.09858156506599253 0.00922687099517079 0.04185630751830772 -0.0027775167717831463 -0.01283540730956345 0.0032503869971365514 0.02042459469905309
 0.0032875159305683975 0.02041865762940806 -0.0027775167717831463 -0.01283540730956345 0.009220832484819868 0.041854815853448885 0.9882615879266244 -0.09858348802873439
 -0.002773809712053558 -0.012835750535731221 0.0032503869971365514 0.02042459469905309 0.9882615879266244 -0.09858348802873439 0.009228789760804601 0.04185425002652096
0.1500625260525 0.009671081366183306 0.04357856609805101 0.9876309866740663 -0.10274194007123 0.003524288121705462 0.021269911639356057 -0.0029681495484241913 -0.013361377729506504
 0.9876309866740663 -0.10274194007123 0.009675331955342753 0.04357832960367337 -0.0029721820580261363 -0.013360987183478657 0.003483932790392115 0.021276481907259028
 0.003524288121705462 0.021269911639356057 -0.0029721820580261363 -0.013360987183478657 0.009668754262241399 0.04357678597080839 0.9876308572672883 -0.10274394721485855
 -0.0029681495484241913 -0.013361377729506504 0.003483932790392115 0.021276481907259028 0.9876308572672883 -0.10274394721485855 0.009677420761798164 0.043576173039122916
0.15631513130469998 0.010133653557381455 0.04529072138134225 0.986979760831859 -0.10689110181464824 0.0037697475670844813 0.022117291578294153 -0.0031695260415149284 -0.013883474537116408
