! Created with skrf 1.8.0 (http://scikit-rf.org).
# GHz S RI R 50.0 
!freq ReS11 ImS11 ReS12 ImS12 ReS13 ImS13
! ReS14 ImS14
! ReS21 ImS21 ReS22 ImS22 ReS23 ImS23
! ReS24 ImS24
! ReS31 ImS31 ReS32 ImS32 ReS33 ImS33
! ReS34 ImS34
! ReS41 ImS41 ReS42 ImS42 ReS43 ImS43
! ReS44 ImS44
!
0.0 0.001269324758926 0.0 0.99873067524 0.0 4.877570416535e-05 0.0 -4.87757044656e-05 5.97330103499543e-21
 0.99873067524 0.0 0.001269324758917 0.0 -4.877570446505e-05 5.973301034928075e-21 4.877570416574e-05 0.0
 4.877570416535e-05 0.0 -4.877570446505e-05 5.973301034928075e-21 0.001269324748792 0.0 0.9987306752299 0.0
 -4.87757044656e-05 5.97330103499543e-21 4.877570416574e-05 0.0 0.9987306752299 0.0 0.001269324748812 0.0
0.005 0.001365073452918124 0.0010336946577590147 0.9986096151774192 -0.0026600523001103775 6.879055405368833e-05 0.0005685440744573535 -6.662253156833049e-05 -0.0003515670970138263
 0.9986096151774192 -0.0026600523001103775 0.0013650963951885766 0.0010336812394721585 -6.662303419915051e-05 -0.0003515674195975864 6.863896701856451e-05 0.0005686014979383252
 6.879055405368833e-05 0.0005685440744573535 -6.662303419915051e-05 -0.0003515674195975864 0.0013650738441234624 0.0010337616303556306 0.9986096155143257 -0.002659985248861803
 -6.662253156833049e-05 -0.0003515670970138263 6.863896701856451e-05 0.0005686014979383252 0.9986096155143257 -0.002659985248861803 0.0013650966740821233 0.00103374836564254
0.006252605252188 0.0013899894921467076 0.001296236085000511 0.9985779388218318 -0.003325748396801066 7.441710760839579e-05 0.000710952501499877 -7.157376191602058e-05 -0.0004399322776008346
 0.9985779388218318 -0.003325748396801066 0.001390025355876032 0.0012962190889616052 -7.157454456308354e-05 -0.0004399326742097954 7.418026079324212e-05 0.0007110270402305451
 7.441710760839579e-05 0.000710952501499877 -7.157454456308354e-05 -0.0004399326742097954 0.0013899900233204367 0.0012963198082654589 0.9985779392678198 -0.0033256645679897905
 -7.157376191602058e-05 -0.0004399322776008346 7.418026079324212e-05 0.0007110270402305451 0.9985779392678198 -0.0033256645679897905 0.0013900257107578382 0.0012963030150533782
0.01250521050438 0.0015200125148548283 0.0026201055320850316 0.9984116575161098 -0.006652504125636345 0.00010619894495375206 0.001422227945133595 -9.919627803119535e-05 -0.0008821543726932874
 0.9984116575161098 -0.006652504125636345 0.0015201557291148304 0.002620069315772319 -9.919936885864084e-05 -0.0008821550936406965 0.00010525429900121824 0.0014224064208532994
 0.00010619894495375206 0.001422227945133595 -9.919936885864084e-05 -0.0008821550936406965 0.0015200140930461694 0.002620272634940221 0.9984116587491007 -0.006652336725425089
 -9.919627803119535e-05 -0.0008821543726932874 0.00010525429900121824 0.0014224064208532994 0.9984116587491007 -0.006652336725425089 0.0015201565896484652 0.0026202369367564157
0.01875781575657 0.0016596378940840178 0.003963279378698412 0.9982316533958269 -0.00998841031196371 0.00014418650936679446 0.0021343617517144155 -0.0001317200540126458 -0.0013260124433887325
 0.9982316533958269 -0.00998841031196371 0.0016599597201291426 0.003963221601377803 -0.00013172695588752726 -0.0013260134028835536 0.00014206409227429686 0.002134678477460261
 0.00014418650936679446 0.0021343617517144155 -0.00013172695588752726 -0.0013260134028835536 0.0016596410325189631 0.003963529668436576 0.9982316557493209 -0.009988159411786325
 -0.0001317200540126458 -0.0013260124433887325 0.00014206409227429686 0.002134678477460261 0.9982316557493209 -0.009988159411786325 0.0016599612190708714 0.003963472846761858
0.02501042100875 0.0018091045424552588 0.005323907709363911 0.9980377427395132 -0.013335124945833221 0.00018844680961889294 0.0028474169409974624 -0.00016921989999944316 -0.0017713217021560498
 0.9980377427395132 -0.013335124945833221 0.001809676108815583 0.0053238259418946976 -0.000169232101070204 -0.0017713227995273422 0.00018467621273538602 0.0028479109445414263
 0.00018844680961889294 0.0028474169409974624 -0.000169232101070204 -0.0017713227995273422 0.0018091097575414193 0.005324240994670645 0.99803774654647 -0.013334790580365454
 -0.00016921989999944316 -0.0017713217021560498 0.00018467621273538602 0.0028479109445414263 0.99803774654647 -0.013334790580365454 0.0018096783674817968 0.005324160752786357
0.03126302626094 0.0019686412043224254 0.0067010587437149344 0.9978297311086045 -0.016693381774096364 0.00023904783128353774 0.003561388000894292 -0.00021176881594385283 -0.0022179624316232445
 0.9978297311086045 -0.016693381774096364 0.0019695335446197264 0.006700950474885585 -0.00021178779224181779 -0.0022179635510878337 0.00023315775660883632 0.0035621030521329304
 0.00023904783128353774 0.003561388000894292 -0.00021178779224181779 -0.0022179635510878337 0.00196864901920228 0.006701474818077928 0.9978297367057635 -0.01669296395753817
 -0.00021176881594385283 -0.0022179624316232445 0.00023315775660883632 0.0035621030521329304 0.9978297367057635 -0.01669296395753817 0.001969536677222456 0.006701368787669351
0.037515631513130004 0.002138471832974843 0.00809414027319381 0.9976074188270466 -0.02006356881634692 0.00029605775449263456 0.004276242825362457 -0.00025943857836591616 -0.0026658380257799062
 0.9976074188270466 -0.02006356881634692 0.0021397559106937523 0.008094002913466817 -0.0002594657951241028 -0.0026658390363416135 0.00028757579947381146 0.004277227486720887
 0.00029605775449263456 0.004276242825362457 -0.0002594657951241028 -0.0026658390363416135 0.0021384827740266324 0.00809463891168582 0.9976074265524495 -0.0200630675453806
 -0.00025943857836591616 -0.0026658380257799062 0.00028757579947381146 0.004277227486720887 0.9976074265524495 -0.0200630675453806 0.0021397600213078397 0.008094504656768753
0.043768236765320004 0.002318817676702013 0.009502723591436767 0.997370603174484 -0.02344590438052027 0.00035954460282867744 0.0049919354893276325 -0.00031229996268169184 -0.003114862200492442
 0.997370603174484 -0.02344590438052027 0.0023205644046350397 0.00950255447553243 -0.0003123368750831361 -0.003114862955858897 0.00034799714672483807 0.004993243173277529
 0.00035954460282867744 0.0049919354893276325 -0.0003123368750831361 -0.003114862955858897 0.0023188322721072645 0.009503304549398583 0.9973706133668546 -0.0234453196353355
 -0.00031229996268169184 -0.003114862200492442 0.00034799714672483807 0.004993243173277529 0.9973706133668546 -0.0234453196353355 0.002320569586334723 0.00950313956911751
0.050020842017509996 0.0025098982541359055 0.010926470726199459 0.9971190794708182 -0.026840509774773622 0.00042957604495907936 0.005708411503548126 -0.00037042283569723485 -0.0035649537262438555
 0.9971190794708182 -0.026840509774773622 0.0025121785104521258 0.010926267115196547 -0.0003704708892870005 -0.0035649540647639255 0.00041448818840772065 0.005710100533219057
 0.00042957604495907936 0.005708411503548126 -0.0003704708892870005 -0.0035649540647639255 0.002509917034533912 0.010927133740865418 0.9971190924713852 -0.026839841517184895
 -0.00037042283569723485 -0.0035649537262438555 0.00041448818840772065 0.005710100533219057 0.9971190924713852 -0.026839841517184895 0.0025121848468069863 0.010926935471804636
0.055454545454549996 0.0026848405526631093 0.012175844267514046 0.9968883930406405 -0.029800537035099776 0.0004958026899354751 0.0063316402055944715 -0.0004252599524973613 -0.003956902509468637
 0.9968883930406405 -0.029800537035099776 0.002687642007670007 0.01217560839890749 -0.0004253188548667953 -0.003956902342492294 0.00047725142718588057 0.006333711862328197
 0.0004958026899354751 0.0063316402055944715 -0.0004253188548667953 -0.003956902342492294 0.0026848634026040235 0.012176578354566927 0.9968884087607727 -0.02979979616711604
 -0.0004252599524973613 -0.003956902509468637 0.00047725142718588057 0.006333711862328197 0.9968884087607727 -0.02979979616711604 0.002687649407702928 0.012176349027480122
0.056273447269699996 0.0027119318675772005 0.012365098734290862 0.9968526417028674 -0.03024744495605511 0.000506219261035018 0.006425610400093761 -0.0004338761924929677 -0.004016033831965935
 0.9968526417028674 -0.03024744495605511 0.002714816511122799 0.012364857817220989 -0.0004339368235389107 -0.004016033576581781 0.0004871147978254009 0.006427744071369022
 0.000506219261035018 0.006425610400093761 -0.0004339368235389107 -0.004016033576581781 0.002711955365684309 0.012365843512447348 0.9968526578554862 -0.030246693141560605
 -0.0004338761924929677 -0.004016033831965935 0.0004871147978254009 0.006427744071369022 0.9968526578554862 -0.030246693141560605 0.0027148240757921037 0.012365609330393181
0.06252605252188 0.002925135890091189 0.013818360051273158 0.996571082925541 -0.033666728124507314 0.0005895408443407163 0.007143467145697054 -0.0005027281625764044 -0.004468024782659182
 0.996571082925541 -0.033666728124507314 0.002928695773938967 0.013818078946489126 -0.0005028027981761261 -0.004468023740858398 0.000565942254119031 0.00714611379009639
 0.0005895408443407163 0.007143467145697054 -0.0005028027981761261 -0.004468023740858398 0.002925164639192849 0.013819186281475335 0.9965711025764284 -0.033665892689886665
 -0.0005027281625764044 -0.004468024782659182 0.000565942254119031 0.00714611379009639 0.9965711025764284 -0.033665892689886665 0.0029287046300926524 0.013818913502906458
0.06877865777407 0.0031497269273475003 0.015286030797577189 0.9962741955412262 -0.037098347362595166 0.0006796067200118887 0.007861912986918565 -0.000577046000702715 -0.004920849026915313
 0.9962741955412262 -0.037098347362595166 0.0031540329125353097 0.015285706553598802 -0.0005771360589055837 -0.004920846990683564 0.0006510351757940321 0.007865146034876138
 0.0006796067200118887 0.007861912986918565 -0.0005771360589055837 -0.004920846990683564 0.003149761461773719 0.015286938138587244 0.9962742190402245 -0.03709742823719099
 -0.000577046000702715 -0.004920849026915313 0.0006510351757940321 0.007865146034876138 0.9962742190402245 -0.03709742823719099 0.003154043113741366 0.015286624021740282
0.07503126302626001 0.0033859209105292607 0.016767903349066866 0.9959617715121896 -0.040542268011067036 0.0007764820757255803 0.008580875980902585 -0.0006568960665694701 -0.005374428660691714
 0.9959617715121896 -0.040542268011067036 0.003391043879080888 0.01676753294523077 -0.0006570029564243033 -0.005374425406471075 0.0007424574622672414 0.008584774025150413
 0.0007764820757255803 0.008580875980902585 -0.0006570029564243033 -0.005374425406471075 0.0033859617641074946 0.01676889143558461 0.9959617992121309 -0.04054126511090882
 -0.0006568960665694701 -0.005374428660691714 0.0007424574622672414 0.008584774025150413 0.9959617992121309 -0.04054126511090882 0.003391055468099501 0.01676853318124167
0.08128386827845 0.003633933141338759 0.018263781394954316 0.9956336025270326 -0.04399843755947226 0.0008802312991005465 0.009300281346882069 -0.0007423437979996994 -0.00582868507219607
 0.9956336025270326 -0.04399843755947226 0.003639944009260654 0.018263361741723216 -0.0007424689195239664 -0.005828680360851498 0.00084027223947664 0.009304928205833224
 0.0008802312991005465 0.009300281346882069 -0.0007424689195239664 -0.005828680360851498 0.0036339808471087657 0.0182648498361216 0.9956336347845892 -0.043997350788524306
 -0.0007423437979996994 -0.00582868507219607 0.00084027223947664 0.009304928205833224 0.9956336347845892 -0.043997350788524306 0.0036399570185728226 0.01826444458802768
0.08753647353064001 0.0038939783086850825 0.019773476523380636 0.9952894801414102 -0.04746678901058767 0.0009909179186110117 0.01002005171608123 -0.0008334536800892552 -0.006283538690377663
 0.9952894801414102 -0.04746678901058767 0.0039009480387113228 0.01977300446230572 -0.0008335984242550058 -0.0062835322671547815 0.000944541807706123 0.010025536497040417
 0.0009909179186110117 0.01002005171608123 -0.0008335984242550058 -0.0062835322671547815 0.0038940333982604306 0.0197746249019475 0.9952895173174533 -0.047465618261412656
 -0.0008334536800892552 -0.006283538690377663 0.000944541807706123 0.010025536497040417 0.9952895173174533 -0.047465618261412656 0.0039009624901418954 0.019774169746959582
0.09378907878283 0.004166270483709632 0.02129680577696031 0.9949291958992913 -0.05094724327705113 0.0011086045482336384 0.01074010730313314 -0.0009302892103427598 -0.006738908813948182
 0.9949291958992913 -0.05094724327705113 0.004174270098395518 0.021296278080287157 -0.0009304549590265903 -0.0067389004084536285 0.001055327591664968 0.010746524465228545
 0.0011086045482336384 0.01074010730313314 -0.0009304549590265903 -0.0067389004084536285 0.00416633348718745 0.021298033647301557 0.9949292383594736 -0.050945988432691956
 -0.0009302892103427598 -0.006738908813948182 0.001055327591664968 0.010746524465228545 0.9949292383594736 -0.050945988432691956 0.004174286003632936 0.021297525615114946
0.100041684035 0.004451023102027954 0.022833589861253414 0.9945525414428008 -0.054439710927129945 0.0012333528338326818 0.011460366035565496 -0.0010329128615125616 -0.007194713484421556
 0.9945525414428008 -0.054439710927129945 0.004460123696496234 0.02283300323126694 -0.0010331009873768855 -0.007194702810586499 0.0011726900913815795 0.01146781545241743
 0.0012333528338326818 0.011460366035565496 -0.0010331009873768855 -0.007194702810586499 0.0044510945462419 0.02283489675252362 0.9945525895570949 -0.054438371857720935
 -0.0010329128615125616 -0.007194713484421556 0.0011726900913815795 0.01146781545241743 0.9945525895570949 -0.054438371857720935 0.004460141055982914 0.022834332815108268
0.1059090909091 0.004729755410882338 0.024287778064653567 0.9941840172258224 -0.05772785983814509 0.0013568923843197917 0.012136362193324465 -0.0011345332225597858 -0.007622758844801303
 0.9941840172258224 -0.05772785983814509 0.004739953894408819 0.024287133069450188 -0.0011347435871924747 -0.007622745768212935 0.0012888568386981206 0.012144875983574903
 0.0013568923843197917 0.012136362193324465 -0.0011347435871924747 -0.007622745768212935 0.004729835252286816 0.02428915865671963 0.994184070987401 -0.057726441604137355
 -0.0011345332225597858 -0.007622758844801303 0.0012888568386981206 0.012144875983574903 0.994184070987401 -0.057726441604137355 0.004739972609468275 0.02428853945192258
0.1062942892872 0.004748448932933998 0.024383651789485625 0.9941593086121303 -0.05794409349644351 0.0013652234003668007 0.012180743654223246 -0.0011413860426767596 -0.007650869390424052
 0.9941593086121303 -0.05794409349644351 0.004758721687926501 0.024383002857381608 -0.0011415979091121571 -0.007650856146485343 0.0012966888337295238 0.012189330676161967
 0.0013652234003668007 0.012180743654223246 -0.0011415979091121571 -0.007650856146485343 0.0047485293417545895 0.024385037204083394 0.9941593627561431 -0.057942670060756166
 -0.0011413860426767596 -0.007650869390424052 0.0012966888337295238 0.012189330676161967 0.9941593627561431 -0.057942670060756166 0.0047587404914879805 0.024384414274690378
0.11254689453939999 0.00505876004192579 0.02594681585778956 0.9937492895398521 -0.061460284471588855 0.001504275800668608 0.01290115378853343 -0.0012557690583570112 -0.008107291799423998
 0.9937492895398521 -0.061460284471588855 0.005070276236937325 0.02594610118229659 -0.0012560060193384961 -0.008107275667903435 0.001427382324569542 0.012910989304334583
 0.001504275800668608 0.01290115378853343 -0.0012560060193384961 -0.008107275667903435 0.005058849934967558 0.025948279269723786 0.9937493500946167 -0.061458776518471675
 -0.0012557690583570112 -0.008107291799423998 0.001427382324569542 0.012910989304334583 0.9937493500946167 -0.061458776518471675 0.005070296463212563 0.025947594201600494
0.11879949979160001 0.005382167746469033 0.027522906830281902 0.9933222767412665 -0.06498817006621654 0.0016505684643215732 0.013621508017852607 -0.0013761210666751135 -0.00856389450560496
 0.9933222767412665 -0.06498817006621654 0.005394998772780436 0.02752212289590642 -0.0013763844666572346 -0.008563875153292775 0.0015648280008480518 0.013632708515997379
 0.0016505684643215732 0.013621508017852607 -0.0013763844666572346 -0.008563875153292775 0.005382267638635523 0.027524447687417707 0.9933223440935561 -0.0649865774322863
 -0.0013761210666751135 -0.00856389450560496 0.0015648280008480518 0.013632708515997379 0.9933223440935561 -0.0649865774322863 0.0053950203892281865 0.027523697272140168
0.1250521050438 0.005718882566091157 0.029111749305759535 0.9928780632005192 -0.06852762981825761 0.0018041586471047207 0.014341715922385477 -0.0015025000362699431 -0.009020589790622386
 0.9928780632005192 -0.06852762981825761 0.00573309994032702 0.029110892520463987 -0.0015027912100426916 -0.00902056686856559 0.0017090821830072545 0.014354403551735668
 0.0018041586471047207 0.014341715922385477 -0.0015027912100426916 -0.00902056686856559 0.005718992966979501 0.02911336702691551 0.9928781377436458 -0.06852595233080043
 -0.0015025000362699431 -0.009020589790622386 0.0017090821830072545 0.014354403551735668 0.9928781377436458 -0.06852595233080043 0.00573312290315616 0.029112547992216107
0.131304710296 0.006069114168958001 0.0307131671981569 0.9924164424550842 -0.07207853707567298 0.0019651023804723505 0.015061685127689458 -0.0016349627024992153 -0.009477288393136888
 0.9924164424550842 -0.07207853707567298 0.006084789546340218 0.03071223389094421 -0.0016352829750397432 -0.009477261536634864 0.0018602000272226974 0.015075987757475593
 0.0019651023804723505 0.015061685127689458 -0.0016352829750397432 -0.009477261536634864 0.006069235582145875 0.030714861176788403 0.9924165245892284 -0.07207677454889141
 -0.0016349627024992153 -0.009477288393136888 0.0018602000272226974 0.015075987757475593 0.9924165245892284 -0.07207677454889141 0.006084813800414703 0.03071397018409256
0.1375573155481 0.006346522791580035 0.03211628933321101 0.9920237790218699 -0.0754300092142361 0.0021118583898278916 0.01575923892255635 -0.001752097855923198 -0.009911742296465074
 0.9920237790218699 -0.0754300092142361 0.006363732262400275 0.032115296031853716 -0.0017524489857499077 -0.009911711517871865 0.001996894223116324 0.01577512055003144
 0.0021118583898278916 0.01575923892255635 -0.0017524489857499077 -0.009911711517871865 0.00634665497574097 0.032118059404538046 0.9920238690904162 -0.07542816154493774
 -0.001752097855923198 -0.009911742296465074 0.001996894223116324 0.01577512055003144 0.9920238690904162 -0.07542816154493774 0.0063637585982766805 0.032117112552718034
0.1438099208003 0.006633450949475855 0.03351297265964479 0.99161771620134 -0.07877398190455115 0.0022645701788394862 0.016454601521438985 -0.0018739440463870745 -0.010344245053240095
 0.99161771620134 -0.07877398190455115 0.006652267024129021 0.03351191692712025 -0.00187432742253843 -0.010344210002861629 0.002139099061720805 0.016472177445707774
 0.0022645701788394862 0.016454601521438985 -0.00187432742253843 -0.010344210002861629 0.006633594263785033 0.033514818234217106 0.9916178146025335 -0.07877204891181834
 -0.0018739440463870745 -0.010344245053240095 0.002139099061720805 0.016472177445707774 0.9916178146025335 -0.07877204891181834 0.006652295523947127 0.03351381334467916
0.1500625260525 0.006929809665811458 0.03490312965314757 0.9911983459782958 -0.08211040221126617 0.0024231940641876635 0.017147722195474818 -0.0020004597876177635 -0.0107747495028924
 0.9911983459782958 -0.08211040221126617 0.006950305011535802 0.03490200888912676 -0.0020008767950383034 -0.010774709817360123 0.002286772987266108 0.017167111879899905
 0.0024231940641876635 0.017147722195474818 -0.0020008767950383034 -0.010774709817360123 0.00692996445449325 0.034905050120496633 0.9911984531158956 -0.08210838370596932
 -0.0020004597876177635 -0.0107747495028924 0.002286772987266108 0.017167111879899905 0.9911984531158956 -0.08210838370596932 0.006950335756713587 0.0349039848585266
0.15631513130469998 0.00723550947183205 0.03628667560869635 0.9907657606489765 -0.08543921681738659 0.002587685939320065 0.01783855091085104 -0.0021316031645665537 -0.011203209394104
