! Created with skrf 1.8.0 (http://scikit-rf.org).
# GHz S RI R 50.0 
!freq ReS11 ImS11 ReS12 ImS12 ReS13 ImS13
! ReS14 ImS14
! ReS21 ImS21 ReS22 ImS22 ReS23 ImS23
! ReS24 ImS24
! ReS31 ImS31 ReS32 ImS32 ReS33 ImS33
! ReS34 ImS34
! ReS41 ImS41 ReS42 ImS42 ReS43 ImS43
! ReS44 ImS44
!
0.0 0.001043690094259 0.0 0.9989563099057 0.0 3.941162624369e-05 0.0 -3.941162646598e-05 4.826532220075352e-21
 0.9989563099057 0.0 0.001043690094268 0.0 -3.941162646613e-05 4.8265322200937216e-21 3.941162624434e-05 0.0
 3.941162624369e-05 0.0 -3.941162646613e-05 4.8265322200937216e-21 0.001043690082895 0.0 0.9989563098944 0.0
 -3.941162646598e-05 4.826532220075352e-21 3.941162624434e-05 0.0 0.9989563098944 0.0 0.001043690082895 0.0
0.005 0.0011219052524899852 0.0008543866048559646 0.9988575018970637 -0.0021876663138915655 5.4648980287471785e-05 0.0004343925782094938 -5.316928314113184e-05 -0.0002728101508081776
 0.9988575018970637 -0.0021876663138915655 0.001121910596394643 0.0008543834556177372 -5.3168300432446156e-05 -0.0002728093672412771 5.462467803503164e-05 0.00043440187332423406
 5.4648980287471785e-05 0.0004343925782094938 -5.3168300432446156e-05 -0.0002728093672412771 0.0011219062112952042 0.0008544532634104915 0.9988575022081513 -0.002187599246292225
 -5.316928314113184e-05 -0.0002728101508081776 5.462467803503164e-05 0.00043440187332423406 0.9988575022081513 -0.002187599246292225 0.0011219102562943757 0.0008544509291132829
0.006252605252188 0.0011421269913922552 0.001071385898826157 0.9988318414711992 -0.002735162498776945 5.8841402350923034e-05 0.0005432191593958807 -5.6921242034327875e-05 -0.00034138199972572964
 0.9988318414711992 -0.002735162498776945 0.0011421353450533037 0.0010713818847654382 -5.6919713048122075e-05 -0.00034138103237920585 5.8803432117249486e-05 0.0005432312011545284
 5.8841402350923034e-05 0.0005432191593958807 -5.6919713048122075e-05 -0.00034138103237920585 0.0011421284160562709 0.0010714692058293469 0.9988318418830344 -0.002735078675664354
 -5.6921242034327875e-05 -0.00034138199972572964 5.8803432117249486e-05 0.0005432312011545284 0.9988318418830344 -0.002735078675664354 0.0011421347386705552 0.0010714662169808858
0.01250521050438 0.0012468797626181787 0.002165649726508772 0.9986982581332357 -0.005471337925929119 8.203437483136872e-05 0.0010868685043392593 -7.749876300211e-05 -0.0006845984110802483
 0.9986982581332357 -0.005471337925929119 0.0012469131228996966 0.0021656409139539723 -7.749273937558654e-05 -0.0006845966055632759 8.188296125195767e-05 0.0010868970577488778
 8.203437483136872e-05 0.0010868685043392593 -7.749273937558654e-05 -0.0006845966055632759 0.0012468849218128725 0.0021658160381972298 0.9986982592448543 -0.005471170519730866
 -7.749876300211e-05 -0.0006845984110802483 8.188296125195767e-05 0.0010868970577488778 0.9986982592448543 -0.005471170519730866 0.0012469101626926622 0.002165809349580049
0.01875781575657 0.0013581150490532387 0.0032759692052451088 0.9985554386972594 -0.008215243934681557 0.00010903390639715691 0.0016313468606707305 -0.00010119386301915082 -0.001029188996544316
 0.9985554386972594 -0.008215243934681557 0.0013581900198988905 0.0032759547516843994 -0.00010118043222087644 -0.0010291864983118433 0.00010869377690872303 0.0016313970545095932
 0.00010903390639715691 0.0016313468606707305 -0.00010118043222087644 -0.0010291864983118433 0.001358126229453794 0.003276218332228473 0.9985554407766248 -0.00821499303346836
 -0.00010119386301915082 -0.001029188996544316 0.00010869377690872303 0.0016313970545095932 0.9985554407766248 -0.00821499303346836 0.0013581829368860007 0.0032762072015953838
0.02501042100875 0.0014759975298596303 0.004400848184684347 0.9984032590955428 -0.010968268672776662 0.00013988399042965112 0.002176713040404395 -0.00012805541894184022 -0.001375031721676157
 0.9984032590955428 -0.010968268672776662 0.0014761306859061851 0.004400827194162549 -0.00012803170328690692 -0.0013750286955709883 0.00013927983564239598 0.0021767906238193226
 0.00013988399042965112 0.002176713040404395 -0.00012803170328690692 -0.0013750286955709883 0.001476017021825361 0.004401179954429128 0.9984032624150174 -0.010967934309456882
 -0.00012805541894184022 -0.001375031721676157 0.00013927983564239598 0.0021767906238193226 0.9984032624150174 -0.010967934309456882 0.0014761177112267094 0.004401163611156851
0.03126302626094 0.0016006844663895873 0.005539546004263886 0.9982415869855161 -0.013731041399655756 0.00017462928821145973 0.0027229768188357386 -0.00015813135309914773 -0.001722051754314291
 0.9982415869855161 -0.013731041399655756 0.001600892360239544 0.005539517527889934 -0.0001580945034851815 -0.0017220483849805545 0.00017368568458667183 0.0027230881630640274
 0.00017462928821145973 0.0027229768188357386 -0.0001580945034851815 -0.0017220483849805545 0.0016007145642295728 0.005539960217132534 0.9982415918220305 -0.013730623595773372
 -0.00015813135309914773 -0.001722051754314291 0.00017368568458667183 0.0027230881630640274 0.9982415918220305 -0.013730623595773372 0.0016008717240431271 0.005539937862718854
0.037515631513130004 0.0017323297927714122 0.006691601940470853 0.998070285889364 -0.016503908006417267 0.00021331470867569182 0.0032701291560247505 -0.00019146899858078363 -0.0020701912314031214
 0.998070285889364 -0.016503908006417267 0.00173262895923451 0.006691564976525872 -0.00019141619127698806 -0.002070187723437948 0.0002119560803944841 0.003270281260160082
 0.00021331470867569182 0.0032701291560247505 -0.00019141619127698806 -0.002070187723437948 0.0017323727892625067 0.0066920983806446855 0.9980702925189148 -0.01650340676095629
 -0.00019146899858078363 -0.0020701912314031214 0.0002119560803944841 0.003270281260160082 0.9980702925189148 -0.01650340676095629 0.0017325988840719583 0.006692069189029883
0.043768236765320004 0.0018710857058969064 0.007856690498671201 0.9978892168335358 -0.01928707568737919 0.00025598521753691646 0.003818151392190509 -0.00022811524682397625 -0.002419400052037357
 0.9978892168335358 -0.01928707568737919 0.00187149266483237 0.007856643992541606 -0.0002280436814710866 -0.002419396630036231 0.00025413581517478613 0.003818351890177653
 0.00025598521753691646 0.003818151392190509 -0.0002280436814710866 -0.002419396630036231 0.0018711438954403074 0.007857268925314416 0.9978892255344274 -0.01928649098524597
 -0.00022811524682397625 -0.002419400052037357 0.00025413581517478613 0.003818351890177653 0.9978892255344274 -0.01928649098524597 0.001871451368457703 0.007857232043178588
0.050020842017509996 0.002017103413059634 0.009034561604780666 0.9976982391468838 -0.022080672710303343 0.00030268573376027495 0.004367019034263927 -0.00026811661157124074 -0.002769632079405559
 0.9976982391468838 -0.022080672710303343 0.0020176346716468947 0.009034504448803589 -0.0002680235098545608 -0.0027696289879940435 0.0003002696217266797 0.00436727620243353
 0.00030268573376027495 0.004367019034263927 -0.0002680235098545608 -0.0027696289879940435 0.0020171790890910523 0.009035221752727916 0.9976982501975468 -0.02208000452128172
 -0.00026811661157124074 -0.002769632079405559 0.0003002696217266797 0.00436727620243353 0.9976982501975468 -0.02208000452128172 0.002017580364226942 0.009035176299683869
0.055454545454549996 0.0021500116741982505 0.01006838900956456 0.9975241165330044 -0.024516925078008504 0.0003465775566503976 0.004844666192388526 -0.0003056396379542863 -0.0030747910525175475
 0.9975241165330044 -0.024516925078008504 0.0021506643502024634 0.010068321657694402 -0.00030552558056439665 -0.0030747884626230347 0.0003436071376535384 0.004844979834839674
 0.0003465775566503976 0.004844666192388526 -0.00030552558056439665 -0.0030747884626230347 0.0021501044100610284 0.010069119932732207 0.9975241298538186 -0.024516184308646216
 -0.0003056396379542863 -0.0030747910525175475 0.0003436071376535384 0.004844979834839674 0.9975241298538186 -0.024516184308646216 0.002150597277934043 0.010069066295496113
0.056273447269699996 0.002170533526826633 0.010225011255658523 0.9974972109075538 -0.024884777727201133 0.00035346106120023906 0.004916703617739897 -0.00031151925893204725 -0.003120843267715352
 0.9974972109075538 -0.024884777727201133 0.0021712055811972815 0.010224942288991267 -0.00031140186363967783 -0.003120840771552295 0.00035040211045140885 0.004917026382618289
 0.00035346106120023906 0.004916703617739897 -0.00031140186363967783 -0.003120840771552295 0.002170628984183351 0.01022575282517947 0.9974972245891979 -0.02488402601586217
 -0.00031151925893204725 -0.003120843267715352 0.00035040211045140885 0.004917026382618289 0.9974972245891979 -0.02488402601586217 0.002171136467521568 0.010225697894027243
0.06252605252188 0.0023315262951694358 0.011427865379122807 0.9972859892257343 -0.027699435875626184 0.0004083558394042566 0.005467173722018866 -0.0003583690186044129 -0.00347299063603652
 0.9972859892257343 -0.027699435875626184 0.002332355632259737 0.011427783387500607 -0.00035822459297005075 -0.0034729890198235986 0.00040457772363754977 0.005467571668265363
 0.0004083558394042566 0.005467173722018866 -0.00035822459297005075 -0.0034729890198235986 0.002331643828236368 0.011428688045881324 0.9972860058209179 -0.02769860059093743
 -0.0003583690186044129 -0.00347299063603652 0.00040457772363754977 0.005467571668265363 0.9972860058209179 -0.02769860059093743 0.0023322699096040497 0.011428622702744454
0.06877865777407 0.002500231736649154 0.012642970213471353 0.9970644304331107 -0.03052466836038932 0.0004674145052204729 0.00601839557264618 -0.00040871138436490863 -0.0038260316557237476
 0.9970644304331107 -0.03052466836038932 0.002501234835303553 0.01264287392898096 -0.00040853721153436044 -0.0038260312241966076 0.0004628406993078806 0.006018878951096012
 0.0004674145052204729 0.00601839557264618 -0.00040853721153436044 -0.0038260312241966076 0.0025003736400894816 0.012643873624446501 0.9970644502271225 -0.030523749439487644
 -0.00040871138436490863 -0.0038260316557237476 0.0004628406993078806 0.006018878951096012 0.9970644502271225 -0.030523749439487644 0.0025011306943083585 0.012643796908975147
0.07503126302626001 0.00267679972390393 0.013870186216058374 0.9968323902214757 -0.03336047850669488 0.0005306812582325051 0.006570333427556175 -0.0004625915103340933 -0.004179923854402284
 0.9968323902214757 -0.03336047850669488 0.0026779930562839628 0.013870074316895593 -0.00046238489296023466 -0.0041799249323284824 0.0005252350384313223 0.0065709131633059845
 0.0005306812582325051 0.006570333427556175 -0.00046238489296023466 -0.0041799249323284824 0.0026769682918181027 0.01387116998379406 0.9968324135019075 -0.03335947588027115
 -0.0004625915103340933 -0.004179923854402284 0.0005252350384313223 0.0065709131633059845 0.9968324135019075 -0.03335947588027115 0.002677868680221559 0.013871080909311502
0.08128386827845 0.0028613800327426074 0.015109383995869433 0.9965897237483184 -0.03620685578967208 0.0005982000323059801 0.00712294982291013 -0.0005200542006863332 -0.004534624560971283
 0.9965897237483184 -0.03620685578967208 0.0028627800655402222 0.015109255106043842 -0.0005198124606524827 -0.004534627493136938 0.0005918044779106342 0.007123637523412744
 0.0005982000323059801 0.00712294982291013 -0.0005198124606524827 -0.004534627493136938 0.0028615775588990084 0.015110447704158685 0.9965897508055721 -0.036205769375939265
 -0.0005200542006863332 -0.004534624560971283 0.0005918044779106342 0.007123637523412744 0.9965897508055721 -0.036205769375939265 0.0028626336303707403 0.01511034525775242
0.08753647353064001 0.0030541223708558875 0.016360441508698163 0.9963362857226774 -0.03906377860184764 0.0006700144677238905 0.007676205749480072 -0.0005811438985193296 -0.004890090720695638
 0.9963362857226774 -0.03906377860184764 0.0030557455662857023 0.01636029419770798 -0.000580864376687407 -0.004890095871899088 0.0006625924635197925 0.007677013712677151
 0.0006700144677238905 0.007676205749480072 -0.000580864376687407 -0.004890095871899088 0.003054351147800809 0.016361584711476484 0.9963363168498952 -0.03906260830728662
 -0.0005811438985193296 -0.004890090720695638 0.0006625924635197925 0.007677013712677151 0.9963363168498952 -0.03906260830728662 0.0030555752400234066 0.016361467854141064
0.09378907878283 0.003255176390601744 0.017623242054688668 0.996071930476709 -0.04193121621881933 0.0007461678858285342 0.008230060773145814 -0.0006459046714521203 -0.005246278766899287
 0.996071930476709 -0.04193121621881933 0.0032570392077529643 0.017623074837189157 -0.000645584727489402 -0.005246286521933725 0.0007376421256448917 0.008231001995554151
 0.0007461678858285342 0.008230060773145814 -0.000645584727489402 -0.005246286521933725 0.0032554387100053607 0.01762446426967415 0.9960719659707704 -0.0419299619441926
 -0.0006459046714521203 -0.005246278766899287 0.0007376421256448917 0.008231001995554151 0.9960719659707704 -0.0419299619441926 0.0032568431507962264 0.017624331936362158
0.100041684035 0.0034646916921366464 0.01889767279513793 0.9957965120288099 -0.044809130246403 0.0008267032645128738 0.008784473123093292 -0.0007143801960975738 -0.005603144525646591
 0.9957965120288099 -0.044809130246403 0.0034668105877953305 0.018897484130612065 -0.0007140172083408645 -0.005603155289290689 0.0008169962552482342 0.008785561307907865
 0.0008267032645128738 0.008784473123093292 -0.0007140172083408645 -0.005603155289290689 0.003464989843972509 0.018898973512726583 0.9957965521896258 -0.044807791877536404
 -0.0007143801960975738 -0.005603144525646591 0.0008169962552482342 0.008785561307907865 0.9957965521896258 -0.044807791877536404 0.0034665869522195907 0.018898824612437155
0.1059090909091 0.0036691282354761163 0.020104070321528743 0.9955278689011416 -0.04751923549780527 0.0009063004816147806 0.009305198870776214 -0.0007820542882047276 -0.005938601614823764
 0.9955278689011416 -0.04751923549780527 0.0036715023998929496 0.020103860080642463 -0.0007816485405636998 -0.005938615587654621 0.0008954143539352272 0.009306438063704545
 0.0009063004816147806 0.009305198870776214 -0.0007816485405636998 -0.005938615587654621 0.003669462093058318 0.02010544420985393 0.9955279137173086 -0.047517818105807935
 -0.0007820542882047276 -0.005938601614823764 0.0008954143539352272 0.009306438063704545 0.9955279137173086 -0.047517818105807935 0.003671251196504358 0.020105278747842726
0.1062942892872 0.003682817818007859 0.0201836236537551 0.9955098841385258 -0.04769747568392085 0.0009116632137849839 0.0093393997600706 -0.0007866137417664526 -0.005960643141149215
 0.9955098841385258 -0.04769747568392085 0.003685209247792316 0.0201834119461043 -0.0007862051070954688 -0.00596065733814611 0.0009006972801751882 0.009340649325220376
 0.0009116632137849839 0.0093393997600706 -0.0007862051070954688 -0.00596065733814611 0.0036831540901876786 0.020185002328617214 0.9955099292698393 -0.047696053099806006
 -0.0007866137417664526 -0.005960643141149215 0.0009006972801751882 0.009340649325220376 0.9955099292698393 -0.047696053099806006 0.0036849561773139323 0.020184835744411322
0.11254689453939999 0.003909704242851577 0.02148098645935527 0.9952119003585566 -0.0505962017469898 0.0010010899526759973 0.009894796423661418 -0.0008626481523527352 -0.006318729022906108
 0.9952119003585566 -0.0505962017469898 0.003912384662301141 0.021480750056477264 -0.0008621912861438248 -0.006318747097945779 0.0009887872425260956 0.009896222509844172
 0.0010010899526759973 0.009894796423661418 -0.0008621912861438248 -0.006318747097945779 0.003910080921164216 0.021482442513665403 0.9952119507683188 -0.05059469481620763
 -0.0008626481523527352 -0.006318729022906108 0.0009887872425260956 0.009896222509844172 0.9952119507683188 -0.05059469481620763 0.003912100292091916 0.021482257102653293
0.11879949979160001 0.004145500358056144 0.022789654283894737 0.9949024140824755 -0.053505252495563045 0.001095025285629693 0.01045061767301093 -0.0009425258282250554 -0.006677355800217893
 0.9949024140824755 -0.053505252495563045 0.004148486223534722 0.022789391477269303 -0.0009420181642695508 -0.006677378217919924 0.0010813077755280243 0.010452236151679785
 0.001095025285629693 0.01045061767301093 -0.0009420181642695508 -0.006677378217919924 0.00414591972563773 0.022791187107509176 0.9949024700828062 -0.053503661075842555
 -0.0009425258282250554 -0.006677355800217893 0.0010813077755280243 0.010452236151679785 0.9949024700828062 -0.053503661075842555 0.0041481686800893015 0.02279098170088377
0.1250521050438 0.0043903554529666974 0.024109520916120522 0.9945812785902636 -0.056424567327415326 0.001193510579603749 0.01100681691553194 -0.001026288706859363 -0.0070364762895309615
 0.9945812785902636 -0.056424567327415326 0.004393663222768212 0.024109229940336343 -0.001025727697349475 -0.007036503534415537 0.0011783000810115546 0.01100864439685585
 0.001193510579603749 0.01100681691553194 -0.001025727697349475 -0.007036503534415537 0.004390819790006639 0.024111129864755845 0.994581340497713 -0.056422891267071784
 -0.001026288706859363 -0.0070364762895309615 0.0011783000810115546 0.01100864439685585 0.994581340497713 -0.056422891267071784 0.004393310623647062 0.02411090326770159
0.131304710296 0.004644418693498019 0.02544048043455914 0.9942483470917511 -0.05935408137295367 0.0012965867408683462 0.011563346432133671 -0.001113978243257902 -0.007396042466174469
 0.9942483470917511 -0.05935408137295367 0.004648064828823602 0.025440159466824264 -0.0011133613587680899 -0.007396075042646753 0.0012798049066212892 0.011565400272872846
 0.0012965867408683462 0.011563346432133671 -0.0011133613587680899 -0.007396075042646753 0.004644930276609742 0.02544216482992959 0.9942484152279428 -0.059352320510629206
 -0.001113978243257902 -0.007396042466174469 0.0012798049066212892 0.011565400272872846 0.9942484152279428 -0.059352320510629206 0.004647675282247574 0.02544191582157212
0.1375573155481 0.004839974954897303 0.026607956599973236 0.993971349738559 -0.062119222716799365 0.001388684475726052 0.012101808966002646 -0.001190045936424161 -0.007737649520089995
 0.993971349738559 -0.062119222716799365 0.004843976235993179 0.02660761121673629 -0.0011893694009621355 -0.007737687295491837 0.0013702901019858036 0.012104081705922939
 0.001388684475726052 0.012101808966002646 -0.0011893694009621355 -0.007737687295491837 0.0048405355580673865 0.026609715929206922 0.9939714243815143 -0.06211737695937343
 -0.001190045936424161 -0.007737649520089995 0.0013702901019858036 0.012104081705922939 0.9939714243815143 -0.06211737695937343 0.004843548428630214 0.02660945046691079
0.1438099208003 0.005042033715200128 0.027770740101138718 0.9936852690281223 -0.06487883862254103 0.0014844847311206552 0.012638966624866941 -0.0012691567667242733 -0.008078066921960118
 0.9936852690281223 -0.06487883862254103 0.005046406640084148 0.027770369031724466 -0.0012684178524466645 -0.008078110375841937 0.0014644059872532672 0.012641473703776898
 0.0014844847311206552 0.012638966624866941 -0.0012684178524466645 -0.008078110375841937 0.005042645519018067 0.02777257367236352 0.993685350497661 -0.06487690781119451
 -0.0012691567667242733 -0.008078066921960118 0.0014644059872532672 0.012641473703776898 0.993685350497661 -0.06487690781119451 0.005045938772109903 0.027772291081594676
0.1500625260525 0.005250540046929471 0.028928777356269277 0.993390162061865 -0.06763290499160864 0.0015839637302542346 0.013174793684448573 -0.0013512877123862854 -0.008417269355318276
 0.993390162061865 -0.06763290499160864 0.005255301116117907 0.028928379271346106 -0.0013504836939515323 -0.008417318986106545 0.001562129070251393 0.013177551092484103
 0.0015839637302542346 0.013174793684448573 -0.0013504836939515323 -0.008417318986106545 0.005251205222576513 0.028930684451058893 0.9933902506817256 -0.06763088895977581
 -0.0013512877123862854 -0.008417269355318276 0.001562129070251393 0.013177551092484103 0.9933902506817256 -0.06763088895977581 0.00525479138547922 0.028930384021804513
0.15631513130469998 0.005465438810719699 0.030082016715388234 0.9930860860327498 -0.07038139703403984 0.0016870975250584575 0.013709264714018099 -0.0014364155682094492 -0.008755231962828985
