! Created with skrf 1.8.0 (http://scikit-rf.org).
# GHz S RI R 50.0 
!freq ReS11 ImS11 ReS12 ImS12 ReS13 ImS13
! ReS14 ImS14
! ReS21 ImS21 ReS22 ImS22 ReS23 ImS23
! ReS24 ImS24
! ReS31 ImS31 ReS32 ImS32 ReS33 ImS33
! ReS34 ImS34
! ReS41 ImS41 ReS42 ImS42 ReS43 ImS43
! ReS44 ImS44
!
0.0 0.00168579612082 0.0 0.9983142038593 0.0 6.519585725574e-05 0.0 -6.519585743271e-05 7.984189812263548e-21
 0.9983142038593 0.0 0.001685796120814 0.0 -6.519585743258e-05 7.984189812247628e-21 6.519585725428e-05 0.0
 6.519585725574e-05 0.0 -6.519585743258e-05 7.984189812247628e-21 0.001685796129352 0.0 0.9983142038678 0.0
 -6.519585743271e-05 7.984189812263548e-21 6.519585725428e-05 0.0 0.9983142038678 0.0 0.001685796129349 0.0
0.005 0.0018142046311603417 0.0013800055813315182 0.9981516775050661 -0.0035306996720860686 9.144078868844031e-05 0.000710833081450968 -8.878113889856838e-05 -0.0004474121332151695
 0.9981516775050661 -0.0035306996720860686 0.0018142236065839107 0.0013799945314601563 -8.878408021012905e-05 -0.00044741441406436806 9.13142159389337e-05 0.0007108813191375333
 9.144078868844031e-05 0.000710833081450968 -8.878408021012905e-05 -0.00044741441406436806 0.00181420263159258 0.0013799395108034498 0.9981516771352331 -0.0035307667385113726
 -8.878113889856838e-05 -0.0004474121332151695 9.13142159389337e-05 0.0007108813191375333 0.9981516771352331 -0.0035307667385113726 0.0018142248720276646 0.0013799264733022132
0.006252605252188 0.0018480130784097465 0.0017304110366886552 0.9981085948720234 -0.00441421614432615 9.901744037865538e-05 0.000888880103159272 -9.549707446268341e-05 -0.0005598338763054469
 0.9981085948720234 -0.00441421614432615 0.001848042739912555 0.0017303969828545301 -9.550165118914604e-05 -0.0005598366884661071 9.88196836809479e-05 0.0008889427625283685
 9.901744037865538e-05 0.000888880103159272 -9.550165118914604e-05 -0.0005598366884661071 0.0018480100295075168 0.0017303284658710574 0.9981085943710049 -0.004414299967274233
 -9.549707446268341e-05 -0.0005598338763054469 9.88196836809479e-05 0.0008889427625283685 0.9981085943710049 -0.004414299967274233 0.0018480447957564686 0.0017303119172911096
0.01250521050438 0.0020267494933731258 0.0034968234812698673 0.9978792246364092 -0.008829075248182173 0.0001428822006649771 0.0017780741705603884 -0.00013390775331794432 -0.00112228681371142
 0.9978792246364092 -0.008829075248182173 0.0020268679266240465 0.0034967929451427343 -0.00013392578734930797 -0.0011222920086447696 0.00014209362190072003 0.0017782251268324356
 0.0001428822006649771 0.0017780741705603884 -0.00013392578734930797 -0.0011222920086447696 0.0020267378613900025 0.0034966586854345174 0.9978792231818381 -0.008829242651555071
 -0.00013390775331794432 -0.00112228681371142 0.00014209362190072003 0.0017782251268324356 0.9978792231818381 -0.008829242651555071 0.002026876690136572 0.0034966230252601875
0.01875781575657 0.0022224236869059616 0.005288110955298058 0.997625788177121 -0.013255288259442806 0.00019689534638585396 0.0026681444962453147 -0.00018055158273466539 -0.0016865389553424083
 0.997625788177121 -0.013255288259442806 0.002222689801570222 0.005288061352222774 -0.00018059179537459748 -0.0016865460141171267 0.000195123965037086 0.002668414753685039
 0.00019689534638585396 0.0026681444962453147 -0.00018059179537459748 -0.0016865460141171267 0.002222397964116659 0.0052878642034170035 0.9976257853294305 -0.013255539162099827
 -0.00018055158273466539 -0.0016865389553424083 0.000195123965037086 0.002668414753685039 0.9976257853294305 -0.013255539162099827 0.0022227099317243247 0.005287806615958631
0.02501042100875 0.0024354399273127355 0.007101734699103482 0.9973479677523092 -0.017694964732790273 0.0002611637005893524 0.003559100702724299 -0.00023554768588147337 -0.0022523157573571774
 0.9973479677523092 -0.017694964732790273 0.0024359125106935002 0.007101663308027221 -0.00023561869246165553 -0.0022523240627712517 0.0002580174559219812 0.0035595264636417287
 0.0002611637005893524 0.003559100702724299 -0.00023561869246165553 -0.0022523240627712517 0.0024353946095411866 0.007101406296477027 0.9973479630670037 -0.01769529909981647
 -0.00023554768588147337 -0.0022523157573571774 0.0002580174559219812 0.0035595264636417287 0.9973479630670037 -0.01769529909981647 0.0024359486630978547 0.00710132373758677
0.03126302626094 0.0026661857254754997 0.00893637041774937 0.9970454304661417 -0.022148985968916048 0.0003357942757251989 0.004450870810903296 -0.0002990114336475376 -0.002819416853173539
 0.9970454304661417 -0.022148985968916048 0.0026669234763570587 0.008936274385630572 -0.000299121761162254 -0.002819425688721282 0.00033088067670948736 0.004451493505991314
 0.0003357942757251989 0.004450870810903296 -0.000299121761162254 -0.002819425688721282 0.002666115314386653 0.008935960726915765 0.997045423497862 -0.022149403791166946
 -0.0002990114336475376 -0.002819416853173539 0.00033088067670948736 0.004451493505991314 0.997045423497862 -0.022149403791166946 0.0026669803104889126 0.008935849927954494
0.037515631513130004 0.0029150398725516662 0.010791141138793908 0.9967178366207212 -0.026617772096804087 0.000420893148335869 0.005343350195604671 -0.00037105525356399176 -0.003387667109300778
 0.9967178366207212 -0.026617772096804087 0.0029161014258290404 0.010791017482792702 -0.0003712133497839377 -0.0033876756589163565 0.00041381912506130046 0.005344216534803729
 0.000420893148335869 0.005343350195604671 -0.0003712133497839377 -0.0033876756589163565 0.002914938874315896 0.01079065058348803 0.996717826921126 -0.02661827338761608
 -0.00037105525356399176 -0.003387667109300778 0.00041381912506130046 0.005344216534803729 0.996717826921126 -0.02661827338761608 0.002916183604351107 0.010790508052673516
0.043768236765320004 0.0031823755217641656 0.012665383776660889 0.9963648431145278 -0.031101515438110336 0.0005165649209766744 0.006236416472542614 -0.00045178890503569526 -0.003956901756457396
 0.9963648431145278 -0.031101515438110336 0.0031838194678094327 0.012665229385612584 -0.0004520031436799841 -0.003956909104454965 0.000506936762464333 0.006237578502238085
 0.0005165649209766744 0.006236416472542614 -0.0004520031436799841 -0.003956909104454965 0.0031822384484543388 0.01266481284856105 0.9963648302332807 -0.03110210022744001
 -0.00045178890503569526 -0.003956901756457396 0.000506936762464333 0.006237578502238085 0.9963648302332807 -0.03110210022744001 0.0031839316594935558 0.012664634871116564
0.050020842017509996 0.0034685616125912817 0.014558552644384744 0.9959861051891021 -0.035600276923312066 0.0006229123922129629 0.00712993565434681 -0.0005413195636067393 -0.004526960256998009
 0.9959861051891021 -0.035600276923312066 0.0034704465149782964 0.014558364279465072 -0.0005415982477621825 -0.004526965388082312 0.0006103357298386448 0.007131450816977425
 0.0006229123922129629 0.00712993565434681 -0.0005415982477621825 -0.004526965388082312 0.003468382982220419 0.014557901905759434 0.9959860886729729 -0.035600945255846755
 -0.0005413195636067393 -0.004526960256998009 0.0006103357298386448 0.007131450816977425 0.9959860886729729 -0.035600945255846755 0.0034705933942363897 0.014557684543459464
0.055454545454549996 0.0037328587649416048 0.01621877353626141 0.9956357946095398 -0.0395220171179878 0.0007240798439981787 0.007906688175631896 -0.0006263499630738792 -0.005022903711489425
 0.9956357946095398 -0.0395220171179878 0.0037351744242936987 0.01621855291771438 -0.000626691342207884 -0.005022906014139704 0.0007086200649153278 0.007908561108135143
 0.0007240798439981787 0.007906688175631896 -0.000626691342207884 -0.005022906014139704 0.0037326395722487174 0.016218053951143313 0.9956357745628384 -0.039522758100670255
 -0.0006263499630738792 -0.005022903711489425 0.0007086200649153278 0.007908561108135143 0.9956357745628384 -0.039522758100670255 0.003735355248175647 0.016217798989464474
0.056273447269699996 0.0037739635885511596 0.01647017211106442 0.9955812774743648 -0.04011403336486331 0.0007400363145681246 0.008023765182564457 -0.0006397518233162738 -0.005097683302105135
 0.9955812774743648 -0.04011403336486331 0.003776348000755724 0.016469946405984794 -0.0006401031875591339 -0.005097685101423223 0.0007241161341311363 0.008025696377123236
 0.0007400363145681246 0.008023765182564457 -0.0006401031875591339 -0.005097685101423223 0.0037737379246081497 0.01646944219439013 0.9955812568657582 -0.0401147853012942
 -0.0006397518233162738 -0.005097683302105135 0.0007241161341311363 0.008025696377123236 0.9955812568657582 -0.0401147853012942 0.0037765342473156114 0.0164691812843795
0.06252605252188 0.004098943765672746 0.018399810569445445 0.9951500146896045 -0.04464270342530727 0.0008680352013253322 0.008917755598001998 -0.0007471876531821079 -0.005668911176893409
 0.9951500146896045 -0.04464270342530727 0.004101886246660013 0.01839954403004665 -0.0007476198650259298 -0.005668908430100857 0.0008483758729774548 0.008920171240677358
 0.0008680352013253322 0.008917755598001998 -0.0007476198650259298 -0.005668908430100857 0.004098665599014337 0.018399002181256386 0.9951499895266631 -0.0446435390392559
 -0.0007471876531821079 -0.005668911176893409 0.0008483758729774548 0.008920171240677358 0.9951499895266631 -0.0446435390392559 0.004102116547009015 0.018398693334296813
0.06877865777407 0.004443861513267565 0.020347064921106855 0.9946919721615318 -0.049186163073928174 0.0010070051562471015 0.009811751547285294 -0.0008637263308920833 -0.0062404827958984265
 0.9946919721615318 -0.049186163073928174 0.004447420643407271 0.02034675392440238 -0.0008642474917567724 -0.00624047418924259 0.0009832104779550963 0.009814725631852074
 0.0010070051562471015 0.009811751547285294 -0.0008642474917567724 -0.00624047418924259 0.004443525382913008 0.020346178844135893 0.9946919419780241 -0.04918708245067761
 -0.0008637263308920833 -0.0062404827958984265 0.0009832104779550963 0.009814725631852074 0.9946919419780241 -0.04918708245067761 0.004447699690556518 0.020345817442348896
0.07503126302626001 0.004809073321412263 0.02231155075018979 0.9942068062341343 -0.053744255361987806 0.0011570397198680683 0.010705592432611172 -0.0009894643598740269 -0.006812235102362816
 0.9942068062341343 -0.053744255361987806 0.004813307717187347 0.02231119154294678 -0.0009900825055703586 -0.006812219222777564 0.0011287129709612433 0.010709204590205999
 0.0011570397198680683 0.010705592432611172 -0.0009900825055703586 -0.006812219222777564 0.004808673774700054 0.022310587835786697 0.9942067705580537 -0.05374525860683671
 -0.0009894643598740269 -0.006812235102362816 0.0011287129709612433 0.010709204590205999 0.9942067705580537 -0.05374525860683671 0.0048136402108212364 0.022310169029850113
0.08128386827845 0.00519493279625318 0.024292895776201126 0.9936941746110357 -0.05831679692647319 0.001318229724673065 0.011599112851179823 -0.00112449537706223 -0.007384002685019648
 0.9936941746110357 -0.05831679692647319 0.005199901125988654 0.02429248447285471 -0.0011252184781339511 -0.0073839780202271605 0.001284973726906388 0.011603448409328126
 0.001318229724673065 0.011599112851179823 -0.0011252184781339511 -0.0073839780202271605 0.0051944643904000215 0.02429185695727701 0.9936941329645164 -0.05831788415247944
 -0.00112449537706223 -0.007384002685019648 0.001284973726906388 0.011603448409328126 0.9936941329645164 -0.05831788415247944 0.005200291772710529 0.02429137566300335
0.08753647353064001 0.005601790609488803 0.026290735347868254 0.9931537366562843 -0.06290358246084177 0.0014906631562200143 0.012492142916029382 -0.00126891005378918 -0.007955617520882132
 0.9931537366562843 -0.06290358246084177 0.005607551608507225 0.02629026792788369 -0.0012697460155860999 -0.007955582459510918 0.0014520803416272978 0.012497292956721131
 0.0014906631562200143 0.012492142916029382 -0.0012697460155860999 -0.007955582459510918 0.0056012479126285 0.026289621631953024 0.9931536885551313 -0.06290475379658995
 -0.00126891005378918 -0.007955617520882132 0.0014520803416272978 0.012497292956721131 0.9931536885551313 -0.06290475379658995 0.0056080051220105944 0.026289072526310662
0.09378907878283 0.006029994414567859 0.028304709217784586 0.9925851536660772 -0.0675043879136335 0.0016744250190905523 0.01338450849310794 -0.0014227959914513465 -0.008526908809506331
 0.9925851536660772 -0.0675043879136335 0.0060366069005303585 0.02830418152248903 -0.001423752654064123 -0.008526861641218148 0.0016301175031150515 0.01339056990981297
 0.0016744250190905523 0.01338450849310794 -0.001423752654064123 -0.008526861641218148 0.00602937200665099 0.02830352168931812 0.9925850986186605 -0.06750564350153473
 -0.0014227959914513465 -0.008526908809506331 0.0016301175031150515 0.01339056990981297 0.9925850986186605 -0.06750564350153473 0.006037128001405076 0.02830289920592945
0.100041684035 0.006479888739049826 0.030334459187434434 0.9919880891201701 -0.07211897282546123 0.001869597205272012 0.014276031390899627 -0.0015862376143321473 -0.009097702862406321
 0.9919880891201701 -0.07211897282546123 0.006487411626840287 0.030333866916209793 -0.0015873227523303564 -0.009097641778043194 0.0018191668643151309 0.014283106944387631
 0.001869597205272012 0.014276031390899627 -0.0015873227523303564 -0.009097641778043194 0.0064791812130101266 0.030333199012320386 0.9919880266274106 -0.07212031281789774
 -0.0015862376143321473 -0.009097702862406321 0.0018191668643151309 0.014283106944387631 0.9919880266274106 -0.07212031281789774 0.0064880050430437455 0.03033249733630171
0.1059090909091 0.006922098185152268 0.03225319361847074 0.9914016060659159 -0.07646157652771017 0.002063193268848634 0.015111702508226969 -0.0017483733530220867 -0.009632722996316286
 0.9914016060659159 -0.07646157652771017 0.0069305290714802075 0.0322525367078478 -0.0017495860638489364 -0.00963264711988361 0.0020066550762186486 0.015119828455780757
 0.002063193268848634 0.015111702508226969 -0.0017495860638489364 -0.00963264711988361 0.006921305880187473 0.032251866400800154 0.9914015361253976 -0.07646299587717603
 -0.0017483733530220867 -0.009632722996316286 0.0020066550762186486 0.015119828455780757 0.9914015361253976 -0.07646299587717603 0.00693119465445674 0.03225108489590249
0.1062942892872 0.006951814859602015 0.032379627345101664 0.9913622089211083 -0.07674708208232153 0.0020762583649313795 0.015166529515326288 -0.0017593160592224977 -0.009667823035215073
 0.9913622089211083 -0.07674708208232153 0.006960307177181535 0.0323789660509058 -0.0017605373814185623 -0.009667746126946725 0.002019306918474538 0.015174727888200514
 0.0020762583649313795 0.015166529515326288 -0.0017605373814185623 -0.009667746126946725 0.006951016823009908 0.03237829576592393 0.9913621384757391 -0.07674850664702994
 -0.0017593160592224977 -0.009667823035215073 0.002019306918474538 0.015174727888200514 0.9913621384757391 -0.07674850664702994 0.0069609776438711544 0.0323775088281135
0.11254689453939999 0.007446110664056934 0.03443985472174812 0.9907071816219152 -0.08138844726036369 0.0022944837788911104 0.016055817002589356 -0.001942109063757609 -0.010237089690063891
 0.9907071816219152 -0.08138844726036369 0.007455631567804573 0.03443911980604116 -0.0019434742127186233 -0.010236994951564278 0.0022306128750533027 0.01606525285243833
 0.0022944837788911104 0.016055817002589356 -0.0019434742127186233 -0.010236994951564278 0.007445216739871659 0.03443845306115752 0.9907071027078854 -0.08138995657761679
 -0.001942109063757609 -0.010237089690063891 0.0022306128750533027 0.01606525285243833 0.9907071027078854 -0.08138995657761679 0.007456383827476799 0.0344375745317481
0.11879949979160001 0.007963110503234859 0.03651478025183801 0.990022678648622 -0.08604278767548465 0.0025243452325768474 0.016943704337764327 -0.002134690852957398 -0.010805320180381288
 0.990022678648622 -0.08604278767548465 0.007973719293314042 0.036513966958844554 -0.002136207404571713 -0.01080520550700899 0.002453156537119638 0.016954498348855773
 0.0025243452325768474 0.016943704337764327 -0.002136207404571713 -0.01080520550700899 0.007962115331184908 0.03651330991350475 0.9900225907403543 -0.0860443819376841
 -0.002134690852957398 -0.010805320180381288 0.002453156537119638 0.016954498348855773 0.9900225907403543 -0.0860443819376841 0.007974558095599256 0.03651233319496013
0.1250521050438 0.008503145034031913 0.038604039962567206 0.9893083745157658 -0.09070981121442712 0.0027659108910236857 0.017829998462070493 -0.0023371320252081247 -0.011372328855446727
 0.9893083745157658 -0.09070981121442712 0.008514901169966126 0.03860314337287346 -0.0023388074881346118 -0.0113721920444696 0.0026870061795352903 0.017842277395441586
 0.0027659108910236857 0.017829998462070493 -0.0023388074881346118 -0.0113721920444696 0.00850204327196736 0.03860250243196294 0.9893082770776165 -0.09071149062573276
 -0.0023371320252081247 -0.011372328855446727 0.0026870061795352903 0.017842277395441586 0.9893082770776165 -0.09071149062573276 0.008515831271755831 0.03860142065136603
0.131304710296 0.009066541056214225 0.04070726632992429 0.9885639470389643 -0.09538921500920361 0.003019245175239078 0.018714502875712146 -0.0025494994375722104 -0.011937927077852505
 0.9885639470389643 -0.09538921500920361 0.009079504172602516 0.04070628135332359 -0.0025513412526157976 -0.01193776582860899 0.0029322264281292252 0.018728399617727376
 0.003019245175239078 0.018714502875712146 -0.0025513412526157976 -0.01193776582860899 0.009065327381783766 0.040705663174227726 0.9885638395248943 -0.09539097978616388
 -0.0025494994375722104 -0.011937927077852505 0.0029322264281292252 0.018728399617727376 0.9885638395248943 -0.09539097978616388 0.00908053033810865 0.04070446917492538
0.1375573155481 0.009529020444896919 0.04255075533738673 0.9879137336540298 -0.09980721205413352 0.003254111187515668 0.019570472482005996 -0.0027416594653795097 -0.01247531945584857
 0.9879137336540298 -0.09980721205413352 0.009543255798104798 0.04254969946302024 -0.002743678774028958 -0.012475133418495618 0.003158778770878761 0.019585974389640805
 0.003254111187515668 0.019570472482005996 -0.002743678774028958 -0.012475133418495618 0.009527690190506624 0.04254908789685821 0.9879136155990759 -0.09980906230103635
 -0.0027416594653795097 -0.01247531945584857 0.003158778770878761 0.019585974389640805 0.9879136155990759 -0.09980906230103635 0.009544381992425204 0.042547797364063465
0.1438099208003 0.01000791454902368 0.044383683795896925 0.9872403640513825 -0.10421313136533035 0.003498441992802979 0.020422351219570672 -0.0029414652892122833 -0.013009010614243654
 0.9872403640513825 -0.10421313136533035 0.010023482869603743 0.04438255321865231 -0.0029436701006957844 -0.013008797506853801 0.003394433966813972 0.0204395805611313
 0.003498441992802979 0.020422351219570672 -0.0029436701006957844 -0.013008797506853801 0.010006462536454248 0.04438195367086381 0.987240234911511 -0.10421506728895034
 -0.0029414652892122833 -0.013009010614243654 0.003394433966813972 0.0204395805611313 0.987240234911511 -0.10421506728895034 0.010024713723341872 0.04438056069982848
0.1500625260525 0.010503041488323088 0.046205872961853814 0.9865440247333708 -0.10860683702097527 0.0037521445472860158 0.021270031840458746 -0.003148827512498989 -0.013538901954769311
 0.9865440247333708 -0.10860683702097527 0.010520003704228438 0.04620466361735194 -0.0031512258154249694 -0.013538659403316618 0.003639101451572308 0.021289115341189137
 0.0037521445472860158 0.021270031840458746 -0.0031512258154249694 -0.013538659403316618 0.01050146256519592 0.04620408181587077 0.9865438839556655 -0.10860885883532313
 -0.003148827512498989 -0.013538901954769311 0.003639101451572308 0.021289115341189137 0.9865438839556655 -0.10860885883532313 0.010521343845511571 0.046202580158348196
0.15631513130469998 0.011014217933937476 0.048017149433961896 0.985824903323797 -0.11298819416094215 0.004015124601778048 0.022113409101104126 -0.0033636555503783992 -0.014064897123454432
 0.985824903323797 -0.11298819416094215 0.011032635175789325 0.048015856989593375 -0.0033662553122383167 -0.014064622662261666 0.0038926894979390628 0.022134477891167896
