! Created with skrf 1.8.0 (http://scikit-rf.org).
# GHz S RI R 50.0 
!freq ReS11 ImS11 ReS12 ImS12 ReS13 ImS13
! ReS14 ImS14
! ReS21 ImS21 ReS22 ImS22 ReS23 ImS23
! ReS24 ImS24
! ReS31 ImS31 ReS32 ImS32 ReS33 ImS33
! ReS34 ImS34
! ReS41 ImS41 ReS42 ImS42 ReS43 ImS43
! ReS44 ImS44
!
0.0 0.001350074240199 0.0 0.9986499257506 0.0 5.180372670277e-05 0.0 -5.180372698117e-05 6.344126843139322e-21
 0.9986499257506 0.0 0.00135007424022 0.0 -5.180372698166e-05 6.34412684319933e-21 5.180372670492e-05 0.0
 5.180372670277e-05 0.0 -5.180372698166e-05 6.34412684319933e-21 0.001350074236308 0.0 0.9986499257467 0.0
 -5.180372698117e-05 6.344126843139322e-21 5.180372670492e-05 0.0 0.9986499257467 0.0 0.001350074236299 0.0
0.005 0.0014520962292615283 0.0011038732148066406 0.9985209499758589 -0.0028286720876444633 7.23588486110768e-05 0.000576858232407304 -7.036365008152164e-05 -0.0003610993413180475
 0.9985209499758589 -0.0028286720876444633 0.0014520751948942214 0.0011038854207727786 -7.036454964343646e-05 -0.0003610999610638794 7.247995779056236e-05 0.0005768120549000884
 7.23588486110768e-05 0.000576858232407304 -7.036454964343646e-05 -0.0003610999610638794 0.001452095792301306 0.0011038061583445477 0.9985209496347593 -0.00282873915644113
 -7.036365008152164e-05 -0.0003610993413180475 7.247995779056236e-05 0.0005768120549000884 0.9985209496347593 -0.00282873915644113 0.0014520749559717454 0.0011038183457953883
0.006252605252188 0.0014787114228761546 0.0013842087019886682 0.9984871191562686 -0.003536555208166469 7.812677454982481e-05 0.0007213601958335097 -7.55361278929024e-05 -0.00045185097317558754
 0.9984871191562686 -0.003536555208166469 0.001478678543355386 0.001384224234998056 -7.553752826960405e-05 -0.00045185173603859755 7.831599707693905e-05 0.0007213002875728091
 7.812677454982481e-05 0.0007213601958335097 -7.553752826960405e-05 -0.00045185173603859755 0.001478710808875818 0.0013841249067955109 0.9984871186917254 -0.0035366390156349355
 -7.55361278929024e-05 -0.00045185097317558754 7.831599707693905e-05 0.0007213002875728091 0.9984871186917254 -0.0035366390156349355 0.0014786782381279542 0.0013841404288544043
0.01250521050438 0.001617991950745785 0.002797664414947569 0.9983090472983142 -0.007074058869834 0.00011065360941645027 0.0014431293706192645 -0.00010452085309827629 -0.0009059914408736052
 0.9983090472983142 -0.007074058869834 0.0016178606754523872 0.0027976982594532726 -0.00010452637914815873 -0.0009059928374982255 0.00011140818708649449 0.001442986144778224
 0.00011065360941645027 0.0014431293706192645 -0.00010452637914815873 -0.0009059928374982255 0.0016179900842934732 0.0027974970144305786 0.998309046018405 -0.007074226282468144
 -0.00010452085309827629 -0.0009059914408736052 0.00011140818708649449 0.001442986144778224 0.998309046018405 -0.007074226282468144 0.001617860026987843 0.0027975309602423608
0.01875781575657 0.0017681896492849883 0.0042315056325541505 0.9981155103194037 -0.010621152742118636 0.00014945613918127218 0.002165818984303192 -0.00013884077347553185 -0.0013617782728065236
 0.9981155103194037 -0.010621152742118636 0.0017678946922240748 0.004231560759016231 -0.00013885310721003022 -0.0013617801497665303 0.00015115122521203175 0.0021655648668930747
 0.00014945613918127218 0.002165818984303192 -0.00013885310721003022 -0.0013617801497665303 0.0017681858995612844 0.0042312547536286 0.998115507866333 -0.010621403667771239
 -0.00013884077347553185 -0.0013617782728065236 0.00015115122521203175 0.0021655648668930747 0.998115507866333 -0.010621403667771239 0.0017678936496951833 0.004231310221008002
0.02501042100875 0.001929571885391241 0.005683755178302556 0.9979063013438491 -0.014179587041375133 0.00019460664158330845 0.002889482772181724 -0.00017857654272729809 -0.0018190220091212246
 0.9979063013438491 -0.014179587041375133 0.0019290481087067774 0.0056838347287367945 -0.00017859833779915185 -0.0018190241861242265 0.00019761755844402196 0.002889086198508383
 0.00019460664158330845 0.002889482772181724 -0.00017859833779915185 -0.0018190241861242265 0.001929565633954948 0.005683420915467523 0.9979062973572009 -0.014179921467196873
 -0.00017857654272729809 -0.0018190220091212246 0.00019761755844402196 0.002889086198508383 0.9979062973572009 -0.014179921467196873 0.0019290466157275705 0.00568350117893516
0.03126302626094 0.0021023948325365797 0.007153411103370722 0.9976812019137496 -0.01775012950443415 0.0002461778373510187 0.0036141078439087477 -0.00022380682629285435 -0.0022775958591679545
 0.9976812019137496 -0.01775012950443415 0.0021015772133822566 0.007153518387455584 -0.00022384071297148624 -0.002277598128669332 0.0002508804399810875 0.0036135332388478117
 0.0002461778373510187 0.0036141078439087477 -0.00022384071297148624 -0.002277598128669332 0.0021023854721620035 0.00715299357740997 0.997681196029587 -0.017750547438220927
 -0.00022380682629285435 -0.0022775958591679545 0.0002508804399810875 0.0036135332388478117 0.997681196029587 -0.017750547438220927 0.002101575208022309 0.007153102084637251
0.037515631513130004 0.0022869092989342412 0.008639831904322128 0.997439987960263 -0.021333180115928007 0.00030424230162691846 0.0043396553159424055 -0.00027460889344946916 -0.002737395071392618
 0.997439987960263 -0.021333180115928007 0.0022857329084235195 0.008639970397585104 -0.00027465748113482543 -0.0027373971984360015 0.00031101314710965325 0.004338863054551278
 0.00030424230162691846 0.0043396553159424055 -0.00027465748113482543 -0.0027373971984360015 0.0022868962411732524 0.008639331252281215 0.9974399798174974 -0.021333681596355642
 -0.00027460889344946916 -0.002737395071392618 0.00031101314710965325 0.004338863054551278 0.9974399798174974 -0.021333681596355642 0.0022857303314539096 0.00863947162238332
0.043768236765320004 0.0024833629981708427 0.010142549425711453 0.9971824322134004 -0.02492895814467122 0.00036887219291162695 0.005066072665672341 -0.0003310588347781363 -0.00319832457334716
 0.9971824322134004 -0.02492895814467122 0.0024817629852657438 0.010142722768326938 -0.0003311247134277934 -0.003198326295451965 0.0003780886273343748 0.005065019027609863
 0.00036887219291162695 0.005066072665672341 -0.0003311247134277934 -0.003198326295451965 0.0024833456645127084 0.01014196581524016 0.997182421444629 -0.024929543227010985
 -0.0003310588347781363 -0.00319832457334716 0.0003780886273343748 0.005065019027609863 0.997182421444629 -0.024929543227010985 0.0024817597722844283 0.010142141837846442
0.050020842017509996 0.002692001601609715 0.011661191533592461 0.9969083053943452 -0.0285375794070188 0.0004401390911691857 0.005793298831474886 -0.00039323164927772356 -0.0036602938644332544
 0.9969083053943452 -0.0285375794070188 0.002689913179465835 0.011661403529704175 -0.00039331739032720135 -0.00366029489151768 0.00045217929278908213 0.005791935952867594
 0.0004401390911691857 0.005793298831474886 -0.00039331739032720135 -0.00366029489151768 0.002691979428107094 0.011660525154364627 0.9969082916293024 -0.028538248171979117
 -0.00039323164927772356 -0.0036602938644332544 0.00045217929278908213 0.005791935952867594 0.9969082916293024 -0.028538248171979117 0.0026899092659795026 0.01166074078902961
0.055454545454549996 0.002883400178418292 0.012993625303682409 0.9966564440798509 -0.03168405115458724 0.0005075173196983237 0.0064258852696156 -0.0004519668315082157 -0.004062534908979066
 0.9966564440798509 -0.03168405115458724 0.002880834739874685 0.012993874107324457 -0.0004520719079664442 -0.004062535075003971 0.0005223192469486927 0.006424211525052058
 0.0005075173196983237 0.0064258852696156 -0.0004520719079664442 -0.004062535075003971 0.0028833733510700496 0.01299288717567066 0.9966564274065727 -0.031684792718978234
 -0.0004519668315082157 -0.004062534908979066 0.0005223192469486927 0.006424211525052058 0.9966564274065727 -0.031684792718978234 0.002880830164471116 0.012993140581829477
0.056273447269699996 0.0029130692912655107 0.013195444170477789 0.9966173769105022 -0.03215909414917969 0.0005181138834315983 0.006521266707633632 -0.00046120127372140644 -0.0041232145144959945
 0.9966173769105022 -0.03215909414917969 0.002910427725281666 0.01319569878778969 -0.000461309430674234 -0.004123214528813101 0.0005333568797065466 0.006519542531677555
 0.0005181138834315983 0.006521266707633632 -0.000461309430674234 -0.004123214528813101 0.002913041727010227 0.01319469524277547 0.9966173597742226 -0.03215984669438591
 -0.00046120127372140644 -0.0041232145144959945 0.0005333568797065466 0.006519542531677555 0.9966173597742226 -0.03215984669438591 0.00291042304579916 0.013194954618725063
0.06252605252188 0.0031468090643582565 0.014745030480204013 0.9963094153045244 -0.035793507860424595 0.0006028666736214307 0.007249904522820207 -0.000535040581939219 -0.004586998780271969
 0.9963094153045244 -0.035793507860424595 0.0031435496609139024 0.014745331849884916 -0.0005351736907194909 -0.004586997436347597 0.0006216923409203795 0.007247762749843242
 0.0006028666736214307 0.007249904522820207 -0.0005351736907194909 -0.004586997436347597 0.0031467755727091957 0.01474419925726894 0.9963093944170368 -0.03579434429819332
 -0.000535040581939219 -0.004586998780271969 0.0006216923409203795 0.007247762749843242 0.9963093944170368 -0.03579434429819332 0.003143544150823069 0.014744506673457449
0.06877865777407 0.0033934629042550028 0.016309698374063288 0.9959841885715454 -0.03944079364667686 0.000694466705685687 0.007979136651293508 -0.0006148213668055639 -0.005051558791024023
 0.9959841885715454 -0.03944079364667686 0.0033895209999988294 0.016310050791015253 -0.0006149819460083166 -0.0050515557156084285 0.0007172557568266931 0.007976516688577363
 0.000694466705685687 0.007979136651293508 -0.0006149819460083166 -0.0050515557156084285 0.0033934229630408017 0.016308785133617054 0.9959841635476818 -0.039441714112672686
 -0.0006148213668055639 -0.005051558791024023 0.0007172557568266931 0.007976516688577363 0.9959841635476818 -0.039441714112672686 0.0033895145961151253 0.016309145059029924
0.07503126302626001 0.003653271871557871 0.017889212640117825 0.9956414643994769 -0.043100900063006764 0.0007929822940735134 0.008708884134520452 -0.0007006143119215638 -0.005516806025880925
 0.9956414643994769 -0.043100900063006764 0.00364858282305518 0.017889620563376545 -0.0007008048629253093 -0.005516800817895626 0.0008201162569557283 0.00870572104612249
 0.0007929822940735134 0.008708884134520452 -0.0007008048629253093 -0.005516800817895626 0.0036532249734827055 0.017888217689681827 0.9956414348483219 -0.04310190471105592
 -0.0007006143119215638 -0.005516806025880925 0.0008201162569557283 0.00870572104612249 0.9956414348483219 -0.04310190471105592 0.003648575464662211 0.017888634763901876
0.08128386827845 0.003926476146141326 0.019483349688556688 0.9952810103632866 -0.04677375631246891 0.0008984807589399723 0.009439065023788221 -0.0007924889563085529 -0.005982650972488583
 0.9952810103632866 -0.04677375631246891 0.003920975319853223 0.01948381774207307 -0.0007927119633297393 -0.005982643202994976 0.0009303419482130049 0.0094352894805039
 0.0008984807589399723 0.009439065023788221 -0.0007927119633297393 -0.005982643202994976 0.003926421798647477 0.019482273366343346 0.9952809758867185 -0.04677484531365778
 -0.0007924889563085529 -0.005982650972488583 0.0009303419482130049 0.0094352894805039 0.9952809758867185 -0.04677484531365778 0.0039209669490089675 0.01948275240037297
0.08753647353064001 0.004213315035485657 0.02109189392256528 0.9949025940870123 -0.05045927582170073 0.0010110283641481513 0.010169594619088678 -0.0008905136543592677 -0.006449002891845349
 0.9949025940870123 -0.05045927582170073 0.004206937797472181 0.02109242689628722 -0.0008907715844218522 -0.006448992103994255 0.0010479998473387306 0.010165132848690611
 0.0010110283641481513 0.010169594619088678 -0.0008907715844218522 -0.006448992103994255 0.004213252762068065 0.02109073659829404 0.9949025542803503 -0.05046044936371202
 -0.0008905136543592677 -0.006449002891845349 0.0010479998473387306 0.010165132848690611 0.9949025542803503 -0.05046044936371202 0.004206928361037429 0.021091282575756206
0.09378907878283 0.004514026962319192 0.022714635145126165 0.9945059833882727 -0.05415735878355131 0.0011306902572286906 0.010900385642570285 -0.000994755532242119 -0.006915769651114849
 0.9945059833882727 -0.05415735878355131 0.004506708668460121 0.022715237996273088 -0.0009950508351356656 -0.00691575536012216 0.00117315581613826 0.010895159380385976
 0.0011306902572286906 0.010900385642570285 -0.0009950508351356656 -0.00691575536012216 0.004513956302084751 0.02271339721691574 0.9945059378387282 -0.054158617073758734
 -0.000994755532242119 -0.006915769651114849 0.00117315581613826 0.010895159380385976 0.9945059378387282 -0.054158617073758734 0.004506698117901557 0.022714015295360705
0.100041684035 0.004828849434014852 0.024351366648202658 0.9940909464069015 -0.05786789401998435 0.001257530410369564 0.011631348365665022 -0.0011052804416909218 -0.007382857605463003
 0.9940909464069015 -0.05786789401998435 0.004820525419892091 0.024352044502944235 -0.0011056155498516804 -0.0073828392985857355 0.001305874498727768 0.011625274805562639
 0.001257530410369564 0.011631348365665022 -0.0011056155498516804 -0.0073828392985857355 0.004828769942454497 0.024350048545199468 0.9940908946936013 -0.057869237282865985
 -0.0011052804416909218 -0.007382857605463003 0.001305874498727768 0.011625274805562639 0.9940908946936013 -0.057869237282865985 0.00482051371286284 0.024350744057868735
0.1059090909091 0.005137321048148001 0.025899807251645656 0.9936845135686402 -0.061361055189956215 0.001383140892643865 0.012317353519563716 -0.001214768194166788 -0.007821377411635643
 0.9936845135686402 -0.061361055189956215 0.0051279944339880906 0.025900560303681167 -0.0012151428520815555 -0.007821354845010616 0.0014373515720745647 0.012310405460916902
 0.001383140892643865 0.012317353519563716 -0.0012151428520815555 -0.007821354845010616 0.005137232880077302 0.025898414331179034 0.9936844556803331 -0.06136247840992706
 -0.001214768194166788 -0.007821377411635643 0.0014373515720745647 0.012310405460916902 0.9936844556803331 -0.06136247840992706 0.0051279816092823895 0.025899187516418107
0.1062942892872 0.0051580190008995936 0.02600188378312637 0.9936572517251285 -0.061590760366885676 0.001391611562214782 0.01236239070861852 -0.0012221529117670256 -0.007850171510176045
 0.9936572517251285 -0.061590760366885676 0.005148624572019854 0.026002641938513007 -0.001222530240191679 -0.007850148646682615 0.0014462192598491178 0.012355382454550864
 0.001391611562214782 0.01236239070861852 -0.001222530240191679 -0.007850148646682615 0.005157930250418785 0.026000485965333123 0.9936571934180123 -0.061592188844171884
 -0.0012221529117670256 -0.007850171510176045 0.0014462192598491178 0.012355382454550864 0.9936571934180123 -0.061592188844171884 0.005148611672951905 0.0260012644231541
0.11254689453939999 0.005501771205933707 0.027665982860859768 0.9932046684805284 -0.06532582773209338 0.0015329951600705075 0.013093418316729236 -0.0013454360991198603 -0.008317614458975116
 0.9932046684805284 -0.06532582773209338 0.00549124162742593 0.02766682678706107 -0.0013458580451466446 -0.008317586470135566 0.0015942521239834938 0.013085383334734453
 0.0015329951600705075 0.013093418316729236 -0.0013458580451466446 -0.008317586470135566 0.005501672786175289 0.027664505818030895 0.9932046031401783 -0.06532734168389641
 -0.0013454360991198603 -0.008317614458975116 0.0015942521239834938 0.013085383334734453 0.9932046031401783 -0.06532734168389641 0.005491227508936594 0.027665372911874087
0.11879949979160001 0.005860340526289411 0.02934346029718538 0.9927329664744738 -0.06907295791174846 0.001681741302474566 0.013824334625709468 -0.001475191736620935 -0.008785087836087386
 0.9927329664744738 -0.06907295791174846 0.005848611013029737 0.029344395640142115 -0.001475660679787799 -0.008785054125161344 0.0017500337153526428 0.013815176196569254
 0.001681741302474566 0.013824334625709468 -0.001475660679787799 -0.008785054125161344 0.005860232044571807 0.029341904550372833 0.9927328936512139 -0.06907455761487086
 -0.001475191736620935 -0.008785087836087386 0.0017500337153526428 0.013815176196569254 0.9927328936512139 -0.06907455761487086 0.0058485956564765925 0.02934286615375494
0.1250521050438 0.006233960309899464 0.03103411193665161 0.9922419162771529 -0.07283200523129324 0.00183790868177882 0.014555040913379707 -0.001611480081202245 -0.009252491284939967
 0.9922419162771529 -0.07283200523129324 0.006220966016339814 0.031035144520955973 -0.0016119983830569667 -0.00925245122717435 0.001913623197914622 0.014544657585905528
 0.00183790868177882 0.014555040913379707 -0.0016119983830569667 -0.00925245122717435 0.006233841391937241 0.03103247803718774 0.992241835510481 -0.07283369098020796
 -0.001611480081202245 -0.009252491284939967 0.001913623197914622 0.014544657585905528 0.992241835510481 -0.07283369098020796 0.006220949413074994 0.03103354020915588
0.131304710296 0.006622862707246608 0.03273773250471977 0.9917312893296022 -0.076602817061578 0.0020015545268496538 0.01528543634676319 -0.0017543598606986936 -0.009719722684554488
 0.9917312893296022 -0.076602817061578 0.006608538717185024 0.03273886833693515 -0.0017549298645536415 -0.009719675627184949 0.002085078215790025 0.015273721891800419
 0.0020015545268496538 0.01528543634676319 -0.0017549298645536415 -0.009719675627184949 0.006622732997220288 0.03273602103317653 0.9917312001478021 -0.07660458916941276
 -0.0017543598606986936 -0.009719722684554488 0.002085078215790025 0.015273721891800419 0.9917312001478021 -0.07660458916941276 0.0066085208693922514 0.03273719002166042
0.1375573155481 0.006933677967774991 0.034231383639937926 0.9912944904529998 -0.08016241034425452 0.0021503457925218577 0.015992489053828846 -0.001881405851149755 -0.010163827153957037
 0.9912944904529998 -0.08016241034425452 0.006917953488989417 0.03423260224037159 -0.0018820307967848142 -0.010163773093952954 0.002241875844157848 0.015979468602267538
 0.0021503457925218577 0.015992489053828846 -0.0018820307967848142 -0.010163773093952954 0.006933536161667108 0.03422959554368641 0.9912943924707148 -0.08016426899869696
 -0.001881405851149755 -0.010163827153957037 0.002241875844157848 0.015979468602267538 0.9912943924707148 -0.08016426899869696 0.006917935195522746 0.034230850197835304
0.1438099208003 0.0072552776569625044 0.03571792194904715 0.9908426260752502 -0.08371375391387449 0.0023051350520295276 0.016697211665790256 -0.002013548883848506 -0.010605751212280103
 0.9908426260752502 -0.08371375391387449 0.007238086744303432 0.03571922755783395 -0.0020142312500675357 -0.010605689518294046 0.002405024752699047 0.016682788839542946
 0.0023051350520295276 0.016697211665790256 -0.0020142312500675357 -0.010605689518294046 0.007255123253786236 0.03571605788835663 0.9908425188218785 -0.08371569942367091
 -0.002013548883848506 -0.010605751212280103 0.002405024752699047 0.016682788839542946 0.9908425188218785 -0.08371569942367091 0.007238068167913816 0.03571740259585368
0.1500625260525 0.007587558924379109 0.03719724579468967 0.9903758024855678 -0.08725678279417931 0.0024658744728852044 0.01739954983003958 -0.00215074150806445 -0.01104544105656082
 0.9903758024855678 -0.08725678279417931 0.007568835520998105 0.03719864288848203 -0.0021514837671530555 -0.01104537107229823 0.00257447529484626 0.017383624751730484
 0.0024658744728852044 0.01739954983003958 -0.0021514837671530555 -0.01104537107229823 0.007587391429818995 0.037195306458988074 0.9903756854805985 -0.08725881547931803
 -0.00215074150806445 -0.01104544105656082 0.00257447529484626 0.017383624751730484 0.9903756854805985 -0.08725881547931803 0.007568816844708954 0.03719674584631222
0.15631513130469998 0.00793041830910799 0.038669256721319774 0.9898941263835193 -0.09079143179006036 0.002632515728449503 0.018099450015426344 -0.0022929357524612186 -0.011482843943902787
