! Created with skrf 1.8.0 (http://scikit-rf.org).
# GHz S RI R 50.0 
!freq ReS11 ImS11 ReS12 ImS12 ReS13 ImS13
! ReS14 ImS14
! ReS21 ImS21 ReS22 ImS22 ReS23 ImS23
! ReS24 ImS24
! ReS31 ImS31 ReS32 ImS32 ReS33 ImS33
! ReS34 ImS34
! ReS41 ImS41 ReS42 ImS42 ReS43 ImS43
! ReS44 ImS44
!
0.0 0.001817148980798 0.0 0.9981828510107 0.0 7.050219630427e-05 0.0 -7.050219665929e-05 8.634028947165672e-21
 0.9981828510107 0.0 0.001817148980807 0.0 -7.050219666016e-05 8.634028947272215e-21 7.050219630463e-05 0.0
 7.050219630427e-05 0.0 -7.050219666016e-05 8.634028947272215e-21 0.001817148980826 0.0 0.9981828510107 0.0
 -7.050219665929e-05 8.634028947165672e-21 7.050219630463e-05 0.0 0.9981828510107 0.0 0.001817148980787 0.0
0.005 0.001956023945351751 0.001486595316130991 0.9980070147369324 -0.003805375783092857 9.913769146187452e-05 0.000771792631164583 -9.628006627748372e-05 -0.0004851360377110001
 0.9980070147369324 -0.003805375783092857 0.0019560162905393544 0.001486599803080426 -9.628278964617672e-05 -0.00048513815965333545 9.918004598683703e-05 0.0007717765470187498
 9.913769146187452e-05 0.000771792631164583 -9.628278964617672e-05 -0.00048513815965333545 0.001956022008347622 0.0014865292191505522 0.9980070143618245 -0.0038054428448754426
 -9.628006627748372e-05 -0.0004851360377110001 9.918004598683703e-05 0.0007717765470187498 0.9980070143618245 -0.0038054428448754426 0.0019560174857859054 0.0014865317843290441
0.006252605252188 0.0019927252391516203 0.0018640491912503224 0.9979602135503827 -0.004757605338651719 0.00010745373662008184 0.0009651000794370795 -0.00010368196470100895 -0.0006070293251207758
 0.9979602135503827 -0.004757605338651719 0.0019927132728768155 0.0018640548600200796 -0.0001036862021956205 -0.0006070319411391917 0.00010751991147785735 0.0009650791684545724
 0.00010745373662008184 0.0009651000794370795 -0.0001036862021956205 -0.0006070319411391917 0.001992722269840074 0.0018639665875109681 0.997960213022782 -0.004757689158243495
 -0.00010368196470100895 -0.0006070293251207758 0.00010751991147785735 0.0009650791684545724 0.997960213022782 -0.004757689158243495 0.0019927152007878537 0.001863969842042425
0.01250521050438 0.0021875496198272247 0.003766696034901636 0.9977099608911623 -0.009515677148903874 0.00015585808615079278 0.0019304524379972075 -0.0001463434883498832 -0.0012168121448230896
 0.9977099608911623 -0.009515677148903874 0.002187501832715431 0.0037667079906382466 -0.0001463601841719495 -0.001216816972573859 0.00015612198199841784 0.0019304018314165912
 0.00015585808615079278 0.0019304524379972075 -0.0001463601841719495 -0.001216816972573859 0.0021875383375485765 0.0037665311956090533 0.9977099593618595 -0.009515844560560677
 -0.0001463434883498832 -0.0012168121448230896 0.00015612198199841784 0.0019304018314165912 0.9977099593618595 -0.009515844560560677 0.0021875101187364037 0.003766538169373767
0.01875781575657 0.002402104333266292 0.005695913177480416 0.997431741740995 -0.014285725616272968 0.00021583668037045625 0.002896652780429574 -0.00019862933284840663 -0.0018284339963879136
 0.997431741740995 -0.014285725616272968 0.0024019969414441128 0.005695932125291726 -0.0001986665588694918 -0.001828440542060699 0.0002164295080151302 0.0028965617602337225
 0.00021583668037045625 0.002896652780429574 -0.0001986665588694918 -0.001828440542060699 0.0024020793992296555 0.005695666426939159 0.9974317387258104 -0.014285976550815928
 -0.00019862933284840663 -0.0018284339963879136 0.0002164295080151302 0.0028965617602337225 0.9974317387258104 -0.014285976550815928 0.002402016005002362 0.0056956775708526825
0.02501042100875 0.0026368537618278046 0.00764892883550544 0.9971251894891207 -0.01906998823925753 0.0002875117476347261 0.0038636931984617744 -0.00026067614795399985 -0.0024415747351127135
 0.9971251894891207 -0.01906998823925753 0.0026366630195752264 0.007648955557935574 -0.00026074187646739594 -0.002441582407356048 0.0002885647709467545 0.003863549164137474
 0.0002875117476347261 0.0038636931984617744 -0.00026074187646739594 -0.002441582407356048 0.0026368098444991073 0.007648600548998287 0.9971251845008773 -0.019070322689202317
 -0.00026067614795399985 -0.0024415747351127135 0.0002885647709467545 0.003863549164137474 0.9971251845008773 -0.019070322689202317 0.002636697283898999 0.007648616294696845
0.03126302626094 0.002892242902189875 0.00962427913255018 0.9967899211096487 -0.023869377482873176 0.0003710050328567787 0.004831476242636822 -0.0003326157974602311 -0.003055994558109339
 0.9967899211096487 -0.023869377482873176 0.0028919450869414566 0.00962431448818517 -0.00033271791753873705 -0.0030560026671466985 0.00037264968771624394 0.004831264697586813
 0.0003710050328567787 0.004831476242636822 -0.00033271791753873705 -0.0030560026671466985 0.0028921746817441593 0.009623869760596954 0.996789913662764 -0.02386979547870796
 -0.0003326157974602311 -0.003055994558109339 0.00037264968771624394 0.004831264697586813 0.996789913662764 -0.02386979547870796 0.0028919989875793475 0.009623890518540639
0.037515631513130004 0.003168706298707997 0.011620981223682051 0.9964255465219392 -0.028684307601705837 0.00046643662391800984 0.005799868346865642 -0.0004145762757494314 -0.003671480631036725
 0.9964255465219392 -0.028684307601705837 0.003168277701201318 0.011621026146704431 -0.0004147226015055916 -0.003671488388472805 0.00046880457059867304 0.005799572877969334
 0.00046643662391800984 0.005799868346865642 -0.0004147226015055916 -0.003671488388472805 0.0031686084614381865 0.011620491309230468 0.9964255361255067 -0.02868480919538063
 -0.0004145762757494314 -0.003671480631036725 0.00046880457059867304 0.005799572877969334 0.9964255361255067 -0.02868480919538063 0.0031683556820500942 0.011620517467213112
0.043768236765320004 0.003466671474353076 0.013638281660664974 0.9960316724482108 -0.033514946210545286 0.0005739243738981538 0.006768716081802182 -0.0005066820054805599 -0.004287830884237466
 0.9960316724482108 -0.033514946210545286 0.0034660883895715157 0.013638337161145686 -0.0005068802807307224 -0.004287837403071486 0.0005771475209258172 0.006768318336770967
 0.0005739243738981538 0.006768716081802182 -0.0005068802807307224 -0.004287837403071486 0.003466538711426684 0.013637711834501024 0.9960316586041859 -0.033515531481111575
 -0.0005066820054805599 -0.004287830884237466 0.0005771475209258172 0.006768318336770967 0.9960316586041859 -0.033515531481111575 0.0034661949033264684 0.013637743756367416
0.050020842017509996 0.003786560491824013 0.015675552408293488 0.995607904406566 -0.038361318204764384 0.000693583531769316 0.007737852891675175 -0.0006090539168561791 -0.004904847330210398
 0.995607904406566 -0.038361318204764384 0.003785799211816288 0.015675619572594692 -0.0006093118182076617 -0.004904851624905635 0.0006977940444758008 0.007737332555519017
 0.000693583531769316 0.007737852891675175 -0.0006093118182076617 -0.004904851624905635 0.0037863875038601173 0.015674903387461084 0.9956078866117655 -0.03836198726080755
 -0.0006090539168561791 -0.004904847330210398 0.0006977940444758008 0.007737332555519017 0.9956078866117655 -0.03836198726080755 0.0037859387239386312 0.015674941412217976
0.055454545454549996 0.004082682849809216 0.01746178946062998 0.9952150531952997 -0.0425856895637907 0.00080754298343544 0.00858016014254002 -0.0007064468887947908 -0.005441441239464242
 0.9952150531952997 -0.0425856895637907 0.004081747451828754 0.017461867703165185 -0.0007067627906051256 -0.005441442724476125 0.0008127190804854925 0.008579515230315133
 0.00080754298343544 0.00858016014254002 -0.0007067627906051256 -0.005441442724476125 0.004082470608828998 0.01746107227384498 0.9952150315533302 -0.04258643153638586
 -0.0007064468887947908 -0.005441441239464242 0.0008127190804854925 0.008579515230315133 0.9952150315533302 -0.04258643153638586 0.00408191927710222 0.01746111585761972
0.056273447269699996 0.004128790728758828 0.017732239817500408 0.9951538479223938 -0.043223356729015075 0.0008255264641856856 0.008707102409172161 -0.0007218094301262337 -0.005522332810342567
 0.9951538479223938 -0.043223356729015075 0.004127827536083111 0.017732319808958525 -0.0007221345688556355 -0.005522333796917748 0.000830856764285288 0.008706437180176807
 0.0008255264641856856 0.008707102409172161 -0.0007221345688556355 -0.005522333796917748 0.004128572225869866 0.017731512415367433 0.9951538256666534 -0.04322410969938356
 -0.0007218094301262337 -0.005522332810342567 0.000830856764285288 0.008706437180176807 0.9951538256666534 -0.04322410969938356 0.004128004524867007 0.017731556856389018
0.06252605252188 0.004493775263392941 0.01980783656760339 0.9946691093558765 -0.048100931184739876 0.0009698624244585344 0.009676280299510441 -0.0008450623872602388 -0.006140089220932984
 0.9946691093558765 -0.048100931184739876 0.0044925864234823774 0.019807930627614385 -0.000845462310444538 -0.006140085717094318 0.0009764451832580005 0.009675445865079178
 0.0009698624244585344 0.009676280299510441 -0.000845462310444538 -0.006140085717094318 0.004493505965457252 0.01980703168979663 0.9946690821208481 -0.04810176822362257
 -0.0008450623872602388 -0.006140089220932984 0.0009764451832580005 0.009675445865079178 0.9946690821208481 -0.04810176822362257 0.004492805380818084 0.019807082834246273
0.06877865777407 0.004881923044586656 0.02190186496537419 0.9941532965203762 -0.05299386389045497 0.0011266973468830206 0.010645195372456985 -0.000978922955169441 -0.006757916480576568
 0.9941532965203762 -0.05299386389045497 0.0048804847995466746 0.02190197441451311 -0.0009794051464762493 -0.006757907205836892 0.0011346654741989737 0.010644165384897349
 0.0011266973468830206 0.010645195372456985 -0.0009794051464762493 -0.006757907205836892 0.00488159768270903 0.021900983614900237 0.9941532637780115 -0.052994785172844706
 -0.000978922955169441 -0.006757916480576568 0.0011346654741989737 0.010644165384897349 0.9941532637780115 -0.052994785172844706 0.004880750231420833 0.021901041723518616
0.07503126302626001 0.005293638934197956 0.024013866354608424 0.9936060191777334 -0.05790194064186668 0.0012961336568635719 0.011613650306077304 -0.0011234975110567223 -0.007375611895597868
 0.9936060191777334 -0.05790194064186668 0.0052919274965262855 0.02401399259412888 -0.0011240693911091636 -0.007375595471444038 0.0013056202867652994 0.01161239635848564
 0.0012961336568635719 0.011613650306077304 -0.0011240693911091636 -0.007375595471444038 0.0052932522528527275 0.02401290963040636 0.9936059803906777 -0.05790294636597461
 -0.0011234975110567223 -0.007375611895597868 0.0013056202867652994 0.01161239635848564 0.9936059803906777 -0.05790294636597461 0.005292243924959605 0.024012974937222445
0.08128386827845 0.005729323672686674 0.026143394084324652 0.9930268894617349 -0.06282491772467023 0.0014782700899601542 0.012581442150145653 -0.001278888517330982 -0.007992969756068672
 0.9930268894617349 -0.06282491772467023 0.005727315218119507 0.026143538597868287 -0.0012795574438489814 -0.007992944706108394 0.0014894085637633021 0.012579933752359523
 0.0014782700899601542 0.012581442150145653 -0.0012795574438489814 -0.007992944706108394 0.005728870429987447 0.026142363182835554 0.9930268440808715 -0.06282600811090153
 -0.001278888517330982 -0.007992969756068672 0.0014894085637633021 0.012579933752359523 0.9930268440808715 -0.06282600811090153 0.005727687180683808 0.026142435895489077
0.08753647353064001 0.006189373786325524 0.02829000865713541 0.9924155222494001 -0.06776252675919024 0.001673201518082551 0.01354836269004871 -0.0014451943880951143 -0.008609781081838958
 0.9924155222494001 -0.06776252675919024 0.006187044448079869 0.028290173012575047 -0.0014459676558502233 -0.008609745831978639 0.0016861253653050108 0.013546567244799626
 0.001673201518082551 0.01354836269004871 -0.0014459676558502233 -0.008609745831978639 0.006188848756337524 0.028288904873171466 0.9924154697138585 -0.06776370205001288
 -0.0014451943880951143 -0.008609781081838958 0.0016861253653050108 0.013546567244799626 0.9924154697138585 -0.06776370205001288 0.006187476499550375 0.028288985173111233
0.09378907878283 0.006674181461865871 0.03045327427727113 0.9917715355023701 -0.07271447815753612 0.0018810187798101606 0.014514198730720178 -0.0016225093509126662 -0.009225833459277405
 0.9917715355023701 -0.07271447815753612 0.006671507323714241 0.030453460128985477 -0.001623394191524557 -0.009225786337918346 0.0018958616973156254 0.014512081510067491
 0.0018810187798101606 0.014514198730720178 -0.001623394191524557 -0.009225786337918346 0.006673579435943564 0.030452099005651878 0.9917714752381036 -0.07271573861634287
 -0.0016225093509126662 -0.009225833459277405 0.0018958616973156254 0.014512081510067491 0.9917714752381036 -0.07271573861634287 0.006672004036449501 0.030452187048844254
0.100041684035 0.007184134392087428 0.032632756328534455 0.9910945505848704 -0.07768046366387443 0.0021018085140158717 0.015478732324049699 -0.0018109233049685247 -0.00984091094562097
 0.9910945505848704 -0.07768046366387443 0.0071810914821002405 0.0326329654197503 -0.001811926886552805 -0.00984085018385038 0.0021187043436384327 0.015476256446023582
 0.0021018085140158717 0.015478732324049699 -0.001811926886552805 -0.00984085018385038 0.007183450180454774 0.03263151106279788 0.9910944820039249 -0.0776818095768417
 -0.0018109233049685247 -0.00984091094562097 0.0021187043436384327 0.015476256446023582 0.9910944820039249 -0.0776818095768417 0.007181657447024355 0.03263160698052413
0.1059090909091 0.007685881722381385 0.03469232997188001 0.9904289265353672 -0.08235298891882306 0.002320867931850771 0.016382462088045627 -0.00199790038453539 -0.01041701377651804
 0.9904289265353672 -0.08235298891882306 0.0076824709015807175 0.03469256253787495 -0.0019990218543552932 -0.01041693851937945 0.0023398120376741053 0.01637961416531528
 0.002320867931850771 0.016382462088045627 -0.0019990218543552932 -0.01041693851937945 0.007685115686423519 0.03469102047427585 0.9904288496017676 -0.08235441529845644
 -0.00199790038453539 -0.01041701377651804 0.0023398120376741053 0.01637961416531528 0.9904288496017676 -0.08235441529845644 0.007683106044638066 0.034691123879844694
0.1062942892872 0.007719615602437867 0.034828019490386934 0.9903841925655603 -0.0826601582695343 0.0023356529966992575 0.01644174096021268 -0.0020105216761878413 -0.010454794020640583
 0.9903841925655603 -0.0826601582695343 0.007716179886383776 0.03482825365590535 -0.0020116511029921705 -0.010454717752466161 0.0023547357014629673 0.016438867365753704
 0.0023356529966992575 0.01644174096021268 -0.0020116511029921705 -0.010454717752466161 0.0077188440358438625 0.034826705826821305 0.9903841150646445 -0.08266158994197703
 -0.0020105216761878413 -0.010454794020640583 0.0023547357014629673 0.016438867365753704 0.9903841150646445 -0.08266158994197703 0.007716819713375201 0.03482680972684944
0.11254689453939999 0.008281003263538186 0.037038626320134854 0.9896400905092405 -0.08765322167588023 0.002582629979353386 0.01740299774018752 -0.002221385271532055 -0.011067259568413323
 0.9896400905092405 -0.08765322167588023 0.008277150638380689 0.03703888748925343 -0.0022226475833481076 -0.011067165830996732 0.00260403361845026 0.01739968517043005
 0.002582629979353386 0.01740299774018752 -0.0022226475833481076 -0.011067165830996732 0.008280139194956912 0.03703724595486665 0.9896400034690711 -0.08765473943555052
 -0.002221385271532055 -0.011067259568413323 0.00260403361845026 0.01739968517043005 0.9896400034690711 -0.08765473943555052 0.008277868957451069 0.037037357922761735
0.11879949979160001 0.008868670491125713 0.03926413615200878 0.9888618777582351 -0.09265929945381603 0.002842812529746103 0.018362271527122883 -0.0024435901317404482 -0.011678080891938213
 0.9888618777582351 -0.09265929945381603 0.00886437677860416 0.03926442635173865 -0.00244499230339867 -0.011677967625831889 0.0028666712324430872 0.018358476501058648
 0.002842812529746103 0.018362271527122883 -0.00244499230339867 -0.011677967625831889 0.00886770879758935 0.03926269088233213 0.9888617805423942 -0.09266090364987792
 -0.0024435901317404482 -0.011678080891938213 0.0028666712324430872 0.018358476501058648 0.9888617805423942 -0.09266090364987792 0.008865178239913242 0.03926281098322533
0.1250521050438 0.009482985138060345 0.04150410424673867 0.9880491922090736 -0.09767802396729242 0.0031162688743519716 0.019319327094620573 -0.0026772073841731213 -0.01228702774239393
 0.9880491922090736 -0.09767802396729242 0.009478226077698458 0.04150442560539047 -0.002678756324830561 -0.012286892791847722 0.003142716812763692 0.019315003887090832
 0.0031162688743519716 0.019319327094620573 -0.002678756324830561 -0.012286892791847722 0.009481920722420238 0.04150259597369263 0.988049084163015 -0.09767971496794317
 -0.0026772073841731213 -0.01228702774239393 0.003142716812763692 0.019315003887090832 0.988049084163015 -0.09767971496794317 0.009479115352855508 0.04150272425421268
0.131304710296 0.010124309578872009 0.0437580811284286 0.9872016765837432 -0.10270901512379053 0.00340306224295651 0.020273925264628224 -0.002922303095180408 -0.012893866370692416
 0.9872016765837432 -0.10270901512379053 0.010119060821908821 0.0437584358793225 -0.002924005647671238 -0.012893707483934255 0.0034322336039522556 0.020269025884759984
 0.00340306224295651 0.020273925264628224 -0.002924005647671238 -0.012893707483934255 0.010123137371482972 0.04375651185495187 0.9872015570334042 -0.10271079331820417
 -0.002922303095180408 -0.012893866370692416 0.0034322336039522556 0.020269025884759984 0.9872015570334042 -0.10271079331820417 0.010120042604249101 0.04375664834543592
0.1375573155481 0.010655526580695865 0.04573295280246828 0.9864565266602502 -0.10745902771453815 0.0036695737370738175 0.021197863297053005 -0.003145230540834023 -0.013470449357093727
 0.9864565266602502 -0.10745902771453815 0.010649762602875843 0.04573333814403309 -0.003147097028649101 -0.013470266079633152 0.003701534284694887 0.021192390018234714
 0.0036695737370738175 0.021197863297053005 -0.003147097028649101 -0.013470266079633152 0.010654242211833415 0.04573132418301706 0.9864563950635429 -0.10746089332414432
 -0.003145230540834023 -0.013470449357093727 0.003701534284694887 0.021192390018234714 0.9864563950635429 -0.10746089332414432 0.010650840654132342 0.0457314643238401
0.1438099208003 0.011205707999238182 0.04769562718885239 0.9856846171090767 -0.11219516636844834 0.003946770678181405 0.022116942813803907 -0.0033769855605903457 -0.01404254575855623
 0.9856846171090767 -0.11219516636844834 0.01119940417036086 0.047696045181733746 -0.0033790233569863256 -0.014042335844532423 0.003981642294098955 0.02211085125677489
 0.003946770678181405 0.022116942813803907 -0.0033790233569863256 -0.014042335844532423 0.011204306562321237 0.04769394127444935 0.985684472791855 -0.11219711977026725
 -0.0033769855605903457 -0.01404254575855623 0.003981642294098955 0.02211085125677489 0.985684472791855 -0.11219711977026725 0.011200583049119008 0.04769408490330729
0.1500625260525 0.011774631486774679 0.049645886771875807 0.9848861755316627 -0.11691725858424738 0.00423453789436679 0.023031034493148323 -0.0036174555735788054 -0.014610033889964477
 0.9848861755316627 -0.11691725858424738 0.011767763090184577 0.049646339601529386 -0.003619672029774969 -0.014609795002978494 0.004272441693167273 0.023024278625046628
 0.00423453789436679 0.023031034493148323 -0.003619672029774969 -0.014609795002978494 0.011773108108884404 0.04964414569408428 0.9848860178036096 -0.1169193001687661
 -0.0036174555735788054 -0.014610033889964477 0.004272441693167273 0.023024278625046628 0.9848860178036096 -0.1169193001687661 0.011769047365972276 0.049644292682622354
0.15631513130469998 0.012362072772558297 0.05158352053418524 0.9840614310698703 -0.12162513373904896 0.004532758648388484 0.02394001167030599 -0.00386652642927411 -0.015172795019151393
 0.9840614310698703 -0.12162513373904896 0.012354615002907219 0.05158401051434445 -0.003868928873925912 -0.015172524732670726 0.00457381496599636 0.02393254382066995
