! Created with skrf 1.8.0 (http://scikit-rf.org).
# GHz S RI R 50.0 
!freq ReS11 ImS11 ReS12 ImS12 ReS13 ImS13
! ReS14 ImS14
! ReS21 ImS21 ReS22 ImS22 ReS23 ImS23
! ReS24 ImS24
! ReS31 ImS31 ReS32 ImS32 ReS33 ImS33
! ReS34 ImS34
! ReS41 ImS41 ReS42 ImS42 ReS43 ImS43
! ReS44 ImS44
!
0.0 0.001456295522633 0.0 0.9985437044774 0.0 5.614618558961e-05 0.0 -5.614618561448e-05 6.87592464971061e-21
 0.9985437044774 0.0 0.001456295522623 0.0 -5.614618561445e-05 6.875924649706936e-21 5.614618558944e-05 0.0
 5.614618558961e-05 0.0 -5.614618561445e-05 6.875924649706936e-21 0.001456295513134 0.0 0.9985437044679 0.0
 -5.614618561448e-05 6.87592464971061e-21 5.614618558944e-05 0.0 0.9985437044679 0.0 0.001456295513128 0.0
0.005 0.0015666423558141928 0.0011892867163334712 0.998404138495289 -0.003050996466735675 7.885203636764952e-05 0.0006321091156337202 -7.652898153663631e-05 -0.00039445170081318
 0.998404138495289 -0.003050996466735675 0.001566642488678535 0.001189286683949384 -7.653308728853029e-05 -0.0003944548513697961 7.882857371976755e-05 0.0006321178856641772
 7.885203636764952e-05 0.0006321091156337202 -7.653308728853029e-05 -0.0003944548513697961 0.0015666406156849386 0.0011893550261667257 0.998404138844327 -0.0030509294025474957
 -7.652898153663631e-05 -0.00039445170081318 7.882857371976755e-05 0.0006321178856641772 0.998404138844327 -0.0030509294025474957 0.0015666449253781338 0.0011893525021929956
0.006252605252188 0.001595513078317062 0.0014913070933546585 0.998367404229935 -0.003814503832341167 8.529672765348467e-05 0.0007904410766797256 -8.225140013036302e-05 -0.0004935818914153358
 0.998367404229935 -0.003814503832341167 0.0015955132859220556 0.0014913070721636803 -8.225778909188e-05 -0.0004935857764011377 8.526006740470913e-05 0.0007904524870713324
 8.529672765348467e-05 0.0007904410766797256 -8.225778909188e-05 -0.0004935857764011377 0.0015955102788507804 0.0014913924822952318 0.9983674046966223 -0.0038144200031069555
 -8.225140013036302e-05 -0.0004935818914153358 8.526006740470913e-05 0.0007904524870713324 0.9983674046966223 -0.0038144200031069555 0.0015955170162918054 0.0014913893407188527
0.01250521050438 0.001747087713176597 0.0030140413693486275 0.9981733259903631 -0.007629894272412031 0.00012203247958614968 0.0015812298603546935 -0.00011454582358373591 -0.0009896153795545732
 0.9981733259903631 -0.007629894272412031 0.0017470885391787782 0.0030140415486826586 -0.00011457100314522579 -0.0009896225684658377 0.00012188622508955147 0.0015812574768171988
 0.00012203247958614968 0.0015812298603546935 -0.00011457100314522579 -0.0009896225684658377 0.0017470759938178397 0.0030142119216163047 0.9981733273178692 -0.0076297268806333534
 -0.00011454582358373591 -0.0009896153795545732 0.00012188622508955147 0.0015812574768171988 0.9981733273178692 -0.0076297268806333534 0.0017471029026211926 0.0030142057677779747
0.01875781575657 0.0019113363732324038 0.0045586255329461 0.9979612384897951 -0.01145547464727105 0.0001664363551789042 0.002372920545872122 -0.00015312633825734974 -0.0014873773575367476
 0.9979612384897951 -0.01145547464727105 0.0019113382225598517 0.0045586262091663905 -0.00015318249195070847 -0.0014873871626246656 0.00016610766524215225 0.002372970030577434
 0.0001664363551789042 0.002372920545872122 -0.00015318249195070847 -0.0014873871626246656 0.0019113096101768831 0.004558881241719777 0.9979612410534443 -0.011455223786373831
 -0.00015312633825734974 -0.0014873773575367476 0.00016610766524215225 0.002372970030577434 0.9979612410534443 -0.011455223786373831 0.0019113700854847303 0.004558872177745596
0.02501042100875 0.002088567437143074 0.006122907968164878 0.9977309017383897 -0.015293113571085242 0.00021859248537796664 0.0031655595005367805 -0.00019808684905163611 -0.001986647570043422
 0.9977309017383897 -0.015293113571085242 0.002088570710993211 0.0061229095143545235 -0.0001981860162268677 -0.001986659184540086 0.0002180084039977751 0.0031656373588688203
 0.00021859248537796664 0.0031655595005367805 -0.0001981860162268677 -0.001986659184540086 0.0020885195133608903 0.006123248905499074 0.9977309059138255 -0.015292779297953273
 -0.00019808684905163611 -0.001986647570043422 0.0002180084039977751 0.0031656373588688203 0.9977309059138255 -0.015292779297953273 0.0020886269317638953 0.006123237014480081
0.03126302626094 0.002279076466007629 0.007705788461901579 0.997482062991973 -0.01914361918886637 0.0002785855911801501 0.003959118899676877 -0.0002495187342164551 -0.002487274967950889
 0.997482062991973 -0.01914361918886637 0.002279081564125655 0.007705791329509559 -0.0002496728348136594 -0.0024872874644851924 0.00027767298287300143 0.003959232487360155
 0.0002785855911801501 0.003959118899676877 -0.0002496728348136594 -0.0024872874644851924 0.0022790012732343853 0.007706214747548742 0.9974820691605534 -0.01914320155487733
 -0.0002495187342164551 -0.002487274967950889 0.00027767298287300143 0.003959232487360155 0.9974820691605534 -0.01914320155487733 0.0022791690012791735 0.0077062000951968425
0.037515631513130004 0.0024831527300434642 0.009306554980069522 0.9972144634613552 -0.023007402341310663 0.00034650015444573373 0.0047535417756735315 -0.000307511535468197 -0.0029891326555371253
 0.9972144634613552 -0.023007402341310663 0.002483160053476643 0.009306559700595718 -0.00030773238272286714 -0.0029891449856531216 0.0003451856745440065 0.004753699308986349
 0.00034650015444573373 0.0047535417756735315 -0.00030773238272286714 -0.0029891449856531216 0.002483044157856419 0.009307066794300135 0.9972144720007422 -0.023006901379913316
 -0.000307511535468197 -0.0029891326555371253 0.0003451856745440065 0.004753699308986349 0.9972144720007422 -0.023006901379913316 0.0024832855576255117 0.009307049429594105
0.043768236765320004 0.002701081718414845 0.010924681849733206 0.9969278410066477 -0.02688467831570544 0.00042242003275492406 0.005548755724867014 -0.0003721532091964455 -0.0034921041793870384
 0.9969278410066477 -0.02688467831570544 0.0027010916722605364 0.010924689036114174 -0.00037245251718707583 -0.00349211517333781 0.00042063011298615766 0.00554896629181251
 0.00042242003275492406 0.005548755724867014 -0.00037245251718707583 -0.00349211517333781 0.0027009336576762585 0.010925279418961261 0.9969278522951603 -0.02688409405717736
 -0.0003721532091964455 -0.0034921041793870384 0.00042063011298615766 0.00554896629181251 0.9969278522951603 -0.02688409405717736 0.002701262091092422 0.010925259374418666
0.050020842017509996 0.0029331463114290546 0.012559746345038173 0.9966219314955609 -0.030775550190969118 0.0005064282310935753 0.006344678558886165 -0.00044353022167316765 -0.003996077874149319
 0.9966219314955609 -0.030775550190969118 0.002933159307545863 0.012559756693150402 -0.0004439196101404291 -0.003996086240823221 0.0005040890730625858 0.006344952130739764
 0.0005064282310935753 0.006344678558886165 -0.0004439196101404291 -0.003996086240823221 0.002932952652535054 0.012560429949348027 0.9966219459112893 -0.03077488265549902
 -0.00044353022167316765 -0.003996077874149319 0.0005040890730625858 0.006344952130739764 0.9966219459112893 -0.03077488265549902 0.002933381485288616 0.012560407241122644
0.055454545454549996 0.003146515503388743 0.013994141109545137 0.9963402173661184 -0.034167903266456766 0.0005860663125988727 0.00703686619155313 -0.0005110949812619194 -0.0044347749876433445
 0.9963402173661184 -0.034167903266456766 0.00314653148519915 0.013994154835766826 -0.0005115720182343332 -0.004434779928304891 0.0005831897363744126 0.0070372033093295296
 0.0005860663125988727 0.00703686619155313 -0.0005115720182343332 -0.004434779928304891 0.0031462772565793284 0.01399489973793427 0.9963402348068476 -0.03416716338190105
 -0.0005110949812619194 -0.0044347749876433445 0.0005831897363744126 0.0070372033093295296 0.9963402348068476 -0.03416716338190105 0.003146804199433833 0.013994874715196021
0.056273447269699996 0.00317962738769686 0.014211387751878643 0.9962964696004987 -0.034680049704699435 0.0005986067415612155 0.007141221082320486 -0.000521727575581691 -0.004500944084136522
 0.9962964696004987 -0.034680049704699435 0.0031796438475542362 0.014211402041755264 -0.0005222185731732839 -0.004500948411020822 0.0005956443148929918 0.007141568525406306
 0.0005986067415612155 0.007141221082320486 -0.0005222185731732839 -0.004500948411020822 0.003179382021225764 0.014212157711876481 0.9962964875222218 -0.03467929891603914
 -0.000521727575581691 -0.004500944084136522 0.0005956443148929918 0.007141568525406306 0.9962964875222218 -0.03467929891603914 0.0031799246261968294 0.014212132339616454
0.06252605252188 0.0034408041530446776 0.015879284848000313 0.995951189320038 -0.03859815970638695 0.0006990364167185417 0.007938288618436469 -0.0006068288015415638 -0.005006593639634579
 0.995951189320038 -0.03859815970638695 0.003440824510928606 0.01587930394519816 -0.0006074328480744934 -0.005006592392817665 0.0006953764606163632 0.00793872170596946
 0.0006990364167185417 0.007938288618436469 -0.0006074328480744934 -0.005006592392817665 0.0034405009688738314 0.01588014154050969 0.9959512111265767 -0.038597325676800645
 -0.0006068288015415638 -0.005006593639634579 0.0006953764606163632 0.00793872170596946 0.9959512111265767 -0.038597325676800645 0.003441170729323265 0.015880113487249246
0.06877865777407 0.0037169543178487484 0.017563142493315132 0.9955858243522416 -0.04252982750349457 0.0008077968629177656 0.008735781917782211 -0.0006989159285929427 -0.005512916953398774
 0.9955858243522416 -0.04252982750349457 0.0037169790236960317 0.01756316735003728 -0.0006996443765427016 -0.005512908477594394 0.000803364889782544 0.008736313341737382
 0.0008077968629177656 0.008735781917782211 -0.0006996443765427016 -0.005512908477594394 0.0037165872055475286 0.017564086341237302 0.995585850423404 -0.042528910244460816
 -0.0006989159285929427 -0.005512916953398774 0.000803364889782544 0.008736313341737382 0.995585850423404 -0.042528910244460816 0.0037173975182808526 0.017564055573074427
0.07503126302626001 0.004008354184786563 0.019262683116561593 0.995200108382052 -0.0464749733138914 0.0009249663435022045 0.009533597737805313 -0.0007980694432084619 -0.00601980344944067
 0.995200108382052 -0.0464749733138914 0.004008383707389258 0.019262714772835393 -0.0007989335587093165 -0.006019785968023753 0.0009196876443895196 0.009534241120789927
 0.0009249663435022045 0.009533597737805313 -0.0007989335587093165 -0.006019785968023753 0.004007917033235498 0.019263714591996748 0.9952001390982746 -0.046473972833686865
 -0.0007980694432084619 -0.00601980344944067 0.0009196876443895196 0.009534241120789927 0.9952001390982746 -0.046473972833686865 0.004008881311861718 0.019263681057687554
0.08128386827845 0.00431527868134348 0.020977641055880045 0.9947937753163236 -0.0504334958683445 0.0010506216898110256 0.010331629229609935 -0.0009043682393115307 -0.0065271411882078
 0.9947937753163236 -0.0504334958683445 0.004315313511590173 0.02097768064057959 -0.0009053792028483604 -0.006527112803268771 0.0010444213409604103 0.01033239913668938
 0.0010506216898110256 0.010331629229609935 -0.0009053792028483604 -0.006527112803268771 0.004314765378864715 0.0209787606815092 0.9947938110584754 -0.05043241217124748
 -0.0009043682393115307 -0.0065271411882078 0.0010444213409604103 0.01033239913668938 0.9947938110584754 -0.05043241217124748 0.004315897056462487 0.020978724312020445
0.08753647353064001 0.004638001354402177 0.022707758640819104 0.9943665594840301 -0.05440527627514253 0.001184838215891736 0.011129766209446458 -0.0010178895630248578 -0.0070348166106953235
 0.9943665594840301 -0.05440527627514253 0.004638042008828149 0.022707807372554994 -0.0010190584697740547 -0.007034775303098913 0.0011776410866737364 0.011130678159903972
 0.001184838215891736 0.011129766209446458 -0.0010190584697740547 -0.007034775303098913 0.0046374057887628 0.02270896698743274 0.9943666006340144 -0.054404109364574786
 -0.0010178895630248578 -0.0070348166106953235 0.0011776410866737364 0.011130678159903972 0.9943666006340144 -0.054404109364574786 0.0046387183213037605 0.022708927695322366
0.09378907878283 0.0049767943395394604 0.024452783394907522 0.9939181958143561 -0.058390180768264195 0.0013276896365444722 0.011927895356146355 -0.0011387089531702266 -0.007542714360401832
 0.9939181958143561 -0.058390180768264195 0.0049768413633865145 0.024452842582975802 -0.0011400468131361526 -0.007542657989874814 0.0013194203979120438 0.011928965835188423
 0.0013276896365444722 0.011927895356146355 -0.0011400468131361526 -0.007542657989874814 0.004976110398197663 0.024454081085641524 0.9939182427550448 -0.058388930643186246
 -0.0011387089531702266 -0.007542714360401832 0.0013194203979120438 0.011928965835188423 0.9939182427550448 -0.058388930643186246 0.0049776172671595715 0.02445403876443949
0.100041684035 0.005331928311677292 0.026212465985232372 0.9934484199993178 -0.06238806271289098 0.0014792479868066387 0.012725900359851437 -0.001266900178839281 -0.008050717157933155
 0.9934484199993178 -0.06238806271289098 0.005331982282447467 0.026212537030376775 -0.0012684179167981454 -0.008050643463166137 0.001469831120787586 0.012727146830190121
 0.0014792479868066387 0.012725900359851437 -0.0012684179167981454 -0.008050643463166137 0.005331149882078819 0.026213853694621862 0.9934484731149302 -0.06238672936939298
 -0.001266900178839281 -0.008050717157933155 0.001469831120787586 0.012727146830190121 0.9934484731149302 -0.06238672936939298 0.005332864597679189 0.026213808218054673
0.1059090909091 0.005680285604448637 0.027876851907274673 0.9929878764722819 -0.06615131313635682 0.0016294509050735495 0.013474524381316789 -0.0013939627540787594 -0.008527413206788412
 0.9929878764722819 -0.06615131313635682 0.005680346651405427 0.027876935435044763 -0.0013956591483552457 -0.008527321090694607 0.0016188882702567746 0.013475952763843972
 0.0016294509050735495 0.013474524381316789 -0.0013956591483552457 -0.008527321090694607 0.0056794129482274245 0.027878324748623257 0.9929879357327521 -0.06614990169604436
 -0.0013939627540787594 -0.008527413206788412 0.0016188882702567746 0.013475952763843972 0.9929879357327521 -0.06614990169604436 0.005681335021364716 0.027878276177837325
0.1062942892872 0.005703672422187201 0.027986558680600262 0.9929569686455616 -0.06639876410667603 0.0016395835430856268 0.013523662037922197 -0.0014025351744101262 -0.008558705712459846
 0.9929569686455616 -0.06639876410667603 0.005703733953307917 0.027986643075696177 -0.0014042436297414655 -0.008558612311210214 0.0016289433528376904 0.013525102951298024
 0.0016395835430856268 0.013523662037922197 -0.0014042436297414655 -0.008558612311210214 0.005702793391512543 0.027988037134364506 0.9929570283213501 -0.06639734753897288
 -0.0014025351744101262 -0.008558705712459846 0.0016289433528376904 0.013525102951298024 0.9929570283213501 -0.06639734753897288 0.0057047294956127665 0.027987988355496523
0.11254689453939999 0.006092294225162958 0.02977481417152218 0.992443579418326 -0.07042211672407878 0.0018087647450397194 0.014321058430181147 -0.0015456839728449114 -0.009066558657976842
 0.992443579418326 -0.07042211672407878 0.006092363969624835 0.029774913502146127 -0.001547593899223099 -0.009066443047207768 0.0017968253654403379 0.014322713238731953
 0.0018087647450397194 0.014321058430181147 -0.001547593899223099 -0.009066443047207768 0.006091308481143433 0.029776384148728047 0.9924436460411261 -0.07042061692287888
 -0.0015456839728449114 -0.009066558657976842 0.0017968253654403379 0.014322713238731953 0.9924436460411261 -0.07042061692287888 0.006093479550249402 0.029776331899009714
0.11879949979160001 0.006498059596781234 0.03157698465222467 0.9919079911808492 -0.07445794300308589 0.0019868581179452614 0.015117964876747075 -0.0016964146375372244 -0.00957415251121433
 0.9919079911808492 -0.07445794300308589 0.006498138250629081 0.03157710059721332 -0.0016985367024835816 -0.009574012067244432 0.001973543526903055 0.015119854044269604
 0.0019868581179452614 0.015117964876747075 -0.0016985367024835816 -0.009574012067244432 0.0064969610272462685 0.031578646985048434 0.9919080651386656 -0.07445635995659643
 -0.0016964146375372244 -0.00957415251121433 0.001973543526903055 0.015119854044269604 0.9919080651386656 -0.07445635995659643 0.006499380675605643 0.031578591073254454
0.1250521050438 0.006921232646038653 0.03339282109497955 0.9913499441281762 -0.07850605674497035 0.0021739281957766756 0.01591425408670007 -0.0018547931927863288 -0.010081361643071022
 0.9913499441281762 -0.07850605674497035 0.006921320952401926 0.033392955426753836 -0.0018571379772254607 -0.010081193621735405 0.002159162225881783 0.015916399099780747
 0.0021739281957766756 0.01591425408670007 -0.0018571379772254607 -0.010081193621735405 0.006920015139819259 0.03339457666843739 0.9913500258110559 -0.0785043904398045
 -0.0018547931927863288 -0.010081361643071022 0.002159162225881783 0.015916399099780747 0.9913500258110559 -0.0785043904398045 0.006922697022276877 0.03339451687957653
0.131304710296 0.007362075622228701 0.035222072671439994 0.9907691799203644 -0.08256626367187386 0.0023700374443393207 0.016709796198391615 -0.0020208835535961422 -0.010588058262798405
 0.9907691799203644 -0.08256626367187386 0.007362174374913462 0.03522222725636404 -0.002023461551206793 -0.010587859799634836 0.0023537437950247103 0.01671221957734826
 0.0023700374443393207 0.016709796198391615 -0.002023461551206793 -0.010587859799634836 0.007360733068902353 0.03522392242720703 0.9907692697197821 -0.08256451408995145
 -0.0020208835535961422 -0.010588058262798405 0.0023537437950247103 0.01671221957734826 0.9907692697197821 -0.08256451408995145 0.007363690884203395 0.035223858521181164
0.1375573155481 0.007717753422469961 0.036825294934089994 0.9902685734191758 -0.08639907004062736 0.0025499751423803253 0.017480150238539632 -0.0021694995786196926 -0.011069803691760903
 0.9902685734191758 -0.08639907004062736 0.0077178647933642056 0.036825469700817855 -0.002172326282734382 -0.011069574669431998 0.002532121407852766 0.01748284769607817
 0.0025499751423803253 0.017480150238539632 -0.002172326282734382 -0.011069574669431998 0.00771628024646493 0.036827239969644855 0.9902686717011029 -0.0863972372096253
 -0.0021694995786196926 -0.011069803691760903 0.002532121407852766 0.01748284769607817 0.9902686717011029 -0.0863972372096253 0.0077195280516590475 0.03682716953459529
0.1438099208003 0.008085876212888329 0.03842039704368786 0.9897504894952309 -0.0902225036651423 0.0027371908537870133 0.018247626081501295 -0.002324073554939844 -0.011548912715162616
 0.9897504894952309 -0.0902225036651423 0.00808600129660368 0.03842059365364747 -0.0023271602345379693 -0.011548650329076518 0.002717708477165835 0.018250618063873892
 0.0027371908537870133 0.018247626081501295 -0.0023271602345379693 -0.011548650329076518 0.008084266401570258 0.0384224383472723 0.989750596648057 -0.09022058757543698
 -0.002324073554939844 -0.011548912715162616 0.002717708477165835 0.018250618063873892 0.989750596648057 -0.09022058757543698 0.008087818004334512 0.03842236085008829
0.1500625260525 0.008466319125514708 0.04000725556220049 0.989215056787947 -0.09403647989060739 0.0029316234560107478 0.01901215311949093 -0.002484546067932187 -0.012025318105847416
 0.989215056787947 -0.09403647989060739 0.008466459076574645 0.04000747573137896 -0.0024879039686469366 -0.01202501943912755 0.002910444262427734 0.019015460814835655
 0.0029316234560107478 0.01901215311949093 -0.0024879039686469366 -0.01202501943912755 0.008464566673220073 0.04000939416314068 0.9892151732011082 -0.09403448053248248
 -0.002484546067932187 -0.012025318105847416 0.002910444262427734 0.019015460814835655 0.9892151732011082 -0.09403448053248248 0.008468435923318321 0.04000930903484416
0.15631513130469998 0.0088589564612516 0.04158575082219313 0.9886624045298111 -0.09784091415273923 0.003133211141269725 0.019773661880912917 -0.002650857002737727 -0.012498954015222477
