! Created with skrf 1.8.0 (http://scikit-rf.org).
# GHz S RI R 50.0 
!freq ReS11 ImS11 ReS12 ImS12 ReS13 ImS13
! ReS14 ImS14
! ReS21 ImS21 ReS22 ImS22 ReS23 ImS23
! ReS24 ImS24
! ReS31 ImS31 ReS32 ImS32 ReS33 ImS33
! ReS34 ImS34
! ReS41 ImS41 ReS42 ImS42 ReS43 ImS43
! ReS44 ImS44
!
0.0 0.001467225758196 0.0 0.9985327742045 0.0 5.634719085866e-05 0.0 -5.634719032542e-05 6.900540627297232e-21
 0.9985327742045 0.0 0.001467225758223 0.0 -5.63471903264e-05 6.900540627417246e-21 5.634719085895e-05 0.0
 5.634719085866e-05 0.0 -5.63471903264e-05 6.900540627417246e-21 0.001467225776882 0.0 0.9985327742231 0.0
 -5.634719032542e-05 6.900540627297232e-21 5.634719085895e-05 0.0 0.9985327742231 0.0 0.001467225776856 0.0
0.005 0.0015783801045856115 0.0012027357347161574 0.9983922027778067 -0.003073537453126137 7.844967147663278e-05 0.0006074782451166245 -7.63196671109491e-05 -0.00038367088214020335
 0.9983922027778067 -0.003073537453126137 0.0015783780315238491 0.0012027368949019987 -7.632035796838684e-05 -0.0003836713410935166 7.844814091233258e-05 0.0006074785955782825
 7.844967147663278e-05 0.0006074782451166245 -7.632035796838684e-05 -0.0003836713410935166 0.001578379769626324 0.0012026686180293654 0.9983922024246661 -0.0030736045112928754
 -7.63196671109491e-05 -0.00038367088214020335 7.844814091233258e-05 0.0006074785955782825 0.9983922024246661 -0.0030736045112928754 0.0015783776649054488 0.0012026698991217837
0.006252605252188 0.0016074698471074953 0.0015081492167216398 0.9983551959637161 -0.0038426824763243108 8.471812004537346e-05 0.0007596529323395097 -8.19254735193977e-05 -0.0004800851955909389
 0.9983551959637161 -0.0038426824763243108 0.001607466607558243 0.001508150748895117 -8.192654912981362e-05 -0.00048008576001376156 8.471572590922336e-05 0.0007596534256006604
 8.471812004537346e-05 0.0007596529323395097 -8.192654912981362e-05 -0.00048008576001376156 0.0016074693985767283 0.0015080653216109896 0.9983551954861968 -0.0038427662938222223
 -8.19254735193977e-05 -0.0004800851955909389 8.471572590922336e-05 0.0007596534256006604 0.9983551954861968 -0.0038427662938222223 0.0016074661085926885 0.001508067017742571
0.01250521050438 0.0017602395841228315 0.003047900573394617 0.9981596324314777 -0.007686220185677901 0.00012042331212161655 0.0015197341976213685 -0.00011355400284622395 -0.0009625249424435445
 0.9981596324314777 -0.007686220185677901 0.001760226661530132 0.0030479044780360853 -0.00011355824884798299 -0.0009625259691229728 0.00012041367933162375 0.0015197357495130895
 0.00012042331212161655 0.0015197341976213685 -0.00011355824884798299 -0.0009625259691229728 0.0017602383726557638 0.003047732985494386 0.9981596310943228 -0.007686387584880972
 -0.00011355400284622395 -0.0009625249424435445 0.00012041367933162375 0.0015197357495130895 0.9981596310943228 -0.007686387584880972 0.0017602252328044047 0.0030477373500155686
0.01875781575657 0.0019258557068218207 0.004609611384932967 0.9979458495484026 -0.011539978613595025 0.0001635443636369259 0.0022807460529565286 -0.000151327116242222 -0.0014466513818424047
 0.9979458495484026 -0.011539978613595025 0.0019258266917658448 0.004609618574989771 -0.00015133659498761846 -0.0014466527472427712 0.0001635225244597263 0.0022807492855722047
 0.0001635443636369259 0.0022807460529565286 -0.00015133659498761846 -0.0014466527472427712 0.0019258534264601198 0.004609360176689898 0.9979458469652218 -0.011540229516185045
 -0.000151327116242222 -0.0014466513818424047 0.0001635225244597263 0.0022807492855722047 0.9979458469652218 -0.011540229516185045 0.0019258238917054264 0.00460936826475939
0.02501042100875 0.002104630183268745 0.006191114704413902 0.9977136043419722 -0.015405838340678435 0.00021416380990303018 0.0030427253314619855 -0.0001953364049007089 -0.0019322571640819882
 0.9977136043419722 -0.015405838340678435 0.0021045786947064575 0.006191126167409003 -0.00019535315746925552 -0.0019322587214065947 0.00021412467742191533 0.0030427309345255433
 0.00021416380990303018 0.0030427253314619855 -0.00019535315746925552 -0.0019322587214065947 0.002104626540857968 0.006190779937921422 0.9977136001257441 -0.015406172706140938
 -0.0001953364049007089 -0.0019322571640819882 0.00021412467742191533 0.0030427309345255433 0.9977136001257441 -0.015406172706140938 0.0021045740765981502 0.006190792890179114
0.03126302626094 0.002296862053406273 0.007791302054756479 0.9974626409765167 -0.01928461227816482 0.00027236464463376524 0.0038056407327558737 -0.0002456710705622529 -0.002419198170906407
 0.9974626409765167 -0.01928461227816482 0.002296781737266316 0.007791318853715835 -0.0002456971204421905 -0.0024191997497839354 0.000272303014370589 0.0038056494675009368
 0.00027236464463376524 0.0038056407327558737 -0.0002456971204421905 -0.0024191997497839354 0.002296856768585815 0.007790883789501565 0.9974626347399217 -0.019285030095996327
 -0.0002456710705622529 -0.002419198170906407 0.000272303014370589 0.0038056494675009368 0.9974626347399217 -0.019285030095996327 0.0022967748499203074 0.007790902833504796
0.037515631513130004 0.0025028439992942487 0.009409455728598548 0.9971926975108043 -0.023176713307875806 0.00033822956090707296 0.004569434107762632 -0.000302418559531464 -0.002907352229290644
 0.9971926975108043 -0.023176713307875806 0.002502728528293816 0.00940947900302154 -0.0003024559144348928 -0.002907353635641362 0.00033814011186611263 0.004569446810021173
 0.00033822956090707296 0.004569434107762632 -0.0003024559144348928 -0.002907353635641362 0.0025028368048271563 0.00940895403319548 0.9971926888655052 -0.02317721458592373
 -0.000302418559531464 -0.002907352229290644 0.00033814011186611263 0.004569446810021173 0.9971926888655052 -0.02317721458592373 0.002502718916919111 0.009408980484645954
0.043768236765320004 0.0027228648879071265 0.01104504559145474 0.996903508626904 -0.02708235741071286 0.00041184060198744526 0.0053340329979574 -0.0003656647848483475 -0.0033966065688591164
 0.996903508626904 -0.02708235741071286 0.0027227079620651164 0.011045076558012418 -0.0003657154377751278 -0.003396607584797978 0.00041171789746774967 0.005334050580989387
 0.00041184060198744526 0.0053340329979574 -0.0003657154377751278 -0.003396607584797978 0.002722855527610297 0.01104446054722367 0.9969034971808737 -0.027082942171692007
 -0.0003656647848483475 -0.0033966065688591164 0.00041171789746774967 0.005334050580989387 0.9969034971808737 -0.027082942171692007 0.0027226951664460677 0.011044495810951394
0.050020842017509996 0.0029572109481504016 0.012697645121056892 0.9965948069964056 -0.03100164755687769 0.0004932789481750463 0.0060993558249683175 -0.00043549421069671553 -0.003886852629816175
 0.9965948069964056 -0.03100164755687769 0.0029570062949998035 0.01269768507438633 -0.0004355601405417195 -0.0038868530135875256 0.0004931174362781325 0.006099379282210752
 0.0004932789481750463 0.0060993558249683175 -0.0004355601405417195 -0.0038868530135875256 0.002957199180531238 0.012696976819307353 0.9965947923572521 -0.031002315841139338
 -0.00043549421069671553 -0.003886852629816175 0.0004931174362781325 0.006099379282210752 0.9965947923572521 -0.031002315841139338 0.002956989853629722 0.012697022390274268
0.055454545454549996 0.003172719340930522 0.014147334204669872 0.9963104806550865 -0.03441873721886103 0.0005704703565368898 0.006764964140587649 -0.0005015889868310072 -0.004313613686662157
 0.9963104806550865 -0.03441873721886103 0.0031724681393934533 0.014147383080121742 -0.0005016697892202119 -0.004313613306127365 0.0005702705221442123 0.006764993573773954
 0.0005704703565368898 0.006764964140587649 -0.0005016697892202119 -0.004313613306127365 0.0031727052942776275 0.014146593633628269 0.9963104629191752 -0.03441947813174427
 -0.0005015889868310072 -0.004313613686662157 0.0005702705221442123 0.006764993573773954 0.9963104629191752 -0.03441947813174427 0.003172448152063121 0.01414664944665633
0.056273447269699996 0.0032061663864945875 0.014366890184930972 0.9962663240888149 -0.03493461485853661 0.0005826247661951012 0.006865314423794855 -0.0005119898721704081 -0.004377983529369785
 0.9962663240888149 -0.03493461485853661 0.0032059077620354083 0.0143669404981765 -0.000512073044106071 -0.004377983015272253 0.0005824187806160642 0.0068653448315434224
 0.0005826247661951012 0.006865314423794855 -0.000512073044106071 -0.004377983015272253 0.0032061519817314396 0.01436613872724998 0.9962663058599684 -0.03493536672379858
 -0.0005119898721704081 -0.004377983529369785 0.0005824187806160642 0.0068653448315434224 0.9962663058599684 -0.03493536672379858 0.0032058872096180748 0.014366196191446474
0.06252605252188 0.003470013715676086 0.01605245636723686 0.9959177906954222 -0.03888124117495928 0.0006799570890245043 0.007631815448102215 -0.0005952333632355604 -0.004869892658703333
 0.9959177906954222 -0.03888124117495928 0.0034696949052227715 0.016052518492722847 -0.0005953357289372514 -0.004869890957028129 0.0006797008494635854 0.0076318539682002605
 0.0006799570890245043 0.007631815448102215 -0.0005953357289372514 -0.004869890957028129 0.00346999645706202 0.01605162188131832 0.99591776847714 -0.03888207668050072
 -0.0005952333632355604 -0.004869892658703333 0.0006797008494635854 0.0076318539682002605 0.99591776847714 -0.03888207668050072 0.0034696697743392207 0.01605169291668471
0.06877865777407 0.0037490339346532764 0.0177540454790812 0.9955489373085893 -0.04284147253691937 0.0007853537135172828 0.008398761197422907 -0.0006853048049451409 -0.005362472861095614
 0.9955489373085893 -0.04284147253691937 0.0037486487539150023 0.017754120948880858 -0.0006854283027478003 -0.005362469658074866 0.0007850413262957358 0.008398809079927372
 0.0007853537135172828 0.008398761197422907 -0.0006854283027478003 -0.005362469658074866 0.0037490136189651238 0.01775312809752311 0.9955489106970847 -0.04284239176486829
 -0.0006853048049451409 -0.005362472861095614 0.0007850413262957358 0.008398809079927372 0.9955489106970847 -0.04284239176486829 0.0037486185754324382 0.017753214474776458
0.07503126302626001 0.004043506616164405 0.019471376975132508 0.9951594944111625 -0.04681522766804085 0.0008988911071799361 0.009166050154129945 -0.0007822828031635441 -0.005855615903530391
 0.9951594944111625 -0.04681522766804085 0.004043048912022146 0.019471467401691724 -0.0007824293580124656 -0.005855610861294235 0.0008985165657675485 0.00916610873999531
 0.0008988911071799361 0.009166050154129945 -0.0007824293580124656 -0.005855610861294235 0.004043483053677811 0.019470376849865145 0.9951594629984887 -0.046816230708956824
 -0.0007822828031635441 -0.005855615903530391 0.0008985165657675485 0.00916610873999531 0.9951594629984887 -0.046816230708956824 0.004043013216161975 0.01947048043329532
0.08128386827845 0.004353709939078063 0.021204182259482222 0.994749192714762 -0.05080240362055122 0.0010206443218085095 0.009933577331216041 -0.0008862443976883126 -0.006349212141026552
 0.994749192714762 -0.05080240362055122 0.004353173591191701 0.021204289336013663 -0.000886415921230345 -0.006349204897539103 0.0010202015074783207 0.00993364805495185
 0.0010206443218085095 0.009933577331216041 -0.000886415921230345 -0.006349204897539103 0.004353682954197778 0.021203099555455976 0.9947491560883319 -0.05080349057967038
 -0.0008862443976883126 -0.006349212141026552 0.0010202015074783207 0.00993364805495185 0.9947491560883319 -0.05080349057967038 0.004353131907582716 0.02120322230368293
0.08753647353064001 0.0046799206826112156 0.02295220074236321 0.9943177633623449 -0.054802879663764396 0.0011506869105657068 0.010701234528625104 -0.0009972650069259169 -0.00684315027597256
 0.9943177633623449 -0.054802879663764396 0.004679299604078261 0.022952326243460865 -0.0009974633973370594 -0.006843140445007327 0.0011501695928093135 0.01070131892101749
 0.0011506869105657068 0.010701234528625104 -0.0009974633973370594 -0.006843140445007327 0.004679890113649544 0.022951035641348642 0.9943177211041766 -0.054804050657194035
 -0.0009972650069259169 -0.00684315027597256 0.0011501695928093135 0.01070131892101749 0.9943177211041766 -0.054804050657194035 0.004679251462664409 0.022951179608082323
0.09378907878283 0.005022414194686627 0.024715177019843954 0.9938649381087578 -0.05881652005397119 0.0012890908477554963 0.011468910508920084 -0.0011154183681360856 -0.00733731720199387
 0.9938649381087578 -0.05881652005397119 0.005021702333467892 0.02471532280194892 -0.0011156455100724233 -0.007337304373085741 0.0012884926849836605 0.011469010199699321
 0.0012890908477554963 0.011468910508920084 -0.0011156455100724233 -0.007337304373085741 0.005022379894605932 0.024713929721306382 0.9938648897954265 -0.05881777520780151
 -0.0011154183681360856 -0.00733731720199387 0.0012884926849836605 0.011469010199699321 0.9938648897954265 -0.05881777520780151 0.005021647265222156 0.024714097056116584
0.100041684035 0.005381464341187335 0.02649285881636685 0.9933904494850927 -0.06284317604580857 0.0014359264502728482 0.012236491138111124 -0.001240776475090078 -0.007831597886472018
 0.9933904494850927 -0.06284317604580857 0.005380655681568675 0.026493026818185265 -0.001241034239537747 -0.00783158162489214 0.0014352409904542685 0.012236607858707655
 0.0014359264502728482 0.012236491138111124 -0.001241034239537747 -0.00783158162489214 0.00538142617801636 0.02649152953081969 0.993390394687528 -0.06284451550268226
 -0.001240776475090078 -0.007831597886472018 0.0014352409904542685 0.012236607858707655 0.993390394687528 -0.06284451550268226 0.005380593219299035 0.02649172247971827
0.1059090909091 0.005733695500496968 0.028174175797595957 0.9929252521991805 -0.06663346057934173 0.001581445711197667 0.012956593307785425 -0.0013650269446294546 -0.008295427116509884
 0.9929252521991805 -0.06663346057934173 0.005732790567831448 0.028174366487160433 -0.0013653151343771743 -0.008295407216708465 0.001580672366389259 0.01295672767671787
 0.001581445711197667 0.012956593307785425 -0.0013653151343771743 -0.008295407216708465 0.005733653605300723 0.028172769783820988 0.9929251909201758 -0.06663487928351004
 -0.0013650269446294546 -0.008295427116509884 0.001580672366389259 0.01295672767671787 0.9929251909201758 -0.06663487928351004 0.005732720743836986 0.028172988898093297
0.1062942892872 0.005757343442471628 0.02828499542019605 0.9928940309530582 -0.06688268741504566 0.0015912623000915167 0.013003859491976482 -0.0013734095135681506 -0.008325875291637854
 0.9928940309530582 -0.06688268741504566 0.005756432006064177 0.028285187663129957 -0.0013736997576876836 -0.008325855138360459 0.0015904829812954113 0.013003995078193664
 0.0015912623000915167 0.013003859491976482 -0.0013736997576876836 -0.008325855138360459 0.005757301298919186 0.028283584377721223 0.9928939692348235 -0.06688411132553056
 -0.0013734095135681506 -0.008325875291637854 0.0015904829812954113 0.013003995078193664 0.9928939692348235 -0.06688411132553056 0.005756361684389425 0.02828380528389422
0.11254689453939999 0.006150322198037053 0.030091336507460223 0.9923754170504425 -0.07093488359768671 0.0017551651675644698 0.013770895944153382 -0.0015133857949311655 -0.008820030317985455
 0.9923754170504425 -0.07093488359768671 0.006149302045416481 0.030091555096026092 -0.0015137103618654182 -0.008820005789672476 0.0017542853187424246 0.01377105233893693
 0.0017551651675644698 0.013770895944153382 -0.0015137103618654182 -0.008820005789672476 0.0061502759728106005 0.030089843950525823 0.9923753479689733 -0.07093639212740455
 -0.0015133857949311655 -0.008820030317985455 0.0017542853187424246 0.01377105233893693 0.9923753479689733 -0.07093639212740455 0.006149223402516606 0.030090095254894835
0.11879949979160001 0.006560669603989529 0.031911631206347726 0.991834343532545 -0.07499958459370042 0.0019276999354235422 0.014537478239481693 -0.0016607716882910718 -0.00931394176661566
 0.991834343532545 -0.07499958459370042 0.0065595348358883565 0.031911878328544765 -0.0016611324069837727 -0.009313912355593066 0.0019267127770185516 0.014537657495654395
 0.0019276999354235422 0.014537478239481693 -0.0016611324069837727 -0.009313912355593066 0.006560619211402912 0.0319100573941991 0.9918342666374127 -0.07500117791876856
 -0.0016607716882910718 -0.00931394176661566 0.0019267127770185516 0.014537657495654395 0.9918342666374127 -0.07500117791876856 0.006559447413307752 0.031910341636060484
0.1250521050438 0.006988652863483242 0.03374562737643661 0.9912705475087069 -0.07907660166064079 0.0021089295227605595 0.01530348155751615 -0.0018156315518504144 -0.009807486315778062
 0.9912705475087069 -0.07907660166064079 0.006987397622217679 0.0337459053040561 -0.0018160302368006947 -0.009807451490031479 0.0021078281674946652 0.0153036858405459
 0.0021089295227605595 0.01530348155751615 -0.0018160302368006947 -0.009807451490031479 0.006988598233924166 0.033743972584865445 0.9912704623415136 -0.07907827996768232
 -0.0018156315518504144 -0.009807486315778062 0.0021078281674946652 0.0153036858405459 0.9912704623415136 -0.07907827996768232 0.006987300965859882 0.03374429240244203
0.131304710296 0.007434537291229985 0.0355930710177733 0.9906837675760071 -0.08316573788261387 0.002298914809666312 0.01606877857074909 -0.0019780276629845005 -0.010300538507004997
 0.9906837675760071 -0.08316573788261387 0.007433155762380046 0.03559338210674382 -0.001978466114044363 -0.010300497710172775 0.002297692263274846 0.0160690101614875
 0.002298914809666312 0.01606877857074909 -0.001978466114044363 -0.010300497710172775 0.007434478371924835 0.03559133553718981 0.9906836736702165 -0.08316750137071083
 -0.0019780276629845005 -0.010300538507004997 0.002297692263274846 0.0160690101614875 0.9906836736702165 -0.08316750137071083 0.0074330494235340635 0.035591693668066846
0.1375573155481 0.007794473796007501 0.03721335147721307 0.9901778945380182 -0.08702632901520505 0.002473125288200768 0.016809169340237223 -0.002123439634846426 -0.010768912107014675
 0.9901778945380182 -0.08702632901520505 0.007792959032250388 0.037213689454269214 -0.0021239203017283073 -0.010768865297084594 0.002471786638062288 0.016809427626688148
 0.002473125288200768 0.016809169340237223 -0.0021239203017283073 -0.010768865297084594 0.007794409556497931 0.037211535986456115 0.9901777914937782 -0.08702817778801618
 -0.002123439634846426 -0.010768912107014675 0.002471786638062288 0.016809427626688148 0.9901777914937782 -0.08702817778801618 0.007792843421173491 0.03721192560384452
0.1438099208003 0.00816702453626995 0.03882544181937321 0.989654339671571 -0.09087747138500867 0.0026543694254228365 0.01754674378725243 -0.0022746703944854746 -0.011234691409504968
 0.989654339671571 -0.09087747138500867 0.008165370589375455 0.038825808342996516 -0.0022751951733755724 -0.011234638045387196 0.0026529097028833728 0.017547030717327775
 0.0026543694254228365 0.01754674378725243 -0.0022751951733755724 -0.011234638045387196 0.008166954770260101 0.03882354667257868 0.9896542270240067 -0.09087940563459226
 -0.0022746703944854746 -0.011234691409504968 0.0026529097028833728 0.017547030717327775 0.9896542270240067 -0.09087940563459226 0.008165245419457975 0.03882396972480795
0.1500625260525 0.00855206317586131 0.04042921715566819 0.9891132330992276 -0.0947190792834838 0.002842587298630691 0.018281432867736997 -0.0024316615140683524 -0.011697810526884811
 0.9891132330992276 -0.0947190792834838 0.008550264126271776 0.040429613953453826 -0.002432232294976478 -0.011697750046025373 0.0028410015731798574 0.018281750453686556
 0.002842587298630691 0.018281432867736997 -0.002432232294976478 -0.011697750046025373 0.008551987681279162 0.04042724272153911 0.9891131103765484 -0.09472109920995077
 -0.0024316615140683524 -0.011697810526884811 0.0028410015731798574 0.018281750453686556 0.9891131103765484 -0.09472109920995077 0.008550129125946741 0.040427701234701206
0.15631513130469998 0.008949462540614114 0.04202455640400684 0.9885547055396092 -0.09855106710444154 0.0030377183102839587 0.019013168666048175 -0.0025943538763597315 -0.012158204921569849
