! Created with skrf 1.8.0 (http://scikit-rf.org).
# GHz S RI R 50.0 
!freq ReS11 ImS11 ReS12 ImS12 ReS13 ImS13
! ReS14 ImS14
! ReS21 ImS21 ReS22 ImS22 ReS23 ImS23
! ReS24 ImS24
! ReS31 ImS31 ReS32 ImS32 ReS33 ImS33
! ReS34 ImS34
! ReS41 ImS41 ReS42 ImS42 ReS43 ImS43
! ReS44 ImS44
!
0.0 0.001074472143184 0.0 0.9989255278451 0.0 4.069532561355e-05 0.0 -4.069532601256e-05 4.983740074153963e-21
 0.9989255278451 0.0 0.001074472143171 0.0 -4.069532601285e-05 4.9837400741894774e-21 4.069532561247e-05 0.0
 4.069532561355e-05 0.0 -4.069532601285e-05 4.9837400741894774e-21 0.001074472140177 0.0 0.9989255278421 0.0
 -4.069532601256e-05 4.983740074153963e-21 4.069532561247e-05 0.0 0.9989255278421 0.0 0.001074472140145 0.0
0.005 0.0011550734623507358 0.0008788168072665131 0.9988236984546656 -0.0022520571873771563 5.657405153248091e-05 0.0004534409058953839 -5.501749656147198e-05 -0.0002839042768089741
 0.9988236984546656 -0.0022520571873771563 0.0011550747724178361 0.0008788160681114138 -5.50174526203576e-05 -0.0002839042886266866 5.6572970911595614e-05 0.0004534414529320969
 5.657405153248091e-05 0.0004534409058953839 -5.50174526203576e-05 -0.0002839042886266866 0.0011550729412184463 0.0008787499032499142 0.9988236981434527 -0.0022521242515812032
 -5.501749656147198e-05 -0.0002839042768089741 5.6572970911595614e-05 0.0004534414529320969 0.9988236981434527 -0.0022521242515812032 0.001155074674668782 0.0008787488469829583
0.006252605252188 0.0011759316777077864 0.001102021767417423 0.9987972259859179 -0.002815665834208986 6.0950931315998154e-05 0.0005670362812327709 -5.893277907510357e-05 -0.0003552647534605389
 0.9987972259859179 -0.002815665834208986 0.0011759337250180685 0.0011020207937004235 -5.893271033274452e-05 -0.0003552647689406582 6.0949244561748066e-05 0.0005670369688601332
 6.0950931315998154e-05 0.0005670362812327709 -5.893271033274452e-05 -0.0003552647689406582 0.001175930926975982 0.0011019381446985747 0.9987972255636957 -0.0028157496629892895
 -5.893277907510357e-05 -0.0003552647534605389 6.0949244561748066e-05 0.0005670369688601332 0.9987972255636957 -0.0028157496629892895 0.0011759336367842728 0.0011019367661035102
0.01250521050438 0.001284097048433171 0.002227576305995852 0.9986592558176164 -0.005632350747084527 8.520836594820337e-05 0.0011344933183990063 -8.04581999809829e-05 -0.0007124319382761291
 0.9986592558176164 -0.005632350747084527 0.001284105217091194 0.0022275738550438812 -8.045792456154163e-05 -0.0007124319772488559 8.520168908334773e-05 0.0011344947480950794
 8.520836594820337e-05 0.0011344933183990063 -8.045792456154163e-05 -0.0007124319772488559 0.001284094603645852 0.00222740939092895 0.998659254688689 -0.005632518145145362
 -8.04581999809829e-05 -0.0007124319382761291 8.520168908334773e-05 0.0011344947480950794 0.998659254688689 -0.005632518145145362 0.0012841054288784046 0.0022274060412272975
0.01875781575657 0.001399144632277616 0.0033696366394694102 0.9985114889703083 -0.008456967706704852 0.00011351391608172489 0.0017027912518397114 -0.00010532475390821972 -0.0010710140317028995
 0.9985114889703083 -0.008456967706704852 0.0013991629766545092 0.003369632179586316 -0.00010532413334940367 -0.0010710141045217991 0.00011349903298721672 0.0017027935100779052
 0.00011351391608172489 0.0017027912518397114 -0.00010532413334940367 -0.0010710141045217991 0.001399139552157444 0.0033693865990204793 0.9985114868548278 -0.008457218610618414
 -0.00010532475390821972 -0.0010710140317028995 0.00011349903298721672 0.0017027935100779052 0.9985114868548278 -0.008457218610618414 0.0013991638883949478 0.0033693806451831495
0.02501042100875 0.0015212484963905812 0.004526659200696675 0.9983537938565138 -0.011290942586733388 0.0001459144537341996 0.0022719909904815212 -0.0001335846698824586 -0.001430880731939528
 0.9983537938565138 -0.011290942586733388 0.0015212810550394359 0.004526652171056315 -0.0001335835651993234 -0.0014308808513118145 0.0001458882148991916 0.0022719941869187707
 0.0001459144537341996 0.0022719909904815212 -0.0001335835651993234 -0.0014308808513118145 0.0015212398326678314 0.004526326219858784 0.9983537904700073 -0.011291276947727209
 -0.0001335846698824586 -0.001430880731939528 0.0001458882148991916 0.0022719941869187707 0.9983537904700073 -0.011291276947727209 0.001521283070288693 0.004526316987566908
0.03126302626094 0.0016505749429692955 0.005697878142105671 0.9981860302766068 -0.01413491983182644 0.00018245751418688309 0.0028421016072324385 -0.00016528911679330706 -0.0017919515543407666
 0.9981860302766068 -0.01413491983182644 0.0016506257397084852 0.005697867952287457 -0.00016528738851761797 -0.0017919517353679546 0.00018241683026499648 0.002842105872960171
 0.00018245751418688309 0.0028421016072324385 -0.00016528738851761797 -0.0017919517353679546 0.0016505617467193505 0.0056974624012256616 0.9981860253361179 -0.014135337638735541
 -0.00016528911679330706 -0.0017919515543407666 0.00018241683026499648 0.002842105872960171 0.9981860253361179 -0.014135337638735541 0.0016506292720634187 0.005697449174201052
0.037515631513130004 0.001787286781210987 0.00688281571259504 0.9980080537468148 -0.01698925204549301 0.00022319085563074034 0.0034131122598653617 -0.00020048860366764739 -0.0021541639000275956
 0.9980080537468148 -0.01698925204549301 0.0017873598255454214 0.00688280174218858 -0.00020048611185997337 -0.002154164160226058 0.00022313269441624384 0.0034131177464440513
 0.00022319085563074034 0.0034131122598653617 -0.00020048611185997337 -0.002154164160226058 0.0017872680989819826 0.0068823174150520515 0.9980080469666517 -0.016989753297343136
 -0.00020048860366764739 -0.0021541639000275956 0.00022313269441624384 0.0034131177464440513 0.9980080469666517 -0.016989753297343136 0.0017873652950158379 0.0068822994344878655
0.043768236765320004 0.0019315449711154932 0.008081133284325567 0.9978197171993496 -0.019854148924087246 0.000268162262407776 0.003985001905752529 -0.00023923313675995895 -0.002517463329642393
 0.9978197171993496 -0.019854148924087246 0.0019316442584539904 0.00808111488261725 -0.00023922974105595053 -0.0025174636889863287 0.000268083647364139 0.0039850087844474375
 0.000268162262407776 0.003985001905752529 -0.00023922974105595053 -0.0025174636889863287 0.0019315198487103824 0.008080552649483097 0.9978197082942665 -0.01985473363742652
 -0.00023923313675995895 -0.002517463329642393 0.000268083647364139 0.0039850087844474375 0.9978197082942665 -0.01985473363742652 0.0019316520951321028 0.008080529113494444
0.050020842017509996 0.002083509406432121 0.00929256976108602 0.9976208718227088 -0.022729738807691736 0.0003174194359670901 0.0045577433046992116 -0.00028157228868343784 -0.0028817995488485933
 0.9976208718227088 -0.022729738807691736 0.0020836389183140212 0.00929254624676385 -0.00028156784834336857 -0.00288180002979813 0.0003173174455361773 0.00455775176583559
 0.0003174194359670901 0.0045577433046992116 -0.00028156784834336857 -0.00288180002979813 0.00208347688605474 0.009291907029697765 0.997620860504581 -0.022730407011448926
 -0.00028157228868343784 -0.0028817995488485933 0.0003173174455361773 0.00455775176583559 0.997620860504581 -0.022730407011448926 0.0020836495593021176 0.009291877092800686
0.055454545454549996 0.002221953202609498 0.01035583204411642 0.9974394181712494 -0.02523745844593422 0.00036374291118753126 0.0050561403054032745 -0.0003213237623829467 -0.003199223352753858
 0.9974394181712494 -0.02523745844593422 0.0022221122029855455 0.010355803509549243 -0.0003213182996463212 -0.003199223959581947 0.000363618276666475 0.005056150310634831
 0.00036374291118753126 0.0050561403054032745 -0.0003213182996463212 -0.003199223959581947 0.0022219134741095895 0.010355098182631412 0.9974394045212346 -0.025238199236640422
 -0.0003213237623829467 -0.003199223352753858 0.000363618276666475 0.005056150310634831 0.9974394045212346 -0.025238199236640422 0.0022221256430807732 0.01035506196230752
0.056273447269699996 0.0022433393239130214 0.010516911371944953 0.9974113675288772 -0.02561609884515093 0.00037100992340447934 0.005131304985537081 -0.0003275552294653294 -0.003247124430317744
 0.9974113675288772 -0.02561609884515093 0.0022435030276554795 0.010516882032880037 -0.00032754960339418683 -0.0032471250578554422 0.00037088169074033823 0.0051313152378810725
 0.00037100992340447934 0.005131304985537081 -0.00032754960339418683 -0.0032471250578554422 0.002243298445976269 0.010516166808227234 0.9974113535081719 -0.025616850578940854
 -0.0003275552294653294 -0.003247124430317744 0.00037088169074033823 0.0051313152378810725 0.9974113535081719 -0.025616850578940854 0.0022435169189410943 0.010516129580863572
0.06252605252188 0.0024111935409082508 0.011753975047295305 0.9971910532511827 -0.028513271576764594 0.0004289810649642395 0.005705652315944356 -0.0003772307379251468 -0.0036133909329335127
 0.9971910532511827 -0.028513271576764594 0.0024113953898028694 0.011753939140237766 -0.0003772237847198087 -0.0036133917345959254 0.0004288237780799134 0.005705664586090755
 0.0004289810649642395 0.005705652315944356 -0.0003772237847198087 -0.0036133917345959254 0.00241114334474153 0.011753148937114299 0.9971910362367541 -0.028514106892866122
 -0.0003772307379251468 -0.0036133909329335127 0.0004288237780799134 0.005705664586090755 0.9971910362367541 -0.028514106892866122 0.0024114129868605077 0.011753103485152913
0.06877865777407 0.002587230595456067 0.013003598523625573 0.9969597771448083 -0.031421274788348226 0.000491379951624088 0.006280748146570717 -0.00043064720244376616 -0.0039805524472470806
 0.9969597771448083 -0.031421274788348226 0.0025874745283976717 0.013003555274003363 -0.0004306387804381863 -0.003980553453156022 0.0004911908536243172 0.006280762678341591
 0.000491379951624088 0.006280748146570717 -0.0004306387804381863 -0.003980553453156022 0.0025871701180549046 0.013002691176736862 0.9969597568421885 -0.03142219374979839
 -0.00043064720244376616 -0.0039805524472470806 0.0004911908536243172 0.006280762678341591 0.9969597568421885 -0.03142219374979839 0.0025874962946727596 0.013002636521010339
0.07503126302626001 0.002771608830690943 0.014265634056217221 0.9967173867329677 -0.034340107757938304 0.0005582533894854429 0.006856553207084754 -0.0004878526141634216 -0.004348562389666798
 0.9967173867329677 -0.034340107757938304 0.0027718987720606048 0.014265582657879774 -0.00048784258144523115 -0.004348563632565329 0.0005580297790861455 0.006856570260912836
 0.0005582533894854429 0.006856553207084754 -0.00048784258144523115 -0.004348563632565329 0.002771537108373967 0.014264645804286658 0.9967173628457462 -0.0343411104408019
 -0.0004878526141634216 -0.004348562389666798 0.0005580297790861455 0.006856570260912836 0.9967173628457462 -0.0343411104408019 0.002771925180768307 0.014264580920092886
0.08128386827845 0.0029644864449390853 0.015539944242663388 0.9964637290208305 -0.03726975539210192 0.000629647867145651 0.007433026379507099 -0.000548894556592578 -0.004717373920069538
 0.9964637290208305 -0.03726975539210192 0.0029648263044001165 0.015539883857691445 -0.0005488827710874516 -0.004717375435348167 0.0006293870992051158 0.0074330462318193645
 0.000629647867145651 0.007433026379507099 -0.0005488827710874516 -0.004717375435348167 0.002964402513096091 0.01553887544641241 0.9964637012494412 -0.03727084187853856
 -0.000548894556592578 -0.004717373920069538 0.0006293870992051158 0.0074330462318193645 0.9964637012494412 -0.03727084187853856 0.002964857837759264 0.015538799263128403
0.08753647353064001 0.003166021518823366 0.016826399133758444 0.9961986505869982 -0.0402101910756231 0.0007056095261620349 0.008010124874711868 -0.000613820191448459 -0.005086939757016925
 0.9961986505869982 -0.0402101910756231 0.003166415191027233 0.016826328892182624 -0.0006138065109342909 -0.0050869415827469455 0.0007053090123854833 0.008010147817280709
 0.0007056095261620349 0.008010124874711868 -0.0006138065109342909 -0.0050869415827469455 0.003165924412433099 0.016825250176033237 0.9961986186286408 -0.04021136146112522
 -0.000613820191448459 -0.005086939757016925 0.0007053090123854833 0.008010147817280709 0.9961986186286408 -0.04021136146112522 0.0031664523408702727 0.016825161576571053
0.09378907878283 0.0033763720272206076 0.01812487416110166 0.9959219976608661 -0.043161378705198414 0.0007861841326048724 0.00858780436544842 -0.0006826762427515796 -0.0054572120372403205
 0.9959219976608661 -0.043161378705198414 0.0033768233915901142 0.018124793160744248 -0.0006826605249054137 -0.005457214214206263 0.0007858413422855556 0.008587830704746674
 0.0007861841326048724 0.00858780436544842 -0.0006826605249054137 -0.005457214214206263 0.0033762607812893282 0.018123645451519073 0.9959219612095258 -0.0431626330941289
 -0.0006826762427515796 -0.0054572120372403205 0.0007858413422855556 0.008587830704746674 0.9959219612095258 -0.0431626330941289 0.003376866659625771 0.018123543271923895
0.100041684035 0.003595695839837773 0.0194352486283163 0.9956336161906718 -0.046123274160202676 0.0008714170496564631 0.009166019080075501 -0.0007555089792265633 -0.005828142215279911
 0.9956336161906718 -0.046123274160202676 0.0035962087602434407 0.019435155934554506 -0.0007554910816888496 -0.005828144787003181 0.0008710295104664373 0.009166049136590455
 0.0008714170496564631 0.009166019080075501 -0.0007554910816888496 -0.005828144787003181 0.0035955694894462243 0.019433940600812095 0.9956335749364718 -0.046124612668529824
 -0.0007555089792265633 -0.005828142215279911 0.0008710295104664373 0.009166049136590455 0.9956335749364718 -0.046124612668529824 0.0035962586578071054 0.019433823629811102
0.1059090909091 0.0038098096274005074 0.02067561336860699 0.9953521963647507 -0.04891239218276924 0.0009556758166420083 0.009709057062264048 -0.0008275123279800822 -0.006176775289510217
 0.9953521963647507 -0.04891239218276924 0.003810383811728075 0.020675508822694543 -0.0008274922555583796 -0.006176778273724161 0.0009552440896286713 0.009709090910356091
 0.0009556758166420083 0.009709057062264048 -0.0008274922555583796 -0.006176778273724161 0.0038096682263632398 0.020674231328532022 0.9953521503183416 -0.04891380974161132
 -0.0008275123279800822 -0.006176775289510217 0.0009552440896286713 0.009709090910356091 0.9953521503183416 -0.04891380974161132 0.0038104404047266003 0.02067409933319912
0.1062942892872 0.003824150713606975 0.020757404559138524 0.9953333519039145 -0.04909582641757805 0.0009613532113524164 0.009744721870663425 -0.0008323641949038812 -0.00619968098961025
 0.9953333519039145 -0.04909582641757805 0.0038247290381675635 0.020757299204682715 -0.0008323439753159869 -0.006199684002385505 0.0009609185102595387 0.009744755978210794
 0.0009613532113524164 0.009744721870663425 -0.0008323439753159869 -0.006199684002385505 0.0038240082947909454 0.020756017674233882 0.9953333055330641 -0.0490972491707894
 -0.0008323641949038812 -0.00619968098961025 0.0009609185102595387 0.009744755978210794 0.9953333055330641 -0.0490972491707894 0.0038247860869698265 0.020755884652797867
0.11254689453939999 0.00406189427994798 0.022091225828186453 0.995021050364092 -0.05207897838486038 0.0010560370960539978 0.010323864268322807 -0.0009132871894366986 -0.006571778242482476
 0.995021050364092 -0.05207897838486038 0.00406254184048935 0.022091106812891326 -0.0009132645054765181 -0.006571781745403881 0.0010555528801858925 0.010323902773319443
 0.0010560370960539978 0.010323864268322807 -0.0009132645054765181 -0.006571781745403881 0.004061734829740144 0.022089760572995915 0.9950209985587445 -0.052080485518222315
 -0.0009132871894366986 -0.006571778242482476 0.0010555528801858925 0.010323902773319443 0.9950209985587445 -0.052080485518222315 0.004062606572643003 0.02208961019389152
0.11879949979160001 0.004309084025671546 0.023436597475944777 0.9946965570225755 -0.05507266755001754 0.0011555127006959585 0.01090339652377482 -0.0009983227469340756 -0.006944382995425311
 0.9946965570225755 -0.05507266755001754 0.004309804637613516 0.023436463766615054 -0.0009982974563811954 -0.006944387040411309 0.0011549766783311409 0.010903439784515934
 0.0011555127006959585 0.01090339652377482 -0.0009982974563811954 -0.006944387040411309 0.004308906582607273 0.02343505436229341 0.9946964994599811 -0.05507425921060525
 -0.0009983227469340756 -0.006944382995425311 0.0011549766783311409 0.010903439784515934 0.9946964994599811 -0.05507425921060525 0.00430987759577076 0.02343488526965401
0.1250521050438 0.004565877271910647 0.024793405161755946 0.9943597172688083 -0.058076826494187064 0.0012598235148789398 0.01148326764035469 -0.0010875151144344797 -0.007317443373335485
 0.9943597172688083 -0.058076826494187064 0.004566674733845946 0.02479325569193126 -0.0010874870752151217 -0.007317448015158645 0.0012592334564254996 0.011483316026230199
 0.0012598235148789398 0.01148326764035469 -0.0010874870752151217 -0.007317448015158645 0.0045656808763263 0.024791784730856522 0.9943596536217125 -0.05807850283646185
 -0.0010875151144344797 -0.007317443373335485 0.0012592334564254996 0.011483316026230199 0.9943596536217125 -0.05807850283646185 0.004566756471378969 0.024791595519746846
0.131304710296 0.004832431148499891 0.026161534733401638 0.9940103764785587 -0.06109138328895868 0.001369012495246539 0.012063425399904735 -0.001180907979492622 -0.00769090657666961
 0.9940103764785587 -0.06109138328895868 0.004833309241770527 0.02616136840317716 -0.0011808770497379682 -0.007690911872978888 0.0013683662342476317 0.012063479290625368
 0.001369012495246539 0.012063425399904735 -0.0011808770497379682 -0.007690911872978888 0.004832214843216304 0.026159837550835067 0.9940103064144812 -0.06109314447989528
 -0.001180907979492622 -0.00769090657666961 0.0013683662342476317 0.012063479290625368 0.9940103064144812 -0.06109314447989528 0.004833400323153424 0.026159626766875537
0.1375573155481 0.005038572181337888 0.027361396484660187 0.9937187242795381 -0.06393674918542912 0.0014667428307747164 0.0126248965305831 -0.001262164315015582 -0.008045804257230251
 0.9937187242795381 -0.06393674918542912 0.0050395354067560814 0.027361217506695214 -0.001262130426777272 -0.008045810209440672 0.0014660343143520333 0.012624955722640463
 0.0014667428307747164 0.0126248965305831 -0.001262130426777272 -0.008045810209440672 0.0050383356160344575 0.02735962279817728 0.9937186475114403 -0.0639385953205202
 -0.001262164315015582 -0.008045804257230251 0.0014660343143520333 0.012624955722640463 0.9937186475114403 -0.0639385953205202 0.00503963570991431 0.027359394825547632
0.1438099208003 0.005251606089989577 0.02855634693371788 0.9934174462475124 -0.06677634164388863 0.0015684044943862024 0.01318497013073694 -0.0013466756166982223 -0.00839942170923538
 0.9934174462475124 -0.06677634164388863 0.005252658326257838 0.02855615464703678 -0.0013466386416809857 -0.00839942837103884 0.0015676309448342512 0.013185035006390327
 0.0015684044943862024 0.01318497013073694 -0.0013466386416809857 -0.00839942837103884 0.005251348420920931 0.02855449730477768 0.993417362444559 -0.0667782728856404
 -0.0013466756166982223 -0.00839942170923538 0.0015676309448342512 0.013185035006390327 0.993417362444559 -0.0667782728856404 0.005252768307058198 0.028554251173937832
0.1500625260525 0.005471473943610154 0.029746328483538743 0.9931066036108512 -0.06961013330663236 0.0016739716613130874 0.01374361806150241 -0.0014344167433647474 -0.008751731082815578
 0.9931066036108512 -0.06961013330663236 0.005472619060490892 0.029746122198134987 -0.0014343765543133097 -0.008751738509988106 0.0016731303157117145 0.013743689018781445
 0.0016739716613130874 0.01374361806150241 -0.0014343765543133097 -0.008751738509988106 0.005471194336534764 0.029744403493529314 0.9931065124381474 -0.06961214982641994
 -0.0014344167433647474 -0.008751731082815578 0.0016731303157117145 0.013743689018781445 0.9931065124381474 -0.06961214982641994 0.00547273917726026 0.02974413819502781
0.15631513130469998 0.005698116571026315 0.030931285568980536 0.9927862577117629 -0.07243809615432663 0.0017834183112430616 0.014300812516726076 -0.0015253623447034714 -0.009102705035442818
