! Created with skrf 1.8.0 (http://scikit-rf.org).
# GHz S RI R 50.0 
!freq ReS11 ImS11 ReS12 ImS12 ReS13 ImS13
! ReS14 ImS14
! ReS21 ImS21 ReS22 ImS22 ReS23 ImS23
! ReS24 ImS24
! ReS31 ImS31 ReS32 ImS32 ReS33 ImS33
! ReS34 ImS34
! ReS41 ImS41 ReS42 ImS42 ReS43 ImS43
! ReS44 ImS44
!
0.0 0.001696135857317 0.0 0.9983038641199 0.0 6.560706954821e-05 0.0 -6.56070691038e-05 8.034548717940789e-21
 0.9983038641199 0.0 0.001696135857318 0.0 -6.560706910461e-05 8.034548718039985e-21 6.560706954835e-05 0.0
 6.560706954821e-05 0.0 -6.560706910461e-05 8.034548718039985e-21 0.001696135868715 0.0 0.9983038641313 0.0
 -6.56070691038e-05 8.034548717940789e-21 6.560706954835e-05 0.0 0.9983038641313 0.0 0.001696135868671 0.0
0.005 0.0018253613927681413 0.0013885230548228592 0.9981402957010399 -0.0035523158806864117 9.203529860128618e-05 0.0007148186093310237 -8.934918238926404e-05 -0.0004500058102595535
 0.9981402957010399 -0.0035523158806864117 0.001825384724886024 0.0013885094757923773 -8.934872338188884e-05 -0.0004500055365488095 9.188507498718217e-05 0.0007148757646088351
 9.203529860128618e-05 0.0007148186093310237 -8.934872338188884e-05 -0.0004500055365488095 0.001825360854312589 0.0013884561500821194 0.9981402953231603 -0.003552382944731814
 -8.934918238926404e-05 -0.0004500058102595535 9.188507498718217e-05 0.0007148757646088351 0.9981402953231603 -0.003552382944731814 0.0018253845177567674 0.001388442262344328
0.006252605252188 0.0018593940340404839 0.001741089481948921 0.9980969230018115 -0.00444123995855263 9.967319730789849e-05 0.0008938633593284298 -9.611456719408491e-05 -0.000563078563577138
 0.9980969230018115 -0.00444123995855263 0.0018594305062138328 0.0017410722614583684 -9.611385232337458e-05 -0.0005630782278909342 9.943848748161819e-05 0.0008939376210287968
 9.967319730789849e-05 0.0008938633593284298 -9.611385232337458e-05 -0.0005630782278909342 0.0018593932739306741 0.0017410058656000238 0.9980969224930988 -0.004441323786060374
 -9.611456719408491e-05 -0.000563078563577138 9.943848748161819e-05 0.0008939376210287968 0.9980969224930988 -0.004441323786060374 0.0018594302649864245 0.001740988244658939
0.01250521050438 0.002039368403956635 0.003518384812013868 0.9978659296031785 -0.008883109827204114 0.00014393594452365505 0.0017880359104920688 -0.00013483346543052678 -0.0011287845511006012
 0.9978659296031785 -0.008883109827204114 0.0020395140330912607 0.0035183478825843583 -0.00013483064063618715 -0.0011287839520329574 0.0001429999759235285 0.00178821501293232
 0.00014393594452365505 0.0017880359104920688 -0.00013483064063618715 -0.0011287839520329574 0.0020393659277789292 0.003518217973990624 0.9978659281352112 -0.008883277243081257
 -0.00013483346543052678 -0.0011287845511006012 0.0001429999759235285 0.00178821501293232 0.9978659281352112 -0.008883277243081257 0.0020395136461208905 0.003518180090518752
0.01875781575657 0.0022364821984915215 0.00532068918756283 0.9976105754182206 -0.013336383730413825 0.00019850168297950402 0.002683081423743442 -0.00018188877465918115 -0.0016962928563203715
 0.9976105754182206 -0.013336383730413825 0.002236809424764167 0.005320629865348207 -0.00018188246491547536 -0.0016962920843179247 0.00019639913830606938 0.0026834023539761167
 0.00019850168297950402 0.002683081423743442 -0.00018188246491547536 -0.0016962920843179247 0.002236477049519258 0.005320439418021231 0.9976105725403245 -0.013336634689822722
 -0.00018188877465918115 -0.0016962928563203715 0.00019639913830606938 0.0026834023539761167 0.9976105725403245 -0.013336634689822722 0.0022368090043354094 0.005320378413624069
0.02501042100875 0.0024511442942294426 0.007145445856827911 0.9973305389454351 -0.017803181717137035 0.00026347852633843035 0.0035790082797575286 -0.0002374008906355173 -0.002265326298764198
 0.9973305389454351 -0.017803181717137035 0.002451725411791067 0.007145361289651864 -0.00023738973420150806 -0.0022653254636123147 0.00025974394468759225 0.0035795142388004276
 0.00026347852633843035 0.0035790082797575286 -0.00023738973420150806 -0.0022653254636123147 0.0024511355123919606 0.0071451134866279626 0.997330534201734 -0.017803516224794348
 -0.0002374008906355173 -0.002265326298764198 0.00025974394468759225 0.0035795142388004276 0.997330534201734 -0.017803516224794348 0.0024517250834772907 0.007145026312618751
0.03126302626094 0.0026837466218198286 0.00899131987237414 0.9970254834273717 -0.02228438799638544 0.00033897479905534985 0.004475742831144242 -0.00030148641510569505 -0.0028356821873161946
 0.9970254834273717 -0.02228438799638544 0.0026846538217802558 0.008991207045465206 -0.0003014690613034829 -0.002835681418335497 0.00033314216224089225 0.004476483272206903
 0.00033897479905534985 0.004475742831144242 -0.0003014690613034829 -0.002835681418335497 0.00268373324742767 0.008990905279062138 0.9970254763587484 -0.022284806101080676
 -0.00030148641510569505 -0.0028356821873161946 0.00033314216224089225 0.004476483272206903 0.9970254763587484 -0.022284806101080676 0.002684653728135656 0.008990788701777878
0.037515631513130004 0.0029346722627833746 0.010857426268599726 0.9966950652672844 -0.026780422700252698 0.0004250978826772852 0.005373178576997236 -0.00037425896586942354 -0.003407183157405057
 0.9966950652672844 -0.026780422700252698 0.0029359776640937117 0.010857282007270335 -0.00037423407415736095 -0.003407182603558223 0.00041670043967602 0.005374209267794759
 0.0004250978826772852 0.005373178576997236 -0.00037423407415736095 -0.003407182603558223 0.0029346533375941308 0.010856929890299875 0.9966950554092977 -0.0267809244813253
 -0.00037425896586942354 -0.003407183157405057 0.00041670043967602 0.005374209267794759 0.9966950554092977 -0.0267809244813253 0.002935977964369028 0.010856780493498829
0.043768236765320004 0.003204298566028851 0.012743095188969648 0.9963389374690683 -0.03129147668545402 0.0005219536654197388 0.006271191132901473 -0.00045582945059338036 -0.003979662220060696
 0.9963389374690683 -0.03129147668545402 0.003206074239915948 0.012742916160138782 -0.00045579569007904176 -0.003979662050031417 0.0005105238584055772 0.00627257422523298
 0.0005219536654197388 0.006271191132901473 -0.00045579569007904176 -0.003979662050031417 0.003204273134924667 0.012742517522682626 0.9963389243511304 -0.03129206225497717
 -0.00045582945059338036 -0.003979662220060696 0.0005105238584055772 0.00627257422523298 0.9963389243511304 -0.03129206225497717 0.0032060751108004245 0.012742331708673189
0.050020842017509996 0.0034929985801703755 0.014647774811251126 0.9959567513991722 -0.03581760853589651 0.0006296462014322493 0.007169644419516111 -0.0005463061522171639 -0.0045529565977765795
 0.9959567513991722 -0.03581760853589651 0.0034953165723958365 0.014647557524027254 -0.0005462622013388211 -0.0045529570000429195 0.000614715646723185 0.007171448521753563
 0.0006296462014322493 0.007169644419516111 -0.0005462622013388211 -0.0045529570000429195 0.0034929656920574797 0.014647116414081934 0.9959567345432008 -0.035818278037913785
 -0.0005463061522171639 -0.0045529565977765795 0.000614715646723185 0.007171448521753563 0.9959567345432008 -0.035818278037913785 0.0034953182086776393 0.014646890403862797
0.055454545454549996 0.0037596648602059644 0.01631806299962724 0.995603186405134 -0.03976318063582426 0.0007321143024425615 0.007950673250953484 -0.0006322482095406629 -0.00505170343529433
 0.995603186405134 -0.03976318063582426 0.003762512648984783 0.016317809507042418 -0.000632194336870727 -0.005051704503378467 0.0007137604751037205 0.007952904011782594
 0.0007321143024425615 0.007950673250953484 -0.000632194336870727 -0.005051704503378467 0.0037596247240119715 0.01631733495075058 0.9956031659058273 -0.03976392321289832
 -0.0006322482095406629 -0.00505170343529433 0.0007137604751037205 0.007952904011782594 0.9956031659058273 -0.03976392321289832 0.003762515123244152 0.016317070798733357
0.056273447269699996 0.003801141776475772 0.016570983718798456 0.9955481578442714 -0.04035879212217218 0.0007482774664777794 0.008068393701279306 -0.0006457947270962442 -0.0051269047161753446
 0.9955481578442714 -0.04035879212217218 0.003804074127762764 0.016570724524366785 -0.0006457392735820235 -0.005126905899056593 0.0007293769675445721 0.008070693951921023
 0.0007482774664777794 0.008068393701279306 -0.0006457392735820235 -0.005126905899056593 0.0038011004863778403 0.016570245215083095 0.9955481367637216 -0.04035954572576268
 -0.0006457947270962442 -0.0051269047161753446 0.0007293769675445721 0.008070693951921023 0.9955481367637216 -0.04035954572576268 0.0038040767430996105 0.01656997504798529
0.06252605252188 0.0041290944204330346 0.01851228470269166 0.99511280772264 -0.04491494273516998 0.0008779471573155345 0.00896728727211474 -0.0007543981620918141 -0.005701344555017443
 0.99511280772264 -0.04491494273516998 0.004132713186339991 0.018511979793460056 -0.00075432990290856 -0.005701346746728825 0.0008546067405739074 0.008970165413504714
 0.0008779471573155345 0.00896728727211474 -0.00075432990290856 -0.005701346746728825 0.004129043791160312 0.018511466778760755 0.9951127819217283 -0.04491578064010617
 -0.0007543981620918141 -0.005701344555017443 0.0008546067405739074 0.008970165413504714 0.9951127819217283 -0.04491578064010617 0.004132717014640372 0.018511148311187758
0.06877865777407 0.00447721975078794 0.020471269162510762 0.9946503526084056 -0.04948593262768934 0.001018752519829224 0.009866167465063537 -0.0008722167046975873 -0.006276112682050216
 0.9946503526084056 -0.04948593262768934 0.00448159702130776 0.020470914570535105 -0.0008721343461909044 -0.006276116130744789 0.0009905014855510037 0.00986971191681104
 0.001018752519829224 0.009866167465063537 -0.0008721343461909044 -0.006276116130744789 0.004477158853537511 0.02047037257124389 0.9946503215800029 -0.04948685506007605
 -0.0008722167046975873 -0.006276112682050216 0.0009905014855510037 0.00986971191681104 0.9946503215800029 -0.04948685506007605 0.004481602315859294 0.020470001474861305
0.07503126302626001 0.004845878046087603 0.022447547206331873 0.9941604451481005 -0.05407160086391397 0.0011707881911755293 0.010764871302817183 -0.0009993477791183762 -0.006851043653034728
 0.9941604451481005 -0.05407160086391397 0.004851085964293514 0.022447138801225456 -0.000999250037096442 -0.006851048626841416 0.0011371551762513678 0.010769177234598715
 0.0011707881911755293 0.010764871302817183 -0.000999250037096442 -0.006851048626841416 0.004845805963853685 0.02244657276337128 0.9941604083741772 -0.05407260808004879
 -0.0009993477791183762 -0.006851043653034728 0.0011371551762513678 0.010769177234598715 0.9941604083741772 -0.05407260808004879 0.00485109300073847 0.022446144522672518
0.08128386827845 0.00523542661826607 0.024440741079683886 0.9936427394086458 -0.05867175984773327 0.001334146051741849 0.01166323094776228 -0.0011358858920768498 -0.00742596961965059
 0.9936427394086458 -0.05867175984773327 0.005241537399522424 0.024440274565663767 -0.0011357714919777845 -0.007425976406703539 0.0012946591019932468 0.011668400351170847
 0.001334146051741849 0.01166323094776228 -0.0011357714919777845 -0.007425976406703539 0.005235342446021618 0.024439689668199704 0.993642696357718 -0.05867285212955434
 -0.0011358858920768498 -0.00742596961965059 0.0012946591019932468 0.011668400351170847 0.993642696357718 -0.05867285212955434 0.005241546475026583 0.024439199577253583
0.08753647353064001 0.005646219759147721 0.026450480620227337 0.9930968911837654 -0.06328619983395019 0.0015089150844626194 0.012561074017103043 -0.001281922531030361 -0.008000720079906983
 0.9930968911837654 -0.06328619983395019 0.005653305710041638 0.026449951532515212 -0.0012817902081296954 -0.008000728988366264 0.0014631017342741474 0.012567215776424749
 0.0015089150844626194 0.012561074017103043 -0.0012817902081296954 -0.008000728988366264 0.005646122606433351 0.02644935318834609 0.993096841310495 -0.06328737749152627
 -0.001281922531030361 -0.008000720079906983 0.0014631017342741474 0.012567215776424749 0.993096841310495 -0.06328737749152627 0.0056533171449941085 0.02644879634702116
0.09378907878283 0.00607860865317231 0.028476400021164857 0.9925225582689944 -0.06791469213916632 0.0016951812370508714 0.01345822382664541 -0.0014375460589012212 -0.00857512170763884
 0.9925225582689944 -0.06791469213916632 0.006086742190098115 0.028475803721688456 -0.0014373945584675567 -0.008575133065717892 0.0016425685954245819 0.013465453788459402
 0.0016951812370508714 0.01345822382664541 -0.0014373945584675567 -0.008575133065717892 0.006078497645653805 0.028475197583714376 0.9925225010132149 -0.06791595550894679
 -0.0014375460589012212 -0.00857512170763884 0.0016425685954245819 0.013465453788459402 0.9925225010132149 -0.06791595550894679 0.006086756329255494 0.028474568892980036
0.100041684035 0.006532941267235618 0.030518135458494654 0.9919194007203219 -0.07255699149829556 0.0018930272884999625 0.014354499581455044 -0.0016028416038014522 -0.009148998243186211
 0.9919194007203219 -0.07255699149829556 0.006542194936177384 0.030517467130738815 -0.00160266968144785 -0.009149012399138744 0.001833142130984483 0.014362940622767823
 0.0018930272884999625 0.014354499581455044 -0.00160266968144785 -0.009149012399138744 0.006532815548518219 0.030516859097702517 0.9919193355053345 -0.0725583409422093
 -0.0016028416038014522 -0.009148998243186211 0.001833142130984483 0.014362940622767823 0.9919193355053345 -0.0725583409422093 0.006542212148648507 0.030516153254445254
0.1059090909091 0.006979548840694825 0.0324481482277453 0.9913268850233081 -0.07692562293993066 0.00208928745661135 0.01519459985020907 -0.0017668234295283199 -0.0096868832960565
 0.9913268850233081 -0.07692562293993066 0.006989919746053816 0.03244740776449571 -0.0017666312209928276 -0.009686900412108998 0.002022147209506163 0.015204295437708081
 0.00208928745661135 0.01519459985020907 -0.0017666312209928276 -0.009686900412108998 0.006979408555840143 0.032446803537470974 0.9913268117995123 -0.0769270535115666
 -0.0017668234295283199 -0.0096868832960565 0.002022147209506163 0.015204295437708081 0.9913268117995123 -0.0769270535115666 0.006989940201200222 0.03244602028452478
0.1062942892872 0.007009562221986318 0.032575323322453414 0.9912870810959407 -0.07721283782599218 0.0021025327171522953 0.015249716531601504 -0.0017778909475064976 -0.00972217042709049
 0.9912870810959407 -0.07721283782599218 0.007020008716838929 0.03257457796568745 -0.0017776973693690026 -0.00972218774922228 0.00203490158225086 0.015259498626529797
 0.0021025327171522953 0.015249716531601504 -0.0017776973693690026 -0.00972218774922228 0.007009420955477986 0.03257397418362827 0.9912870073277327 -0.07721427373561034
 -0.0017778909475064976 -0.00972217042709049 0.00203490158225086 0.015259498626529797 0.9912870073277327 -0.07721427373561034 0.00702002939761773 0.03257318567457775
0.11254689453939999 0.007508812650590199 0.034647598860334784 0.9906252646899215 -0.08188195757661551 0.0023237735709283336 0.016143686107982495 -0.0019627724112452217 -0.010294455961994185
 0.9906252646899215 -0.08188195757661551 0.007520524832460938 0.034646771282961626 -0.0019625559542336747 -0.01029447683866183 0.0022479228611050933 0.016154946392822014
 0.0023237735709283336 0.016143686107982495 -0.0019625559542336747 -0.01029447683866183 0.007508655021072671 0.034646178156937955 0.9906251817555667 -0.08188348036772798
 -0.0019627724112452217 -0.010294455961994185 0.0022479228611050933 0.016154946392822014 0.9906251817555667 -0.08188348036772798 0.007520549403276285 0.03464530125177142
0.11879949979160001 0.008031030045922838 0.0367345951406068 0.9899336197576863 -0.08656406479293641 0.002556822338768892 0.01703621604094297 -0.002157560740485418 -0.010865669500211542
 0.9899336197576863 -0.08656406479293641 0.008044080962642561 0.03673367995269348 -0.0021573201926151694 -0.01086569433979905 0.0024722784255977676 0.01704909887751845
 0.002556822338768892 0.01703621604094297 -0.0021573201926151694 -0.01086569433979905 0.008030855262067212 0.03673310415218619 0.9899335270250478 -0.08656567490725474
 -0.002157560740485418 -0.010865669500211542 0.0024722784255977676 0.01704909887751845 0.9899335270250478 -0.08656567490725474 0.00804410987311924 0.03673213289596465
0.1250521050438 0.008576548100919975 0.03883594223249757 0.9892118177370947 -0.0912588619493531 0.0028017478235298444 0.017927110471716756 -0.0023623269888768494 -0.011435622647007902
 0.9892118177370947 -0.0912588619493531 0.008591011006005449 0.03883493383749566 -0.0023620611495477916 -0.011435651877897543 0.0027080371563386048 0.017941767508923148
 0.0028017478235298444 0.017927110471716756 -0.0023620611495477916 -0.011435651877897543 0.00857635539646933 0.038834382303314326 0.9892117145526473 -0.09126055985539144
 -0.0023623269888768494 -0.011435622647007902 0.0027080371563386048 0.017941767508923148 0.9892117145526473 -0.09126055985539144 0.00859104473401157 0.03883331050806479
0.131304710296 0.009145696541253136 0.04095126656015994 0.9884595334648648 -0.09596604063124732 0.0030586150160035073 0.01881617005524061 -0.002577138401563268 -0.012004123981218438
 0.9884595334648648 -0.09596604063124732 0.00916164491313414 0.0409501591458601 -0.0025768460817984645 -0.012004158051773992 0.002955264234056654 0.018832760288685073
 0.0030586150160035073 0.01881617005524061 -0.0025768460817984645 -0.012004158051773992 0.009145485177352149 0.040949639100715106 0.9884594191530779 -0.09596782682225777
 -0.002577138401563268 -0.012004123981218438 0.002955264234056654 0.018832760288685073 0.9884594191530779 -0.09596782682225777 0.009161683966435559 0.04094846033617509
0.1375573155481 0.009613200320470009 0.04280533637767121 0.9878021022931233 -0.10041028349824019 0.0032969159061198433 0.019676553325636774 -0.002771614095126425 -0.012544271134618494
 0.9878021022931233 -0.10041028349824019 0.009630714120188451 0.04280414655273282 -0.0027712937458351235 -0.01254431012232323 0.0031836911257050976 0.01969506215203006
 0.0032969159061198433 0.019676553325636774 -0.0027712937458351235 -0.01254431012232323 0.00961297044784033 0.042803642143559376 0.9878019763269948 -0.10041215827823229
 -0.002771614095126425 -0.012544271134618494 0.0031836911257050976 0.01969506215203006 0.9878019763269948 -0.10041215827823229 0.009630757857456066 0.04280237342841056
0.1438099208003 0.0100973043429391 0.044648723549039926 0.9871212395058968 -0.10484231724393053 0.0035448243613515206 0.0205327942010742 -0.002973828218514247 -0.013080668091517927
 0.9871212395058968 -0.10484231724393053 0.01011645834563153 0.044647446631033656 -0.0029734786023110395 -0.01308071243397061 0.0034212956859101876 0.020553367914997067
 0.0035448243613515206 0.0205327942010742 -0.0029734786023110395 -0.01308071243397061 0.010097055423180297 0.044646963952424776 0.9871211012084431 -0.10484428109727509
 -0.002973828218514247 -0.013080668091517927 0.0034212956859101876 0.020553367914997067 0.9871211012084431 -0.10484428109727509 0.010116507109065516 0.04464560008544842
0.1500625260525 0.010597823825487705 0.04648124643721545 0.9864171344622554 -0.1092620033442762 0.003802245944334436 0.02138478398247026 -0.0031836900728291436 -0.013613214801787947
 0.9864171344622554 -0.1092620033442762 0.010618693056211586 0.04647987742665436 -0.00318330995918869 -0.013613264953547099 0.0036679864138697673 0.021407574216770427
 0.003802245944334436 0.02138478398247026 -0.00318330995918869 -0.013613264953547099 0.010597555357359834 0.04647942294184246 0.986416983137417 -0.10926405677374801
 -0.0031836900728291436 -0.013613214801787947 0.0036679864138697673 0.021407574216770427 0.986416983137417 -0.10926405677374801 0.010618747202612583 0.04647795838900456
0.15631513130469998 0.011114572503304984 0.04830272882670196 0.9856899776685136 -0.11366920438850261 0.004069084995771619 0.022232416013892146 -0.0034011077523535944 -0.014141813493796465
 0.9856899776685136 -0.11366920438850261 0.011137232243011087 0.0483012623960226 -0.003400695917637335 -0.014141869926231116 0.003923670636445477 0.022257579678191107
