! Created with skrf 1.8.0 (http://scikit-rf.org).
# GHz S RI R 50.0 
!freq ReS11 ImS11 ReS12 ImS12 ReS13 ImS13
! ReS14 ImS14
! ReS21 ImS21 ReS22 ImS22 ReS23 ImS23
! ReS24 ImS24
! ReS31 ImS31 ReS32 ImS32 ReS33 ImS33
! ReS34 ImS34
! ReS41 ImS41 ReS42 ImS42 ReS43 ImS43
! ReS44 ImS44
!
0.0 0.001664596953965 0.0 0.9983354030233 0.0 6.451705195835e-05 0.0 -6.451705204721e-05 7.901060128003892e-21
 0.9983354030233 0.0 0.001664596953957 0.0 -6.451705204694e-05 7.901060127970828e-21 6.451705195819e-05 0.0
 6.451705195835e-05 0.0 -6.451705204694e-05 7.901060127970828e-21 0.00166459695111 0.0 0.9983354030205 0.0
 -6.451705204721e-05 7.901060128003892e-21 6.451705195819e-05 0.0 0.9983354030205 0.0 0.001664596951119 0.0
0.005 0.0017913601087830254 0.001359408775675777 0.9981749508601052 -0.003486621818462387 9.097245302323101e-05 0.000722920701948571 -8.819548881823138e-05 -0.00045159710243059865
 0.9981749508601052 -0.003486621818462387 0.001791385818265288 0.0013593937090541602 -8.819484849806612e-05 -0.00045159654972757907 9.082333613399845e-05 0.0007229776113743026
 9.097245302323101e-05 0.000722920701948571 -8.819484849806612e-05 -0.00045159654972757907 0.0017913611056613182 0.0013594754064392936 0.9981749512244227 -0.003486554764608381
 -8.819548881823138e-05 -0.00045159710243059865 9.082333613399845e-05 0.0007229776113743026 0.9981749512244227 -0.003486554764608381 0.001791385546018541 0.0013594611834132878
0.006252605252188 0.001824715971903829 0.001704602246070795 0.9981324420062094 -0.004359112716483001 9.860759761699575e-05 0.0009039871077541717 -9.493427917056534e-05 -0.0005650760265812343
 0.9981324420062094 -0.004359112716483001 0.0018247561606822029 0.0017045830836364584 -9.493328326620159e-05 -0.0005650753438995361 9.837461886269753e-05 0.0009040610124574046
 9.860759761699575e-05 0.0009039871077541717 -9.493328326620159e-05 -0.0005650753438995361 0.0018247174618533835 0.0017046855304981483 0.9981324425069767 -0.004359028895331396
 -9.493427917056534e-05 -0.0005650760265812343 9.837461886269753e-05 0.0009040610124574046 0.9981324425069767 -0.004359028895331396 0.0018247556658076655 0.0017046674354554232
0.01250521050438 0.0020009475228011018 0.003444817995869192 0.9979062630875271 -0.008718909828194805 0.00014279868423250792 0.0018082333974084115 -0.0001334561377127441 -0.0011328264808702874
 0.9979062630875271 -0.008718909828194805 0.0020011080026400316 0.0034447763363338697 -0.00013345221887244577 -0.0011328252051771236 0.00014186968020548203 0.0018084112317373563
 0.00014279868423250792 0.0018082333974084115 -0.00013345221887244577 -0.0011328252051771236 0.002000952919939265 0.003444984224402653 0.9979062645288979 -0.008718742430726675
 -0.0001334561377127441 -0.0011328264808702874 0.00014186968020548203 0.0018084112317373563 0.9979062645288979 -0.008718742430726675 0.0020011054590006482 0.0034449448433149154
0.01875781575657 0.0021937006487564607 0.00520965916324505 0.9976565681108401 -0.013089976476888598 0.00019719509870618198 0.0027133361021017014 -0.0001802064424549636 -0.0017023996328933003
 0.9976565681108401 -0.013089976476888598 0.0021940612667111135 0.005209591398259771 -0.00018019771156275414 -0.001702397870257439 0.00019510834212906321 0.0027136541358632714
 0.00019719509870618198 0.0027133361021017014 -0.00018019771156275414 -0.001702397870257439 0.002193712367465257 0.005209908110564849 0.9976565709297273 -0.013089725586820838
 -0.0001802064424549636 -0.0017023996328933003 0.00019510834212906321 0.0027136541358632714 0.9976565709297273 -0.013089725586820838 0.0021940551123311204 0.0052098440230353635
0.02501042100875 0.002403370820874061 0.006996621583940144 0.9973830465272933 -0.017474400541340692 0.00026190350963527107 0.003619313536941533 -0.00023530442096029663 -0.002273515419071399
 0.9973830465272933 -0.017474400541340692 0.0024040112715801153 0.006996523856974925 -0.00023528901417979654 -0.002273513293969626 0.00025819720988390474 0.003619814080737512
 0.00026190350963527107 0.003619313536941533 -0.00023528901417979654 -0.002273513293969626 0.0024033912767410606 0.0069969530044873334 0.9973830511609986 -0.017474066216820704
 -0.00023530442096029663 -0.002273515419071399 0.00025819720988390474 0.003619814080737512 0.9973830511609986 -0.017474066216820704 0.002403999936724396 0.0069968605852472
0.03126302626094 0.0026303371098789136 0.008804400991273852 0.9970853728640967 -0.021873056648974716 0.0003370309266040476 0.004526098724670338 -0.0002988655506158797 -0.0028459717346727745
 0.9970853728640967 -0.021873056648974716 0.002631336979440957 0.008804269202038164 -0.0002988416250748894 -0.0028459693902090338 0.0003312428119081923 0.004526830163818574
 0.0003370309266040476 0.004526098724670338 -0.0002988416250748894 -0.0028459693902090338 0.00263036871934844 0.008804814633663205 0.9970853797497469 -0.021872638907810958
 -0.0002988655506158797 -0.0028459717346727745 0.0003312428119081923 0.004526830163818574 0.9970853797497469 -0.021872638907810958 0.0026313188855169437 0.00880469005719998
0.037515631513130004 0.002874970071233835 0.010632135181605806 0.9967632149080295 -0.02628636395110728 0.0004226835294136198 0.005433590689732545 -0.0003710023945774734 -0.003419593147676095
 0.9967632149080295 -0.02628636395110728 0.0028764088667821877 0.010631964987594581 -0.00037096812610916695 -0.003419590745589097 0.0004143506677368833 0.005434607542791496
 0.0004226835294136198 0.005433590689732545 -0.00037096812610916695 -0.003419590745589097 0.0028750152520891407 0.010632630759152242 0.9967632244842611 -0.02628586279983971
 -0.0003710023945774734 -0.003419593147676095 0.0004143506677368833 0.005434607542791496 0.9967632244842611 -0.02628586279983971 0.0028763824269766713 0.010632470001834088
0.043768236765320004 0.003137634788017701 0.01247917338578684 0.9964162370529995 -0.030714516681346064 0.0005189661117010859 0.006341670064950688 -0.0004518248907106245 -0.003994215307438314
 0.9964162370529995 -0.030714516681346064 0.0031395919612024164 0.012478960202777716 -0.00045177847245171616 -0.00399421302808045 0.0005076248333802577 0.0063430330498531464
 0.0005189661117010859 0.006341670064950688 -0.00045177847245171616 -0.00399421302808045 0.0031376959593411567 0.012479750573565516 0.9964162497603749 -0.030713932117622807
 -0.0004518248907106245 -0.003994215307438314 0.0005076248333802577 0.0063430330498531464 0.9964162497603749 -0.030713932117622807 0.0031395555810206283 0.012479549414685613
0.050020842017509996 0.0034186922706555653 0.014344980950065709 0.9960441020085854 -0.03515757940304146 0.000625981742338054 0.007250205535978016 -0.0005414404441345593 -0.004569678520963499
 0.9960441020085854 -0.03515757940304146 0.0034212472382750825 0.014344719951779576 -0.0005413800856272807 -0.004569676563253919 0.0006111676176982902 0.007251981639068848
 0.000625981742338054 0.007250205535978016 -0.0005413800856272807 -0.004569676563253919 0.0034187718509138 0.014345639389069968 0.9960441182889748 -0.035156911411028786
 -0.0005414404441345593 -0.004569678520963499 0.0006111676176982902 0.007251981639068848 0.9960441182889748 -0.035156911411028786 0.003421199314044413 0.01434539341117057
0.055454545454549996 0.0036781547564335333 0.015981304669325867 0.9957000121958577 -0.03903083154490436 0.0007277766880659128 0.008040012185177919 -0.00062654163216198 -0.005070333668996673
 0.9957000121958577 -0.03903083154490436 0.0036812937091075942 0.015980998009776367 -0.0006264677173341848 -0.005070332166737532 0.0007095667979492813 0.008042206622770746
 0.0007277766880659128 0.008040012185177919 -0.0006264677173341848 -0.005070332166737532 0.0036782522987160123 0.01598203340039022 0.9957000319423044 -0.039030091027114015
 -0.00062654163216198 -0.005070333668996673 0.0007095667979492813 0.008042206622770746 0.9957000319423044 -0.039030091027114015 0.0036812344441986174 0.015981744732726358
0.056273447269699996 0.0037185001617006485 0.01622909256434071 0.9956464718202326 -0.03961553371242273 0.0007438315215625302 0.008159057020141268 -0.0006399539342682686 -0.005145824600340515
 0.9956464718202326 -0.03961553371242273 0.0037217323250149053 0.016228778681333083 -0.0006398778608101685 -0.005145823181712659 0.0007250793708975444 0.008161319566369415
 0.0007438315215625302 0.008159057020141268 -0.0006398778608101685 -0.005145823181712659 0.0037186005694811765 0.016229831862043922 0.9956464921183483 -0.039614782261663095
 -0.0006399539342682686 -0.005145824600340515 0.0007250793708975444 0.008161319566369415 0.9956464921183483 -0.039614782261663095 0.0037216712452203178 0.016229536450441
0.06252605252188 0.004037413105168654 0.01813108654910575 0.9952230085575159 -0.044088303887430465 0.0008726143849015059 0.009068077413591951 -0.0007474676770085366 -0.005722495147930574
 0.9952230085575159 -0.044088303887430465 0.004041401867518689 0.018130714467141918 -0.0007473741291393126 -0.005722494504291303 0.0008494583108688534 0.009070906136927003
 0.0008726143849015059 0.009068077413591951 -0.0007473741291393126 -0.005722494504291303 0.0040375367574320385 0.018131906269824468 0.9952230333204009 -0.04408746894213687
 -0.0007474676770085366 -0.005722495147930574 0.0008494583108688534 0.009070906136927003 0.9952230333204009 -0.04408746894213687 0.004041326012168211 0.018131556611552847
0.06877865777407 0.004375782924726379 0.020050569523291414 0.9947733748170392 -0.04857577216169449 0.0010124269347347979 0.009977113644037227 -0.000864081360914586 -0.006299530542346278
 0.9947733748170392 -0.04857577216169449 0.004380607709352005 0.02005013368106674 -0.0008639685941094843 -0.006299530928022731 0.0009844003698649612 0.009980594757654504
 0.0010124269347347979 0.009977113644037227 -0.0008639685941094843 -0.006299530928022731 0.0043759322371698444 0.020051469193378853 0.9947734044954741 -0.04857485367505196
 -0.000864081360914586 -0.006299530542346278 0.0009844003698649612 0.009980594757654504 0.9947734044954741 -0.04857485367505196 0.004380515450619766 0.020051060275544423
0.07503126302626001 0.004733958694818597 0.021987166700097142 0.9942972341228189 -0.05307778837722035 0.0011633632864225703 0.010886007346754751 -0.0009898919687172706 -0.006876769307871163
 0.9942972341228189 -0.05307778837722035 0.0047396989615755775 0.021986661286322054 -0.0009897582530264293 -0.006876770995566187 0.001129999052663485 0.010890233612598756
 0.0011633632864225703 0.010886007346754751 -0.0009897582530264293 -0.006876770995566187 0.004734136079681801 0.021988145805867967 0.9942972691705595 -0.053076786293068785
 -0.0009898919687172706 -0.006876769307871163 0.001129999052663485 0.010890233612598756 0.9942972691705595 -0.053076786293068785 0.0047395886632665574 0.021987672413281558
0.08128386827845 0.005112286738409313 0.02394051541431155 0.9937942512577873 -0.057594176412745925 0.0013255149249281491 0.011794595327647733 -0.0011249936879888461 -0.007454047703795064
 0.9937942512577873 -0.057594176412745925 0.005119022001044872 0.023939934364158543 -0.0011248373078673192 -0.00745405098454246 0.0012863453024770039 0.011799666125142546
 0.0013255149249281491 0.011794595327647733 -0.0011248373078673192 -0.00745405098454246 0.005112494604533141 0.023941573401685824 0.9937942921324613 -0.05759309066556515
 -0.0011249936879888461 -0.007454047703795064 0.0012863453024770039 0.011799666125142546 0.9937942921324613 -0.05759309066556515 0.0051188920190522475 0.02394103011392722
0.08753647353064001 0.005511110581283794 0.025910260673527058 0.993264092555757 -0.06212473859613409 0.001498970568005001 0.012702709888136276 -0.0012694778149772304 -0.008031199459063734
 0.993264092555757 -0.06212473859613409 0.005518920424353334 0.025909597664384956 -0.0012692970691230835 -0.008031204642178387 0.0014535273713783905 0.012708731281866096
 0.001498970568005001 0.012702709888136276 -0.0012692970691230835 -0.008031204642178387 0.005511351333143373 0.025911396947947495 0.9932641397195798 -0.06212356911072342
 -0.0012694778149772304 -0.008031199459063734 0.0014535273713783905 0.012708731281866096 0.9932641397195798 -0.06212356911072342 0.005518769106731742 0.025910778135672816
0.09378907878283 0.005930770872929066 0.02789605196804513 0.9927064261646947 -0.06666925886587396 0.001683816033567278 0.013610179075826694 -0.0014234326534554535 -0.00860805558853506
 0.9927064261646947 -0.06666925886587396 0.0059397349682642 0.027895300414736198 -0.0014232258546456572 -0.008608063001577024 0.0016316306942164834 0.01361726388208652
 0.001683816033567278 0.013610179075826694 -0.0014232258546456572 -0.008608063001577024 0.005931046909589131 0.027897265893358305 0.9927064800844129 -0.06666800555821313
 -0.0014234326534554535 -0.00860805558853506 0.0016316306942164834 0.01361726388208652 0.9927064800844129 -0.06666800555821313 0.005939560655319998 0.027896565714049117
0.100041684035 0.006371605284345544 0.029897540947582298 0.9921209222902244 -0.07122750507456728 0.0018801341100405538 0.014516826876915585 -0.0015869434101759316 -0.009184444275068112
 0.9921209222902244 -0.07122750507456728 0.0063818034080112065 0.029896693996720573 -0.0015867088851563738 -0.009184454263804792 0.0018207377643596752 0.014525094728839132
 0.0018801341100405538 0.014516826876915585 -0.0015867088851563738 -0.009184454263804792 0.006371918998517814 0.029898831845236482 0.9921209834376696 -0.0712261678522491
 -0.0015869434101759316 -0.009184444275068112 0.0018207377643596752 0.014525094728839132 0.9921209834376696 -0.0712261678522491 0.006381604432473778 0.029898044238096583
0.1059090909091 0.006804837330038004 0.03178969300274445 0.9915458793502148 -0.07551719987459518 0.0020748629933361137 0.015366712416892943 -0.0017491450053147973 -0.009724743184210296
 0.9915458793502148 -0.07551719987459518 0.006816266121446522 0.03178875005398975 -0.0017488829527711504 -0.009724755920610968 0.0020082732754705362 0.015376205365178593
 0.0020748629933361137 0.015366712416892943 -0.0017488829527711504 -0.009724755920610968 0.00680518857024619 0.0317910554739895 0.991545947714121 -0.07551578381743333
 -0.0017491450053147973 -0.009724743184210296 0.0020082732754705362 0.015376205365178593 0.991545947714121 -0.07551578381743333 0.006816042479610393 0.03179018011344696
0.1062942892872 0.006833948389065616 0.03191437967384604 0.9915072534264489 -0.07579923072500801 0.0020880044293485798 0.015422473374475274 -0.001760092087325686 -0.009760190793341561
 0.9915072534264489 -0.07579923072500801 0.006845460438220748 0.031913430197660714 -0.0017598281767451456 -0.009760203721699195 0.0020209280114894972 0.015432050785855994
 0.0020880044293485798 0.015422473374475274 -0.0017598281767451456 -0.009760203721699195 0.006834302166247825 0.031915746821713796 0.9915073222789452 -0.07579780948819367
 -0.001760092087325686 -0.009760190793341561 0.0020209280114894972 0.015432050785855994 0.9915073222789452 -0.07579780948819367 0.0068452351252511695 0.03191486550196795
0.11254689453939999 0.007318131530942392 0.03394621929273045 0.9908650945767346 -0.08038417629582684 0.002307503341235688 0.016326934882179105 -0.001942957373391996 -0.010335117466240268
 0.9908650945767346 -0.08038417629582684 0.007331037540575002 0.033945159882011425 -0.0019426624317374784 -0.010335133716272973 0.0022322776803620293 0.01633795530963886
 0.002307503341235688 0.016326934882179105 -0.0019426624317374784 -0.010335133716272973 0.007318527748224777 0.03394766192736062 0.9908651716174598 -0.08038267093477719
 -0.001942957373391996 -0.010335117466240268 0.0022322776803620293 0.01633795530963886 0.9908651716174598 -0.08038267093477719 0.007330784207881905 0.033946680379729886
0.11879949979160001 0.007824482681927838 0.03599270900945313 0.9901941234675671 -0.08498207027342784 0.0025387037892501524 0.01723002406445837 -0.0021356145324933303 -0.010909043642633152
 0.9901941234675671 -0.08498207027342784 0.007838862841884505 0.0359915319658381 -0.002135286928035666 -0.010909063614477245 0.0024548597105791014 0.017242627968035502
 0.0025387037892501524 0.01723002406445837 -0.002135286928035666 -0.010909063614477245 0.007824923707302056 0.03599422632475741 0.9901942091860685 -0.08498048066960566
 -0.0021356145324933303 -0.010909043642633152 0.0024548597105791014 0.017242627968035502 0.9901942091860685 -0.08498048066960566 0.007838579799949157 0.03599313779618861
0.1250521050438 0.008353326291896166 0.03805349528152812 0.9894940207576677 -0.08959262997554085 0.0027816751879123267 0.018131550042532064 -0.0023381352926257013 -0.011481785697459012
 0.9894940207576677 -0.08959262997554085 0.008369260963725802 0.03805219260901109 -0.002337773407407897 -0.01148180980932044 0.0026887436175227993 0.018145884944543958
 0.0027816751879123267 0.018131550042532064 -0.002337773407407897 -0.01148180980932044 0.00835381448302468 0.03805508642870717 0.9894941156499631 -0.08959095600148602
 -0.0023381352926257013 -0.011481785697459012 0.0026887436175227993 0.018145884944543958 0.9894941156499631 -0.08959095600148602 0.00836894651575794 0.03805388392036958
0.131304710296 0.008904983131837576 0.040128221183781454 0.9887644702426204 -0.09421556221243846 0.0030364833009278594 0.019031318497218546 -0.002550587733455621 -0.012053157043289657
 0.9887644702426204 -0.09421556221243846 0.008922552865683078 0.04012678457946109 -0.0025501899632183514 -0.012053185731383025 0.0029339953739464385 0.01904753903923404
 0.0030364833009278594 0.019031318497218546 -0.0025501899632183514 -0.012053185731383025 0.008905520835153218 0.04012988526939865 0.9887645748120156 -0.09421380373366295
 -0.002550587733455621 -0.012053157043289657 0.0029339953739464385 0.01904753903923404 0.9887645748120156 -0.09421380373366295 0.008922205308055417 0.040128561527743266
0.1375573155481 0.009357219958526466 0.04194597773683065 0.9881277626663475 -0.09857988314634968 0.003272707599816981 0.01990256704973722 -0.0027426738060971154 -0.012596335169733056
 0.9881277626663475 -0.09857988314634968 0.009376510558317761 0.041944429512230576 -0.002742237594083056 -0.01259636848986465 0.003160424860867192 0.019920657391913673
 0.003272707599816981 0.01990256704973722 -0.002742237594083056 -0.01259636848986465 0.009357808664501453 0.04194771432297857 0.9881278773552009 -0.09857804011559042
 -0.0027426738060971154 -0.012596335169733056 0.003160424860867192 0.019920657391913673 0.9881278773552009 -0.09857804011559042 0.009376129153701881 0.0419462919502276
0.1438099208003 0.009825480950712678 0.04375338934949107 0.98746841624454 -0.1029323614147596 0.0035184672549303784 0.020769753335358042 -0.0029424168682999786 -0.013135846831008133
 0.98746841624454 -0.1029323614147596 0.009846573983828006 0.043751723029932875 -0.0029419404587245064 -0.013135885220272299 0.003395962712487644 0.020789855702569072
 0.0035184672549303784 0.020769753335358042 -0.0029419404587245064 -0.013135885220272299 0.009826122835583038 0.04375519756230319 0.9874685415530235 -0.10293043370780712
 -0.0029424168682999786 -0.013135846831008133 0.003395962712487644 0.020789855702569072 0.9874685415530235 -0.10293043370780712 0.009846157194441188 0.0437536710767606
0.1500625260525 0.010309589323634868 0.045550282246792424 0.9867866123275433 -0.10727286551960974 0.0037736703973703122 0.021632771129655507 -0.003149728793988879 -0.013671594316712169
 0.9867866123275433 -0.10727286551960974 0.010332566557764565 0.0455484909748174 -0.0031492104328481327 -0.013671638230374586 0.0036405199131793677 0.021655032936676057
 0.0037736703973703122 0.021632771129655507 -0.0031492104328481327 -0.013671638230374586 0.010310286542854397 0.04555216118188931 0.9867867487617065 -0.10727085300609532
 -0.003149728793988879 -0.013671594316712169 0.0036405199131793677 0.021655032936676057 0.9867867487617065 -0.10727085300609532 0.010332112850747236 0.045550524755109505
0.15631513130469998 0.010809366894783977 0.04733648785748947 0.9860825333452962 -0.11160126493680327 0.0040382239801326015 0.022491516161158815 -0.003364520293837496 -0.014203482118412228
