! Created with skrf 1.8.0 (http://scikit-rf.org).
# GHz S RI R 50.0 
!freq ReS11 ImS11 ReS12 ImS12 ReS13 ImS13
! ReS14 ImS14
! ReS21 ImS21 ReS22 ImS22 ReS23 ImS23
! ReS24 ImS24
! ReS31 ImS31 ReS32 ImS32 ReS33 ImS33
! ReS34 ImS34
! ReS41 ImS41 ReS42 ImS42 ReS43 ImS43
! ReS44 ImS44
!
0.0 0.001752317960932 0.0 0.9982476820107 0.0 6.840089521999e-05 0.0 -6.840089450824e-05 8.376693651833189e-21
 0.9982476820107 0.0 0.001752317960944 0.0 -6.840089450793e-05 8.376693651795224e-21 6.840089521715e-05 0.0
 6.840089521999e-05 0.0 -6.840089450793e-05 8.376693651795224e-21 0.001752317969442 0.0 0.9982476820192 0.0
 -6.840089450824e-05 8.376693651833189e-21 6.840089521715e-05 0.0 0.9982476820192 0.0 0.001752317969474 0.0
0.005 0.0018861495252375795 0.0014242524228886635 0.9980782316656364 -0.003670427981858902 9.752119704174049e-05 0.000805590869261862 -9.438962764022973e-05 -0.0004964352732642264
 0.9980782316656364 -0.003670427981858902 0.001886130930950438 0.0014242633506009194 -9.4391405572069e-05 -0.0004964366876779445 9.76316123997639e-05 0.000805548824119342
 9.752119704174049e-05 0.000805590869261862 -9.4391405572069e-05 -0.0004964366876779445 0.0018861487500616521 0.0014243201877061594 0.998078232045133 -0.0036703609258980376
 -9.438962764022973e-05 -0.0004964352732642264 9.76316123997639e-05 0.000805548824119342 0.998078232045133 -0.0036703609258980376 0.0018861324479312225 0.0014243296791040245
0.006252605252188 0.0019214610776405352 0.0017859291894223022 0.9980332071972293 -0.004588902968637119 0.00010594970382019203 0.0010073413716694412 -0.00010183693695003918 -0.0006211844935010728
 0.9980332071972293 -0.004588902968637119 0.0019214320104097987 0.001785943046590415 -0.00010183970315746231 -0.000621186238038974 0.00010612221629220848 0.0010072867373132092
 0.00010594970382019203 0.0010073413716694412 -0.00010183970315746231 -0.000621186238038974 0.001921459786948105 0.0017860138982915077 0.998033207712252 -0.00458881914320495
 -0.00010183693695003918 -0.0006211844935010728 0.00010612221629220848 0.0010072867373132092 0.998033207712252 -0.00458881914320495 0.0019214343036790408 0.0017860259478984452
0.01250521050438 0.0021085797823639932 0.0036092745444166506 0.9977928923480296 -0.009178410481017358 0.0001548611703507454 0.0020147908892635524 -0.00014468068903615027 -0.0012452827619482815
 0.9977928923480296 -0.009178410481017358 0.0021084637024139626 0.0036093042523165056 -0.00014469158529741867 -0.0012452859917727608 0.00015554909359780195 0.0020146590173167186
 0.0001548611703507454 0.0020147908892635524 -0.00014469158529741867 -0.0012452859917727608 0.0021085740682285498 0.0036094436813078642 0.9977928938595628 -0.00917824303928828
 -0.00014468068903615027 -0.0012452827619482815 0.00015554909359780195 0.0020146590173167186 0.9977928938595628 -0.00917824303928828 0.0021084723138311665 0.0036094696276770246
0.01875781575657 0.002314126047777701 0.005458435237334896 0.9975264082103409 -0.013779649211699219 0.00021525550296184136 0.0030230470248338924 -0.0001970747454970804 -0.0018712900529232537
 0.9975264082103409 -0.013779649211699219 0.0023138651805440368 0.005458482948605602 -0.00019709903701572155 -0.0018712944547628065 0.00021680080340026907 0.00302281045845787
 0.00021525550296184136 0.0030230470248338924 -0.00019709903701572155 -0.0018712944547628065 0.002314112760409973 0.005458688617283889 0.9975264111939691 -0.013779398158311886
 -0.0001970747454970804 -0.0018712900529232537 0.00021680080340026907 0.00302281045845787 0.9975264111939691 -0.013779398158311886 0.002313884112089511 0.005458730394269354
0.02501042100875 0.002538535779278564 0.0073307480572336004 0.997233411484034 -0.01839479262248914 0.000287253836961878 0.0040321293419084145 -0.00025915568110967003 -0.002498871514060782
 0.997233411484034 -0.01839479262248914 0.0025380724426874975 0.0073308160623034 -0.0002591985672058231 -0.0024988767152746712 0.0002899985607280809 0.004031755912774385
 0.000287253836961878 0.0040321293419084145 -0.0002591985672058231 -0.0024988767152746712 0.002538511756056137 0.007331085451540202 0.9972334164226804 -0.018394457895652097
 -0.00025915568110967003 -0.002498871514060782 0.0002899985607280809 0.004031755912774385 0.9972334164226804 -0.018394457895652097 0.002538105686801845 0.007331145061151657
0.03126302626094 0.0027822266772507 0.009224813169824604 0.9969135431099403 -0.023024735183198714 0.0003709770906483431 0.005041957306107123 -0.00033105528149824786 -0.003127783523068126
 0.9969135431099403 -0.023024735183198714 0.0027815032464024 0.009224903893440552 -0.00033112190662355155 -0.0031277890910784757 0.00037526366684692753 0.0050414101048740475
 0.0003709770906483431 0.005041957306107123 -0.00033112190662355155 -0.0031277890910784757 0.0027821887417973255 0.009225234314750022 0.9969135504977902 -0.02302431664592426
 -0.00033105528149824786 -0.003127783523068126 0.00037526366684692753 0.0050414101048740475 0.9969135504977902 -0.02302431664592426 0.0027815547872127753 0.009225313823159402
0.037515631513130004 0.0030456067420865226 0.011139695690516902 0.996566437160079 -0.027669890745070678 0.00046654476478894924 0.00605241044149658 -0.0004129015586458286 -0.003757813579497395
 0.996566437160079 -0.027669890745070678 0.0030445656246952148 0.011139811690288874 -0.0004129970179170485 -0.0037578190216728236 0.00047271613351727263 0.0060516477702958595
 0.00046654476478894924 0.00605241044149658 -0.0004129970179170485 -0.0037578190216728236 0.003045551697096453 0.011140200257027158 0.9965664474996052 -0.027669388215545817
 -0.0004129015586458286 -0.003757813579497395 0.00047271613351727263 0.0060516477702958595 0.9965664474996052 -0.027669388215545817 0.0030446394322616523 0.01114030179223374
0.043768236765320004 0.003329077536728582 0.013074682697385083 0.9961917244831227 -0.032330435464077004 0.0005740743568397238 0.00706334663960329 -0.0005048190980064271 -0.004388762037776857
 0.9961917244831227 -0.032330435464077004 0.0033276611525646298 0.013074826663690284 -0.0005049484404474851 -0.004388766801455681 0.0005824740224026802 0.007062321959100511
 0.0005740743568397238 0.00706334663960329 -0.0005049484404474851 -0.004388766801455681 0.0033290021642581624 0.013075270306834143 0.9961917382902448 -0.03232984870025999
 -0.0005048190980064271 -0.004388762037776857 0.0005824740224026802 0.007062321959100511 0.9961917382902448 -0.03232984870025999 0.0033277611838875764 0.01307539605739061
0.050020842017509996 0.0036330356825744117 0.015029182844548114 0.9957890345868115 -0.03700640812423219 0.000693680996475705 0.008074609737858432 -0.0006069291641081727 -0.005020434573992028
 0.9957890345868115 -0.03700640812423219 0.0036311864452594446 0.015029357600983683 -0.0006070973947775312 -0.0050204380465283145 0.0007046530402681371 0.008073271612181219
 0.000693680996475705 0.008074609737858432 -0.0006070973947775312 -0.0050204380465283145 0.0036329367405165186 0.015029853054107532 0.9957890523911727 -0.03700573683876462
 -0.0006069291641081727 -0.005020434573992028 0.0007046530402681371 0.008073271612181219 0.9957890523911727 -0.03700573683876462 0.0036313166404502504 0.015030005268575536
0.055454545454549996 0.0039141276338254425 0.01674314534317396 0.9954160760313228 -0.04108246277252187 0.000807518266630259 0.008953564405866128 -0.0007040351698550905 -0.005569815546522606
 0.9954160760313228 -0.04108246277252187 0.00391185544942133 0.016743349254583706 -0.0007042412271438034 -0.005569817352953825 0.0008210056613914911 0.008951908269648541
 0.000807518266630259 0.008953564405866128 -0.0007042412271438034 -0.005569817352953825 0.003914005556006374 0.016743886935644593 0.9954160977520029 -0.04108171775655324
 -0.0007040351698550905 -0.005569815546522606 0.0008210056613914911 0.008951908269648541 0.9954160977520029 -0.04108171775655324 0.003912015043591551 0.01674406402068776
0.056273447269699996 0.0039578736061278074 0.017002677058468467 0.995357996775714 -0.04169775938244857 0.0008254771750563572 0.00908603324254505 -0.0007193497015072962 -0.005652638514289161
 0.995357996775714 -0.04169775938244857 0.003955533906280568 0.01700288556299686 -0.0007195617828265722 -0.005652640023142472 0.000839366244514682 0.009084325283380535
 0.0008254771750563572 0.00908603324254505 -0.0007195617828265722 -0.005652640023142472 0.003957747826431193 0.01700342937318009 0.995358019123014 -0.04169700323105547
 -0.0007193497015072962 -0.005652638514289161 0.000839366244514682 0.009084325283380535 0.995358019123014 -0.04169700323105547 0.003955698187018267 0.01700361036005964
0.06252605252188 0.004303979913122595 0.018994691477006827 0.994898240920726 -0.04640437877759955 0.0009695725217501468 0.010097442396938282 -0.0008421952830016907 -0.006285180825561381
 0.994898240920726 -0.04640437877759955 0.004301092101681221 0.018994936823725262 -0.0008424561356734038 -0.006285179638376892 0.0009867238027479498 0.010095303207521592
 0.0009695725217501468 0.010097442396938282 -0.0008424561356734038 -0.006285179638376892 0.0043038239990363415 0.018995525340569707 0.9948982683745358 -0.0464035373688347
 -0.0008421952830016907 -0.006285180825561381 0.0009867238027479498 0.010095303207521592 0.9948982683745358 -0.0464035373688347 0.004301294368130491 0.018995737468922073
0.06877865777407 0.004671739562158287 0.021004781305757517 0.9944093980340226 -0.051126110830398204 0.0011260736077076967 0.011108655420636953 -0.0009755770252727842 -0.006917866943244366
 0.9944093980340226 -0.051126110830398204 0.004668245934339139 0.021005066727261462 -0.000975891528877605 -0.00691786226796262 0.0011468327854902338 0.01110601854001663
 0.0011260736077076967 0.011108655420636953 -0.000975891528877605 -0.00691786226796262 0.004671550187443671 0.021005696099412535 0.9944094311784831 -0.051125183727464316
 -0.0009755770252727842 -0.006917866943244366 0.0011468327854902338 0.01110601854001663 0.9944094311784831 -0.051125183727464316 0.004668490063927129 0.02100594180000109
0.07503126302626001 0.005061533917954059 0.023032520580745588 0.9938911007278772 -0.05586276524623908 0.0012950837639783249 0.012119484318374786 -0.00111960248740122 -0.007550500038479713
 0.9938911007278772 -0.05586276524623908 0.005057376697769277 0.0230328494509642 -0.0011199754807817344 -0.007550491023430272 0.0013197969758387983 0.01211627816609449
 0.0012950837639783249 0.012119484318374786 -0.0011199754807817344 -0.007550491023430272 0.005061307722826591 0.023033515635367516 0.9938911401685 -0.05586175195563952
 -0.00111960248740122 -0.007550500038479713 0.0013197969758387983 0.01211627816609449 0.9938911401685 -0.05586175195563952 0.0050576665407357085 0.023033797402385228
0.08128386827845 0.005473740727056566 0.025077495391832877 0.9933429836006018 -0.060614123666953325 0.001476702911301624 0.013129735427655009 -0.0012743755559110393 -0.008182880555670718
 0.9933429836006018 -0.060614123666953325 0.005468862051065209 0.02507787122965466 -0.0012748118373743808 -0.008182866289695546 0.0015057166914404065 0.013125883249229394
 0.001476702911301624 0.013129735427655009 -0.0012748118373743808 -0.008182866289695546 0.00547347431772171 0.025078569975642243 0.9933430299672582 -0.060613023651705324
 -0.0012743755559110393 -0.008182880555670718 0.0015057166914404065 0.013125883249229394 0.9933430299672582 -0.060613023651705324 0.005469201429424268 0.025078890369020182
0.08753647353064001 0.005908734044713646 0.02713929918488782 0.9927646835784039 -0.06537994435427447 0.001671027394674894 0.014139209817947977 -0.001439996322379452 -0.008814805907993077
 0.9927646835784039 -0.06537994435427447 0.00590307594644454 0.02713972565823704 -0.0014405006497897285 -0.008814785420555473 0.0017046886142038297 0.014134629631106897
 0.001671027394674894 0.014139209817947977 -0.0014405006497897285 -0.008814785420555473 0.005908423990493575 0.027140452513221246 0.992764737527353 -0.06537875702518199
 -0.001439996322379452 -0.008814805907993077 0.0017046886142038297 0.014134629631106897 0.992764737527353 -0.06537875702518199 0.005903468650483656 0.027140814161647597
0.09378907878283 0.006366884126341071 0.02921752942683319 0.9921558402258079 -0.07015996552133416 0.0018781498232274597 0.015147703594019127 -0.0016165609550313096 -0.009446070278642764
 0.9921558402258079 -0.07015996552133416 0.006360388520665181 0.029218010357437645 -0.0016171380457742932 -0.009446042539959183 0.0019168056252984672 0.015142308135896074
 0.0018781498232274597 0.015147703594019127 -0.0016171380457742932 -0.009446042539959183 0.006366526957129974 0.02921876065411579 0.9921559024409823 -0.07015869024615877
 -0.0016165609550313096 -0.009446070278642764 0.0019168056252984672 0.015142308135896074 0.9921559024409823 -0.07015869024615877 0.006360838305915216 0.02921916625854265
0.100041684035 0.006848557293477028 0.031311785161983574 0.9915160960347122 -0.07495390778393443 0.002098158913372964 0.016155008131874628 -0.0018041615663007317 -0.010076464499396165
 0.9915160960347122 -0.07495390778393443 0.006841165960988895 0.0313123245308122 -0.0018048160972226818 -0.01007642842057438 0.002142156643888831 0.01614870480731418
 0.002098158913372964 0.016155008131874628 -0.0018048160972226818 -0.01007642842057438 0.006848149498099063 0.03131309339070781 0.9915161672302726 -0.07495254387968696
 -0.0018041615663007317 -0.010076464499396165 0.002142156643888831 0.01614870480731418 0.9915161672302726 -0.07495254387968696 0.006841676545631341 0.031313545728589305
0.1059090909091 0.007322273193267566 0.03329123967867637 0.9908873443361537 -0.07946491251229865 0.0023164098628036924 0.0170989851916634 -0.0019903203198769243 -0.010667041885999614
 0.9908873443361537 -0.07946491251229865 0.007313988232575214 0.033291837653387626 -0.0019910517374994077 -0.010666996937954268 0.0023657364505225717 0.017091740922042006
 0.0023164098628036924 0.0170989851916634 -0.0019910517374994077 -0.010666996937954268 0.007321814658793636 0.0332926193030591 0.9908874246374666 -0.07946346477345541
 -0.0019903203198769243 -0.010667041885999614 0.0023657364505225717 0.017091740922042006 0.9908874246374666 -0.07946346477345541 0.007314559216622379 0.03329311809388385
0.1062942892872 0.00735411578190629 0.033421665190091036 0.9908450966981703 -0.07976147600167352 0.0023311393340310553 0.017160910283247895 -0.0020028860778212383 -0.010705775970941238
 0.9908450966981703 -0.07976147600167352 0.007345770352916632 0.03342226714339997 -0.0020036226850766083 -0.010705730404095913 0.0023808264689237635 0.017153601114188757
 0.0023311393340310553 0.017160910283247895 -0.0020036226850766083 -0.010705730404095913 0.00735365380590958 0.0334230494700156 0.9908451776209637 -0.0797600227368744
 -0.0020028860778212383 -0.010705775970941238 0.0023808264689237635 0.017153601114188757 0.9908451776209637 -0.0797600227368744 0.007346345414654413 0.03342355140025031
0.11254689453939999 0.007883917575229478 0.03554676669101856 0.9901424913741489 -0.08458236068442375 0.002577171554417413 0.018165192542150474 -0.002212818083053024 -0.011333788631474403
 0.9901424913741489 -0.08458236068442375 0.007874559513730147 0.035547435547188234 -0.002213641361809973 -0.011333732369915117 0.00263289562355495 0.018156774118315882
 0.002577171554417413 0.018165192542150474 -0.002213641361809973 -0.011333732369915117 0.00788339781839734 0.03554822601808652 0.9901425828051923 -0.08458081728175441
 -0.002212818083053024 -0.011333788631474403 0.00263289562355495 0.018156774118315882 0.9901425828051923 -0.08458081728175441 0.007875202687105072 0.035548780486533565
0.11879949979160001 0.00843831622816572 0.037686684153829364 0.9894079329411227 -0.08941623910651879 0.0028363316928849045 0.019167633201822576 -0.002434036709123356 -0.011960282945527416
 0.9894079329411227 -0.08941623910651879 0.008427886816541167 0.03768742441066411 -0.0024349512134530893 -0.011960214723893909 0.00289844020128711 0.01915799663265215
 0.0028363316928849045 0.019167633201822576 -0.0024349512134530893 -0.011960214723893909 0.008437735042839088 0.03768821747081666 0.9894080356982906 -0.0894146047438402
 -0.002434036709123356 -0.011960282945527416 0.00289844020128711 0.01915799663265215 0.9894080356982906 -0.0894146047438402 0.00842860168955274 0.03768882751662402
0.1250521050438 0.009017660680882108 0.039841008548880105 0.988641078247061 -0.0942627761902677 0.003108691368469285 0.020168006493933896 -0.0026666164774326218 -0.012585035921154888
 0.988641078247061 -0.0942627761902677 0.009006101003530822 0.03984182489192117 -0.002667626719915872 -0.012584954415597751 0.003177531714158693 0.020157037361966328
 0.003108691368469285 0.020168006493933896 -0.002667626719915872 -0.012584954415597751 0.009017014369228731 0.039842614750260845 0.9886411931870422 -0.09426104999766254
 -0.0026666164774326218 -0.012585035921154888 0.003177531714158693 0.020157037361966328 0.9886411931870422 -0.09426104999766254 0.009006891114710144 0.03984328351285407
0.131304710296 0.009622295067228843 0.042009326677011107 0.987841588354813 -0.0991216252251468 0.003394317552919969 0.02116608272470278 -0.002910627164430082 -0.01320782114108414
 0.987841588354813 -0.0991216252251468 0.009609545994982246 0.042010223988341325 -0.0029117376158823618 -0.01320772496941958 0.0034702369428154132 0.02115366104035981
 0.003394317552919969 0.02116608272470278 -0.0029117376158823618 -0.01320772496941958 0.0096215798795176 0.04201100460756488 0.9878417163751257 -0.09911980628829747
 -0.002910627164430082 -0.01320782114108414 0.0034702369428154132 0.02115366104035981 0.9878417163751257 -0.09911980628829747 0.00961041483019535 0.04201173533437285
0.1375573155481 0.010121518715895304 0.043907020840788256 0.9871402355716478 -0.10370804584524891 0.0036592594949614427 0.022133555240073956 -0.003132037860148137 -0.013800427639027286
 0.9871402355716478 -0.10370804584524891 0.010107518258031549 0.04390798631876647 -0.0031332553272068724 -0.01380031657080193 0.0037424305206374 0.02211968982902958
 0.0036592594949614427 0.022133555240073956 -0.0031332553272068724 -0.01380031657080193 0.010120731991217546 0.04390876926671809 0.9871403773137345 -0.10370613356076751
 -0.003132037860148137 -0.013800427639027286 0.0037424305206374 0.02211968982902958 0.9871403773137345 -0.10370613356076751 0.010108468655733694 0.04390954811428519
0.1438099208003 0.010638500531631866 0.04579323521303518 0.9864138030652165 -0.108281369713922 0.003934853480575884 0.02309631296328949 -0.0033622562424082984 -0.014388673820263369
 0.9864138030652165 -0.108281369713922 0.010623188891478145 0.04579427281453793 -0.0033635855557371534 -0.014388546479496516 0.004025591602467139 0.023080893212355503
 0.003934853480575884 0.02309631296328949 -0.0033635855557371534 -0.014388546479496516 0.010637638639214356 0.04579505286824853 0.9864139594336636 -0.10827936317604271
 -0.0033622562424082984 -0.014388673820263369 0.004025591602467139 0.023080893212355503 0.9864139594336636 -0.10827936317604271 0.010624224145655236 0.045795882177741165
0.1500625260525 0.011173035751315067 0.04766776915326807 0.985662500898846 -0.11284143955021998 0.004220989422831688 0.024054231359345722 -0.00360117417302437 -0.014972441276982494
 0.985662500898846 -0.11284143955021998 0.011156352926855939 0.04766888309811025 -0.0036026201509952597 -0.014972296232200743 0.004319607916024035 0.02403714260664798
 0.004220989422831688 0.024054231359345722 -0.0036026201509952597 -0.014972296232200743 0.011172095021474674 0.0476696547240068 0.9856626728336858 -0.11283933782073301
 -0.00360117417302437 -0.014972441276982494 0.004319607916024035 0.02403714260664798 0.9856626728336858 -0.11283933782073301 0.011157476273265467 0.04767053703492172
0.15631513130469998 0.011724917874281194 0.0495304280305772 0.9848865405269143 -0.11738809962717012 0.0045175557661631055 0.025007188351584154 -0.003848682023887226 -0.015551614406842044
 0.9848865405269143 -0.11738809962717012 0.011706803653232118 0.049531622810661695 -0.0038502494725380252 -0.015551450171233772 0.004624365683524392 0.024988311933200637
