! Created with skrf 1.8.0 (http://scikit-rf.org).
# GHz S RI R 50.0 
!freq ReS11 ImS11 ReS12 ImS12 ReS13 ImS13
! ReS14 ImS14
! ReS21 ImS21 ReS22 ImS22 ReS23 ImS23
! ReS24 ImS24
! ReS31 ImS31 ReS32 ImS32 ReS33 ImS33
! ReS34 ImS34
! ReS41 ImS41 ReS42 ImS42 ReS43 ImS43
! ReS44 ImS44
!
0.0 0.002088807573215 0.0 0.9979111924069 0.0 8.167800254974e-05 0.0 -8.167800228303e-05 1.000267040566629e-20
 0.9979111924069 0.0 0.002088807573189 0.0 -8.167800228214e-05 1.0002670405557296e-20 8.167800254836e-05 0.0
 8.167800254974e-05 0.0 -8.167800228214e-05 1.0002670405557296e-20 0.002088807563236 0.0 0.997911192397 0.0
 -8.167800228303e-05 1.000267040566629e-20 8.167800254836e-05 0.0 0.997911192397 0.0 0.00208880756326 0.0
0.005 0.002249550834186127 0.0017028716425170792 0.9977074641213134 -0.004373612964555635 0.00011620509300422074 0.0009231749684514917 -0.00011262588333912147 -0.0005749733386748358
 0.9977074641213134 -0.004373612964555635 0.0022495193687260234 0.0017028901077706918 -0.00011262762666039544 -0.0005749747375134386 0.0001163914170436167 0.0009231037779879489
 0.00011620509300422074 0.0009231749684514917 -0.00011262762666039544 -0.0005749747375134386 0.0022495500270746757 0.0017029394619888847 0.9977074645220944 -0.004373545901423101
 -0.00011262588333912147 -0.0005749733386748358 0.0001163914170436167 0.0009231037779879489 0.9977074645220944 -0.004373545901423101 0.002249520964457077 0.0017029564022404012
0.006252605252188 0.002292351791033602 0.0021352168329597204 0.9976527817403585 -0.005467983387315664 0.00012640164117274795 0.0011543640815534658 -0.00012166838531844566 -0.0007194251710020391
 0.9976527817403585 -0.005467983387315664 0.002292302603903928 0.0021352402856206843 -0.00012167109753908772 -0.0007194268958577247 0.00012669274643608316 0.0011542715074945678
 0.00012640164117274795 0.0011543640815534658 -0.00012167109753908772 -0.0007194268958577247 0.0022923504673976604 0.002135301605898351 0.9976527823055915 -0.005467899561800344
 -0.00012166838531844566 -0.0007194251710020391 0.00012669274643608316 0.0011542715074945678 0.9976527823055915 -0.005467899561800344 0.0022923050373690147 0.0021353231363716364
0.01250521050438 0.002521404614775424 0.004314334558448371 0.9973577921867347 -0.010935968020380844 0.000186631935425636 0.0023086961422305644 -0.00017460834082903075 -0.001441915053245182
 0.9973577921867347 -0.010935968020380844 0.002521208193521975 0.004314385241899206 -0.00017461902238447894 -0.0014419182374394083 0.00018779260980545062 0.002308471456855058
 0.000186631935425636 0.0023086961422305644 -0.00017461902238447894 -0.0014419182374394083 0.0025213987363626846 0.004314503866772659 0.9973577938656286 -0.010935800603380988
 -0.00017460834082903075 -0.001441915053245182 0.00018779260980545062 0.002308471456855058 0.9973577938656286 -0.010935800603380988 0.002521217334889564 0.0043145505142417615
0.01875781575657 0.002776593617187301 0.006523429300600612 0.9970257678844353 -0.016417095700314674 0.00026252784475257017 0.0034636843098054793 -0.0002406865760528889 -0.002166287202827747
 0.9970257678844353 -0.016417095700314674 0.0027761522098940675 0.006523511357503901 -0.0002407103853354129 -0.002166291516703717 0.00026513470434479005 0.0034632782881541973
 0.00026252784475257017 0.0034636843098054793 -0.0002407103853354129 -0.002166291516703717 0.0027765799652680946 0.0065236830551071755 0.9970257712462812 -0.01641684472469404
 -0.0002406865760528889 -0.002166287202827747 0.00026513470434479005 0.0034632782881541973 0.9970257712462812 -0.01641684472469404 0.002776172341165921 0.006523758677285527
0.02501042100875 0.003058518961229613 0.008759218538471303 0.9966562322137967 -0.02191384117512824 0.00035424813872190103 0.004619267503523331 -0.0003200818804943349 -0.0028920940723279123
 0.9966562322137967 -0.02191384117512824 0.003057734973877877 0.008759336443426139 -0.0003201239093649451 -0.002892099116934427 0.00035887761781466603 0.004618621472527139
 0.00035424813872190103 0.004619267503523331 -0.0003201239093649451 -0.002892099116934427 0.0030584942911592314 0.008759556648645922 0.9966562378183861 -0.021913506620723312
 -0.0003200818804943349 -0.0028920940723279123 0.00035887761781466603 0.004618621472527139 0.9966562378183861 -0.021913506620723312 0.003057770355025308 0.008759665344570055
0.03126302626094 0.003367754722962545 0.011019920896752956 0.9962486899298517 -0.02742715240960907 0.0004619494733216664 0.005775272440504981 -0.00041296513732737067 -0.0036189863262494288
 0.9962486899298517 -0.02742715240960907 0.0033665306550615653 0.011020079451980249 -0.0004130304217838007 -0.0036189916329134857 0.0004691782885797186 0.005774318222060115
 0.0004619494733216664 0.005775272440504981 -0.0004130304217838007 -0.0036189916329134857 0.0033677157816064153 0.011020343267480739 0.9962486983488955 -0.027426734206749445
 -0.00041296513732737067 -0.0036189863262494288 0.0004691782885797186 0.005774318222060115 0.9962486983488955 -0.027426734206749445 0.0033665855435359394 0.011020489372252836
0.037515631513130004 0.003704859873726032 0.01330430519479645 0.9958026388839271 -0.03295740154338912 0.0005857848202921816 0.0069314798701353856 -0.0005195005292648686 -0.004346646771753724
 0.9958026388839271 -0.03295740154338912 0.00370309827186132 0.013304509529852708 -0.0005195940548178034 -0.004346651802042499 0.0005961901375214943 0.006930139693507547
 0.0005857848202921816 0.0069314798701353856 -0.0005195940548178034 -0.004346651802042499 0.00370480338921377 0.013304811717395823 0.99580265069404 -0.03295689958219384
 -0.0005195005292648686 -0.004346646771753724 0.0005961901375214943 0.006930139693507547 0.99580265069404 -0.03295689958219384 0.0037031769124131484 0.013304999800856874
0.043768236765320004 0.004070382441981893 0.015611401090826035 0.9953175749195512 -0.03850467424272438 0.000725902651308956 0.008087644782551555 -0.0006398459031247303 -0.005074770309119575
 0.9953175749195512 -0.03850467424272438 0.004067985859341805 0.015611656664739368 -0.0006399726078572598 -0.005074774454935497 0.0007400621229958488 0.008085831187794254
 0.000725902651308956 0.008087644782551555 -0.0006399726078572598 -0.005074774454935497 0.0040703051256856275 0.015611991636646274 0.9953175907078143 -0.03850408838008459
 -0.0006398459031247303 -0.005074770309119575 0.0007400621229958488 0.008085831187794254 0.9953175907078143 -0.03850408838008459 0.004068092486103966 0.015612226504136106
0.050020842017509996 0.004464861369704072 0.017940379540479053 0.9947929944676632 -0.04406888924463398 0.0008824463999095566 0.009243504786182459 -0.0007741528238521385 -0.005803055722872024
 0.9947929944676632 -0.04406888924463398 0.004461732330112746 0.01794069214532286 -0.0007743176003227912 -0.0058030583065752355 0.0009009381347438724 0.009241120524717705
 0.0008824463999095566 0.009243504786182459 -0.0007743176003227912 -0.0058030583065752355 0.004464759914388032 0.01794105396817069 0.9947930148324732 -0.04406821929751439
 -0.0007741528238521385 -0.005803055722872024 0.0009009381347438724 0.009241120524717705 0.9947930148324732 -0.04406821929751439 0.00446187116398569 0.017941340662812284
0.055454545454549996 0.0048316040104967335 0.019981522580549065 0.994304636479811 -0.048917974770980435 0.0010319348149267233 0.010247520770979858 -0.0009023210297036292 -0.006435855300206012
 0.994304636479811 -0.048917974770980435 0.00482775923230283 0.01998188971354463 -0.0009025228305665606 -0.006435855922159053 0.001054661211960005 0.01024455392778879
 0.0010319348149267233 0.010247520770979858 -0.0009025228305665606 -0.006435855922159053 0.0048314788753258675 0.019982269774986825 0.9943046613172418 -0.048917231577286724
 -0.0009023210297036292 -0.006435855300206012 0.001054661211960005 0.01024455392778879 0.9943046613172418 -0.048917231577286724 0.004827929470177764 0.019982605792308244
0.056273447269699996 0.004888827389002357 0.020290494150926056 0.9942283961670243 -0.049649857019249705 0.001055554038761723 0.010398784283520266 -0.0009225664993300916 -0.006531201689501515
 0.9942283961670243 -0.049649857019249705 0.004884868352271875 0.020290869917222808 -0.0009227741957471548 -0.006531201964060901 0.0010789565278309032 0.01039572221852417
 0.001055554038761723 0.010398784283520266 -0.0009227741957471548 -0.006531201964060901 0.004888698466417433 0.020291252301789752 0.9942284217192175 -0.04964910277007692
 -0.0009225664993300916 -0.006531201689501515 0.0010789565278309032 0.01039572221852417 0.9942284217192175 -0.04964910277007692 0.00488504359785508 0.020291596108523876
0.06252605252188 0.005342803408563948 0.022661048967492766 0.993623282001918 -0.05524731201766274 0.0012453577193869115 0.011553196797849068 -0.0010852256340096484 -0.007258904651646916
 0.993623282001918 -0.05524731201766274 0.0053379167374114625 0.02266149437086618 -0.0010854810549902753 -0.007258901800778589 0.0012742497346059263 0.011549339805592975
 0.0012453577193869115 0.011553196797849068 -0.0010854810549902753 -0.007258901800778589 0.005342643668712753 0.022661890663732667 0.9936233133665973 -0.055246473216922595
 -0.0010852256340096484 -0.007258904651646916 0.0012742497346059263 0.011549339805592975 0.9936233133665973 -0.055246473216922595 0.005338132581109385 0.022662297114575024
0.06877865777407 0.005827304635000337 0.025051379315161586 0.9929771581796615 -0.060860931885028405 0.0014519834453659486 0.012706446417295054 -0.0012622622455632799 -0.007985857593559697
 0.9929771581796615 -0.060860931885028405 0.0058213925620564134 0.02505190118480226 -0.0012625701525715949 -0.007985850731902219 0.0014869439168498809 0.012701667290264469
 0.0014519834453659486 0.012706446417295054 -0.0012625701525715949 -0.007985850731902219 0.005827110704944237 0.025052304363769998 0.9929771959979944 -0.060860008248304925
 -0.0012622622455632799 -0.007985857593559697 0.0014869439168498809 0.012701667290264469 0.9929771959979944 -0.060860008248304925 0.005821653169744386 0.025052779244878427
0.07503126302626001 0.006342838532618465 0.027460839675946116 0.9922895358523409 -0.06649034965977023 0.0016755507658078835 0.01385822875811762 -0.0014538014592903915 -0.008711749316983644
 0.9922895358523409 -0.06649034965977023 0.006335803128062196 0.027461445204299165 -0.0014541665708224611 -0.008711737490242517 0.0017171586434168097 0.013852390110515991
 0.0016755507658078835 0.01385822875811762 -0.0014541665708224611 -0.008711737490242517 0.006342607014811066 0.02746184786900034 0.9922895807831035 -0.06648934086841327
 -0.0014538014592903915 -0.008711749316983644 0.0017171586434168097 0.013852390110515991 0.9922895807831035 -0.06648934086841327 0.0063361126423073615 0.027462397229149837
0.08128386827845 0.006889904685192592 0.02988879566299138 0.9915599317460471 -0.07213516189888076 0.0019161724845693185 0.015008231645920852 -0.0016599612863951254 -0.00943626401921313
 0.9915599317460471 -0.07213516189888076 0.006881647824801905 0.029889492417290654 -0.0016603882781016765 -0.009436246204348808 0.0019650065870465364 0.015001185821882817
 0.0019161724845693185 0.015008231645920852 -0.0016603882781016765 -0.009436246204348808 0.006889632156763885 0.029889886775348633 0.9915599844674473 -0.07213406760360214
 -0.0016599612863951254 -0.00943626401921313 0.0019650065870465364 0.015001185821882817 0.9915599844674473 -0.07213406760360214 0.0068820103622079885 0.029890516935993573
0.08753647353064001 0.007468994589387667 0.03233461851108333 0.9907878687247637 -0.07779493431093949 0.002173954377516875 0.01615613564601922 -0.0018808523957714318 -0.010159081042814253
 0.9907878687247637 -0.07779493431093949 0.007459417922499102 0.0323354144463124 -0.0018813459003205535 -0.010159056148199886 0.002230593230949999 0.01614772463091691
 0.002173954377516875 0.01615613564601922 -0.0018813459003205535 -0.010159056148199886 0.007468677600327537 0.03233579230522106 0.9907879299359458 -0.07779375412807238
 -0.0018808523957714318 -0.010159081042814253 0.002230593230949999 0.01614772463091691 0.9907879299359458 -0.07779375412807238 0.0074598375710251815 0.03233650987227156
0.09378907878283 0.008080591403591922 0.03479768117484717 0.9899728763139657 -0.08346920580602449 0.002448994918655234 0.01730161448410339 -0.002116577879042769 -0.010879874755987496
 0.9899728763139657 -0.08346920580602449 0.00806959632113563 0.034798584648445485 -0.0021171424859355438 -0.010879841621604679 0.002514016586038038 0.01729166981917388
 0.002448994918655234 0.01730161448410339 -0.0021171424859355438 -0.010879841621604679 0.008080226475567357 0.03479893739637945 0.9899729467365153 -0.08346793932351104
 -0.002116577879042769 -0.010879874755987496 0.002514016586038038 0.01729166981917388 0.9899729467365153 -0.08346793932351104 0.00807007713719989 0.03479974927349002
0.100041684035 0.008725169663587459 0.03727735550192801 0.9891144911922418 -0.08915749149584667 0.0027413850124385843 0.018444335407817647 -0.002367233013004301 -0.011598314513364544
 0.9891144911922418 -0.08915749149584667 0.008712657266354899 0.037278375290159364 -0.0023678732683722076 -0.011598271910994136 0.0028153669153679617 0.018432678108420305
 0.0027413850124385843 0.018444335407817647 -0.0023678732683722076 -0.011598271910994136 0.008724753289146405 0.037278693886403466 0.9891145715725552 -0.08915613826787681
 -0.002367233013004301 -0.011598314513364544 0.0028153669153679617 0.018432678108420305 0.9891145715725552 -0.08915613826787681 0.008713203272338097 0.03727960729021114
0.1059090909091 0.009360449137455082 0.039618812641300856 0.9882691165727278 -0.09450763921948446 0.0030316154362744407 0.01951384768310232 -0.0026161024309904303 -0.01227005421002011
 0.9882691165727278 -0.09450763921948446 0.009346422667597963 0.03961994994930946 -0.002616817770129714 -0.012270001545316102 0.003114529994628811 0.019500411028433917
 0.0030316154362744407 0.01951384768310232 -0.002616817770129714 -0.012270001545316102 0.009359981268460025 0.03962022787806916 0.9882692069990165 -0.09450620415537335
 -0.0026161024309904303 -0.01227005421002011 0.003114529994628811 0.019500411028433917 0.9882692069990165 -0.09450620415537335 0.009347033472333649 0.03962124341083045
0.1062942892872 0.009403194975518015 0.03977301015901288 0.988212257663132 -0.09485928496705776 0.0030512077313593357 0.019583959508398148 -0.002632905021208717 -0.012314064678366614
 0.988212257663132 -0.09485928496705776 0.009389066042858127 0.039774155475028855 -0.0026336254274343758 -0.01231401131179162 0.003134726464951856 0.019570399986060392
 0.0030512077313593357 0.019583959508398148 -0.0026336254274343758 -0.01231401131179162 0.009402723616204266 0.0397744304313255 0.988212348773328 -0.0948578445162523
 -0.002632905021208717 -0.012314064678366614 0.003134726464951856 0.019570399986060392 0.988212348773328 -0.0948578445162523 0.009389681223663031 0.03977545290816679
0.11254689453939999 0.010115123691730543 0.0422840090780277 0.987265728109112 -0.10057406006044643 0.0033785380593881853 0.020720142016370808 -0.002913672835550549 -0.013026784693056877
 0.987265728109112 -0.10057406006044643 0.010099278649801889 0.042285289591737524 -0.0029144778510196076 -0.01302671919825891 0.0034721692003781422 0.020704480004931504
 0.0033785380593881853 0.020720142016370808 -0.0029144778510196076 -0.01302671919825891 0.010114593777813527 0.04228551095133801 0.9872658307495347 -0.10057253188069602
 -0.002913672835550549 -0.013026784693056877 0.0034721692003781422 0.020704480004931504 0.9872658307495347 -0.10057253188069602 0.010099966950478942 0.04228665039602316
0.11879949979160001 0.010861402574171484 0.044809710289503195 0.9862744634328635 -0.10630127228980243 0.0037234426402141963 0.02185253258171872 -0.003209606859313991 -0.013736129185466675
 0.9862744634328635 -0.10630127228980243 0.010843741464907457 0.04481113614915266 -0.003210500897877354 -0.013736050130855828 0.0038277605499238104 0.021834557067595524
 0.0037234426402141963 0.02185253258171872 -0.003210500897877354 -0.013736050130855828 0.010860810502484594 0.044811293467216004 0.9862745784331286 -0.10629965584618252
 -0.003209606859313991 -0.013736129185466675 0.0038277605499238104 0.021834557067595524 0.9862745784331286 -0.10629965584618252 0.010844506787182526 0.04481255814334818
0.1250521050438 0.011642468448541112 0.047349465039417116 0.9852380334885068 -0.11204036000411548 0.004085979531131282 0.02298077554953289 -0.0035207687324986512 -0.014441748103192514
 0.9852380334885068 -0.11204036000411548 0.011622890898605664 0.047351046895076805 -0.0035217561630064087 -0.014441653989851165 0.004201557152641452 0.0229602647064465
 0.004085979531131282 0.02298077554953289 -0.0035217561630064087 -0.014441653989851165 0.011641810582017464 0.04735112921790567 0.985238161709849 -0.11203865473210604
 -0.0035207687324986512 -0.014441748103192514 0.004201557152641452 0.0229602647064465 0.985238161709849 -0.11203865473210604 0.011623737098294881 0.047352527780307574
0.131304710296 0.01245874785232311 0.04990261713113657 0.9841560175034255 -0.11779074535207369 0.004466197962162804 0.02410451022652781 -0.0038472111000831676 -0.015143286877952177
 0.9841560175034255 -0.11779074535207369 0.012437153042765459 0.04990436615999702 -0.0038482962460276 -0.015143176139859025 0.004593606613122518 0.024081231354792204
 0.004466197962162804 0.02410451022652781 -0.0038482962460276 -0.015143176139859025 0.012458020518545018 0.049904362000094175 0.9841561598398735 -0.11778895065938623
 -0.0038472111000831676 -0.015143286877952177 0.004593606613122518 0.024081231354792204 0.9841561598398735 -0.11778895065938623 0.012438083926441716 0.04990590351889311
0.1375573155481 0.013145262417399948 0.05213656999394903 0.9831935166599123 -0.12321959387008322 0.004822019965412156 0.025192911998056497 -0.004146729075672755 -0.015810088017788455
 0.9831935166599123 -0.12321959387008322 0.013121543687845103 0.05213846400931802 -0.004147918626952721 -0.015809960201131377 0.0049615490663860685 0.02516685982394738
 0.004822019965412156 0.025192911998056497 -0.004147918626952721 -0.015809960201131377 0.013144463161954398 0.05213839496703894 0.9831936737990145 -0.12321770940251282
 -0.004146729075672755 -0.015810088017788455 0.0049615490663860685 0.02516685982394738 0.9831936737990145 -0.12321770940251282 0.013122562206110567 0.052140056055601625
0.1438099208003 0.013856414524584505 0.054354345452514885 0.9821960414799078 -0.12863021666804458 0.0051919682056759545 0.02627425121448943 -0.004457957156793844 -0.01647029897744518
 0.9821960414799078 -0.12863021666804458 0.01383046968792137 0.05435639410789386 -0.0044592557961101315 -0.016470152500909094 0.005344136170401188 0.0262452091280137
 0.0051919682056759545 0.02627425121448943 -0.0044592557961101315 -0.016470152500909094 0.013855539842448366 0.05435625014043038 0.9821962143200836 -0.12862824184965546
 -0.004457957156793844 -0.01647029897744518 0.005344136170401188 0.0262452091280137 0.9821962143200836 -0.12862824184965546 0.013831579425759447 0.054358038387008464
0.1500625260525 0.01459187565896885 0.05655562955505866 0.9811639268539257 -0.13402234776477603 0.005575861858246296 0.027348334813202386 -0.004780716769404113 -0.017123737057578612
 0.9811639268539257 -0.13402234776477603 0.014563602109339773 0.056557843153010094 -0.004782129163795003 -0.01712357027538722 0.005741182364193948 0.02731607833920033
 0.005575861858246296 0.027348334813202386 -0.004782129163795003 -0.01712357027538722 0.014590922024640702 0.056557613554169314 0.9811641163216609 -0.1340202820039683
 -0.004780716769404113 -0.017123737057578612 0.005741182364193948 0.02731607833920033 0.9811641163216609 -0.1340202820039683 0.014564806594766076 0.05655953711593839
0.15631513130469998 0.015351314055060947 0.058740118058666226 0.9800975103992893 -0.13939572554042617 0.005973517466936273 0.028414974435295788 -0.005114826682495065 -0.017770224677496796
 0.9800975103992893 -0.13939572554042617 0.015320608759124405 0.058742507573921465 -0.005116357482998337 -0.017770035879685012 0.006152499362329295 0.028379271346054304
