! Created with skrf 1.8.0 (http://scikit-rf.org).
# GHz S RI R 50.0 
!freq ReS11 ImS11 ReS12 ImS12 ReS13 ImS13
! ReS14 ImS14
! ReS21 ImS21 ReS22 ImS22 ReS23 ImS23
! ReS24 ImS24
! ReS31 ImS31 ReS32 ImS32 ReS33 ImS33
! ReS34 ImS34
! ReS41 ImS41 ReS42 ImS42 ReS43 ImS43
! ReS44 ImS44
!
0.0 0.00139095064418 0.0 0.9986090493556 0.0 5.331476776631e-05 0.0 -5.331476591077e-05 6.52917574199149e-21
 0.9986090493556 0.0 0.001390950644164 0.0 -5.331476591074e-05 6.529175741987816e-21 5.331476776341e-05 0.0
 5.331476776631e-05 0.0 -5.331476591074e-05 6.529175741987816e-21 0.001390950636999 0.0 0.9986090493484 0.0
 -5.331476591077e-05 6.52917574199149e-21 5.331476776341e-05 0.0 0.9986090493484 0.0 0.00139095063698 0.0
0.005 0.0014961151148107175 0.0011397775674039635 0.9984760615005752 -0.0029140348545048686 7.429831812159908e-05 0.0005783162538203055 -7.218618103312091e-05 -0.0003646753763210004
 0.9984760615005752 -0.0029140348545048686 0.0014961455662315518 0.0011397598637108801 -7.218455599036669e-05 -0.0003646742113792141 7.410968066280627e-05 0.0005783879388533885
 7.429831812159908e-05 0.0005783162538203055 -7.218455599036669e-05 -0.0003646742113792141 0.0014961151791172533 0.0011397103172450585 0.998476061159937 -0.002914101922025555
 -7.218618103312091e-05 -0.0003646753763210004 7.410968066280627e-05 0.0005783879388533885 0.998476061159937 -0.002914101922025555 0.0014961448215407662 0.0011396929788264475
0.006252605252188 0.0015235732874765092 0.0014292151706891405 0.9984411352702436 -0.0036432742623522104 8.024411971190682e-05 0.0007231860425372056 -7.745717500326667e-05 -0.0004563204551033652
 0.9984411352702436 -0.0036432742623522104 0.00152362088800752 0.0014291927089612085 -7.745464561754897e-05 -0.00045631902019658166 7.994938761377094e-05 0.000723279096356678
 8.024411971190682e-05 0.0007231860425372056 -7.745464561754897e-05 -0.00045631902019658166 0.001523573459851207 0.001429131124093043 0.998441134810164 -0.003643358087548394
 -7.745717500326667e-05 -0.0004563204551033652 7.994938761377094e-05 0.000723279096356678 0.998441134810164 -0.003643358087548394 0.0015236197966248942 0.0014291091054053583
0.01250521050438 0.0016674019083759836 0.002888490120714005 0.998257049717431 -0.007287460236626629 0.0001140814308870426 0.0014467878620506452 -0.00010705749358438422 -0.0009149192676368246
 0.998257049717431 -0.007287460236626629 0.0016675919668881994 0.002888441851005299 -0.0001070475168500043 -0.0009149166302552642 0.00011290601978056192 0.00144701091790279
 0.0001140814308870426 0.0014467878620506452 -0.0001070475168500043 -0.0009149166302552642 0.0016674031349612531 0.0028883223596026237 0.9982570484262614 -0.007287627623328418
 -0.00010705749358438422 -0.0009149192676368246 0.00011290601978056192 0.00144701091790279 0.9982570484262614 -0.007287627623328418 0.001667588163763121 0.0028882748434012314
0.01875781575657 0.0018227263053388234 0.004368694040052855 0.9980565813139751 -0.01094145099458724 0.0001549001591025575 0.0021712922003517387 -0.00014220134943367297 -0.0013751641464265925
 0.9980565813139751 -0.01094145099458724 0.001823153351744339 0.004368616366914371 -0.00014217908856322228 -0.001375160582655305 0.00015225951284061104 0.0021716888797403103
 0.0001549001591025575 0.0021712922003517387 -0.00014217908856322228 -0.001375160582655305 0.001822729468907243 0.004368442721715975 0.998056578835375 -0.01094170185166283
 -0.00014220134943367297 -0.0013751641464265925 0.00015225951284061104 0.0021716888797403103 0.998056578835375 -0.01094170185166283 0.0018231452456755836 0.004368365989089154
0.02501042100875 0.001989829009712359 0.005867785054145985 0.9978395110365814 -0.014607042808250507 0.00020277554518792414 0.0028967399847100892 -0.00018297207861883667 -0.0018368645150081422
 0.9978395110365814 -0.014607042808250507 0.001990587368326879 0.0058676741673924105 -0.00018293275010213887 -0.001836860349261704 0.0001980847301478407 0.0028973603278567616
 0.00020277554518792414 0.0028967399847100892 -0.00018293275010213887 -0.001836860349261704 0.001989834977406656 0.0058674503079000255 0.9978395070095499 -0.014607377071434686
 -0.00018297207861883667 -0.0018368645150081422 0.0001980847301478407 0.0028973603278567616 0.9978395070095499 -0.014607377071434686 0.001990573376278013 0.00586734043223804
0.03126302626094 0.0021689807452266604 0.007384725363871076 0.997605607824442 -0.018285019990353996 0.0002577836571553462 0.0036231070440418114 -0.00022945096241664122 -0.0022998906562598353
 0.997605607824442 -0.018285019990353996 0.00217016458558851 0.007384577245693831 -0.0002293898268315908 -0.0022998862619745355 0.0002504568038242332 0.003624007546586245
 0.0002577836571553462 0.0036231070440418114 -0.0002293898268315908 -0.0022998862619745355 0.0021689903755487995 0.007384307304191586 0.9976056018892415 -0.018285437609460508
 -0.00022945096241664122 -0.0022998906562598353 0.0002504568038242332 0.003624007546586245 0.9976056018892415 -0.018285437609460508 0.0021701431367745004 0.007384160157880667
0.037515631513130004 0.0023604465345544077 0.008918848120545358 0.9973546348283223 -0.021975787964530993 0.0003200005558463753 0.004350343666492958 -0.0002817178071443896 -0.002764134134329728
 0.9973546348283223 -0.021975787964530993 0.002362149903958509 0.008918658549317574 -0.00028163016444611135 -0.0027641299342144117 0.0003094505985070063 0.004351587345979157
 0.0003200005558463753 0.004350343666492958 -0.00028163016444611135 -0.0027641299342144117 0.002360460676556826 0.008918346854232751 0.9973546266246137 -0.021976288896379006
 -0.0002817178071443896 -0.002764134134329728 0.0003094505985070063 0.004351587345979157 0.9973546266246137 -0.021976288896379006 0.0023621194379211063 0.008918158112376411
0.043768236765320004 0.002564488055691135 0.010469664784518674 0.9970863519155607 -0.025679565843470874 0.00038950191266120306 0.0050783866169693374 -0.0003398511573446694 -0.0032294957649612577
 0.9970863519155607 -0.025679565843470874 0.0025668049048810475 0.010469429337284435 -0.00033973234410358464 -0.0032294922311511573 0.0003751404566274446 0.005080043088695618
 0.00038950191266120306 0.0050783866169693374 -0.00033973234410358464 -0.0032294922311511573 0.002564507552062352 0.010469080408014312 0.9970863410852547 -0.025680150054793103
 -0.0003398511573446694 -0.0032294957649612577 0.0003751404566274446 0.005080043088695618 0.9970863410852547 -0.025680150054793103 0.002566763873669066 0.010468845550817901
0.050020842017509996 0.0027813647497085484 0.012036785475938196 0.9968005169302188 -0.029396466012600184 0.0004663627882706939 0.005807164103842749 -0.0004039283772324256 -0.003695880639925005
 0.9968005169302188 -0.029396466012600184 0.0027843889545581656 0.012036499530181054 -0.0004037737649417361 -0.003695878294092682 0.00044760004421005216 0.005809309660622349
 0.0004663627882706939 0.005807164103842749 -0.0004037737649417361 -0.003695878294092682 0.002781390434643518 0.01203611808117503 0.9968005031144535 -0.029397133474244906
 -0.0004039283772324256 -0.003695880639925005 0.00044760004421005216 0.005809309660622349 0.9968005031144535 -0.029397133474244906 0.002784335819482679 0.012035832395710626
0.055454545454549996 0.002980461137197582 0.013411644123772526 0.9965376741848406 -0.03263725774453392 0.0005391917709085524 0.00644102997481418 -0.000464499788948556 -0.004101941920088769
 0.9965376741848406 -0.03263725774453392 0.0029841762509986397 0.01341131038505467 -0.00046431033352319014 -0.004101941068831663 0.000516124090934335 0.006443667767935513
 0.0005391917709085524 0.00644102997481418 -0.00046431033352319014 -0.004101941068831663 0.002980492871334913 0.013410904658186375 0.9965376574828622 -0.032637997529433124
 -0.000464499788948556 -0.004101941920088769 0.000516124090934335 0.006443667767935513 0.9965376574828622 -0.032637997529433124 0.0029841113548638586 0.013410570824757351
0.056273447269699996 0.0030113343933520676 0.013619879905313634 0.9964968864214222 -0.03312653313405206 0.0005506574792242041 0.0065365982188980735 -0.0004740256761450425 -0.004163195680737038
 0.9964968864214222 -0.03312653313405206 0.0030151597746568416 0.013619538640048685 -0.0004738306700429007 -0.0041631950941610875 0.0005269022383658221 0.006539315912719489
 0.0005506574792242041 0.0065365982188980735 -0.0004738306700429007 -0.0041631950941610875 0.003011367092939529 0.013619129582592062 0.9964968692610584 -0.033127283818229984
 -0.0004740256761450425 -0.004163195680737038 0.0005269022383658221 0.006539315912719489 0.9964968692610584 -0.033127283818229984 0.003015093006347588 0.013618788163870885
0.06252605252188 0.0032546534127520263 0.015218655888104565 0.9961752161163039 -0.03686976556771922 0.0006424594024907247 0.00726660626075961 -0.0005502181019692699 -0.0046313483113720865
 0.9961752161163039 -0.03686976556771922 0.00325937375473697 0.015218254284488994 -0.0005499781403544705 -0.004631350105013314 0.000613119037975151 0.0072699859853742905
 0.0006424594024907247 0.00726660626075961 -0.0005499781403544705 -0.004631350105013314 0.0032546939467972998 0.015217822723776588 0.9961751952527953 -0.03687059945034147
 -0.0005502181019692699 -0.0046313483113720865 0.000613119037975151 0.0072699859853742905 0.9961751952527953 -0.03687059945034147 0.0032592918338914525 0.015217420475469971
0.06877865777407 0.0035115770602732856 0.016832846524922215 0.9958352612593119 -0.04062612812875476 0.0007418409977057675 0.00799710154267616 -0.0006325795190959408 -0.0051002456492415275
 0.9958352612593119 -0.04062612812875476 0.0035172861283736573 0.016832379366444702 -0.0006322900728174443 -0.005100250493799424 0.0007063214850502019 0.008001240116522989
 0.0007418409977057675 0.00799710154267616 -0.0006322900728174443 -0.005100250493799424 0.0035116262410889005 0.01683193060254544 0.9958352363332718 -0.04062704518840272
 -0.0006325795190959408 -0.0051002456492415275 0.0007063214850502019 0.008001240116522989 0.9958352363332718 -0.04062704518840272 0.0035171875443310084 0.016831462237128524
0.07503126302626001 0.003782359504578971 0.01846220208266451 0.9954767768669242 -0.044395560146294415 0.0008488736414707996 0.008727993892936074 -0.0007211825755551164 -0.005569794006195164
 0.9954767768669242 -0.044395560146294415 0.003789151062729525 0.018461663954753942 -0.0007208391477256132 -0.005569802622161937 0.0008065795928355253 0.008732995142120071
 0.0008488736414707996 0.008727993892936074 -0.0007208391477256132 -0.005569802622161937 0.0037824181382108556 0.018461203485199865 0.9954767475193647 -0.044396560362133526
 -0.0007211825755551164 -0.005569794006195164 0.0008065795928355253 0.008732995142120071 0.9954767475193647 -0.044396560362133526 0.0037890343141566804 0.018460663523653623
0.08128386827845 0.0040672538701756 0.020106484588905 0.9950995179360972 -0.04817798081179289 0.0009636275694902254 0.009459189989767497 -0.0008160986626166254 -0.006039898557858517
 0.9950995179360972 -0.04817798081179289 0.0040752216980492134 0.020105869878126566 -0.0008156967885106498 -0.006039911715553684 0.0009139622785271135 0.009465164830827938
 0.0009636275694902254 0.009459189989767497 -0.0008156967885106498 -0.006039911715553684 0.004067322756272871 0.020105403394147528 0.9950994838073888 -0.04817906416812006
 -0.0008160986626166254 -0.006039898557858517 0.0009139622785271135 0.009465164830827938 0.9950994838073888 -0.04817906416812006 0.004075085291957125 0.020104786165249994
0.08753647353064001 0.004366512242637693 0.021765464090294007 0.9947032396198142 -0.051973292866134765 0.0010861718022792861 0.010190593600991449 -0.0009173978704602222 -0.006510463111103231
 0.9947032396198142 -0.051973292866134765 0.004375750152573861 0.021764766983087373 -0.000916933117457327 -0.006510481630712666 0.0010285372978431889 0.010197660123288106
 0.0010861718022792861 0.010190593600991449 -0.000916933117457327 -0.006510481630712666 0.004366592175102312 0.021764300375209752 0.9947032003502235 -0.05197445934809274
 -0.0009173978704602222 -0.006510463111103231 0.0010285372978431889 0.010197660123288106 0.9947032003502235 -0.05197445934809274 0.004375592604786522 0.021763600014292405
0.09378907878283 0.004680385649472005 0.023438915975716602 0.9942876973822101 -0.05578138522512889 0.001216574074529171 0.010922105750982616 -0.0010251489397995334 -0.006981389947212428
 0.9942876973822101 -0.05578138522512889 0.004690987503579301 0.0234381304565274 -0.0010246169074770196 -0.00698141469880885 0.0011503711815230952 0.010930389298564318
 0.001216574074529171 0.010922105750982616 -0.0010246169074770196 -0.00698141469880885 0.0046804774164448375 0.023437669818817838 0.99428765261151 -0.05578263481639906
 -0.0010251489397995334 -0.006981389947212428 0.0011503711815230952 0.010930389298564318 0.99428765261151 -0.05578263481639906 0.004690807337839304 0.02343688026610399
0.100041684035 0.005009124024252259 0.02512661902775283 0.993852647138999 -0.05960213487997725 0.0013549007668017298 0.011653624847184697 -0.001139419210712949 -0.007452579708591998
 0.993852647138999 -0.05960213487997725 0.005021183751214718 0.025125738876796543 -0.0011388155309464535 -0.007452611612156718 0.001279529172928982 0.01166325809999278
 0.0013549007668017298 0.011653624847184697 -0.0011388155309464535 -0.007452611612156718 0.005009228408446808 0.02512529050162439 0.9938525965064349 -0.05960346757030472
 -0.001139419210712949 -0.007452579708591998 0.001279529172928982 0.01166325809999278 0.9938525965064349 -0.05960346757030472 0.005020979499414609 0.02512440550000164
0.1059090909091 0.005331351283522753 0.026723115233329965 0.9934264393955929 -0.06319889608700903 0.0014919707518810867 0.012339991544121062 -0.0012526375930527077 -0.007894890432109078
 0.9934264393955929 -0.06319889608700903 0.005344864571017065 0.026722140439236326 -0.0012519627359438706 -0.007894929928212988 0.0014074483779359603 0.01235101862853449
 0.0014919707518810867 0.012339991544121062 -0.0012519627359438706 -0.007894929928212988 0.005331468214783719 0.026721709479405893 0.9934263829335659 -0.06320030674680911
 -0.0012526375930527077 -0.007894890432109078 0.0014074483779359603 0.01235101862853449 0.9934263829335659 -0.06320030674680911 0.005344636388542256 0.02672072904016
0.1062942892872 0.005352976158102139 0.026828353930573343 0.993397845388079 -0.06343540834482754 0.0015012168375502083 0.012385046782005414 -0.0012602745701574929 -0.007923931313223647
 0.993397845388079 -0.06343540834482754 0.005366587770370955 0.026827372720976857 -0.0012595949073147862 -0.007923971338649315 0.0014160751657478219 0.012396169836372201
 0.0015012168375502083 0.012385046782005414 -0.0012595949073147862 -0.007923971338649315 0.00535309393698445 0.026826943108936987 0.9933977885323213 -0.06343682412297441
 -0.0012602745701574929 -0.007923931313223647 0.0014160751657478219 0.012396169836372201 0.9933977885323213 -0.06343682412297441 0.00536635797205685 0.02682595620123282
0.11254689453939999 0.005712189641176562 0.02854390215575829 0.9929230493333243 -0.06728106273001808 0.0016555857573298997 0.013116265009005331 -0.0013877793969825037 -0.008395341898136061
 0.9929230493333243 -0.06728106273001808 0.005727447252217047 0.02854281325018605 -0.0013870194481732162 -0.008395391065234105 0.0015600716425650607 0.01312902545730279
 0.0016555857573298997 0.013116265009005331 -0.0013870194481732162 -0.008395391065234105 0.005712321587570986 0.028542409111308092 0.9929229858922392 -0.0672825615858778
 -0.0013877793969825037 -0.008395341898136061 0.0015600716425650607 0.01312902545730279 0.9929229858922392 -0.0672825615858778 0.005727190454723562 0.028541313637065645
0.11879949979160001 0.006087010797345052 0.030273045074397036 0.992428017002395 -0.07113894659258499 0.0018180694427174593 0.013847170608642274 -0.0015219965062813294 -0.0088667067765946
 0.992428017002395 -0.07113894659258499 0.006104008638726771 0.030271841621148408 -0.0015211520016164782 -0.008866766155076528 0.0017115796132777731 0.013861723618010427
 0.0018180694427174593 0.013847170608642274 -0.0015211520016164782 -0.008866766155076528 0.006087157679423894 0.03027146987737251 0.9924279466133152 -0.07114052851871923
 -0.0015219965062813294 -0.0088667067765946 0.0017115796132777731 0.013861723618010427 0.9924279466133152 -0.07114052851871923 0.006103723396777013 0.030270258969077375
0.1250521050438 0.00647768461209819 0.032015563262328524 0.9919125073627026 -0.07500890059776032 0.001988728191321016 0.014577652344221462 -0.0016629870922146768 -0.009337919408517971
 0.9919125073627026 -0.07500890059776032 0.006496517051170084 0.032014238190826175 -0.0016620537951146975 -0.009337990117972511 0.0018706585538266472 0.014594160734335221
 0.001988728191321016 0.014577652344221462 -0.0016620537951146975 -0.009337990117972511 0.006477847193797376 0.03201390598122813 0.9919124296620434 -0.07501056558862886
 -0.0016629870922146768 -0.009337919408517971 0.0018706585538266472 0.014594160734335221 0.9919124296620434 -0.07501056558862886 0.006496201926772947 0.03201257255993692
0.131304710296 0.006884454656141196 0.033771235942267254 0.9913762804329332 -0.0788907580474018 0.0021676206165660706 0.01530759671106832 -0.001810810670243809 -0.009808871381152441
 0.9913762804329332 -0.0788907580474018 0.0069052162132977185 0.03376978195798119 -0.001809784377821224 -0.009808954591021901 0.002037366344798 0.015326231030772377
 0.0021676206165660706 0.01530759671106832 -0.001809784377821224 -0.009808954591021901 0.006884633697370054 0.03376949664658582 0.9913761950563774 -0.07889250609666282
 -0.001810810670243809 -0.009808871381152441 0.002037366344798 0.015326231030772377 0.9913761950563774 -0.07889250609666282 0.006904869775681913 0.03376803341695656
0.1375573155481 0.007210318357299764 0.03531106298716218 0.9909163697378588 -0.08255549720050599 0.002331724873828218 0.016013825001128714 -0.0019426028330043234 -0.010256293631976447
 0.9909163697378588 -0.08255549720050599 0.007233111896142421 0.03530950373637878 -0.001941477594468243 -0.010256389367822489 0.002188987008709155 0.016034548450953846
 0.002331724873828218 0.016013825001128714 -0.001941477594468243 -0.010256389367822489 0.007210515553959481 0.03530924115467986 0.9909162763402084 -0.08255732827267603
 -0.0019426028330043234 -0.010256293631976447 0.002188987008709155 0.016034548450953846 0.9909162763402084 -0.08255732827267603 0.007232731738247299 0.03530767288143006
0.1438099208003 0.007547515149945262 0.036843428872225414 0.9904405174830542 -0.08621159434464438 0.0025024802219257274 0.01671748539175946 -0.002079675827161796 -0.010701423460529704
 0.9904405174830542 -0.08621159434464438 0.007572436717465636 0.03684175892554682 -0.002078447172838297 -0.010701532858768802 0.0023467082405398574 0.016740452948046
 0.0025024802219257274 0.01671748539175946 -0.002078447172838297 -0.010701532858768802 0.007547731425630395 0.03684152450567735 0.9904404157031137 -0.08621350842715925
 -0.002079675827161796 -0.010701423460529704 0.0023467082405398574 0.016740452948046 0.9904404157031137 -0.08621350842715925 0.007572021240788025 0.036839845883271556
0.1500625260525 0.007895934514076152 0.03836822474042243 0.9899488375890245 -0.0898589780017628 0.0026798335459466034 0.017418515583783524 -0.0022219792570632203 -0.011144203830883046
 0.9899488375890245 -0.0898589780017628 0.007923080362880107 0.03836643834619298 -0.0022206427284382586 -0.01114432807300665 0.0025104797810463686 0.01744388786766932
 0.0026798335459466034 0.017418515583783524 -0.0022206427284382586 -0.01114432807300665 0.007896170799647498 0.03836623783740909 0.9899487270651823 -0.08986097508409008
 -0.0022219792570632203 -0.011144203830883046 0.0025104797810463686 0.01744388786766932 0.9899487270651823 -0.08986097508409008 0.00792262796365794 0.03836444324748366
0.15631513130469998 0.008255465246721662 0.03988534511773093 0.9894414444404958 -0.0934975765706489 0.0028637311610456096 0.018116854225206525 -0.002369462161176139 -0.011584578841237864
