! Created with skrf 1.8.0 (http://scikit-rf.org).
# GHz S RI R 50.0 
!freq ReS11 ImS11 ReS12 ImS12 ReS13 ImS13
! ReS14 ImS14
! ReS21 ImS21 ReS22 ImS22 ReS23 ImS23
! ReS24 ImS24
! ReS31 ImS31 ReS32 ImS32 ReS33 ImS33
! ReS34 ImS34
! ReS41 ImS41 ReS42 ImS42 ReS43 ImS43
! ReS44 ImS44
!
0.0 0.001318192303975 0.0 0.9986818076811 0.0 5.029404482741e-05 0.0 -5.029404415093e-05 6.159244018561208e-21
 0.9986818076811 0.0 0.00131819230397 0.0 -5.029404415109e-05 6.159244018580803e-21 5.029404482913e-05 0.0
 5.029404482741e-05 0.0 -5.029404415109e-05 6.159244018580803e-21 0.001318192307538 0.0 0.9986818076847 0.0
 -5.029404415093e-05 6.159244018561208e-21 5.029404482913e-05 0.0 0.9986818076847 0.0 0.001318192307517 0.0
0.005 0.0014176551824778435 0.0010820011651583577 0.9985560696411218 -0.0027618058144809974 6.968621624431599e-05 0.000534788348276693 -6.781441404818202e-05 -0.00033916301317872473
 0.9985560696411218 -0.0027618058144809974 0.001417674412508894 0.0010819898778966922 -6.781317697050544e-05 -0.00033916202864248774 6.956047420936818e-05 0.0005348359513933696
 6.968621624431599e-05 0.000534788348276693 -6.781317697050544e-05 -0.00033916202864248774 0.0014176563338607218 0.0010820677110443045 0.9985560699785018 -0.0027617387518554613
 -6.781441404818202e-05 -0.00033916301317872473 6.956047420936818e-05 0.0005348359513933696 0.9985560699785018 -0.0027617387518554613 0.001417673928879446 0.001082057450739788
0.006252605252188 0.001443571902023013 0.0013567663954586174 0.9985231258391091 -0.003452957310793403 7.514281383690704e-05 0.0006687632209968839 -7.268171772997493e-05 -0.00042439722889038383
 0.9985231258391091 -0.003452957310793403 0.0014436019629892704 0.0013567521201754327 -7.267979298019938e-05 -0.00042439601389836863 7.494634852828984e-05 0.0006688250298696028
 7.514281383690704e-05 0.0006687632209968839 -7.267979298019938e-05 -0.00042439601389836863 0.001443573629573392 0.0013568495647383794 0.9985231262940711 -0.003452873488047237
 -7.268171772997493e-05 -0.00042439722889038383 7.494634852828984e-05 0.0006688250298696028 0.9985231262940711 -0.003452873488047237 0.0014436011339987406 0.0013568365819283392
0.01250521050438 0.0015790172898345587 0.0027420839861962273 0.9983499404304191 -0.006906856106404558 0.00010599278017215913 0.0013379911782872027 -9.987213677470054e-05 -0.0008509360751970373
 0.9983499404304191 -0.006906856106404558 0.001579137332826486 0.0027420537635509026 -9.986455429310983e-05 -0.0008509338149877342 0.00010520918688117277 0.0013381394013581818
 0.00010599278017215913 0.0013379911782872027 -9.986455429310983e-05 -0.0008509338149877342 0.0015790236326432383 0.00274224998870558 0.9983499416886125 -0.0069066886939335576
 -9.987213677470054e-05 -0.0008509360751970373 0.00010520918688117277 0.0013381394013581818 0.9983499416886125 -0.0069066886939335576 0.0015791334558956417 0.0027422224520176758
0.01875781575657 0.0017247895322649903 0.004147312183066108 0.9981620610427641 -0.010370134145689708 0.00014290960195561161 0.0020081289316235787 -0.00013194111624220112 -0.0012790497971683374
 0.9981620610427641 -0.010370134145689708 0.0017250592860635267 0.004147264204008231 -0.00013192421053661083 -0.00127904668901688 0.00014114902249815316 0.0020083924026723333
 0.00014290960195561161 0.0020081289316235787 -0.00013192421053661083 -0.00127904668901688 0.0017248033774028423 0.004147560770337281 0.9981620634580958 -0.010369883215282203
 -0.00013194111624220112 -0.0012790497971683374 0.00014114902249815316 0.0020083924026723333 0.9981620634580958 -0.010369883215282203 0.001725050144300263 0.00414751701366282
0.02501042100875 0.0018811437897864726 0.005570527682679384 0.9979592907642123 -0.013844505208903023 0.00018596027458598583 0.002679218918685386 -0.00016896266403915468 -0.0017085708023526671
 0.9979592907642123 -0.013844505208903023 0.001881622868025672 0.005570460025935162 -0.0001689328141685337 -0.0017085670748525025 0.0001828324868931257 0.002679630537620684
 0.00018596027458598583 0.002679218918685386 -0.0001689328141685337 -0.0017085670748525025 0.0018811680127784492 0.005570858595287239 0.9979592946830902 -0.013844170770429102
 -0.00016896266403915468 -0.0017085708023526671 0.0001828324868931257 0.002679630537620684 0.9979592946830902 -0.013844170770429102 0.0018816062295144223 0.005570796880282236
0.03126302626094 0.002048324462657011 0.007010758935763927 0.9977414214371281 -0.01733072460665527 0.0002352125344054327 0.0033512449043388262 -0.00021100908748500485 -0.002139386605887418
 0.9977414214371281 -0.01733072460665527 0.0020490723955943237 0.007010669573260693 -0.00021096270930600762 -0.0021393825194443478 0.0002303265817094388 0.003351841661823781
 0.0002352125344054327 0.0033512449043388262 -0.00021096270930600762 -0.0021393825194443478 0.002048361941557363 0.007011171868731343 0.9977414272129379 -0.017330306642375164
 -0.00021100908748500485 -0.002139386605887418 0.0002303265817094388 0.003351841661823781 0.9977414272129379 -0.017330306642375164 0.0020490460255040777 0.007011090390272248
0.037515631513130004 0.0022265708537524036 0.008467386265667058 0.9975082394377953 -0.020829189010277714 0.0002907341660238372 0.004024167720959778 -0.00025815150319950087 -0.002571404072215643
 0.9975082394377953 -0.020829189010277714 0.0022276471084903765 0.008467273065529584 -0.00025808504534418405 -0.0025713999191852212 0.00028369818274122816 0.004024990741923148
 0.0002907341660238372 0.004024167720959778 -0.00025808504534418405 -0.0025713999191852212 0.0022266244646537725 0.008467880860385557 0.9975082474268409 -0.020828687482453753
 -0.00025815150319950087 -0.002571404072215643 0.00028369818274122816 0.004024990741923148 0.9975082474268409 -0.020828687482453753 0.0022276087638636193 0.008467777749975917
0.043768236765320004 0.0024161193556616286 0.0099399593243527 0.9972595279844095 -0.02434011893749483 0.00035259269218320186 0.004697936119377484 -0.0003104600210055645 -0.003004538551164658
 0.9972595279844095 -0.02434011893749483 0.002417583352026602 0.009939820052896323 -0.0003103699624799412 -0.0030045346558966422 0.0003430138135453881 0.004699030712441383
 0.00035259269218320186 0.004697936119377484 -0.0003103699624799412 -0.0030045346558966422 0.0024161919712531667 0.009940535177112377 0.9972595385451903 -0.024339533779258734
 -0.0003104600210055645 -0.003004538551164658 0.0003430138135453881 0.004699030712441383 0.9972595385451903 -0.024339533779258734 0.002417530779673063 0.009940408505412036
0.050020842017509996 0.0026172044741556108 0.011428121641967407 0.9969950682833085 -0.027863634142143358 0.0004208551898201519 0.005372491259352661 -0.00036800382053288973 -0.0034387093765553974
 0.9969950682833085 -0.027863634142143358 0.0026191155979882713 0.011427953965166326 -0.00036788666908763696 -0.00343870609540184 0.00040833950587674275 0.005373906968777438
 0.0004208551898201519 0.005372491259352661 -0.00036788666908763696 -0.00343870609540184 0.002617298964543103 0.011428778294007047 0.996995081779121 -0.02786296526697785
 -0.00036800382053288973 -0.0034387093765553974 0.00040833950587674275 0.005373906968777438 0.996995081779121 -0.02786296526697785 0.0026190465355955365 0.011428626072913176
0.055454545454549996 0.0028015037886414784 0.01273380645785771 0.9967522843399033 -0.030935941055555756 0.00048542984566377707 0.005959289262057292 -0.0004223158620976455 -0.003816797338783027
 0.9967522843399033 -0.030935941055555756 0.002803851691029322 0.01273361212337552 -0.0004221723514763285 -0.0038167949055597917 0.00047004125922193426 0.005961027596885414
 0.00048542984566377707 0.005959289262057292 -0.0004221723514763285 -0.0038167949055597917 0.0028016196170962946 0.012734532913490956 0.9967523006848489 -0.03093519933994078
 -0.0004223158620976455 -0.003816797338783027 0.00047004125922193426 0.005961027596885414 0.9967523006848489 -0.03093519933994078 0.0028037664529439975 0.012734356830258411
0.056273447269699996 0.002830059365802174 0.012931573598896786 0.9967146401934398 -0.03139979058128015 0.0004955881666774956 0.006047768896919259 -0.0004308511750381657 -0.0038738376697419175
 0.9967146401934398 -0.03139979058128015 0.002832476981042441 0.012931375083522049 -0.00043070346610441933 -0.0038738353910430165 0.0004797407028082335 0.006049559555723006
 0.0004955881666774956 0.006047768896919259 -0.00043070346610441933 -0.0038738353910430165 0.002830178597687564 0.012932310539035126 0.9967146569922023 -0.031399037879741507
 -0.0004308511750381657 -0.0038738376697419175 0.0004797407028082335 0.006049559555723006 0.9967146569922023 -0.031399037879741507 0.0028323891560072226 0.012932130723372024
0.06252605252188 0.0030549161359118534 0.014450052062246385 0.9964180226530701 -0.034948600718470675 0.0005768574658498898 0.006723700596381832 -0.0004990694506231561 -0.004309845120253259
 0.9964180226530701 -0.034948600718470675 0.003057899595934835 0.01444982017662646 -0.0004988877465181285 -0.004309844264330807 0.000557282180908602 0.006725924380082778
 0.0005768574658498898 0.006723700596381832 -0.0004988877465181285 -0.004309844264330807 0.0030550629714635948 0.01445086871934397 0.9964180431271367 -0.034947764065340475
 -0.0004990694506231561 -0.004309845120253259 0.000557282180908602 0.006725924380082778 0.9964180431271367 -0.034947764065340475 0.00305779072444456 0.014450659208200387
0.06877865777407 0.003292006006614984 0.015983318254349895 0.9961049939786428 -0.03851004559651872 0.0006647281872288054 0.007400214444701103 -0.000572725090053091 -0.00474665326598111
 0.9961049939786428 -0.03851004559651872 0.0032956146649589105 0.015983050368852007 -0.0005725059794071174 -0.004746654285109371 0.0006410279838679689 0.007402933925328688
 0.0006647281872288054 0.007400214444701103 -0.0005725059794071174 -0.004746654285109371 0.0032921833032953265 0.0159842140064892 0.9961050185068432 -0.038509124840971666
 -0.000572725090053091 -0.00474665326598111 0.0006410279838679689 0.007402933925328688 0.9961050185068432 -0.038509124840971666 0.003295482452058095 0.015983972644349406
0.07503126302626001 0.0035415594106039073 0.017531150043476957 0.9957753320935577 -0.04208408248953026 0.0007592646183626808 0.008077235506146124 -0.0006518835875542867 -0.005184183035092599
 0.9957753320935577 -0.04208408248953026 0.0035458526317559977 0.0175308434307185 -0.0006516236849045497 -0.005184186413471342 0.0007310413624153751 0.008080517706313729
 0.0007592646183626808 0.008077235506146124 -0.0006516236849045497 -0.005184186413471342 0.003541770020110521 0.017532124206092455 0.9957753610605157 -0.04208307746655232
 -0.0006518835875542867 -0.005184183035092599 0.0007310413624153751 0.008080517706313729 0.9957753610605157 -0.04208307746655232 0.0035456947704270905 0.017531848783657926
0.08128386827845 0.0038038060345027317 0.019093336830764047 0.9954288147067738 -0.045670649960703115 0.0008605301709713165 0.008754686122726651 -0.00073660945785005 -0.005622354444273235
 0.9954288147067738 -0.045670649960703115 0.00380884320401891 0.019092988665515627 -0.000736305403335592 -0.005622360698001868 0.0008273847178084121 0.008758602569595184
 0.0008605301709713165 0.008754686122726651 -0.000736305403335592 -0.005622360698001868 0.003804052802259431 0.01909438866582765 0.9954288485045865 -0.04566956048144887
 -0.00073660945785005 -0.005622354444273235 0.0008273847178084121 0.008758602569595184 0.9954288485045865 -0.04566956048144887 0.0038086573750031106 0.019094076920517677
0.08753647353064001 0.004078974833429191 0.0206696760024508 0.9950652194667745 -0.049269671357013996 0.0009685873211321262 0.009432486126440938 -0.0008269662009335042 -0.006061086387318176
 0.9950652194667745 -0.049269671357013996 0.004084815368422358 0.020669283361292 -0.0008266146600632035 -0.006061096064361192 0.0009301195479488988 0.009437112905508195
 0.0009685873211321262 0.009432486126440938 -0.0008266146600632035 -0.006061096064361192 0.0040792605969944395 0.020670804711072622 0.9950652584944453 -0.04926849721576182
 -0.0008269662009335042 -0.006061086387318176 0.0009301195479488988 0.009437112905508195 0.9950652584944453 -0.04926849721576182 0.004084599239149307 0.02067045432729801
0.09378907878283 0.00436729402125843 0.022259970395379358 0.9946843240927763 -0.0528810572928761 0.001083497552752989 0.010110552985934064 -0.0009230162633577559 -0.006500296491574773
 0.9946843240927763 -0.0528810572928761 0.004373997380586519 0.022259530256068447 -0.0009226139268810445 -0.006500310171729205 0.001039306394996342 0.01011597079454838
 0.001083497552752989 0.010110552985934064 -0.0009226139268810445 -0.006500310171729205 0.004367621610391762 0.022261175117991246 0.9946843687581277 -0.052879798266425145
 -0.0009230162633577559 -0.006500296491574773 0.001039306394996342 0.01011597079454838 0.9946843687581277 -0.052879798266425145 0.004373748605420954 0.022260783727143726
0.100041684035 0.004668991047513744 0.023864026435658818 0.9942859064955795 -0.05650470746319706 0.0012053213015219167 0.010788801921974834 -0.0010248209979136658 -0.006939901007930691
 0.9942859064955795 -0.05650470746319706 0.004676616742246916 0.023863535676150335 -0.001024364581757657 -0.00693991930277998 0.0011550047936721177 0.01079509612247997
 0.0012053213015219167 0.010788801921974834 -0.001024364581757657 -0.00693991930277998 0.0046693632828054615 0.023865306257391205 0.9942859572146713 -0.05650336330505561
 -0.0010248209979136658 -0.006939901007930691 0.0011550047936721177 0.01079509612247997 0.9942859572146713 -0.05650336330505561 0.004676332961204034 0.023864871437506322
0.1059090909091 0.0049644706131871195 0.025381608460870037 0.9938958999987327 -0.05991617524482042 0.0013259806043060245 0.011425354787151037 -0.0011256414098546443 -0.007352706058239872
 0.9938958999987327 -0.05991617524482042 0.004973016002001297 0.025381067270257514 -0.0011251312811465847 -0.007352729268006696 0.001269549758166313 0.011432553226480225
 0.0013259806043060245 0.011425354787151037 -0.0011251312811465847 -0.007352729268006696 0.004964887300289925 0.025382957868325243 0.9938959567857362 -0.05991475095994491
 -0.0011256414098546443 -0.007352706058239872 0.001269549758166313 0.011432553226480225 0.9938959567857362 -0.05991475095994491 0.004972697212494994 0.025382480044024602
0.1062942892872 0.00498429256176236 0.02548165274267396 0.993869744887082 -0.06014051199349186 0.0013341179007252753 0.011467145989971504 -0.0011324406209950722 -0.007379814736095366
 0.993869744887082 -0.06014051199349186 0.004992900165438748 0.02548110813990983 -0.0011319268661433958 -0.007379838288976182 0.0012772732204954708 0.011474406662453262
 0.0013341179007252753 0.011467145989971504 -0.0011319268661433958 -0.007379838288976182 0.004984712253570675 0.025483006686957917 0.9938698020857217 -0.060139082439984046
 -0.0011324406209950722 -0.007379814736095366 0.0012772732204954708 0.011474406662453262 0.9938698020857217 -0.060139082439984046 0.004992579004210385 0.025482525962039353
0.11254689453939999 0.0053134243691757045 0.027112659056720976 0.9934356178842442 -0.06378835246923226 0.0014699455277044204 0.012145496149328725 -0.0012459341686132193 -0.007819950965580866
 0.9934356178842442 -0.06378835246923226 0.0053230735281773476 0.027112057285057094 -0.001245359841142372 -0.007819980451537492 0.0014061690430007955 0.012153818143894888
 0.0014699455277044204 0.012145496149328725 -0.001245359841142372 -0.007819980451537492 0.005313894316876053 0.02711408608742217 0.9934356819982396 -0.06378683723698539
 -0.0012459341686132193 -0.007819950965580866 0.0014061690430007955 0.012153818143894888 0.9934356819982396 -0.06378683723698539 0.005322712597461536 0.02711355692654924
0.11879949979160001 0.005656611379644331 0.028756855400044072 0.992983304608797 -0.06744810273448176 0.0016128611505290486 0.012823761317508254 -0.0013653594512980944 -0.008260221434481086
 0.992983304608797 -0.06744810273448176 0.005667361823884315 0.02875619302939436 -0.00136472134240525 -0.008260257560211957 0.0015417484693892045 0.012833244306055073
 0.0016128611505290486 0.012823761317508254 -0.00136472134240525 -0.008260257560211957 0.0056571343705640546 0.02875835441933034 0.9929833760843578 -0.0674465015223494
 -0.0013653594512980944 -0.008260221434481086 0.0015417484693892045 0.012833244306055073 0.9929833760843578 -0.0674465015223494 0.005666958718570823 0.028757774235365803
0.1250521050438 0.006014077551116877 0.030414051415762613 0.9925125847820921 -0.0711196295156837 0.0017629204749873876 0.013501848415885866 -0.0014907730081216558 -0.008700536299053506
 0.9925125847820921 -0.0711196295156837 0.00602598910443831 0.030413324909364454 -0.001490067934121418 -0.008700579802866051 0.0016840664980367855 0.013512596943253083
 0.0017629204749873876 0.013501848415885866 -0.001490067934121418 -0.008700579802866051 0.006014656359597524 0.030415621265976 0.9925126640771993 -0.07111794200249678
 -0.0014907730081216558 -0.008700536299053506 0.0016840664980367855 0.013512596943253083 0.9925126640771993 -0.07111794200249678 0.006025541403665517 0.030414987413970005
0.131304710296 0.006386045828769662 0.032084055834534 0.9920232388198705 -0.07480279292056437 0.0019201778921198707 0.014179662410233641 -0.0016222300595472848 -0.009140804111268443
 0.9920232388198705 -0.07480279292056437 0.006399178419823354 0.032083261546434046 -0.0016214548619830672 -0.009140855763016487 0.0018331768671450224 0.014191785944857475
 0.0019201778921198707 0.014179662410233641 -0.0016214548619830672 -0.009140855763016487 0.006386683215200793 0.03208569529728232 0.9920233264042625 -0.07480101876590155
 -0.0016222300595472848 -0.009140804111268443 0.0018331768671450224 0.014191785944857475 0.9920233264042625 -0.07480101876590155 0.006398683685981903 0.03208500507254895
0.1375573155481 0.006681896402619083 0.03354933798671303 0.9916059142472062 -0.07828004314886397 0.0020636785687442164 0.0148351298268856 -0.0017388847365765248 -0.009558892165375785
 0.9916059142472062 -0.07828004314886397 0.006696313965418415 0.03354848690146901 -0.0017380346665047171 -0.009558951932935598 0.0019683366640047503 0.01484860052288215
 0.0020636785687442164 0.0148351298268856 -0.0017380346665047171 -0.009558951932935598 0.006682594533335696 0.03355104611947279 0.9916060105003596 -0.07827818214554409
 -0.0017388847365765248 -0.009558892165375785 0.0019683366640047503 0.01484860052288215 0.9916060105003596 -0.07827818214554409 0.006695770510122908 0.03355031109872867
0.1438099208003 0.006987969399702839 0.03500782531622553 0.9911742546386411 -0.08174939536576672 0.002212983954848869 0.015488383126808855 -0.0018602109853970352 -0.009974992149877755
 0.9911742546386411 -0.08174939536576672 0.007003732618351273 0.03500691456788058 -0.0018592826340260626 -0.009975060783038297 0.00210893285612308 0.015503299973743827
 0.002212983954848869 0.015488383126808855 -0.0018592826340260626 -0.009975060783038297 0.00698873090731565 0.035009600869818774 0.9911743600294538 -0.08174744717893
 -0.0018602109853970352 -0.009974992149877755 0.00210893285612308 0.015503299973743827 0.9911743600294538 -0.08174744717893 0.007003138115764569 0.03500881911904502
0.1500625260525 0.007304168511296731 0.03645942313652367 0.9907283594696092 -0.08521079074253116 0.0023680493656588974 0.016139370274150112 -0.001986166204241062 -0.010389055955784227
 0.9907283594696092 -0.08521079074253116 0.007321338193401984 0.03645844968556358 -0.0019851561677682534 -0.010389134234375146 0.002254922605272989 0.016155835844202146
 0.0023680493656588974 0.016139370274150112 -0.0019851561677682534 -0.010389134234375146 0.007304996007610796 0.03646126481262323 0.9907284744771038 -0.08520875502357694
 -0.001986166204241062 -0.010389055955784227 0.002254922605272989 0.016155835844202146 0.9907284744771038 -0.08520875502357694 0.007320690310358594 0.03646043426065193
0.15631513130469998 0.00763039688279472 0.037904039771028325 0.990268328567081 -0.08866417013819494 0.002528829663195529 0.01678803998997146 -0.002116707338402156 -0.01080103640472657
