! Created with skrf 1.8.0 (http://scikit-rf.org).
# GHz S RI R 50.0 
!freq ReS11 ImS11 ReS12 ImS12 ReS13 ImS13
! ReS14 ImS14
! ReS21 ImS21 ReS22 ImS22 ReS23 ImS23
! ReS24 ImS24
! ReS31 ImS31 ReS32 ImS32 ReS33 ImS33
! ReS34 ImS34
! ReS41 ImS41 ReS42 ImS42 ReS43 ImS43
! ReS44 ImS44
!
0.0 0.001757402798042 0.0 0.9982425971736 0.0 6.803755264692e-05 0.0 -6.803755246918e-05 8.332197085320137e-21
 0.9982425971736 0.0 0.00175740279806 0.0 -6.803755247001e-05 8.332197085421784e-21 6.803755264754e-05 0.0
 6.803755264692e-05 0.0 -6.803755247001e-05 8.332197085421784e-21 0.001757402809428 0.0 0.9982425971849 0.0
 -6.803755246918e-05 8.332197085320137e-21 6.803755264754e-05 0.0 0.9982425971849 0.0 0.001757402809404 0.0
0.005 0.0018915020335987297 0.0014390102889924 0.9980728446268882 -0.003680456055755713 9.538673928800914e-05 0.0007377564060927107 -9.26859459752738e-05 -0.00046502009970558446
 0.9980728446268882 -0.003680456055755713 0.001891497974218556 0.0014390127264675072 -9.26881255831766e-05 -0.0004650218104863055 9.53944181789921e-05 0.0007377533306371625
 9.538673928800914e-05 0.0007377564060927107 -9.26881255831766e-05 -0.0004650218104863055 0.0018915010908649391 0.0014390781669258218 0.9980728450033782 -0.003680388994826253
 -9.26859459752738e-05 -0.00046502009970558446 9.53944181789921e-05 0.0007377533306371625 0.9980728450033782 -0.003680388994826253 0.0018914996682849693 0.0014390789709917901
0.006252605252188 0.0019268820034372353 0.001804385199359346 0.9980277473252789 -0.004601435682533757 0.00010329995006151649 0.0009225458420549031 -9.973541421529206e-05 -0.0005818610851895853
 0.9980277473252789 -0.004601435682533757 0.0019268756577119793 0.0018043883252383845 -9.97388055452091e-05 -0.0005818631947367495 0.00010331194570553767 0.0009225418703292888
 0.00010329995006151649 0.0009225458420549031 -9.97388055452091e-05 -0.0005818631947367495 0.0019268804546569902 0.0018044700440198222 0.9980277478391193 -0.004601351865116674
 -9.973541421529206e-05 -0.0005818610851895853 0.00010331194570553767 0.0009225418703292888 0.9980277478391193 -0.004601351865116674 0.00192687823170905 0.0018044711161972486
0.01250521050438 0.0021143505097275953 0.003646181012004237 0.9977870859073088 -0.009203417776236513 0.00014920739596373386 0.001845397657351254 -0.00014021748759938818 -0.0011663943229907364
 0.9977870859073088 -0.009203417776236513 0.0021143251670789074 0.0036461880890714775 -0.00014023084848414842 -0.0011663982219630169 0.00014925517406491208 0.0018453883088579582
 0.00014920739596373386 0.001845397657351254 -0.00014023084848414842 -0.0011663982219630169 0.002114343753230588 0.003646350522226295 0.997787087394492 -0.009203250394613845
 -0.00014021748759938818 -0.0011663943229907364 0.00014925517406491208 0.0018453883088579582 0.997787087394492 -0.009203250394613845 0.002114334886971622 0.00364635334385022
0.01875781575657 0.002320260753379695 0.005513772470149171 0.9975202831468908 -0.013817093038156826 0.00020587353723859148 0.002769126453598323 -0.0001896167090189086 -0.0017527426458986894
 0.9975202831468908 -0.013817093038156826 0.002320203798949002 0.005513784440616707 -0.00018964649811624483 -0.0017527479457057253 0.00020598072676125635 0.002769109988354332
 0.00020587353723859148 0.002769126453598323 -0.00018964649811624483 -0.0017527479457057253 0.0023202451308901484 0.005514026662390085 0.9975202860625892 -0.013816842191785498
 -0.0001896167090189086 -0.0017527426458986894 0.00020598072676125635 0.002769109988354332 0.9975202860625892 -0.013816842191785498 0.0023202252262048435 0.0055140319433623665
0.02501042100875 0.0025450491506165364 0.007404495319435708 0.997226995114628 -0.018444641994703238 0.0002734129708792741 0.0036937327188224698 -0.0002480608358398346 -0.002340611153645446
 0.997226995114628 -0.018444641994703238 0.002544947992433037 0.0074045132405082745 -0.0002481134320110727 -0.0023406173907309386 0.0002736031201224545 0.0036937070811699467
 0.0002734129708792741 0.0036937327188224698 -0.0002481134320110727 -0.0023406173907309386 0.002545021005379427 0.00740483427625277 0.9972269999157761 -0.018444307756855037
 -0.0002480608358398346 -0.002340611153645446 0.0002736031201224545 0.0036937070811699467 0.9972269999157761 -0.018444307756855037 0.0025449856891302442 0.007404842760534101
0.03126302626094 0.00278913399529038 0.009316950602994187 0.9969068620239903 -0.023086964341429244 0.0003519400766908137 0.004619132469880821 -0.0003156733961234722 -0.002929781122940808
 0.9969068620239903 -0.023086964341429244 0.002788976060196834 0.009316975647559294 -0.0003157551116925965 -0.0029297877580681747 0.00035223667330556383 0.004619095289878266
 0.0003519400766908137 0.004619132469880821 -0.0003157551116925965 -0.0029297877580681747 0.0027890896677165394 0.009317374466539265 0.9969068691663913 -0.02308654676578454
 -0.0003156733961234722 -0.002929781122940808 0.00035223667330556383 0.004619095289878266 0.9969068691663913 -0.02308654676578454 0.002789034587530033 0.00931738693234672
0.037515631513130004 0.003052923971016045 0.011250205052807353 0.996559517117163 -0.02774447849349075 0.00044156791997687785 0.005545207757418845 -0.00039257454020252797 -0.00352005953755486
 0.996559517117163 -0.02774447849349075 0.0030526967030384314 0.011250238510560484 -0.0003926916276776556 -0.0035200659556491576 0.0004419943967727264 0.005545156350495067
 0.00044156791997687785 0.005545207757418845 -0.0003926916276776556 -0.0035200659556491576 0.0030528597973625217 0.011250714006925858 0.9965595270548944 -0.027743977632228276
 -0.00039257454020252797 -0.00352005953755486 0.0004419943967727264 0.005545156350495067 0.9965595270548944 -0.027743977632228276 0.0030527806210294524 0.011250731266977886
0.043768236765320004 0.0033368214189290336 0.01320354774306752 0.9961845903073678 -0.03241736486305949 0.0005424077166073103 0.006471822034162216 -0.00047888132216752157 -0.004111263754216047
 0.9961845903073678 -0.03241736486305949 0.003336512278655943 0.013203591021582138 -0.00047903997820354665 -0.004111269264347761 0.0005429874513305405 0.006471753400284855
 0.0005424077166073103 0.006471822034162216 -0.00047903997820354665 -0.004111269264347761 0.003336733732788677 0.013204142028085121 0.9961846034939653 -0.032416780752481646
 -0.00047888132216752157 -0.004111263754216047 0.0005429874513305405 0.006471753400284855 0.9961846034939653 -0.032416780752481646 0.0033366261477171936 0.01320416492964958
0.050020842017509996 0.0036412238388919328 0.015176389544040646 0.9957817100578327 -0.0371056663359155 0.0006545684937099792 0.0073988265151812595 -0.0005747077815245851 -0.004703215180568056
 0.9957817100578327 -0.0371056663359155 0.003640820303246832 0.0151764441699457 -0.00057491414937113 -0.004703219015996189 0.0006553248053689785 0.007398737337935742
 0.0006545684937099792 0.0073988265151812595 -0.00057491414937113 -0.004703219015996189 0.0036411089711486555 0.015177069438442483 0.9957817269468547 -0.03710499901506256
 -0.0005747077815245851 -0.004703215180568056 0.0006553248053689785 0.007398737337935742 0.9957817269468547 -0.03710499901506256 0.003640968684273576 0.015177098863381613
0.055454545454549996 0.003922716946455744 0.016906281950146682 0.995408604494121 -0.04119242777305996 0.0007613164747801095 0.008204615958657535 -0.0006658013167450161 -0.005218107787238721
 0.995408604494121 -0.04119242777305996 0.003922221221154396 0.016906347770458716 -0.0006660540964581084 -0.005218109485785773 0.0007622451252544917 0.008204505988904815
 0.0007613164747801095 0.008204615958657535 -0.0006660540964581084 -0.005218109485785773 0.003922575475471547 0.016907036500413745 0.9954086249686017 -0.04119168817127371
 -0.0006658013167450161 -0.005218107787238721 0.0007622451252544917 0.008204505988904815 0.9954086249686017 -0.04119168817127371 0.0039224032981720666 0.01690707233741156
0.056273447269699996 0.003966524637390755 0.017168213762589098 0.995350504513878 -0.04180933756521601 0.0007781568395144985 0.008326063308179693 -0.0006801649322886053 -0.005295736189159028
 0.995350504513878 -0.04180933756521601 0.003966014200046512 0.017168281382796018 -0.0006804251034523445 -0.005295737507404384 0.0007791129827919881 0.008325949953919188
 0.0007781568395144985 0.008326063308179693 -0.0006804251034523445 -0.005295737507404384 0.003966378916493916 0.017168979588666363 0.995350525558411 -0.04180858707073774
 -0.0006801649322886053 -0.005295736189159028 0.0007791129827919881 0.008325949953919188 0.995350525558411 -0.04180858707073774 0.003966201653975715 0.01716901645343908
0.06252605252188 0.0043131135065972845 0.019178549013727186 0.9948906022698906 -0.0465282720409333 0.0009132766942498153 0.00925336714609735 -0.000795360708483569 -0.005888648436293976
 0.9948906022698906 -0.0465282720409333 0.004312483678353777 0.019178631396606617 -0.0007956807237646007 -0.005888646319211256 0.0009144558526191991 0.009253225663165235
 0.0009132766942498153 0.00925336714609735 -0.0007956807237646007 -0.005888646319211256 0.004312933259067304 0.019179401138543217 0.9948906279231546 -0.046527438406455894
 -0.000795360708483569 -0.005888648436293976 0.0009144558526191991 0.009253225663165235 0.9948906279231546 -0.046527438406455894 0.004312714766264039 0.019179446394324676
0.06877865777407 0.004681376601312027 0.02120695305864602 0.9944016329407404 -0.05126231820043029 0.0010600291671626525 0.01018056643169085 -0.0009203998813679833 -0.006481771876613441
 0.9944016329407404 -0.05126231820043029 0.004680614910791999 0.021207052095317674 -0.0009207857315730248 -0.006481765330486598 0.0010614544448275946 0.010180392549851784
 0.0010600291671626525 0.01018056643169085 -0.0009207857315730248 -0.006481765330486598 0.004681158151603231 0.021207891891693528 0.9944016636557255 -0.05126140145933246
 -0.0009203998813679833 -0.006481771876613441 0.0010614544448275946 0.010180392549851784 0.9944016636557255 -0.05126140145933246 0.004680894192830537 0.021207946524400053
0.07503126302626001 0.005071696592703318 0.023253002557409426 0.9938832276144899 -0.05601128963315764 0.0012185123666650156 0.011107483914694268 -0.0010553839614733857 -0.007074924153398824
 0.9938832276144899 -0.05601128963315764 0.005070790587390354 0.02325312026297201 -0.0010558415878357144 -0.0070749121090304765 0.0012202067800290708 0.011107273044731275
 0.0012185123666650156 0.011107483914694268 -0.0010558415878357144 -0.0070749121090304765 0.005071436264730012 0.02325402855657687 0.9938832638449897 -0.0560102898130279
 -0.0010553839614733857 -0.007074924153398824 0.0012202067800290708 0.011107273044731275 0.9938832638449897 -0.0560102898130279 0.005071122623430633 0.023254093586983573
0.08128386827845 0.00548445265014047 0.025316286262463267 0.9933350192385392 -0.060774971853927384 0.0013888212401003107 0.01203393715972892 -0.0012004110897847078 -0.007667920206653975
 0.9933350192385392 -0.060774971853927384 0.00548338989688255 0.025316424777301064 -0.0012009463841243851 -0.007667901519479581 0.0013908077083038429 0.012033684393259572
 0.0013888212401003107 0.01203393715972892 -0.0012009463841243851 -0.007667901519479581 0.005484146766209874 0.025317399926918192 0.9933350614375142 -0.06077388898407259
 -0.0012004110897847078 -0.007667920206653975 0.0013908077083038429 0.012033684393259572 0.9933350614375142 -0.06077388898407259 0.0054837792449239685 0.025317476410745963
0.08753647353064001 0.005920020368892596 0.02739640032606268 0.9927566429555187 -0.06555312697236187 0.001571047419498543 0.012959738877674981 -0.0013555759213064508 -0.008260572026623827
 0.9927566429555187 -0.06555312697236187 0.005918788455289504 0.027396561917144936 -0.001356194726163428 -0.008260545476810242 0.001573348754763739 0.012959438987204395
 0.001571047419498543 0.012959738877674981 -0.001356194726163428 -0.008260545476810242 0.005919665251445467 0.02739760220057763 0.9927566915768287 -0.0655519610799257
 -0.0013555759213064508 -0.008260572026623827 0.001573348754763739 0.012959438987204395 0.9927566915768287 -0.0655519610799257 0.0059192396715712 0.027397691228696765
0.09378907878283 0.006378771664734925 0.02949294493539067 0.9921477364117688 -0.07034549704492286 0.0017652790708843529 0.013884697187114993 -0.0015209695045216118 -0.008852688486381818
 0.9921477364117688 -0.07034549704492286 0.006377358200138483 0.029493131997594308 -0.0015216776130510703 -0.008852652778961051 0.001767917968237386 0.013884344626335044
 0.0017652790708843529 0.013884697187114993 -0.0015216776130510703 -0.008852652778961051 0.006378363636361873 0.029494235608337853 0.9921477919093514 -0.07034424815726836
 -0.0015209695045216118 -0.008852688486381818 0.001767917968237386 0.013884344626335044 0.9921477919093514 -0.07034424815726836 0.006377875838374118 0.0294943383069
0.100041684035 0.006861074642835079 0.03160552188257945 0.9915079400431493 -0.07515180650298668 0.001971600747131912 0.01480861581668889 -0.0016966791564376582 -0.009444075242800274
 0.9915079400431493 -0.07515180650298668 0.006859467259613036 0.03160573694002424 -0.0016974823122592468 -0.009444029007791578 0.0019745997739329477 0.01480820472100239
 0.001971600747131912 0.01480861581668889 -0.0016974823122592468 -0.009444029007791578 0.006860610027172064 0.03160690198859826 0.9915080028717871 -0.07515047464548023
 -0.0016966791564376582 -0.009444075242800274 0.0019745997739329477 0.01480820472100239 0.9915080028717871 -0.07515047464548023 0.006860055870715563 0.03160701951925601
0.1059090909091 0.007335409260773223 0.033602177591660724 0.9908791474440773 -0.07967443655217332 0.002176279522747014 0.015674491340629367 -0.0018710207757386258 -0.009998189337956875
 0.9908791474440773 -0.07967443655217332 0.007333608678863138 0.03360242133164733 -0.0018719183028057492 -0.009998131911236018 0.002179636894240084 0.01567401969953246
 0.002176279522747014 0.015674491340629367 -0.0018719183028057492 -0.009998131911236018 0.0073348882015620365 0.0336036422391013 0.9908792175660229 -0.07967302685829715
 -0.0018710207757386258 -0.009998189337956875 0.002179636894240084 0.01567401969953246 0.9908792175660229 -0.07967302685829715 0.007334268025998227 0.03360377477648202
0.1062942892872 0.007367293448134903 0.03373373272034162 0.990836897346681 -0.0799717640064229 0.002190093242659776 0.015731294277458684 -0.0018827883357759973 -0.010034534677017776
 0.990836897346681 -0.0799717640064229 0.007365479802894856 0.03373397842774956 -0.0018836922327430993 -0.010034476469563264 0.0021934748276166843 0.015730818464798072
 0.002190093242659776 0.015731294277458684 -0.0018836922327430993 -0.010034476469563264 0.0073667685702485915 0.03373520294050436 0.9908369679616265 -0.07997034920261492
 -0.0018827883357759973 -0.010034534677017776 0.0021934748276166843 0.015730818464798072 0.9908369679616265 -0.07997034920261492 0.007366143933937712 0.03373533650067785
0.11254689453939999 0.00789778810132454 0.035877177385920694 0.9901342551414041 -0.08480506384038072 0.002420833450108051 0.016652528011604807 -0.0020793765140124194 -0.010623865868286887
 0.9901342551414041 -0.08480506384038072 0.007895755876354724 0.03587745652998533 -0.0020803867958953132 -0.010623794168816345 0.0024246198721372056 0.01665198098351844
 0.002420833450108051 0.016652528011604807 -0.0020803867958953132 -0.010623794168816345 0.007897199287889487 0.035878738446077224 0.9901343339981299 -0.0848035661141543
 -0.0020793765140124194 -0.010623865868286887 0.0024246198721372056 0.01665198098351844 0.9901343339981299 -0.0848035661141543 0.007896500069837598 0.035878889269174985
0.11879949979160001 0.008452914324182399 0.03803545311986553 0.9893996638212322 -0.08965138702912558 0.0026638942186901974 0.017572108525234203 -0.002286519045306444 -0.011211864593526777
 0.9893996638212322 -0.08965138702912558 0.008450651228934711 0.038035768620600624 -0.00228764130543505 -0.011211777807899037 0.0026681075955781505 0.017571483468280365
 0.0026638942186901974 0.017572108525234203 -0.00228764130543505 -0.011211777807899037 0.008452257904943477 0.03803710579211866 0.9893997513763375 -0.0896498064034622
 -0.002286519045306444 -0.011211864593526777 0.0026681075955781505 0.017571483468280365 0.9893997513763375 -0.0896498064034622 0.008451480022440784 0.03803727514789083
0.1250521050438 0.009033023356016363 0.040208153633281646 0.9886327776027067 -0.0945104022132894 0.0029193442138012097 0.018489823514479052 -0.0025042870360399254 -0.011798323343524061
 0.9886327776027067 -0.0945104022132894 0.009030517128492564 0.04020850854551861 -0.002505526816891934 -0.011798219803211125 0.002924006490378178 0.018489113301897283
 0.0029193442138012097 0.018489823514479052 -0.002505526816891934 -0.011798219803211125 0.0090322956639271 0.04020989873833053 0.9886328743135983 -0.09450873870848636
 -0.0025042870360399254 -0.011798323343524061 0.002924006490378178 0.018489113301897283 0.9886328743135983 -0.09450873870848636 0.00903143505388065 0.04021008793315405
0.131304710296 0.009638461763785555 0.042394868452785485 0.9878332547676473 -0.09938176636188924 0.003187247778099277 0.01940545698364399 -0.002732747213812761 -0.012383031357237038
 0.9878332547676473 -0.09938176636188924 0.009635700172318623 0.04239526596746025 -0.002734110006551117 -0.01238290931948681 0.003192380714454748 0.01940465417729269
 0.003187247778099277 0.01940545698364399 -0.002734110006551117 -0.01238290931948681 0.009637659135755448 0.04239670685688318 0.9878333610925596 -0.09938001999885139
 -0.002732747213812761 -0.012383031357237038 0.003192380714454748 0.01940465417729269 0.9878333610925596 -0.09938001999885139 0.009636711754777124 0.042396917234190416
0.1375573155481 0.01013800212109193 0.04431138320462181 0.9871323931271482 -0.10398114927208431 0.0034357784953842844 0.020291494037456743 -0.002940076284783514 -0.012938504769651886
 0.9871323931271482 -0.10398114927208431 0.010134973281606684 0.04431181899426954 -0.0029415703896037496 -0.012938363919965506 0.003441397989225758 0.020290599164316175
 0.0034357784953842844 0.020291494037456743 -0.0029415703896037496 -0.012938363919965506 0.010137121749754549 0.044313315578061195 0.9871325094971545 -0.10397932011882413
 -0.002940076284783514 -0.012938504769651886 0.003441397989225758 0.020290599164316175 0.9871325094971545 -0.10397932011882413 0.01013608224570657 0.044313541461015814
0.1438099208003 0.010655339588075668 0.046216474126994034 0.9864064500614206 -0.10856751017855347 0.0036942937536595757 0.02117309548274317 -0.003155633915840479 -0.013489891593398945
 0.9864064500614206 -0.10856751017855347 0.010652031389997846 0.04621695084233068 -0.003157265255458569 -0.013489730195841949 0.003700420244162694 0.021172101629204243
 0.0036942937536595757 0.02117309548274317 -0.003157265255458569 -0.013489730195841949 0.010654377971296139 0.046218501345883914 0.9864065769294974 -0.10856559826862042
 -0.003155633915840479 -0.013489891593398945 0.003700420244162694 0.021172101629204243 0.9864065769294974 -0.10856559826862042 0.010653242109622521 0.04621874353803278
0.1500625260525 0.011190271318803787 0.04810994206568544 0.9856556333489005 -0.11314069419284162 0.003962690421506758 0.022050144360113693 -0.0033793194458942278 -0.01403708192024418
 0.9856556333489005 -0.11314069419284162 0.011186671687353867 0.04811046247190121 -0.0033810939273489237 -0.014036898168559986 0.003969344102731401 0.022049044380828952
 0.003962690421506758 0.022050144360113693 -0.0033810939273489237 -0.014036898168559986 0.011189224968446133 0.04811206504378017 0.9856557711680672 -0.113138699558853
 -0.0033793194458942278 -0.01403708192024418 0.003969344102731401 0.022049044380828952 0.9856557711680672 -0.113138699558853 0.011187988521550753 0.04811232439025641
0.15631513130469998 0.011742592778321589 0.049991593803173334 0.984880152099592 -0.1177005478919962 0.0042408640024803185 0.022922526016951838 -0.003611030841274267 -0.014579968425604075
 0.984880152099592 -0.1177005478919962 0.01173868967558959 0.049992160779731676 -0.0036129543556907597 -0.014579760443553785 0.004248064816857378 0.022921312540620898
