! Created with skrf 1.8.0 (http://scikit-rf.org).
# GHz S RI R 50.0 
!freq ReS11 ImS11 ReS12 ImS12 ReS13 ImS13
! ReS14 ImS14
! ReS21 ImS21 ReS22 ImS22 ReS23 ImS23
! ReS24 ImS24
! ReS31 ImS31 ReS32 ImS32 ReS33 ImS33
! ReS34 ImS34
! ReS41 ImS41 ReS42 ImS42 ReS43 ImS43
! ReS44 ImS44
!
0.0 0.001444286781125 0.0 0.9985557132018 0.0 5.571135202439e-05 0.0 -5.57113516699e-05 6.822672849871559e-21
 0.9985557132018 0.0 0.001444286781102 0.0 -5.571135166893e-05 6.822672849752768e-21 5.571135202495e-05 0.0
 5.571135202439e-05 0.0 -5.571135166893e-05 6.822672849752768e-21 0.001444286789618 0.0 0.9985557132104 0.0
 -5.57113516699e-05 6.822672849871559e-21 5.571135202495e-05 0.0 0.9985557132104 0.0 0.001444286789644 0.0
0.005 0.0015536918982957443 0.0011785851430403712 0.9984173274571579 -0.0030259301744556943 7.840380151365758e-05 0.0006327602947695369 -7.602672582738033e-05 -0.0003939258161090845
 0.9984173274571579 -0.0030259301744556943 0.0015537115282063096 0.0011785736424307519 -7.602430771378154e-05 -0.00039392393484506726 7.830189637553159e-05 0.0006327992560327944
 7.840380151365758e-05 0.0006327602947695369 -7.602430771378154e-05 -0.00039392393484506726 0.001553693595396976 0.0011786513746322536 0.9984173278020042 -0.0030258631120696263
 -7.602672582738033e-05 -0.0003939258161090845 7.830189637553159e-05 0.0006327992560327944 0.9984173278020042 -0.0030258631120696263 0.0015537105125206696 0.0011786415272669313
0.006252605252188 0.0015823039227688533 0.0014778936263680083 0.9983809166908652 -0.0037831666185163164 8.48514853172436e-05 0.0007912526719644715 -8.172773665367001e-05 -0.0004929256203723855
 0.9983809166908652 -0.0037831666185163164 0.0015823346076968487 0.0014778789813299515 -8.172397402638496e-05 -0.0004929232999878628 8.469226925160953e-05 0.0007913032187738805
 8.48514853172436e-05 0.0007912526719644715 -8.172397402638496e-05 -0.0004929232999878628 0.001582306510446695 0.0014779763941482622 0.9983809171645606 -0.0037830828041793265
 -8.172773665367001e-05 -0.0004929256203723855 8.469226925160953e-05 0.0007913032187738805 0.9983809171645606 -0.0037830828041793265 0.0015823329540547214 0.0014779638238362912
0.01250521050438 0.0017324489864113815 0.0029869814825202803 0.998188621511769 -0.007567233433723334 0.00012163957086816913 0.0015828322596054664 -0.0001138878244366039 -0.0009883104003621775
 0.998188621511769 -0.007567233433723334 0.0017325715125795392 0.002986949462275097 -0.00011387299798562838 -0.0009883060997209485 0.00012100469902117536 0.0015829531998893666
 0.00012163957086816913 0.0015828322596054664 -0.00011387299798562838 -0.0009883060997209485 0.0017324587635979074 0.002987146688770885 0.9981886228457448 -0.007567066015989919
 -0.0001138878244366039 -0.0009883104003621775 0.00012100469902117536 0.0015829531998893666 0.9981886228457448 -0.007567066015989919 0.0017325643429361335 0.0029871189223013126
0.01875781575657 0.001895034202602518 0.004517765667087348 0.9979785999361689 -0.01136143043930693 0.00016615736430817892 0.002375299418477003 -0.0001522875841680704 -0.0014854257843915095
 0.9979785999361689 -0.01136143043930693 0.0018953095262103563 0.0045177133207450855 -0.0001522545226310412 -0.0014854199047000247 0.00016473129443708912 0.002375514332528335
 0.00016615736430817892 0.002375299418477003 -0.0001522545226310412 -0.0014854199047000247 0.001895055753877118 0.004518013017961288 0.9979786025133028 -0.01136117949303563
 -0.0001522875841680704 -0.0014854257843915095 0.00016473129443708912 0.002375514332528335 0.9979786025133028 -0.01136117949303563 0.001895292975648499 0.004517967277382246
0.02501042100875 0.0020703634170974763 0.006068114009587911 0.9977506156961228 -0.015167613058989773 0.0002184882449269293 0.0031687018622951887 -0.00019702008827064425 -0.001984051313421307
 0.9977506156961228 -0.015167613058989773 0.0020708523697368884 0.006068038183280658 -0.00019696170635905035 -0.00198404432428441 0.00021595536149900943 0.003169037915156307
 0.0002184882449269293 0.0031687018622951887 -0.00019696170635905035 -0.00198404432428441 0.00207040132122612 0.006068443191390302 0.9977506199028532 -0.015167278579822934
 -0.00019702008827064425 -0.001984051313421307 0.00021595536149900943 0.003169037915156307 0.9977506199028532 -0.015167278579822934 0.0020708225706481155 0.006068376560851703
0.03126302626094 0.002258727831262842 0.0076369373068158365 0.9975044199097279 -0.018986584885088077 0.0002787163284962569 0.0039630124100457015 -0.00024817592594073327 -0.0024840365074856887
 0.9975044199097279 -0.018986584885088077 0.0022594911500607396 0.007636834646334452 -0.00024808520952827314 -0.0024840289478188773 0.0002747606370998734 0.00396350036928916
 0.0002787163284962569 0.0039630124100457015 -0.00024808520952827314 -0.0024840289478188773 0.0022587866640192285 0.007637347930081727 0.9975044261386378 -0.01898616684502813
 -0.00024817592594073327 -0.0024840365074856887 0.0002747606370998734 0.00396350036928916 0.9975044261386378 -0.01898616684502813 0.0022594442314446505 0.007637257358608996
0.037515631513130004 0.00246041244460632 0.009223531460268605 0.997239757697152 -0.022818755483604153 0.00034692557757192447 0.0047581744820833416 -0.00030584388233859816 -0.0029852553589499024
 0.997239757697152 -0.022818755483604153 0.002461510791403405 0.009223398411918854 -0.00030571388087533236 -0.0029852478372629993 0.0003412305635963659 0.004758848752763902
 0.00034692557757192447 0.0047581744820833416 -0.00030571388087533236 -0.0029852478372629993 0.00246049677274361 0.009224023076059408 0.997239766341142 -0.022818253814148436
 -0.00030584388233859816 -0.0029852553589499024 0.0003412305635963659 0.004758848752763902 0.997239766341142 -0.022818253814148436 0.002461442871083991 0.009223905379045286
0.043768236765320004 0.002675698540263865 0.010827377304089687 0.9969563708417588 -0.02666434050045059 0.00042319938575029187 0.005554115951939712 -0.0003701111916889565 -0.003487592473889952
 0.9969563708417588 -0.02666434050045059 0.0026771925164062195 0.010827210114851027 -0.00036993501369167263 -0.0034875856683852487 0.00041544794326311827 0.005555014616935044
 0.00042319938575029187 0.005554115951939712 -0.00036993501369167263 -0.0034875856683852487 0.0026758129270809893 0.010827949380455068 0.996956382301147 -0.026663755115353717
 -0.0003701111916889565 -0.003487592473889952 0.00041544794326311827 0.005555014616935044 0.996956382301147 -0.026663755115353717 0.002677099705524674 0.010827801240713529
0.050020842017509996 0.0029048648535098453 0.012448057846135587 0.9966539991390948 -0.030523444352330835 0.0005076203379097961 0.0063507548566271 -0.00044106363013708986 -0.003990937357355934
 0.9966539991390948 -0.030523444352330835 0.0029068150121451097 0.012447852563351904 -0.0004408344402237349 -0.003990932015940359 0.0004974947355303715 0.006351919719252613
 0.0005076203379097961 0.0063507548566271 -0.0004408344402237349 -0.003990932015940359 0.00290501385343248 0.012448709780066812 0.9966540138173432 -0.030522775134880956
 -0.00044106363013708986 -0.003990937357355934 0.0004974947355303715 0.006351919719252613 0.9966540138173432 -0.030522775134880956 0.0029066934095490294 0.012448527748492944
0.055454545454549996 0.0031155047636803727 0.013869873053428091 0.996375607942277 -0.033888128989682326 0.0005876645875367167 0.007043555631310727 -0.0005082181347427354 -0.004429093534659006
 0.996375607942277 -0.033888128989682326 0.0031179005060730054 0.01386963130069391 -0.0005079373668233282 -0.0044290901271182865 0.0005752172366889534 0.0070449886994675415
 0.0005876645875367167 0.007043555631310727 -0.0005079373668233282 -0.0044290901271182865 0.003115687537674255 0.013870593835106158 0.9963756257512969 -0.033887386806404005
 -0.0005082181347427354 -0.004429093534659006 0.0005752172366889534 0.0070449886994675415 0.9963756257512969 -0.033887386806404005 0.003117750706684991 0.013870379447293234
0.056273447269699996 0.00314818816593158 0.014085217673686748 0.9963323811742916 -0.034396100753517365 0.0006002700413701063 0.00714800219831112 -0.0005187855436007084 -0.004495181609842254
 0.9963323811742916 -0.034396100753517365 0.003150655022959203 0.014084970144511405 -0.0005184965605645224 -0.004495178550138971 0.0005874519104737263 0.007149478825982973
 0.0006002700413701063 0.00714800219831112 -0.0005184965605645224 -0.004495178550138971 0.0031483763274710776 0.014085948784245239 0.996332399482418 -0.034395347562735545
 -0.0005187855436007084 -0.004495181609842254 0.0005874519104737263 0.007149478825982973 0.996332399482418 -0.034395347562735545 0.003150500717514337 0.01408572928024565
0.06252605252188 0.0034059436360203937 0.015738540613670252 0.995991254840208 -0.038282294990005086 0.0007012289955845749 0.00794576348531749 -0.0006033598394296873 -0.005000217387314592
 0.995991254840208 -0.038282294990005086 0.0034089876805987506 0.015738246484106256 -0.0006030043348873345 -0.0050002174966292355 0.0006853993332678883 0.007947601253719551
 0.0007012289955845749 0.00794576348531749 -0.0006030043348873345 -0.0050002174966292355 0.003406175499666307 0.015739350144999557 0.9959912771959566 -0.0382814576568534
 -0.0006033598394296873 -0.005000217387314592 0.0006853993332678883 0.007947601253719551 0.9959912771959566 -0.0382814576568534 0.003408796748872991 0.015739089456612242
0.06877865777407 0.003678404974725571 0.017407736437987216 0.9956303577024166 -0.042181977150914166 0.000810576481998968 0.008743939652562342 -0.0006948679586585009 -0.005505936484891222
 0.9956303577024166 -0.042181977150914166 0.003682086678510554 0.01740739115178436 -0.000694439256022027 -0.005505940720184107 0.0007914156643196643 0.00874619178998205
 0.000810576481998968 0.008743939652562342 -0.000694439256022027 -0.005505940720184107 0.0036786850715439952 0.01740862354871226 0.9956303845311191 -0.042181055488223415
 -0.0006948679586585009 -0.005505936484891222 0.0007914156643196643 0.00874619178998205 0.9956303845311191 -0.042181055488223415 0.0036818551841182896 0.017408317832454258
0.07503126302626001 0.003965844534686728 0.019092532406481264 0.9952494272826938 -0.04609507052547204 0.0009283904662818808 0.009542427645420307 -0.0007933898355486032 -0.006012229760402102
 0.9952494272826938 -0.04609507052547204 0.003970224361631403 0.01909213120368236 -0.0007928813094472627 -0.006012239148252585 0.0009055782692143679 0.009545151277074594
 0.0009283904662818808 0.009542427645420307 -0.0007928813094472627 -0.006012239148252585 0.003966177386412008 0.019093496179559244 0.9952494590186894 -0.04609406431734942
 -0.0007933898355486032 -0.006012229760402102 0.0009055782692143679 0.009545151277074594 0.9952494590186894 -0.04609406431734942 0.0039699483547536805 0.019093141460093235
0.08128386827845 0.004268533343213373 0.020792667661433017 0.9948482012887262 -0.050021477151707426 0.001054747508393611 0.010341120808939062 -0.0008990038488306892 -0.006518986756088525
 0.9948482012887262 -0.050021477151707426 0.004273671758651767 0.020792205576609414 -0.0008984089246726034 -0.006519002392627958 0.0010279631348015887 0.010344377001106285
 0.001054747508393611 0.010341120808939062 -0.0008984089246726034 -0.006519002392627958 0.004268923460180933 0.020793707095868228 0.994848238375268 -0.05002038616126076
 -0.0008990038488306892 -0.006518986756088525 0.0010279631348015887 0.010344377001106285 0.994848238375268 -0.05002038616126076 0.004273347274379025 0.020793299265337538
0.08753647353064001 0.004586741098827447 0.02250788934090964 0.9944264178101506 -0.05396108165013902 0.0011897226768061353 0.011139909162177608 -0.0010117867680527583 -0.0070260954387444
 0.9944264178101506 -0.05396108165013902 0.004592698578625165 0.022507361201170206 -0.0010110989217438663 -0.00702611848961215 0.001158644788095603 0.0111437629660842
 0.0011897226768061353 0.011139909162177608 -0.0010110989217438663 -0.00702611848961215 0.0045871929796141905 0.022509003357788868 0.9944264607009471 -0.053959905612784846
 -0.0010117867680527583 -0.0070260954387444 0.001158644788095603 0.0111437629660842 0.9944264607009471 -0.053959905612784846 0.004592321636962401 0.02250853817480489
0.09378907878283 0.00492073614252269 0.0242379498035359 0.9939838154933544 -0.05791375394984672 0.0013333894664120617 0.011938679597927822 -0.0011318136952699195 -0.007533442018202523
 0.9939838154933544 -0.05791375394984672 0.00492757318191555 0.024237350226253902 -0.0011310264530623106 -0.007533473718473702 0.001297696218222308 0.011943200093280863
 0.0013333894664120617 0.011938679597927822 -0.0011310264530623106 -0.007533473718473702 0.004921254272565819 0.02423913723585993 0.9939838646532965 -0.05791249258292806
 -0.0011318136952699195 -0.007533442018202523 0.001297696218222308 0.011943200093280863 0.9939838646532965 -0.05791249258292806 0.004927139787006277 0.024238610324371544
0.100041684035 0.005270785410611099 0.025982604591515517 0.993520133699989 -0.06187935128048127 0.0014858197184136456 0.012737316030050053 -0.0012591580038766002 -0.008040910822057589
 0.993520133699989 -0.06187935128048127 0.005278562533430349 0.025981927981698894 -0.0012582649424016873 -0.00804095247616746 0.0014451887996751798 0.012742576368175083
 0.0014858197184136456 0.012737316030050053 -0.0012582649424016873 -0.00804095247616746 0.005271374261163265 0.025983864192153098 0.9935201896058166 -0.06187800427477348
 -0.0012591580038766002 -0.008040910822057589 0.0014451887996751798 0.012742576368175083 0.9935201896058166 -0.06187800427477348 0.005278068672369489 0.025983271039842618
0.1059090909091 0.005614107161777168 0.027632835143248515 0.9930656145488839 -0.06561226192003708 0.001636892090163845 0.013486523824063713 -0.0013853759967806499 -0.00851712285820039
 0.9930656145488839 -0.06561226192003708 0.005622821532246087 0.027632080966260818 -0.0013843778380522665 -0.008517175101011788 0.0015913341742919982 0.013492548620865664
 0.001636892090163845 0.013486523824063713 -0.0013843778380522665 -0.008517175101011788 0.005614766428526592 0.027634161256381046 0.9930656772297547 -0.06561083425023792
 -0.0013853759967806499 -0.00851712285820039 0.0015913341742919982 0.013492548620865664 0.9930656772297547 -0.06561083425023792 0.0056222672646264035 0.02763350171725533
0.1062942892872 0.005637154374597963 0.02774161090336153 0.9930351126555361 -0.0658577196588226 0.0016470835415726321 0.01353569951381724 -0.001393891275182099 -0.008548384201379985
 0.9930351126555361 -0.0658577196588226 0.005645932142247394 0.027740851450727144 -0.0013928860214857182 -0.008548437183035069 0.0016011922166272912 0.013541776960263296
 0.0016470835415726321 0.01353569951381724 -0.0013928860214857182 -0.008548437183035069 0.0056378184011447365 0.02774294134174686 0.9930351757965296 -0.06585628668133263
 -0.001393891275182099 -0.008548384201379985 0.0016011922166272912 0.013541776960263296 0.9930351757965296 -0.06585628668133263 0.005645373784217819 0.027742277298278877
0.11254689453939999 0.006020106969493642 0.029514726423965507 0.9925284935895374 -0.06984869502249944 0.0018172492346517012 0.014333708336699818 -0.0015360832330949894 -0.009055742469931983
 0.9925284935895374 -0.06984869502249944 0.006029945989806537 0.029513878099774654 -0.0015349594647258065 -0.009055808222029857 0.0017657743878424959 0.014340684313351889
 0.0018172492346517012 0.014333708336699818 -0.0015349594647258065 -0.009055808222029857 0.006020850610947615 0.029516126283017637 0.9925285644687687 -0.0698471757191603
 -0.0015360832330949894 -0.009055742469931983 0.0017657743878424959 0.014340684313351889 0.9925285644687687 -0.0698471757191603 0.006029319086107619 0.02951538655779385
0.11879949979160001 0.006419905515901232 0.03130170841087079 0.9920000188714025 -0.07385210411218722 0.0019963832095494308 0.015131218099292904 -0.0016858016771795934 -0.009562863857425653
 0.9920000188714025 -0.07385210411218722 0.006430866452210025 0.03130076496430452 -0.0016845531224286621 -0.00956294389194378 0.0019390013922040497 0.015139178225910243
 0.0019963832095494308 0.015131218099292904 -0.0016845531224286621 -0.00956294389194378 0.006420733192891081 0.03130317619016306 0.9920000980064037 -0.07385049810423161
 -0.0016858016771795934 -0.009562863857425653 0.0019390013922040497 0.015139178225910243 0.9920000980064037 -0.07385049810423161 0.006430166934766495 0.03130235584989431
0.1250521050438 0.00683681063386604 0.03310231297789118 0.9914494321420863 -0.07786776516112025 0.00218454991461408 0.01592810178294082 -0.0018431124148853102 -0.01006962448036827
 0.9914494321420863 -0.07786776516112025 0.006848954214328099 0.03310126793217274 -0.0018417328531039273 -0.010069720378234023 0.0021209373942956498 0.0159371359180803
 0.00218454991461408 0.01592810178294082 -0.0018417328531039273 -0.010069720378234023 0.006837726747910963 0.03310384709148447 0.9914495200654658 -0.07786607204696312
 -0.0018431124148853102 -0.01006962448036827 0.0021209373942956498 0.0159371359180803 0.9914495200654658 -0.07786607204696312 0.006848177994781312 0.03310294105743687
0.131304710296 0.007271081152624363 0.03491629451679531 0.9908764784419473 -0.08189548845165488 0.0023818117588773943 0.016724229809037486 -0.0020080791925067613 -0.010575898325478495
 0.9908764784419473 -0.08189548845165488 0.007284468178939546 0.03491514116497832 -0.0020065624541914955 -0.010576011736488092 0.0023116445705580746 0.016734432090196826
 0.0023818117588773943 0.016724229809037486 -0.0020065624541914955 -0.010576011736488092 0.007272090084435783 0.034917893293208414 0.9908765757031561 -0.08189370780661927
 -0.0020080791925067613 -0.010575898325478495 0.0023116445705580746 0.016734432090196826 0.9908765757031561 -0.08189370780661927 0.007283611149087877 0.03491689633786671
0.1375573155481 0.007620970839902906 0.03650593160269864 0.9903829414781119 -0.08569751893345687 0.0025630036300423177 0.017495275621474335 -0.0021556210289089203 -0.01105732028014751
 0.9903829414781119 -0.08569751893345687 0.00763566613701763 0.036504688956596795 -0.0021539579337177717 -0.011057451254553787 0.0024861131256511157 0.017506628126069554
 0.0025630036300423177 0.017495275621474335 -0.0021539579337177717 -0.011057451254553787 0.007622076425031109 0.036507593570442885 0.9903830485098158 -0.08569565049372449
 -0.0021556210289089203 -0.01105732028014751 0.0024861131256511157 0.017506628126069554 0.9903830485098158 -0.08569565049372449 0.00763472493496405 0.036506526020675105
0.1438099208003 0.007983081995963514 0.038087562051870305 0.9898721958221814 -0.08949029813977989 0.00275153543558386 0.01826344281218786 -0.002309081611842735 -0.011536136489019038
 0.9898721958221814 -0.08949029813977989 0.007999147073501264 0.03808622512686853 -0.002307265521741389 -0.011536286642223597 0.0026676254149799235 0.01827603141160285
 0.00275153543558386 0.01826344281218786 -0.002307265521741389 -0.011536286642223597 0.007984288487380243 0.038089285482503406 0.9898723131732314 -0.08948834148537395
 -0.002309081611842735 -0.011536136489019038 0.0026676254149799235 0.01827603141160285 0.9898723131732314 -0.08948834148537395 0.007998117695103337 0.038088143858611874
0.1500625260525 0.008357292152342984 0.03966106500164892 0.9893443676647611 -0.09327374352816346 0.002947346349309985 0.019028660556805993 -0.002468402407565111 -0.012012280582576185
 0.9893443676647611 -0.09327374352816346 0.008374788614590725 0.03965962854913835 -0.00246642669743005 -0.01201245159468431 0.002856122191981382 0.01904257426421665
 0.002947346349309985 0.019028660556805993 -0.00246642669743005 -0.01201245159468431 0.00835860377702751 0.03966284809693002 0.9893444958981142 -0.09327169822339713
 -0.002468402407565111 -0.012012280582576185 0.002856122191981382 0.01904257426421665 0.9893444958981142 -0.09327169822339713 0.008373667044087403 0.03966162871618822
0.15631513130469998 0.00874347803196828 0.04122632329773857 0.9887995837716327 -0.09704777261237076 0.0031503748654680493 0.019790859151664876 -0.0026335241961205967 -0.012485687546661024
