! Created with skrf 1.8.0 (http://scikit-rf.org).
# GHz S RI R 50.0 
!freq ReS11 ImS11 ReS12 ImS12 ReS13 ImS13
! ReS14 ImS14
! ReS21 ImS21 ReS22 ImS22 ReS23 ImS23
! ReS24 ImS24
! ReS31 ImS31 ReS32 ImS32 ReS33 ImS33
! ReS34 ImS34
! ReS41 ImS41 ReS42 ImS42 ReS43 ImS43
! ReS44 ImS44
!
0.0 0.001713540851307 0.0 0.998286459143 0.0 6.684635076308e-05 0.0 -6.684635076325e-05 8.186316949689535e-21
 0.998286459143 0.0 0.001713540851335 0.0 -6.684635076338e-05 8.186316949705455e-21 6.684635076358e-05 0.0
 6.684635076308e-05 0.0 -6.684635076338e-05 8.186316949705455e-21 0.001713540845628 0.0 0.9982864591373 0.0
 -6.684635076325e-05 8.186316949689535e-21 6.684635076358e-05 0.0 0.9982864591373 0.0 0.001713540845649 0.0
0.005 0.0018442939588331469 0.0013926218576850256 0.9981209313785384 -0.003589283899653937 9.525251650659122e-05 0.0007890929504398837 -9.221734908354732e-05 -0.0004859959983519734
 0.9981209313785384 -0.003589283899653937 0.0018442707606034256 0.0013926353794025492 -9.221443344502311e-05 -0.00048599373060571546 9.54021270398803e-05 0.0007890358612287415
 9.525251650659122e-05 0.0007890929504398837 -9.221443344502311e-05 -0.00048599373060571546 0.0018442952150848318 0.0013925538047929494 0.998120931005994 -0.003589350957118345
 -9.221734908354732e-05 -0.0004859959983519734 9.54021270398803e-05 0.0007890358612287415 0.998120931005994 -0.003589350957118345 0.0018442687583581688 0.0013925693130690962
0.006252605252188 0.0018787571830989973 0.0017462725584731784 0.9980770018452402 -0.004487459848381395 0.00010344737049469807 0.0009867139675038955 -9.947078380328029e-05 -0.0006081246985172233
 0.9980770018452402 -0.004487459848381395 0.0018787209204866168 0.0017462897649125645 -9.946624709381451e-05 -0.0006081219024192208 0.00010368112024686624 0.0009866398146618504
 0.00010344737049469807 0.0009867139675038955 -9.946624709381451e-05 -0.0006081219024192208 0.001878759223168365 0.0017461874977336381 0.9980770013388185 -0.0044875436579845255
 -9.947078380328029e-05 -0.0006081246985172233 0.00010368112024686624 0.0009866398146618504 0.9980770013388185 -0.0044875436579845255 0.0018787178659568516 0.0017462071977308387
0.01250521050438 0.0020611718079833496 0.0035291948051812084 0.9978428306187718 -0.008975576766252042 0.00015086293902350477 0.001973561153661472 -0.0001411100361976649 -0.0012191298689981
 0.9978428306187718 -0.008975576766252042 0.002061027014556339 0.0035292322656948144 -0.00014109216064122073 -0.0012191247028744683 0.00015179501534711047 0.0019733825142811356
 0.00015086293902350477 0.001973561153661472 -0.00014109216064122073 -0.0012191247028744683 0.002061180516142176 0.003529024838839361 0.9978428291532752 -0.008975744135622195
 -0.0001411100361976649 -0.0012191298689981 0.00015179501534711047 0.0019733825142811356 0.9978428291532752 -0.008975744135622195 0.002061015367047207 0.0035290674207405803
0.01875781575657 0.00226121793309054 0.005337431366647348 0.9975836297082735 -0.01347524161859191 0.00020920909368038885 0.002961236066227218 -0.00019190117526909036 -0.0018320360843007387
 0.9975836297082735 -0.01347524161859191 0.0022608925800343908 0.0053374922908662565 -0.0001918613171547993 -0.0018320290632711247 0.00021130274700664788 0.002960916170019896
 0.00020920909368038885 0.002961236066227218 -0.0001918613171547993 -0.0018320290632711247 0.0022612379402377116 0.0053371764493046975 0.9975836268451329 -0.013475492424529055
 -0.00019190117526909036 -0.0018320360843007387 0.00021130274700664788 0.002960916170019896 0.9975836268451329 -0.013475492424529055 0.002260866822346283 0.0053372453508393
0.02501042100875 0.0024793138451413726 0.007168387457105874 0.9972990700660709 -0.017988590059855206 0.00027860265436423036 0.003949766968439685 -0.00025197570707678117 -0.002446521672012343
 0.9972990700660709 -0.017988590059855206 0.0024787360476558203 0.007168475193386135 -0.00025190532825317217 -0.002446513408885261 0.00028232119211309007 0.003949262810074672
 0.00027860265436423036 0.003949766968439685 -0.00025190532825317217 -0.002446513408885261 0.002479349771740761 0.007168047440046439 0.9972990653615462 -0.017988924210831477
 -0.00025197570707678117 -0.002446521672012343 0.00028232119211309007 0.003949262810074672 0.9972990653615462 -0.017988924210831477 0.002478690657160258 0.007168146327456313
0.03126302626094 0.0027158604144626583 0.009020704087969962 0.996988807254061 -0.02251650729978483 0.0003591603268769963 0.0049390840623694575 -0.00032146068343891226 -0.003062354703838018
 0.996988807254061 -0.02251650729978483 0.0027149583885995995 0.00902082211855326 -0.00032135133370585304 -0.0030623459101334636 0.0003649675302094843 0.004938346364977493
 0.0003591603268769963 0.0049390840623694575 -0.00032135133370585304 -0.0030623459101334636 0.0027159168805262163 0.009020278756510434 0.9969888002674464 -0.022516924698604814
 -0.00032146068343891226 -0.003062354703838018 0.0003649675302094843 0.004938346364977493 0.9969888002674464 -0.022516924698604814 0.0027148878427766983 0.009020411519966699
0.037515631513130004 0.0029712493226209205 0.010893477280163433 0.9966524900255846 -0.02705940883430084 0.00045099758485871616 0.005929078534771867 -0.00040047968303890975 -0.0036793339940606913
 0.9966524900255846 -0.02705940883430084 0.002969951354240763 0.010893629218594176 -0.0004003229911185397 -0.003679325480251414 0.00045935788655472294 0.0059280516887456345
 0.00045099758485871616 0.005929078534771867 -0.0004003229911185397 -0.003679325480251414 0.00297133094917593 0.010892966339794547 0.9966524803210118 -0.02705990939160779
 -0.00040047968303890975 -0.0036793339940606913 0.00045935788655472294 0.0059280516887456345 0.9966524803210118 -0.02705990939160779 0.002969850131030954 0.010893137091957952
0.043768236765320004 0.0032458662322305426 0.012786020431080267 0.9962897638483423 -0.03161747801205631 0.0005542281285935117 0.006919620533032458 -0.0004891531481211294 -0.004297271158320783
 0.9962897638483423 -0.03161747801205631 0.0032441006517631064 0.012786210020804017 -0.0004889408165606252 -0.004297263833872409 0.0005656066882309143 0.006918242527194051
 0.0005542281285935117 0.006919620533032458 -0.0004889408165606252 -0.004297263833872409 0.003245977639529182 0.012785423519264124 0.9962897509925496 -0.031618061633995574
 -0.0004891531481211294 -0.004297271158320783 0.0005656066882309143 0.006918242527194051 0.9962897509925496 -0.031618061633995574 0.0032439632256965603 0.012785636595262108
0.050020842017509996 0.003540092237608719 0.014697766127290119 0.9959002727101623 -0.03619076415498783 0.0006689635486378905 0.007910566592297826 -0.0005875984910030948 -0.004915983222693796
 0.9959002727101623 -0.03619076415498783 0.003537787396546067 0.014697997241076448 -0.0005873222927717713 -0.004915978096046148 0.0006838262734027318 0.007908768942097102
 0.0006689635486378905 0.007910566592297826 -0.0005873222927717713 -0.004915978096046148 0.00354023804369172 0.014697082819002283 0.9959002562720456 -0.03619143073720412
 -0.0005875984910030948 -0.004915983222693796 0.0006838262734027318 0.007908768942097102 0.9959002562720456 -0.03619143073720412 0.0035376082377701693 0.014697342777146368
0.055454545454549996 0.0038120016210113176 0.01637433910263128 0.9955397798821435 -0.04017741962770089 0.0007781003685274413 0.00877193794840849 -0.0006811753545345351 -0.0054541513478509
 0.9955397798821435 -0.04017741962770089 0.003809169958914337 0.016374609547780507 -0.0006808370259728915 -0.005454149026950689 0.000796369883705399 0.008769714914330668
 0.0007781003685274413 0.00877193794840849 -0.0006808370259728915 -0.005454149026950689 0.0038121810702408166 0.016373580309798175 0.995539759983698 -0.04017815822123816
 -0.0006811753545345351 -0.0054541513478509 0.000796369883705399 0.008769714914330668 0.995539759983698 -0.04017815822123816 0.003808950039264497 0.01637388488643663
0.056273447269699996 0.00385430459365233 0.016628217968776202 0.9954836602070568 -0.04077923067118393 0.0007953130755656917 0.00890176329458723 -0.0006959301017028301 -0.005535289005676734
 0.9954836602070568 -0.04077923067118393 0.003851388842970979 0.01662849460886123 -0.0006955818780868293 -0.005535287184173487 0.0008141266079598866 0.00889947096922033
 0.0007953130755656917 0.00890176329458723 -0.0006955818780868293 -0.005535287184173487 0.0038544894154173047 0.01662744776320539 0.9954836397592123 -0.040779980111531396
 -0.0006959301017028301 -0.005535289005676734 0.0008141266079598866 0.00889947096922033 0.9954836397592123 -0.040779980111531396 0.0038511624177082564 0.01662775938665748
0.06252605252188 0.004188877086233734 0.01857692405053752 0.9950395702781515 -0.045382781516323814 0.0009333833749339218 0.009893049287104388 -0.000814259302955802 -0.006155007147439076
 0.9950395702781515 -0.045382781516323814 0.004185278755418218 0.018577250349518525 -0.0008138309621166726 -0.006155009837246541 0.0009566150584046899 0.00989018063633427
 0.0009333833749339218 0.009893049287104388 -0.0008138309621166726 -0.006155009837246541 0.004189105538607689 0.01857606638407062 0.9950395453968334 -0.045383613701396874
 -0.000814259302955802 -0.006155007147439076 0.0009566150584046899 0.00989018063633427 0.9950395453968334 -0.045383613701396874 0.004184999525592819 0.01857643468314726
0.06877865777407 0.004544180208801069 0.020543461201594133 0.9945676477511441 -0.05000127690500316 0.0010832783669218235 0.010884256499289846 -0.0009426942753612062 -0.006774954947508816
 0.9945676477511441 -0.05000127690500316 0.004539827585045791 0.02054384142395236 -0.0009421777914597277 -0.0067749634535216085 0.001111396195881156 0.010880723180605996
 0.0010832783669218235 0.010884256499289846 -0.0009421777914597277 -0.0067749634535216085 0.004544456903910458 0.020542515443205407 0.994567618016157 -0.05000219171424305
 -0.0009426942753612062 -0.006774954947508816 0.001111396195881156 0.010880723180605996 0.994567618016157 -0.05000219171424305 0.004539490007434059 0.02054294565845473
0.07503126302626001 0.004920581220507332 0.022527424975375934 0.9940675387735598 -0.05463454327873582 0.0012450990596188194 0.011875210923804017 -0.0010813399654061137 -0.0073949476463448524
 0.9940675387735598 -0.05463454327873582 0.00491540252855687 0.022527863519881668 -0.0010807273780089938 -0.007394963372083705 0.001278571617532669 0.011870917830221782
 0.0012450990596188194 0.011875210923804017 -0.0010807273780089938 -0.007394963372083705 0.004920910766731687 0.022526390425272755 0.9940675037686469 -0.054635540585289126
 -0.0010813399654061137 -0.0073949476463448524 0.001278571617532669 0.011870917830221782 0.9940675037686469 -0.054635540585289126 0.004915001054568175 0.022526888031272264
0.08128386827845 0.005318444133300374 0.024528422994415135 0.9935388911783842 -0.059282379928575324 0.0014189433918478257 0.012865733154327137 -0.0012302979810116053 -0.008014797958314147
 0.9935388911783842 -0.059282379928575324 0.005312367514737197 0.02452892439702993 -0.0012295813948370812 -0.008014822405787042 0.001458239780156026 0.012860578343031434
 0.0014189433918478257 0.012865733154327137 -0.0012295813948370812 -0.008014822405787042 0.005318831134965683 0.02452729888469909 0.9935388504915286 -0.0592834595979986
 -0.0012302979810116053 -0.008014797958314147 0.001458239780156026 0.012860578343031434 0.9935388504915286 -0.0592834595979986 0.00531189659048376 0.024527869594651315
0.08753647353064001 0.005738129649580469 0.026546070372023483 0.9929813548038615 -0.06394456354960412 0.0016049060818497968 0.013855638766240115 -0.0013896664793091988 -0.008634315770172136
 0.9929813548038615 -0.06394456354960412 0.005731083142514784 0.02654663930983884 -0.001388838064137194 -0.008634350539759784 0.0016504958411812458 0.013849513388376544
 0.0016049060818497968 0.013855638766240115 -0.001388838064137194 -0.008634350539759784 0.005738578705874055 0.02654485586678288 0.9929813080274634 -0.06394572543950724
 -0.0013896664793091988 -0.008634315770172136 0.0016504958411812458 0.013849513388376544 0.9929813080274634 -0.06394572543950724 0.005730537208475956 0.02654550563779178
0.09378907878283 0.00617999506532755 0.02857998642926226 0.9923945817835687 -0.06862085151032384 0.0018030784796963983 0.014844738608778796 -0.001559540049012356 -0.009253307936941154
 0.9923945817835687 -0.06862085151032384 0.006171906584106265 0.028580627725010146 -0.0015585920397564292 -0.009253354727243788 0.0018554315047577944 0.014837526840414285
 0.0018030784796963983 0.014844738608778796 -0.0015585920397564292 -0.009253354727243788 0.006180510769694762 0.0285786806262407 0.9923945285147697 -0.06862209546809574
 -0.001559540049012356 -0.009253307936941154 0.0018554315047577944 0.014837526840414285 0.9923945285147697 -0.06862209546809574 0.00617128007533956 0.028579415665370228
0.100041684035 0.00664439415067321 0.030629792317359655 0.9917782268165548 -0.07331098422614687 0.0020135484229485304 0.015832839030087136 -0.0017400095885452404 -0.00987157815378165
 0.9917782268165548 -0.07331098422614687 0.0066351914650908395 0.030630510944822584 -0.0017389342854986962 -0.009871638761462026 0.0020731348716797357 0.015824418004588617
 0.0020135484229485304 0.015832839030087136 -0.0017389342854986962 -0.009871638761462026 0.00664498108981882 0.030628394239411917 0.9917781666576517 -0.07331231009713737
 -0.0017400095885452404 -0.00987157815378165 0.0020731348716797357 0.015824418004588617 0.9917781666576517 -0.07331231009713737 0.006634478810714229 0.03062922101068877
0.1059090909091 0.007100989482522113 0.03256743191529337 0.991172633482577 -0.0777245234493111 0.002222311661340063 0.016758981222950813 -0.0019190756529618002 -0.010450924859182703
 0.991172633482577 -0.0777245234493111 0.007090675394995953 0.03256822777399042 -0.0019178739538764822 -0.010451000154241793 0.002289113665128181 0.016749307360355018
 0.002222311661340063 0.016758981222950813 -0.0019178739538764822 -0.010451000154241793 0.007101647432582181 0.0325659463020799 0.9911725665009925 -0.07772592603392517
 -0.0019190756529618002 -0.010450924859182703 0.002289113665128181 0.016749307360355018 0.9911725665009925 -0.07772592603392517 0.007089876830515446 0.03256686526881172
0.1062942892872 0.0071316770109609694 0.03269510921487345 0.9911319474232664 -0.07801468696889574 0.002236400093991638 0.016819742065382493 -0.0019311621816061745 -0.010488926873899523
 0.9911319474232664 -0.07801468696889574 0.007121287725786945 0.03269591030512634 -0.0019299519507091428 -0.010489003193503144 0.0023036902921460306 0.016809981807301706
 0.002236400093991638 0.016819742065382493 -0.0019299519507091428 -0.010489003193503144 0.007132339763895684 0.03269361782122962 0.9911318799817957 -0.0780160945846893
 -0.0019311621816061745 -0.010488926873899523 0.0023036902921460306 0.016809981807301706 0.9911318799817957 -0.0780160945846893 0.007120483349403986 0.03269454305329564
0.11254689453939999 0.0076421899354070285 0.034775556982532804 0.9904554041908603 -0.08273167122902465 0.0024717138794883987 0.017805245597486582 -0.0021330809704434937 -0.011105151263526087
 0.9904554041908603 -0.08273167122902465 0.0076305414696660155 0.03477644583098169 -0.00213172824376794 -0.011105245287305344 0.0025471782206274744 0.017794008957972392
 0.0024717138794883987 0.017805245597486582 -0.00213172824376794 -0.011105245287305344 0.007642933072752275 0.03477397115896015 0.9904553290800021 -0.08273316041694022
 -0.0021330809704434937 -0.011105151263526087 0.0025471782206274744 0.017794008957972392 0.9904553290800021 -0.08273316041694022 0.007629639788966447 0.034775001853712406
0.11879949979160001 0.008176275234364086 0.036870753107974774 0.9897482610105747 -0.08746163579894131 0.0027195662313145475 0.018789143496731348 -0.002345845027788043 -0.011720045186830083
 0.9897482610105747 -0.08746163579894131 0.008163294800353427 0.03687173518237463 -0.0023443423039750055 -0.011720159004518123 0.002803675072726446 0.018776286090787492
 0.0027195662313145475 0.018789143496731348 -0.0023443423039750055 -0.011720159004518123 0.008177103317435439 0.03686907166959249 0.9897481778495513 -0.08746320637883688
 -0.002345845027788043 -0.011720045186830083 0.002803675072726446 0.018776286090787492 0.9897481778495513 -0.08746320637883688 0.008162290227748387 0.036870215111591005
0.1250521050438 0.008734271069502494 0.038980311885959976 0.989010185311131 -0.09220426763216796 0.002980029528452929 0.01977122575149789 -0.0025695292281043606 -0.012333399210024186
 0.989010185311131 -0.09220426763216796 0.00871988565198064 0.03898139283522746 -0.0025678690728230084 -0.0123335350086538 0.003073253083524847 0.019756595896941443
 0.002980029528452929 0.01977122575149789 -0.0025678690728230084 -0.0123335350086538 0.008735188649120639 0.038978533577569696 0.9890100937253473 -0.09220591941582368
 -0.0025695292281043606 -0.012333399210024186 0.003073253083524847 0.019756595896941443 0.9890100937253473 -0.09220591941582368 0.008718772594279032 0.038979797344375275
0.131304710296 0.009316511276235713 0.041103843779617316 0.9882408482856881 -0.09695924253270481 0.0032531719404145353 0.02075127859000008 -0.002804204118066947 -0.012945000623831755
 0.9882408482856881 -0.09695924253270481 0.009300647611593472 0.04110502944358735 -0.002802379164818067 -0.012945160687420177 0.003355980167609734 0.020734717248365224
 0.0032531719404145353 0.02075127859000008 -0.002802379164818067 -0.012945160687420177 0.00931752289167572 0.04110196727428651 0.9882407479069342 -0.09696097532481697
 -0.002804204118066947 -0.012945000623831755 0.003355980167609734 0.020734717248365224 0.9882407479069342 -0.09696097532481697 0.009299420469816942 0.04110335924775869
0.1375573155481 0.00979607492439622 0.042962456151570516 0.9875672402176394 -0.10144754957832236 0.00350606593333585 0.021701339634248914 -0.003016837176867482 -0.013527005836760588
 0.9875672402176394 -0.10144754957832236 0.009778653028485814 0.042963723592670346 -0.0030148363710516954 -0.01352719051798149 0.0036186972410420072 0.02168286049862051
 0.00350606593333585 0.021701339634248914 -0.0030148363710516954 -0.01352719051798149 0.009797184372096389 0.04296048025582782 0.9875671306603259 -0.10144936318199838
 -0.003016837176867482 -0.013527005836760588 0.0036186972410420072 0.02168286049862051 0.9875671306603259 -0.10144936318199838 0.009777306969314562 0.042961979228286436
0.1438099208003 0.010292672810403499 0.044810063196868706 0.9868696037563531 -0.10592328686792662 0.0037691378977876885 0.02264697672341808 -0.0032379457525789886 -0.014104888405638122
 0.9868696037563531 -0.10592328686792662 0.01027361806421421 0.04481141655111983 -0.003235761161384631 -0.014105099970478627 0.0038920201240653166 0.022626433301786094
 0.0037691378977876885 0.02264697672341808 -0.003235761161384631 -0.014105099970478627 0.010293884479159805 0.04480798653902547 0.9868694846598273 -0.10592518107559618
 -0.0032379457525789886 -0.014104888405638122 0.0038920201240653166 0.022626433301786094 0.9868694846598273 -0.10592518107559618 0.01027214761479594 0.04480959871126438
0.1500625260525 0.010806112112509019 0.04664647534164883 0.9861481368296746 -0.11038630781082603 0.004042285659015056 0.0235880742561371 -0.003467428887552936 -0.014678536897572226
 0.9861481368296746 -0.11038630781082603 0.010785349625315943 0.04664791904702068 -0.0034650525989313296 -0.01467877770332031 0.0041758437383566886 0.023565314698399616
 0.004042285659015056 0.0235880742561371 -0.0034650525989313296 -0.01467877770332031 0.010807430371246146 0.046644296495119766 0.9861480078392905 -0.11038828240623931
 -0.003467428887552936 -0.014678536897572226 0.0041758437383566886 0.023565314698399616 0.9861480078392905 -0.11038828240623931 0.010783749314996705 0.04664602845370222
0.15631513130469998 0.011336198412203109 0.04847150867447168 0.9854030386299387 -0.11483646712902608 0.004325405710175693 0.024524518860330618 -0.0037051842562802317 -0.015247842462652277
 0.9854030386299387 -0.11483646712902608 0.011313653014269887 0.04847304748282943 -0.003702608379335472 -0.015248114957473306 0.004470061624390053 0.02449938601965899
