! Created with skrf 1.8.0 (http://scikit-rf.org).
# GHz S RI R 50.0 
!freq ReS11 ImS11 ReS12 ImS12 ReS13 ImS13
! ReS14 ImS14
! ReS21 ImS21 ReS22 ImS22 ReS23 ImS23
! ReS24 ImS24
! ReS31 ImS31 ReS32 ImS32 ReS33 ImS33
! ReS34 ImS34
! ReS41 ImS41 ReS42 ImS42 ReS43 ImS43
! ReS44 ImS44
!
0.0 0.002026431581539 0.0 0.9979735684105 0.0 7.92794898654e-05 0.0 -7.927948974306e-05 9.708937335187385e-21
 0.9979735684105 0.0 0.00202643158154 0.0 -7.927948974296e-05 9.708937335175137e-21 7.927948986477e-05 0.0
 7.92794898654e-05 0.0 -7.927948974296e-05 9.708937335175137e-21 0.002026431584653 0.0 0.9979735684136 0.0
 -7.927948974306e-05 9.708937335187385e-21 7.927948986477e-05 0.0 0.9979735684136 0.0 0.002026431584661 0.0
0.005 0.002182151156474467 0.001650183490585909 0.9977762138584769 -0.004243280049950348 0.00011313074119139494 0.000908990312580642 -0.00010945326107602943 -0.0005640070462620262
 0.9977762138584769 -0.004243280049950348 0.0021821633292536213 0.001650176399854014 -0.00010945677543912015 -0.0005640097726021461 0.00011304787836379646 0.0009090220284744976
 0.00011313074119139494 0.000908990312580642 -0.00010945677543912015 -0.0005640097726021461 0.0021821488021547 0.0016501176325401132 0.9977762134547287 -0.004243347099682172
 -0.00010945326107602943 -0.0005640070462620262 0.00011304787836379646 0.0009090220284744976 0.9977762134547287 -0.004243347099682172 0.002182164880479146 0.0016501081601984575
0.006252605252188 0.0022235396982941765 0.002069171222352488 0.9977233384854987 -0.0053050509511768104 0.00012312801410968073 0.0011366236557556109 -0.00011824047562485373 -0.0007057112489486578
 0.9977233384854987 -0.0053050509511768104 0.0022235587261104357 0.002069162178680154 -0.00011824594392062918 -0.0007057146089294661 0.00012299855289002535 0.0011366648806587082
 0.00012312801410968073 0.0011366236557556109 -0.00011824594392062918 -0.0007057146089294661 0.0022235360941877894 0.002069088901333334 0.9977233379309177 -0.00530513476964822
 -0.00011824047562485373 -0.0007057112489486578 0.00012299855289002535 0.0011366648806587082 0.9977233379309177 -0.00530513476964822 0.0022235612281307697 0.002069076867277989
0.01250521050438 0.002444606487707773 0.0041810711865750624 0.9974386385684005 -0.010610238594088266 0.00018218040014848636 0.0022731971512703116 -0.00016953523681828713 -0.001414491567086318
 0.9974386385684005 -0.010610238594088266 0.0024446824613938104 0.004181051290386005 -0.00016955678200586709 -0.0014144977498131734 0.00018166423556119674 0.0022732969891127107
 0.00018218040014848636 0.0022731971512703116 -0.00016955678200586709 -0.0014144977498131734 0.0024445926673725307 0.004180906899244517 0.9974386369303767 -0.01061040598494747
 -0.00016953523681828713 -0.001414491567086318 0.00018166423556119674 0.0022732969891127107 0.9974386369303767 -0.01061040598494747 0.002444693037312928 0.004180880844139496
0.01875781575657 0.002690225556737774 0.006322208463492403 0.9971190373487522 -0.01592833595820959 0.0002565878711826135 0.0034104204309042935 -0.00023334501929441726 -0.0021251770529270614
 0.9971190373487522 -0.01592833595820959 0.0026903962680600467 0.006322175808819577 -0.0002333930568213102 -0.002125185390875545 0.0002554286041597897 0.0034106004514456935
 0.0002565878711826135 0.0034104204309042935 -0.0002333930568213102 -0.002125185390875545 0.0026901949189850013 0.006321962497585119 0.9971190340942185 -0.015928586828894836
 -0.00023334501929441726 -0.0021251770529270614 0.0002554286041597897 0.0034106004514456935 0.9971190340942185 -0.015928586828894836 0.002690420476282414 0.006321920204349361
0.02501042100875 0.002960965356066438 0.008489418448482467 0.9967640840474097 -0.021261765613387697 0.00034650295241173503 0.0045482454381319815 -0.0003098418580714594 -0.0028373386728837717
 0.9967640840474097 -0.021261765613387697 0.002961268522734809 0.008489371043172385 -0.00030992667355363 -0.0028373483580134513 0.0003444442784495198 0.004548531281911873
 0.00034650295241173503 0.0045482454381319815 -0.00030992667355363 -0.0028373483580134513 0.002960911307112097 0.008489091143625591 0.9967640786427717 -0.02126209990360105
 -0.0003098418580714594 -0.0028373386728837717 0.0003444442784495198 0.004548531281911873 0.9967640786427717 -0.02126209990360105 0.002961311919808959 0.008489030181307011
0.03126302626094 0.003257369809458873 0.010680993883504578 0.9963733097255085 -0.026611469204924274 0.00045207684641261663 0.0056865124289639316 -0.0003991904812697584 -0.0035506460252949725
 0.9963733097255085 -0.026611469204924274 0.003257843100473317 0.010680929651734164 -0.0003993222513022498 -0.003550656108046433 0.00044886234496868915 0.0056869338303921005
 0.00045207684641261663 0.0056865124289639316 -0.0003993222513022498 -0.003550656108046433 0.0032572857631579548 0.010680585632228479 0.996373301638137 -0.026611886886480456
 -0.0003991904812697584 -0.0035506460252949725 0.00044886234496868915 0.0056869338303921005 0.996373301638137 -0.026611886886480456 0.003257911245804866 0.0106805033574247
0.037515631513130004 0.0035799688409653306 0.012895762044578946 0.9959462384626542 -0.03197783025894569 0.0005734577030311295 0.006825016125694646 -0.0005015495129259635 -0.004264801302952507
 0.9959462384626542 -0.03197783025894569 0.0035806498957990044 0.012895678827646856 -0.0005017383154006761 -0.0042648106920551866 0.0005688307601309007 0.006825606950030159
 0.0005734577030311295 0.006825016125694646 -0.0005017383154006761 -0.0042648106920551866 0.0035798482170456662 0.01289527331550475 0.9959462271595401 -0.03197833131345688
 -0.0005015495129259635 -0.004264801302952507 0.0005688307601309007 0.006825606950030159 0.9959462271595401 -0.03197833131345688 0.0035807483518707985 0.01289516687179212
0.043768236765320004 0.003929282369142194 0.015132803989107888 0.9954823920056096 -0.03736095491536474 0.0007107897582999539 0.007963525884489205 -0.0006170718403180334 -0.004979519250086711
 0.9954823920056096 -0.03736095491536474 0.0039302088148896455 0.01513269954565916 -0.0006173276604157513 -0.00497952671261583 0.0007044935466683378 0.007964324168932006
 0.0007107897582999539 0.007963525884489205 -0.0006173276604157513 -0.00497952671261583 0.003929118592318684 0.015132235327428849 0.995482376951819 -0.03736153933489836
 -0.0006170718403180334 -0.004979519250086711 0.0007044935466683378 0.007964324168932006 0.995482376951819 -0.03736153933489836 0.003930343146014637 0.015132101643808203
0.050020842017509996 0.0043058221026584815 0.01739133852290306 0.9949812922236901 -0.042760787945969665 0.0008642127773581428 0.009101794064100506 -0.0007459046878795586 -0.005694518930438074
 0.9949812922236901 -0.042760787945969665 0.004307031569098681 0.017391210528540386 -0.0007462374216219594 -0.005694523091946778 0.0008559902671471129 0.009102842060215588
 0.0008642127773581428 0.009101794064100506 -0.0007462374216219594 -0.005694523091946778 0.004305608603823292 0.01739069055050393 0.9949812728825169 -0.04276145573409538
 -0.0007459046878795586 -0.005694518930438074 0.0008559902671471129 0.009102842060215588 0.9949812728825169 -0.04276145573409538 0.004307207342624758 0.017390526339147557
0.055454545454549996 0.004655549433261203 0.01937098274623063 0.9945151969474931 -0.04746685368138544 0.001010714738310289 0.010090585372529416 -0.0008687841514304253 -0.006315886219316
 0.9945151969474931 -0.04746685368138544 0.004657035426684072 0.019370832332397628 -0.0008691916946400155 -0.0063158862861335185 0.001000609341485456 0.010091887994182445
 0.001010714738310289 0.010090585372529416 -0.0008691916946400155 -0.0063158862861335185 0.004655287394830118 0.019370266417678375 0.9945151734429366 -0.04746759392941393
 -0.0008687841514304253 -0.006315886219316 0.001000609341485456 0.010091887994182445 0.9945151734429366 -0.04746759392941393 0.004657251738544615 0.01937007283597422
0.056273447269699996 0.0047100923933880755 0.01967066528741446 0.9944424626287152 -0.048177169663943004 0.0010338616328383894 0.01023956017016048 -0.0008881895591781767 -0.006409519734340452
 0.9944424626287152 -0.048177169663943004 0.0047116225280113945 0.019670511333597852 -0.0008886090155959912 -0.006409519079032888 0.0010234556213300334 0.010240904386397808
 0.0010338616328383894 0.01023956017016048 -0.0008886090155959912 -0.006409519079032888 0.004709822610193426 0.019669938705235118 0.9944424384613304 -0.048177920834553044
 -0.0008881895591781767 -0.006409519734340452 0.0010234556213300334 0.010240904386397808 0.9944424384613304 -0.048177920834553044 0.004711845314196912 0.019669740458434042
0.06252605252188 0.005142590628163697 0.021970133491283475 0.9938654294403626 -0.05360986720431217 0.0012198659505413803 0.01137655317307139 -0.0010440621131527414 -0.007124239228039535
 0.9938654294403626 -0.05360986720431217 0.005144479110624823 0.021969951083725233 -0.0010445780156151006 -0.0071242320989601295 0.001207019104591331 0.011378244417005868
 0.0012198659505413803 0.01137655317307139 -0.0010445780156151006 -0.0071242320989601295 0.005142258005141545 0.0219693290872703 0.9938653999047169 -0.053610701774689136
 -0.0010440621131527414 -0.007124239228039535 0.001207019104591331 0.011378244417005868 0.9938653999047169 -0.053610701774689136 0.005144754481676233 0.021969093073967674
0.06877865777407 0.005603807361886999 0.02428912331029132 0.9932497223991162 -0.05905859315347524 0.0014223497944494006 0.012512492931283505 -0.0012136520020959145 -0.007838391914602007
 0.9932497223991162 -0.05905859315347524 0.005606091917739961 0.024288909866645312 -0.0012142739889292983 -0.007838376513843642 0.001406804701937873 0.012514586350980674
 0.0014223497944494006 0.012512492931283505 -0.0012142739889292983 -0.007838376513843642 0.005603405352328782 0.0242882419504561 0.9932496869505228 -0.05905951115448117
 -0.0012136520020959145 -0.007838391914602007 0.001406804701937873 0.012514586350980674 0.9932496869505228 -0.05905951115448117 0.0056064254489259545 0.024287964212012656
0.07503126302626001 0.006094226301169472 0.026627034101598175 0.9925948754358552 -0.06452301738344189 0.0016414313744197676 0.013647091133833862 -0.0013970826875825805 -0.008551688492934199
 0.9925948754358552 -0.06452301738344189 0.006096944717309232 0.026626786948530726 -0.0013978203124405105 -0.008551662881866701 0.001622930602804827 0.013649646258424804
 0.0016414313744197676 0.013647091133833862 -0.0013978203124405105 -0.008551662881866701 0.006093748367511845 0.02662607674068189 0.9925948335254866 -0.06452401884980981
 -0.0013970826875825805 -0.008551688492934199 0.001622930602804827 0.013649646258424804 0.9925948335254866 -0.06452401884980981 0.006097341984939574 0.026625753086024866
0.08128386827845 0.006614324190577607 0.028983276617405084 0.9919004272482075 -0.07000277490648149 0.0018772227698055383 0.014780051967146036 -0.0015944712419825834 -0.009263835410706406
 0.9919004272482075 -0.07000277490648149 0.006617514328198445 0.02898299298717623 -0.0015953339736374415 -0.009263797510231314 0.0018555089302371183 0.01478313274611854
 0.0018772227698055383 0.014780051967146036 -0.0015953339736374415 -0.009263797510231314 0.0066137638057876735 0.02898224429192151 0.9919003783235061 -0.07000385988498216
 -0.0015944712419825834 -0.009263835410706406 0.0018555089302371183 0.01478313274611854 0.9919003783235061 -0.07000385988498216 0.006617980910574447 0.02898187029214499
0.08753647353064001 0.007164570636111502 0.031357267624281975 0.9911659218198418 -0.07549747134539225 0.002129829663442553 0.015911072622300036 -0.00180592814109734 -0.009974534595223919
 0.9911659218198418 -0.07549747134539225 0.007168270445497499 0.03135694465035608 -0.0018069253631981656 -0.009974482186026005 0.0021046454794914782 0.015914747463558258
 0.002129829663442553 0.015911072622300036 -0.0018069253631981656 -0.009974482186026005 0.007163921285166461 0.03135616146302367 0.9911658653236592 -0.0754986398851548
 -0.00180592814109734 -0.009974534595223919 0.0021046454794914782 0.015914747463558258 0.9911658653236592 -0.0754986398851548 0.007168811921817922 0.03135573244526649
0.09378907878283 0.007745427884403565 0.03374842611809794 0.9903909088984046 -0.08100668682918151 0.0023993510836512245 0.01703984369635023 -0.0020315570512561662 -0.010683483308923719
 0.9903909088984046 -0.08100668682918151 0.007749675419266913 0.033748060830362116 -0.002032698061760764 -0.010683414031775907 0.002370439464114154 0.017044185502826704
 0.0023993510836512245 0.01703984369635023 -0.002032698061760764 -0.010683414031775907 0.007744683065292378 0.03374724733373659 0.9903908442685448 -0.08100793899123232
 -0.0020315570512561662 -0.010683483308923719 0.002370439464114154 0.017044185502826704 0.9903908442685448 -0.08100793899123232 0.007750297369276369 0.03374675837434758
0.100041684035 0.008357350571332167 0.036156170553905 0.9895749444455786 -0.08652997889633746 0.0026858791530715628 0.01816604953155347 -0.002271454612642131 -0.011390374086075458
 0.9895749444455786 -0.08652997889633746 0.008362184002618778 0.036155759873037145 -0.002272748623145969 -0.011390285442132143 0.0026529832679353656 0.018171135736390155
 0.0026858791530715628 0.01816604953155347 -0.002272748623145969 -0.011390285442132143 0.008356503796526811 0.03615492045319425 0.989574871114718 -0.08653131474426543
 -0.002271454612642131 -0.011390374086075458 0.0026529832679353656 0.018171135736390155 0.989574871114718 -0.08653131474426543 0.008362892006015678 0.036154366370385806
0.1059090909091 0.00896022685513529 0.038430147784434134 0.9887716136670911 -0.09172539311866586 0.002970298503532728 0.019220254787451103 -0.0025096299421860212 -0.012051566393002538
 0.9887716136670911 -0.09172539311866586 0.008965644921282325 0.03842969160342126 -0.0025110758271574577 -0.012051457178616316 0.00293343052593648 0.019226114020720973
 0.002970298503532728 0.019220254787451103 -0.0025110758271574577 -0.012051457178616316 0.008959278519634241 0.03842883202791278 0.9887715316500224 -0.09172680756308273
 -0.0025096299421860212 -0.012051566393002538 0.00293343052593648 0.019226114020720973 0.9887715316500224 -0.09172680756308273 0.008966438750833312 0.03842821188374522
0.1062942892872 0.009000785447388018 0.03857991682180803 0.9887175910670192 -0.09206688467468004 0.002989498842479814 0.019289368513665812 -0.002525710221277913 -0.012094894729603926
 0.9887175910670192 -0.09206688467468004 0.009006243077762186 0.038579457552874064 -0.0025271663561830305 -0.012094784080728548 0.002952362202184406 0.01929528111371107
 0.002989498842479814 0.019289368513665812 -0.0025271663561830305 -0.012094784080728548 0.008999830245366339 0.03857859679835789 0.988717508461969 -0.09206830428276203
 -0.002525710221277913 -0.012094894729603926 0.002952362202184406 0.01929528111371107 0.988717508461969 -0.09206830428276203 0.009007042713758124 0.038577972143977714
0.11254689453939999 0.009676171087307837 0.041019076709654115 0.9878184184272171 -0.09761692259730667 0.0033102877298410794 0.020409473343187913 -0.002794405810328066 -0.012796728354393347
 0.9878184184272171 -0.09761692259730667 0.009682291365102702 0.04101856553516559 -0.00279603310590961 -0.012796592923565584 0.003268654267271348 0.020416298930814696
 0.0033102877298410794 0.020409473343187913 -0.00279603310590961 -0.012796592923565584 0.009675101003879869 0.04101768825004367 0.9878183259685713 -0.09761842604525317
 -0.002794405810328066 -0.012796728354393347 0.003268654267271348 0.020416298930814696 0.9878183259685713 -0.09761842604525317 0.009683188211664983 0.041016987300767166
0.11879949979160001 0.010383937586887021 0.04347305676041774 0.9868770036522431 -0.10317959374742806 0.003648315764083378 0.021526031292509358 -0.003077615632177805 -0.013495553464200869
 0.9868770036522431 -0.10317959374742806 0.01039075912074287 0.04347249023240866 -0.0030794230355581154 -0.013495390335839026 0.003601929918836584 0.021533861085685346
 0.003648315764083378 0.021526031292509358 -0.0030794230355581154 -0.013495390335839026 0.010382746187102037 0.04347160144290649 0.9868769007540096 -0.10318118112247932
 -0.003077615632177805 -0.013495553464200869 0.003601929918836584 0.021533861085685346 0.9868769007540096 -0.10318118112247932 0.010391758753970078 0.04347081819064758
0.1250521050438 0.011124506251217626 0.04594125738762842 0.9858929317235656 -0.10875438296894481 0.0040036450334577185 0.022638704451823585 -0.003375406041744364 -0.014191044059323712
 0.9858929317235656 -0.10875438296894481 0.011132067823476564 0.04594063191917654 -0.0033774024097964696 -0.01419085017975812 0.003952251838843195 0.02264763432228775
 0.0040036450334577185 0.022638704451823585 -0.0033774024097964696 -0.01419085017975812 0.011123187120433175 0.04593973688416227 0.9858928177923955 -0.10875605436465917
 -0.003375406041744364 -0.014191044059323712 0.003952251838843195 0.02264763432228775 0.9858928177923955 -0.10875605436465917 0.011133175817074757 0.04593886502576503
0.131304710296 0.01189828927526933 0.04842307221364066 0.9848657958626976 -0.11434075977823746 0.004376329538884407 0.023747149972832338 -0.003687835282071787 -0.014882869766295465
 0.9848657958626976 -0.11434075977823746 0.011906629856618424 0.04842238406935695 -0.0036900293802707668 -0.014882641944147304 0.004319674710669069 0.023757280472367956
 0.004376329538884407 0.023747149972832338 -0.0036900293802707668 -0.014882641944147304 0.011896836021386754 0.04842148828964101 0.984865670298027 -0.11434251529522745
 -0.003687835282071787 -0.014882869766295465 0.004319674710669069 0.023757280472367956 0.984865670298027 -0.11434251529522745 0.011907851780996946 0.04842052121588854
0.1375573155481 0.012546855278689192 0.05059448303319509 0.9839541349604114 -0.11961451584002732 0.004725376765625878 0.02482102174922848 -0.0039739850038669425 -0.015540684673786416
 0.9839541349604114 -0.11961451584002732 0.012556017856311153 0.05059374549000529 -0.0039763901134017504 -0.015540422048607084 0.004663329447259373 0.024832353581943432
 0.004725376765625878 0.02482102174922848 -0.0039763901134017504 -0.015540422048607084 0.012545262304678383 0.05059283710675272 0.98395399723157 -0.11961635547810627
 -0.0039739850038669425 -0.015540684673786416 0.004663329447259373 0.024832353581943432 0.98395399723157 -0.11961635547810627 0.012557358355965815 0.05059178573315579
0.1438099208003 0.013218654119296042 0.05275065993127348 0.9830094239115355 -0.12487106724438782 0.0050883501170009395 0.02588813409259734 -0.00427136639112102 -0.016192332301196242
 0.9830094239115355 -0.12487106724438782 0.013228678512561053 0.052749870169034305 -0.004273991957579517 -0.016192031668316724 0.00502067916578612 0.025900760742518906
 0.0050883501170009395 0.02588813409259734 -0.004273991957579517 -0.016192031668316724 0.013216915202906293 0.05274895378121837 0.9830092734229179 -0.12487299108664988
 -0.00427136639112102 -0.016192332301196242 0.00502067916578612 0.025900760742518906 0.9830092734229179 -0.12487299108664988 0.01323014298737325 0.052747812390012146
0.1500625260525 0.013913382660529864 0.05489131217912741 0.9820319717732827 -0.13011017011700612 0.005465079859381625 0.026948301679476202 -0.00457981496600899 -0.01683764185728343
 0.9820319717732827 -0.13011017011700612 0.013924308882337035 0.05489046715420918 -0.004582670400874304 -0.016837299882319714 0.005391556183210272 0.0269623200223781
 0.005465079859381625 0.026948301679476202 -0.004582670400874304 -0.016837299882319714 0.013911491608429824 0.05488954765236411 0.9820318079236424 -0.1301121782504253
 -0.00457981496600899 -0.01683764185728343 0.005391556183210272 0.0269623200223781 0.9820318079236424 -0.1301121782504253 0.013925902718413341 0.05488831018637087
0.15631513130469998 0.014630734825631762 0.057016157983907204 0.9810220900490131 -0.13533158432185338 0.005855393804029175 0.028001343481800674 -0.004899163827004495 -0.017476447183621208
 0.9810220900490131 -0.13533158432185338 0.014642603086889064 0.05701525441912768 -0.004902258507009248 -0.017476060403129812 0.005775790401742491 0.028016853737086064
