! Created with skrf 1.8.0 (http://scikit-rf.org).
# GHz S RI R 50.0 
!freq ReS11 ImS11 ReS12 ImS12 ReS13 ImS13
! ReS14 ImS14
! ReS21 ImS21 ReS22 ImS22 ReS23 ImS23
! ReS24 ImS24
! ReS31 ImS31 ReS32 ImS32 ReS33 ImS33
! ReS34 ImS34
! ReS41 ImS41 ReS42 ImS42 ReS43 ImS43
! ReS44 ImS44
!
0.0 0.001294909958176 0.0 0.9987050900251 0.0 4.940907416773e-05 0.0 -4.940907440107e-05 6.0508664814103805e-21
 0.9987050900251 0.0 0.001294909958177 0.0 -4.940907440105e-05 6.050866481407931e-21 4.940907416819e-05 0.0
 4.940907416773e-05 0.0 -4.940907440105e-05 6.050866481407931e-21 0.001294909965116 0.0 0.9987050900321 0.0
 -4.940907440107e-05 6.0508664814103805e-21 4.940907416819e-05 0.0 0.9987050900321 0.0 0.001294909965118 0.0
0.005 0.001392576441382426 0.0010620663477895948 0.9985816384211693 -0.0027130888829579734 6.851643588542758e-05 0.0005309584379713478 -6.669592354950067e-05 -0.0003357248147677932
 0.9985816384211693 -0.0027130888829579734 0.0013925796201421303 0.0010620644824699671 -6.669644679183661e-05 -0.0003357251555461425 6.849771452367885e-05 0.0005309655665886034
 6.851643588542758e-05 0.0005309584379713478 -6.669644679183661e-05 -0.0003357251555461425 0.001392576159543906 0.0010619992191120838 0.9985816380847755 -0.0027131559403443762
 -6.669592354950067e-05 -0.0003357248147677932 6.849771452367885e-05 0.0005309655665886034 0.9985816380847755 -0.0027131559403443762 0.001392579236020007 0.0010619975028020806
0.006252605252188 0.001418010841941431 0.001331775645748645 0.9985493170125309 -0.0033920517905284896 7.3870251288806e-05 0.0006639730498612029 -7.149164975663224e-05 -0.00042009724526255194
 0.9985493170125309 -0.0033920517905284896 0.0014180158109395578 0.0013317732670502919 -7.149246446010265e-05 -0.0004200976643099963 7.38410006245277e-05 0.0006639822967972916
 7.3870251288806e-05 0.0006639730498612029 -7.149246446010265e-05 -0.0004200976643099963 0.0014180104739188917 0.0013316917309070357 0.9985493165587805 -0.0033921356137639213
 -7.149164975663224e-05 -0.00042009724526255194 7.38410006245277e-05 0.0006639822967972916 0.9985493165587805 -0.0033921356137639213 0.0014180152822690203 0.0013316895496406802
0.01250521050438 0.0015508517360886857 0.0026916330149256667 0.9983795381164036 -0.006785060931549032 0.0001040185658297007 0.0013284073904081615 -9.824567280994565e-05 -0.0008423300882711384
 0.9983795381164036 -0.006785060931549032 0.001550871580205783 0.002691627782867748 -9.824888968652188e-05 -0.0008423308507670008 0.0001039019174421534 0.0013284294759523458
 0.0001040185658297007 0.0013284073904081615 -9.824888968652188e-05 -0.0008423308507670008 0.0015508508376173638 0.002691465415494418 0.9983795368659525 -0.006785228342088799
 -9.824567280994565e-05 -0.0008423300882711384 0.0001039019174421534 0.0013284294759523458 0.9983795368659525 -0.006785228342088799 0.001550870026377841 0.0026914606926661698
0.01875781575657 0.001693684995967642 0.004071085462487108 0.9981955692858393 -0.010187320835365552 0.00013991831489206446 0.0019937552088478967 -0.00012974515374948706 -0.0012661316706034118
 0.9981955692858393 -0.010187320835365552 0.0016937295930513827 0.004071076870360135 -0.00012975233635648768 -0.0012661326865999198 0.0001396562665435366 0.001993794345519443
 0.00013991831489206446 0.0019937552088478967 -0.00012975233635648768 -0.0012661326865999198 0.001693683419978095 0.00407083428124018 0.9981955668984265 -0.010187571771726408
 -0.00012974515374948706 -0.0012661316706034118 0.0001396562665435366 0.001993794345519443 0.9981955668984265 -0.010187571771726408 0.0016937265167704945 0.00407082663385654
0.02501042100875 0.001846757462241182 0.005468246345122251 0.9979972202823545 -0.013600518560646181 0.00018163465174957989 0.0026600640327822576 -0.0001660623483964718 -0.0016913364065962407
 0.9979972202823545 -0.013600518560646181 0.0018468366738590338 0.005468233856691221 -0.00016607504476378015 -0.0016913375703613534 0.00018116916572624435 0.0026601250273549097
 0.00018163465174957989 0.0026600640327822576 -0.00016607504476378015 -0.0016913375703613534 0.0018467550693268943 0.005467911698161189 0.9979972164116548 -0.013600852994907828
 -0.0001660623483964718 -0.0016913364065962407 0.00018116916572624435 0.0026601250273549097 0.9979972164116548 -0.013600852994907828 0.0018468315699357704 0.005467900723591917
0.03126302626094 0.0020103055453891917 0.006882164277681749 0.9977842898843889 -0.017025399525204644 0.00022923334254435507 0.0033273225038277254 -0.000207267864944686 -0.0021178341929598923
 0.9977842898843889 -0.017025399525204644 0.0020104292212725274 0.006882147327641827 -0.00020728761031049074 -0.002117835382744788 0.0002285062868911845 0.0033274107605297744
 0.00022923334254435507 0.0033273225038277254 -0.00020728761031049074 -0.002117835382744788 0.0020103022108815625 0.006881746276392274 0.9977842841847403 -0.01702581748119657
 -0.000207267864944686 -0.0021178341929598923 0.0002285062868911845 0.0033274107605297744 0.9977842841847403 -0.01702581748119657 0.0020104215845460254 0.006881731553039056
0.037515631513130004 0.002184560738442815 0.008312233699381688 0.9975565715145455 -0.02046235688912178 0.0002827801726826292 0.003995496316939444 -0.000253431165841795 -0.0025455344586551402
 0.9975565715145455 -0.02046235688912178 0.0021847387194923883 0.008312211693535953 -0.000253459484063576 -0.0025455355365844013 0.00028173329181715756 0.0039956178437941655
 0.0002827801726826292 0.003995496316939444 -0.000253459484063576 -0.0025455355365844013 0.0021845563489849224 0.008311732485250927 0.9975565636366361 -0.02046285840777134
 -0.000253431165841795 -0.0025455344586551402 0.00028173329181715756 0.0039956178437941655 0.9975565636366361 -0.02046285840777134 0.002184728041529876 0.0083117135730039
0.043768236765320004 0.0023697517461770015 0.00975801552500921 0.997313855483432 -0.023911610846583074 0.00034234067160262497 0.00466453912637009 -0.0003046207581099206 -0.002974355247867459
 0.997313855483432 -0.023911610846583074 0.0023699938666698482 0.009757987840387625 -0.0003046591624304231 -0.002974356059854031 0.00034091557013566764 0.004664700542505109
 0.00034234067160262497 0.00466453912637009 -0.0003046591624304231 -0.002974356059854031 0.0023697462002069567 0.009757431266240083 0.9973138450737086 -0.023912195989372904
 -0.0003046207581099206 -0.002974355247867459 0.00034091557013566764 0.004664700542505109 0.9973138450737086 -0.023912195989372904 0.0023699796369546435 0.00975740770680867
0.050020842017509996 0.002566105485269475 0.011219163026061693 0.9970559301064703 -0.027373282685629385 0.0004079799532766573 0.005334397055577424 -0.0003609042699470968 -0.0034042186995871106
 0.9970559301064703 -0.027373282685629385 0.002566421574975158 0.011219129010963612 -0.00036095426354954625 -0.0034042190752750718 0.00040611808627674667 0.005334605598974395
 0.0004079799532766573 0.005334397055577424 -0.00036095426354954625 -0.0034042190752750718 0.0025660986957368164 0.011218495916208198 0.9970559168088562 -0.027373951536227254
 -0.0003609042699470968 -0.0034042186995871106 0.00040611808627674667 0.005334605598974395 0.9970559168088562 -0.027373951536227254 0.0025664032834222723 0.011218467233448236
0.055454545454549996 0.0027459836178157664 0.012501196464376464 0.9968192678610139 -0.030391712011954706 0.0004700093704564581 0.005917140007283652 -0.0004140051158327393 -0.00377857079420588
 0.9968192678610139 -0.030391712011954706 0.002746371969444177 0.012501156396324403 -0.00041406639399490066 -0.003778570639708419 0.0004677202747285812 0.0059173958704764
 0.0004700093704564581 0.005917140007283652 -0.00041406639399490066 -0.003778570639708419 0.002745975686673464 0.012500457529723393 0.9968192517606524 -0.03039245369391879
 -0.0004140051158327393 -0.00377857079420588 0.0004677202747285812 0.0059173958704764 0.9968192517606524 -0.03039245369391879 0.0027463497335182227 0.012500423994210596
0.056273447269699996 0.0027738476091281857 0.012695385438639652 0.9967825823470252 -0.03084743112114699 0.00047976260668274024 0.0060050109109012675 -0.0004223484774657253 -0.00383504882452212
 0.9967825823470252 -0.03084743112114699 0.00277424749466529 0.012695344412625794 -0.00042241155370248483 -0.0038350485772290846 0.0004774052738473934 0.006005274446404108
 0.00047976260668274024 0.0060050109109012675 -0.00042241155370248483 -0.0038350485772290846 0.0027738395016818273 0.012694635696272511 0.996782565800458 -0.030848183785727137
 -0.0004223484774657253 -0.00383504882452212 0.0004774052738473934 0.006005274446404108 0.996782565800458 -0.030848183785727137 0.0027742246309058584 0.0126946013963518
0.06252605252188 0.002993202800666513 0.014186427959642582 0.9964935982308403 -0.03433407223989331 0.000557752611432764 0.006676317385658043 -0.0004890193054300508 -0.004266770293014828
 0.9964935982308403 -0.03433407223989331 0.002993696307296828 0.014186379213570246 -0.0004890969480884481 -0.0042667692196762036 0.0005548409540955852 0.006676644413128364
 0.000557752611432764 0.006676317385658043 -0.0004890969480884481 -0.0042667692196762036 0.002993193314915213 0.014185595833400752 0.9964935780693858 -0.03433490884234593
 -0.0004890193054300508 -0.004266770293014828 0.0005548409540955852 0.006676644413128364 0.9964935780693858 -0.03433490884234593 0.0029936683616184684 0.014185555405050818
0.06877865777407 0.0032243949373188586 0.015692059825524133 0.9961887631340351 -0.03783319136447072 0.0006420132671172913 0.007348249781276136 -0.0005609818136890978 -0.00469930770753222
 0.9961887631340351 -0.03783319136447072 0.003224991890425268 0.015692002621468304 -0.0005610754970653263 -0.004699305588661481 0.0006384882670982408 0.0073486494438361315
 0.0006420132671172913 0.007348249781276136 -0.0005610754970653263 -0.004699305588661481 0.00322438402743457 0.01569114558923543 0.9961887389864188 -0.037834112051310015
 -0.0005609818136890978 -0.00469930770753222 0.0006384882670982408 0.0073486494438361315 0.9961887389864188 -0.037834112051310015 0.003224958354998472 0.01569109850391138
0.07503126302626001 0.00346764718403813 0.017212066739182397 0.9958678620018734 -0.04134475057045971 0.0007326071306018143 0.008020738469611243 -0.0006383001748885256 -0.005132585135739319
 0.9958678620018734 -0.04134475057045971 0.0034683574106315895 0.01721200031034549 -0.0006384113638735014 -0.005132581735375952 0.000728409609920941 0.008021220561953047
 0.0007326071306018143 0.008020738469611243 -0.0006384113638735014 -0.005132581735375952 0.003467634818902626 0.01721107069929204 0.995867833490634 -0.04134575550346836
 -0.0006383001748885256 -0.005132585135739319 0.000728409609920941 0.008021220561953047 0.995867833490634 -0.04134575550346836 0.0034683177797590037 0.01721101641128329
0.08128386827845 0.003723182039084768 0.01874624584683792 0.9955306795224473 -0.04486869365537715 0.000829595958564538 0.008693711188089558 -0.0007210376454327868 -0.005566525812615541
 0.9955306795224473 -0.04486869365537715 0.003724015369142686 0.01874616939748608 -0.0007211677954901821 -0.005566520878284871 0.000824666580881127 0.008694286164827876
 0.000829595958564538 0.008693711188089558 -0.0007211677954901821 -0.005566520878284871 0.0037231682026870805 0.01874516833560319 0.9955306462632805 -0.04486978301848885
 -0.0007210376454327868 -0.005566525812615541 0.000824666580881127 0.008694286164827876 0.9955306462632805 -0.04486978301848885 0.0037239691402292598 0.018745106282144312
0.08753647353064001 0.00399122134872407 0.020294402250986027 0.995177000271518 -0.048404949573459005 0.0009330406531992111 0.00936709325377799 -0.0008092565329143856 -0.0060010519256045985
 0.995177000271518 -0.048404949573459005 0.003992187616569518 0.020294314956268288 -0.0008094070900577093 -0.006001045188282938 0.0009273199254429692 0.009367772237834505
 0.0009330406531992111 0.00936709325377799 -0.0008094070900577093 -0.006001045188282938 0.003991206040842193 0.020293243631219385 0.9951769618730545 -0.04840612356810782
 -0.0008092565329143856 -0.0060010519256045985 0.0009273199254429692 0.009367772237834505 0.9951769618730545 -0.04840612356810782 0.003992134291146359 0.02029317323253185
0.09378907878283 0.004271986301710881 0.02185634651574972 0.9948066088395553 -0.05195343488036526 0.0010430012096627182 0.010040807711174477 -0.0009030181603634339 -0.006436084468104683
 0.9948066088395553 -0.05195343488036526 0.004273095347595571 0.0218562475215263 -0.0009031905611283868 -0.006436075642179621 0.0010364294846045192 0.010041602502175513
 0.0010430012096627182 0.010040807711174477 -0.0009031905611283868 -0.006436075642179621 0.004271969538541751 0.021855107179290907 0.9948065649024025 -0.05195469372695724
 -0.0009030181603634339 -0.006436084468104683 0.0010364294846045192 0.010041602502175513 0.9948065649024025 -0.05195469372695724 0.004273034432073138 0.021855027838613362
0.100041684035 0.004565697408605071 0.023431892852001247 0.9944192899453346 -0.055514055500040745 0.0011595366652484024 0.01071477544458926 -0.0010023828279500655 -0.006871543130510591
 0.9944192899453346 -0.055514055500040745 0.004566959079996219 0.023431781274681398 -0.0010025784993033784 -0.006871531913746299 0.0011520541446971657 0.010715698527277296
 0.0011595366652484024 0.01071477544458926 -0.0010025784993033784 -0.006871531913746299 0.00456567922288118 0.023430573219371812 0.9944192400616502 -0.05551539943832491
 -0.0010023828279500655 -0.006871543130510591 0.0011520541446971657 0.010715698527277296 0.9944192400616502 -0.05551539943832491 0.004566890086234688 0.023430484322932644
0.1059090909091 0.004853284320445032 0.024922583402405135 0.9940402453372734 -0.05886626527628113 0.0012749243334651337 0.011347380735217117 -0.0011007747154050014 -0.007280489698039892
 0.9940402453372734 -0.05886626527628113 0.004854698178605161 0.024922459187049016 -0.0011009935129471615 -0.007280475948014107 0.0012665326106394725 0.011348436178459839
 0.0012749243334651337 0.011347380735217117 -0.0011009935129471615 -0.007280475948014107 0.0048532648451639375 0.024921188828932038 0.9940401894945052 -0.05886768929876227
 -0.0011007747154050014 -0.007280489698039892 0.0012665326106394725 0.011348436178459839 0.9940401894945052 -0.05886768929876227 0.004854621166380026 0.02492109039202259
0.1062942892872 0.004872574469043217 0.025020857727715354 0.9940148285406248 -0.05908670806888413 0.001282705049062359 0.011388915263761139 -0.0011074097733983093 -0.007307346220141536
 0.9940148285406248 -0.05908670806888413 0.004873998622200133 0.02502073265393618 -0.0011076301326567025 -0.007307332293651268 0.0012742517872802242 0.011389979816401335
 0.001282705049062359 0.011388915263761139 -0.0011076301326567025 -0.007307332293651268 0.004872554910939314 0.025019458249352863 0.9940147722935789 -0.059088137356673585
 -0.0011074097733983093 -0.007307346220141536 0.0012742517872802242 0.011389979816401335 0.9940147722935789 -0.059088137356673585 0.004873921068748473 0.025019359166338663
0.11254689453939999 0.005192836532112226 0.02662305882505089 0.9935930099088145 -0.06267128093564037 0.0014125633325004219 0.012063143968087406 -0.001218157130534526 -0.007743410604937439
 0.9935930099088145 -0.06267128093564037 0.005194433033270659 0.026622919311478647 -0.001218403585248235 -0.007743393633163071 0.0014030792401581288 0.012064363870867173
 0.0014125633325004219 0.012063143968087406 -0.001218403585248235 -0.007743393633163071 0.005192815669639179 0.026621579978834152 0.9935929468718364 -0.06267279585127168
 -0.001218157130534526 -0.007743410604937439 0.0014030792401581288 0.012064363870867173 0.9935929468718364 -0.06267279585127168 0.0051943464461151525 0.02662147006126022
0.11879949979160001 0.005526701848380441 0.028238314209934223 0.9931536197585903 -0.06626765495137985 0.0015491673797894004 0.012737376401844795 -0.001334681886889089 -0.008179651668354356
 0.9931536197585903 -0.06626765495137985 0.00552848057557131 0.028238159282899085 -0.0013349558347328452 -0.008179631299034104 0.0015385922284804965 0.01273876624527165
 0.0015491673797894004 0.012737376401844795 -0.0013349558347328452 -0.008179631299034104 0.005526679768011538 0.02823675650607963 0.9931535494947682 -0.06626925578864865
 -0.001334681886889089 -0.008179651668354356 0.0015385922284804965 0.01273876624527165 0.9931535494947682 -0.06626925578864865 0.00552838448903437 0.02823663508866076
0.1250521050438 0.005874387818117555 0.029866441688308567 0.9926964443146239 -0.06987570407535153 0.0016925718990679487 0.013411525499157468 -0.0014570398402790827 -0.008615983277017179
 0.9926964443146239 -0.06987570407535153 0.005876358662290295 0.0298662703434832 -0.001457342668917377 -0.008615959141173149 0.001680845325759851 0.013413100592421784
 0.0016925718990679487 0.013411525499157468 -0.001457342668917377 -0.008615959141173149 0.00587436462532414 0.029864805662097562 0.9926963663764328 -0.06987739115071803
 -0.0014570398402790827 -0.008615983277017179 0.001680845325759851 0.013413100592421784 0.9926963663764328 -0.06987739115071803 0.005876252619980758 0.029864672062081543
0.131304710296 0.0062361109343857975 0.03150725827460506 0.9922212704065291 -0.07349529587159201 0.0018428303933807242 0.014085502320423353 -0.0015852855543601314 -0.009052317759235321
 0.9922212704065291 -0.07349529587159201 0.006238283801194861 0.03150706947655425 -0.001585618641298549 -0.009052289471158577 0.0018298919055067914 0.01408727869974635
 0.0018428303933807242 0.014085502320423353 -0.001585618641298549 -0.009052289471158577 0.006236086754112155 0.03150554449330522 0.9922211843344763 -0.07349706951709514
 -0.0015852855543601314 -0.009052317759235321 0.0018298919055067914 0.01408727869974635 0.9922211843344763 -0.07349706951709514 0.006238167356857202 0.03150539801020322
0.1375573155481 0.006523277105484788 0.03294675167079777 0.9918167201956986 -0.0769123967277191 0.0019794088614960453 0.014737405254317907 -0.001698901837844119 -0.00946675207599013
 0.9918167201956986 -0.0769123967277191 0.006525662208967097 0.03294654883444845 -0.0016992670246192144 -0.009466719640289108 0.0019652275051899063 0.014739378801050517
 0.0019794088614960453 0.014737405254317907 -0.0016992670246192144 -0.009466719640289108 0.0065232511767793 0.03294496099602942 0.9918166256183732 -0.07691425714724824
 -0.001698901837844119 -0.00946675207599013 0.0019652275051899063 0.014739378801050517 0.9918166256183732 -0.07691425714724824 0.00652553565028804 0.0329448045928248
0.1438099208003 0.006820345893409406 0.03437964185775896 0.9913983173621076 -0.08032181583993085 0.002121500751176956 0.015387208821709136 -0.0018170704121722298 -0.009879266173500347
 0.9913983173621076 -0.08032181583993085 0.0068229531954695785 0.03437942425988195 -0.0018174691455013353 -0.009879229218959812 0.0021060212005418553 0.015389394065442014
 0.002121500751176956 0.015387208821709136 -0.0018174691455013353 -0.009879229218959812 0.006820318209090659 0.03437777492835689 0.9913982138213046 -0.08032376336226801
 -0.0018170704121722298 -0.009879266173500347 0.0021060212005418553 0.015389394065442014 0.9913982138213046 -0.08032376336226801 0.006822816224133839 0.0343776081404005
0.1500625260525 0.007127225053598962 0.03580583805145426 0.9909661572836421 -0.08372349783300062 0.0022690639785940348 0.01603486469233176 -0.0019397504178914294 -0.010289813907289563
 0.9909661572836421 -0.08372349783300062 0.007130064529921248 0.03580560493186909 -0.0019401841403732807 -0.01028977204807782 0.002252231127483043 0.01603727669888252
 0.0022690639785940348 0.01603486469233176 -0.0019401841403732807 -0.01028977204807782 0.0071271956144411 0.03580389553303843 0.9909660443111075 -0.08372553280019415
 -0.0019397504178914294 -0.010289813907289563 0.002252231127483043 0.01603727669888252 0.9909660443111075 -0.08372553280019415 0.007129916866090405 0.03580371786650715
0.15631513130469998 0.007443821832103738 0.037225252370635585 0.9905203356619846 -0.08711738697355707 0.002422056044811147 0.01668032523065313 -0.0020669005689259667 -0.01069835002117168
