! Created with skrf 1.8.0 (http://scikit-rf.org).
# GHz S RI R 50.0 
!freq ReS11 ImS11 ReS12 ImS12 ReS13 ImS13
! ReS14 ImS14
! ReS21 ImS21 ReS22 ImS22 ReS23 ImS23
! ReS24 ImS24
! ReS31 ImS31 ReS32 ImS32 ReS33 ImS33
! ReS34 ImS34
! ReS41 ImS41 ReS42 ImS42 ReS43 ImS43
! ReS44 ImS44
!
0.0 0.001659210734122 0.0 0.9983407892659 0.0 6.423699298938e-05 0.0 -6.423699290004e-05 7.866762774188525e-21
 0.9983407892659 0.0 0.001659210734108 0.0 -6.423699290031e-05 7.86676277422159e-21 6.423699298861e-05 0.0
 6.423699298938e-05 0.0 -6.423699290031e-05 7.86676277422159e-21 0.001659210732706 0.0 0.9983407892645 0.0
 -6.423699290004e-05 7.866762774188525e-21 6.423699298861e-05 0.0 0.9983407892645 0.0 0.001659210732678 0.0
0.005 0.0017855373573756124 0.001356266288211654 0.9981809037346239 -0.0034752239672866257 9.03642035657347e-05 0.0007127265669293481 -8.76700885176363e-05 -0.000446439776454233
 0.9981809037346239 -0.0034752239672866257 0.0017855548134297183 0.001356256134604269 -8.767129116400928e-05 -0.00044644075089254073 9.025248027670948e-05 0.0007127691518460266
 9.03642035657347e-05 0.0007127265669293481 -8.767129116400928e-05 -0.00044644075089254073 0.0017855361114589524 0.0013561997854514432 0.9981809033632356 -0.0034752910306994626
 -8.76700885176363e-05 -0.000446439776454233 9.025248027670948e-05 0.0007127691518460266 0.9981809033632356 -0.0034752910306994626 0.0017855553198132122 0.0013561885121866058
0.006252605252188 0.0018187741520646337 0.0017006567686242537 0.9981385536538343 -0.004344863048806729 9.789493713999356e-05 0.0008912436484762624 -9.43347511946732e-05 -0.0005586214826255382
 0.9981385536538343 -0.004344863048806729 0.001818801438559584 0.001700643860301001 -9.433662220662352e-05 -0.0005586226850094228 9.772038101697531e-05 0.0008912989588995955
 9.789493713999356e-05 0.0008912436484762624 -9.433662220662352e-05 -0.0005586226850094228 0.00181877228477709 0.0017005736547207504 0.9981385531540562 -0.004344946870594529
 -9.43347511946732e-05 -0.0005586214826255382 9.772038101697531e-05 0.0008912989588995955 0.9981385531540562 -0.004344946870594529 0.0018188023112879728 0.001700559334642563
0.01250521050438 0.0019943520267027034 0.0034368069728793996 0.9979132688205141 -0.00869041111578053 0.00014143146043093532 0.00178277522081959 -0.00013240997444019818 -0.0011198838796057744
 0.9979132688205141 -0.00869041111578053 0.0019944609755427954 0.0034367789779583143 -0.00013241734296152522 -0.0011198861121279986 0.00014073539450484927 0.0017829083848390468
 0.00014143146043093532 0.00178277522081959 -0.00013241734296152522 -0.0011198861121279986 0.001994345120082444 0.0034366410797632544 0.9979132673802256 -0.008690578510978826
 -0.00013240997444019818 -0.0011198838796057744 0.00014073539450484927 0.0017829083848390468 0.9979132673802256 -0.008690578510978826 0.001994465024277319 0.0034366101215105574
0.01875781575657 0.002186350619219046 0.0051975015849448905 0.997664638572902 -0.013047194892073635 0.00019495013375987858 0.0026751768737086185 -0.0001785846418336956 -0.0016829555468371301
 0.997664638572902 -0.013047194892073635 0.0021865954203703587 0.005197456177827062 -0.00017860106682044368 -0.001682958603450818 0.0001933865553893125 0.0026754151006811062
 0.00019495013375987858 0.0026751768737086185 -0.00017860106682044368 -0.001682958603450818 0.0021863355161747733 0.005197253135411412 0.9976646357641057 -0.013047445769215238
 -0.0001785846418336956 -0.0016829555468371301 0.0001933865553893125 0.0026754151006811062 0.9976646357641057 -0.013047445769215238 0.002186604962999316 0.005197203016989715
0.02501042100875 0.0023951628072843224 0.006980246585848889 0.9973923544398567 -0.017417296870221567 0.00025855617145600647 0.0035684659960713502 -0.0002329762640968577 -0.0022475624594316384
 0.9973923544398567 -0.017417296870221567 0.002395597537036008 0.006980181311803749 -0.00023300525960206182 -0.0022475660965850367 0.00025577899483413203 0.003568841011975644
 0.00025855617145600647 0.0035684659960713502 -0.00023300525960206182 -0.0022475660965850367 0.0023951363427938805 0.0069799158151335715 0.9973923498265757 -0.017417631169448465
 -0.0002329762640968577 -0.0022475624594316384 0.00025577899483413203 0.003568841011975644 0.9973923498265757 -0.017417631169448465 0.0023956148885516944 0.00697984383113409
0.03126302626094 0.0026211651878283544 0.00878374383665271 0.9970960930762619 -0.02180159045591516 0.00033235506454359914 0.004462576760063869 -0.0002956986851158514 -0.002813506604981186
 0.9970960930762619 -0.02180159045591516 0.002621843840138497 0.008783656115745574 -0.00029574372782827264 -0.002813510541240068 0.00032801780653300905 0.0044631248341569325
 0.00033235506454359914 0.004462576760063869 -0.00029574372782827264 -0.002813510541240068 0.0026211241974797663 0.008783330996660628 0.9970960862237062 -0.02180200814527444
 -0.0002956986851158514 -0.002813506604981186 0.00032801780653300905 0.0044631248341569325 0.9970960862237062 -0.02180200814527444 0.002621871323241318 0.008783234261616733
0.037515631513130004 0.0028647259277762138 0.010607135793634504 0.9967755244103612 -0.026200495192736987 0.00041645146708265107 0.005357410150234851 -0.0003668628983181212 -0.0033806159639185253
 0.9967755244103612 -0.026200495192736987 0.0028657024361647115 0.01060702292257297 -0.00036692743146572515 -0.0033806198798572618 0.00041020711079024324 0.005358172139920321
 0.00041645146708265107 0.005357410150234851 -0.00036692743146572515 -0.0033806198798572618 0.0028646672469729685 0.01060664116083069 0.9967755148838974 -0.02620099626065962
 -0.0003668628983181212 -0.0033806159639185253 0.00041020711079024324 0.005358172139920321 0.9967755148838974 -0.02620099626065962 0.002865742380893402 0.010606516610609497
0.043768236765320004 0.003126207786106388 0.012449775666606329 0.9964303149664485 -0.030614206533045175 0.0005109486634666296 0.006252849189871161 -0.0004465773299914988 -0.003948729298233808
 0.9964303149664485 -0.030614206533045175 0.003127536041708639 0.012449634819884068 -0.0004466647656973352 -0.003948732836470046 0.0005024495982722986 0.006253870591235315
 0.0005109486634666296 0.006252849189871161 -0.0004466647656973352 -0.003948732836470046 0.003126128250100606 0.012449199566976871 0.9964303023307993 -0.03061479096399546
 -0.0004465773299914988 -0.003948729298233808 0.0005024495982722986 0.006253870591235315 0.9964303023307993 -0.03061479096399546 0.0031275907852137633 0.01244904395901097
0.050020842017509996 0.003405969508995963 0.014311132444961945 0.9960601295644664 -0.035042790739668137 0.0006159482456364856 0.007148765228503519 -0.0005349479284064589 -0.004517689883849758
 0.9960601295644664 -0.035042790739668137 0.0034077033761978704 0.014310960675404836 -0.0005350616491501994 -0.0045176926490648976 0.0006048462472649079 0.00715009622908977
 0.0006159482456364856 0.007148765228503519 -0.0005350616491501994 -0.0045176926490648976 0.003405865952264498 0.0143104752335915 0.9960601133830805 -0.035043458535234974
 -0.0005349479284064589 -0.004517689883849758 0.0006048462472649079 0.00715009622908977 0.9960601133830805 -0.035043458535234974 0.0034077752621846113 0.014310285146681881
0.055454545454549996 0.0036642125349095576 0.015943548382632632 0.9957178828506638 -0.03890343203498982 0.0007158027410989652 0.007927624398947805 -0.0006188549506002413 -0.005012701341309607
 0.9957178828506638 -0.03890343203498982 0.003666342625995074 0.015943347252250623 -0.0006189942386318063 -0.005012703084274927 0.0007021554414852417 0.00792926889306066
 0.0007158027410989652 0.007927624398947805 -0.0006189942386318063 -0.005012703084274927 0.0036640855325484325 0.015942821005279335 0.9957178632317527 -0.038904172280255396
 -0.0006188549506002413 -0.005012701341309607 0.0007021554414852417 0.00792926889306066 0.9957178632317527 -0.038904172280255396 0.0036664313175219718 0.015942598037394222
0.056273447269699996 0.003704366531601575 0.01619074427475481 0.995664632332732 -0.039486231439562175 0.0007315498772308533 0.008045021040302337 -0.0006320781708855122 -0.005087342437396914
 0.995664632332732 -0.039486231439562175 0.0037065598632020223 0.016190538513535 -0.0006322215305956967 -0.005087343996389151 0.0007174961132021173 0.008046716572782608
 0.0007315498772308533 0.008045021040302337 -0.0006322215305956967 -0.005087343996389151 0.0037042357884618515 0.016190006346844314 0.9956646121670507 -0.03948698260790061
 -0.0006320781708855122 -0.005087342437396914 0.0007174961132021173 0.008046716572782608 0.9956646121670507 -0.03948698260790061 0.003706651241585281 0.016189778180405383
0.06252605252188 0.004021751345590977 0.01808819283156088 0.9952434873898208 -0.04394445518603124 0.0008578511055792491 0.008941472528018761 -0.0007380690259938667 -0.005657531443264257
 0.9952434873898208 -0.04394445518603124 0.004024457996843625 0.01808794988770625 -0.0007382453507300644 -0.005657531325001882 0.0008404961559832173 0.008943592324136789
 0.0008578511055792491 0.008941472528018761 -0.0007382453507300644 -0.005657531325001882 0.004021590250971452 0.018087374623468724 0.9952434627993496 -0.04394528974137079
 -0.0007380690259938667 -0.005657531443264257 0.0008404961559832173 0.008943592324136789 0.9952434627993496 -0.04394528974137079 0.004024571224186198 0.018087104596224486
0.06877865777407 0.004358473678348218 0.020003088045332573 0.9947963593432123 -0.04841734667466637 0.0009949471973040459 0.009837969751679235 -0.0008530188915649756 -0.006228100162115498
 0.9947963593432123 -0.04841734667466637 0.004361747520718781 0.020002804604848264 -0.000853231479994014 -0.006228097857796133 0.0009739410879038377 0.00984057839604765
 0.0009949471973040459 0.009837969751679235 -0.000853231479994014 -0.006228097857796133 0.004358279068462687 0.020002190030591317 0.9947963298858575 -0.048418264641916973
 -0.0008530188915649756 -0.006228100162115498 0.0009739410879038377 0.00984057839604765 0.9947963298858575 -0.048418264641916973 0.004361884960417942 0.020001874178865474
0.07503126302626001 0.004714880564765223 0.0219350584145422 0.9943229136862007 -0.052904758376675624 0.001142930989732518 0.010734357585893221 -0.0009770235169863607 -0.006798890017311649
 0.9943229136862007 -0.052904758376675624 0.004718775499747521 0.021934731039071096 -0.0009772756407555577 -0.00679888498042542 0.0011179232336204696 0.010737524569430423
 0.001142930989732518 0.010734357585893221 -0.0009772756407555577 -0.00679888498042542 0.004714649277402319 0.021934081108978536 0.994322878917098 -0.05290575978682495
 -0.0009770235169863607 -0.006798890017311649 0.0011179232336204696 0.010737524569430423 0.994322878917098 -0.05290575978682495 0.004718939521471658 0.021933715284554085
0.08128386827845 0.00509131634673412 0.023883744576700196 0.9938228171255696 -0.05740651692287089 0.0013018927515769084 0.011630476169534195 -0.0011101759156157242 -0.007369740195726511
 0.9938228171255696 -0.05740651692287089 0.005095886319663754 0.023883369701576423 -0.0011104708196118462 -0.00736973184210911 0.0012725323974059363 0.011634275942343094
 0.0013018927515769084 0.011630476169534195 -0.0011104708196118462 -0.00736973184210911 0.005091045222034008 0.02388268853942339 0.9938227765970821 -0.05740760181246205
 -0.0011101759156157242 -0.007369740195726511 0.0012725323974059363 0.011634275942343094 0.9938227765970821 -0.05740760181246205 0.0050960792990102505 0.02388226840685785
0.08753647353064001 0.005488122628888083 0.025848794854807934 0.9932957378703655 -0.061922427519311284 0.001471920049121644 0.01252616122685787 -0.0012525662707168594 -0.007940487384154041
 0.9932957378703655 -0.061922427519311284 0.0054934216421677305 0.025848368786744312 -0.0012529071731768057 -0.007940475092052039 0.0014378557351612778 0.012530673250434424
 0.001471920049121644 0.01252616122685787 -0.0012529071731768057 -0.007940475092052039 0.005487808510226067 0.025847660686994615 0.9932956911318553 -0.06192359593216976
 -0.0012525662707168594 -0.007940487384154041 0.0014378557351612778 0.012530673250434424 0.9932956911318553 -0.06192359593216976 0.00549364596113959 0.025847181720508837
0.09378907878283 0.005905638201210008 0.02782986208822742 0.992741345891778 -0.06645227708636571 0.0016530976172987545 0.01342124430804885 -0.001404281835796169 -0.008510965593408326
 0.992741345891778 -0.06645227708636571 0.005911720328240484 0.027829381002479055 -0.0014046719284114813 -0.00851094870355256 0.0016139776302137637 0.013426553106702542
 0.0016530976172987545 0.01342124430804885 -0.0014046719284114813 -0.00851094870355256 0.005905277935761654 0.027828650435107016 0.9927412924895547 -0.0664535290721316
 -0.001404281835796169 -0.008510965593408326 0.0016139776302137637 0.013426553106702542 0.9927412924895547 -0.0664535290721316 0.005911978374716518 0.02782810791494915
0.100041684035 0.006344198939736628 0.02982660131238568 0.9921593131648386 -0.07099583655740273 0.0018455072330599426 0.014315552976567288 -0.0015654068321712445 -0.009081006043085127
 0.9921593131648386 -0.07099583655740273 0.006351118338435274 0.029826061249356377 -0.0015658492801241914 -0.009080983858755278 0.001800979570549525 0.014321748187913538
 0.0018455072330599426 0.014315552976567288 -0.0015658492801241914 -0.009080983858755278 0.006343789378881739 0.029825312860722927 0.9921592526411253 -0.07099717217444806
 -0.0015654068321712445 -0.009081006043085127 0.001800979570549525 0.014321748187913538 0.9921592526411253 -0.07099717217444806 0.006351412505603251 0.029824701869031585
0.1059090909091 0.006775178561042326 0.03171427590556428 0.9915877079817542 -0.07527173765749284 0.0020363488151077824 0.015153905520596974 -0.001725235596814975 -0.009615377543776955
 0.9915877079817542 -0.07527173765749284 0.006782932993788541 0.031713676773865246 -0.0017257300297450588 -0.009615349724187578 0.0019864262814317884 0.015161018659092022
 0.0020363488151077824 0.015153905520596974 -0.0017257300297450588 -0.009615349724187578 0.0067747198830615035 0.03171291605570986 0.9915876403557302 -0.07527315180745829
 -0.001725235596814975 -0.009615377543776955 0.0019864262814317884 0.015161018659092022 0.9915876403557302 -0.07527315180745829 0.00678326323823633 0.03171223615742668
0.1062942892872 0.00680413768844359 0.03183866801291955 0.9915493138945904 -0.07555286261138018 0.0020492275912353873 0.015208910964075848 -0.001736022343424195 -0.00965043708617763
 0.9915493138945904 -0.07555286261138018 0.00681194861500482 0.03183806487425722 -0.0017365202853539775 -0.00965040887327365 0.001998940028399698 0.015216087388587067
 0.0020492275912353873 0.015208910964075848 -0.0017365202853539775 -0.00965040887327365 0.0068036756891170684 0.031837303497776547 0.9915492457878211 -0.07555428192056281
 -0.001736022343424195 -0.00965043708617763 0.001998940028399698 0.015216087388587067 0.9915492457878211 -0.07555428192056281 0.006812281301915178 0.03183661891388323
0.11254689453939999 0.007285784130235898 0.033865716811908884 0.9909110247355405 -0.08012309898238547 0.0022643341819329446 0.01610113830120377 -0.001916206208071502 -0.010219084165560301
 0.9909110247355405 -0.08012309898238547 0.0072945409528955745 0.03386504635603352 -0.001916762756028156 -0.010219049152674195 0.0022079343407953793 0.016109395950693207
 0.0022643341819329446 0.01610113830120377 -0.001916762756028156 -0.010219049152674195 0.00728526655565042 0.033864277010463274 0.9909109485802763 -0.08012460205353752
 -0.001916206208071502 -0.010219084165560301 0.0022079343407953793 0.016109395950693207 0.9909109485802763 -0.08012460205353752 0.007294914563974545 0.03386351350580779
0.11879949979160001 0.007789464646643283 0.03590740043386341 0.9902441250021806 -0.08470627749830692 0.0024908991690510756 0.016992051432352443 -0.0021060329110964746 -0.0107867697942708
 0.9902441250021806 -0.08470627749830692 0.007799221859626745 0.03590665827095308 -0.0021066511504732786 -0.010786727172765395 0.0024280345909274913 0.017001495577299214
 0.0024908991690510756 0.016992051432352443 -0.0021066511504732786 -0.010786727172765395 0.007788888366843354 0.03590588616882743 0.9902440403280751 -0.0847078644072773
 -0.0021060329110964746 -0.0107867697942708 0.0024280345909274913 0.017001495577299214 0.9902440403280751 -0.0847078644072773 0.007799638804287625 0.03590503820114628
0.1250521050438 0.008315502170044958 0.03796336890550991 0.9895482968755002 -0.0893021188952391 0.002728991270213247 0.017881463321277543 -0.00230557347408822 -0.011353313552801192
 0.9895482968755002 -0.0893021188952391 0.008326314407448578 0.03796255049188306 -0.0023062564635423447 -0.01135326247687662 0.0026593094909422234 0.01789220453704762
 0.002728991270213247 0.017881463321277543 -0.0023062564635423447 -0.01135326247687662 0.008314864062955528 0.03796178104531979 0.9895482032073648 -0.08930378972397034
 -0.00230557347408822 -0.011353313552801192 0.0026593094909422234 0.01789220453704762 0.9895482032073648 -0.08930378972397034 0.008326777099851024 0.0379608428523529
0.131304710296 0.008864216029081103 0.04003326892203064 0.9888232256050689 -0.09391033347465366 0.002978675637564974 0.018769183548029672 -0.0025148953451406063 -0.011918532103268126
 0.9888232256050689 -0.09391033347465366 0.008876138078815737 0.04003236955396142 -0.0025156461163768004 -0.011918471690080803 0.0029018242650723836 0.018781337759685175
 0.002978675637564974 0.018769183548029672 -0.0025156461163768004 -0.011918471690080803 0.008863512981106632 0.04003160838136135 0.9888231224625458 -0.09391208831111944
 -0.0025148953451406063 -0.011918532103268126 0.0029018242650723836 0.018781337759685175 0.9888231224625458 -0.09391208831111944 0.008876648937885851 0.04003057397395755
0.1375573155481 0.009313883970337306 0.041847131082464045 0.9881906901389469 -0.09826087338764065 0.0032099557783947965 0.01962858237925874 -0.002704094758222302 -0.01245575470460621
 0.9881906901389469 -0.09826087338764065 0.009326975744794918 0.041846166324010906 -0.0027049179638571554 -0.012455684836016535 0.00312575750218482 0.019642137549060093
 0.0032099557783947965 0.01962858237925874 -0.0027049179638571554 -0.012455684836016535 0.009313113683260968 0.04184539839622476 0.9881905770913851 -0.09826271224556145
 -0.002704094758222302 -0.01245575470460621 0.00312575750218482 0.019642137549060093 0.9881905770913851 -0.09826271224556145 0.009327536282880286 0.04184428268234199
0.1438099208003 0.009779486540416918 0.04365072188860615 0.9875356729477122 -0.10259965277797616 0.003450564955561822 0.020483994997814985 -0.002900833508804823 -0.012989367961149119
 0.9875356729477122 -0.10259965277797616 0.009793803825390558 0.04364968820347524 -0.0029017324335286537 -0.012989287759146815 0.003358699081004401 0.02049905771384869
 0.003450564955561822 0.020483994997814985 -0.0029017324335286537 -0.012989287759146815 0.009778646059130681 0.043648917958278986 0.9875355495182143 -0.10260157573510449
 -0.002900833508804823 -0.012989367961149119 0.003358699081004401 0.02049905771384869 0.9875355495182143 -0.10260157573510449 0.009794416303367416 0.04364771614955389
0.1500625260525 0.010260848780127741 0.04544386928486715 0.9868583535551491 -0.10692654185296528 0.003700413179126327 0.021335317414731377 -0.0031050249905459756 -0.013519275898764239
 0.9868583535551491 -0.10692654185296528 0.01027644753766568 0.04544276290274083 -0.00310600291255891 -0.013519184449604786 0.003600561096954103 0.02135199816471505
 0.003700413179126327 0.021335317414731377 -0.00310600291255891 -0.013519184449604786 0.010259935167103527 0.04544199504498689 0.9868582192627379 -0.10692854899090361
 -0.0031050249905459756 -0.013519275898764239 0.003600561096954103 0.02135199816471505 0.9868582192627379 -0.10692854899090361 0.010277114210169146 0.04544070207123782
0.15631513130469998 0.010757794355943723 0.047226406363020265 0.9861589125436266 -0.11124141176137066 0.003959409307951374 0.022182447550719665 -0.003316581456214124 -0.014045384702334249
 0.9861589125436266 -0.11124141176137066 0.010774730729600876 0.04722522327178214 -0.0033176416473297155 -0.014045281056620312 0.0038512545282567154 0.02220086067890849
