! Created with skrf 1.8.0 (http://scikit-rf.org).
# GHz S RI R 50.0 
!freq ReS11 ImS11 ReS12 ImS12 ReS13 ImS13
! ReS14 ImS14
! ReS21 ImS21 ReS22 ImS22 ReS23 ImS23
! ReS24 ImS24
! ReS31 ImS31 ReS32 ImS32 ReS33 ImS33
! ReS34 ImS34
! ReS41 ImS41 ReS42 ImS42 ReS43 ImS43
! ReS44 ImS44
!
0.0 0.001373393680017 0.0 0.99862660632 0.0 5.270954976569e-05 0.0 -5.270954996646e-05 6.455058165092272e-21
 0.99862660632 0.0 0.001373393680053 0.0 -5.270954996645e-05 6.455058165091047e-21 5.270954976757e-05 0.0
 5.270954976569e-05 0.0 -5.270954996645e-05 6.455058165091047e-21 0.001373393660028 0.0 0.9986266063 0.0
 -5.270954996646e-05 6.455058165092272e-21 5.270954976757e-05 0.0 0.9986266063 0.0 0.001373393660067 0.0
0.005 0.0014772135267095965 0.0011235417462551742 0.998495327425294 -0.0028774173265888395 7.367418363497741e-05 0.0005830825375837416 -7.155235617572328e-05 -0.00036567085008207896
 0.998495327425294 -0.0028774173265888395 0.0014772292123268194 0.001123532626001168 -7.155372177586826e-05 -0.0003656719354114561 7.357368325386704e-05 0.000583120784189559
 7.367418363497741e-05 0.0005830825375837416 -7.155372177586826e-05 -0.0003656719354114561 0.0014772123084297165 0.0011234752433323426 0.9984953270912462 -0.002877484384664797
 -7.155235617572328e-05 -0.00036567085008207896 7.357368325386704e-05 0.000583120784189559 0.9984953270912462 -0.002877484384664797 0.0014772297651756369 0.00112346501387594
0.006252605252188 0.0015043099020308867 0.001408866927735313 0.9984608674295239 -0.003597496031180095 7.959762091799465e-05 0.0007291424184046095 -7.681114723387122e-05 -0.00045756950330442197
 0.9984608674295239 -0.003597496031180095 0.0015043344209971206 0.0014088553298772857 -7.681327194358862e-05 -0.00045757084255965266 7.944059710167957e-05 0.000729192054435425
 7.959762091799465e-05 0.0007291424184046095 -7.681327194358862e-05 -0.00045757084255965266 0.00150430806171024 0.001408783807034546 0.9984608669720129 -0.0035975798510490655
 -7.681114723387122e-05 -0.00045756950330442197 7.944059710167957e-05 0.000729192054435425 0.9984608669720129 -0.0035975798510490655 0.0015043353501491838 0.001408770813589212
0.01250521050438 0.0016461803222012558 0.0028474540375390185 0.9982793393717839 -0.007195924343035708 0.00011321775058243595 0.0014586792185941836 -0.00010632019716128547 -0.0009174429102161219
 0.9982793393717839 -0.007195924343035708 0.0016462782193602263 0.0028474288594865596 -0.00010632856739897502 -0.0009174453998055626 0.00011259154832739123 0.0014587980703655722
 0.00011321775058243595 0.0014586792185941836 -0.00010632856739897502 -0.0009174453998055626 0.0016461735125362473 0.0028472881063667166 0.9982793380886393 -0.007196091736720004
 -0.00010632019716128547 -0.0009174429102161219 0.00011259154832739123 0.0014587980703655722 0.9982793380886393 -0.007196091736720004 0.0016462824801634379 0.0028472600317113236
0.01875781575657 0.0017992879915021494 0.004306744815518625 0.9980818156477731 -0.010804071169338602 0.00015364301682050838 0.0021891175811724266 -0.00014132188152481633 -0.0013789721734087281
 0.9980818156477731 -0.010804071169338602 0.0017995079556590782 0.004306703957815808 -0.00014134054355832975 -0.0013789755927028824 0.0001522362537709501 0.0021893287399470007
 0.00015364301682050838 0.0021891175811724266 -0.00014134054355832975 -0.0013789755927028824 0.0017992730984247296 0.004306496265192981 0.9980818131826739 -0.010804322044498722
 -0.00014132188152481633 -0.0013789721734087281 0.0001522362537709501 0.0021893287399470007 0.9980818131826739 -0.010804322044498722 0.0017995179617569547 0.004306450858298694
0.02501042100875 0.0019639090441353774 0.005784724765876229 0.9978680823928846 -0.014423713132356974 0.00020094792901132383 0.0029205053113680623 -0.00018189906345898992 -0.0018419645538343158
 0.9978680823928846 -0.014423713132356974 0.001964299655135385 0.005784666028233917 -0.0001819320142956343 -0.0018419686462799215 0.00019844904970629603 0.002920835240510028
 0.00020094792901132383 0.0029205053113680623 -0.0001819320142956343 -0.0018419686462799215 0.0019638829525861277 0.005784393787231835 0.9978680783882856 -0.01442404743099582
 -0.00018189906345898992 -0.0018419645538343158 0.00019844904970629603 0.002920835240510028 0.9978680783882856 -0.01442404743099582 0.0019643178221610547 0.005784328652289025
0.03126302626094 0.002140308054385762 0.007280371222409997 0.9976379138916025 -0.01805562740488141 0.0002552077497066254 0.0036528232467920706 -0.00022813254878124728 -0.0023062901366192015
 0.9976379138916025 -0.01805562740488141 0.0021409178086224997 0.007280292307182099 -0.00022818374470546854 -0.0023062946092164264 0.0002513047278919493 0.0036533017997549375
 0.0002552077497066254 0.0036528232467920706 -0.00022818374470546854 -0.0023062946092164264 0.0021402676471939824 0.0072799580194956555 0.997637907988566 -0.01805604508986695
 -0.00022813254878124728 -0.0023062901366192015 0.0002513047278919493 0.0036533017997549375 0.997637907988566 -0.01805604508986695 0.002140946555193495 0.007279870619281793
0.037515631513130004 0.0023287440348776704 0.00879302800955838 0.9973910787175186 -0.0217002169945644 0.00031649771855831577 0.0043860260210401535 -0.00028010168445826144 -0.0027718410530174925
 0.9973910787175186 -0.0217002169945644 0.0023296213618028147 0.008792926523778605 -0.0002801750454492428 -0.0027718455761614794 0.00031087791911355115 0.004386686475352966
 0.00031649771855831577 0.0043860260210401535 -0.0002801750454492428 -0.0027718455761614794 0.0023286861948469306 0.008792532807156165 0.9973910705578526 -0.021700718042471607
 -0.00028010168445826144 -0.0027718410530174925 0.00031087791911355115 0.004386686475352966 0.9973910705578526 -0.021700718042471607 0.002329663112521267 0.008792420464628563
0.043768236765320004 0.002529472756261368 0.010322215139133535 0.9971273421961987 -0.02535770098486132 0.00038489269573791776 0.005120054466744436 -0.00033788458107317975 -0.003238519066662981
 0.9971273421961987 -0.02535770098486132 0.002530666031649601 0.0103220885959898 -0.00033798399348928333 -0.0032385232741085467 0.0003772428047126826 0.0051209335630378865
 0.00038489269573791776 0.005120054466744436 -0.00033798399348928333 -0.0032385232741085467 0.0025293943651080518 0.01032163819082682 0.9971273314213791 -0.02535828537841168
 -0.00033788458107317975 -0.003238519066662981 0.0003772428047126826 0.0051209335630378865 0.9971273314213791 -0.02535828537841168 0.0025307232162195934 0.01032149808996599
0.050020842017509996 0.002742747829959994 0.01186755017003059 0.9968464676355011 -0.029028193111044015 0.000460466956875347 0.005854840717688044 -0.00040155819788119043 -0.0037062304627776747
 0.9968464676355011 -0.029028193111044015 0.002744305386795649 0.011867395989950262 -0.0004016875161452099 -0.003706233951628363 0.0004504729479244971 0.005855978700760015
 0.000460466956875347 0.005854840717688044 -0.0004016875161452099 -0.003706233951628363 0.002742645767807682 0.011866891753191867 0.9968464538858735 -0.029028860844592944
 -0.00040155819788119043 -0.0037062304627776747 0.0004504729479244971 0.005855978700760015 0.9968464538858735 -0.029028860844592944 0.0027443804400992065 0.011866720939417215
0.055454545454549996 0.0029384752692882955 0.013223354908874562 0.9965882761338005 -0.032228563883195394 0.0005320308765899563 0.006493950287087447 -0.0004617354130985602 -0.004113453813081809
 0.9965882761338005 -0.032228563883195394 0.0029403886245437396 0.013223174545051931 -0.0004618938268799327 -0.004113456321793825 0.0005197441675061146 0.006495348687481586
 0.0005320308765899563 0.006493950287087447 -0.0004618938268799327 -0.004113456321793825 0.0029383501015749786 0.013222625944772387 0.9965882595060271 -0.03222930403887136
 -0.0004617354130985602 -0.004113453813081809 0.0005197441675061146 0.006495348687481586 0.9965882595060271 -0.03222930403887136 0.00294048118745036 0.013222425933596193
0.056273447269699996 0.002968821274876923 0.013428709600776386 0.9965482170415881 -0.03271174030327671 0.0005432940489265809 0.006590310730920529 -0.00047119837279898817 -0.004174883519267268
 0.9965482170415881 -0.03271174030327671 0.002970791413609143 0.013428525112176584 -0.00047136142065940456 -0.004174885849988181 0.0005306411709384116 0.00659175139181884
 0.0005432940489265809 0.006590310730920529 -0.00047136142065940456 -0.004174885849988181 0.0029686924206563407 0.013427970025073841 0.9965481999565258 -0.032712491374714436
 -0.00047119837279898817 -0.004174883519267268 0.0005306411709384116 0.00659175139181884 0.9965481999565258 -0.032712491374714436 0.002970886775588141 0.013427765405409567
0.06252605252188 0.0032079438258896193 0.015005407652878779 0.9962323515807936 -0.036408343840015914 0.0006334466819146852 0.00732638565419933 -0.0005468798183472712 -0.00464438713470554
 0.9962323515807936 -0.036408343840015914 0.003210374823973296 0.015005190092762763 -0.0005470803897135899 -0.004644387831138349 0.0006178194612827235 0.00732817637272507
 0.0006334466819146852 0.00732638565419933 -0.0005470803897135899 -0.004644387831138349 0.003207785057970294 0.01500458725668694 0.9962323307988672 -0.036409178254897964
 -0.0005468798183472712 -0.00464438713470554 0.0006178194612827235 0.00732817637272507 0.9962323307988672 -0.036409178254897964 0.003210492940241369 0.015004345599672063
0.06877865777407 0.003460365108771862 0.01659738360959218 0.9958986319096133 -0.04011797194790766 0.0007309966365079709 0.008062982652548645 -0.000628676102632612 -0.005114649999493345
 0.9958986319096133 -0.04011797194790766 0.003463305229625468 0.016597130123798882 -0.0006289179621669436 -0.005114648548888176 0.0007120788893057196 0.008065174439924362
 0.0007309966365079709 0.008062982652548645 -0.0006289179621669436 -0.005114648548888176 0.0034601733048410816 0.016596482762502703 0.9958986070683385 -0.040118889717407846
 -0.000628676102632612 -0.005114649999493345 0.0007120788893057196 0.008065174439924362 0.9958986070683385 -0.040118889717407846 0.0034634485513006367 0.01659620069771915
0.07503126302626001 0.003726333731209042 0.018204393791302172 0.9955468184250933 -0.04384056776714188 0.0008360146836908867 0.008800015425607566 -0.0007166596180289329 -0.005585580078729749
 0.9955468184250933 -0.04384056776714188 0.0037298312332622436 0.0182041014346027 -0.0007169465015975005 -0.005585575931774434 0.0008134895352882947 0.008802662967129489
 0.0008360146836908867 0.008800015425607566 -0.0007169465015975005 -0.005585575931774434 0.003726105768077728 0.018203412893938762 0.9955467891597984 -0.043841568908713845
 -0.0007166596180289329 -0.005585580078729749 0.0008134895352882947 0.008802662967129489 0.9955467891597984 -0.043841568908713845 0.003730002216425655 0.01820308691143359
0.08128386827845 0.004006097322063109 0.019826206225327922 0.9951766714645504 -0.04757605462502781 0.0009485705102036533 0.009537394552748917 -0.0008109015435939708 -0.006057084269935548
 0.9951766714645504 -0.04757605462502781 0.004010200467599468 0.019825871961231537 -0.0008112371586051402 -0.0060570768407868705 0.0009221204206721627 0.009540556250269557
 0.0009485705102036533 0.009537394552748917 -0.0008112371586051402 -0.0060570768407868705 0.004005830077332203 0.019825145710711645 0.9951766374099112 -0.04757713916150213
 -0.0008109015435939708 -0.006057084269935548 0.0009221204206721627 0.009540556250269557 0.9951766374099112 -0.04757713916150213 0.004010401574441929 0.019824772160151168
0.08753647353064001 0.004299902539566542 0.021462596937339182 0.9947879514782286 -0.05132433969059101 0.0010687326483147842 0.010275027737220251 -0.000911471802449346 -0.0065290681644529945
 0.9947879514782286 -0.05132433969059101 0.004304659603400568 0.021462217637632664 -0.0009118598280472768 -0.006529056830774378 0.0010380394425207984 0.010278765751407693
 0.0010687326483147842 0.010275027737220251 -0.0009118598280472768 -0.006529056830774378 0.004299592890731409 0.02146145727353383 0.9947879122667879 -0.051325507647962613
 -0.000911471802449346 -0.0065290681644529945 0.0010380394425207984 0.010278765751407693 0.9947879122667879 -0.051325507647962613 0.004304893301192716 0.021461032363034455
0.09378907878283 0.004607995053483863 0.023113347326374163 0.9943804191781269 -0.055085316548585485 0.0011965684085752694 0.011012819978418945 -0.001018439015384765 -0.00700143588358386
 0.9943804191781269 -0.055085316548585485 0.004613454331923167 0.023112919770454203 -0.0010188831026367916 -0.007001419986585351 0.0011613133100048603 0.01101720027065172
 0.0011965684085752694 0.011012819978418945 -0.0010188831026367916 -0.007001419986585351 0.00460763987849848 0.023112129012493262 0.9943803744402836 -0.05508656796052267
 -0.001018439015384765 -0.00700143588358386 0.0011613133100048603 0.01101720027065172 0.9943803744402836 -0.05508656796052267 0.004613723092812352 0.02311164880727594
0.100041684035 0.004930619512185377 0.024778242216192375 0.9939538356744683 -0.058858867100277726 0.0013321438141452979 0.011750673702841316 -0.0011318704520245908 -0.0074740899589131075
 0.9939538356744683 -0.058858867100277726 0.004936829331485722 0.024777763090101775 -0.0011323742239723045 -0.007474068803393826 0.0012920074820654216 0.011755766076788469
 0.0013321438141452979 0.011750673702841316 -0.0011323742239723045 -0.007474068803393826 0.004930215690397756 0.02477694578663911 0.9939537850385803 -0.05886020200426447
 -0.0011318704520245908 -0.0074740899589131075 0.0012920074820654216 0.011755766076788469 0.9939537850385803 -0.05886020200426447 0.00493713563329463 0.024776406207375166
0.1059090909091 0.005246801986726942 0.026353243812927384 0.993535993100606 -0.06241126547015132 0.0014664637011800993 0.012443037994918155 -0.0012442516575175292 -0.007917797821428605
 0.993535993100606 -0.06241126547015132 0.005253760095957947 0.026352713195443585 -0.0012448147074364368 -0.007917771066670047 0.0014214559449481309 0.012448865526424255
 0.0014664637011800993 0.012443037994918155 -0.0012448147074364368 -0.007917771066670047 0.005246349678185138 0.026351874595390106 0.9935359365900387 -0.062412678762629965
 -0.0012442516575175292 -0.007917797821428605 0.0014214559449481309 0.012448865526424255 0.9935359365900387 -0.062412678762629965 0.005254103883918548 0.026351275459386675
0.1062942892872 0.005268019496873586 0.02645706840206265 0.9935079626013312 -0.06264486297199634 0.001475523536343561 0.012488488864425662 -0.001251831979813629 -0.00794693124631246
 0.9935079626013312 -0.06264486297199634 0.005275028222371579 0.026456534297259096 -0.0012523990315307975 -0.00794690410070736 0.0014301861059186213 0.012494367007076587
 0.001475523536343561 0.012488488864425662 -0.0012523990315307975 -0.00794690410070736 0.005267563909096768 0.026455694425199905 0.993507905693533 -0.06264628141111701
 -0.001251831979813629 -0.00794693124631246 0.0014301861059186213 0.012494367007076587 0.993507905693533 -0.06264628141111701 0.005275374548003866 0.026455091246141774
0.11254689453939999 0.005620437466490627 0.028149613537987058 0.9930425622366013 -0.06644316658678227 0.0016267708313867876 0.01322616302209746 -0.001378388011172701 -0.008419858865734592
 0.9930425622366013 -0.06644316658678227 0.005628293511227358 0.028149020949831332 -0.0013790219097644977 -0.008419824962161098 0.0015759119561081808 0.01323290454446276
 0.0016267708313867876 0.01322616302209746 -0.0013790219097644977 -0.008419824962161098 0.005619926995276882 0.02814816261766878 0.9930424986802809 -0.06644466860864294
 -0.001378388011172701 -0.008419858865734592 0.0015759119561081808 0.01323290454446276 0.9930424986802809 -0.06644466860864294 0.005628682348453632 0.028147491464404335
0.11879949979160001 0.005988114694982192 0.02985566525947462 0.9925573976153981 -0.07025363200387807 0.00178594747710195 0.01396359140898863 -0.0015116014496821437 -0.008892770152641031
 0.9925573976153981 -0.07025363200387807 0.005996866528860749 0.029855010585437942 -0.0015123057342488165 -0.008892728686965081 0.0017292463737163249 0.01397127788606588
 0.00178594747710195 0.01396359140898863 -0.0015123057342488165 -0.008892728686965081 0.005987546225510582 0.02985413803611224 0.9925573270315693 -0.07025521765989468
 -0.0015116014496821437 -0.008892770152641031 0.0017292463737163249 0.01397127788606588 0.9925573270315693 -0.07025521765989468 0.005997300370619508 0.02985339438317312
0.1250521050438 0.006371291203229697 0.031575010504519385 0.9920522326416308 -0.0740761055637885 0.0019531137104725925 0.014700666985253996 -0.00165153363483606 -0.009365560628921145
 0.9920522326416308 -0.0740761055637885 0.006380987361870501 0.031574290042071886 -0.0016523118163849929 -0.009365510760803452 0.0018902492058807839 0.014709383995596566
 0.0019531137104725925 0.014700666985253996 -0.0016523118163849929 -0.009365510760803452 0.006370661623280926 0.0315734076519979 0.9920521546480021 -0.07407777491268576
 -0.00165153363483606 -0.009365560628921145 0.0018902492058807839 0.014709383995596566 0.9920521546480021 -0.07407777491268576 0.006381468705893048 0.03157258682001466
0.131304710296 0.00677020568551107 0.03330743495487077 0.9915268321957156 -0.07791042641669926 0.0021283281652635 0.015437280487074925 -0.001798244285976234 -0.009838123981024351
 0.9915268321957156 -0.07791042641669926 0.006780894779316349 0.033306644899116174 -0.0017990998473832508 -0.009838064833978033 0.002058978745360836 0.015447117651642778
 0.0021283281652635 0.015437280487074925 -0.0017990998473832508 -0.009838064833978033 0.006769511886409334 0.03330575718523676 0.9915267464071011 -0.07791217952028023
 -0.001798244285976234 -0.009838123981024351 0.002058978745360836 0.015447117651642778 0.9915267464071011 -0.07791217952028023 0.006781426128118834 0.033304854337936785
0.1375573155481 0.007089425019428814 0.03482643963274711 0.9910766610421771 -0.08153007024424994 0.00228866346270191 0.01615026264571843 -0.0019288895155523524 -0.010287248792053047
 0.9910766610421771 -0.08153007024424994 0.007101160333697889 0.03482559504348905 -0.0019298276954470817 -0.010287180376340214 0.002212668337423566 0.016161199733560432
 0.00228866346270191 0.01615026264571843 -0.0019298276954470817 -0.010287180376340214 0.007088664556383594 0.03482468742721731 0.9910765671061772 -0.08153190710992908
 -0.0019288895155523524 -0.010287248792053047 0.002212668337423566 0.016161199733560432 0.9910765671061772 -0.08153190710992908 0.007101743467082539 0.03482371695380559
0.1438099208003 0.007419731109993414 0.03633812804013285 0.9906109182359838 -0.08514123542297541 0.0024554914516632166 0.01686075243411556 -0.0020647749759001234 -0.010734118152830494
 0.9906109182359838 -0.08514123542297541 0.007432562098165679 0.03633722633077406 -0.002065799532910912 -0.010734039612206068 0.0023725577090444364 0.016872870809484575
 0.0024554914516632166 0.01686075243411556 -0.002065799532910912 -0.010734039612206068 0.007418900998154027 0.036336302106562614 0.9906108157698963 -0.08514315610660728
 -0.0020647749759001234 -0.010734118152830494 0.0023725577090444364 0.016872870809484575 0.9906108157698963 -0.08514315610660728 0.0074331993940369885 0.036335260398264665
0.1500625260525 0.0077610166331826816 0.03784239431978575 0.9901297144937882 -0.08874385315295728 0.0026287607209819516 0.01756869021240312 -0.0022058512849799077 -0.011178676091086975
 0.9901297144937882 -0.08874385315295728 0.007774992854419165 0.03784143274505591 -0.002206965971996422 -0.011178586534904908 0.002538596993393111 0.01758207419266171
 0.0026287607209819516 0.01756869021240312 -0.002206965971996422 -0.011178586534904908 0.00776011389871007 0.03784049539413006 0.990129603112759 -0.0887458577119165
 -0.0022058512849799077 -0.011178676091086975 0.002538596993393111 0.01758207419266171 0.990129603112759 -0.0887458577119165 0.007775686686568031 0.037839378643547444
0.15631513130469998 0.00811317361084437 0.03933913591375822 0.9896331609746323 -0.09233785447149477 0.0028084193175805087 0.018274017240471344 -0.0023520685125592994 -0.011620867743364523
