! Created with skrf 1.8.0 (http://scikit-rf.org).
# GHz S RI R 50.0 
!freq ReS11 ImS11 ReS12 ImS12 ReS13 ImS13
! ReS14 ImS14
! ReS21 ImS21 ReS22 ImS22 ReS23 ImS23
! ReS24 ImS24
! ReS31 ImS31 ReS32 ImS32 ReS33 ImS33
! ReS34 ImS34
! ReS41 ImS41 ReS42 ImS42 ReS43 ImS43
! ReS44 ImS44
!
0.0 0.001554661836727 0.0 0.9984453381548 0.0 6.001044203433e-05 0.0 -6.001044212246e-05 7.349159586068813e-21
 0.9984453381548 0.0 0.001554661836691 0.0 -6.001044212278e-05 7.349159586108002e-21 6.00104420333e-05 0.0
 6.001044203433e-05 0.0 -6.001044212278e-05 7.349159586108002e-21 0.001554661840996 0.0 0.998445338159 0.0
 -6.001044212246e-05 7.349159586068813e-21 6.00104420333e-05 0.0 0.998445338159 0.0 0.001554661840945 0.0
0.005 0.00167272157825932 0.001271382370660116 0.9982959695359819 -0.0032565624925825058 8.418944188417018e-05 0.0006639950533751689 -8.172076162836562e-05 -0.0004162900157222297
 0.9982959695359819 -0.0032565624925825058 0.0016727361672071019 0.0012713738764106811 -8.172114826569167e-05 -0.00041629037227913334 8.408660962805578e-05 0.0006640340399397959
 8.418944188417018e-05 0.0006639950533751689 -8.172114826569167e-05 -0.00041629037227913334 0.0016727207223220938 0.001271315660122638 0.9982959691757299 -0.0032566295498546284
 -8.172076162836562e-05 -0.0004162900157222297 8.408660962805578e-05 0.0006640340399397959 0.9982959691757299 -0.0032566295498546284 0.0016727363133677872 0.001271306483294904
0.006252605252188 0.0017036929892959342 0.0015942299097055175 0.9982565349342438 -0.004071498189245345 9.11079419367222e-05 0.0008303131088850487 -8.785350947276797e-05 -0.0005209007120038957
 0.9982565349342438 -0.004071498189245345 0.0017037157946943754 0.0015942191658218526 -8.785411063571713e-05 -0.0005209011529003282 9.094727401970498e-05 0.0008303637624634632
 9.11079419367222e-05 0.0008303131088850487 -8.785411063571713e-05 -0.0005209011529003282 0.0017036917200114394 0.0015941465417227691 0.9982565344400999 -0.004071582001928377
 -8.785350947276797e-05 -0.0005209007120038957 9.094727401970498e-05 0.0008303637624634632 0.9982565344400999 -0.004071582001928377 0.0017037160928102487 0.0015941349323976815
0.01250521050438 0.0018667794056532777 0.0032218565017846056 0.9980474995662361 -0.00814379032455444 0.00013083983332333037 0.0016609659175706077 -0.0001226665595371997 -0.0010443222844791734
 0.9980474995662361 -0.00814379032455444 0.0018668704673040662 0.0032218337579006046 -0.0001226689229134825 -0.0010443231142777721 0.00013019906054606637 0.0016610879310411661
 0.00013083983332333037 0.0016609659175706077 -0.0001226689229134825 -0.0010443231142777721 0.001866774912215924 0.003221690123873765 0.9980474981706201 -0.008143957744598808
 -0.0001226665595371997 -0.0010443222844791734 0.00013019906054606637 0.0016610879310411661 0.9980474981706201 -0.008143957744598808 0.00186687224751968 0.0032216655158032225
0.01875781575657 0.00204427993783094 0.004872641537759872 0.9978179703113723 -0.012226784983268338 0.00017929806125391044 0.0024925133573363923 -0.00016455732661340902 -0.001569505317589475
 0.9978179703113723 -0.012226784983268338 0.0020444845541761113 0.004872605464667127 -0.0001645625890680419 -0.0015695064762016608 0.00017785848143442372 0.0024927314744676876
 0.00017929806125391044 0.0024925133573363923 -0.0001645625890680419 -0.0015695064762016608 0.002044270260300377 0.004872392458398291 0.9978179675977387 -0.012227035958388716
 -0.00016455732661340902 -0.001569505317589475 0.00017785848143442372 0.0024927314744676876 0.9978179675977387 -0.012227035958388716 0.0020444890030703036 0.004872353354465569
0.02501042100875 0.0022365426468494445 0.006544270129813945 0.9975676750191977 -0.016322456482257944 0.0002365761402130385 0.0033249862850278176 -0.00021362998745582507 -0.0020962085908472297
 0.9975676750191977 -0.016322456482257944 0.002236906025847167 0.006544219344542114 -0.00021363926964188971 -0.002096210008810567 0.0002340188453300859 0.003325329158141421
 0.0002365761402130385 0.0033249862850278176 -0.00021363926964188971 -0.002096210008810567 0.0022365258249074527 0.006543938698753371 0.9975676705654489 -0.01632279102229807
 -0.00021362998745582507 -0.0020962085908472297 0.0002340188453300859 0.003325329158141421 0.9975676705654489 -0.01632279102229807 0.0022369143407275104 0.006543883514023705
0.03126302626094 0.002443901193623956 0.008235548668630988 0.9972963277521083 -0.02043164692678418 0.00030276808896996006 0.00415833863174393 -0.00026998573818334104 -0.002624261856251723
 0.9972963277521083 -0.02043164692678418 0.002444468480460422 0.008235481738996922 -0.0002700001473876796 -0.0026242634546144138 0.0002987736770336644 0.004158838846730975
 0.00030276808896996006 0.00415833863174393 -0.0002700001473876796 -0.0026242634546144138 0.002443875271478508 0.008235135288298105 0.9972963211339491 -0.020432065092690604
 -0.00026998573818334104 -0.002624261856251723 0.0002987736770336644 0.004158838846730975 0.9972963211339491 -0.020432065092690604 0.002444481874237869 0.00823506235445151
0.037515631513130004 0.002666681981108176 0.009945697142394934 0.9970036361582497 -0.02455477383063814 0.00037796745443524637 0.004992493876316115 -0.0003337235279950929 -0.0031535193627441897
 0.9970036361582497 -0.02455477383063814 0.002667498276911442 0.009945612589701893 -0.00033374415952939113 -0.0031535210530678156 0.00037221590254534663 0.0049931879933696865
 0.00037796745443524637 0.004992493876316115 -0.00033374415952939113 -0.0031535210530678156 0.0026666450071803935 0.009945202289299937 0.9970036269470178 -0.02455527571362965
 -0.0003337235279950929 -0.0031535193627441897 0.00037221590254534663 0.0049931879933696865 0.9970036269470178 -0.02455527571362965 0.0026675179783872635 0.009945109856740452
0.043768236765320004 0.0029052069126988783 0.011674133757329704 0.9966893044632084 -0.028692045424882278 0.00046226685604472515 0.005827359170271393 -0.00040494031644523255 -0.0036838457331880405
 0.9966893044632084 -0.028692045424882278 0.0029063172904131027 0.011674030058186034 -0.00040496825457459883 -0.0036838474175847815 0.0004544374624795581 0.00582828776954367
 0.00046226685604472515 0.005827359170271393 -0.00040496825457459883 -0.0036838474175847815 0.002905156939196099 0.011673557977512333 0.9966892922229281 -0.028692631151628015
 -0.00040494031644523255 -0.0036838457331880405 0.0004544374624795581 0.00582828776954367 0.9966892922229281 -0.028692631151628015 0.0029063445434893477 0.011673444216726236
0.050020842017509996 0.0031597946721348075 0.013420385939965886 0.9963530349876407 -0.03284354958340572 0.0005557577114987377 0.00666283116729578 -0.0004837311636539645 -0.004215110140184248
 0.9963530349876407 -0.03284354958340572 0.0031612441904183986 0.013420261527546905 -0.00048376748222537933 -0.00421511171136736 0.0005455290743015026 0.006664038896435078
 0.0005557577114987377 0.00666283116729578 -0.00048376748222537933 -0.00421511171136736 0.003159729757259848 0.013419729845786333 0.9963530192748411 -0.03284421931964194
 -0.0004837311636539645 -0.004215110140184248 0.0005455290743015026 0.006664038896435078 0.9963530192748411 -0.03284421931964194 0.0031612802558977763 0.01341959284804837
0.055454545454549996 0.0033943297009814363 0.014952083120964108 0.9960427584998182 -0.03646290117301479 0.0006445386326194176 0.007389288346924744 -0.0005584262748025496 -0.004677456491816498
 0.9960427584998182 -0.03646290117301479 0.0033961105343228346 0.014951939402596204 -0.000558470740536656 -0.004677457870224429 0.0006319634188955595 0.007390778103148366
 0.0006445386326194176 0.007389288346924744 -0.000558470740536656 -0.004677457870224429 0.00339425022998367 0.014951357795367246 0.9960427394023047 -0.03646364406610799
 -0.0005584262748025496 -0.004677456491816498 0.0006319634188955595 0.007390778103148366 0.9960427394023047 -0.03646364406610799 0.003396155295756925 0.014951198992617218
0.056273447269699996 0.0034307613766459627 0.015184046637103944 0.9959945290415461 -0.03700929745167159 0.0006585300391160814 0.007498798905388268 -0.0005701892490091893 -0.004747183432840163
 0.9959945290415461 -0.03700929745167159 0.003432595092675716 0.015183899902062425 -0.0005702350118539307 -0.0047471847741759905 0.0006455800569694863 0.007500334527924899
 0.0006585300391160814 0.007498798905388268 -0.0005702350118539307 -0.0047471847741759905 0.0034306795853071056 0.015183310926081129 0.9959945094037195 -0.03701005138401137
 -0.0005701892490091893 -0.004747183432840163 0.0006455800569694863 0.007500334527924899 0.9959945094037195 -0.03701005138401137 0.0034326412488769466 0.01518314870376863
0.06252605252188 0.003718420926516772 0.016964750315572416 0.995613487519984 -0.04118924737896739 0.0007706723051186863 0.008335145368525398 -0.000664405846797677 -0.005279936588163618
 0.995613487519984 -0.04118924737896739 0.0037206839085409857 0.01696457960644321 -0.0006644621080868543 -0.005279937573714082 0.0007546781928115692 0.008337061812505603
 0.0007706723051186863 0.008335145368525398 -0.0006644621080868543 -0.005279937573714082 0.003718320332803721 0.01696393575189751 0.9956134634957977 -0.04119008573380071
 -0.000664405846797677 -0.005279936588163618 0.0007546781928115692 0.008337061812505603 0.9956134634957977 -0.04119008573380071 0.0037207414532592054 0.016963746238413017
0.06877865777407 0.004023085186165977 0.018762158628008254 0.9952096113337261 -0.04538331918845657 0.0008922712888661735 0.00917174843963188 -0.0007664702841412486 -0.005813239775554289
 0.9952096113337261 -0.04538331918845657 0.0040258225256520905 0.018761962251285298 -0.0007665380886453528 -0.005813240270143587 0.0008729096032561443 0.00917410284619904
 0.0008922712888661735 0.00917174843963188 -0.0007665380886453528 -0.005813240270143587 0.004022963873723693 0.018761266056427903 0.9952095824503095 -0.045384242218449444
 -0.0007664702841412486 -0.005813239775554289 0.0008729096032561443 0.00917410284619904 0.9952095824503095 -0.045384242218449444 0.004025892775977239 0.018761047105690543
0.07503126302626001 0.004345064065353253 0.020575951345453123 0.9947826017444146 -0.049591403184847255 0.0010234119632430553 0.010008481504419965 -0.0008764698833886251 -0.006346961775141808
 0.9947826017444146 -0.049591403184847255 0.004348320889276585 0.02057572756523587 -0.0008765502666988571 -0.006346961634388968 0.0010003586370160265 0.01001133527612684
 0.0010234119632430553 0.010008481504419965 -0.0008765502666988571 -0.006346961634388968 0.004344920129614457 0.02057498168781079 0.9947825675175669 -0.04959241117280114
 -0.0008764698833886251 -0.006346961775141808 0.0010003586370160265 0.01001133527612684 0.9947825675175669 -0.04959241117280114 0.004348405183313445 0.020574731073444177
0.08128386827845 0.004684665540024612 0.02240582032031404 0.9943321606427468 -0.053813366136854106 0.0011641773837439162 0.010845213852250776 -0.0009944898951459334 -0.006880969603958181
 0.9943321606427468 -0.053813366136854106 0.004688487022366922 0.022405567357669954 -0.0009945838838355575 -0.006880968674342351 0.0011371077651501204 0.010848632700943762
 0.0011641773837439162 0.010845213852250776 -0.0009945838838355575 -0.006880968674342351 0.0046844970892640095 0.02240477457244735 0.9943321205747819 -0.05381445939911322
 -0.0009944898951459334 -0.006880969603958181 0.0011371077651501204 0.010848632700943762 0.9943321205747819 -0.05381445939911322 0.0046885867197241065 0.0224044899865078
0.08753647353064001 0.005042195628632983 0.024251465302488284 0.9938579907863666 -0.05804905541188505 0.0013146485803571515 0.011681810970268634 -0.0011206134273962997 -0.007415128253879036
 0.9938579907863666 -0.05804905541188505 0.005046627002861265 0.024251181334260057 -0.0011207220391393077 -0.007415126372786217 0.0012832374782371261 0.011685864964506737
 0.0013146485803571515 0.011681810970268634 -0.0011207220391393077 -0.007415126372786217 0.005042000786008736 0.02425034454045522 0.993857944365732 -0.05805023429228355
 -0.0011206134273962997 -0.007415128253879036 0.0012832374782371261 0.011685864964506737 0.993857944365732 -0.05805023429228355 0.005046743486422404 0.024250023591746803
0.09378907878283 0.005417958343413998 0.02611259096516918 0.9933597960158888 -0.06229830190646749 0.0014749044559196603 0.012518134750808053 -0.001254921367478345 -0.007949300521610055
 0.9933597960158888 -0.06229830190646749 0.005423044914313643 0.026112274122514264 -0.0012550456112210087 -0.007949297517374419 0.0014388261886061678 0.012522898362613494
 0.0014749044559196603 0.012518134750808053 -0.0012550456112210087 -0.007949297517374419 0.005417735248375548 0.02611139634467501 0.9933597427157762 -0.06229956677718722
 -0.001254921367478345 -0.007949300521610055 0.0014388261886061678 0.012522898362613494 0.9933597427157762 -0.06229956677718722 0.005423179590570675 0.02611103655681738
0.100041684035 0.005812255618614605 0.027988904725798427 0.9928372814516317 -0.06656092218784222 0.0016450216843439315 0.013354043658063742 -0.0013974923031799548 -0.008483346884622562
 0.9928372814516317 -0.06656092218784222 0.0058180427743108835 0.02798855309225192 -0.0013976331791941566 -0.008483342576583478 0.0016039501323335554 0.013359595809004626
 0.0016450216843439315 0.013354043658063742 -0.0013976331791941566 -0.008483342576583478 0.0058120024284868685 0.027987637477166875 0.9928372207285827 -0.06656227345443741
 -0.0013974923031799548 -0.008483346884622562 0.0016039501323335554 0.013359595809004626 0.9928372207285827 -0.06656227345443741 0.005818197074682148 0.027987236286058103
0.1059090909091 0.006199385831519773 0.029763179926938367 0.9923245769773571 -0.0705729279648732 0.0018136937100785167 0.014137949208312614 -0.001538863023136323 -0.008984251856505268
 0.9923245769773571 -0.0705729279648732 0.006205871776856293 0.029762793858313843 -0.0015390204088950408 -0.00898424615270117 0.0017676395468234406 0.01414431710131924
 0.0018136937100785167 0.014137949208312614 -0.0015390204088950408 -0.00898424615270117 0.006199102742274285 0.029761845714235312 0.9923245087791754 -0.07057436069924555
 -0.001538863023136323 -0.008984251856505268 0.0017676395468234406 0.01414431710131924 0.9923245087791754 -0.07057436069924555 0.006206045817609958 0.029761403257912305
0.1062942892872 0.0062253872236682824 0.029880115096956827 0.9922901536785697 -0.07083672011147893 0.0018250746123609622 0.014189392853658575 -0.0015484024395614991 -0.009017125423841232
 0.9922901536785697 -0.07083672011147893 0.006231920448004802 0.02987972670604892 -0.0015485609395687265 -0.009017119622384497 0.0017786832740354524 0.014195816960168247
 0.0018250746123609622 0.014189392853658575 -0.0015485609395687265 -0.009017119622384497 0.006225102115700718 0.02987877652984124 0.9922900849719506 -0.07083815820831015
 -0.0015484024395614991 -0.009017125423841232 0.0017786832740354524 0.014195816960168247 0.9922900849719506 -0.07083815820831015 0.006232095830104534 0.029878331280816503
0.11254689453939999 0.006657650666041914 0.031785930438549465 0.9917181209242254 -0.07512548804392521 0.0020151351612381265 0.015024034309133523 -0.0017077255150425572 -0.009550491764961202
 0.9917181209242254 -0.07512548804392521 0.006664975550687261 0.03178550327097494 -0.0017079026222798612 -0.009550484271564562 0.001963097211588757 0.015031418326946374
 0.0020151351612381265 0.015024034309133523 -0.0017079026222798612 -0.009550484271564562 0.006657331838882228 0.03178452194266555 0.9917180436545141 -0.07512701343327045
 -0.0017077255150425572 -0.009550491764961202 0.001963097211588757 0.015031418326946374 0.9917180436545141 -0.07512701343327045 0.0066651734990822295 0.031784029887220754
0.11879949979160001 0.0071093410839007136 0.03370605798781637 0.991120893228951 -0.07942700781423168 0.0022152727299478855 0.015857816895248976 -0.0018755327156708122 -0.010083299048627871
 0.991120893228951 -0.07942700781423168 0.007117503340660877 0.03370558996822157 -0.0018757294049564356 -0.01008328965590973 0.002157261081708735 0.015866253363070508
 0.0022152727299478855 0.015857816895248976 -0.0018757294049564356 -0.01008328965590973 0.007108986759306934 0.03370458103145568 0.9911208067965431 -0.07942862098778873
 -0.0018755327156708122 -0.010083299048627871 0.002157261081708735 0.015866253363070508 0.9911208067965431 -0.07942862098778873 0.007117725368153551 0.03370403932344303
0.1250521050438 0.007580751131472428 0.03564020309131686 0.9904981826125754 -0.08374105147032694 0.002425554099088887 0.016690586467169182 -0.002051892588013355 -0.010615397910673858
 0.9904981826125754 -0.08374105147032694 0.007589796604742903 0.03563969208455941 -0.002052109825795924 -0.010615386402436098 0.002361241466366331 0.01670017254927418
 0.002425554099088887 0.016690586467169182 -0.002052109825795924 -0.010615386402436098 0.0075803595561542945 0.03563865921983506 0.9904980863967745 -0.08374275295042873
 -0.002051892588013355 -0.010615397910673858 0.002361241466366331 0.01670017254927418 0.9904980863967745 -0.08374275295042873 0.007590044253244445 0.03563806491132381
0.131304710296 0.008072170858964268 0.037588068597928105 0.9898497032374801 -0.08806738188130393 0.0026460433351850844 0.017522185936383182 -0.0022368709515542856 -0.011146636481543265
 0.9898497032374801 -0.08806738188130393 0.008082145538375614 0.03758751240485002 -0.002237109695981807 -0.011146622632806769 0.002575102299277631 0.0175330234642668
 0.0026460433351850844 0.017522185936383182 -0.002237109695981807 -0.011146622632806769 0.008071740306539609 0.03758645943803651 0.9898495965954616 -0.08806917221640034
 -0.0022368709515542856 -0.011146636481543265 0.002575102299277631 0.0175330234642668 0.9898495965954616 -0.08806917221640034 0.008082420380316232 0.03758580947456705
0.1375573155481 0.008471731436093918 0.039295438659205935 0.989287370654054 -0.09215172272885486 0.0028494448100238492 0.018327184903407696 -0.0024032622143911318 -0.011651545104048203
 0.989287370654054 -0.09215172272885486 0.00848268552848545 0.03929484622272411 -0.002403524057504373 -0.011651528903151314 0.0027717182478713097 0.01833925891871124
 0.0028494448100238492 0.018327184903407696 -0.002403524057504373 -0.011651528903151314 0.008471260923459364 0.03929376532016021 0.9892872530945442 -0.09215360226946925
 -0.0024032622143911318 -0.011651545104048203 0.0027717182478713097 0.01833925891871124 0.9892872530945442 -0.09215360226946925 0.008482988130504661 0.03929306852511483
0.1438099208003 0.008885368224133853 0.04099369955522012 0.988705219687916 -0.09622559068403953 0.0030610670510181487 0.01912880775924696 -0.0025763046151907813 -0.012153394344338486
 0.988705219687916 -0.09622559068403953 0.008897348570906754 0.040993069181673975 -0.00257659061710845 -0.012153375565559135 0.002976258114042384 0.019142211367438055
 0.0030610670510181487 0.01912880775924696 -0.00257659061710845 -0.012153375565559135 0.008884856197959668 0.04099196369283595 0.9887050905663591 -0.09622755997342108
 -0.0025763046151907813 -0.012153394344338486 0.002976258114042384 0.019142211367438055 0.9887050905663591 -0.09622755997342108 0.00889768036755467 0.04099121757392189
0.1500625260525 0.00931293379142395 0.04268270584879241 0.9881034018918923 -0.10028888088355115 0.0032808362180377078 0.01992696871170724 -0.002755927105332211 -0.012652104491690432
 0.9881034018918923 -0.10028888088355115 0.009325987397730365 0.04268203570449441 -0.0027562383257296133 -0.012652082899973681 0.0031886499008529612 0.01994179840267184
 0.0032808362180377078 0.01992696871170724 -0.0027562383257296133 -0.012652082899973681 0.009312378733328734 0.04268090918376864 0.9881032605448724 -0.10029094048472902
 -0.002755927105332211 -0.012652104491690432 0.0031886499008529612 0.01994179840267184 0.9881032605448724 -0.10029094048472902 0.009326349841271005 0.04268011107918282
0.15631513130469998 0.0097542796391975 0.04436231648808631 0.9874820696122227 -0.10434148891046846 0.0035086775809499895 0.020721583438904716 -0.002942057748379943 -0.013147597541503414
