! Created with skrf 1.8.0 (http://scikit-rf.org).
# GHz S RI R 50.0 
!freq ReS11 ImS11 ReS12 ImS12 ReS13 ImS13
! ReS14 ImS14
! ReS21 ImS21 ReS22 ImS22 ReS23 ImS23
! ReS24 ImS24
! ReS31 ImS31 ReS32 ImS32 ReS33 ImS33
! ReS34 ImS34
! ReS41 ImS41 ReS42 ImS42 ReS43 ImS43
! ReS44 ImS44
!
0.0 0.001097906870641 0.0 0.9989020931251 0.0 4.18072596592e-05 0.0 -4.180726121279e-05 5.1199128625360566e-21
 0.9989020931251 0.0 0.001097906870662 0.0 -4.18072612131e-05 5.119912862574021e-21 4.180725965803e-05 0.0
 4.18072596592e-05 0.0 -4.18072612131e-05 5.119912862574021e-21 0.00109790686959 0.0 0.998902093124 0.0
 -4.180726121279e-05 5.1199128625360566e-21 4.180725965803e-05 0.0 0.998902093124 0.0 0.001097906869596 0.0
0.005 0.001180359811476409 0.000894845325913981 0.9987979145702636 -0.0023012709502053382 5.857417712536414e-05 0.0004845682862194939 -5.6880191540175475e-05 -0.0003001433484635443
 0.9987979145702636 -0.0023012709502053382 0.0011803496515494483 0.0008948512630925038 -5.687944439976501e-05 -0.00030014283323812285 5.8650396393415266e-05 0.0004845395696294197
 5.857417712536414e-05 0.0004845682862194939 -5.687944439976501e-05 -0.00030014283323812285 0.0011803595744822616 0.0008947782582578083 0.9987979142454588 -0.0023013380072093997
 -5.6880191540175475e-05 -0.0003001433484635443 5.8650396393415266e-05 0.0004845395696294197 0.9987979142454588 -0.0023013380072093997 0.001180349240594956 0.0008947842176985634
0.006252605252188 0.001201714354706416 0.0011221337241962164 0.9987708079029767 -0.002877195258678436 6.319697367141777e-05 0.0006059523942581563 -6.1010943237393824e-05 -0.0003755889547184678
 0.9987708079029767 -0.002877195258678436 0.0012016984724104657 0.0011221412125165847 -6.100978012893959e-05 -0.00037558832023480357 6.331606485689286e-05 0.0006059151164507492
 6.319697367141777e-05 0.0006059523942581563 -6.100978012893959e-05 -0.00037558832023480357 0.0012017140661025794 0.0011220498914171035 0.9987708074774948 -0.002877279083650916
 -6.1010943237393824e-05 -0.0003755889547184678 6.331606485689286e-05 0.0006059151164507492 0.9987708074774948 -0.002877279083650916 0.0012016979125011123 0.001122057397624523
0.01250521050438 0.0013125547700262117 0.002268324115557095 0.9986293958702779 -0.005755426847457005 8.882388263847285e-05 0.0012122818501270128 -8.377771871378756e-05 -0.0007531972967630802
 0.9986293958702779 -0.005755426847457005 0.0013124913458921936 0.0022683397473542252 -8.377312865046662e-05 -0.0007531961305615047 8.929893664110093e-05 0.0012121926951840054
 8.882388263847285e-05 0.0012122818501270128 -8.377312865046662e-05 -0.0007531961305615047 0.001312554171573273 0.0022681567561069565 0.9986293947306644 -0.005755594250213758
 -8.377771871378756e-05 -0.0007531972967630802 8.929893664110093e-05 0.0012121926951840054 0.9986293947306644 -0.005755594250213758 0.001312489676720508 0.002268172323903432
0.01875781575657 0.0014306123785121645 0.0034313837578749283 0.9984777228128525 -0.008641759803653788 0.00011873789225646946 0.0018194574953693961 -0.00011016513495371826 -0.0011322825253218276
 0.9984777228128525 -0.008641759803653788 0.0014304698539828382 0.003431408211237529 -0.00011015488959605683 -0.0011322809460869855 0.00011980539680687594 0.001819299706647875
 0.00011873789225646946 0.0018194574953693961 -0.00011015488959605683 -0.0011322809460869855 0.001430611443359364 0.003431133043793025 0.9984777206726898 -0.008642010681609396
 -0.00011016513495371826 -0.0011322825253218276 0.00011980539680687594 0.001819299706647875 0.9984777206726898 -0.008642010681609396 0.001430466537768525 0.0034311572488163735
0.02501042100875 0.001556068854318781 0.004609731575441559 0.9983156510147511 -0.011537648875035148 0.00015298926835678617 0.0024275485105342562 -0.00014022959670366352 -0.001512699811868895
 0.9983156510147511 -0.011537648875035148 0.0015558157298409436 0.004609765536982397 -0.0001402114906724609 -0.0015126979563312014 0.00015488603551951059 0.002427303270620568
 0.00015298926835678617 0.0024275485105342562 -0.0001402114906724609 -0.0015126979563312014 0.001556067549653335 0.0046093976367080226 0.9983156475884385 -0.011537983178688947
 -0.00014022959670366352 -0.001512699811868895 0.00015488603551951059 0.002427303270620568 0.9983156475884385 -0.011537983178688947 0.0015558102387729124 0.004609431059630415
0.03126302626094 0.0016890978420360785 0.0058025815214185926 0.9981430338969017 -0.014443749801266188 0.0001916288932533355 0.003036566370668806 -0.00017402630060844144 -0.0018943598094784706
 0.9981430338969017 -0.014443749801266188 0.0016887026604149283 0.005802625682526687 -0.00017399814729353498 -0.0018943578327563961 0.00019459228947327366 0.0030362127890396547
 0.0001916288932533355 0.003036566370668806 -0.00017399814729353498 -0.0018943578327563961 0.0016890961263497624 0.005802164490792868 0.9981430288963137 -0.014444167489616843
 -0.00017402630060844144 -0.0018943598094784706 0.00019459228947327366 0.0030362127890396547 0.9981430288963137 -0.014444167489616843 0.0016886944730515319 0.005802207713334246
0.037515631513130004 0.00182986934472737 0.007009442020074854 0.9979597204699399 -0.017360419834075064 0.00023470782948362495 0.00364650040809399 -0.00021160968597323823 -0.0022771930851660533
 0.9979597204699399 -0.017360419834075064 0.001829300680365087 0.0070094970746802454 -0.00021156931540586158 -0.0022771911609189956 0.00023897588793071433 0.0036460154980758196
 0.00023470782948362495 0.00364650040809399 -0.00021156931540586158 -0.0022771911609189956 0.0018298671726718816 0.007008942025806804 0.9979597136090071 -0.017360920882107007
 -0.00021160968597323823 -0.0022771930851660533 0.00023897588793071433 0.0036460154980758196 0.9979597136090071 -0.017360920882107007 0.0018292892858227602 0.007008995628286543
0.043768236765320004 0.001978551429808745 0.008229963633866733 0.9977655571040652 -0.02028787002886879 0.0002822771242454738 0.004257328616306269 -0.00025303361110345316 -0.002661139305944892
 0.9977655571040652 -0.02028787002886879 0.0019777778801149904 0.008230030276644937 -0.00025297886863456906 -0.0026611376264644646 0.00028808860708651635 0.004256687268651694
 0.0002822771242454738 0.004257328616306269 -0.00025297886863456906 -0.0026611376264644646 0.0019785487494535887 0.008229380808526362 0.9977655480954083 -0.02028845441888961
 -0.00025303361110345316 -0.002661139305944892 0.00028808860708651635 0.004256687268651694 0.9977655480954083 -0.02028845441888961 0.0019777627752513996 0.008229445367927442
0.050020842017509996 0.0021353110269263583 0.009463876098604006 0.9975603883904323 -0.023226228166720684 0.00033438769846161527 0.0048690221164351495 -0.0002983514326097793 -0.0030461427610998324
 0.9975603883904323 -0.023226228166720684 0.0021343012054107304 0.009463955023453208 -0.0002982801780750792 -0.0030461415373904447 0.00034198213277382596 0.004868197071468938
 0.00033438769846161527 0.0048690221164351495 -0.0002982801780750792 -0.0030461415373904447 0.0021353077812501656 0.009463210581900791 0.9975603769467976 -0.0232268958857843
 -0.0002983514326097793 -0.0030461427610998324 0.00034198213277382596 0.004868197071468938 0.9975603769467976 -0.0232268958857843 0.0021342818960365935 0.009463286670209285
0.055454545454549996 0.0022782289009627456 0.010546885164601184 0.9973730312004746 -0.025788668497194488 0.0003834008406657692 0.00540127905106607 -0.00034093740021695217 -0.003381539612763024
 0.9973730312004746 -0.025788668497194488 0.0022769882699583918 0.010546975324901713 -0.0003408500689341697 -0.003381538971072703 0.0003927398484221868 0.005400270537757483
 0.0003834008406657692 0.00540127905106607 -0.0003408500689341697 -0.003381538971072703 0.0022782251136381332 0.010546147900578636 0.9973730174074723 -0.025789408630022038
 -0.00034093740021695217 -0.003381539612763024 0.0003927398484221868 0.005400270537757483 0.9973730174074723 -0.025789408630022038 0.0022769649121302435 0.0105462344674108
0.056273447269699996 0.002300314353793062 0.010710957441306374 0.9973440576314941 -0.026175569593280185 0.00039109027535972447 0.005481547342683716 -0.00034761603927393634 -0.003432150165388316
 0.9973440576314941 -0.026175569593280185 0.002299036883497952 0.010711049340059625 -0.0003475261464106139 -0.00343214962722803 0.0004007079732301322 0.005480509161718814
 0.00039109027535972447 0.005481547342683716 -0.0003475261464106139 -0.00343214962722803 0.0023003104803797896 0.010710209375178264 0.9973440434654389 -0.026176320638221364
 -0.00034761603927393634 -0.003432150165388316 0.0004007079732301322 0.005480509161718814 0.9973440434654389 -0.026176320638221364 0.0022990128839848597 0.01071029755792987
0.06252605252188 0.002473727158061235 0.011971016979888874 0.9971164071494346 -0.029135934175812617 0.0004524353262264931 0.00609486723748701 -0.00040087986518299744 -0.0038191094528693746
 0.9971164071494346 -0.029135934175812617 0.002472150665506468 0.011971122541155014 -0.0004007692212462974 -0.0038191098488765955 0.00046431739468948726 0.00609358427380996
 0.0004524353262264931 0.00609486723748701 -0.0004007692212462974 -0.0038191098488765955 0.0024737225888126317 0.011970186516840987 0.997116389972326 -0.02913676854512971
 -0.00040087986518299744 -0.0038191094528693746 0.00046431739468948726 0.00609358427380996 0.997116389972326 -0.02913676854512971 0.0024721214981970217 0.011970287351803346
0.06877865777407 0.0026557148605474115 0.013243885205727675 0.9968772784959832 -0.03210733637776322 0.0005184730267119251 0.006708941964899309 -0.00045819489010054414 -0.004206969053065911
 0.9968772784959832 -0.03210733637776322 0.0026538079701287996 0.013244005113776278 -0.0004580613955701866 -0.004206970650747261 0.0005328613704977609 0.006707380334528638
 0.0005184730267119251 0.006708941964899309 -0.0004580613955701866 -0.004206970650747261 0.002655709522405384 0.013242972502674491 0.9968772580186616 -0.03210825407787485
 -0.00045819489010054414 -0.004206969053065911 0.0005328613704977609 0.006707380334528638 0.9968772580186616 -0.03210825407787485 0.0026537731661013106 0.013243086538681037
0.07503126302626001 0.0028464426405088346 0.014529407353967861 0.996626512606444 -0.0350897716459687 0.0005892532187686304 0.007323729360163074 -0.0005196126324976137 -0.004595677431660076
 0.996626512606444 -0.0350897716459687 0.0028441739687721135 0.014529542287865058 -0.0005194542009081656 -0.00459568051746821 0.0006063905377305063 0.007321852912449453
 0.0005892532187686304 0.007323729360163074 -0.0005194542009081656 -0.00459568051746821 0.002846436455655313 0.014528412578048908 0.9966264885391105 -0.03509077268564371
 -0.0005196126324976137 -0.004595677431660076 0.0006063905377305063 0.007321852912449453 0.9966264885391105 -0.03509077268564371 0.00284413306759186 0.01452854035396207
0.08128386827845 0.0030460754866248213 0.015827439137765242 0.9963639499200495 -0.03808322063484064 0.0006648253767699717 0.007939185224450288 -0.0005851841369443193 -0.0049851827867975875
 0.9963639499200495 -0.03808322063484064 0.0030434136366785133 0.01582758977054791 -0.0005849986946943966 -0.004985187666180442 0.0006849551595386635 0.007936955512611811
 0.0006648253767699717 0.007939185224450288 -0.0005849986946943966 -0.004985187666180442 0.003046068371940721 0.015826362461241847 0.9963639219716265 -0.03808430503042273
 -0.0005851841369443193 -0.0049851827867975875 0.0006849551595386635 0.007936955512611811 0.9963639219716265 -0.03808430503042273 0.0030433661862865513 0.01582650450496073
0.08753647353064001 0.0032547782211673785 0.01713784378729956 0.9960894304755772 -0.04108765212630445 0.0007452385751903891 0.008555263531681043 -0.0006549599589267415 -0.0053754328341786405
 0.9960894304755772 -0.04108765212630445 0.003251691777344658 0.017138010785214205 -0.0006547454452740209 -0.0053754398316240015 0.0007686050893887333 0.008552639783315953
 0.0007452385751903891 0.008555263531681043 -0.0006547454452740209 -0.0053754398316240015 0.00325477008924307 0.017136685393294993 0.9960893983543384 -0.04108881989612958
 -0.0006549599589267415 -0.0053754328341786405 0.0007686050893887333 0.008552639783315953 0.9960893983543384 -0.04108881989612958 0.0032516373343126075 0.01713684222096276
0.09378907878283 0.0034727155123664283 0.018460489936412933 0.9958027939960072 -0.04410302510309622 0.0008305414585152634 0.009171916569443054 -0.0007289901462861413 -0.005766374658961332
 0.9958027939960072 -0.04410302510309622 0.0034691730346146335 0.01846067395840957 -0.0007287445132593461 -0.005766384118052227 0.0008573897386460761 0.009168855657071283
 0.0008305414585152634 0.009171916569443054 -0.0007287445132593461 -0.005766384118052227 0.0034727062708694557 0.01845925001794671 0.9958027574082934 -0.044104276268627514
 -0.0007289901462861413 -0.005766374658961332 0.0008573897386460761 0.009168855657071283 0.9958027574082934 -0.044104276268627514 0.0034691111637273437 0.018459422133233535
0.100041684035 0.0037000518712440975 0.01979525007648472 0.9955038799585685 -0.04712929025570759 0.0009207822113383228 0.009789095048296944 -0.0008073242196960301 -0.006157954600256927
 0.9955038799585685 -0.04712929025570759 0.003696021889475988 0.01979545177370115 -0.0008070454320715936 -0.006157966883706426 0.0009513580443011817 0.0097855514599214
 0.0009207822113383228 0.009789095048296944 -0.0008070454320715936 -0.006157966883706426 0.003700041423662779 0.01979392883351898 0.9955038386101959 -0.0471306248446589
 -0.0008073242196960301 -0.006157954600256927 0.0009513580443011817 0.0097855514599214 0.9955038386101959 -0.0471306248446589 0.00369595216445655 0.01979411672702501
0.1059090909091 0.003922077680401569 0.02105868721518816 0.9952120713863866 -0.049978975232429085 0.0010099970178198826 0.010368684250438704 -0.0008847904070339083 -0.006525942676778868
 0.9952120713863866 -0.049978975232429085 0.003917561574703737 0.02105890608367048 -0.0008844786677145446 -0.006525957957554958 0.0010442949602011396 0.010364644179300792
 0.0010099970178198826 0.010368684250438704 -0.0008844786677145446 -0.006525957957554958 0.003922066009246473 0.02105728984817389 0.9952120253010881 -0.04998038813394076
 -0.0008847904070339083 -0.006525942676778868 0.0010442949602011396 0.010364644179300792 0.9952120253010881 -0.04998038813394076 0.003917484099098225 0.021057492981993848
0.1062942892872 0.003936951643065201 0.021141999380950214 0.9951925276621643 -0.05016639111980143 0.0010160085296153818 0.010406748178111248 -0.0008900111509767415 -0.006550118169585405
 0.9951925276621643 -0.05016639111980143 0.003932402651776751 0.02114221939638085 -0.0008896971863084993 -0.006550133659281693 0.0010505584384983967 0.010402673987881614
 0.0010160085296153818 0.010406748178111248 -0.0008896971863084993 -0.006550133659281693 0.003936939888481908 0.021140597023078786 0.9951924812568713 -0.05016780916352593
 -0.0008900111509767415 -0.006550118169585405 0.0010505584384983967 0.010402673987881614 0.9951924812568713 -0.05016780916352593 0.003932324654815284 0.02114080117186121
0.11254689453939999 0.004183578990683247 0.022500614815344877 0.9948685762860993 -0.05321426492888941 0.001116267591972976 0.011024823728148753 -0.0009770993406135443 -0.006942809986626758
 0.9948685762860993 -0.05321426492888941 0.004178479443353859 0.022500853783565217 -0.0009767481892712555 -0.006942829083675998 0.0011550388182623062 0.011020168567100043
 0.001116267591972976 0.011024823728148753 -0.0009767481892712555 -0.006942829083675998 0.004183565824223383 0.02249913156125046 0.9948685245264564 -0.05321576646313286
 -0.0009770993406135443 -0.006942809986626758 0.0011550388182623062 0.011020168567100043 0.9948685245264564 -0.05321576646313286 0.004178392765381527 0.022499352428463175
0.11879949979160001 0.004440097874065431 0.02387097443377168 0.9945318649478382 -0.05627284328191706 0.0012216060314242801 0.011643268074150354 -0.0010686365942059897 -0.0073359737290736885
 0.9945318649478382 -0.05627284328191706 0.004434416177408587 0.023871232980929802 -0.0010682462594209885 -0.007335996853831521 0.0012648465156224866 0.011637979101072062
 0.0012216060314242801 0.011643268074150354 -0.0010682462594209885 -0.007335996853831521 0.004440083186868791 0.023869410512937166 0.9945318075345774 -0.05627442834523216
 -0.0010686365942059897 -0.0073359737290736885 0.0012648465156224866 0.011637979101072062 0.9945318075345774 -0.05627442834523216 0.004434320417993159 0.023869648547646595
0.1250521050438 0.0047066720250281205 0.025252956828423823 0.9941822327564079 -0.059342052658968365 0.001332069906971425 0.012262026235791076 -0.001164670098227034 -0.0077295520932198665
 0.9941822327564079 -0.059342052658968365 0.0047003765331322155 0.02525323557220069 -0.0011642385961282333 -0.00772957968532996 0.0013800282679922728 0.01225604810823069
 0.001332069906971425 0.012262026235791076 -0.0011642385961282333 -0.00772957968532996 0.004706655704416076 0.02525131247839995 0.9941821693884114 -0.05934372129556381
 -0.001164670098227034 -0.0077295520932198665 0.0013800282679922728 0.01225604810823069 0.9941821693884114 -0.05934372129556381 0.004700271300839803 0.02525156811542027
0.131304710296 0.004983464919239253 0.026646440677377075 0.993819518864854 -0.06242181483966533 0.001447704675364204 0.01288104190547578 -0.00126524639486551 -0.00812348676435215
 0.993819518864854 -0.06242181483966533 0.0049765239281530154 0.026646740227176374 -0.001264771754615865 -0.00812351928277293 0.0015006301888243194 0.01287431675087625
 0.001447704675364204 0.01288104190547578 -0.001264771754615865 -0.00812351928277293 0.004983446849166529 0.026644716147228298 0.9938194492393857 -0.06242356709612333
 -0.00126524639486551 -0.00812348676435215 0.0015006301888243194 0.01287431675087625 0.9938194492393857 -0.06242356709612333 0.00497640884041569 0.026644989807257914
0.1375573155481 0.00519843962749275 0.027867744548641275 0.9935157789617671 -0.06532844164325306 0.0015511548389373852 0.013480621102922844 -0.0013529455093824819 -0.008498130739599121
 0.9935157789617671 -0.06532844164325306 0.0051908192430211554 0.02786805989901023 -0.001352425031142436 -0.008498168110406606 0.0016091625278362323 0.013473171432120682
 0.0015511548389373852 0.013480621102922844 -0.001352425031142436 -0.008498168110406606 0.005198420392918217 0.027865939687594043 0.9935157027977811 -0.06533027752870622
 -0.0013529455093824819 -0.008498130739599121 0.0016091625278362323 0.013473171432120682 0.9935157027977811 -0.06533027752870622 0.005190693175661877 0.027866226908494454
0.1438099208003 0.005420632644911905 0.029083951566030133 0.9932019659165188 -0.06822908509183212 0.0016587651197574418 0.014078712286374908 -0.00144416683528246 -0.008871389988402981
 0.9932019659165188 -0.06822908509183212 0.005412300739642748 0.029084283041457545 -0.0014435984352993273 -0.008871432647862026 0.0017220808492376036 0.01407048656086696
 0.0016587651197574418 0.014078712286374908 -0.0014435984352993273 -0.008871432647862026 0.005420612251213998 0.029082066588665394 0.9932018829130265 -0.06823100465000086
 -0.00144416683528246 -0.008871389988402981 0.0017220808492376036 0.01407048656086696 0.9932018829130265 -0.06823100465000086 0.005412163188226477 0.029082367578278118
0.1500625260525 0.005649981625953279 0.03029500059360075 0.9928781445063064 -0.07112371484396562 0.0017705076649638723 0.014675285296332665 -0.0015388827873483546 -0.00924323368726293
 0.9928781445063064 -0.07112371484396562 0.005640906001729302 0.030295348554619773 -0.0015382643853991448 -0.009243282088846408 0.0018393563532711783 0.01466623014256923
 0.0017705076649638723 0.014675285296332665 -0.0015382643853991448 -0.009243282088846408 0.0056499600832406955 0.03029303572178959 0.9928780543607735 -0.07112571812071382
 -0.0015388827873483546 -0.00924323368726293 0.0018393563532711783 0.01466623014256923 0.9928780543607735 -0.07112571812071382 0.005640756461512514 0.030293350721112312
0.15631513130469998 0.0058864239572920946 0.03150083261719782 0.9925443796439768 -0.07401229992361073 0.0018863544041197143 0.015270310338460632 -0.0016370655426825034 -0.00961363157847784
