! Created with skrf 1.8.0 (http://scikit-rf.org).
# GHz S RI R 50.0 
!freq ReS11 ImS11 ReS12 ImS12 ReS13 ImS13
! ReS14 ImS14
! ReS21 ImS21 ReS22 ImS22 ReS23 ImS23
! ReS24 ImS24
! ReS31 ImS31 ReS32 ImS32 ReS33 ImS33
! ReS34 ImS34
! ReS41 ImS41 ReS42 ImS42 ReS43 ImS43
! ReS44 ImS44
!
0.0 0.001609411233175 0.0 0.9983905887668 0.0 6.19126223787e-05 0.0 -6.191262157906e-05 7.582109384361719e-21
 0.9983905887668 0.0 0.001609411233168 0.0 -6.191262157919e-05 7.582109384377638e-21 6.191262237827e-05 0.0
 6.19126223787e-05 0.0 -6.191262157919e-05 7.582109384377638e-21 0.001609411217545 0.0 0.9983905887512 0.0
 -6.191262157906e-05 7.582109384361719e-21 6.191262237827e-05 0.0 0.9983905887512 0.0 0.001609411217531 0.0
0.005 0.0017317184425558745 0.0013215921446225892 0.9982358317532515 -0.003370808748459452 8.611810026622355e-05 0.0006510965867313269 -8.375157290667503e-05 -0.00041408497854490304
 0.9982358317532515 -0.003370808748459452 0.00173175018290902 0.0013215735564122884 -8.375263646098735e-05 -0.00041408571258462576 8.591850564414449e-05 0.0006511725519324887
 8.611810026622355e-05 0.0006510965867313269 -8.375263646098735e-05 -0.00041408571258462576 0.0017317186863609457 0.0013216592074329818 0.9982358321137764 -0.0033707416942494266
 -8.375157290667503e-05 -0.00041408497854490304 8.591850564414449e-05 0.0006511725519324887 0.9982358321137764 -0.0033707416942494266 0.001731750657035597 0.0013216405999611329
0.006252605252188 0.0017638486940489612 0.0016571571857115564 0.9981949108189745 -0.004214323840309994 9.307424256291448e-05 0.0008141961386112959 -8.993425453449233e-05 -0.0005181311010431088
 0.9981949108189745 -0.004214323840309994 0.0017638983103747837 0.0016571335780619428 -8.993591016654772e-05 -0.000518132004222225 9.276239463493911e-05 0.0008142948053460354
 9.307424256291448e-05 0.0008141961386112959 -8.993591016654772e-05 -0.000518132004222225 0.0017638490010918114 0.0016572410109697356 0.9981949113079678 -0.0042142400174276
 -8.993425453449233e-05 -0.0005181311010431088 9.276239463493911e-05 0.0008142948053460354 0.9981949113079678 -0.0042142400174276 0.0017638989764303715 0.0016572173937382804
0.01250521050438 0.0019332967976040882 0.0033487533987490337 0.9979776317703456 -0.008429357746987236 0.00013318047442624197 0.001628808236512304 -0.00012510353457904336 -0.0010387082161612904
 0.9979776317703456 -0.008429357746987236 0.001933494922919724 0.0033487024110143908 -0.0001251100672698995 -0.0010387098632671382 0.00013193688874103598 0.001629045705255899
 0.00013318047442624197 0.001628808236512304 -0.0001251100672698995 -0.0010387098632671382 0.0019332974876161316 0.0033489207005504354 0.9979776331796776 -0.008429190357367961
 -0.00012510353457904336 -0.0010387082161612904 0.00013193688874103598 0.001629045705255899 0.9979776331796776 -0.008429190357367961 0.001933497029149135 0.003348869840991561
0.01875781575657 0.00211813790300383 0.005064189579202869 0.9977384727632906 -0.012655340736319012 0.00018232541258891244 0.002444333720773967 -0.00016753027679033205 -0.0015610162795206106
 0.9977384727632906 -0.012655340736319012 0.002118583111579922 0.0050641071210730864 -0.00016754485594082648 -0.0015610184762176447 0.0001795318151054165 0.002444758233065218
 0.00018232541258891244 0.002444333720773967 -0.00016754485594082648 -0.0015610184762176447 0.002118139044605675 0.005064440163117597 0.9977384755075448 -0.012655089860067989
 -0.00016753027679033205 -0.0015610162795206106 0.0001795318151054165 0.002444758233065218 0.9977384755075448 -0.012655089860067989 0.0021185874010502793 0.005064358123439196
0.02501042100875 0.002318742318744858 0.0068010615583430105 0.9974771435516546 -0.01689430495638221 0.0002406049704662185 0.0032607850126269997 -0.00021732069091602967 -0.00208481907123805
 0.9974771435516546 -0.01689430495638221 0.002319532994684313 0.006800943255720812 -0.00021734645149867744 -0.002084821585118574 0.00023564285496158367 0.003261452652746095
 0.0002406049704662185 0.0032607850126269997 -0.00021734645149867744 -0.002084821585118574 0.0023187439927256073 0.006801395232367052 0.9974771480497157 -0.016893970648510642
 -0.00021732069091602967 -0.00208481907123805 0.00023564285496158367 0.003261452652746095 0.9974771480497157 -0.016893970648510642 0.0023195402019451613 0.006801277797654582
0.03126302626094 0.0025354650675572512 0.008558124603185705 0.9971933395184684 -0.021147111126730504 0.00030811549785752737 0.004078103018937803 -0.00027457794986882365 -0.0026099455937021207
 0.9971933395184684 -0.021147111126730504 0.0025366994586953524 0.008557965805152279 -0.00027461799818475876 -0.002609948153870773 0.00030036555912137987 0.004079077761128568
 0.00030811549785752737 0.004078103018937803 -0.00027461799818475876 -0.002609948153870773 0.0025354673632276476 0.008558541182598417 0.997193346191812 -0.02114669341199478
 -0.00027457794986882365 -0.0026099455937021207 0.00030036555912137987 0.004079077761128568 0.997193346191812 -0.02114669341199478 0.002536710307690628 0.008558383868038996
0.037515631513130004 0.0027686533820169544 0.01033456142540767 0.9968867494266261 -0.02541418046750415 0.0003849527644031291 0.004896200080243813 -0.00033940287238599486 -0.003136247117529062
 0.9968867494266261 -0.02541418046750415 0.002770429637072017 0.01033435720734547 -0.00033946028889551665 -0.003136249414417626 0.0003737946482083874 0.004897553868140604
 0.0003849527644031291 0.004896200080243813 -0.00033946028889551665 -0.003136249414417626 0.0027686563933793803 0.010335060707883021 0.9968867586961436 -0.02541367936496022
 -0.00033940287238599486 -0.003136247117529062 0.0003737946482083874 0.004897553868140604 0.9968867586961436 -0.02541367936496022 0.0027704448385457384 0.010334858762236703
0.043768236765320004 0.0030186495965711818 0.012129759410928503 0.9965570585705383 -0.029695717396845275 0.0004712114735375437 0.00571497304133985 -0.0004118941635308425 -0.003663584114838139
 0.9965570585705383 -0.029695717396845275 0.0030210657939102282 0.01212950457630475 -0.0004119720044488458 -0.0036635858001103716 0.00045602366198558485 0.005716785877374053
 0.0004712114735375437 0.00571497304133985 -0.0004119720044488458 -0.0036635858001103716 0.0030186534232257284 0.01213034118530466 0.9965570708585882 -0.0296951329108111
 -0.0004118941635308425 -0.003663584114838139 0.00045602366198558485 0.005716785877374053 0.9965570708585882 -0.0296951329108111 0.003021086047220595 0.012130089592821764
0.050020842017509996 0.003285792486871163 0.013943218560938593 0.996203950381578 -0.03399180151486445 0.0005669849731573793 0.006534308635629408 -0.0004921484879765475 -0.004191820883906531
 0.996203950381578 -0.03399180151486445 0.003288946660256661 0.013942907642052735 -0.000492249786238466 -0.004191821570382111 0.0005471447418405801 0.006536668674502535
 0.0005669849731573793 0.006534308635629408 -0.000492249786238466 -0.004191821570382111 0.0032857972322959126 0.013943882602796658 0.9962039661112566 -0.033991133639092924
 -0.0004921484879765475 -0.004191820883906531 0.0005471447418405801 0.006536668674502535 0.9962039661112566 -0.033991133639092924 0.0032889726524235516 0.013943576084199796
0.055454545454549996 0.0035321338914835964 0.015533662667001983 0.9958778243667975 -0.0377370443005257 0.0006580135425230363 0.007246699431241221 -0.0005682700084285536 -0.004651500881460003
 0.9958778243667975 -0.0377370443005257 0.0035360089868028298 0.015533298358107605 -0.0005683941372652241 -0.00465150035529698 0.0006336235523713944 0.007249613001436424
 0.0006580135425230363 0.007246699431241221 -0.0005683941372652241 -0.00465150035529698 0.003532139523194354 0.015534398006511843 0.9958778434328199 -0.0377363039458181
 -0.0005682700084285536 -0.004651500881460003 0.0006336235523713944 0.007249613001436424 0.9958778434328199 -0.0377363039458181 0.003536040516197531 0.015534039263417404
0.056273447269699996 0.0035704179497556255 0.015774506308941907 0.9958271073786398 -0.03830243271342866 0.000672365042703183 0.007354086156979918 -0.000580260478740711 -0.004720822891061155
 0.9958271073786398 -0.03830243271342866 0.003574408111793004 0.015774133566847384 -0.0005803882445208379 -0.004720822152654507 0.0006472484617233552 0.007357089800857764
 0.000672365042703183 0.007354086156979918 -0.0005803882445208379 -0.004720822152654507 0.003570423722147342 0.0157752523771817 0.9958271269753854 -0.0383016814342888
 -0.000580260478740711 -0.004720822891061155 0.0006472484617233552 0.007357089800857764 0.9958271269753854 -0.0383016814342888 0.003574440519502943 0.015774885389717365
0.06252605252188 0.0038728593644117284 0.017623232671554717 0.9954262118042666 -0.042627555955608354 0.0007874417281195084 0.008174178903391912 -0.0006763227036052703 -0.00525045534568167
 0.9954262118042666 -0.042627555955608354 0.0038777835291393344 0.01762279209528081 -0.0006764799246744068 -0.005250452717355802 0.0007564236916451768 0.008177930897713811
 0.0007874417281195084 0.008174178903391912 -0.0006764799246744068 -0.005250452717355802 0.0038728662746032533 0.01762406051394953 0.9954262356950659 -0.04262672124640654
 -0.0006763227036052703 -0.00525045534568167 0.0007564236916451768 0.008177930897713811 0.9954262356950659 -0.04262672124640654 0.00387782301695845 0.017623627250734762
0.06877865777407 0.0041934477731728256 0.01948903545094724 0.9950009460858411 -0.046967076008153384 0.0009123031967417862 0.008994455066153506 -0.0007804256136979884 -0.005780582334840671
 0.9950009460858411 -0.046967076008153384 0.004199403977479303 0.019488520756021487 -0.0007806152555295832 -0.005780577312569693 0.0008747574733007055 0.008999068595375387
 0.0009123031967417862 0.008994455066153506 -0.0007806152555295832 -0.005780577312569693 0.004193455935431757 0.019489944793472755 0.995000974700799 -0.046966157839473714
 -0.0007804256136979884 -0.005780582334840671 0.0008747574733007055 0.008999068595375387 0.995000974700799 -0.046966157839473714 0.004199451199826664 0.019489439182142666
0.07503126302626001 0.004532511961200329 0.021371570837217177 0.9945509931993173 -0.0513208667792226 0.0010470356079012226 0.009814778284498909 -0.0008926574773399274 -0.006311066297817866
 0.9945509931993173 -0.0513208667792226 0.004539598286219253 0.021370975463361384 -0.0008928824831019685 -0.00631105833856103 0.0010023349058281546 0.009820375067377813
 0.0010470356079012226 0.009814778284498909 -0.0008928824831019685 -0.00631105833856103 0.0045325214908883546 0.021372561393171785 0.9945510269703975 -0.051319865109816516
 -0.0008926574773399274 -0.006311066297817866 0.0010023349058281546 0.009820375067377813 0.9945510269703975 -0.051319865109816516 0.004539653885807555 0.02137197709368852
0.08128386827845 0.0048903784676189175 0.023270507171867776 0.994076036969275 -0.055688777501015155 0.0011917229911542083 0.010635008029391371 -0.0010131043061474007 -0.006841767677037927
 0.994076036969275 -0.055688777501015155 0.004898693059918067 0.023269824280139486 -0.001013367596675751 -0.006841756198711403 0.001139239036216492 0.010641718413491943
 0.0011917229911542083 0.010635008029391371 -0.001013367596675751 -0.006841756198711403 0.0048903894823289044 0.02327157863508344 0.9940760763321685 -0.055687692284310725
 -0.0010131043061474007 -0.006841767677037927 0.001139239036216492 0.010641718413491943 0.9940760763321685 -0.055687692284310725 0.004898757669284245 0.023270909036926357
0.08753647353064001 0.005267371555107697 0.025185520625188862 0.9935757623308397 -0.06007063700456493 0.0013464471307309744 0.011454999874983229 -0.0011418497747991674 -0.0073725446870569755
 0.9935757623308397 -0.06007063700456493 0.005277012647678432 0.02518474309418934 -0.0011421542483905733 -0.007372529068525214 0.00128555075341589 0.011462962930222744
 0.0013464471307309744 0.011454999874983229 -0.0011421542483905733 -0.007372529068525214 0.005267384172535675 0.025186672673323147 0.9935758077241783 -0.06006946818534379
 -0.0011418497747991674 -0.0073725446870569755 0.00128555075341589 0.011462962930222744 0.9935758077241783 -0.06006946818534379 0.005277086888199493 0.02518591089179595
0.09378907878283 0.005663813147745504 0.02711629212047106 0.9930498555644812 -0.06446625675435531 0.0015112874532405922 0.012274605700409376 -0.0012789751368622762 -0.007903253159108047
 0.9930498555644812 -0.06446625675435531 0.005674879080895119 0.027115412541984057 -0.0012793236690621277 -0.0079032327401865 0.0014413486844095551 0.012283969311339486
 0.0015112874532405922 0.012274605700409376 -0.0012793236690621277 -0.0079032327401865 0.005663827485704207 0.02711752441160078 0.9930499074307966 -0.06446500427206878
 -0.0012789751368622762 -0.007903253159108047 0.0014413486844095551 0.012283969311339486 0.9930499074307966 -0.06446500427206878 0.005674963563589243 0.027116663283477904
0.100041684035 0.006080022747235707 0.029062505074787567 0.9924980045127536 -0.0688754330733007 0.001686320918503946 0.013093673846201949 -0.001424559137136385 -0.00843374643708092
 0.9924980045127536 -0.0688754330733007 0.006092611989874304 0.029061515748461393 -0.0014249545805245668 -0.008433720518534133 0.0016067090919002216 0.01310459480303486
 0.001686320918503946 0.013093673846201949 -0.0014249545805245668 -0.008433720518534133 0.006080038922865473 0.029063817251730975 0.992498063298398 -0.06887409685762375
 -0.001424559137136385 -0.00843374643708092 0.0016067090919002216 0.01310459480303486 0.992498063298398 -0.06887409685762375 0.006092707314940193 0.029062849330020398
0.1059090909091 0.006488852494628742 0.03090258204975959 0.9919562782736867 -0.07302511367908607 0.0018599081081703786 0.01386165532442407 -0.001568935183898633 -0.008931229512013009
 0.9919562782736867 -0.07302511367908607 0.0065029608910919055 0.03090148246781207 -0.0015693772220929064 -0.008931197761937406 0.0017706450335444204 0.013874188295889303
 0.0018599081081703786 0.01386165532442407 -0.0015693772220929064 -0.008931197761937406 0.006488870499817584 0.0309039688481316 0.9919563439619985 -0.07302369882031404
 -0.001568935183898633 -0.008931229512013009 0.0017706450335444204 0.013874188295889303 0.9919563439619985 -0.07302369882031404 0.006503066927060478 0.030902893680920984
0.1062942892872 0.006516317333844844 0.031023843708805513 0.9919198987852083 -0.07329794880570924 0.0018716219119644319 0.013912049242952659 -0.0015786779217743679 -0.00896387530740002
 0.9919198987852083 -0.07329794880570924 0.0065305285045860065 0.03102273663610968 -0.0015791231056278509 -0.008963843150964834 0.0017817057731848362 0.013924693331049148
 0.0018716219119644319 0.013912049242952659 -0.0015791231056278509 -0.008963843150964834 0.006516335462732399 0.03102523539425105 0.99191996494069 -0.0732965287813995
 -0.0015786779217743679 -0.00896387530740002 0.0017817057731848362 0.013924693331049148 0.99191996494069 -0.0732965287813995 0.0065306352617106305 0.031024152942140774
0.11254689453939999 0.006973011253787559 0.03299999175197974 0.9913152299532675 -0.0777335745923166 0.0020672621385925414 0.014729573517131075 -0.0017414049466717278 -0.009493487958073067
 0.9913152299532675 -0.0777335745923166 0.006988943142043533 0.032998758629373466 -0.0017419026766511926 -0.009493448786484504 0.0019664099594060864 0.014744115604870316
 0.0020672621385925414 0.014729573517131075 -0.0017419026766511926 -0.009493448786484504 0.0069730314492567535 0.033001462551735763 0.9913153039338092 -0.07773207067600404
 -0.0017414049466717278 -0.009493487958073067 0.0019664099594060864 0.014744115604870316 0.9913153039338092 -0.07773207067600404 0.006989061910286762 0.03300025753574273
0.11879949979160001 0.007450416097749453 0.034990631443568405 0.9906836917394882 -0.08218206985711654 0.0022733105176775585 0.015546085086962617 -0.0019128108845241955 -0.010022429954114887
 0.9906836917394882 -0.08218206985711654 0.007468167685280205 0.03498926365475012 -0.0019133639422878393 -0.010022382951153328 0.0021608902156259138 0.015562709211889873
 0.0022733105176775585 0.015546085086962617 -0.0019133639422878393 -0.010022382951153328 0.007450438470357994 0.03499218094574975 0.9906837740053279 -0.08218048195808664
 -0.0019128108845241955 -0.010022429954114887 0.0021608902156259138 0.015562709211889873 0.9906837740053279 -0.08218048195808664 0.007468299033431188 0.03499084502795296
0.1250521050438 0.007948840571556922 0.03699544274468539 0.9900249802024101 -0.08664318359105644 0.002489833078605322 0.016361419246096798 -0.0020929635308938356 -0.010550544231678088
 0.9900249802024101 -0.08664318359105644 0.007968511053994919 0.03699393135190403 -0.0020935746737744186 -0.010550488542198902 0.0023652123411448465 0.016380318699199932
 0.002489833078605322 0.016361419246096798 -0.0020935746737744186 -0.010550488542198902 0.00794886522807761 0.03699707051829741 0.9900250712188259 -0.08664151161271198
 -0.0020929635308938356 -0.010550544231678088 0.0023652123411448465 0.016380318699199932 0.9900250712188259 -0.08664151161271198 0.007968655539974048 0.03699559504768406
0.131304710296 0.008468590360552381 0.039014102709623424 0.9893387939168904 -0.09111665498425386 0.0027168928577476444 0.017175408243578265 -0.0022819277091504784 -0.011077671102530263
 0.9893387939168904 -0.09111665498425386 0.008490279168652368 0.03901243844431744 -0.002282599669702874 -0.011077605832543419 0.0025794392707920305 0.017196785651630183
 0.0027168928577476444 0.017175408243578265 -0.002282599669702874 -0.011077605832543419 0.008468617403565509 0.03901580830665164 0.989338894154914 -0.0911148988220886
 -0.0022819277091504784 -0.011077671102530263 0.0025794392707920305 0.017196785651630183 0.989338894154914 -0.0911148988220886 0.008490437340398168 0.03901418430958214
0.1375573155481 0.008892645072127642 0.04078475782315316 0.9887422038723823 -0.09534057145362855 0.0029269611348691016 0.01796249974461323 -0.0024523381345173986 -0.011578163627064191
 0.9887422038723823 -0.09534057145362855 0.008916458539696805 0.040782965482680594 -0.002453074733764629 -0.01157808865838084 0.002776359872283853 0.017986330525105027
 0.0029269611348691016 0.01796249974461323 -0.002453074733764629 -0.01157808865838084 0.008892673627789513 0.04078654141359842 0.9887423137516353 -0.09533873107700214
 -0.0024523381345173986 -0.011578163627064191 0.002776359872283853 0.017986330525105027 0.9887423137516353 -0.09533873107700214 0.008916632016674577 0.04078479287188186
0.1438099208003 0.009331695554084992 0.042545765716626584 0.9881244865376608 -0.09955342085251032 0.003145512178262578 0.018746034483351322 -0.0026295387036851968 -0.012075460902062223
 0.9881244865376608 -0.09955342085251032 0.009357734447925032 0.042543837952883884 -0.002630342834847021 -0.01207537535826632 0.0029811880248543834 0.018772504598287772
 0.003145512178262578 0.018746034483351322 -0.002630342834847021 -0.01207537535826632 0.009331725541920688 0.042547626903802566 0.9881246065258326 -0.09955149616737803
 -0.0026295387036851968 -0.012075460902062223 0.0029811880248543834 0.018772504598287772 0.9881246065258326 -0.09955149616737803 0.00935792395826255 0.042545746645832126
0.1500625260525 0.009785581904619634 0.04429696886645091 0.9874858060123594 -0.10375508739142017 0.0033724672135909397 0.019525920711536984 -0.00281345432165226 -0.01256947939635513
 0.9874858060123594 -0.10375508739142017 0.009813947246640947 0.04429489789209039 -0.0028143288673444676 -0.012569382366375765 0.0031938485220846012 0.01955522293134236
 0.0033724672135909397 0.019525920711536984 -0.0028143288673444676 -0.012569382366375765 0.009785613228682695 0.04429890724368307 0.9874859365818459 -0.10375307829783915
 -0.00281345432165226 -0.01256947939635513 0.0031938485220846012 0.01955522293134236 0.9874859365818459 -0.10375307829783915 0.009814153521540147 0.044296887660383345
0.15631513130469998 0.01025414303019517 0.046038214474230545 0.9868263272897038 -0.10794545592148214 0.0036077464908798322 0.020302068306760325 -0.003004008936428229 -0.013060137400560947
 0.9868263272897038 -0.10794545592148214 0.010284936104254083 0.046035992051334046 -0.0030049567684688363 -0.013060027938948646 0.0034142652379710297 0.020334402138157695
