! Created with skrf 1.8.0 (http://scikit-rf.org).
# GHz S RI R 50.0 
!freq ReS11 ImS11 ReS12 ImS12 ReS13 ImS13
! ReS14 ImS14
! ReS21 ImS21 ReS22 ImS22 ReS23 ImS23
! ReS24 ImS24
! ReS31 ImS31 ReS32 ImS32 ReS33 ImS33
! ReS34 ImS34
! ReS41 ImS41 ReS42 ImS42 ReS43 ImS43
! ReS44 ImS44
!
0.0 0.001899017363671 0.0 0.9981009826285 0.0 7.390140733348e-05 0.0 -7.390140706086e-05 9.050312160956782e-21
 0.9981009826285 0.0 0.00189901736366 0.0 -7.390140706108e-05 9.050312160983724e-21 7.390140733256e-05 0.0
 7.390140733348e-05 0.0 -7.390140706108e-05 9.050312160983724e-21 0.001899017354585 0.0 0.9981009826194 0.0
 -7.390140706086e-05 9.050312160956782e-21 7.390140733256e-05 0.0 0.9981009826194 0.0 0.001899017354561 0.0
0.005 0.002044470120698504 0.0015511877348755904 0.9979167698344065 -0.003976719415012139 0.00010434933551395164 0.0008212130061004675 -0.00010129763216957801 -0.0005139892275463259
 0.9979167698344065 -0.003976719415012139 0.0020444393494255327 0.0015512057661173754 -0.00010130010763414165 -0.0005139911673025746 0.00010452648249578146 0.0008211453521518238
 0.00010434933551395164 0.0008212130061004675 -0.00010130010763414165 -0.0005139911673025746 0.0020444690309540264 0.0015512557083193744 0.9979167702263608 -0.003976652349980658
 -0.00010129763216957801 -0.0005139892275463259 0.00010452648249578146 0.0008211453521518238 0.9979167702263608 -0.003976652349980658 0.0020444412130127434 0.0015512719137869765
0.006252605252188 0.0020830002363906486 0.0019450391724243096 0.9978676130257931 -0.004971811242907584 0.00011322561694711822 0.0010268881452987764 -0.00010920742362348441 -0.0006431294198707779
 0.9978676130257931 -0.004971811242907584 0.0020829521348209173 0.0019450620837780403 -0.00010921127526754129 -0.0006431318112584919 0.00011350238666477683 0.001026800223519901
 0.00011322561694711822 0.0010268881452987764 -0.00010921127526754129 -0.0006431318112584919 0.0020829984480886963 0.0019451241361547436 0.9978676135544489 -0.004971727416856078
 -0.00010920742362348441 -0.0006431294198707779 0.00011350238666477683 0.001026800223519901 0.9978676135544489 -0.004971727416856078 0.0020829549642986333 0.0019451447521637907
0.01250521050438 0.002288054654670904 0.0039302942830019335 0.9976040489641883 -0.009943968359895429 0.00016506772510409393 0.0020539494340308154 -0.00015502400199890088 -0.00128912730815196
 0.9976040489641883 -0.009943968359895429 0.002287862576548501 0.003930343897819355 -0.00015503917619761037 -0.0012891317200440804 0.00016617128684175882 0.002053736867412145
 0.00016506772510409393 0.0020539494340308154 -0.00015503917619761037 -0.0012891317200440804 0.002288046967415913 0.003930463982546474 0.9976040505404379 -0.009943800944849136
 -0.00015502400199890088 -0.00128912730815196 0.00016617128684175882 0.002053736867412145 0.9976040505404379 -0.009943800944849136 0.00228787334260873 0.003930508841727637
0.01875781575657 0.0025147049481567883 0.005943168931987904 0.9973099086938894 -0.014928477698588958 0.00022956103265854954 0.0030818191961116716 -0.00021150775426279642 -0.0019369929149297728
 0.9973099086938894 -0.014928477698588958 0.0025142733196780198 0.00594324941038294 -0.00021154158547049997 -0.0019369988916671103 0.0002320397342888916 0.0030814368517859815
 0.00022956103265854954 0.0030818191961116716 -0.00021154158547049997 -0.0019369988916671103 0.0025146872296132558 0.005943423288799888 0.9973099118159459 -0.014928226758430273
 -0.00021150775426279642 -0.0019369929149297728 0.0002320397342888916 0.0030814368517859815 0.9973099118159459 -0.014928226758430273 0.002514297094316933 0.005943496286779429
0.02501042100875 0.002763455010644999 0.007980740687228146 0.9969847935396637 -0.01992765215957752 0.0003068390066241892 0.004110479355144658 -0.00027880826249405803 -0.00258636812139347
 0.9969847935396637 -0.01992765215957752 0.0027626884311230675 0.007980856525698176 -0.0002788679938212 -0.0025863751152714375 0.00031124113258889263 0.0041098739249916865
 0.0003068390066241892 0.004110479355144658 -0.0002788679938212 -0.0025863751152714375 0.0027634231290190707 0.007981079676074282 0.9969847987150764 -0.019927317679027858
 -0.00027880826249405803 -0.00258636812139347 0.00031124113258889263 0.0041098739249916865 0.9969847987150764 -0.019927317679027858 0.0027627302839413684 0.007981184948952053
0.03126302626094 0.0030347875039488125 0.010041453502795238 0.996628287676236 -0.024942418776509673 0.0003970341253786477 0.005139814674594273 -0.0003570694630176191 -0.0032369814248031075
 0.996628287676236 -0.024942418776509673 0.0030335906880340773 0.010041609529603406 -0.00035716226103892735 -0.0032369887953066466 0.000403908363097064 0.005138924627328031
 0.0003970341253786477 0.005139814674594273 -0.00035716226103892735 -0.0032369887953066466 0.0030347373203165086 0.010041877083666668 0.9966282954180825 -0.02494200072925879
 -0.0003570694630176191 -0.0032369814248031075 0.000403908363097064 0.005138924627328031 0.9966282954180825 -0.02494200072925879 0.003033655682561736 0.010042019002708295
0.037515631513130004 0.0033291733899602277 0.012124253319204161 0.9962399681751253 -0.029973183074032548 0.0005002766524308095 0.00616967057945224 -0.00044643066447454043 -0.0038885902031720212
 0.9962399681751253 -0.029973183074032548 0.0033274511283203217 0.012124454693279735 -0.0004465636268518667 -0.0038885972168249097 0.0005101722756459129 0.006168426083362601
 0.0005002766524308095 0.00616967057945224 -0.0004465636268518667 -0.0038885972168249097 0.0033291007541189545 0.012124761478789192 0.996239979000343 -0.0299726813815444
 -0.00044643066447454043 -0.0038885902031720212 0.0005101722756459129 0.006168426083362601 0.996239979000343 -0.0299726813815444 0.003327544317993105 0.012124944648376938
0.043768236765320004 0.003647075572427619 0.014228325097602964 0.9958194091557729 -0.03502009198060902 0.000616694023453322 0.007199870759580704 -0.000547026868532166 -0.0045409631893344035
 0.9958194091557729 -0.03502009198060902 0.0036447326984688127 0.01422857730948927 -0.0005472070283055775 -0.004540969019725182 0.0006301609534933979 0.007198193596521221
 0.000616694023453322 0.007199870759580704 -0.0005472070283055775 -0.004540969019725182 0.003646976323688454 0.014228917814169914 0.9958194235883834 -0.03501950654767109
 -0.000547026868532166 -0.0045409631893344035 0.0006301609534933979 0.007198193596521221 0.9958194235883834 -0.03501950654767109 0.003644859127990212 0.014229147071394633
0.050020842017509996 0.003988950554010845 0.016352984082767707 0.9953661839568441 -0.040083142514725875 0.0007464104438847425 0.008230224463942363 -0.0006589888482170687 -0.005193873258508986
 0.9953661839568441 -0.040083142514725875 0.003985891915039027 0.01635329295655022 -0.000659223176554415 -0.00519387698636506 0.0007639992460271296 0.008228027940176578
 0.0007464104438847425 0.008230224463942363 -0.000659223176554415 -0.00519387698636506 0.003988820519470444 0.016353661339203095 0.9953662025279866 -0.04008247321684572
 -0.0006589888482170687 -0.005193873258508986 0.0007639992460271296 0.008228027940176578 0.9953662025279866 -0.04008247321684572 0.003986056617912116 0.016353941754482692
0.055454545454549996 0.004305869447538301 0.018215623082083954 0.9949454576154328 -0.04449612027185607 0.0008700322089791965 0.009125601403513366 -0.0007656159653746908 -0.005761532182097526
 0.9949454576154328 -0.04449612027185607 0.004302111501341389 0.018215986188180284 -0.000765902982467734 -0.005761533264187021 0.0008916506369577966 0.00912287648340111
 0.0008700322089791965 0.009125601403513366 -0.000765902982467734 -0.005761533264187021 0.0043057092600565245 0.01821637379860759 0.9949454802211759 -0.044495377966734376
 -0.0007656159653746908 -0.005761532182097526 0.0008916506369577966 0.00912287648340111 0.9949454802211759 -0.044495377966734376 0.0043023135432375915 0.01821670297222075
0.056273447269699996 0.004355249240535386 0.018497622502028233 0.9948798664577706 -0.04516223504221714 0.0008895465823410241 0.009260530106237373 -0.0007824431155517606 -0.00584709391289314
 0.9948798664577706 -0.04516223504221714 0.004351379670012038 0.018497994198656102 -0.0007827385233987689 -0.005847094526193551 0.0009118084221413735 0.009257718962527464
 0.0008895465823410241 0.009260530106237373 -0.0007827385233987689 -0.005847094526193551 0.0043550842338574884 0.018498384288880707 0.9948798897070859 -0.045161481723190545
 -0.0007824431155517606 -0.00584709391289314 0.0009118084221413735 0.009257718962527464 0.9948798897070859 -0.045161481723190545 0.004351587667200288 0.018498721167863
0.06252605252188 0.004746417331431937 0.020661680247673307 0.9943600319945908 -0.05025720256087219 0.0010462193102218945 0.010290577262997617 -0.0009175118339566508 -0.006500397384240143
 0.9943600319945908 -0.05025720256087219 0.004741641622830421 0.020662121269234977 -0.0009178751731705949 -0.006500393778324436 0.0010737058833709013 0.010287047585001595
 0.0010462193102218945 0.010290577262997617 -0.0009178751731705949 -0.006500393778324436 0.004746213153481254 0.02066252655569736 0.9943600604723307 -0.05025636504089268
 -0.0009175118339566508 -0.006500397384240143 0.0010737058833709013 0.010287047585001595 0.9943600604723307 -0.05025636504089268 0.00474189792209698 0.020662925442178303
0.06877865777407 0.005162895479733164 0.022844627416669993 0.993806258049643 -0.05536782813964005 0.0012165414676446854 0.011320147896631324 -0.0010643126990736264 -0.007153553522916548
 0.993806258049643 -0.05536782813964005 0.005157118361008726 0.022845144611756265 -0.001064750763059503 -0.0071535445006247755 0.0012498049106351116 0.011315787026318545
 0.0012165414676446854 0.011320147896631324 -0.001064750763059503 -0.0071535445006247755 0.00516264791595746 0.02284555824113949 0.993806292316027 -0.05536690621161145
 -0.0010643126990736264 -0.007153553522916548 0.0012498049106351116 0.011315787026318545 0.993806292316027 -0.05536690621161145 0.005157427953463189 0.022846024921002427
0.07503126302626001 0.005605119313683447 0.02504595326501442 0.9932181248088826 -0.06049385595654799 0.0014006216452785443 0.012349017148938582 -0.0012229588000728317 -0.007806329128601997
 0.9932181248088826 -0.06049385595654799 0.005598245422061253 0.02504655383524456 -0.0012234783241623964 -0.007806313400405618 0.0014402144314891096 0.012343703597515986
 0.0014006216452785443 0.012349017148938582 -0.0012234783241623964 -0.007806313400405618 0.005604824134950972 0.025046968599556064 0.9932181654368061 -0.06049284939303724
 -0.0012229588000728317 -0.007806329128601997 0.0014402144314891096 0.012343703597515986 0.9932181654368061 -0.06049284939303724 0.005598613281507782 0.025047509106001627
0.08128386827845 0.006073519375000483 0.027265158861577758 0.9925952156411546 -0.06563499865136078 0.0015985639762861113 0.013376953899011647 -0.0013935584685216117 -0.008458487529288761
 0.9925952156411546 -0.06563499865136078 0.006065453232151012 0.027265850369084667 -0.0013941661300338236 -0.008458463713447372 0.0016450388006672178 0.013370557261672423
 0.0015985639762861113 0.013376953899011647 -0.0013941661300338236 -0.008458463713447372 0.006073172335775869 0.027266258710852195 0.9925952632164583 -0.06563390719278676
 -0.0013935584685216117 -0.008458487529288761 0.0016450388006672178 0.013370557261672423 0.9925952632164583 -0.06563390719278676 0.0060658843125095 0.027266879330432512
0.08753647353064001 0.006568520998085287 0.029501752039511196 0.9919371175232342 -0.07079094239556735 0.0018104679350274876 0.01440372117429878 -0.0015762151193580854 -0.009109788320136458
 0.9919371175232342 -0.07079094239556735 0.006559166985094632 0.029502542415756543 -0.001576917537581541 -0.009109754942852722 0.0018643775888611222 0.014396102047042943
 0.0018104679350274876 0.01440372117429878 -0.001576917537581541 -0.009109754942852722 0.006568117836527006 0.029502936409143265 0.9919371726462686 -0.07078976576112159
 -0.0015762151193580854 -0.009109788320136458 0.0018643775888611222 0.014396102047042943 0.9919371726462686 -0.07078976576112159 0.006559666218654013 0.02950364368923988
0.09378907878283 0.007090544149518193 0.03175524379635514 0.9912434214296566 -0.07596135052921504 0.0020364281405869894 0.015429076471114888 -0.0017710270861483047 -0.009759987206248535
 0.9912434214296566 -0.07596135052921504 0.0070798064823635 0.031756141351971176 -0.0017718308221111986 -0.009759942701843051 0.00209832537860167 0.015420086369902688
 0.0020364281405869894 0.015429076471114888 -0.0017718308221111986 -0.009759942701843051 0.007090080586363484 0.03175651269757034 0.9912434847162854 -0.07596008841316157
 -0.0017710270861483047 -0.009759987206248535 0.00209832537860167 0.015420086369902688 0.9912434847162854 -0.07596008841316157 0.007080378777475122 0.03175731345492843
0.100041684035 0.007640003240266867 0.03402514567942064 0.9905137226990515 -0.08114586622824328 0.0022765341642464808 0.016452772017752058 -0.0019780874528758084 -0.01040883591638635
 0.9905137226990515 -0.08114586622824328 0.00762778594512689 0.034026159115291686 -0.0019789990090722234 -0.010408778627471965 0.0023469715643893675 0.016442253300205083
 0.0022765341642464808 0.016452772017752058 -0.0019789990090722234 -0.010408778627471965 0.007639474978613191 0.03402649912947341 0.9905137947820044 -0.08114451830056806
 -0.0019780874528758084 -0.01040883591638635 0.0023469715643893675 0.016442253300205083 0.9905137947820044 -0.08114451830056806 0.007628436184212612 0.03402740045997055
0.1059090909091 0.008180929101849777 0.036169696337584996 0.9897958774981837 -0.08602348121612646 0.002514788860906298 0.017411667049573955 -0.0021836095940412307 -0.01101625896114318
 0.9897958774981837 -0.08602348121612646 0.008167235854969293 0.036170826786544055 -0.002184628189488606 -0.011016188086456553 0.0025937425750247518 0.017399562289059537
 0.002514788860906298 0.017411667049573955 -0.002184628189488606 -0.011016188086456553 0.008180336203182884 0.036171129150978955 0.9897959584271073 -0.08602205244039648
 -0.0021836095940412307 -0.01101625896114318 0.0025937425750247518 0.017399562289059537 0.9897959584271073 -0.08602205244039648 0.008167963651826064 0.03617213157053893
0.1062942892872 0.00821730691602649 0.0363109678328014 0.9897476213821326 -0.08634411452686591 0.0025308703398856233 0.0174745550017659 -0.0021974838834760407 -0.011056082166490365
 0.9897476213821326 -0.08634411452686591 0.008203513804556414 0.03631210625237289 -0.0021985097033941927 -0.01105601034420193 0.0026104001569695417 0.017462340791541985
 0.0025308703398856233 0.0174745550017659 -0.0021985097033941927 -0.01105601034420193 0.008216709640502855 0.03631240585710044 0.9897477029122917 -0.08634268043229947
 -0.0021974838834760407 -0.011056082166490365 0.0026104001569695417 0.017462340791541985 0.9897477029122917 -0.08634268043229947 0.008204246842081018 0.03631341514666253
0.11254689453939999 0.008822857832259109 0.038612217534747424 0.9889447225774484 -0.09155570386626323 0.002799515577418896 0.01849416776961137 -0.002429298449730037 -0.011701469664768122
 0.9889447225774484 -0.09155570386626323 0.008807392477301291 0.03861349045750316 -0.002430444917469589 -0.011701381468916467 0.0028886895911010113 0.018480081883627833
 0.002799515577418896 0.01849416776961137 -0.002430444917469589 -0.011701381468916467 0.008822187208541976 0.038613740165185394 0.98894481422483 -0.09155418322696159
 -0.002429298449730037 -0.011701469664768122 0.0028886895911010113 0.018480081883627833 0.98894481422483 -0.09155418322696159 0.008808213137131291 0.03861486510221352
0.11879949979160001 0.009457052418066655 0.04092839806980485 0.9881046367579747 -0.09678022732549922 0.0030825431786173766 0.019511348013757895 -0.0026736074591580073 -0.01234473814345113
 0.9881046367579747 -0.09678022732549922 0.009439818128863927 0.04092981544622207 -0.0026748808987759275 -0.01234463164280833 0.0031819125360235834 0.019495204892538125
 0.0030825431786173766 0.019511348013757895 -0.0026748808987759275 -0.01234463164280833 0.009456304092053957 0.040930005346846404 0.9881047392130756 -0.09677861974040779
 -0.0026736074591580073 -0.01234473814345113 0.0031819125360235834 0.019495204892538125 0.9881047392130756 -0.09677861974040779 0.009440731201906381 0.04093125393574604
0.1250521050438 0.010120280629100729 0.04325900785826085 0.9872269800892257 -0.10201726361303594 0.003380020655434766 0.020525828950542255 -0.0029304812825172643 -0.012985623414331446
 0.9872269800892257 -0.10201726361303594 0.010101180427271478 0.04326058008582092 -0.0029318879574904955 -0.012985496586828942 0.0034901357094272384 0.020507433591567977
 0.003380020655434766 0.020525828950542255 -0.0029318879574904955 -0.012985496586828942 0.010119450226490937 0.04326069983289134 0.9872270940641995 -0.10201556865721677
 -0.0029304812825172643 -0.012985623414331446 0.0034901357094272384 0.020507433591567977 0.9872270940641995 -0.10201556865721677 0.010102190669562085 0.0432620804088843
0.131304710296 0.010812925695693462 0.04560353979108976 0.986311374743035 -0.10726637787009469 0.003692009551182793 0.021537339489812398 -0.0031999841824298567 -0.013623857446650081
 0.986311374743035 -0.10726637787009469 0.010791862290689049 0.045605277731846174 -0.003201530294999577 -0.013623708179645951 0.003813419693664416 0.021516487384372916
 0.003692009551182793 0.021537339489812398 -0.003201530294999577 -0.013623708179645951 0.010812008821750619 0.04560531652423529 0.9863115009730223 -0.1072645950965898
 -0.0031999841824298567 -0.013623857446650081 0.003813419693664416 0.021516487384372916 0.9863115009730223 -0.1072645950965898 0.010792974420688247 0.045606837769860235
0.1375573155481 0.011389660918342717 0.04765677128080865 0.9855032399200884 -0.1122221767324731 0.003982343110401951 0.022516711011921077 -0.0034458228738030294 -0.014230413571116079
 0.9855032399200884 -0.1122221767324731 0.011366530889150475 0.04765865187568814 -0.0034475178338470077 -0.014230241376514267 0.004115327356658387 0.02249340767578138
 0.003982343110401951 0.022516711011921077 -0.0034475178338470077 -0.014230241376514267 0.011388654189201021 0.04765863269168506 0.9855033789885196 -0.11222030588475411
 -0.0034458228738030294 -0.014230413571116079 0.004115327356658387 0.02249340767578138 0.9855033789885196 -0.11222030588475411 0.01136774887932269 0.047660269943492414
0.1438099208003 0.011987037137393464 0.04969667843005001 0.9846659606964685 -0.11716286859019338 0.004284279916594459 0.023490648008899537 -0.0037013655490999186 -0.014831886886785333
 0.9846659606964685 -0.11716286859019338 0.011961741913831845 0.04969871077769837 -0.00370321604737334 -0.014831689649447413 0.004429337641572392 0.023464703957412795
 0.004284279916594459 0.023490648008899537 -0.00370321604737334 -0.014831689649447413 0.011985936310127503 0.04969862453686445 0.9846661133397709 -0.11716090923448207
 -0.0037013655490999186 -0.014831886886785333 0.004429337641572392 0.023464703957412795 0.9846661133397709 -0.11716090923448207 0.011963070296826039 0.04970038471529219
0.1500625260525 0.012604803037614987 0.05172301655714452 0.9837997940642592 -0.12208825495022058 0.004597687923744346 0.024459004768754823 -0.00396648156992092 -0.015428138209647446
 0.9837997940642592 -0.12208825495022058 0.012577243740228061 0.051725210318811214 -0.003968494276725553 -0.015427913728617118 0.004755314501338099 0.02443022361510773
 0.004597687923744346 0.024459004768754823 -0.003968494276725553 -0.015427913728617118 0.012603603860815625 0.05172504738032022 0.9837999610381676 -0.12208620663847407
 -0.00396648156992092 -0.015428138209647446 0.004755314501338099 0.02443022361510773 0.9837999610381676 -0.12208620663847407 0.012578687004084666 0.05172693788272517
0.15631513130469998 0.013242705025350791 0.053735548333134216 0.9829049988735632 -0.12699813983345648 0.004922433251437776 0.025421638746548587 -0.004241038430464001 -0.016019031879285727
 0.9829049988735632 -0.12699813983345648 0.013212782457722446 0.05373791374928208 -0.00424321999511161 -0.016018777868224046 0.005093119979379833 0.025389817291850525
