! Created with skrf 1.8.0 (http://scikit-rf.org).
# GHz S RI R 50.0 
!freq ReS11 ImS11 ReS12 ImS12 ReS13 ImS13
! ReS14 ImS14
! ReS21 ImS21 ReS22 ImS22 ReS23 ImS23
! ReS24 ImS24
! ReS31 ImS31 ReS32 ImS32 ReS33 ImS33
! ReS34 ImS34
! ReS41 ImS41 ReS42 ImS42 ReS43 ImS43
! ReS44 ImS44
!
0.0 0.001619219380486 0.0 0.9983807806138 0.0 6.28311701497e-05 0.0 -6.283116828397e-05 7.694598912565257e-21
 0.9983807806138 0.0 0.001619219380492 0.0 -6.283116828416e-05 7.694598912588523e-21 6.283117014875e-05 0.0
 6.28311701497e-05 0.0 -6.283116828416e-05 7.694598912588523e-21 0.001619219374807 0.0 0.9983807806082 0.0
 -6.283116828397e-05 7.694598912565257e-21 6.283117014875e-05 0.0 0.9983807806082 0.0 0.001619219374804 0.0
0.005 0.001742435848718615 0.0013198602938491633 0.9982248474140214 -0.003391809942227328 8.884666225394372e-05 0.0007201180877770147 -8.612597521542777e-05 -0.0004470960427874159
 0.9982248474140214 -0.003391809942227328 0.0017424339420981053 0.0013198613953136064 -8.61248511894148e-05 -0.0004470951270689158 8.88701189166611e-05 0.0007201092682977882
 8.884666225394372e-05 0.0007201180877770147 -8.61248511894148e-05 -0.0004470951270689158 0.001742436321164608 0.0013197927106668654 0.9982248470517003 -0.0033918769901515023
 -8.612597521542777e-05 -0.0004470960427874159 8.88701189166611e-05 0.0007201092682977882 0.9982248470517003 -0.0033918769901515023 0.0017424327457064668 0.0013197948812944578
0.006252605252188 0.0017748227607911526 0.0016550288831682842 0.9981835910023823 -0.004240582770062135 9.631259845774677e-05 0.0009004792709310485 -9.274017779675804e-05 -0.0005594500407923052
 0.9981835910023823 -0.004240582770062135 0.0017748197802152836 0.0016550302535538325 -9.27384291420891e-05 -0.0005594489107092918 9.634924865402396e-05 0.00090046779616292
 9.631259845774677e-05 0.0009004792709310485 -9.27384291420891e-05 -0.0005594489107092918 0.0017748235697585056 0.0016549443866744544 0.9981835905060804 -0.004240666591165533
 -9.274017779675804e-05 -0.0005594500407923052 9.634924865402396e-05 0.00090046779616292 0.9981835905060804 -0.004240666591165533 0.0017748179795427832 0.0016549471053294304
0.01250521050438 0.0019457274220054303 0.0033447907562526675 0.9979643909605993 -0.0084819145568073 0.0001393047927325876 0.0018012050518993765 -0.000130467891901073 -0.0011215899208962927
 0.9979643909605993 -0.0084819145568073 0.0019457155198485496 0.0033447934155497274 -0.00013046100567693476 -0.0011215878203666226 0.00013945098890003028 0.0018011772440022413
 0.0001393047927325876 0.0018012050518993765 -0.00013046100567693476 -0.0011215878203666226 0.0019457312279043762 0.0033446219445337853 0.9979643895474293 -0.00848208194358633
 -0.000130467891901073 -0.0011215899208962927 0.00013945098890003028 0.0018011772440022413 0.9979643895474293 -0.00848208194358633 0.0019457088912568509 0.0033446274354644104
0.01875781575657 0.002132321820129114 0.0050586015436299885 0.9977228972293014 -0.01273430520433565 0.00019190966565773882 0.002702799485375422 -0.0001761343177130879 -0.0016855604091283428
 0.9977228972293014 -0.01273430520433565 0.002132295075509431 0.005058605376399859 -0.00017611896826349852 -0.0016855575281103964 0.0001922381810236978 0.002702749529462261
 0.00019190966565773882 0.002702799485375422 -0.00017611896826349852 -0.0016855575281103964 0.0021323308070680656 0.005058348419503563 0.9977228944749013 -0.012734556047602803
 -0.0001761343177130879 -0.0016855604091283428 0.0001922381810236978 0.002702749529462261 0.9977228944749013 -0.012734556047602803 0.00213228058798842 0.005058356754335023
0.02501042100875 0.002334982014933129 0.006794033527194585 0.9974588149865247 -0.016999795855716895 0.00025423031312456207 0.0036052945847816244 -0.00022985507429541327 -0.002251085449828054
 0.9974588149865247 -0.016999795855716895 0.0023349345162583988 0.006794038379128966 -0.00022982797795000445 -0.0022510820120310634 0.00025481400538466577 0.003605215733710094
 0.00025423031312456207 0.0036052945847816244 -0.00022982797795000445 -0.0022510820120310634 0.0023349983751346512 0.0067936960275663755 0.9974588104724035 -0.017000130081000518
 -0.00022985507429541327 -0.002251085449828054 0.00025481400538466577 0.003605215733710094 0.9974588104724035 -0.017000130081000518 0.002334909142047906 0.006793707289331022
0.03126302626094 0.0025540684918403727 0.008549826991135035 0.997171834968701 -0.021279247280542493 0.00032637007163975655 0.0045086356878524915 -0.000291742200657703 -0.0028179687557425884
 0.997171834968701 -0.021279247280542493 0.0025539943313134294 0.00854983266751327 -0.0002917001086067627 -0.002817965019024559 0.0003272819454281987 0.004508520254869724
 0.00032637007163975655 0.0045086356878524915 -0.0002917001086067627 -0.002817965019024559 0.002554094419167514 0.008549405010998266 0.9971718282751061 -0.021279664824093537
 -0.000291742200657703 -0.0028179687557425884 0.0003272819454281987 0.004508520254869724 0.9971718282751061 -0.021279664824093537 0.002553955037719005 0.008549419292888704
0.037515631513130004 0.002789933730418985 0.010325152709735224 0.9968616413176393 -0.025573077326478216 0.00040843150009972954 0.005412733761218999 -0.00036190499233959285 -0.003386041519700372
 0.9968616413176393 -0.025573077326478216 0.0027898269994923747 0.01032515897434729 -0.000361844686939804 -0.003386037776153106 0.00040974473388406314 0.0054125731093465634
 0.00040843150009972954 0.005412733761218999 -0.000361844686939804 -0.003386037776153106 0.0027899714241625116 0.010324646103829277 0.9968616320270872 -0.025573578133475397
 -0.00036190499233959285 -0.003386041519700372 0.00040974473388406314 0.0054125731093465634 0.9968616320270872 -0.025573578133475397 0.0027897707524007893 0.010324663508666652
0.043768236765320004 0.0030429251308995518 0.012119387535266724 0.9965279147854523 -0.029881485261260735 0.0005005158910577433 0.006317481325098005 -0.0004404502976838131 -0.003955146504058657
 0.9965279147854523 -0.029881485261260735 0.003042779915753542 0.012119394109481152 -0.00044036859014105105 -0.003955143080010074 0.0005023038487341235 0.00631726585553769
 0.0005005158910577433 0.006317481325098005 -0.00044036859014105105 -0.003955143080010074 0.003042976794339371 0.01211879612646045 0.9965279024820506 -0.029882069277322624
 -0.0004404502976838131 -0.003955146504058657 0.0005023038487341235 0.00631726585553769 0.9965279024820506 -0.029882069277322624 0.0030427036791243187 0.012118816766369472
0.050020842017509996 0.0033133863629549523 0.013932021629672097 0.9961703343664432 -0.03420454446986302 0.0006027229735010381 0.007222759022893044 -0.0005274826171759975 -0.004525131487665464
 0.9961703343664432 -0.03420454446986302 0.003313196741165406 0.013932028191652119 -0.0005273763461751292 -0.0045251287436519185 0.0006050592077570693 0.0072224781630597775
 0.0006027229735010381 0.007222759022893044 -0.0005273763461751292 -0.0045251287436519185 0.003313454201297557 0.013931345206727685 0.9961703186338653 -0.0342052116429125
 -0.0005274826171759975 -0.004525131487665464 0.0006050592077570693 0.0072224781630597775 0.9961703186338653 -0.0342052116429125 0.003313097474644866 0.013931369203156605
0.055454545454549996 0.003562877624113197 0.01552185352913394 0.9958399639601806 -0.037973308578122804 0.0006998410091931836 0.008009804075992074 -0.000610088240033993 -0.005021063545485767
 0.9958399639601806 -0.037973308578122804 0.003562644592107813 0.015521859785065368 -0.0006099580758057866 -0.005021061711788178 0.0007027135918292893 0.008009457038356168
 0.0006998410091931836 0.008009804075992074 -0.0006099580758057866 -0.005021061711788178 0.0035629613130307098 0.01552110303181956 0.9958399449112856 -0.03797404797306051
 -0.000610088240033993 -0.005021063545485767 0.0007027135918292893 0.008009457038356168 0.9958399449112856 -0.03797404797306051 0.003562522842048873 0.015521130051029602
0.056273447269699996 0.0036016580496055195 0.015762612949873193 0.995788578266771 -0.03854224789994706 0.0007151506976940113 0.008128438854400429 -0.0006231041171325253 -0.005095846053341164
 0.995788578266771 -0.03854224789994706 0.0036014180860537014 0.015762619133940066 -0.0006229701477749452 -0.0050958443840776755 0.0007181089486433166 0.008128081045756352
 0.0007151506976940113 0.008128438854400429 -0.0006229701477749452 -0.0050958443840776755 0.0036017442721207726 0.015761851270346808 0.9957885586909959 -0.03854299817728866
 -0.0006231041171325253 -0.005095846053341164 0.0007181089486433166 0.008128081045756352 0.9957885586909959 -0.03854299817728866 0.0036012927483055402 0.01576187875404607
0.06252605252188 0.003908078127768533 0.01761076222639782 0.9953823245559587 -0.04289453301861452 0.0008378950603382979 0.00903438595850612 -0.0007274146004040707 -0.005667139830813304
 0.9953823245559587 -0.04289453301861452 0.0039077818708831745 0.01761076762251811 -0.000727249823473736 -0.005667139665149701 0.000841549250610557 0.00903393864442604
 0.0008378950603382979 0.00903438595850612 -0.000727249823473736 -0.005667139665149701 0.003908184944990905 0.017609915012576433 0.995382300723093 -0.04289536635068427
 -0.0007274146004040707 -0.005667139830813304 0.000841549250610557 0.00903393864442604 0.995382300723093 -0.04289536635068427 0.003907627417602903 0.017609946123803462
0.06877865777407 0.0042329820272971 0.019476098038633934 0.9949512516408626 -0.04726129667712298 0.0009710499536842686 0.009940459682962232 -0.0008405114505753917 -0.006238861458093505
 0.9949512516408626 -0.04726129667712298 0.004232623505053326 0.01947610219204894 -0.0008403127820445537 -0.006238863258978307 0.0009754741813341908 0.009939909296603032
 0.0009710499536842686 0.009940459682962232 -0.0008403127820445537 -0.006238863258978307 0.004233111651025062 0.019475164982764522 0.9949512231375239 -0.04726221301213989
 -0.0008405114505753917 -0.006238861458093505 0.0009754741813341908 0.009939909296603032 0.9949512231375239 -0.04726221301213989 0.004232436889720303 0.019475199871620243
0.07503126302626001 0.0045767027442845006 0.021358267361324956 0.994495038638787 -0.0516424045107635 0.0011147070277786537 0.010846514267561589 -0.0009624895610562758 -0.006810857935349219
 0.994495038638787 -0.0516424045107635 0.004576275960692929 0.021358269772234945 -0.0009622539417244371 -0.006810862199781928 0.0011199755574572711 0.010845846219794324
 0.0011147070277786537 0.010846514267561589 -0.0009622539417244371 -0.006810862199781928 0.004576857388617435 0.021357248123661295 0.9944950050536435 -0.05164340379643003
 -0.0009624895610562758 -0.006810857935349219 0.0011199755574572711 0.010845846219794324 0.9944950050536435 -0.05164340379643003 0.0045760541363560215 0.021357286950458625
0.08128386827845 0.004939570850373035 0.02325692928054522 0.9940133656895043 -0.05603769717517545 0.0012689555607135051 0.011752399309988882 -0.0010934412545077106 -0.007382974202208283
 0.9940133656895043 -0.05603769717517545 0.004939069781601157 0.02325692940393842 -0.0010931656497002718 -0.007382981461202709 0.0012751428133004744 0.011751597977462178
 0.0012689555607135051 0.011752399309988882 -0.0010931656497002718 -0.007382981461202709 0.004939752728994182 0.023255823490572494 0.9940133266113518 -0.05603877935732803
 -0.0010934412545077106 -0.007382974202208283 0.0012751428133004744 0.011751597977462178 0.9940133266113518 -0.05603877935732803 0.004938809699397577 0.02325586642630961
0.08753647353064001 0.00532191445467809 0.025171750649297962 0.9935059142250607 -0.06044699465024601 0.0014338823349351556 0.012657960093706818 -0.0012334561945278363 -0.007955052859398673
 0.9935059142250607 -0.06044699465024601 0.005321333044918372 0.025171747894923123 -0.001233137593893957 -0.007955063677940565 0.0014410628761161897 0.01265700880707528
 0.0014338823349351556 0.012657960093706818 -0.001233137593893957 -0.007955063677940565 0.005322125781140237 0.02517055790341365 0.9935058692437255 -0.060448159674959444
 -0.0012334561945278363 -0.007955052859398673 0.0014410628761161897 0.01265700880707528 0.9935058692437255 -0.060448159674959444 0.0053210316555213 0.025170605130422685
0.09378907878283 0.005724059136107679 0.02710240298292136 0.9929723672132553 -0.06487009931099018 0.0016095715162680907 0.013563037836926004 -0.0013826212932373748 -0.008526933975898826
 0.9929723672132553 -0.06487009931099018 0.005723391293965666 0.027102396715393474 -0.0013822567106578933 -0.008526948952901518 0.001617820044281115 0.013561918869205065
 0.0016095715162680907 0.013563037836926004 -0.0013822567106578933 -0.008526948952901518 0.005724302123235763 0.027101122845857886 0.992972315919586 -0.06487134712310978
 -0.0013826212932373748 -0.008526933975898826 0.001617820044281115 0.013561918869205065 0.992972315919586 -0.06487134712310978 0.005723045547751216 0.027101174558496845
0.100041684035 0.006146327854291072 0.02904856019286296 0.9924124093835168 -0.0693067981678942 0.0017961045366811648 0.014467469879467917 -0.0015410206142610545 -0.009098454964983772
 0.9924124093835168 -0.0693067981678942 0.0061455674485339454 0.029048549731836043 -0.0015406070877751017 -0.009098474733246126 0.0018054958690204288 0.014466164434559598
 0.0017961045366811648 0.014467469879467917 -0.0015406070877751017 -0.009098474733246126 0.006146604713408152 0.029047192198497315 0.9924123513692836 -0.06930812870996217
 -0.0015410206142610545 -0.009098454964983772 0.0018054958690204288 0.014466164434559598 0.9924123513692836 -0.06930812870996217 0.006145174295965959 0.029047248604042373
0.1059090909091 0.00656117014862752 0.030888633970810243 0.9918626488951656 -0.07348233150502405 0.0019810783819314733 0.015315448003987759 -0.001698132297695625 -0.009634292026545806
 0.9918626488951656 -0.07348233150502405 0.0065603172664511315 0.03088861891614893 -0.0016976701701089524 -0.009634316896571642 0.001991610254484919 0.015313949512922455
 0.0019810783819314733 0.015315448003987759 -0.0016976701701089524 -0.009634316896571642 0.006561480802018303 0.03088718307805367 0.9918625842037048 -0.07348373962822358
 -0.001698132297695625 -0.009634292026545806 0.001991610254484919 0.015313949512922455 0.9918625842037048 -0.07348373962822358 0.0065598768551971935 0.030887244088151793
0.1062942892872 0.006589040843539151 0.031009896884111907 0.9918257274391185 -0.07375686455106163 0.0019935599777567863 0.015371089839251178 -0.001708735274053116 -0.009669450497445074
 0.9918257274391185 -0.07375686455106163 0.006588181699085865 0.031009881504676963 -0.0017082698657627938 -0.009669475723612844 0.002004169037109719 0.01536957804069439
 0.0019935599777567863 0.015371089839251178 -0.0017082698657627938 -0.009669475723612844 0.006589353783471453 0.031008440532499973 0.9918256622967421 -0.07375827776623174
 -0.001708735274053116 -0.009669450497445074 0.002004169037109719 0.01536957804069439 0.9918256622967421 -0.07375827776623174 0.006587738091331543 0.031008501851991187
0.11254689453939999 0.007052515493966762 0.03298608706133813 0.9912120102602054 -0.07822005939371728 0.0022020134558875274 0.016273727740579266 -0.001885843340570259 -0.010239752450154333
 0.9912120102602054 -0.07822005939371728 0.00705155138804454 0.03298606599444654 -0.0018853231366899156 -0.010239783834661178 0.0022139152557730845 0.016271988620511907
 0.0022020134558875274 0.016273727740579266 -0.0018853231366899156 -0.010239783834661178 0.007052866720946272 0.032984541821200586 0.9912119375831613 -0.07822155522313023
 -0.001885843340570259 -0.010239752450154333 0.0022139152557730845 0.016271988620511907 0.9912119375831613 -0.07822155522313023 0.007051054277549799 0.032984608290596344
0.11879949979160001 0.007537066224028602 0.034976803120748794 0.9905709491006411 -0.08269613223822456 0.0024215375088637975 0.01717521012689492 -0.002072419730644304 -0.01080918987727375
 0.9905709491006411 -0.08269613223822456 0.0075359908818331016 0.03497677555388366 -0.0020718418415468093 -0.010809228154314234 0.0024348071381921892 0.01717322161522248
 0.0024215375088637975 0.01717521012689492 -0.0020718418415468093 -0.010809228154314234 0.007537457940797576 0.03497516842912 0.9905708684836836 -0.08269771062126675
 -0.002072419730644304 -0.01080918987727375 0.0024348071381921892 0.01717322161522248 0.9905708684836836 -0.08269771062126675 0.007535437222848078 0.03497524030041944
0.1250521050438 0.008043004344455549 0.03698171506431244 0.9899022377798185 -0.08718482202811899 0.0026522014829935994 0.018075360161309065 -0.0022685361062653193 -0.011377589001025017
 0.9899022377798185 -0.08718482202811899 0.008041811435010983 0.036981680142251415 -0.002267897666482385 -0.011377634938509271 0.0026669140903897944 0.018073099075138783
 0.0026522014829935994 0.018075360161309065 -0.002267897666482385 -0.011377634938509271 0.00804343874945931 0.036979990325137026 0.9899021488183071 -0.0871864829037393
 -0.0022685361062653193 -0.011377589001025017 0.0026669140903897944 0.018073099075138783 0.9899021488183071 -0.0871864829037393 0.008041198183963129 0.036980067867715016
0.131304710296 0.008570637916535784 0.039000489873599796 0.9892055728709461 -0.09168585774922411 0.002894071421130682 0.01897399772176713 -0.002474260770184709 -0.011944773215220281
 0.9892055728709461 -0.09168585774922411 0.00856932104848748 0.0390004466993171 -0.0024735589385027276 -0.011944827614695197 0.002910302198661813 0.018971439755065607
 0.002894071421130682 0.01897399772176713 -0.0024735589385027276 -0.011944827614695197 0.008571117203199086 0.03899867445823333 0.9892054751615191 -0.0916876010553763
 -0.002474260770184709 -0.011944773215220281 0.002910302198661813 0.018971439755065607 0.9892054751615191 -0.0916876010553763 0.00856864516479256 0.03899875796024472
0.1375573155481 0.009002064118150606 0.04076873235330174 0.9885989127906303 -0.09593476419344231 0.003117457963344964 0.01984455250107739 -0.002659889739835737 -0.012484208959789618
 0.9885989127906303 -0.09593476419344231 0.009000615959893847 0.04076868101013924 -0.0026591201515258605 -0.012484271910775554 0.0031352398612031524 0.019841700748332407
 0.003117457963344964 0.01984455250107739 -0.0026591201515258605 -0.012484271910775554 0.009002589617526532 0.040766825904637455 0.9885988059421106 -0.0959365898386737
 -0.002659889739835737 -0.012484208959789618 0.0031352398612031524 0.019841700748332407 0.9885988059421106 -0.0959365898386737 0.008999875235886374 0.04076691602086942
0.1438099208003 0.009448744979887635 0.042527119441611104 0.9879707592865887 -0.10017236678319483 0.0033498540497777446 0.020711301450926985 -0.002852932393125304 -0.013020151932646397
 0.9879707592865887 -0.10017236678319483 0.00944715890833329 0.04252705919586126 -0.0028520919675788952 -0.013020224231105675 0.0033692546988234296 0.020708133692082752
 0.0033498540497777446 0.020711301450926985 -0.0028520919675788952 -0.013020224231105675 0.00944931872059335 0.04252512133614867 0.9879706429003993 -0.10017427469468544
 -0.002852932393125304 -0.013020151932646397 0.0033692546988234296 0.020708133692082752 0.9879706429003993 -0.10017427469468544 0.009446350457012047 0.042525218480634015
0.1500625260525 0.009910515470366968 0.04427548856194035 0.9873212819976829 -0.10439854435974406 0.00359117449636423 0.021574146529429124 -0.003053305651202789 -0.013552509463453221
 0.9873212819976829 -0.10439854435974406 0.009908784799251209 0.04427541866865057 -0.0030523913127663885 -0.0135525919379601 0.0036122610814026505 0.021570639738952544
 0.00359117449636423 0.021574146529429124 -0.0030523913127663885 -0.0135525919379601 0.009911139465552266 0.04427339815151866 0.9873211556768231 -0.10440053446278666
 -0.003053305651202789 -0.013552509463453221 0.0036122610814026505 0.021570639738952544 0.9873211556768231 -0.10440053446278666 0.00990790574594418 0.04427350276954578
0.15631513130469998 0.01038720928899549 0.046013682009161845 0.986650651538202 -0.10861317654212131 0.0038413330497921983 0.022432991460813883 -0.0032609253545192556 -0.01408119093609449
 0.986650651538202 -0.10861317654212131 0.010385327267370759 0.046013601714311535 -0.0032599340325510776 -0.014081284447770426 0.003864172302518016 0.022429121816810692
