! Created with skrf 1.8.0 (http://scikit-rf.org).
# GHz S RI R 50.0 
!freq ReS11 ImS11 ReS12 ImS12 ReS13 ImS13
! ReS14 ImS14
! ReS21 ImS21 ReS22 ImS22 ReS23 ImS23
! ReS24 ImS24
! ReS31 ImS31 ReS32 ImS32 ReS33 ImS33
! ReS34 ImS34
! ReS41 ImS41 ReS42 ImS42 ReS43 ImS43
! ReS44 ImS44
!
0.0 0.00157880285124 0.0 0.9984211971458 0.0 6.08299842651e-05 0.0 -6.082998412624e-05 7.449524535238413e-21
 0.9984211971458 0.0 0.001578802851264 0.0 -6.082998412697e-05 7.449524535327812e-21 6.082998426567e-05 0.0
 6.08299842651e-05 0.0 -6.082998412697e-05 7.449524535327812e-21 0.001578802852725 0.0 0.9984211971473 0.0
 -6.082998412624e-05 7.449524535238413e-21 6.082998426567e-05 0.0 0.9984211971473 0.0 0.001578802852711 0.0
0.005 0.0016987436801681557 0.001293904111946797 0.9982694615461599 -0.003306888719071808 8.487111349847172e-05 0.0006559687650275365 -8.255043523048588e-05 -0.0004142066397434857
 0.9982694615461599 -0.003306888719071808 0.0016987385092134544 0.0012939070894053065 -8.254985041204743e-05 -0.00041420613464402404 8.489789645346923e-05 0.0006559584285572804
 8.487111349847172e-05 0.0006559687650275365 -8.254985041204743e-05 -0.00041420613464402404 0.0016987439146078556 0.0012938366674423835 0.9982694611859326 -0.0033069557729871733
 -8.255043523048588e-05 -0.0004142066397434857 8.489789645346923e-05 0.0006559584285572804 0.9982694611859326 -0.0033069557729871733 0.0016987375610845806 0.0012938404323506903
0.006252605252188 0.0017302317850706203 0.0016224545162541318 0.9982293749409107 -0.004134413763331708 9.173915279517828e-05 0.0008202844581280975 -8.869174590347794e-05 -0.0005182887063314555
 0.9982293749409107 -0.004134413763331708 0.001730223702689543 0.0016224583383822192 -8.869083631862024e-05 -0.000518288082382158 9.178099701596944e-05 0.0008202710576568024
 9.173915279517828e-05 0.0008202844581280975 -8.869083631862024e-05 -0.000518288082382158 0.0017302322194914475 0.0016223702063177111 0.99822937444515 -0.004134497582026193
 -8.869174590347794e-05 -0.0005182887063314555 9.178099701596944e-05 0.0008202710576568024 0.99822937444515 -0.004134497582026193 0.0017302222876365593 0.0016223750249055396
0.01250521050438 0.001896173637735973 0.0032787604623006833 0.9980167283184269 -0.008269583549886462 0.00013112465989481128 0.0016409668071203454 -0.00012358390980358265 -0.0010390567234737935
 0.9980167283184269 -0.008269583549886462 0.0018961413751894672 0.003278769123914801 -0.00012358033060277392 -0.0010390555565090785 0.00013129147512492596 0.0016409348038609127
 0.00013112465989481128 0.0016409668071203454 -0.00012358033060277392 -0.0010390555565090785 0.0018961759637801693 0.003278592051021603 0.9980167269196296 -0.008269750962387901
 -0.00012358390980358265 -0.0010390567234737935 0.00013129147512492596 0.0016409348038609127 0.9980167269196296 -0.008269750962387901 0.0018961363013113388 0.0032786028403587702
0.01875781575657 0.00207699733304318 0.004958521183826326 0.997782988094351 -0.012415563356502582 0.0001790799700909278 0.0024625762962679483 -0.00016561482460144734 -0.0015615694464460588
 0.997782988094351 -0.012415563356502582 0.0020769248563279634 0.004958535776747947 -0.0001656068503452037 -0.0015615678315127066 0.0001794545853034689 0.002462519420973485
 0.0001790799700909278 0.0024625762962679483 -0.0001656068503452037 -0.0015615678315127066 0.002077003000398175 0.004958268768191811 0.9977829853697608 -0.012415814280859574
 -0.00016561482460144734 -0.0015615694464460588 0.0001794545853034689 0.002462519420973485 0.9977829853697608 -0.012415814280859574 0.0020769138665562557 0.004958286794832771
0.02501042100875 0.0022730605161648035 0.00665938266957549 0.9975278742300611 -0.01657435318439401 0.00023569942972786085 0.0032851389298273665 -0.0002148893025806898 -0.0020855894133690093
 0.9975278742300611 -0.01657435318439401 0.002272931836190102 0.006659404356769131 -0.0002148752309451698 -0.0020855874614941713 0.00023636463572479516 0.003285049889922889
 0.00023569942972786085 0.0032851389298273665 -0.0002148752309451698 -0.0020855874614941713 0.002273070990403429 0.006659046311146999 0.9975278697613954 -0.016574687606081967
 -0.0002148893025806898 -0.0020855894133690093 0.00023636463572479516 0.003285049889922889 0.9975278697613954 -0.016574687606081967 0.002272912679277636 0.0066590729517725595
0.03126302626094 0.0024847060801262842 0.008380128928421837 0.9972510926422242 -0.020746803630297874 0.0003010776208492846 0.004108606742261059 -0.0002715091816955643 -0.002610947077137235
 0.9972510926422242 -0.020746803630297874 0.0024845052445640285 0.008380158943821877 -0.0002714873294645043 -0.002610944915517549 0.0003021162501517235 0.004108477218018523
 0.0003010776208492846 0.004108606742261059 -0.0002714873294645043 -0.002610944915517549 0.0024847228366465224 0.008379708696728104 0.9972510860080973 -0.02074722155899074
 -0.0002715091816955643 -0.002610947077137235 0.0003021162501517235 0.004108477218018523 0.9972510860080973 -0.02074722155899074 0.0024844756687776343 0.008379745438107418
0.037515631513130004 0.0027122694502459297 0.010119963667427501 0.9969523427348983 -0.024933334145321666 0.00037530851037161 0.0049329023924355115 -0.00033557402979086167 -0.0031374962215569304
 0.9969523427348983 -0.024933334145321666 0.002711980539004549 0.01012000331577316 -0.00033554273092339725 -0.0031374939935691136 0.0003768034728663409 0.0049327230281764655
 0.00037530851037161 0.0049329023924355115 -0.00033554273092339725 -0.0031374939935691136 0.002712293977057034 0.010119459631342536 0.9969523335118652 -0.024933835623435263
 -0.00033557402979086167 -0.0031374962215569304 0.0003768034728663409 0.0049327230281764655 0.9969523335118652 -0.024933835623435263 0.002711938293771394 0.010119508070869452
0.043768236765320004 0.0029560813995918637 0.011878291644128094 0.9966313204632223 -0.02913415161009777 0.00045848504559429474 0.00575793271608289 -0.0004071813890655792 -0.0036651004157668464
 0.9966313204632223 -0.02913415161009777 0.002955688521039417 0.011878342300975982 -0.00040713899338725486 -0.003665098280935938 0.0004605193453092567 0.005757693109848673
 0.00045848504559429474 0.00575793271608289 -0.00040713899338725486 -0.003665098280935938 0.0029561151959536236 0.011877703892974007 0.996631308223257 -0.02913473669163387
 -0.0004071813890655792 -0.0036651004157668464 0.0004605193453092567 0.005757693109848673 0.996631308223257 -0.02913473669163387 0.0029556313561371794 0.011877765739242473
0.050020842017509996 0.003216469351483272 0.013654628339116542 0.9962877198859639 -0.03334934058775446 0.0005506989015019931 0.006583594344748906 -0.0004864268625662362 -0.004193627403467968
 0.9962877198859639 -0.03334934058775446 0.0032159566391291796 0.013654691451034474 -0.00048637173494715043 -0.0041936255374288665 0.0005533556431632691 0.006583283037365874
 0.0005506989015019931 0.006583594344748906 -0.00048637173494715043 -0.0041936255374288665 0.0032165139297146246 0.013653956965553958 0.9962877041972278 -0.033350009355319093
 -0.0004864268625662362 -0.004193627403467968 0.0005533556431632691 0.006583283037365874 0.9962877041972278 -0.033350009355319093 0.003215882306658919 0.0136540340390476
0.055454545454549996 0.0034564683831560757 0.015212618101928789 0.9959705458737147 -0.0370241454969977 0.0006382450572951874 0.0073015460906422965 -0.0005615694627786372 -0.004653581195172131
 0.9959705458737147 -0.0370241454969977 0.0034558386639968928 0.015212693267641188 -0.0005615019540822074 -0.004653579717826878 0.0006415102898038766 0.007301162337009945
 0.0006382450572951874 0.0073015460906422965 -0.0005615019540822074 -0.004653579717826878 0.0034565235694498093 0.015211874144199214 0.9959705268327964 -0.037024887071070024
 -0.0005615694627786372 -0.004653581195172131 0.0006415102898038766 0.007301162337009945 0.9959705268327964 -0.037024887071070024 0.0034557475884504788 0.015211966016585615
0.056273447269699996 0.0034937580450466487 0.015448555600592379 0.995921234086598 -0.03757890760667814 0.0006520403018861393 0.007409776441322787 -0.0005734041228441325 -0.004722946378637558
 0.995921234086598 -0.03757890760667814 0.003493109655400322 0.015448632685176348 -0.0005733346426831035 -0.0047229449730770605 0.0006554026915241662 0.00740938090517798
 0.0006520403018861393 0.007409776441322787 -0.0005733346426831035 -0.0047229449730770605 0.0034938149305796425 0.015447800710544782 0.9959212145116809 -0.03757966016141877
 -0.0005734041228441325 -0.004722946378637558 0.0006554026915241662 0.00740938090517798 0.9959212145116809 -0.03757966016141877 0.0034930159096234767 0.015447894944453968
0.06252605252188 0.0037882698890017285 0.0172596972607331 0.9955315557847609 -0.04182280547443877 0.0007625978696329909 0.008236362231516825 -0.0006682048887322601 -0.005252926469140035
 0.9955315557847609 -0.04182280547443877 0.003787469998550729 0.01725978990700059 -0.0006681194494501694 -0.005252925731744036 0.0007667492110752543 0.008235868859255806
 0.0007625978696329909 0.008236362231516825 -0.0006681194494501694 -0.005252925731744036 0.003788340620830305 0.01725885897478957 0.99553153188058 -0.04182364193458379
 -0.0006682048887322601 -0.005252926469140035 0.0007667492110752543 0.008235868859255806 0.99553153188058 -0.04182364193458379 0.003787354597336016 0.017258972415910196
0.06877865777407 0.004100325142631145 0.01908770461202259 0.995118377780576 -0.0460809477361417 0.0008824585007039882 0.009063229897366049 -0.0007709188758018318 -0.005783435862714183
 0.995118377780576 -0.0460809477361417 0.004099357945664856 0.01908781448062923 -0.0007708158845934318 -0.005783436017119548 0.0008874821893179731 0.009062623990588079
 0.0008824585007039882 0.009063229897366049 -0.0007708158845934318 -0.005783436017119548 0.0041004112741395435 0.01908678306180089 0.9951183490977853 -0.046081868240373504
 -0.0007709188758018318 -0.005783435862714183 0.0008874821893179731 0.009062623990588079 0.9951183490977853 -0.046081868240373504 0.004099218651226123 0.019086917871414633
0.07503126302626001 0.004430241996132759 0.020932247182965484 0.994681393301991 -0.05035321783814898 0.0010117072456964382 0.009890253168696957 -0.0008816337373291426 -0.006314341239732364
 0.994681393301991 -0.05035321783814898 0.004429091702765138 0.02093237600660733 -0.000881511614922568 -0.006314342525454476 0.0010176867599793907 0.009889518926702867
 0.0010117072456964382 0.009890253168696957 -0.000881511614922568 -0.006314342525454476 0.004430345095826982 0.020931242514283365 0.9946813593838629 -0.050354222542168765
 -0.0008816337373291426 -0.006314341239732364 0.0010176867599793907 0.009889518926702867 0.9946813593838629 -0.050354222542168765 0.00442892628281916 0.020931400969270143
0.08128386827845 0.004778336587922851 0.02279300661831547 0.9942202962915323 -0.05463947519246034 0.0011504272011415865 0.010717301705870404 -0.0010004349937198572 -0.006845507419630791
 0.9942202962915323 -0.05463947519246034 0.004776987421328523 0.02279315620226089 -0.0010002921741517521 -0.006845510092023318 0.0011574460925813535 0.010716422214551258
 0.0011504272011415865 0.010717301705870404 -0.0010002921741517521 -0.006845510092023318 0.00477845823930153 0.0227919189860741 0.9942202566735497 -0.05464056427399405
 -0.0010004349937198572 -0.006845507419630791 0.0011574460925813535 0.010716422214551258 0.9942202566735497 -0.05464056427399405 0.004776793649844746 0.02279210347992882
0.08753647353064001 0.005144922977816135 0.024669672431889438 0.9937347816556752 -0.058939559374541844 0.0012986994024652373 0.011544241384118806 -0.0011274059584718932 -0.007376797111016994
 0.9937347816556752 -0.058939559374541844 0.0051433591725074095 0.02466984465446304 -0.0011272408890141792 -0.007376801441202636 0.001306841284223177 0.01154319860491689
 0.0012986994024652373 0.011544241384118806 -0.0011272408890141792 -0.007376801441202636 0.0051450647805481335 0.024668502007642184 0.9937347358646799 -0.05894073302538106
 -0.0011274059584718932 -0.007376797111016994 0.001306841284223177 0.01154319860491689 0.9937347358646799 -0.05894073302538106 0.0051431348308048725 0.02466871505174568
0.09378907878283 0.005530313092715066 0.02656193899185267 0.9932245454875281 -0.06325329309446207 0.0014566027222099843 0.012370934494620685 -0.0012626276577652046 -0.007908070750314262
 0.9932245454875281 -0.06325329309446207 0.005528518891953693 0.02656213580509233 -0.0012624387987360932 -0.007908077025140755 0.00146595125648581 0.012369709253742027
 0.0014566027222099843 0.012370934494620685 -0.0012624387987360932 -0.007908077025140755 0.005530476662800961 0.026560685956234356 0.9932244930412689 -0.06325455152779505
 -0.0012626276577652046 -0.007908070750314262 0.00146595125648581 0.012369709253742027 0.9932244930412689 -0.06325455152779505 0.005528261770127132 0.02656093018097138
0.100041684035 0.005934816649803792 0.028469503293685444 0.9926892852727557 -0.06758048438674921 0.0016242137687205302 0.013197239905336791 -0.0014061787480022059 -0.008439186386256136
 0.9926892852727557 -0.06758048438674921 0.0059327763038766424 0.02846972672406 -0.001405964572768499 -0.00843919490822588 0.001634852653387634 0.013195811883102699
 0.0016242137687205302 0.013197239905336791 -0.001405964572768499 -0.00843919490822588 0.005935003620317869 0.028468167841311662 0.9926892256787312 -0.06758182783183468
 -0.0014061787480022059 -0.008439186386256136 0.001634852653387634 0.013195811883102699 0.9926892256787312 -0.06758182783183468 0.005932484201389699 0.028468445997568495
0.1059090909091 0.006332057675598931 0.030273194142908483 0.9921639731525657 -0.07165315151084428 0.0017903941969656884 0.013972158670212197 -0.001548529622782915 -0.008937309767485493
 0.9921639731525657 -0.07165315151084428 0.006329772028443347 0.030273444460735106 -0.001548290314033055 -0.008937320687184329 0.0018023200800385089 0.013970520848708952
 0.0017903941969656884 0.013972158670212197 -0.001548290314033055 -0.008937320687184329 0.006332268105827406 0.030271781538179554 0.9921639063938344 -0.07165457495543341
 -0.001548529622782915 -0.008937309767485493 0.0018023200800385089 0.013970520848708952 0.9921639063938344 -0.07165457495543341 0.006329445108724871 0.0302720941459569
0.1062942892872 0.006358741064844977 0.030392063305605198 0.9921287000828365 -0.07192092823429092 0.0018016067867177383 0.014023013186520944 -0.0015581354307820203 -0.008969999605403078
 0.9921287000828365 -0.07192092823429092 0.006356438828611924 0.03039231545485529 -0.0015578944256398808 -0.008970010692622557 0.0018136197409077527 0.014021360906891383
 0.0018016067867177383 0.014023013186520944 -0.0015578944256398808 -0.008970010692622557 0.006358953086410062 0.03039064564296672 0.9921286328380402 -0.07192235693823953
 -0.0015581354307820203 -0.008969999605403078 0.0018136197409077527 0.014021360906891383 0.9921286328380402 -0.07192235693823953 0.0063561095558588784 0.030390960603431945
0.11254689453939999 0.0068023913483649225 0.03232931669533667 0.9915424907603784 -0.07627440781782271 0.0019888535590513122 0.014848106716087942 -0.0017185713655375025 -0.009500363483506701
 0.9915424907603784 -0.07627440781782271 0.006799811479342013 0.032329599741329575 -0.0017183020297239092 -0.009500377469625246 0.0020023243081411387 0.014846207536483054
 0.0019888535590513122 0.014848106716087942 -0.0017183020297239092 -0.009500377469625246 0.006802630089784358 0.03232781703847439 0.9915424153500912 -0.07627592204744109
 -0.0017185713655375025 -0.009500363483506701 0.0020023243081411387 0.014846207536483054 0.9915424153500912 -0.07627592204744109 0.006799442858483879 0.032328171799216474
0.11879949979160001 0.007266069992210766 0.03428095984042998 0.9909303600969068 -0.0806406954886512 0.0021860233088528778 0.015672369773246844 -0.0018875575813043415 -0.010030128554622864
 0.9909303600969068 -0.0806406954886512 0.007263196748198684 0.03428127603822985 -0.001887258426907164 -0.01003014578877746 0.0022010355687046364 0.015670199874572938
 0.0021860233088528778 0.015672369773246844 -0.001887258426907164 -0.01003014578877746 0.00726633714087677 0.03427937841807872 0.9909302759943859 -0.08064229552690214
 -0.0018875575813043415 -0.010030128554622864 0.0022010355687046364 0.015670199874572938 0.9909302759943859 -0.08064229552690214 0.007262786614576237 0.034279776100105255
0.1250521050438 0.007750076849278815 0.036246687059357505 0.9902920130080034 -0.08501955352804826 0.0023931826023423273 0.01649564861808548 -0.002065162387277083 -0.010559142800279744
 0.9902920130080034 -0.08501955352804826 0.007746894486457135 0.03624703874223262 -0.00206483193928447 -0.010559163647038726 0.002409820062934173 0.016493182995015922
 0.0023931826023423273 0.01649564861808548 -0.00206483193928447 -0.010559163647038726 0.0077503741117924164 0.03624502411078161 0.9902919196734087 -0.08502123967555766
 -0.002065162387277083 -0.010559142800279744 0.002409820062934173 0.016493182995015922 0.9902919196734087 -0.08502123967555766 0.007746440689560697 0.03624546796173815
0.131304710296 0.00825470900618275 0.03822618998833722 0.9896271567029118 -0.08941073476799254 0.0026103952524179136 0.01731778656804376 -0.0022514512822916803 -0.011087251647966988
 0.9896271567029118 -0.08941073476799254 0.008251201776721674 0.03822657956905568 -0.002251088078513603 -0.011087276487252481 0.0026287415608977857 0.017314999019576446
 0.0026103952524179136 0.01731778656804376 -0.002251088078513603 -0.011087276487252481 0.008255038108943473 0.038224445763120236 0.9896270535827482 -0.0894125073428743
 -0.0022514512822916803 -0.011087251647966988 0.0026287415608977857 0.017314999019576446 0.9896270535827482 -0.0894125073428743 0.008250702181738052 0.038224939159070034
0.1375573155481 0.008665836778908032 0.03996193409818043 0.9890499731723451 -0.09355662938115306 0.0028104715191811865 0.018113227174844614 -0.002419222428821329 -0.011588933804999672
 0.9890499731723451 -0.09355662938115306 0.008661986929725165 0.03996235399994476 -0.0024188241379656168 -0.011588962668951423 0.0028305735273136488 0.018110121058894906
 0.0028104715191811865 0.018113227174844614 -0.0024188241379656168 -0.011588962668951423 0.008666198491211403 0.03996010909608745 0.989049859812599 -0.09355848856585487
 -0.002419222428821329 -0.011588933804999672 0.0028305735273136488 0.018110121058894906 0.989049859812599 -0.09355848856585487 0.008661440183844446 0.03996064471562148
0.1438099208003 0.009091485292566167 0.04168833406064503 0.9884524030015733 -0.09769179712646284 0.0030186139751303097 0.018905313566663213 -0.002593691675427489 -0.012087509525243565
 0.9884524030015733 -0.09769179712646284 0.009087276747642032 0.04168878599465798 -0.0025932566976237786 -0.012087542792548736 0.0030405486192861967 0.018901864782549408
 0.0030186139751303097 0.018905313566663213 -0.0025932566976237786 -0.012087542792548736 0.009091881196354018 0.041686428586503586 0.9884522788494774 -0.0976937432318308
 -0.002593691675427489 -0.012087509525243565 0.0030405486192861967 0.018901864782549408 0.9884522788494774 -0.0976937432318308 0.009086680878772607 0.04168700905489043
0.1500625260525 0.009531501942021845 0.043405239040022484 0.9878346030302584 -0.10181612854176857 0.0032347486583032083 0.019693960964760233 -0.002774786602701674 -0.012582897803244217
 0.9878346030302584 -0.10181612854176857 0.00952691860527809 0.043405724807027535 -0.002774313340038889 -0.012582935868051941 0.0032585924088072075 0.01969014452728139
 0.0032347486583032083 0.019693960964760233 -0.002774313340038889 -0.012582935868051941 0.009531933627047148 0.04340325341185082 0.9878344675216186 -0.10181816188941951
 -0.002774786602701674 -0.012582897803244217 0.0032585924088072075 0.01969014452728139 0.9878344675216186 -0.10181816188941951 0.009526271665606965 0.043403881478605646
0.15631513130469998 0.009985733006305623 0.045112502719774676 0.9871967309310167 -0.10592951469288503 0.0034588007146757094 0.02047908608517442 -0.0029624338811800426 -0.0130750193767054
