! Created with skrf 1.8.0 (http://scikit-rf.org).
# GHz S RI R 50.0 
!freq ReS11 ImS11 ReS12 ImS12 ReS13 ImS13
! ReS14 ImS14
! ReS21 ImS21 ReS22 ImS22 ReS23 ImS23
! ReS24 ImS24
! ReS31 ImS31 ReS32 ImS32 ReS33 ImS33
! ReS34 ImS34
! ReS41 ImS41 ReS42 ImS42 ReS43 ImS43
! ReS44 ImS44
!
0.0 0.001474065713192 0.0 0.9985259342867 0.0 5.690900660068e-05 0.0 -5.690900580206e-05 6.969343179815093e-21
 0.9985259342867 0.0 0.001474065713185 0.0 -5.690900580139e-05 6.969343179733042e-21 5.690900660148e-05 0.0
 5.690900660068e-05 0.0 -5.690900580139e-05 6.969343179733042e-21 0.001474065708911 0.0 0.9985259342825 0.0
 -5.690900580206e-05 6.969343179815093e-21 5.690900660148e-05 0.0 0.9985259342825 0.0 0.001474065708943 0.0
0.005 0.0015858227465235207 0.0012029653197969123 0.9983845781999415 -0.003088147974424145 8.004631378255351e-05 0.0006458662014986565 -7.769048102607242e-05 -0.0004021387859317992
 0.9983845781999415 -0.003088147974424145 0.001585816132530222 0.0012029692009296897 -7.76905926873977e-05 -0.000402138933633474 8.010085220572352e-05 0.0006458457152564232
 8.004631378255351e-05 0.0006458662014986565 -7.76905926873977e-05 -0.000402138933633474 0.0015858220311658082 0.001202898524934323 0.9983845778469156 -0.003088215033416522
 -7.769048102607242e-05 -0.0004021387859317992 8.010085220572352e-05 0.0006458457152564232 0.9983845778469156 -0.003088215033416522 0.0015858161482144389 0.00120290188423954
0.006252605252188 0.0016150784732579724 0.001508461054352229 0.9983473508119567 -0.003860950504047352 8.661223057059153e-05 0.0008076414015336118 -8.353344087066616e-05 -0.0005032010597110831
 0.9983473508119567 -0.003860950504047352 0.0016150681334833638 0.0015084659134219274 -8.35336141429231e-05 -0.000503201243151376 8.669744547894849e-05 0.0008076147622897152
 8.661223057059153e-05 0.0008076414015336118 -8.35336141429231e-05 -0.000503201243151376 0.0016150774311996779 0.0015083775755882767 0.9983473503364992 -0.003861034321971044
 -8.353344087066616e-05 -0.0005032010597110831 8.669744547894849e-05 0.0008076147622897152 0.9983473503364992 -0.003861034321971044 0.0016150682349393712 0.0015083817705705213
0.01250521050438 0.0017687680445168683 0.0030487185630868946 0.998150541255783 -0.007722778755396973 0.00012403298129676172 0.0016156166585403107 -0.00011655455584250368 -0.0010088960923909792
 0.998150541255783 -0.007722778755396973 0.0017687267460017434 0.003048728342635086 -0.00011655523269015493 -0.0010088964469993212 0.0001243729082604272 0.0016155523156877298
 0.00012403298129676172 0.0016156166585403107 -0.00011655523269015493 -0.0010088964469993212 0.0017687644323629806 0.0030485519415249184 0.9981505399102646 -0.007722946170170027
 -0.00011655455584250368 -0.0010088960923909792 0.0001243729082604272 0.0016155523156877298 0.9981505399102646 -0.007722946170170027 0.0017687277146078832 0.003048560266195748
0.01875781575657 0.0019354589285151542 0.004611073999848625 0.9979352688143529 -0.01159489896783392 0.00016925669977453276 0.002424496808823495 -0.0001560721061444605 -0.0015163387066866735
 0.9979352688143529 -0.01159489896783392 0.0019353661073510016 0.004611088755170164 -0.00015607360723107348 -0.0015163392200606 0.00017002056811714567 0.0024243816601665475
 0.00016925669977453276 0.002424496808823495 -0.00015607360723107348 -0.0015163392200606 0.0019354512229226117 0.004610824497949596 0.9979352662093276 -0.01159514989671424
 -0.0001560721061444605 -0.0015163387066866735 0.00017002056811714567 0.0024243816601665475 0.9979352662093276 -0.01159514989671424 0.0019353687238364017 0.004610836854580593
0.02501042100875 0.0021154666816310583 0.006193345813887276 0.9977012876715741 -0.015479199013371385 0.00022236974397818652 0.0032343295503300404 -0.000202182721631679 -0.002025300606533106
 0.9977012876715741 -0.015479199013371385 0.002115301798272029 0.006193365582257846 -0.0002021853610715155 -0.0020253012656644004 0.00022372700742695972 0.0032341485143962327
 0.00022236974397818652 0.0032343295503300404 -0.0002021853610715155 -0.0020253012656644004 0.0021154533576532714 0.006193013690847879 0.99770128341572 -0.015479533441735475
 -0.000202182721631679 -0.002025300606533106 0.00022372700742695972 0.0032341485143962327 0.99770128341572 -0.015479533441735475 0.002115306854290915 0.006193029937673065
0.03126302626094 0.0023090937742900356 0.007794416648775978 0.9974483390817868 -0.019376493166866134 0.00028345894129342574 0.0040450861038914265 -0.00025498038652784036 -0.0025356247777590006
 0.9974483390817868 -0.019376493166866134 0.0023088362996912947 0.0077944414462924865 -0.00025498447304496787 -0.002535625569012662 0.00028557943360683365 0.00404482210399719
 0.00028345894129342574 0.0040450861038914265 -0.00025498447304496787 -0.002535625569012662 0.0023090733035408535 0.007794002201405498 0.9974483327793982 -0.019376911107655704
 -0.00025498038652784036 -0.0025356247777590006 0.00028557943360683365 0.00404482210399719 0.9974483327793982 -0.019376911107655704 0.0023088445961189333 0.00779402214925262
0.037515631513130004 0.0025166362068946447 0.009413561998612381 0.9971761581803285 -0.023287193389742694 0.00035261078263335136 0.0048567076574241325 -0.00031455715207932714 -0.0030471790473071466
 0.9971761581803285 -0.023287193389742694 0.0025162656123366186 0.009413591818303396 -0.00031456298958687913 -0.0030471799564629233 0.00035566479021191484 0.0048563415981001945
 0.00035261078263335136 0.0048567076574241325 -0.00031456298958687913 -0.0030471799564629233 0.0025166070620631638 0.009413065563589475 0.9971761494347996 -0.023287694881695284
 -0.00031455715207932714 -0.0030471790473071466 0.00035566479021191484 0.0048563415981001945 0.9971761494347996 -0.023287694881695284 0.002516277964026561 0.009413088973545484
0.043768236765320004 0.002738386073420054 0.011050245899190285 0.9968844767415952 -0.027211513570877872 0.00042991105093399937 0.005669119467697974 -0.0003810033896032192 -0.0035598419805147412
 0.9968844767415952 -0.027211513570877872 0.002737881822149939 0.01105028070962579 -0.00038101127766067245 -0.0035598429928078486 0.0004340693497855986 0.005668630208668683
 0.00042991105093399937 0.005669119467697974 -0.00038101127766067245 -0.0035598429928078486 0.0027383467266482923 0.011049667855264433 0.9968844651518791 -0.027212098676762178
 -0.0003810033896032192 -0.0035598419805147412 0.0004340693497855986 0.005668630208668683 0.9968844651518791 -0.027212098676762178 0.002737899055850412 0.011049694436855427
0.050020842017509996 0.0029746327529406123 0.012704036478004239 0.9965730245663633 -0.031149553906970717 0.0005154445930031215 0.006482236706611384 -0.0004544078899124069 -0.0040734970342666
 0.9965730245663633 -0.031149553906970717 0.002973974292639156 0.012704076222198917 -0.0004544181239894514 -0.004073498134447264 0.000520878467249505 0.006481601035702307
 0.0005154445930031215 0.006482236706611384 -0.0004544181239894514 -0.004073498134447264 0.0029745816766392113 0.012703377253413122 0.9965730097269513 -0.031150222706571588
 -0.0004544078899124069 -0.0040734970342666 0.000520878467249505 0.006481601035702307 0.9965730097269513 -0.031150222706571588 0.002973997247788257 0.012703406663067534
0.055454545454549996 0.003191934622784066 0.014154835458556808 0.9962860962007742 -0.034582995725295336 0.0005965273339502314 0.007189361768077551 -0.0005239173750469115 -0.00452059561848643
 0.9962860962007742 -0.034582995725295336 0.003191125441472022 0.014154879423562238 -0.0005239298848649248 -0.004520596782307492 0.0006032092254794423 0.007188578379776288
 0.0005965273339502314 0.007189361768077551 -0.0005239298848649248 -0.004520596782307492 0.003191872114250355 0.014154106066131423 0.9962860782047543 -0.034583737341212
 -0.0005239173750469115 -0.00452059561848643 0.0006032092254794423 0.007188578379776288 0.9962860782047543 -0.034583737341212 0.0031911540614805107 0.014154137612244825
0.056273447269699996 0.0032256635236596162 0.014374564525182395 0.9962415302955119 -0.03510134226260154 0.0006092951614618854 0.00729596730965169 -0.0005348578873449128 -0.004588029709998031
 0.9962415302955119 -0.03510134226260154 0.0032248302789943065 0.014374609119752604 -0.0005348707590717345 -0.004588030882368416 0.0006161764102939345 0.007295159915178003
 0.0006092951614618854 0.00729596730965169 -0.0005348707590717345 -0.004588030882368416 0.0032255991922335164 0.01437382459171206 0.9962415117965892 -0.03510209485912445
 -0.0005348578873449128 -0.004588029709998031 0.0006161764102939345 0.007295159915178003 0.9962415117965892 -0.03510209485912445 0.0032248598091269487 0.014373856431490856
0.06252605252188 0.003491763895473411 0.01606150070104473 0.9958897219452316 -0.03906685689594624 0.0007115452865710894 0.008110213556461092 -0.0006224390500672226 -0.005103325977346024
 0.9958897219452316 -0.03906685689594624 0.0034907352610917533 0.016061550035615258 -0.0006224548474217928 -0.0051033272058254725 0.0007200462238944088 0.008109206999319487
 0.0007115452865710894 0.008110213556461092 -0.0006224548474217928 -0.0051033272058254725 0.003491684785121066 0.016060680580082507 0.9958896993708817 -0.03906769341040629
 -0.0006224390500672226 -0.005103325977346024 0.0007200462238944088 0.008109206999319487 0.9958896993708817 -0.03906769341040629 0.00349077223332364 0.016060714396564583
0.06877865777407 0.0037732177882977697 0.01776454194497116 0.9955173272912204 -0.04304603998603226 0.0008222761682514521 0.008924873004078036 -0.0007172354474833943 -0.005619271348359286
 0.9955173272912204 -0.04304603998603226 0.003771973122083518 0.017764595881716787 -0.0007172544549521497 -0.005619272616529239 0.0008325696170265059 0.008923637689716237
 0.0008222761682514521 0.008924873004078036 -0.0007172544549521497 -0.005619272616529239 0.003773122378495647 0.017763642205645847 0.9955173002196107 -0.043046960559373355
 -0.0007172354474833943 -0.005619271348359286 0.0008325696170265059 0.008923637689716237 0.9955173002196107 -0.043046960559373355 0.0037720184183054487 0.017763677489056003
0.07503126302626001 0.004070307618388872 0.019483402876523066 0.9951240741642859 -0.04703880617106112 0.0009415675770430049 0.009739839089890364 -0.0008193295064121963 -0.006135750285510593
 0.9951240741642859 -0.04703880617106112 0.004068826234246289 0.019483461249910704 -0.0008193520051652556 -0.00613575157665331 0.0009538268596324148 0.009738343240214173
 0.0009415675770430049 0.009739839089890364 -0.0008193520051652556 -0.00613575157665331 0.004070194393043611 0.0194824241382475 0.9951240421671097 -0.047039810962067406
 -0.0008193295064121963 -0.006135750285510593 0.0009538268596324148 0.009738343240214173 0.9951240421671097 -0.047039810962067406 0.004068880751734429 0.019482460321804375
0.08128386827845 0.004383314329169031 0.021217810048468146 0.9947096906940078 -0.051045048238840665 0.0010694977625964619 0.010555001526012967 -0.0009288019576710223 -0.006652645821993903
 0.9947096906940078 -0.051045048238840665 0.004381575490227031 0.021217872665227237 -0.000928828225654025 -0.006652647119156627 0.0010838966883231168 0.010553211151316761
 0.0010694977625964619 0.010555001526012967 -0.000928828225654025 -0.006652647119156627 0.004383181776767116 0.021216752979337953 0.9947096533352618 -0.05104613742604299
 -0.0009288019576710223 -0.006652645821993903 0.0010838966883231168 0.010553211151316761 0.9947096533352618 -0.05104613742604299 0.004381640141717784 0.021216789438651434
0.08753647353064001 0.0047125173820902365 0.022967498000761023 0.9942739055151908 -0.05506464102020698 0.0012061433657059493 0.011370246586015405 -0.001045731777527482 -0.00716983929359625
 0.9942739055151908 -0.05506464102020698 0.004710500293938605 0.022967564639978164 -0.0010457620896645093 -0.00716984057961631 0.00122285621573229 0.011368125456993904
 0.0012061433657059493 0.011370246586015405 -0.0010457620896645093 -0.00716984057961631 0.004712363997445558 0.022966363320223494 0.9942738623509589 -0.05506581479936575
 -0.001045731777527482 -0.00716983929359625 0.00122285621573229 0.011368125456993904 0.9942738623509589 -0.05506581479936575 0.0047105760083702075 0.022966399373123808
0.09378907878283 0.005058194723141193 0.02473220641565395 0.9938164479535297 -0.05909744418573252 0.0013515793335248018 0.012185457303789386 -0.0011701961244683886 -0.007687210162468013
 0.9938164479535297 -0.05909744418573252 0.005055878526299403 0.02473227682915119 -0.0011702307526802156 -0.007687211420033135 0.0013707808437189786 0.012182966923638709
 0.0013515793335248018 0.012185457303789386 -0.0011702307526802156 -0.007687211420033135 0.005058019007484639 0.024730994891873897 0.9938163985308833 -0.05909870277288768
 -0.0011701961244683886 -0.007687210162468013 0.0013707808437189786 0.012182966923638709 0.9938163985308833 -0.05909870277288768 0.005055966249283451 0.024731029798191466
0.100041684035 0.005420622729066151 0.02651167804701273 0.993337048193896 -0.06314330427276128 0.0015058788361683566 0.013000513632752349 -0.001302270273000644 -0.008204635884766559
 0.993337048193896 -0.06314330427276128 0.005417986492374779 0.026511751959840898 -0.001302309486403509 -0.008204637096441314 0.001527744178321339 0.012997613209407432
 0.0015058788361683566 0.013000513632752349 -0.001302309486403509 -0.008204637096441314 0.005420423191920618 0.026510390500436985 0.9933369920506445 -0.06314464790075287
 -0.001302270273000644 -0.008204635884766559 0.001527744178321339 0.012997613209407432 0.9933369920506445 -0.06314464790075287 0.005418087186943241 0.02651042346217674
0.1059090909091 0.005776202276840708 0.02819472259812471 0.9928669867229286 -0.0669516430755708 0.0016587973887584072 0.013765107599666496 -0.0014331942248900747 -0.008690123936013722
 0.9928669867229286 -0.0669516430755708 0.005773246609692258 0.028194799521485993 -0.0014332379833241183 -0.00869012508870924 0.0016833221418880737 0.013761783225495759
 0.0016587973887584072 0.013765107599666496 -0.0014332379833241183 -0.00869012508870924 0.005775979037933706 0.02819336450505908 0.9928669238436281 -0.06695306673224756
 -0.0014331942248900747 -0.008690123936013722 0.0016833221418880737 0.013761783225495759 0.9928669238436281 -0.06695306673224756 0.00577336036836829 0.02819339486496986
0.1062942892872 0.005800076140377456 0.028305657159909983 0.9928354374384729 -0.06720205620705581 0.0016691131844871756 0.013815292564409444 -0.001442027545317681 -0.008721991823233027
 0.9928354374384729 -0.06720205620705581 0.005797098853550422 0.028305734271142344 -0.0014420716102940304 -0.00872199297151475 0.0016938179459103156 0.013811938982945046
 0.0016691131844871756 0.013815292564409444 -0.0014420716102940304 -0.00872199297151475 0.005799851300087614 0.028304294462802554 0.9928353741021991 -0.06720348512622218
 -0.001442027545317681 -0.008721991823233027 0.0016938179459103156 0.013811938982945046 0.9928353741021991 -0.06720348512622218 0.005797213500514561 0.028304324624422377
0.11254689453939999 0.006196827983720115 0.03011388833974263 0.9923113480570536 -0.07127352445979636 0.0018413517489043025 0.014629668228900166 -0.0015895392406302048 -0.009239151182183169
 0.9923113480570536 -0.07127352445979636 0.006193488550222782 0.03011396832335268 -0.0015895884209419751 -0.009239152249522483 0.001869071910816117 0.014625816024168908
 0.0018413517489043025 0.014629668228900166 -0.0015895884209419751 -0.009239152249522483 0.006196576368643984 0.030112451413888706 0.9923112770447113 -0.07127503894036534
 -0.0015895392406302048 -0.009239151182183169 0.001869071910816117 0.014625816024168908 0.9923112770447113 -0.07127503894036534 0.0061936181488682854 0.03011247786285367
0.11879949979160001 0.006611149485575655 0.03193611556098384 0.9917645137315187 -0.07535752395000714 0.002022661878933747 0.015443511974771255 -0.0017448745631307462 -0.009755984967831479
 0.9917645137315187 -0.07535752395000714 0.00660742671517015 0.03193619806710193 -0.001744929120044892 -0.009755985936676927 0.002053573793324864 0.015439113304220795
 0.002022661878933747 0.015443511974771255 -0.001744929120044892 -0.009755985936676927 0.006610869635126272 0.031934605380789335 0.9917644345482836 -0.07535912427909665
 -0.0017448745631307462 -0.009755984967831479 0.002053573793324864 0.015439113304220795 0.9917644345482836 -0.07535912427909665 0.00660757228363372 0.031934627148328544
0.1250521050438 0.007043309979692903 0.033772081456304656 0.9911946695965569 -0.0794538607520826 0.0022131088226437098 0.01625669244415946 -0.001908100549034422 -0.010272361957803136
 0.9911946695965569 -0.0794538607520826 0.007039182580900919 0.03377216611256709 -0.0019081607413967427 -0.010272362810638704 0.0022473891882447534 0.01625169706088825
 0.0022131088226437098 0.01625669244415946 -0.0019081607413967427 -0.010272362810638704 0.007043000445428125 0.03377049904777722 0.9911945817357177 -0.07945554723469594
 -0.001908100549034422 -0.010272361957803136 0.0022473891882447534 0.01625169706088825 0.9911945817357177 -0.07945554723469594 0.007039345157065456 0.03377051510991611
0.131304710296 0.00749357680855339 0.035621526732166876 0.9906015523774194 -0.08356233266200866 0.002412755646755988 0.017069075634985865 -0.0020792819923262968 -0.010788148688348851
 0.9906015523774194 -0.08356233266200866 0.007489023381389043 0.035621613145380294 -0.002079348076691913 -0.010788149407696415 0.002450581483931647 0.01706343086109483
 0.002412755646755988 0.017069075634985865 -0.002079348076691913 -0.010788149407696415 0.00749323615519398 0.03561987317250628 0.9906014553189824 -0.08356410562155464
 -0.0020792819923262968 -0.010788148688348851 0.002450581483931647 0.01706343086109483 0.9906014553189824 -0.08356410562155464 0.007489204023077566 0.03561988245122227
0.1375573155481 0.007857508589317016 0.037242190323342916 0.990089645771841 -0.08744062730038346 0.002595850792013949 0.017855880471996516 -0.0022326233116890166 -0.011278612891842664
 0.990089645771841 -0.08744062730038346 0.00785250694913402 0.03724227858147222 -0.0022326958463736897 -0.01127861348955893 0.002637300909306109 0.017849595722770697
 0.002595850792013949 0.017855880471996516 -0.0022326958463736897 -0.01127861348955893 0.00785713615299105 0.03724046622012478 0.9900895390916201 -0.08744248692910664
 -0.0022326233116890166 -0.011278612891842664 0.002637300909306109 0.017849595722770697 0.9900895390916201 -0.08744248692910664 0.007852705774645058 0.03724046886258821
0.1438099208003 0.00823419317155872 0.03885455052610338 0.9895598351365523 -0.09130934380510526 0.002786342334218785 0.018639730104673274 -0.0023921119539404034 -0.011766340221679083
 0.9895598351365523 -0.09130934380510526 0.0082287216729506 0.03885464046307081 -0.0023921912463307935 -0.011766340676912805 0.0028315764583985554 0.018632757435915675
 0.002786342334218785 0.018639730104673274 -0.0023921912463307935 -0.011766340676912805 0.008233787675348261 0.03885275695847976 0.9895597183155054 -0.09131129042104524
 -0.0023921119539404034 -0.011766340221679083 0.0028315764583985554 0.018632757435915675 0.9895597183155054 -0.09131129042104524 0.008228939599239734 0.038852752175678726
0.1500625260525 0.008623501617406904 0.04045847982576794 0.9890122533503788 -0.09516839372620992 0.002984167008666677 0.01942055191745577 -0.0025576858411541976 -0.01225126044158404
 0.9890122533503788 -0.09516839372620992 0.00861753851281343 0.04045857129874279 -0.002557772199935701 -0.012251260732454602 0.0030333440361034547 0.01941284162788982
 0.002984167008666677 0.01942055191745577 -0.002557772199935701 -0.012251260732454602 0.008623061806192276 0.04045661791640455 0.9890121258586989 -0.09517042765769423
 -0.0025576858411541976 -0.01225126044158404 0.0030333440361034547 0.01941284162788982 0.9890121258586989 -0.09517042765769423 0.00861777646534606 0.040456604919920265
0.15631513130469998 0.009025304114724946 0.042053854589978235 0.9884470339243202 -0.09901768876927516 0.003189260830670531 0.020198274487038086 -0.002729282153756152 -0.012733304766267977
