! Created with skrf 1.8.0 (http://scikit-rf.org).
# GHz S RI R 50.0 
!freq ReS11 ImS11 ReS12 ImS12 ReS13 ImS13
! ReS14 ImS14
! ReS21 ImS21 ReS22 ImS22 ReS23 ImS23
! ReS24 ImS24
! ReS31 ImS31 ReS32 ImS32 ReS33 ImS33
! ReS34 ImS34
! ReS41 ImS41 ReS42 ImS42 ReS43 ImS43
! ReS44 ImS44
!
0.0 0.001578307996992 0.0 0.9984216920002 0.0 6.116402485713e-05 0.0 -6.116402459006e-05 7.490432693718697e-21
 0.9984216920002 0.0 0.001578307996991 0.0 -6.116402458997e-05 7.490432693707677e-21 6.116402485584e-05 0.0
 6.116402485713e-05 0.0 -6.116402458997e-05 7.490432693707677e-21 0.001578307987037 0.0 0.9984216919902 0.0
 -6.116402459006e-05 7.490432693718697e-21 6.116402485584e-05 0.0 0.9984216919902 0.0 0.001578307987041 0.0
0.005 0.001698276616077535 0.0012868958703837077 0.9982698778337026 -0.003306229939009136 8.644606608089102e-05 0.0006993898658517495 -8.374898971290287e-05 -0.00043453297211976387
 0.9982698778337026 -0.003306229939009136 0.0016982953403416792 0.0012868849672570618 -8.375145785228566e-05 -0.00043453489641893435 8.632399275506242e-05 0.0006994363884342119
 8.644606608089102e-05 0.0006993898658517495 -8.375145785228566e-05 -0.00043453489641893435 0.0016982748513336254 0.0012868296803133289 0.9982698774717196 -0.0033062969929605317
 -8.374898971290287e-05 -0.00043453297211976387 8.632399275506242e-05 0.0006994363884342119 0.9982698774717196 -0.0033062969929605317 0.0016982963886029091 0.0012868170562624413
0.006252605252188 0.0017297705897242545 0.0016136972839826311 0.9982297631727716 -0.0041335927573964435 9.370041475050786e-05 0.0008745613189356019 -9.014373685491387e-05 -0.0005437318352973091
 0.9982297631727716 -0.0041335927573964435 0.0017297998585881047 0.0016136834131835072 -9.014757723518901e-05 -0.0005437342084222141 9.350968708760147e-05 0.0008746217279931847
 9.370041475050786e-05 0.0008745613189356019 -9.014757723518901e-05 -0.0005437342084222141 0.0017297679065928992 0.0016136145547408726 0.9982297626827863 -0.004133676574584464
 -9.014373685491387e-05 -0.0005437318352973091 9.350968708760147e-05 0.0008746217279931847 0.9982297626827863 -0.004133676574584464 0.0017298015737687703 0.0016135985232576249
0.01250521050438 0.0018957356956304425 0.00326130540556529 0.9980169260849022 -0.00826797555874798 0.00013546708932676526 0.0017493805715162035 -0.00012652434925969388 -0.0010901016434077464
 0.9980169260849022 -0.00826797555874798 0.0018958525615064073 0.003261275239559254 -0.00012653948125448098 -0.001090106035916008 0.0001347065253302278 0.0017495257666004912
 0.00013546708932676526 0.0017493805715162035 -0.00012653948125448098 -0.001090106035916008 0.0018957255319509093 0.0032611402922633043 0.9980169246815362 -0.008268142963825147
 -0.00012652434925969388 -0.0010901016434077464 0.0001347065253302278 0.0017495257666004912 0.9980169246815362 -0.008268142963825147 0.0018958599720039426 0.0032611056840454065
0.01875781575657 0.0020765733399092726 0.004932418866277016 0.9977829108953559 -0.012413206796424102 0.0001865607638745755 0.002625064254308875 -0.0001704201757799238 -0.0016382824397661254
 0.9977829108953559 -0.012413206796424102 0.0020768359330713727 0.004932369846694237 -0.0001704539169424552 -0.0016382884291266068 0.0001848522721085124 0.002625323473188797
 0.0001865607638745755 0.002625064254308875 -0.0001704539169424552 -0.0016382884291266068 0.0020765509192217885 0.004932171642277486 0.9977829081633892 -0.01241345772626648
 -0.0001704201757799238 -0.0016382824397661254 0.0001848522721085124 0.002625323473188797 0.9977829081633892 -0.01241345772626648 0.0020768530260244678 0.004932115700694011
0.02501042100875 0.0022726421594274726 0.006624680156716422 0.9975274369554079 -0.01657128540787279 0.0002470799772418435 0.0035016473408911956 -0.00022194152946049985 -0.0021880124373646545
 0.9975274369554079 -0.01657128540787279 0.002273108487807334 0.006624609610364484 -0.00022200110862821134 -0.0021880195248607064 0.00024404534630589672 0.0035020545165983987
 0.0002470799772418435 0.0035016473408911956 -0.00022200110862821134 -0.0021880195248607064 0.002272602705868885 0.006624351145052569 0.9975274324717538 -0.016571619842347007
 -0.00022194152946049985 -0.0021880124373646545 0.00024404534630589672 0.0035020545165983987 0.9975274324717538 -0.016571619842347007 0.0022731392479530335 0.006624270925012903
0.03126302626094 0.002484285921413551 0.008336870543516154 0.9972502095754363 -0.02074306006751939 0.00031712383332615883 0.0043790809593786196 -0.0002811954222055559 -0.0027391072941945513
 0.9972502095754363 -0.02074306006751939 0.0024850139038675094 0.00833677568664142 -0.00028128799456404567 -0.0027391149040479207 0.0003123843822106379 0.004379674747239233
 0.00031712383332615883 0.0043790809593786196 -0.00028128799456404567 -0.0027391149040479207 0.002484224667754641 0.008336460117175868 0.9972502029178688 -0.020743478029687238
 -0.0002811954222055559 -0.0027391072941945513 0.0003123843822106379 0.004379674747239233 0.9972502029178688 -0.020743478029687238 0.0024850623251372835 0.008336352488937444
0.037515631513130004 0.0027118408418746603 0.01006819120512459 0.9969509275893296 -0.024928947990872346 0.00039679091581445384 0.0052572830510374206 -0.0003482863791848219 -0.003291409453844865
 0.9969509275893296 -0.024928947990872346 0.002712888330570346 0.010068069145742835 -0.00034841903387191703 -0.003291416932957494 0.00038996733836677233 0.005258106875664419
 0.00039679091581445384 0.0052572830510374206 -0.00034841903387191703 -0.003291416932957494 0.002711753024644296 0.010067699818911731 0.9969509183307043 -0.024929449515734455
 -0.0003482863791848219 -0.003291409453844865 0.00038996733836677233 0.005258106875664419 0.9969509183307043 -0.024929449515734455 0.0027129584133065454 0.01006756146965886
0.043768236765320004 0.002955638407102838 0.011818044471182839 0.9966292864259126 -0.029129153625137398 0.00048617878324722525 0.006136153801520553 -0.00042331672447966357 -0.0038447727190138235
 0.9966292864259126 -0.029129153625137398 0.0029570632064572075 0.011817892210560867 -0.0004234964892009286 -0.003844779336904046 0.00047689107606572654 0.006137255909974743
 0.00048617878324722525 0.006136153801520553 -0.0004234964892009286 -0.003844779336904046 0.002955519268325071 0.011817472634941307 0.9966292741354714 -0.02912973878716334
 -0.00042331672447966357 -0.0038447727190138235 0.00047689107606572654 0.006137255909974743 0.9966292741354714 -0.02912973878716334 0.0029571589594995394 0.01181730006932559
0.050020842017509996 0.003216006677212111 0.013585943410864514 0.9962849796673052 -0.03334375898915416 0.0005853836641890358 0.007015582001628471 -0.0005063866836558558 -0.004399055899396539
 0.9962849796673052 -0.03334375898915416 0.0032178665599383737 0.013585757844656977 -0.0005066205275252913 -0.004399060848206958 0.000573251098673976 0.007017015519081146
 0.0005853836641890358 0.007015582001628471 -0.0005066205275252913 -0.004399060848206958 0.003215851465124655 0.013585291715608785 0.9962849639095891 -0.03334442787699767
 -0.0005063866836558558 -0.004399055899396539 0.000573251098673976 0.007017015519081146 0.9962849639095891 -0.03334442787699767 0.003217992002125487 0.013585081255614655
0.055454545454549996 0.003455984741569075 0.015136628652584156 0.995967120743505 -0.03701807758664802 0.0006796419058363577 0.0077801918547596065 -0.0005851824217477943 -0.004881383662217239
 0.995967120743505 -0.03701807758664802 0.0034582696305964487 0.015136411539950115 -0.0005854688777870211 -0.004881386444393874 0.0006647273095640398 0.007781960352074199
 0.0006796419058363577 0.0077801918547596065 -0.0005854688777870211 -0.004881386444393874 0.003455794326179406 0.01513590809453122 0.9959671016140725 -0.03701881932418856
 -0.0005851824217477943 -0.004881383662217239 0.0006647273095640398 0.007781960352074199 0.9959671016140725 -0.03701881932418856 0.003458424144769114 0.01513566157382629
0.056273447269699996 0.0034932709541930823 0.015371467466511817 0.9959176999754413 -0.037572767970051546 0.0006945002434658841 0.007895448175472369 -0.0005975944015628674 -0.0049541196963821055
 0.9959176999754413 -0.037572767970051546 0.0034956236768380737 0.015371245385110957 -0.0005978892370541919 -0.004954122090909542 0.000679141364461113 0.007897271161941076
 0.0006945002434658841 0.007895448175472369 -0.0005978892370541919 -0.004954122090909542 0.0034930749229186656 0.015370736577047302 0.9959176803087901 -0.03757352069460793
 -0.0005975944015628674 -0.0049541196963821055 0.000679141364461113 0.007897271161941076 0.9959176803087901 -0.03757352069460793 0.0034957828367240397 0.015370484361349187
0.06252605252188 0.003787754134086854 0.017174238054867657 0.9955271397073331 -0.04181613065532777 0.000813621489893979 0.008775626307558225 -0.0006970359208496404 -0.005509824993431871
 0.9955271397073331 -0.04181613065532777 0.003790657451745712 0.017173976143548132 -0.0006973986051252572 -0.005509823871177721 0.000794654132244954 0.00877790181504609
 0.000813621489893979 0.008775626307558225 -0.0006973986051252572 -0.005509823871177721 0.003787512546013313 0.017173428709766566 0.9955271156848252 -0.041816967350585675
 -0.0006970359208496404 -0.005509824993431871 0.000794654132244954 0.00877790181504609 0.9955271156848252 -0.041816967350585675 0.0037908543697104434 0.01717313069260889
0.06877865777407 0.004099776887549293 0.018993904022685568 0.995112991363049 -0.04607375781518418 0.0009428385123434017 0.009655984866847035 -0.0008048051330753803 -0.00606603185445562
 0.995112991363049 -0.04607375781518418 0.00410328856799687 0.018993598861186047 -0.000805242468822124 -0.006066026175680777 0.0009198798296020951 0.009658780996437247
 0.0009428385123434017 0.009655984866847035 -0.000805242468822124 -0.006066026175680777 0.004099485012600655 0.01899301704216956 0.995112962530094 -0.04607467863102556
 -0.0008048051330753803 -0.00606603185445562 0.0009198798296020951 0.009658780996437247 0.995112962530094 -0.04607467863102556 0.004103527295591816 0.018992668991816987
0.07503126302626001 0.004429657738328135 0.020830132435230714 0.9946749479359268 -0.05034553005693316 0.0010822404270303112 0.010536387473478707 -0.0009209937179125416 -0.006622598884683006
 0.9946749479359268 -0.05034553005693316 0.004433835576125132 0.020829780496939627 -0.0009215124539698167 -0.006622587532484583 0.0010549069298520523 0.010539777432212415
 0.0010822404270303112 0.010536387473478707 -0.0009215124539698167 -0.006622587532484583 0.004429310855876325 0.02082916871428607 0.9946749138300657 -0.05034653516673885
 -0.0009209937179125416 -0.006622598884683006 0.0010549069298520523 0.010539777432212415 0.9946749138300657 -0.05034653516673885 0.004434120177319117 0.020828766211000757
0.08128386827845 0.004777713078367348 0.022682602440620724 0.9942127032024921 -0.05463130390919364 0.001231914235936865 0.011416693342463244 -0.0010456910708444992 -0.007179382820086225
 0.9942127032024921 -0.05463130390919364 0.004782614909168431 0.022682200091225155 -0.0010462979024950549 -0.007179364600473259 0.0011998218377926907 0.011420755499681773
 0.001231914235936865 0.011416693342463244 -0.0010462979024950549 -0.007179364600473259 0.004777306478034218 0.02268156295290782 0.9942126633532298 -0.05463239350658678
 -0.0010456910708444992 -0.007179382820086225 0.0011998218377926907 0.011420755499681773 0.9942126633532298 -0.05463239350658678 0.004782949461160607 0.02268110138639354
0.08753647353064001 0.005144257139742179 0.02455100102990051 0.9937259519744025 -0.05893091601617598 0.0013919447106720646 0.012296757597149682 -0.0011789842245846604 -0.007736238252555045
 0.9937259519744025 -0.05893091601617598 0.0051499408540771514 0.024550544525719444 -0.0011796857938073252 -0.00773621189453868 0.0013547087793071833 0.012301575540337903
 0.0013919447106720646 0.012296757597149682 -0.0011796857938073252 -0.00773621189453868 0.005143786122511766 0.024549886829749835 0.993725905901492 -0.058932090313674176
 -0.0011789842245846604 -0.007736238252555045 0.0013547087793071833 0.012301575540337903 0.993725905901492 -0.058932090313674176 0.005150329447300399 0.024549361396256766
0.09378907878283 0.005529601937670769 0.02643502001868647 0.9932143903239058 -0.06324418611679698 0.0015624142792816616 0.013176431505940316 -0.0013209577665486071 -0.008293017437655786
 0.9932143903239058 -0.06324418611679698 0.005536125495120854 0.02643450550434559 -0.0013217606619727938 -0.008292981593346767 0.0015196496935109707 0.013182094095833598
 0.0015624142792816616 0.013176431505940316 -0.0013217606619727938 -0.008292981593346767 0.00552906181715975 0.02643383224201858 0.9932143375374001 -0.06324544534544645
 -0.0013209577665486071 -0.008293017437655786 0.0015196496935109707 0.013182094095833598 0.9932143375374001 -0.06324544534544645 0.005536572234686269 0.02643323794085905
0.100041684035 0.0059340571922638745 0.028334353825108263 0.9926777157924411 -0.06757091923395729 0.001743402917617821 0.01405556265742908 -0.0014716937512509415 -0.008849570169989366
 0.9926777157924411 -0.06757091923395729 0.005941478635587935 0.02833377733083451 -0.0014726045081435647 -0.008849523414706718 0.0016947241279314186 0.014062164082281767
 0.001743402917617821 0.01405556265742908 -0.0014726045081435647 -0.008849523414706718 0.005933443295586879 0.028333093687248255 0.9926776557914333 -0.06757226364610056
 -0.0014716937512509415 -0.008849570169989366 0.0016947241279314186 0.014062164082281767 0.9926776557914333 -0.06757226364610056 0.005941987640995148 0.028332425316820575
0.1059090909091 0.006331250101559119 0.030130334434859237 0.992150995811282 -0.0716431586514804 0.0019228775309488983 0.01487990150363764 -0.0016211836239376483 -0.009371493879662135
 0.992150995811282 -0.0716431586514804 0.0063395669913287826 0.03012969606370872 -0.0016222014934384014 -0.009371435521545653 0.0018682979106854369 0.0148874743813632
 0.0019228775309488983 0.01487990150363764 -0.0016222014934384014 -0.009371435521545653 0.006330562737160882 0.030129007573625174 0.9921509285741479 -0.07164458324423474
 -0.0016211836239376483 -0.009371493879662135 0.0018682979106854369 0.0148874743813632 0.9921509285741479 -0.07164458324423474 0.0063401381870446345 0.03012826478341665
0.1062942892872 0.006357930234347541 0.030248697810224708 0.992115627586486 -0.07191090730815165 0.0019349880406088263 0.014933995110530698 -0.001631271611611898 -0.009405743689522784
 0.992115627586486 -0.07191090730815165 0.00636630770372693 0.030248055248516696 -0.0016322967117029423 -0.009405684521902739 0.001880009134131651 0.014941634939555335
 0.0019349880406088263 0.014933995110530698 -0.0016322967117029423 -0.009405684521902739 0.00635723790361475 0.030247366609840527 0.9921155598581429 -0.07191233717387253
 -0.001631271611611898 -0.009405743689522784 0.001880009134131651 0.014941634939555335 0.9921155598581429 -0.07191233717387253 0.006366883109942627 0.030246618763216503
0.11254689453939999 0.006801525899222852 0.032177747013411535 0.9915278267638764 -0.07626393044301424 0.0021372443966357706 0.01581156950797848 -0.0017997680671022764 -0.00996138263082772
 0.9915278267638764 -0.07626393044301424 0.006810917646485715 0.032177034175357284 -0.001800913938364043 -0.009961309472970341 0.0020755791649310668 0.01582035274382659
 0.0021372443966357706 0.01581156950797848 -0.001800913938364043 -0.009961309472970341 0.006800750492949702 0.03217634613018424 0.9915277507836501 -0.07626544605307627
 -0.0017997680671022764 -0.00996138263082772 0.0020755791649310668 0.01582035274382659 0.9915277507836501 -0.07626544605307627 0.006811563604525094 0.03217551319008309
0.11879949979160001 0.007265146411955272 0.03412119516165688 0.9909140164163087 -0.08062975788444604 0.0023502439619382397 0.016688123182926017 -0.001977257031003643 -0.010516328985615863
 0.9909140164163087 -0.08062975788444604 0.007275610815251169 0.03412040771247667 -0.0019785300473297465 -0.010516240183201435 0.0022815059722264288 0.016698160313107474
 0.0023502439619382397 0.016688123182926017 -0.0019785300473297465 -0.010516240183201435 0.007264283306039942 0.03411972605998185 0.9909139316458886 -0.08063135954687387
 -0.001977257031003643 -0.010516328985615863 0.0022815059722264288 0.016698160313107474 0.9909139316458886 -0.08063135954687387 0.007276331492354066 0.034118802193204636
0.1250521050438 0.00774909126416887 0.03607873390186868 0.9902739018442601 -0.08500814878386634 0.0025740558363797636 0.017563490250822173 -0.0021638095162137953 -0.011070422086360426
 0.9902739018442601 -0.08500814878386634 0.0077606868420880834 0.03607786737610895 -0.002165215997118758 -0.011070315908837593 0.002497858505401731 0.01757489729799785
 0.0025740558363797636 0.017563490250822173 -0.002165215997118758 -0.011070315908837593 0.0077481358533926905 0.036077198127937325 0.9902738077316241 -0.08500983682727792
 -0.0021638095162137953 -0.011070422086360426 0.002497858505401731 0.01757489729799785 0.9902738077316241 -0.08500983682727792 0.007761486422719735 0.03607617727933438
0.131304710296 0.008253657085651407 0.03805005218193388 0.989607190730716 -0.08939885282059985 0.002808746139801986 0.018437501691945555 -0.002359493540400675 -0.011623498605866481
 0.989607190730716 -0.08939885282059985 0.008266442511981 0.03804910197795005 -0.0023610397505688598 -0.011623373246576458 0.002724702810290227 0.018450400263147506
 0.002808746139801986 0.018437501691945555 -0.0023610397505688598 -0.011623373246576458 0.008252604785063865 0.03804845136593694 0.9896070867087767 -0.08940062759219197
 -0.002359493540400675 -0.011623498605866481 0.002724702810290227 0.018450400263147506 0.9896070867087767 -0.08940062759219197 0.008267325197953477 0.038047327251745866
0.1375573155481 0.008664785475099747 0.0397769383916244 0.9890279901468938 -0.09354359810405666 0.003025616913300196 0.01928415039482353 -0.002535712079453145 -0.01214950423196143
 0.9890279901468938 -0.09354359810405666 0.008678824954565812 0.039775922841168286 -0.0025374073932139495 -0.012149359514448888 0.0029335328198517707 0.019298524054878256
 0.003025616913300196 0.01928415039482353 -0.0025374073932139495 -0.012149359514448888 0.008663632322071046 0.03977527391687136 0.9890278757548902 -0.09354545980569555
 -0.002535712079453145 -0.01214950423196143 0.0029335328198517707 0.019298524054878256 0.9890278757548902 -0.09354545980569555 0.00867979413915009 0.03977406346239637
0.1438099208003 0.009090409431649762 0.04149442531659806 0.9884283359675982 -0.09767754751780493 0.003251260844915003 0.020127192077809206 -0.0027189788998576675 -0.012672249078752093
 0.9884283359675982 -0.09767754751780493 0.009105762703364466 0.04149334122174497 -0.002720830062920095 -0.012672083220892388 0.0031507838831652903 0.020143152281104117
 0.003251260844915003 0.020127192077809206 -0.002720830062920095 -0.012672083220892388 0.009089150981277876 0.041492698857119 0.9884282106392759 -0.0976794964886654
 -0.0027189788998576675 -0.012672249078752093 0.0031507838831652903 0.020143152281104117 0.9884282106392759 -0.0976794964886654 0.009106822468308982 0.04149139716373945
0.1500625260525 0.00953037466832092 0.04320236084062327 0.987808386719345 -0.10180058976660428 0.0034855984021874187 0.02096653432756513 -0.00290921752879405 -0.013191647377779066
 0.987808386719345 -0.10180058976660428 0.009547101653055433 0.043201204784910165 -0.0029112312716538715 -0.013191458525804464 0.0033763786133707016 0.020984196602555724
 0.0034855984021874187 0.02096653432756513 -0.0029112312716538715 -0.013191458525804464 0.009529006502128097 0.043200574137102876 0.9878082498756892 -0.10180262635831958
 -0.00290921752879405 -0.013191647377779066 0.0033763786133707016 0.020984196602555724 0.9878082498756892 -0.10180262635831958 0.009548256088061027 0.0431991760190129
0.15631513130469998 0.009984525747564437 0.04490059742269474 0.9871683017947648 -0.10591261413132744 0.003728549080710053 0.02180208633499106 -0.0031063505230841597 -0.013707615218686048
 0.9871683017947648 -0.10591261413132744 0.010002686553117968 0.04489936576352177 -0.0031085335607453834 -0.013707401447508096 0.0036102386852209394 0.021821570241106456
