! Created with skrf 1.8.0 (http://scikit-rf.org).
# GHz S RI R 50.0 
!freq ReS11 ImS11 ReS12 ImS12 ReS13 ImS13
! ReS14 ImS14
! ReS21 ImS21 ReS22 ImS22 ReS23 ImS23
! ReS24 ImS24
! ReS31 ImS31 ReS32 ImS32 ReS33 ImS33
! ReS34 ImS34
! ReS41 ImS41 ReS42 ImS42 ReS43 ImS43
! ReS44 ImS44
!
0.0 0.001472138312843 0.0 0.9985278616841 0.0 5.687492952985e-05 0.0 -5.687493041797e-05 6.965170148809539e-21
 0.9985278616841 0.0 0.001472138312836 0.0 -5.6874930418e-05 6.965170148813213e-21 5.687492952971e-05 0.0
 5.687492952985e-05 0.0 -5.6874930418e-05 6.965170148813213e-21 0.001472138314268 0.0 0.9985278616855 0.0
 -5.687493041797e-05 6.965170148809539e-21 5.687492952971e-05 0.0 0.9985278616855 0.0 0.001472138314257 0.0
0.005 0.0015837361360980587 0.001200522998786242 0.9983866820718639 -0.0030842299135586215 8.022619449542702e-05 0.0006503389648545893 -7.77346136011262e-05 -0.00040412087619337756
 0.9983866820718639 -0.0030842299135586215 0.0015837636840650964 0.00120050689344037 -7.773015683549136e-05 -0.00040411746026964543 8.007059985955328e-05 0.0006503981842123122
 8.022619449542702e-05 0.0006503389648545893 -7.773015683549136e-05 -0.00040411746026964543 0.001583738729263427 0.00120058872299349 0.9983866824240303 -0.00308416285184878
 -7.77346136011262e-05 -0.00040412087619337756 8.007059985955328e-05 0.0006503981842123122 0.9983866824240303 -0.00308416285184878 0.0015837617896809898 0.0012005752883219143
0.006252605252188 0.0016129437417297084 0.0015054028913704016 0.9983495024585946 -0.0038560525028460664 8.688247195276018e-05 0.000813230353303083 -8.360050456798045e-05 -0.0005056824139560359
 0.9983495024585946 -0.0038560525028460664 0.0016129868045665705 0.0015053824571912195 -8.359356938122313e-05 -0.0005056782019126348 8.66393686916023e-05 0.0008133072328088436
 8.688247195276018e-05 0.000813230353303083 -8.359356938122313e-05 -0.0005056782019126348 0.0016129477219764294 0.00150548503644082 0.9983495029354483 -0.0038559686809301794
 -8.360050456798045e-05 -0.0005056824139560359 8.66393686916023e-05 0.0008133072328088436 0.9983495029354483 -0.0038559686809301794 0.0016129837691454352 0.0015054679461516936
0.01250521050438 0.0017663435657738586 0.003042573398507727 0.9981529528977764 -0.007712988176044691 0.00012497384247460688 0.0016267589535819465 -0.00011675617264167032 -0.0010138760315002303
 0.9981529528977764 -0.007712988176044691 0.0017665155204557097 0.0030425294723519123 -0.00011672884005785707 -0.0010138682397122518 0.0001240043766423248 0.001626943425638371
 0.00012497384247460688 0.0016267589535819465 -0.00011672884005785707 -0.0010138682397122518 0.0017663588995032692 0.0030427373658252505 0.9981529542402304 -0.007712820773047625
 -0.00011675617264167032 -0.0010138760315002303 0.0001240043766423248 0.001626943425638371 0.9981529542402304 -0.007712820773047625 0.001766502831966738 0.003042700218260206
0.01875781575657 0.0019326617946198103 0.004601824520456657 0.9979379767051846 -0.011580210366170523 0.00017123394488504092 0.0024411620504342043 -0.00015644199602143279 -0.0015238241370846373
 0.9979379767051846 -0.011580210366170523 0.001933048192224017 0.004601753793537177 -0.00015638104051681444 -0.0015238135151182676 0.0001690560811392204 0.002441490629502687
 0.00017123394488504092 0.0024411620504342043 -0.00015638104051681444 -0.0015238135151182676 0.0019326958353426667 0.0046020700570067385 0.9979379793041597 -0.011579959461909652
 -0.00015644199602143279 -0.0015238241370846373 0.0001690560811392204 0.002441490629502687 0.9979379793041597 -0.011579959461909652 0.0019330192496697439 0.004602009742934948
0.02501042100875 0.0021122134438184966 0.006180977484405083 0.9977043286028581 -0.01545960482808211 0.0002257496023216363 0.0032564849341120902 -0.0002027549040137987 -0.0020352958352480304
 0.9977043286028581 -0.01545960482808211 0.002112899668465426 0.006180876427349169 -0.0002026472565611964 -0.002035283263292875 0.0002218810742319124 0.003256999724579761
 0.0002257496023216363 0.0032564849341120902 -0.0002026472565611964 -0.002035283263292875 0.0021122735289475915 0.0061813043026662405 0.9977043328462558 -0.01545927044878688
 -0.0002027549040137987 -0.0020352958352480304 0.0002218810742319124 0.003256999724579761 0.9977043328462558 -0.01545927044878688 0.002112847871955424 0.006181217594373145
0.03126302626094 0.002305300426565685 0.00777891650626906 0.9974517503999534 -0.019351984944644476 0.0002886084218057945 0.004072695293216487 -0.00025578916456657903 -0.0025481325888889283
 0.9974517503999534 -0.019351984944644476 0.0023063717411055764 0.007778781374539908 -0.00025562188576985686 -0.0025481190794575718 0.0002825662781485252 0.004073444021124937
 0.0002886084218057945 0.004072695293216487 -0.00025562188576985686 -0.0025481190794575718 0.0023053938868270504 0.007779324245430664 0.997451756679676 -0.019351567101411914
 -0.00025578916456657903 -0.0025481325888889283 0.0002825662781485252 0.004073444021124937 0.997451756679676 -0.019351567101411914 0.0023062904947192438 0.007779207802347425
0.037515631513130004 0.002512218180686677 0.009394918185282614 0.9971799778040367 -0.023257762274527426 0.00035989781343853054 0.004889730310684186 -0.0003156370992379595 -0.0030622011108481827
 0.9971799778040367 -0.023257762274527426 0.0025137597569136623 0.00939474502157942 -0.0003153973655848077 -0.0030621878093174248 0.00035119821161150875 0.004890766380479854
 0.00035989781343853054 0.004889730310684186 -0.0003153973655848077 -0.0030621878093174248 0.0025123523373621636 0.009395406423678004 0.9971799865123562 -0.023257260950143563
 -0.0003156370992379595 -0.0030622011108481827 0.00035119821161150875 0.004890766380479854 0.9971799865123562 -0.023257260950143563 0.002513642462732531 0.009395256795698918
0.043768236765320004 0.002733258225099247 0.011028447455490281 0.9968887431671876 -0.027177150534021005 0.0004397045413120221 0.005707510993351456 -0.00038238933965701477 -0.0035773790284966077
 0.9968887431671876 -0.027177150534021005 0.0027353551670512384 0.011028232090881038 -0.000382064435373714 -0.003577367213322297 0.0004278626462789826 0.00570889355239751
 0.0004397045413120221 0.005707510993351456 -0.000382064435373714 -0.003577367213322297 0.002733440392929918 0.011029015698365405 0.9968887546997584 -0.027176565694370318
 -0.00038238933965701477 -0.0035773790284966077 0.0004278626462789826 0.00570889355239751 0.9968887546997584 -0.027176565694370318 0.0027351952262852273 0.011028829328274063
0.050020842017509996 0.002968709352407476 0.012679073231863406 0.9965777768726778 -0.031110249882234917 0.0005281144581204419 0.006525948085307104 -0.0004561349246909525 -0.004093548967877987
 0.9965777768726778 -0.031110249882234917 0.0029714467165375858 0.012678811286081303 -0.0004557122364952443 -0.004093540050684077 0.0005126443973396356 0.006527742091609497
 0.0005281144581204419 0.006525948085307104 -0.0004557122364952443 -0.004093540050684077 0.002968946838731246 0.012679720906840017 0.9965777916279499 -0.031109581479864225
 -0.0004561349246909525 -0.004093548967877987 0.0005126443973396356 0.006527742091609497 0.9965777916279499 -0.031109581479864225 0.0029712375277089016 0.012679494132058601
0.055454545454549996 0.0031852497776145346 0.014127114196378203 0.9962913029449679 -0.03453939051657173 0.0006119980529331177 0.007237652913881854 -0.0005259694981071787 -0.0045428323824083265
 0.9962913029449679 -0.03453939051657173 0.0031886127408438975 0.014126808048582252 -0.0005254516661620299 -0.004542827233509178 0.0005929796035511963 0.007239861799059622
 0.0006119980529331177 0.007237652913881854 -0.0005254516661620299 -0.004542827233509178 0.003185541266078796 0.01412783037746467 0.9962913208272927 -0.034538649443653764
 -0.0005259694981071787 -0.0045428323824083265 0.0005929796035511963 0.007239861799059622 0.9962913208272927 -0.034538649443653764 0.0031883553901427535 0.01412756543454311
0.056273447269699996 0.003218858245253035 0.014346427017936689 0.9962468081486577 -0.035057088245327876 0.0006252123216028828 0.007344944963779711 -0.0005369613257604212 -0.004610595658497897
 0.9962468081486577 -0.035057088245327876 0.003222321058354491 0.014346113899205329 -0.0005364283393684279 -0.004610591184106352 0.0006056271735892619 0.007347221255197502
 0.0006252123216028828 0.007344944963779711 -0.0005364283393684279 -0.004610591184106352 0.003219158349800571 0.01434715347907791 0.996246826528612 -0.03505633621435296
 -0.0005369613257604212 -0.004610595658497897 0.0006056271735892619 0.007347221255197502 0.996246826528612 -0.03505633621435296 0.0032220560164493563 0.014346882533043222
0.06252605252188 0.0034839898071098384 0.016030180151016517 0.9958955656012972 -0.03901764400526642 0.0007310816508726309 0.008164399245419736 -0.0006249544364401503 -0.005128404331084746
 0.9958955656012972 -0.03901764400526642 0.0034882630837596734 0.016029811055318824 -0.0006242987341788447 -0.005128405977520911 0.0007068934561966037 0.008167234609471176
 0.0007310816508726309 0.008164399245419736 -0.0006242987341788447 -0.005128405977520911 0.003484359821689946 0.01603098467026713 0.9958955880114743 -0.03901680826906053
 -0.0006249544364401503 -0.005128404331084746 0.0007068934561966037 0.008167234609471176 0.9958955880114743 -0.03901680826906053 0.00348793557960841 0.016030665683182083
0.06877865777407 0.003764387342102106 0.0177300302305605 0.9955237775990626 -0.04299185950841231 0.0008458046066218189 0.008984203732771557 -0.0007201985401242668 -0.005646859778715929
 0.9955237775990626 -0.04299185950841231 0.0037695561006327624 0.017729600140355344 -0.0007194077992797224 -0.005646869357186514 0.0008165243944683556 0.00898768097659796
 0.0008458046066218189 0.008984203732771557 -0.0007194077992797224 -0.005646869357186514 0.003764834550159632 0.017730912002968894 0.9955238044492369 -0.042990939973358525
 -0.0007201985401242668 -0.005646859778715929 0.0008165243944683556 0.00898768097659796 0.9955238044492369 -0.042990939973358525 0.0037691595205963826 0.017730541002173795
0.07503126302626001 0.004060332640387015 0.01944569251449459 0.9951311725669927 -0.04697964960947506 0.0009694618842996382 0.009804247022554056 -0.0008227762651040048 -0.006165845759875231
 0.9951311725669927 -0.04697964960947506 0.004066481919221832 0.019445196197005566 -0.0008218382568703349 -0.0061658652147285825 0.0009345997107473207 0.009808455042724555
 0.0009694618842996382 0.009804247022554056 -0.0008218382568703349 -0.0061658652147285825 0.004060864316950104 0.019446650655916713 0.9951312042723123 -0.04697864616630861
 -0.0008227762651040048 -0.006165845759875231 0.0009345997107473207 0.009808455042724555 0.9951312042723123 -0.04697864616630861 0.0040660096450349835 0.019446223565777927
0.08128386827845 0.0043721060094001445 0.021176894199929512 0.9947174792302281 -0.05098090733495311 0.0011021326153799389 0.010624413910518665 -0.0009327685314071517 -0.006685244608843512
 0.9947174792302281 -0.05098090733495311 0.00437932088273044 0.0211763262049084 -0.0009316711201832782 -0.006685276017513058 0.0010611976108824458 0.010629447762462874
 0.0011021326153799389 0.010624413910518665 -0.0009316711201832782 -0.006685276017513058 0.004372729419888768 0.021177927740759182 0.9947175162109241 -0.05097981986405516
 -0.0009327685314071517 -0.006685244608843512 0.0010611976108824458 0.010629447762462874 0.9947175162109241 -0.05097981986405516 0.0043787662907405905 0.02117744038208665
0.08753647353064001 0.004699986265557873 0.02292337046140069 0.9942824268206242 -0.05499550779301614 0.0012438942740808823 0.011444585680274236 -0.001050254491816123 -0.007204936966108121
 0.9942824268206242 -0.05499550779301614 0.0047083518587729785 0.022922725118433622 -0.0010489856348412088 -0.007204982539048542 0.0011963946980836193 0.011450546647200278
 0.0012438942740808823 0.011444585680274236 -0.0010489856348412088 -0.007204982539048542 0.004700708665097481 0.022924478351083893 0.9942824695026043 -0.05499433615902628
 -0.001050254491816123 -0.007204936966108121 0.0011963946980836193 0.011450546647200278 0.9942824695026043 -0.05499433615902628 0.004707708319628877 0.022923926440022765
0.09378907878283 0.0050442506999718835 0.02468486162548433 0.9938257452611741 -0.0590233109516801 0.0013948225878834535 0.012264640306722559 -0.001175311468123236 -0.007724801598456331
 0.9938257452611741 -0.0590233109516801 0.00505385220558812 0.024684133040742986 -0.0011738592153440705 -0.007724863679048001 0.0013402658899493254 0.012271635967850362
 0.0013948225878834535 0.012264640306722559 -0.0011738592153440705 -0.007724863679048001 0.005045079332873538 0.024686042728362403 0.9938257940769178 -0.05902205500668468
 -0.001175311468123236 -0.007724801598456331 0.0013402658899493254 0.012271635967850362 0.9938257940769178 -0.05902205500668468 0.005053113084180939 0.02468542187482946
0.100041684035 0.005405175025244713 0.026461111096020194 0.9933471653344508 -0.06306416367057592 0.001554991450396468 0.01308445261637926 -0.001308014884683686 -0.008244715266261894
 0.9933471653344508 -0.06306416367057592 0.005416097718084475 0.026460293148520112 -0.001306367378830024 -0.00824479633071863 0.001492884336149976 0.013092596914455265
 0.001554991450396468 0.01308445261637926 -0.001306367378830024 -0.00824479633071863 0.005406117124022657 0.026462364193429254 0.9933472207232271 -0.0630628232512127
 -0.001308014884683686 -0.008244715266261894 0.001492884336149976 0.013092596914455265 0.9933472207232271 -0.0630628232512127 0.00541525637317773 0.026461669898969836
0.1059090909091 0.005759260370496154 0.028141128113943332 0.9928779135855917 -0.06686779719948362 0.0017137612559530806 0.013853424974954953 -0.001439562781631617 -0.008732532075522976
 0.9928779135855917 -0.06686779719948362 0.005771500501340361 0.02814022053585831 -0.001437721350290789 -0.008732633324618487 0.0016441196306484262 0.01386275650375981
 0.0017137612559530806 0.013853424974954953 -0.001437721350290789 -0.008732633324618487 0.005760315511801223 0.028142447584231185 0.9928779755484936 -0.0668663773507546
 -0.001439562781631617 -0.008732532075522976 0.0016441196306484262 0.01386275650375981 0.9928779755484936 -0.0668663773507546 0.005770557184745716 0.028141680183175935
0.1062942892872 0.005783033308518788 0.028251863797376348 0.9928464188403029 -0.06711790121979486 0.0017244728353433831 0.013903894411165288 -0.0014484381997126126 -0.008764552631940134
 0.9928464188403029 -0.06711790121979486 0.005795362561782759 0.02825095013464009 -0.0014465836765237214 -0.008764655289171015 0.0016543213373936012 0.01391330771907904
 0.0017244728353433831 0.013903894411165288 -0.0014465836765237214 -0.008764655289171015 0.005784096093124139 0.028253187583596052 0.9928464812486435 -0.06711647615034894
 -0.0014484381997126126 -0.008764552631940134 0.0016543213373936012 0.01391330771907904 0.9928464812486435 -0.06711647615034894 0.0057944123458106905 0.028252415238800132
0.11254689453939999 0.006178097894115354 0.03005686498558349 0.9923232387456775 -0.07118434843564293 0.0019033367125887055 0.014722834566746064 -0.0015966528341676898 -0.009284186198152359
 0.9923232387456775 -0.07118434843564293 0.006191919194651628 0.030055849018844942 -0.001594579622766309 -0.009284313189630121 0.0018246462651750064 0.014733643753198326
 0.0019033367125887055 0.014722834566746064 -0.001594579622766309 -0.009284313189630121 0.006179288571167493 0.030058258068558167 0.9923233086282239 -0.07118283852649572
 -0.0015966528341676898 -0.009284186198152359 0.0018246462651750064 0.014733643753198326 0.9923233086282239 -0.07118283852649572 0.006190853453591517 0.030057402949821788
0.11879949979160001 0.006590639317444864 0.0318758593200976 0.9917773593291357 -0.07526332062087783 0.002091650964225167 0.01554113911938035 -0.0017527280996479041 -0.009803486262221365
 0.9917773593291357 -0.07526332062087783 0.006606038281698361 0.03187473421885123 -0.0017504246229810383 -0.009803640461823101 0.0020039264818849534 0.01555347761356911
 0.002091650964225167 0.01554113911938035 -0.0017504246229810383 -0.009803640461823101 0.006591965078842758 0.031877320217220985 0.9917774371488342 -0.07526172567204098
 -0.0017527280996479041 -0.009803486262221365 0.0020039264818849534 0.01555347761356911 0.9917774371488342 -0.07526172567204098 0.00660485035476654 0.03187637748297251
0.1250521050438 0.007020926212390767 0.033708590130040454 0.9912085163207942 -0.0793546242559207 0.002289481301793518 0.01635867133894004 -0.0019167311247965835 -0.010322320889036299
 0.9912085163207942 -0.0793546242559207 0.007037988602099427 0.03370734881602956 -0.0019141859002130015 -0.0103225053028514 0.002192227261213206 0.016372679194080222
 0.002289481301793518 0.01635867133894004 -0.0019141859002130015 -0.0103225053028514 0.007022394234406868 0.03371011727384148 0.9912086025494293 -0.079352944050434
 -0.0019167311247965835 -0.010322320889036299 0.002192227261213206 0.016372679194080222 0.9912086025494293 -0.079352944050434 0.007036671821429258 0.03370908196022056
0.131304710296 0.007469225213120546 0.03555479883673484 0.9906164470399318 -0.08345805755906814 0.002496891183936832 0.0171752917924611 -0.0020887267806395274 -0.010840555898142878
 0.9906164470399318 -0.08345805755906814 0.007488036951385717 0.035553433977350175 -0.002085928420593958 -0.010840773664276597 0.0023896117090980986 0.017191115748210823
 0.002496891183936832 0.0171752917924611 -0.002085928420593958 -0.010840773664276597 0.007470842655749601 0.03555639056954191 0.9906165421588565 -0.08345629186765222
 -0.0020887267806395274 -0.010840555898142878 0.0023896117090980986 0.017191115748210823 0.9906165421588565 -0.08345629186765222 0.007486584642170631 0.03555525758542372
0.1375573155481 0.007831271443964845 0.03717241402797847 0.9901054552492484 -0.0873315116954069 0.0026878355474780876 0.017966293330138727 -0.002242801671560352 -0.011333416350456364
 0.9901054552492484 -0.0873315116954069 0.00785192409193556 0.03717094619947262 -0.0022397333670404296 -0.011333667620772208 0.0025702829439878607 0.01798390700718977
 0.0026878355474780876 0.017966293330138727 -0.0022397333670404296 -0.011333667620772208 0.007833045040138105 0.03717406863067544 0.9901055596665957 -0.08732966039724248
 -0.002242801671560352 -0.011333416350456364 0.0025702829439878607 0.01798390700718977 0.9901055596665957 -0.08732966039724248 0.007850330134199534 0.03717286109266204
0.1438099208003 0.008205986543040228 0.03878174152847772 0.9895765952858175 -0.09119539993633324 0.0028865184949170616 0.018754230016961977 -0.00240305491655699 -0.011823526878528128
 0.9895765952858175 -0.09119539993633324 0.008228567092490533 0.038780165083897665 -0.002399704439962752 -0.01182381472756997 0.002758241257137215 0.018773767262859297
 0.0028865184949170616 0.018754230016961977 -0.002399704439962752 -0.01182381472756997 0.008207923353692966 0.03878345727417329 0.9895767094812576 -0.09119346281035696
 -0.00240305491655699 -0.011823526878528128 0.002758241257137215 0.018773767262859297 0.9895767094812576 -0.09119346281035696 0.008226824900898318 0.038782171874088014
0.1500625260525 0.0085932416635863 0.04038265429619598 0.9890299998151004 -0.095049633984102 0.0030928746945523755 0.0195390253437212 -0.002569424112513364 -0.012310816815885748
 0.9890299998151004 -0.095049633984102 0.008617837291390333 0.04038096326217104 -0.002565779262098479 -0.012311144441343881 0.0029534238574905726 0.019560624884956326
 0.0030928746945523755 0.0195390253437212 -0.002565779262098479 -0.012311144441343881 0.008595348729311477 0.040384429388217194 0.989030124276142 -0.09504761080044051
 -0.002569424112513364 -0.012310816815885748 0.0029534238574905726 0.019560624884956326 0.989030124276142 -0.09504761080044051 0.008615940279735942 0.04038306258786776
0.15631513130469998 0.008992907081322566 0.0419750291698864 0.9884658021355115 -0.0988941256980642 0.0033068380645537203 0.02032060403181091 -0.002741846109014987 -0.012795216957830364
 0.9884658021355115 -0.0988941256980642 0.009019605155064078 0.04197321723898625 -0.002737894709139392 -0.012795587679983287 0.0031557672405964935 0.020344409424729395
