! Created with skrf 1.8.0 (http://scikit-rf.org).
# GHz S RI R 50.0 
!freq ReS11 ImS11 ReS12 ImS12 ReS13 ImS13
! ReS14 ImS14
! ReS21 ImS21 ReS22 ImS22 ReS23 ImS23
! ReS24 ImS24
! ReS31 ImS31 ReS32 ImS32 ReS33 ImS33
! ReS34 ImS34
! ReS41 ImS41 ReS42 ImS42 ReS43 ImS43
! ReS44 ImS44
!
0.0 0.001230108250852 0.0 0.9987698917415 0.0 4.723071892977e-05 0.0 -4.723071839708e-05 5.7840948106414025e-21
 0.9987698917415 0.0 0.001230108250835 0.0 -4.723071839653e-05 5.784094810574048e-21 4.723071892965e-05 0.0
 4.723071892977e-05 0.0 -4.723071839653e-05 5.784094810574048e-21 0.001230108249147 0.0 0.9987698917398 0.0
 -4.723071839708e-05 5.7840948106414025e-21 4.723071892965e-05 0.0 0.9987698917398 0.0 0.001230108249154 0.0
0.005 0.0013228162063179123 0.0010010784181593677 0.9986526905670211 -0.0025779773447791032 6.665358873393386e-05 0.0005553828354727003 -6.455674091875664e-05 -0.0003426434926396902
 0.9986526905670211 -0.0025779773447791032 0.0013228333692690175 0.0010010684577025396 -6.455370401779305e-05 -0.0003426412606299374 6.655429248250396e-05 0.0005554205643681215
 6.665358873393386e-05 0.0005553828354727003 -6.455370401779305e-05 -0.0003426412606299374 0.001322816927695035 0.0010010107985222135 0.9986526902385942 -0.0025780444093689513
 -6.455674091875664e-05 -0.0003426434926396902 6.655429248250396e-05 0.0005554205643681215 0.9986526902385942 -0.0025780444093689513 0.0013228319931965526 0.0010010019502351194
0.006252605252188 0.001346914858260098 0.0012553431697105944 0.9986220621287417 -0.0032231380958401127 7.209195900490039e-05 0.0006944946515020789 -6.935166417147729e-05 -0.0004287684254286668
 0.9986220621287417 -0.0032231380958401127 0.0013469416867119021 0.0012553305387794532 -6.934693761923798e-05 -0.00042876567423528073 7.193681497453626e-05 0.0006945436008362338
 7.209195900490039e-05 0.0006944946515020789 -6.934693761923798e-05 -0.00042876567423528073 0.0013469160608154456 0.0012552586573603235 0.9986220616904788 -0.0032232219227557334
 -6.935166417147729e-05 -0.0004287684254286668 7.193681497453626e-05 0.0006945436008362338 0.9986220616904788 -0.0032232219227557334 0.0013469396113223735 0.0012552474019715972
0.01250521050438 0.0014725190810150062 0.00253751556874218 0.9984615025650708 -0.006447300497215588 0.00010269431871488496 0.0013893114983117086 -9.60375099053749e-05 -0.0008597902678969876
 0.9984615025650708 -0.006447300497215588 0.0014726261991620095 0.0025374884984262548 -9.60188713801505e-05 -0.0008597851853155936 0.00010207557705150909 0.0013894284285441607
 0.00010269431871488496 0.0013893114983117086 -9.60188713801505e-05 -0.0008597851853155936 0.0014725244154325727 0.00253734688621774 0.9984615013551288 -0.006447467894742002
 -9.60375099053749e-05 -0.0008597902678969876 0.00010207557705150909 0.0013894284285441607 0.9984615013551288 -0.006447467894742002 0.0014726184613076793 0.0025373224298942394
0.01875781575657 0.0016071507701559615 0.003838448750009215 0.9982880455032938 -0.00968038547121278 0.00013909986460428842 0.002084983026176269 -0.0001273610423248894 -0.0012924251671922954
 0.9982880455032938 -0.00968038547121278 0.0016073914513698077 0.0038384053154549695 -0.00012731946012536785 -0.0012924182411796013 0.00013770977362680383 0.002085190096284553
 0.00013909986460428842 0.002084983026176269 -0.00012731946012536785 -0.0012924182411796013 0.0016071631612144628 0.003838196064070349 0.9982880432031018 -0.009680636360166866
 -0.0001273610423248894 -0.0012924251671922954 0.00013770977362680383 0.002085190096284553 0.9982880432031018 -0.009680636360166866 0.001607374502234165 0.003838156376353913
0.02501042100875 0.001751035272668557 0.0051563546066444805 0.998101518172886 -0.012924005387084096 0.00018137210245546855 0.0027815764500361737 -0.00016339326654467653 -0.0017264949336595393
 0.998101518172886 -0.012924005387084096 0.0017514626711281351 0.005156292786027087 -0.00016331980960216416 -0.0017264867293312754 0.00017890267234214164 0.0027818988080922096
 0.00018137210245546855 0.0027815764500361737 -0.00016331980960216416 -0.0017264867293312754 0.001751057626771592 0.0051560180657673465 0.9981015144594662 -0.012924339710440604
 -0.00016339326654467653 -0.0017264949336595393 0.00017890267234214164 0.0027818988080922096 0.9981015144594662 -0.012924339710440604 0.0017514329751405792 0.005155961046584116
0.03126302626094 0.0019043882707942739 0.0064903351881666835 0.9979017375045269 -0.016178876878250006 0.00022957546948181249 0.003479091569639353 -0.00020420350740077235 -0.0021618856178254276
 0.9979017375045269 -0.016178876878250006 0.0019050554488902031 0.006490252866687946 -0.00020408932744438448 -0.0021618767787493207 0.00022571817003600264 0.0034795573682670175
 0.00022957546948181249 0.003479091569639353 -0.00020408932744438448 -0.0021618767787493207 0.0019044234834964527 0.006489914913681223 0.9979017320548661 -0.016179294610375174
 -0.00020420350740077235 -0.0021618856178254276 0.00022571817003600264 0.0034795573682670175 0.9979017320548661 -0.016179294610375174 0.001905009486892459 0.006489838396839474
0.037515631513130004 0.002067420937913346 0.007839821868305993 0.9976885153775634 -0.019445381629390936 0.00028377461409731134 0.0041775021248777675 -0.00024985997773579625 -0.002598506137812781
 0.9976885153775634 -0.019445381629390936 0.002068380883910439 0.007839716840207346 -0.00024969630011466005 -0.0025984973865122996 0.000278220229996517 0.0041781425521813945
 0.00028377461409731134 0.0041775021248777675 -0.00024969630011466005 -0.0025984973865122996 0.0020674718941411092 0.00783931797612806 0.9976885078679211 -0.019445882754469665
 -0.00024985997773579625 -0.002598506137812781 0.000278220229996517 0.0041781425521813945 0.9976885078679211 -0.019445882754469665 0.0020683151511186174 0.007839219731288587
0.043768236765320004 0.002240341933240448 0.009204404680134273 0.9974616607101764 -0.022723736990085886 0.00034403407935544047 0.004876768353524178 -0.00030042999005744483 -0.003036275707663742
 0.9974616607101764 -0.022723736990085886 0.0022416475743722505 0.009204274650040478 -0.00030020810825291547 -0.003036267845878047 0.00033647263213646724 0.004877617668934354
 0.00034403407935544047 0.004876768353524178 -0.00030020810825291547 -0.003036267845878047 0.0022404115095770827 0.009203817276871041 0.9974616508168065 -0.022724321505981193
 -0.00030042999005744483 -0.003036275707663742 0.00033647263213646724 0.004877617668934354 0.9974616508168065 -0.022724321505981193 0.0022415585810443973 0.009203695011185575
0.050020842017509996 0.00242335833780509 0.010583761782299339 0.9972209804930405 -0.02601406645532584 0.0004104181208850613 0.005576842185620202 -0.0003559800491480531 -0.003475118630385379
 0.9972209804930405 -0.02601406645532584 0.0024250625513271137 0.01058360436627447 -0.00035569132119736877 -0.003475112539263113 0.0004005388264544766 0.005577937757765155
 0.0004104181208850613 0.005576842185620202 -0.00035569132119736877 -0.003475112539263113 0.002423449401432073 0.010583090971929315 0.9972209678905388 -0.026014734366943137
 -0.0003559800491480531 -0.003475118630385379 0.0004005388264544766 0.005577937757765155 0.9972209678905388 -0.026014734366943137 0.0024249468207122355 0.010582942331228794
0.055454545454549996 0.002590763854952913 0.011794254077823968 0.9970004431436839 -0.028883237859840604 0.0004731313695812907 0.006185841736062543 -0.0004083502112776059 -0.003857301266312738
 0.9970004431436839 -0.028883237859840604 0.0025928573514899305 0.01179407085825461 -0.0004079964220156451 -0.0038572974913257123 0.0004609847589775292 0.006187184104711357
 0.0004731313695812907 0.006185841736062543 -0.0004079964220156451 -0.0038572974913257123 0.0025908759136574204 0.011793510864905076 0.9970004279211441 -0.028883978255974385
 -0.0004083502112776059 -0.003857301266312738 0.0004609847589775292 0.006187184104711357 0.9970004279211441 -0.028883978255974385 0.0025927155717079334 0.011793337344846139
0.056273447269699996 0.0026166761474815075 0.011977624850690729 0.9969662803826024 -0.029316434220267334 0.00048299058800956935 0.006277669784315858 -0.0004165758879812565 -0.003914961745729725
 0.9969662803826024 -0.029316434220267334 0.002618831770671629 0.011977437576884535 -0.000416211734109559 -0.003914958385961828 0.00047048183518632334 0.00627905212995923
 0.00048299058800956935 0.006277669784315858 -0.000416211734109559 -0.003914958385961828 0.0026167915571975197 0.011976870731033953 0.9969662647437776 -0.029317185543084275
 -0.0004165758879812565 -0.003914961745729725 0.00047048183518632334 0.00627905212995923 0.9969662647437776 -0.029317185543084275 0.0026186858387454988 0.011976693300914582
0.06252605252188 0.002820500548209314 0.01338576003295004 0.9966973650780109 -0.032630864172619053 0.0005618148340753513 0.006979192938687511 -0.0004822824771524886 -0.00435573302732094
 0.9966973650780109 -0.032630864172619053 0.002823160387435523 0.01338554034209998 -0.00048183437806838334 -0.0043557334392662315 0.0005463641770384236 0.006980905762183687
 0.0005618148340753513 0.006979192938687511 -0.00048183437806838334 -0.0043557334392662315 0.002820643156457901 0.013384922700597901 0.9966973460751848 -0.03263169892763077
 -0.0004822824771524886 -0.00435573302732094 0.0005463641770384236 0.006980905762183687 0.9966973460751848 -0.03263169892763077 0.002822980804334394 0.013384714007207407
0.06877865777407 0.0030350360778236907 0.014807956607502717 0.9964140385875041 -0.03595735118122908 0.0006469536444217944 0.007681349894623552 -0.0005531640177649576 -0.004797360743103172
 0.9964140385875041 -0.03595735118122908 0.0030382529171976242 0.014807701853252262 -0.000552623513480845 -0.004797366046881141 0.0006282478048125062 0.00768344012769753
 0.0006469536444217944 0.007681349894623552 -0.000552623513480845 -0.004797366046881141 0.003035208729680646 0.014807036154123302 0.9964140158908854 -0.035958269398570705
 -0.0005531640177649576 -0.004797360743103172 0.0006282478048125062 0.00768344012769753 0.9964140158908854 -0.035958269398570705 0.0030380362456214538 0.014806793664871644
0.07503126302626001 0.003260486714240452 0.016244019793422118 0.9961161044227876 -0.03929586823518538 0.0007384691742644145 0.00838407587609803 -0.0006292839246614105 -0.005239772926944264
 0.9961161044227876 -0.03929586823518538 0.0032643133240925766 0.016243727242345303 -0.0006286426137171389 -0.005239784322529388 0.0007161940503710452 0.008386593717714053
 0.0007384691742644145 0.00838407587609803 -0.0006286426137171389 -0.005239784322529388 0.0032606922485434167 0.016243016304692794 0.9961160777006934 -0.03929686995513585
 -0.0006292839246614105 -0.005239772926944264 0.0007161940503710452 0.008386593717714053 0.9961160777006934 -0.03929686995513585 0.0032640561395608854 0.01624273742868235
0.08128386827845 0.003497055924403751 0.017693765947493757 0.9958033657563949 -0.042646371197012055 0.0008364228919657887 0.00908730343633059 -0.0007107048040503096 -0.005682897021940257
 0.9958033657563949 -0.042646371197012055 0.003501545069599236 0.01769343277900987 -0.0007099543429325196 -0.005682915789235937 0.0008102635735295271 0.009090302392593824
 0.0008364228919657887 0.00908730343633059 -0.0007099543429325196 -0.005682915789235937 0.0034972971740150917 0.017692679511946755 0.9958033346750823 -0.042647456461008315
 -0.0007107048040503096 -0.005682897021940257 0.0008102635735295271 0.009090302392593824 0.9958033346750823 -0.042647456461008315 0.0035012439603638516 0.017692361600276426
0.08753647353064001 0.0037449466827501263 0.019157019265517668 0.9954756255499576 -0.04600880205309893 0.0009408755273450528 0.00979096269515787 -0.0007974884257926384 -0.006126659639175065
 0.9954756255499576 -0.04600880205309893 0.0037501511305855083 0.01915664257161043 -0.0007966205285998991 -0.006126687138084003 0.0009105163144821392 0.009794499619158103
 0.0009408755273450528 0.00979096269515787 -0.0007966205285998991 -0.006126687138084003 0.003745226475239948 0.01915584996326195 0.9954755897733748 -0.046009970914995195
 -0.0007974884257926384 -0.006126659639175065 0.0009105163144821392 0.009794499619158103 0.9954755897733748 -0.046009970914995195 0.0037498026978846906 0.01915549030917765
0.09378907878283 0.004004361471388832 0.020633609405149394 0.9951326866670892 -0.04938309124452118 0.0010518870217392836 0.010494981510720511 -0.000889695693165945 -0.006570986383921819
 0.9951326866670892 -0.04938309124452118 0.004010333999904333 0.020633186189834136 -0.0008887021314298954 -0.006571024054403879 0.0010170114476099432 0.010499116642248157
 0.0010518870217392836 0.010494981510720511 -0.0008887021314298954 -0.006571024054403879 0.00400468262913547 0.020632357316561784 0.9951326458566375 -0.04938434376162925
 -0.000889695693165945 -0.006570986383921819 0.0010170114476099432 0.010499116642248157 0.9951326458566375 -0.04938434376162925 0.004009934857579777 0.020631953155363987
0.100041684035 0.004275502265469296 0.022123369751884128 0.9947743519726906 -0.0527691593562324 0.0011695164802248998 0.011199285605289926 -0.0009873866098910333 -0.0070158017295402
 0.9947743519726906 -0.0527691593562324 0.004282295671447447 0.02212289693050367 -0.0009862592125516685 -0.007015851091651102 0.0011298073366813267 0.011204082610348737
 0.0011695164802248998 0.011199285605289926 -0.0009862592125516685 -0.007015851091651102 0.004275867606614538 0.02212203495294238 0.9947743057873205 -0.05277049559393991
 -0.0009873866098910333 -0.0070158017295402 0.0011298073366813267 0.011204082610348737 0.9947743057873205 -0.05277049559393991 0.004281842446261091 0.022121583461697854
0.1059090909091 0.004540783267686683 0.023533183694103392 0.9944239150233958 -0.05595725965678312 0.001285970091233676 0.011860391800688744 -0.0010840991235399795 -0.007433589774991688
 0.9944239150233958 -0.05595725965678312 0.004548395022112575 0.023532661437415402 -0.0010828387553614661 -0.007433651562316735 0.001241436022647795 0.01186587089396774
 0.001285970091233676 0.011860391800688744 -0.0010828387553614661 -0.007433651562316735 0.0045411926293225345 0.023531771347036125 0.99442386348089 -0.05595867452227532
 -0.0010840991235399795 -0.007433589774991688 0.001241436022647795 0.01186587089396774 0.99442386348089 -0.05595867452227532 0.00454788798909355 0.02353127282186151
0.1062942892872 0.004558570509119492 0.023626136108909162 0.9944004244251077 -0.056166918384456206 0.0012938221247628663 0.011903798662422959 -0.0010906202455416543 -0.0074610289218411665
 0.9944004244251077 -0.056166918384456206 0.004566237616377798 0.02362561050718432 -0.0010893508989791559 -0.007461091575773898 0.0012489614906065825 0.01190932467255329
 0.0012938221247628663 0.011903798662422959 -0.0010893508989791559 -0.007461091575773898 0.004558982847375289 0.023624718671964216 0.9944003725201517 -0.05616833841523881
 -0.0010906202455416543 -0.0074610289218411665 0.0012489614906065825 0.01190932467255329 0.9944003725201517 -0.05616833841523881 0.004565726947624252 0.023624216969051325
0.11254689453939999 0.004853767083194923 0.025141745694205287 0.9940107071609448 -0.05957627269876799 0.0014248612482422821 0.012608442398631623 -0.0011994546993438849 -0.007906589910941397
 0.9940107071609448 -0.05957627269876799 0.004862360750331302 0.025141164047150204 -0.001198035347517207 -0.00790666753705338 0.0013745305196777935 0.01261476804998028
 0.0014248612482422821 0.012608442398631623 -0.001198035347517207 -0.00790666753705338 0.0048542292287622165 0.02514024568910175 0.9940106491893856 -0.05957777660090999
 -0.0011994546993438849 -0.007906589910941397 0.0013745305196777935 0.01261476804998028 0.9940106491893856 -0.05957777660090999 0.004861789290476782 0.02513969083353357
0.11879949979160001 0.005161292266619956 0.026670036359463637 0.9936050035775498 -0.06299711978435726 0.0015626901689324674 0.013313136623039679 -0.0013139470627056894 -0.008352405297045123
 0.9936050035775498 -0.06299711978435726 0.0051708653956207265 0.02666939530997214 -0.0013123697073896042 -0.008352499655859607 0.0015065700922782849 0.013320336095131457
 0.0015626901689324674 0.013313136623039679 -0.0013123697073896042 -0.008352499655859607 0.005161807026378389 0.026668453851169435 0.9936049391884869 -0.06299870764417319
 -0.0013139470627056894 -0.008352405297045123 0.0015065700922782849 0.013320336095131457 0.9936049391884869 -0.06299870764417319 0.005170229809953676 0.026667842841704148
0.1250521050438 0.005481345693989369 0.028210845967111414 0.9931831174108569 -0.06642935082851929 0.0017073641853699096 0.01401779928568527 -0.0014341533808328586 -0.008798394289670346
 0.9931831174108569 -0.06642935082851929 0.005491951238331858 0.028210142064376685 -0.0014324100818971324 -0.00879850722189009 0.0016451348913853717 0.014025950339839261
 0.0017073641853699096 0.01401779928568527 -0.0014324100818971324 -0.00879850722189009 0.005481915872002003 0.028209181018953065 0.993183046249819 -0.06643102273682262
 -0.0014341533808328586 -0.008798394289670346 0.0016451348913853717 0.014025950339839261 0.993183046249819 -0.06643102273682262 0.005491248205203573 0.0282085107929781
0.131304710296 0.005814126308055427 0.029764011895970076 0.9927448528116277 -0.0698728511805609 0.00185893753126831 0.01472234651703919 -0.0015601286134637505 -0.009244474677701562
 0.9927448528116277 -0.0698728511805609 0.00582581728093951 0.02976324159367307 -0.00155821148919257 -0.00924460810418497 0.0017902785713394963 0.014731530534459384
 0.00185893753126831 0.01472234651703919 -0.00155821148919257 -0.00924460810418497 0.005814754705792973 0.029762264563727377 0.9927447745204898 -0.06987460723847806
 -0.0015601286134637505 -0.009244474677701562 0.0017902785713394963 0.014731530534459384 0.9927447745204898 -0.06987460723847806 0.005825043491753277 0.029761531995908218
0.1375573155481 0.0060766413762395315 0.031124733459307018 0.9923732247518252 -0.07312281168198896 0.001996671742996002 0.015405058427285742 -0.0016712200791825927 -0.00966888465363106
 0.9923732247518252 -0.07312281168198896 0.006089475593310319 0.031123910307781527 -0.001669117872624155 -0.009669038403634294 0.0019214243886561584 0.015415250644351949
 0.001996671742996002 0.015405058427285742 -0.001669117872624155 -0.009669038403634294 0.006077331748604935 0.03112290306042181 0.9923731390093128 -0.0731246519316054
 -0.0016712200791825927 -0.00966888465363106 0.0019214243886561584 0.015415250644351949 0.9923731390093128 -0.0731246519316054 0.006088626717841344 0.031122123520577843
0.1438099208003 0.0063481237707529795 0.03247933507767975 0.9919889879428845 -0.07636563159625706 0.0021399898587862684 0.01608573971140066 -0.0017867821115141972 -0.010091470302693702
 0.9919889879428845 -0.07636563159625706 0.006362155102117653 0.03247845664615075 -0.0017844864162873885 -0.01009164622407274 0.002057862140505259 0.016097013382712147
 0.0021399898587862684 0.01608573971140066 -0.0017844864162873885 -0.01009164622407274 0.0063488790890024105 0.03247742159880328 0.9919888943929226 -0.0763675561323126
 -0.0017867821115141972 -0.010091470302693702 0.002057862140505259 0.016097013382712147 0.9919888943929226 -0.0763675561323126 0.006361227664658442 0.03247659323873487
0.1500625260525 0.006628491051200116 0.03382773568140746 0.9915922277058932 -0.07960126358308124 0.002288851913337052 0.01676434450367187 -0.0019067764410675846 -0.010512188144667992
 0.9915922277058932 -0.07960126358308124 0.006643773462729137 0.033826799396414385 -0.0019042788657926844 -0.010512388158443825 0.0021995531970092903 0.01677677552866963
 0.002288851913337052 0.01676434450367187 -0.0019042788657926844 -0.010512388158443825 0.006629314295765939 0.03382573910493651 0.9915921259891618 -0.0796032725053528
 -0.0019067764410675846 -0.010512188144667992 0.0021995531970092903 0.01677677552866963 0.9915921259891618 -0.0796032725053528 0.006642763987816842 0.03382485996188005
0.15631513130469998 0.006917660342304152 0.035169856845581486 0.9911830296277798 -0.08282965985289109 0.0024432175706641484 0.017440827550121905 -0.0020311644168548226 -0.010930995525939655
