! Created with skrf 1.8.0 (http://scikit-rf.org).
# GHz S RI R 50.0 
!freq ReS11 ImS11 ReS12 ImS12 ReS13 ImS13
! ReS14 ImS14
! ReS21 ImS21 ReS22 ImS22 ReS23 ImS23
! ReS24 ImS24
! ReS31 ImS31 ReS32 ImS32 ReS33 ImS33
! ReS34 ImS34
! ReS41 ImS41 ReS42 ImS42 ReS43 ImS43
! ReS44 ImS44
!
0.0 0.001322199260484 0.0 0.9986778007395 0.0 5.061460779823e-05 0.0 -5.061460734335e-05 6.19850168731337e-21
 0.9986778007395 0.0 0.00132219926047 0.0 -5.061460734296e-05 6.198501687265608e-21 5.06146077985e-05 0.0
 5.061460779823e-05 0.0 -5.061460734296e-05 6.198501687265608e-21 0.001322199257909 0.0 0.9986778007369 0.0
 -5.061460734335e-05 6.19850168731337e-21 5.06146077985e-05 0.0 0.9986778007369 0.0 0.001322199257917 0.0
0.005 0.0014220193753847752 0.001082294852116804 0.9985516109804726 -0.002770356964779015 7.052168263922854e-05 0.0005562352271579888 -6.858060911246894e-05 -0.00034948641153219133
 0.9985516109804726 -0.002770356964779015 0.001422018066709031 0.001082295553707589 -6.858109595029496e-05 -0.0003494867226313738 7.053748607054185e-05 0.0005562293348672567
 7.052168263922854e-05 0.0005562352271579888 -6.858109595029496e-05 -0.0003494867226313738 0.0014220197868790425 0.0010823618239244213 0.9985516113208255 -0.0027702899029924378
 -6.858060911246894e-05 -0.00034948641153219133 7.053748607054185e-05 0.0005562293348672567 0.9985516113208255 -0.0027702899029924378 0.001422018331787733 0.0010823627018715658
0.006252605252188 0.0014480361392389066 0.0013571479994407434 0.9985185417261404 -0.0034636492079348343 7.610879761715833e-05 0.0006955750908352029 -7.357660925213877e-05 -0.0004373190143962616
 0.9985185417261404 -0.0034636492079348343 0.0014480340938114941 0.0013571488560282679 -7.35773673238797e-05 -0.0004373193967934178 7.613349070525202e-05 0.0006955674258958803
 7.610879761715833e-05 0.0006955750908352029 -7.35773673238797e-05 -0.0004373193967934178 0.001448036701912339 0.001357231702293859 0.9985185421773013 -0.003463565385158128
 -7.357660925213877e-05 -0.0004373190143962616 7.613349070525202e-05 0.0006955674258958803 0.9985185421773013 -0.003463565385158128 0.0014480344267953427 0.0013572327906486241
0.01250521050438 0.0015840447984082002 0.002742959949880695 0.9983446558316608 -0.006928254074227655 0.00010762071471842865 0.0013915762120037189 -0.00010151276682130434 -0.0008768601715048699
 0.9983446558316608 -0.006928254074227655 0.001584036637955264 0.00274296144921249 -0.00010151576064412284 -0.0008768608653660494 0.00010771923420036672 0.001391557693182597
 0.00010762071471842865 0.0013915762120037189 -0.00010151576064412284 -0.0008768608653660494 0.0015840465111890425 0.0027431270152326564 0.9983446570938165 -0.006928086680792474
 -0.00010151276682130434 -0.0008768601715048699 0.00010771923420036672 0.001391557693182597 0.9983446570938165 -0.006928086680792474 0.0015840374195420814 0.00274312909490536
0.01875781575657 0.0017304882075370408 0.0041487631332971535 0.9981559512028865 -0.010402281166595789 0.0001452184380372794 0.002088489508776003 -0.0001345017426977618 -0.001318013721802644
 0.9981559512028865 -0.010402281166595789 0.0017304698862764165 0.0041487650399947475 -0.00013450842807245344 -0.0013180146423146786 0.00014543986755076514 0.002088456414251136
 0.0001452184380372794 0.002088489508776003 -0.00013450842807245344 -0.0013180146423146786 0.0017304916429554931 0.004149013369480336 0.9981559536157569 -0.010402030270527208
 -0.0001345017426977618 -0.001318013721802644 0.00014543986755076514 0.002088456414251136 0.9981559536157569 -0.010402030270527208 0.001730471200833327 0.004149016332705481
0.02501042100875 0.0018876233584644068 0.005572626086749183 0.9979522293963947 -0.013887449022565923 0.00018897085142109536 0.0027863661946803103 -0.00017262020419563063 -0.001760601155645951
 0.9979522293963947 -0.013887449022565923 0.0018875908469073463 0.005572628140161797 -0.00017263202267219857 -0.0017606022027839888 0.00018936436580624806 0.002786314285231641
 0.00018897085142109536 0.0027863661946803103 -0.00017263202267219857 -0.0017606022027839888 0.0018876291004153837 0.005572959298743334 0.9979522333069457 -0.01388711465944975
 -0.00017262020419563063 -0.001760601155645951 0.00018936436580624806 0.002786314285231641 0.9979522333069457 -0.01388711465944975 0.0018875927747611058 0.005572963023759745
0.03126302626094 0.0020556964311650135 0.0070135724561913105 0.9977332806855547 -0.017384514262234373 0.00023894743305712083 0.003485194204780522 -0.00021594299727181157 -0.0022045035601772024
 0.9977332806855547 -0.017384514262234373 0.002055645712764671 0.007013574369138933 -0.00021596137869589525 -0.0022045046184868875 0.0002395623435296679 0.0034851187192469803
 0.00023894743305712083 0.003485194204780522 -0.00021596137869589525 -0.0022045046184868875 0.002055705070966367 0.007013988429150904 0.9977332864445775 -0.017384096451336237
 -0.00021594299727181157 -0.0022045035601772024 0.0002395623435296679 0.0034851187192469803 0.9977332864445775 -0.017384096451336237 0.0020556483265918887 0.007013992779256027
0.037515631513130004 0.0022349484703292712 0.008470978977934295 0.9974988898623265 -0.02089387355421129 0.00029521763160212175 0.00418493679577294 -0.00026454369692466886 -0.0026496230119283527
 0.9974988898623265 -0.02089387355421129 0.0022348755388772396 0.008470980435760757 -0.00026457006071467645 -0.0026496239504213703 0.0002961034074798776 0.004184832444500176
 0.00029521763160212175 0.00418493679577294 -0.00026457006071467645 -0.0026496239504213703 0.0022349606015506984 0.008471477483870553 0.997498897820424 -0.020893372291482998
 -0.00026454369692466886 -0.0026496230119283527 0.0002961034074798776 0.004184832444500176 0.997498897820424 -0.020893372291482998 0.0022348788987048033 0.008471482306703812
0.043768236765320004 0.002425617579425618 0.009944392281970648 0.9972488385572815 -0.024415746753266052 0.00035785057979374546 0.004885544280617003 -0.0003184948121244643 -0.0030958708326428996
 0.9972488385572815 -0.024415746753266052 0.0024255184368449723 0.009944392941752448 -0.0003185305679776328 -0.0030958715047093325 0.0003590568600972101 0.004885405238269758
 0.00035785057979374546 0.004885544280617003 -0.0003185305679776328 -0.0030958715047093325 0.002425633798364581 0.009944973073426207 0.9972488490660192 -0.02441516201736623
 -0.0003184948121244643 -0.0030958708326428996 0.0003590568600972101 0.004885405238269758 0.9972488490660192 -0.02441516201736623 0.0024255225910245165 0.009944978200473643
0.050020842017509996 0.0026279399487552212 0.011433453180266135 0.9969829063952997 -0.027950252551055835 0.0004269149252969066 0.005586958881219397 -0.00037786786969628953 -0.003543162727182943
 0.9969829063952997 -0.027950252551055835 0.002627810602892914 0.011433452670122584 -0.00037791441805804535 -0.003543162970531251 0.00042849152502905027 0.005586778779296316
 0.0004269149252969066 0.005586958881219397 -0.00037791441805804535 -0.003543162970531251 0.00262796085597767 0.01143411598679516 0.9969829198093136 -0.027949584306483637
 -0.00037786786969628953 -0.003543162727182943 0.00042849152502905027 0.005586778779296316 0.9969829198093136 -0.027949584306483637 0.0026278155897171865 0.011434121232991055
0.055454545454549996 0.0028134104914286496 0.012739964280767145 0.9967387339245553 -0.03103214803016799 0.000492209880381043 0.006197115698087397 -0.0004339229702800208 -0.003932656920320188
 0.9967387339245553 -0.03103214803016799 0.0028132516590963228 0.012739962428959993 -0.0004339800280086873 -0.003932656647071979 0.0004941488939207443 0.006196894314560702
 0.000492209880381043 0.006197115698087397 -0.0004339800280086873 -0.003932656647071979 0.002813435962081685 0.012740698119482974 0.9967387501526279 -0.031031407177916037
 -0.0004339229702800208 -0.003932656920320188 0.0004941488939207443 0.006196894314560702 0.9967387501526279 -0.031031407177916037 0.002813257391220705 0.012740703305768398
0.056273447269699996 0.002842150396175774 0.01293785950042692 0.9967008716658344 -0.03149744558118819 0.0005024787148931793 0.006289117095159204 -0.00044273344239236564 -0.0039914164084758254
 0.9967008716658344 -0.03149744558118819 0.0028419868589371435 0.012937857418905099 -0.0004427921747233935 -0.003991416045069962 0.0005044756282821864 0.0062888890143633315
 0.0005024787148931793 0.006289117095159204 -0.0004427921747233935 -0.003991416045069962 0.0028421765943216016 0.012938604025141272 0.9967008883417683 -0.03149669378149424
 -0.00044273344239236564 -0.0039914164084758254 0.0005044756282821864 0.0062888890143633315 0.9967008883417683 -0.03149669378149424 0.0028419927048190987 0.012938609188461762
0.06252605252188 0.0030684826645629606 0.01445734564905972 0.9964025117526426 -0.03505733679570548 0.0005846093045238931 0.006991951003323074 -0.0005131611493931701 -0.0044405502830355634
 0.9964025117526426 -0.03505733679570548 0.003068280949810425 0.01445734156460882 -0.0005132334483328081 -0.004440549119046842 0.000587076705981459 0.006991667465854495
 0.0005846093045238931 0.006991951003323074 -0.0005132334483328081 -0.004440549119046842 0.00306851475840585 0.01445817157136333 0.9964025320498437 -0.03505650138043325
 -0.0005131611493931701 -0.0044405502830355634 0.000587076705981459 0.006991667465854495 0.9964025320498437 -0.03505650138043325 0.0030682876695986897 0.014458176432542148
0.06877865777407 0.0033071695904938214 0.01599167043807221 0.9960876034372276 -0.03862990557979527 0.0006733732832988582 0.0076953890427332175 -0.0005892196410242859 -0.004890482673107457
 0.9960876034372276 -0.03862990557979527 0.0033069257123089146 0.015991663888417603 -0.0005893068805203976 -0.004890480498854862 0.0006763615270911435 0.0076950420045063155
 0.0006733732832988582 0.0076953890427332175 -0.0005893068805203976 -0.004890480498854862 0.0033072081869838527 0.01599257740822122 0.9960876277184743 -0.03862898647965395
 -0.0005892196410242859 -0.004890482673107457 0.0006763615270911435 0.0076950420045063155 0.9960876277184743 -0.03862898647965395 0.0033069333093731384 0.015992581730428865
0.07503126302626001 0.0035584431964268384 0.017540609350943096 0.9957559231274734 -0.04221510742835201 0.0007688364063340411 0.008399356498397514 -0.0006709765733917943 -0.005341131321707741
 0.9957559231274734 -0.04221510742835201 0.0035581531669215895 0.01754059984269163 -0.0006710801186855414 -0.0053411279116142825 0.000772396025093556 0.00839893734125769
 0.0007688364063340411 0.008399356498397514 -0.0006710801186855414 -0.0053411279116142825 0.0035584889033862884 0.017541596997688483 0.9957559517589587 -0.04221410455734575
 -0.0006709765733917943 -0.005341131321707741 0.000772396025093556 0.00839893734125769 0.9957559517589587 -0.04221410455734575 0.0035581616324703055 0.017541600526314243
0.08128386827845 0.0038225347341761464 0.01910394940926588 0.9954072470410588 -0.045812879024329976 0.0008710635322961458 0.00910377582959061 -0.0007584985768618375 -0.005792413065359793
 0.9954072470410588 -0.045812879024329976 0.0038221945615624538 0.019103936417429333 -0.0007586197845251463 -0.005792408177907312 0.00087524523466168 0.009103275353490417
 0.0008710635322961458 0.00910377582959061 -0.0007586197845251463 -0.005792408177907312 0.003822588160652397 0.019105017331339284 0.9954072803933809 -0.045811792287915924
 -0.0007584985768618375 -0.005792413065359793 0.00087524523466168 0.009103275353490417 0.9954072803933809 -0.045811792287915924 0.003822203875037499 0.019105019793806913
0.08753647353064001 0.004099674698181861 0.020681485609456082 0.9950413513604699 -0.049423141749024437 0.0009801185646967766 0.009808566895868096 -0.0008518512195195598 -0.006244243609295151
 0.9950413513604699 -0.049423141749024437 0.0040992803850489045 0.020681468577058867 -0.0008519914374147049 -0.006244236986978112 0.0009849732324129716 0.009807975311052241
 0.0009801185646967766 0.009808566895868096 -0.0008519914374147049 -0.006244236986978112 0.004099736452810395 0.02068263337878038 0.9950413898077402 -0.04942197104080725
 -0.0008518512195195598 -0.006244243609295151 0.0009849732324129716 0.009807975311052241 0.9950413898077402 -0.04942197104080725 0.004099290512796635 0.020682634484361532
0.09378907878283 0.004390092814949116 0.022273018383768328 0.9946580123661507 -0.053045804170590904 0.0010960643948446777 0.010513647120141087 -0.000951098967936858 -0.006696537367886001
 0.9946580123661507 -0.053045804170590904 0.004389640355844062 0.022272996721516662 -0.0009512595351543418 -0.006696528737169102 0.0011016430791401992 0.010512954039344446
 0.0010960643948446777 0.010513647120141087 -0.0009512595351543418 -0.006696528737169102 0.004390163506752188 0.022274245544807177 0.9946580562878717 -0.05304454937266495
 -0.000951098967936858 -0.006696537367886001 0.0011016430791401992 0.010512954039344446 0.9946580562878717 -0.05304454937266495 0.004389651252211158 0.02227424498453028
0.100041684035 0.004694018018481555 0.0238783517337017 0.9942570065592278 -0.056680763862589745 0.0012189628464734023 0.011218931607478621 -0.0010563051449588188 -0.00714920735176293
 0.9942570065592278 -0.056680763862589745 0.004693503398226877 0.02387832481965816 -0.0010564873917574406 -0.007149196423048004 0.0012253167641157218 0.011218126038124823
 0.0012189628464734023 0.011218931607478621 -0.0010564873917574406 -0.007149196423048004 0.004694098255168373 0.02387965780241889 0.9942570563394321 -0.05667942484640296
 -0.0010563051449588188 -0.00714920735176293 0.0012253167641157218 0.011218126038124823 0.9942570563394321 -0.05667942484640296 0.004693515003956748 0.023879655249033117
0.1059090909091 0.004991707338671769 0.02539716559725816 0.9938644385711652 -0.06010287253023 0.0013406674277958905 0.011880874495680347 -0.001160504474353171 -0.007574253495416815
 0.9938644385711652 -0.06010287253023 0.004991130724410323 0.02539713316003466 -0.001160708267025809 -0.007574240132546951 0.0013477955443570882 0.011879952824078034
 0.0013406674277958905 0.011880874495680347 -0.001160708267025809 -0.007574240132546951 0.004991797084011055 0.025398545247503995 0.9938644942034002 -0.0601014543569303
 -0.001160504474353171 -0.007574253495416815 0.0013477955443570882 0.011879952824078034 0.9938644942034002 -0.0601014543569303 0.0049911429305393015 0.0253985405098059
0.1062942892872 0.005011678413572173 0.025497291823856842 0.9938381107731535 -0.06032790876480754 0.0013488746209007105 0.01192433324096498 -0.001167531886100308 -0.0076021650803082
 0.9938381107731535 -0.06032790876480754 0.00501109760494064 0.025497259003208955 -0.0011677371337826326 -0.007602151547899459 0.0013560551497440326 0.011923403577379192
 0.0013488746209007105 0.01192433324096498 -0.0011677371337826326 -0.007602151547899459 0.005011768801737844 0.025498676288942732 0.9938381668015677 -0.06032648538976392
 -0.001167531886100308 -0.0076021650803082 0.0013560551497440326 0.011923403577379192 0.9938381668015677 -0.06032648538976392 0.005011109847994855 0.02549867139683146
0.11254689453939999 0.005343301229979239 0.02712964590847418 0.9934011022789448 -0.06398711821407664 0.0014858592431738512 0.012629762750463246 -0.0012848400938201847 -0.008055320523822984
 0.9934011022789448 -0.06398711821407664 0.0053426501918813 0.02712960649332035 -0.0012850696546541948 -0.008055304065890407 0.0014939179174391492 0.012628696766149779
 0.0014858592431738512 0.012629762750463246 -0.0012850696546541948 -0.008055304065890407 0.0053434023741249686 0.02713110823040636 0.9934011649510407 -0.06398561032829878
 -0.0012848400938201847 -0.008055320523822984 0.0014939179174391492 0.012628696766149779 0.9934011649510407 -0.06398561032829878 0.005342662986400832 0.027131100635641486
0.11879949979160001 0.005689112770553965 0.02877522149167494 0.9929457588868342 -0.06765826374443358 0.0016299750082101384 0.013335128774441325 -0.001408289391044234 -0.00850858205521998
 0.9929457588868342 -0.06765826374443358 0.005688387445474208 0.028775174760882583 -0.0014085445681126848 -0.008508562333780908 0.001638963513323283 0.013333913614341865
 0.0016299750082101384 0.013335128774441325 -0.0014085445681126848 -0.008508562333780908 0.005689225272695543 0.028776761101223052 0.9929458286043209 -0.06765667118619988
 -0.001408289391044234 -0.00850858205521998 0.001638963513323283 0.013333913614341865 0.9929458286043209 -0.06765667118619988 0.005688400691953627 0.028776750421628933
0.1250521050438 0.006049338352914666 0.030433825661206525 0.9924718590435154 -0.07134120971678765 0.0017812789273177615 0.014040337907188692 -0.0015379380732964453 -0.008961856418967922
 0.9924718590435154 -0.07134120971678765 0.006048534665206966 0.030433770860260136 -0.0015382201603988694 -0.008961833079848793 0.0017912490945824744 0.014038960080024674
 0.0017812789273177615 0.014040337907188692 -0.0015382201603988694 -0.008961833079848793 0.0060494628119571936 0.030435441961722313 0.9924719362145936 -0.07133953231199139
 -0.0015379380732964453 -0.008961856418967922 0.0017912490945824744 0.014038960080024674 0.9924719362145936 -0.07133953231199139 0.006048548249851421 0.030435427797003128
0.131304710296 0.006424202247481738 0.03210526455773571 0.9919791819272735 -0.07503581381585528 0.0019398266748293191 0.014745294743040724 -0.0016738430601379195 -0.00941504870586898
 0.9919791819272735 -0.07503581381585528 0.006423316100841714 0.032105200898753676 -0.0016741533416062815 -0.009415021378701439 0.0019508304756844816 0.014743740113637858
 0.0019398266748293191 0.014745294743040724 -0.0016741533416062815 -0.009415021378701439 0.006424339258515306 0.032106956922841566 0.9919792669670698 -0.07503405138032175
 -0.0016738430601379195 -0.00941504870586898 0.0019508304756844816 0.014743740113637858 0.9919792669670698 -0.07503405138032175 0.006423329895437419 0.03210693885474924
0.1375573155481 0.006722760330271862 0.033571052049821755 0.9915587026366595 -0.07852356353356248 0.002084095844473365 0.015427514256710812 -0.0017944696782155258 -0.009845693300810266
 0.9915587026366595 -0.07852356353356248 0.006721786089143073 0.03357098087033669 -0.0017948098559320469 -0.009845661983109216 0.002096155023387992 0.015425786382871226
 0.002084095844473365 0.015427514256710812 -0.0017948098559320469 -0.009845661983109216 0.006722909716962369 0.03357282031833384 0.9915587959027028 -0.07852171596898758
 -0.0017944696782155258 -0.009845693300810266 0.002096155023387992 0.015425786382871226 0.9915587959027028 -0.07852171596898758 0.006721800839281781 0.03357279926003161
0.1438099208003 0.007031642892195099 0.03502998612339053 0.9911237719948652 -0.08200335145508408 0.0022341906497761422 0.016107506502499754 -0.001919934534302837 -0.010274286734939356
 0.9911237719948652 -0.08200335145508408 0.007030576163240533 0.03502990686511793 -0.0019203059544640533 -0.010274251069866859 0.0022473519077984843 0.016105592633171417
 0.0022341906497761422 0.016107506502499754 -0.0019203059544640533 -0.010274251069866859 0.007031805104938267 0.03503182969034615 0.9911238739004369 -0.08200141858146748
 -0.001919934534302837 -0.010274286734939356 0.0022473519077984843 0.016105592633171417 0.9911238739004369 -0.08200141858146748 0.007030591878446622 0.03503180537760659
0.1500625260525 0.007350752502723718 0.03648197072059318 0.9906744907066062 -0.08547511750956986 0.002390065890044897 0.016785219766139038 -0.0020501934906313798 -0.010700779020029258
 0.9906744907066062 -0.08547511750956986 0.007349588857383911 0.03648188281088995 -0.002050597495527032 -0.010700738636657684 0.002404375710136128 0.016783106687238064
 0.002390065890044897 0.016785219766139038 -0.002050597495527032 -0.010700738636657684 0.007350927979284499 0.036483888958308654 0.9906746016708948 -0.08547309913956039
 -0.0020501934906313798 -0.010700779020029258 0.002404375710136128 0.016783106687238064 0.9906746016708948 -0.08547309913956039 0.007349605543488735 0.03648386112204277
0.15631513130469998 0.007679991173238167 0.03792691282459213 0.990210959842205 -0.08893880133244603 0.002551675908379881 0.017460603093637058 -0.0021852019377105593 -0.011125121140097857
