! Created with skrf 1.8.0 (http://scikit-rf.org).
# GHz S RI R 50.0 
!freq ReS11 ImS11 ReS12 ImS12 ReS13 ImS13
! ReS14 ImS14
! ReS21 ImS21 ReS22 ImS22 ReS23 ImS23
! ReS24 ImS24
! ReS31 ImS31 ReS32 ImS32 ReS33 ImS33
! ReS34 ImS34
! ReS41 ImS41 ReS42 ImS42 ReS43 ImS43
! ReS44 ImS44
!
0.0 0.001514000928303 0.0 0.998485999066 0.0 5.852171813961e-05 0.0 -5.852171822879e-05 7.166843490949098e-21
 0.998485999066 0.0 0.001514000928306 0.0 -5.85217182285e-05 7.166843490913585e-21 5.852171814005e-05 0.0
 5.852171813961e-05 0.0 -5.85217182285e-05 7.166843490913585e-21 0.001514000928297 0.0 0.998485999066 0.0
 -5.852171822879e-05 7.166843490949098e-21 5.852171814005e-05 0.0 0.998485999066 0.0 0.001514000928312 0.0
0.005 0.0016288935666088145 0.0012353857781484494 0.9983406491753617 -0.0031717465422363405 8.242156636067215e-05 0.0006642139045144575 -7.995072158215208e-05 -0.0004135413118540747
 0.9983406491753617 -0.0031717465422363405 0.001628899703708659 0.001235382150336655 -7.994723031124054e-05 -0.0004135386210602712 8.240440113384541e-05 0.0006642205910206256
 8.242156636067215e-05 0.0006642139045144575 -7.994723031124054e-05 -0.0004135386210602712 0.0016288957576005817 0.0012354517432113545 0.9983406495330406 -0.003171679472924505
 -7.995072158215208e-05 -0.0004135413118540747 8.240440113384541e-05 0.0006642205910206256 0.9983406495330406 -0.003171679472924505 0.0016288982247262655 0.0012354503216502203
0.006252605252188 0.001659002007692644 0.001549110413149812 0.9983023214537666 -0.003965464054581076 8.923345588018475e-05 0.0008305818498072878 -8.59922351735351e-05 -0.0005174670977864378
 0.9983023214537666 -0.003965464054581076 0.0016590116012131068 0.001549105782687401 -8.598680252181783e-05 -0.0005174637797476535 8.920663851784832e-05 0.0008305905068190368
 8.923345588018475e-05 0.0008305818498072878 -8.598680252181783e-05 -0.0005174637797476535 0.001659005357753883 0.0015491928429315033 0.9983023219376949 -0.003965380239572651
 -8.59922351735351e-05 -0.0005174670977864378 8.920663851784832e-05 0.0008305905068190368 0.9983023219376949 -0.003965380239572651 0.0016590092136175444 0.0015491909776914367
0.01250521050438 0.001817357301728595 0.0031308266773424536 0.9980994162788092 -0.007931772927440541 0.0001282126437845156 0.0016614748838555567 -0.00012022422150657024 -0.0010374760527549589
 0.9980994162788092 -0.007931772927440541 0.001817395611394765 0.003130816426684385 -0.00012020281230963054 -0.0010374699142656567 0.00012810575535562193 0.001661495436578774
 0.0001282126437845156 0.0016614748838555567 -0.00012020281230963054 -0.0010374699142656567 0.0018173701118395405 0.003130991231133637 0.9980994176405793 -0.007931605530462228
 -0.00012022422150657024 -0.0010374760527549589 0.00012810575535562193 0.001661495436578774 0.9980994176405793 -0.007931605530462228 0.0018173855006297338 0.0031309866158680173
0.01875781575657 0.001989408398846406 0.004735180460944251 0.997877034358186 -0.011908587780004917 0.000175548704695272 0.0024932594684596654 -0.00016132247328270766 -0.0015592542008498857
 0.997877034358186 -0.011908587780004917 0.001989494488674978 0.0047351634771172525 -0.00016127473026860613 -0.0015592458337336907 0.0001753087146955259 0.002493295812535281
 0.000175548704695272 0.0024932594684596654 -0.00016127473026860613 -0.0015592458337336907 0.001989436768228894 0.004735426901543065 0.997877036996234 -0.011908336898136194
 -0.00016132247328270766 -0.0015592542008498857 0.0001753087146955259 0.002493295812535281 0.997877036996234 -0.011908336898136194 0.0019894713343720496 0.0047354186219505925
0.02501042100875 0.0021754870177958627 0.006359923542151006 0.9976349168107823 -0.015897839528917525 0.00023133233405691825 0.0033259775593773603 -0.00020938838678520117 -0.0020825616493031517
 0.9976349168107823 -0.015897839528917525 0.0021756399155645604 0.006359898593470692 -0.00020930407622114718 -0.002082551750089915 0.0002309062629237094 0.0033260342158476872
 0.00023133233405691825 0.0033259775593773603 -0.00020930407622114718 -0.002082551750089915 0.002175537038821537 0.006360251620984427 0.9976349211250151 -0.015897505205681915
 -0.00020938838678520117 -0.0020825616493031517 0.0002309062629237094 0.0033260342158476872 0.9976349211250151 -0.015897505205681915 0.0021755984015029207 0.00636023873254227
0.03126302626094 0.0023759111376901506 0.00800390046015124 0.9973727914101438 -0.019900356165919904 0.00029565473013703353 0.004159592307070019 -0.0002645204961241849 -0.0026072316748712485
 0.9973727914101438 -0.019900356165919904 0.0023761498432668675 0.008003866195849767 -0.0002643894867444008 -0.002607221046098373 0.00029498959485945234 0.004159674423794198
 0.00029565473013703353 0.004159592307070019 -0.0002643894867444008 -0.002607221046098373 0.0023759888924945556 0.008004309873820243 0.9973727977961722 -0.019899938434401108
 -0.0002645204961241849 -0.0026072316748712485 0.00029498959485945234 0.004159674423794198 0.9973727977961722 -0.019899938434401108 0.0023760846484104123 0.008004291401703728
0.037515631513130004 0.002590991864018819 0.009666358970886024 0.9970903796615863 -0.023916552241853482 0.0003686066877305861 0.004994035807627095 -0.0003268152090029294 -0.003133122974296031
 0.9970903796615863 -0.023916552241853482 0.002591335353822935 0.00966631392037718 -0.0003266274611876703 -0.0031331125249175174 0.0003676494773154866 0.004994149164125307
 0.0003686066877305861 0.004994035807627095 -0.0003266274611876703 -0.0031331125249175174 0.002591103432741612 0.009666849372376751 0.9970903885186023 -0.02391605111288484
 -0.0003268152090029294 -0.003133122974296031 0.0003676494773154866 0.004994149164125307 0.9970903885186023 -0.02391605111288484 0.002591241158511623 0.009666824311508029
0.043768236765320004 0.002821036099876745 0.011346740211361919 0.9967873996871612 -0.02794663863342619 0.0004502781750697741 0.005829223625441646 -0.00039636706977980185 -0.003660105142389387
 0.9967873996871612 -0.02794663863342619 0.002821503329515386 0.011346682783278172 -0.0003961126291196272 -0.0036600958879199775 0.0004489758378337898 0.00582937463884627
 0.0004502781750697741 0.005829223625441646 -0.0003961126291196272 -0.0036600958879199775 0.002821187556720724 0.011347311199619271 0.9967874114140018 -0.027946054105378315
 -0.00039636706977980185 -0.003660105142389387 0.0004489758378337898 0.00582937463884627 0.9967874114140018 -0.027946054105378315 0.002821374810570686 0.011347278514780616
0.050020842017509996 0.0030663477754158644 0.013044591982818932 0.9964635676723784 -0.03199070918945832 0.0005407580787934333 0.006665060792756037 -0.00047326885603166157 -0.0041880526750622685
 0.9964635676723784 -0.03199070918945832 0.0030669576819861784 0.013044520463874585 -0.00047293784924686276 -0.004188045737615009 0.0005390575167215537 0.006665256524183669
 0.0005407580787934333 0.006665060792756037 -0.00047293784924686276 -0.004188045737615009 0.003066545191426794 0.013045243097545582 0.9964635826702479 -0.03199004125244855
 -0.00047326885603166157 -0.0041880526750622685 0.0005390575167215537 0.006665256524183669 0.9964635826702479 -0.03199004125244855 0.003066789514668753 0.013045201723638041
0.055454545454549996 0.0032921643694807283 0.014533962263473945 0.9961649921861988 -0.03551650230330108 0.0006266094563650432 0.0073918764756062145 -0.000546138621084287 -0.00464754310843803
 0.9961649921861988 -0.03551650230330108 0.0032929136325949575 0.014533877012247776 -0.0005457331186327668 -0.004647539178650968 0.000624519665336647 0.007392117307947325
 0.0006266094563650432 0.0073918764756062145 -0.0005457331186327668 -0.004647539178650968 0.0032924066527566997 0.014534682590759863 0.9961650103541665 -0.035515761866395115
 -0.000546138621084287 -0.00464754310843803 0.000624519665336647 0.007392117307947325 0.9961650103541665 -0.035515761866395115 0.003292706683341012 0.014534632777683302
0.056273447269699996 0.003327228485400863 0.014759526174070454 0.9961185987238746 -0.03604878323772428 0.0006401340243272506 0.007501444751676546 -0.0005576115999680214 -0.0047168420327227106
 0.9961185987238746 -0.03604878323772428 0.0033279999890745075 0.01475943872798903 -0.0005571942321687439 -0.004716838641027153 0.000637982091252648 0.007501692912816003
 0.0006401340243272506 0.007501444751676546 -0.0005571942321687439 -0.004716838641027153 0.003327477927504608 0.014760256897295349 0.9961186173959005 -0.03604803187140083
 -0.0005576115999680214 -0.0047168420327227106 0.000637982091252648 0.007501692912816003 0.9961186173959005 -0.03604803187140083 0.00332778684585594 0.014760205739459702
0.06252605252188 0.003603977828614831 0.016491195373643505 0.9957522074331179 -0.040120828905933666 0.0007484922323881378 0.008338266975607835 -0.0006494845727060909 -0.00524635002774882
 0.9957522074331179 -0.040120828905933666 0.003604929833940258 0.01649109003994199 -0.0006489711255055036 -0.005246351517127274 0.0007458357348051443 0.008338575935410042
 0.0007484922323881378 0.008338266975607835 -0.0006489711255055036 -0.005246351517127274 0.0036042853588864835 0.016492005125339146 0.9957522301843148 -0.040119994082941465
 -0.0006494845727060909 -0.00524635002774882 0.0007458357348051443 0.008338575935410042 0.9957522301843148 -0.040119994082941465 0.00360466638398612 0.016491943059099207
0.06877865777407 0.0038968935881713183 0.018239278906737048 0.9953641082847291 -0.04420677702097583 0.0008659173967653758 0.009175413936771033 -0.0007489752460500555 -0.0057764528697464
 0.9953641082847291 -0.04420677702097583 0.0038980449851083667 0.018239153599544453 -0.0007483560763080695 -0.0057764606820877445 0.0008627030964287082 0.009175792728161623
 0.0008659173967653758 0.009175413936771033 -0.0007483560763080695 -0.0057764606820877445 0.003897265263571659 0.018240167049817544 0.9953641355224978 -0.04420585870118274
 -0.0007489752460500555 -0.0057764528697464 0.0008627030964287082 0.009175792728161623 0.9953641355224978 -0.04420585870118274 0.003897725894077314 0.018240092921257948
0.07503126302626001 0.0042062718150138985 0.020003474000668917 0.9949540159715559 -0.04830652988393535 0.0009924925735117038 0.010012767723484894 -0.0008561692414586617 -0.006307025565213908
 0.9949540159715559 -0.04830652988393535 0.004207641479924315 0.020003326507382874 -0.0008554347804116623 -0.006307041248920499 0.0009886671915115947 0.01001322605002987
 0.0009924925735117038 0.010012767723484894 -0.0008554347804116623 -0.006307041248920499 0.00420671368694835 0.020004439833243612 0.9949540481057808 -0.048305528021355675
 -0.0008561692414586617 -0.006307025565213908 0.0009886671915115947 0.01001322605002987 0.9949540481057808 -0.048305528021355675 0.004207261410153623 0.02000435245900297
0.08128386827845 0.004532406853298724 0.021783489894182936 0.9945216456549846 -0.05241996710550358 0.0011282990779998927 0.010850206455115896 -0.0009711502698404911 -0.0068379415238356365
 0.9945216456549846 -0.05241996710550358 0.004534013649717959 0.021783317874220675 -0.0009702910226267686 -0.0068379667337617606 0.0011238092998073989 0.010850754697711074
 0.0011282990779998927 0.010850206455115896 -0.0009702910226267686 -0.0068379667337617606 0.004532924967874763 0.021784532651055715 0.9945216830990752 -0.0524188816459764
 -0.0009711502698404911 -0.0068379415238356365 0.0011238092998073989 0.010850754697711074 0.9945216830990752 -0.0524188816459764 0.004533567260512828 0.021784430818517355
0.08753647353064001 0.0048755913256758095 0.02357904376879 0.9940667131889981 -0.05654694962418878 0.00127341638692224 0.01168760457399029 -0.0010940000651168868 -0.00736907229243252
 0.9940667131889981 -0.05654694962418878 0.004877454105038306 0.023578844752175213 -0.0010930066104524428 -0.007369108789821287 0.001268208868309265 0.011688253797382774
 0.00127341638692224 0.01168760457399029 -0.0010930066104524428 -0.007369108789821287 0.004876191721722952 0.02358016262109199 0.9940667563591655 -0.05654578050497849
 -0.0010940000651168868 -0.00736907229243252 0.001268208868309265 0.011688253797382774 0.9940667563591655 -0.05654578050497849 0.004876936051683464 0.023580045088268834
0.09378907878283 0.005236116089944315 0.02538985784921545 0.9935889353188235 -0.060687322560396106 0.0014279220429240823 0.012524833058855071 -0.0012247983138811264 -0.007900287371940122
 0.9935889353188235 -0.060687322560396106 0.005238253692156478 0.02538962923524664 -0.001223661303971948 -0.007900337024338712 0.0014219434165607888 0.012525595018218798
 0.0014279220429240823 0.012524833058855071 -0.001223661303971948 -0.007900337024338712 0.005236804800035571 0.025391051901828325 0.9935889846357351 -0.060686069711993515
 -0.0012247983138811264 -0.007900287371940122 0.0014219434165607888 0.012525595018218798 0.9935889846357351 -0.060686069711993515 0.0052376586275378004 0.025390917397436652
0.100041684035 0.005614270178502497 0.02721565726457419 0.993088029865264 -0.06484091731510781 0.0015918915616756613 0.013361759588760498 -0.0013636225815084042 -0.008431454088910847
 0.993088029865264 -0.06484091731510781 0.005616701432548616 0.02721539632032034 -0.0013623327421260752 -0.008431518870070449 0.00158508844432891 0.013362646736102152
 0.0015918915616756613 0.013361759588760498 -0.0013623327421260752 -0.008431518870070449 0.005615053226591603 0.027216925558612482 0.9930880857530858 -0.06483958065795131
 -0.0013636225815084042 -0.008431454088910847 0.00158508844432891 0.013362646736102152 0.9930880857530858 -0.06483958065795131 0.0056160240054239675 0.027216772781940842
0.1059090909091 0.005985417156607446 0.028942361669539826 0.9925966986735295 -0.06875048967986137 0.0017544322523015971 0.014146731091936801 -0.0015012611748175533 -0.008929733560819626
 0.9925966986735295 -0.06875048967986137 0.005988141087281873 0.028942067782074043 -0.0014998195520854608 -0.008929814428334777 0.0017468068788809286 0.014147747666121731
 0.0017544322523015971 0.014146731091936801 -0.0014998195520854608 -0.008929814428334777 0.005986294202221497 0.02894369869765608 0.9925967611170987 -0.06874907429986749
 -0.0015012611748175533 -0.008929733560819626 0.0017468068788809286 0.014147747666121731 0.9925967611170987 -0.06874907429986749 0.005987381502074986 0.028943527565125436
0.1062942892872 0.0060103407198005025 0.02905616845843182 0.9925637158954109 -0.06900755312512791 0.0017653983403057973 0.014198248671532293 -0.0015105482358395911 -0.008962437507346356
 0.9925637158954109 -0.06900755312512791 0.006013084444267645 0.02905587231724097 -0.0015090963665148705 -0.008962519497113196 0.0017577173406496886 0.014199274161973346
 0.0017653983403057973 0.014198248671532293 -0.0015090963665148705 -0.008962519497113196 0.006011224121466793 0.02905750996631298 0.9925637787825046 -0.06900613257379873
 -0.0015105482358395911 -0.008962437507346356 0.0017577173406496886 0.014199274161973346 0.9925637787825046 -0.06900613257379873 0.006012319300363874 0.029057337587145494
0.11254689453939999 0.006424612851938121 0.03091111795763275 0.9920157138867169 -0.07318703826524983 0.0019485135670290813 0.015034161749636841 -0.001665648368883731 -0.009493100368141353
 0.9920157138867169 -0.07318703826524983 0.006427687855720814 0.03091078361763103 -0.0016640253432137367 -0.009493201752333232 0.0019399012938545227 0.015035339447617079
 0.0019485135670290813 0.015034161749636841 -0.0016640253432137367 -0.009493201752333232 0.006425602613544228 0.030912531585178236 0.9920157842063655 -0.07318553372565141
 -0.001665648368883731 -0.009493100368141353 0.0019399012938545227 0.015035339447617079 0.9920157842063655 -0.07318553372565141 0.006426829637520247 0.03091233824359951
0.11879949979160001 0.006857369625385208 0.03278023143111477 0.991443745884548 -0.07737917096622185 0.002141306131380183 0.015869357290095903 -0.0018289937172163572 -0.010023303049731789
 0.991443745884548 -0.07737917096622185 0.006860794707777812 0.03277985575362316 -0.001827190483200822 -0.010023426120004413 0.002131709202105565 0.01587070177546555
 0.002141306131380183 0.015869357290095903 -0.001827190483200822 -0.010023426120004413 0.0068584717430700765 0.03278171601404829 0.9914438240749008 -0.07737758233840496
 -0.0018289937172163572 -0.010023303049731789 0.002131709202105565 0.01587070177546555 0.9914438240749008 -0.07737758233840496 0.006859838054959566 0.0327815003202231
0.1250521050438 0.007308891899881087 0.03466323293322193 0.9908475356561105 -0.08158374015445695 0.0023438425350551647 0.01670369086316395 -0.002000652580995573 -0.010552903545262742
 0.9908475356561105 -0.08158374015445695 0.007312685851145728 0.03466281264109553 -0.001998660161546249 -0.010553050698926807 0.0023332075847534973 0.016705217437151913
 0.0023438425350551647 0.01670369086316395 -0.001998660161546249 -0.010553050698926807 0.007310112358717474 0.034664787240674816 0.990847622160351 -0.08158206732835892
 -0.002000652580995573 -0.010552903545262742 0.0023332075847534973 0.016705217437151913 0.990847622160351 -0.08158206732835892 0.007311625400106362 0.034664547774621114
0.131304710296 0.007779458234905917 0.03655984431272991 0.9902268088400943 -0.0858005260320652 0.0025561868032643927 0.017537015213221565 -0.0021806907421844136 -0.011081757452866403
 0.9902268088400943 -0.0858005260320652 0.007783639836495869 0.036559375988732844 -0.0021785002355993693 -0.0110819311927661 0.0025444604940580893 0.017538739904180794
 0.0025561868032643927 0.017537015213221565 -0.0021785002355993693 -0.0110819311927661 0.0077808030081606815 0.03656146704362197 0.9902269041073801 -0.08579876889047346
 -0.0021806907421844136 -0.011081757452866403 0.0025444604940580893 0.017538739904180794 0.9902269041073801 -0.08579876889047346 0.007782470221112796 0.03656120235484876
0.1375573155481 0.00816097465676234 0.03822170659035726 0.9896897044648602 -0.08978111537093049 0.0027515372986020026 0.0183441018379032 -0.0023423242276699803 -0.011584646543724651
 0.9896897044648602 -0.08978111537093049 0.008165562931467507 0.03822119593218729 -0.0023399224336605046 -0.01158484704392154 0.002738687431921274 0.018346022192743776
 0.0027515372986020026 0.0183441018379032 -0.0023399224336605046 -0.01158484704392154 0.008162449170063556 0.03822339649259956 0.9896898088941096 -0.08977927387246017
 -0.0023423242276699803 -0.011584646543724651 0.002738687431921274 0.018346022192743776 0.9896898088941096 -0.08977927387246017 0.008164279424722164 0.03822311427329143
0.1438099208003 0.008555893005412032 0.03987486153946994 0.98913374204413 -0.0937516737911119 0.002954782924326741 0.019147986709545234 -0.002510430922932039 -0.012084606374340346
 0.98913374204413 -0.0937516737911119 0.008560906739408122 0.039874305776833624 -0.0025078082739551874 -0.012084836093953789 0.002940760025703876 0.01915011746655863
 0.002954782924326741 0.019147986709545234 -0.0025078082739551874 -0.012084836093953789 0.008557503117676996 0.03987661727227921 0.9891338560814978 -0.09374974782853146
 -0.002510430922932039 -0.012084606374340346 0.002940760025703876 0.01915011746655863 0.9891338560814978 -0.09374974782853146 0.008559504086345673 0.039876316778444706
0.1500625260525 0.00896407506154485 0.04151917272059951 0.9885590638944268 -0.09771210449321034 0.0031658543949522784 0.019948589591039116 -0.002684943492731138 -0.012581560990286088
 0.9885590638944268 -0.09771210449321034 0.008969533031141645 0.04151856895893294 -0.0026820904417841876 -0.012581822487193497 0.0031506092602955685 0.019950946032829854
 0.0031658543949522784 0.019948589591039116 -0.0026820904417841876 -0.012581822487193497 0.008965826614532274 0.04152099289293266 0.9885591879907311 -0.09771009395178652
 -0.002684943492731138 -0.012581560990286088 0.0031506092602955685 0.019950946032829854 0.9885591879907311 -0.09771009395178652 0.00896800598154252 0.041520673338597304
0.15631513130469998 0.00938538163303172 0.04315450783009926 0.9879658130489405 -0.10166231098203056 0.0033846816096580862 0.020745831588876308 -0.002865793775351416 -0.013075436037360033
 0.9879658130489405 -0.10166231098203056 0.00939130260432191 0.043153853050465214 -0.002862700796234772 -0.01307573196776955 0.0033681653093544568 0.020748429537075168
