! Created with skrf 1.8.0 (http://scikit-rf.org).
# GHz S RI R 50.0 
!freq ReS11 ImS11 ReS12 ImS12 ReS13 ImS13
! ReS14 ImS14
! ReS21 ImS21 ReS22 ImS22 ReS23 ImS23
! ReS24 ImS24
! ReS31 ImS31 ReS32 ImS32 ReS33 ImS33
! ReS34 ImS34
! ReS41 ImS41 ReS42 ImS42 ReS43 ImS43
! ReS44 ImS44
!
0.0 0.001732479206168 0.0 0.9982675207937 0.0 6.732521019729e-05 0.0 -6.73252077991e-05 8.244960023309824e-21
 0.9982675207937 0.0 0.0017324792062 0.0 -6.732520779907e-05 8.244960023306149e-21 6.732521019706e-05 0.0
 6.732521019729e-05 0.0 -6.732520779907e-05 8.244960023306149e-21 0.001732479170638 0.0 0.9982675207582 0.0
 -6.73252077991e-05 8.244960023309824e-21 6.732521019706e-05 0.0 0.9982675207582 0.0 0.001732479170676 0.0
0.005 0.0018646448900218472 0.0014132902227919015 0.9981001835861611 -0.003628650434237655 9.529564216491016e-05 0.0007624965282491918 -9.229705053749432e-05 -0.0004748880574834218
 0.9981001835861611 -0.003628650434237655 0.0018646751484644036 0.001413272499870369 -9.229530735787371e-05 -0.00047488667264904935 9.510662211674384e-05 0.0007625684152989969
 9.529564216491016e-05 0.0007624965282491918 -9.229530735787371e-05 -0.00047488667264904935 0.0018646463825383948 0.0014133565723412455 0.9981001839572575 -0.003628583374934698
 -9.229705053749432e-05 -0.0004748880574834218 9.510662211674384e-05 0.0007625684152989969 0.9981001839572575 -0.003628583374934698 0.0018646743893606676 0.0014133402606719854
0.006252605252188 0.001899487960277201 0.0017721627802526703 0.998055755118028 -0.00453667239678596 0.000103411957193179 0.0009534667907583181 -9.94369343645885e-05 -0.000594217362098587
 0.998055755118028 -0.00453667239678596 0.0018995352607453911 0.001772140319970033 -9.943422219963831e-05 -0.0005942156540499878 0.00010311663175535306 0.0009535602095042918
 0.000103411957193179 0.0009534667907583181 -9.943422219963831e-05 -0.0005942156540499878 0.0018994902249534096 0.0017722456933808258 0.9980557556295867 -0.004536588586406751
 -9.94369343645885e-05 -0.000594217362098587 0.00010311663175535306 0.0009535602095042918 0.9980557556295867 -0.004536588586406751 0.001899534004948109 0.0017722250092500732
0.01250521050438 0.0020839575532870243 0.0035813003541452343 0.997818817541091 -0.009073951388632737 0.00015061713970198414 0.0019071263723523012 -0.0001404272180307773 -0.00119120955560514
 0.997818817541091 -0.009073951388632737 0.002084146440741793 0.0035812523403184206 -0.00014041653440355565 -0.0011912063933832945 0.0001494394462016766 0.0019073518954114358
 0.00015061713970198414 0.0019071263723523012 -0.00014041653440355565 -0.0011912063933832945 0.002083966042250537 0.0035814658337478805 0.9978188190262995 -0.009073783974975633
 -0.0001404272180307773 -0.00119120955560514 0.0001494394462016766 0.0019073518954114358 0.9978188190262995 -0.009073783974975633 0.0020841408578603955 0.003581421517626278
0.01875781575657 0.002286329521395891 0.005415958166582222 0.9975563863628977 -0.013622837901704323 0.00020905423586317935 0.002861606443048681 -0.00019043074326694677 -0.0017900595045949714
 0.9975563863628977 -0.013622837901704323 0.002286753993975232 0.005415881257195997 -0.00019040692536913682 -0.0017900551948377666 0.00020640867713817633 0.002862010979245562
 0.00020905423586317935 0.002861606443048681 -0.00019040692536913682 -0.0017900551948377666 0.002286348184656057 0.005416205894024066 0.9975563892844165 -0.013622586961073229
 -0.00019043074326694677 -0.0017900595045949714 0.00020640867713817633 0.002862010979245562 0.9975563892844165 -0.013622586961073229 0.002286741009405135 0.005416134820777551
0.02501042100875 0.0025070299566081478 0.007273512185529637 0.997268126206957 -0.018185487323832968 0.000278838844196718 0.0038169168464550784 -0.0002495768584271722 -0.00239045978214827
 0.997268126206957 -0.018185487323832968 0.002507783852699497 0.0072734028253957075 -0.00024953480785759645 -0.002390454689476377 0.000274139745259767 0.003817555287413856
 0.000278838844196718 0.0038169168464550784 -0.00024953480785759645 -0.002390454689476377 0.002507062735078472 0.00727384182004495 0.9972681310255672 -0.018185152852901922
 -0.0002495768584271722 -0.00239045978214827 0.000274139745259767 0.003817555287413856 0.9972681310255672 -0.018185152852901922 0.002507760380145188 0.007273740720385452
0.03126302626094 0.0027464672054944355 0.00915258684113122 0.9969536860949739 -0.02276279156418094 0.00036008678345537726 0.004772976197895104 -0.0003179906057208042 -0.0029921858921865808
 0.9969536860949739 -0.02276279156418094 0.0027476442606414624 0.009152441268833486 -0.0003179252776613582 -0.002992180439795978 0.00035274777623887227 0.004773911468351176
 0.00036008678345537726 0.004772976197895104 -0.0003179252776613582 -0.002992180439795978 0.002746518038718252 0.009152997953715013 0.9969536932787126 -0.02276237354575384
 -0.0003179906057208042 -0.0029921858921865808 0.00035274777623887227 0.004773911468351176 0.9969536932787126 -0.02276237354575384 0.0027476072081191257 0.00915286342136785
0.037515631513130004 0.0030050402317202468 0.011052266127128 0.9966127081597729 -0.027355167896622817 0.0004529127823150888 0.0057296666017697135 -0.00039579362738724613 -0.0035950415698344645
 0.9966127081597729 -0.027355167896622817 0.0030067341187649775 0.011052080377897271 -0.0003957000251759814 -0.0035950362396046645 0.0004423465891935239 0.005730969739979472
 0.0004529127823150888 0.0057296666017697135 -0.0003957000251759814 -0.0035950362396046645 0.003005113051919794 0.011052758239140675 0.9966127181789209 -0.02735466626027685
 -0.00039579362738724613 -0.0035950415698344645 0.0004423465891935239 0.005730969739979472 0.9966127181789209 -0.02735466626027685 0.0030066803814551833 0.011052586734655081
0.043768236765320004 0.003283141831651506 0.012971853564893441 0.9962448312162981 -0.03196279892855751 0.0005574298481354444 0.006686850313888127 -0.0004831044780414565 -0.004198842146193491
 0.9962448312162981 -0.03196279892855751 0.0032854461939404367 0.012971623471810972 -0.00048297764992923624 -0.004198837478696367 0.0005430481935390475 0.0066886005611989496
 0.0005574298481354444 0.006686850313888127 -0.00048297764992923624 -0.004198837478696367 0.003283240566539121 0.012972426109912364 0.9962448445479636 -0.031962213588129944
 -0.0004831044780414565 -0.004198842146193491 0.0005430481935390475 0.0066886005611989496 0.9962448445479636 -0.031962213588129944 0.0032853726569209937 0.012972213962724431
0.050020842017509996 0.003581160110186347 0.014910772983760204 0.995849692598749 -0.03658573175269178 0.0006737488843662407 0.007644376623801974 -0.0005800387164046122 -0.004803407699709166
 0.995849692598749 -0.03658573175269178 0.0035841685906544034 0.014910494177759049 -0.0005798737535031184 -0.0048034042941622395 0.0006549624748355359 0.007646661517807807
 0.0006737488843662407 0.007644376623801974 -0.0005798737535031184 -0.0048034042941622395 0.003581288679090987 0.014911425319205108 0.995849709724988 -0.036585062593969986
 -0.0005800387164046122 -0.004803407699709166 0.0006549624748355359 0.007646661517807807 0.995849709724988 -0.036585062593969986 0.0035840721252171654 0.014911168728696576
0.055454545454549996 0.0038566202467213992 0.016611059533657734 0.9954838833916948 -0.04061559810620625 0.0007845026395025657 0.008476649951327743 -0.0006721803737236286 -0.005329276087773325
 0.9954838833916948 -0.04061559810620625 0.0038603166971653757 0.01661073468862978 -0.0006719783161712972 -0.005329274311027678 0.0007614090111163607 0.00847947707502721
 0.0007845026395025657 0.008476649951327743 -0.0006719783161712972 -0.005329274311027678 0.0038567779199326566 0.016611780623278782 0.9954839042137142 -0.040614855996789705
 -0.0006721803737236286 -0.005329276087773325 0.0007614090111163607 0.00847947707502721 0.9954839042137142 -0.040614855996789705 0.003860197756121195 0.01661148222264148
0.056273447269699996 0.0038994792173745 0.01686851984280533 0.9954269292644596 -0.04122392656119168 0.0008019784098379646 0.008602085249579582 -0.0006867089067173356 -0.005408559702124177
 0.9954269292644596 -0.04122392656119168 0.003903285486224103 0.01686818775157889 -0.0006865009416439654 -0.0054085582163166165 0.0007781969552609691 0.008605000718489868
 0.0008019784098379646 0.008602085249579582 -0.0006865009416439654 -0.0054085582163166165 0.0038996415326301628 0.01686925124583967 0.9954269506758294 -0.041223173445187444
 -0.0006867089067173356 -0.005408559702124177 0.0007781969552609691 0.008605000718489868 0.9954269506758294 -0.041223173445187444 0.003903162951563424 0.016868946281356142
0.06252605252188 0.00423847972606675 0.018844634451748003 0.9949761785449829 -0.04587728336664735 0.0009422243346927206 0.009559808207853961 -0.000803224568014072 -0.006014119196518343
 0.9949761785449829 -0.04587728336664735 0.004243177507246761 0.018844244297752638 -0.0008029687739783561 -0.006014120346745411 0.0009128565976041196 0.00956345866506097
 0.0009422243346927206 0.009559808207853961 -0.0008029687739783561 -0.006014120346745411 0.00423867968967595 0.018845444117845674 0.9949762047396202 -0.045876446130498294
 -0.000803224568014072 -0.006014119196518343 0.0009128565976041196 0.00956345866506097 0.9949762047396202 -0.045876446130498294 0.00424302574772652 0.01884508671764992
0.06877865777407 0.004598538807913583 0.020838686039598188 0.994497078699839 -0.05054565788274887 0.0010945897650395159 0.010517370948063808 -0.0009296920971012132 -0.006619905719074072
 0.994497078699839 -0.05054565788274887 0.004604221905011572 0.020838232837052415 -0.0009293836872813371 -0.006619910280057518 0.0010590436293156566 0.010521869386177921
 0.0010945897650395159 0.010517370948063808 -0.0009293836872813371 -0.006619910280057518 0.004598780311156615 0.020839573081925876 0.9944971101852617 -0.05054473633977579
 -0.0009296920971012132 -0.006619905719074072 0.0010590436293156566 0.010521869386177921 0.9944971101852617 -0.05054473633977579 0.004604037750505866 0.020839159051245944
0.07503126302626001 0.004980030290856321 0.022850262642460355 0.9939892693578731 -0.05522887159424314 0.001259174825951279 0.011474593079192753 -0.0010662146736548398 -0.00722573663648669
 0.9939892693578731 -0.05522887159424314 0.004986792612327013 0.022849741193522947 -0.0010658489008096247 -0.0072257454412879545 0.0012168573805159673 0.011480061163215522
 0.001259174825951279 0.011474593079192753 -0.0010658489008096247 -0.0072257454412879545 0.0049803172128011905 0.022851226091797436 0.9939893066518151 -0.05522786553336663
 -0.0010662146736548398 -0.00722573663648669 0.0012168573805159673 0.011480061163215522 0.9939893066518151 -0.05522786553336663 0.004986572877532126 0.022850751100096822
0.08128386827845 0.005383324644092687 0.02487896438412656 0.9934523918899626 -0.05992671844294682 0.0014360764946859522 0.012431288870887394 -0.0012128921551447598 -0.00783142671758685
 0.9934523918899626 -0.05992671844294682 0.005391260229373737 0.02487836927391591 -0.0012124643114466895 -0.007831440657504156 0.0013863941291322613 0.012437857030088114
 0.0014360764946859522 0.012431288870887394 -0.0012124643114466895 -0.007831440657504156 0.0053836608494204135 0.02488000318514726 0.9934524355207917 -0.05992562763199332
 -0.0012128921551447598 -0.00783142671758685 0.0013863941291322613 0.012437857030088114 0.9934524355207917 -0.05992562763199332 0.005391001711897065 0.024879462762205366
0.08753647353064001 0.005808788912062942 0.02692439884469488 0.9928860897362519 -0.06463896943532246 0.0016253884427610914 0.013387267611646388 -0.0013698209630280571 -0.008436787856548805
 0.9928860897362519 -0.06463896943532246 0.005817991956056641 0.026923724435545103 -0.0013693263798414464 -0.008436807881043411 0.0015677469524251972 0.013395075129995644
 0.0016253884427610914 0.013387267611646388 -0.0013693263798414464 -0.008436807881043411 0.005809178250203802 0.026925511861523695 0.9928861402448155 -0.06463779361508562
 -0.0013698209630280571 -0.008436787856548805 0.0015677469524251972 0.013395075129995644 0.9928861402448155 -0.06463779361508562 0.0058176914374557945 0.026924901392598875
0.09378907878283 0.006256786614599304 0.02898617775249573 0.9922900087029276 -0.06936537593671135 0.0018272008815142622 0.014342333885545615 -0.001537093964931635 -0.009041628886618037
 0.9922900087029276 -0.06936537593671135 0.0062673514936261 0.028985418176999986 -0.0015365280129161038 -0.009041656003190427 0.0017610055807892055 0.01435152899042637
 0.0018272008815142622 0.014342333885545615 -0.0015365280129161038 -0.009041656003190427 0.006257232917875467 0.02898736376158189 0.9922900666431637 -0.06936411482761959
 -0.001537093964931635 -0.009041628886618037 0.0017610055807892055 0.01435152899042637 0.9922900666431637 -0.06936411482761959 0.0062670057376136325 0.028986678481640528
0.100041684035 0.006727677622126459 0.031063914572198835 0.9916637972393334 -0.07410567207978788 0.0020416004127268026 0.015296287786502919 -0.0017148003519450311 -0.009645755465404538
 0.9916637972393334 -0.07410567207978788 0.0067396989189636835 0.03106306372540102 -0.0017141584410286955 -0.009645790739502164 0.0019662562553763967 0.015307027735625091
 0.0020416004127268026 0.015296287786502919 -0.0017141584410286955 -0.009645790739502164 0.006728184703951043 0.031065172265048308 0.991663863179246 -0.07410432537893605
 -0.0017148003519450311 -0.009645755465404538 0.0019662562553763967 0.015307027735625091 0.991663863179246 -0.07410432537893605 0.006739304671368613 0.031064407251824983
0.1059090909091 0.007190697341235359 0.0330278193723237 0.9910484502948219 -0.07856631934540456 0.0022543133023640496 0.01619027879278053 -0.001891124112529088 -0.010211838432118559
 0.9910484502948219 -0.07856631934540456 0.007204171560289612 0.03302687710520536 -0.0018904067828232108 -0.010211882381703225 0.0021698425154657764 0.016202619557215504
 0.0022543133023640496 0.01619027879278053 -0.0018904067828232108 -0.010211882381703225 0.007191264907379208 0.03302914306430318 0.9910485242716116 -0.07856489203204484
 -0.001891124112529088 -0.010211838432118559 0.0021698425154657764 0.016202619557215504 0.9910485242716116 -0.07856489203204484 0.00720372883186196 0.033028298606122414
0.1062942892872 0.0072218180129695365 0.033157222696177394 0.9910071066995013 -0.07885957658027203 0.002268669881226838 0.016248925096612587 -0.0019030255137346538 -0.010248970005483603
 0.9910071066995013 -0.07885957658027203 0.0072353905426554765 0.03315627422656881 -0.00190230309335629 -0.01024901456037371 0.0021835815870262713 0.016261376262846728
 0.002268669881226838 0.016248925096612587 -0.00190230309335629 -0.01024901456037371 0.007222389666337888 0.033158550677047045 0.9910071812221142 -0.07885814396350176
 -0.0019030255137346538 -0.010248970005483603 0.0021835815870262713 0.016261376262846728 0.9910071812221142 -0.07885814396350176 0.007234944530293308 0.03315770084313019
0.11254689453939999 0.007739559916767869 0.03526571407598218 0.990319591594201 -0.08362679412373845 0.00250848822973752 0.01720003744431248 -0.002101850911895646 -0.010851071634715935
 0.990319591594201 -0.08362679412373845 0.007754778752065708 0.035264661375431224 -0.0021010434711050178 -0.010851126651356577 0.002413060416803817 0.017214375398361553
 0.00250848822973752 0.01720003744431248 -0.0021010434711050178 -0.010851126651356577 0.0077401999123395265 0.035267110864649766 0.9903196752988894 -0.08362527524270683
 -0.002101850911895646 -0.010851071634715935 0.002413060416803817 0.017214375398361553 0.9903196752988894 -0.08362527524270683 0.007754277682271541 0.03526617094836945
0.11879949979160001 0.008281251346848609 0.037388998160004024 0.9896009098348184 -0.08840701645732958 0.0027611303558271825 0.01814941243988912 -0.0023113539517323053 -0.011451856188800992
 0.9896009098348184 -0.08840701645732958 0.008298211843694824 0.037387834352674565 -0.0023104570194711163 -0.011451922905751324 0.0026547676778124088 0.018165822030677868
 0.0027611303558271825 0.01814941243988912 -0.0023104570194711163 -0.011451922905751324 0.00828196343140445 0.03739046218850888 0.9896010033380689 -0.08840541094275307
 -0.0023113539517323053 -0.011451856188800992 0.0026547676778124088 0.018165822030677868 0.9896010033380689 -0.08840541094275307 0.008297652403926232 0.03738942674378086
0.1250521050438 0.008847236025020588 0.03952668107274372 0.9888507229720445 -0.09319992325154257 0.00302666697044985 0.019096833804180605 -0.0025316078532497026 -0.012051116220463988
 0.9888507229720445 -0.09319992325154257 0.008866033848257479 0.03952539900271325 -0.0025306169985654823 -0.012051195933685543 0.0029087742587347656 0.019115509236851378
 0.00302666697044985 0.019096833804180605 -0.0025306169985654823 -0.012051195933685543 0.008848023919090271 0.03952821068708049 0.988850826908314 -0.09319823071141932
 -0.0025316078532497026 -0.012051116220463988 0.0029087742587347656 0.019115509236851378 0.988850826908314 -0.09319823071141932 0.008865412704993872 0.03952707407202633
0.131304710296 0.009437853198317726 0.04167836496177421 0.9880686964295937 -0.09800518280596834 0.0033051644577373157 0.020042081489676768 -0.002762681521870235 -0.012648641026194368
 0.9880686964295937 -0.09800518280596834 0.009458584347800553 0.04167695717955677 -0.002761592354312474 -0.012648735088942648 0.003175146868042287 0.02006322640092545
 0.0033051644577373157 0.020042081489676768 -0.002761592354312474 -0.012648735088942648 0.009438720594960825 0.04167995841935099 0.9880688114528824 -0.0980034028282779
 -0.002762681521870235 -0.012648641026194368 0.003175146868042287 0.02006322640092545 0.9880688114528824 -0.0980034028282779 0.009457898146208172 0.04167871478373467
0.1375573155481 0.009924320827333126 0.04356290334849668 0.9873836775592785 -0.10254155498256612 0.003564092614772613 0.020957595983514477 -0.0029722059310631865 -0.013216792228048684
 0.9873836775592785 -0.10254155498256612 0.009947086938161338 0.043561389596786466 -0.002971011775159246 -0.013216900863504766 0.003421657598029391 0.0209811940178319
 0.003564092614772613 0.020957595983514477 -0.002971011775159246 -0.013216900863504766 0.009925270678877478 0.04356455932489703 0.9873838041917903 -0.10253968732341186
 -0.0029722059310631865 -0.013216792228048684 0.003421657598029391 0.0209811940178319 0.9873838041917903 -0.10253968732341186 0.009946333295234084 0.043563229435292596
0.1438099208003 0.010428074325348202 0.04543627017950468 0.9866741874477487 -0.10706517521762492 0.003833464807498707 0.021868575618848057 -0.00319006736294582 -0.013780856643039883
 0.9866741874477487 -0.10706517521762492 0.010452972639148529 0.04543464434342704 -0.003188763475401574 -0.013780981198355408 0.0036780724792498695 0.021894814323946007
 0.003833464807498707 0.021868575618848057 -0.003188763475401574 -0.013780981198355408 0.010429110152454834 0.045437986900805416 0.9866743263438859 -0.10706321947455336
 -0.00319006736294582 -0.013780856643039883 0.0036780724792498695 0.021894814323946007 0.9866743263438859 -0.10706321947455336 0.010452148344567078 0.04543656622304735
0.1500625260525 0.010948916646046754 0.04729827229774487 0.9859404278867177 -0.11157589370293511 0.004113176435556086 0.022774900184175953 -0.0034161656210364194 -0.014340724099980821
 0.9859404278867177 -0.11157589370293511 0.01097604473563692 0.0472965278475582 -0.0034147472700202636 -0.014340865976909842 0.003944290692623548 0.02280397395097122
 0.004113176435556086 0.022774900184175953 -0.0034147472700202636 -0.014340865976909842 0.010950041934189943 0.04730004792157892 0.9859405797173183 -0.11157384945888464
 -0.0034161656210364194 -0.014340724099980821 0.003944290692623548 0.02280397395097122 0.9859405797173183 -0.11157384945888464 0.010975146569582673 0.04729853156843284
0.15631513130469998 0.011486649106696627 0.04914872232404205 0.9851826019537231 -0.11607356199816193 0.004403121519185318 0.02367645177026418 -0.0036503991502210512 -0.014896286990848814
 0.9851826019537231 -0.11607356199816193 0.011516104885059449 0.04914685230017162 -0.0036488616156036126 -0.014896447645554148 0.0042202101045906845 0.023708561752494414
