! Created with skrf 1.8.0 (http://scikit-rf.org).
# GHz S RI R 50.0 
!freq ReS11 ImS11 ReS12 ImS12 ReS13 ImS13
! ReS14 ImS14
! ReS21 ImS21 ReS22 ImS22 ReS23 ImS23
! ReS24 ImS24
! ReS31 ImS31 ReS32 ImS32 ReS33 ImS33
! ReS34 ImS34
! ReS41 ImS41 ReS42 ImS42 ReS43 ImS43
! ReS44 ImS44
!
0.0 0.001322206937875 0.0 0.9986777930511 0.0 5.07800822043e-05 0.0 -5.078008183786e-05 6.2187664683175895e-21
 0.9986777930511 0.0 0.001322206937898 0.0 -5.078008183847e-05 6.218766468392293e-21 5.078008220485e-05 0.0
 5.07800822043e-05 0.0 -5.078008183847e-05 6.218766468392293e-21 0.001322206943393 0.0 0.9986777930566 0.0
 -5.078008183786e-05 6.2187664683175895e-21 5.078008220485e-05 0.0 0.9986777930566 0.0 0.001322206943388 0.0
0.005 0.0014220575875858032 0.0010792207703952744 0.9985515450768646 -0.002770548228759155 7.126137632006825e-05 0.0005765995883464628 -6.914537647382275e-05 -0.0003590421925653234
 0.9985515450768646 -0.002770548228759155 0.001422068233461305 0.001079214500992574 -6.91450926116058e-05 -0.0003590419220627924 7.120039031816721e-05 0.0005766228106518202
 7.126137632006825e-05 0.0005765995883464628 -6.91450926116058e-05 -0.0003590419220627924 0.001422058333069479 0.0010792875541046165 0.9985515454188445 -0.0027704811618646085
 -6.914537647382275e-05 -0.0003590421925653234 7.120039031816721e-05 0.0005766228106518202 0.9985515454188445 -0.0027704811618646085 0.001422068164399332 0.0010792818432983466
0.006252605252188 0.0014480815283324803 0.0013533076046336708 0.9985184574582437 -0.0034638895989693133 7.7024965435207e-05 0.0007210311218052536 -7.425630514987422e-05 -0.0004492805549124287
 0.9985184574582437 -0.0034638895989693133 0.00144809817011875 0.0013532996336541663 -7.425586384613911e-05 -0.00044928022020602505 7.692967963132124e-05 0.0007210612524802686
 7.7024965435207e-05 0.0007210311218052536 -7.425586384613911e-05 -0.00044928022020602505 0.0014480826127582643 0.0013533910538636174 0.9985184579116876 -0.0034638057869830806
 -7.425630514987422e-05 -0.0004492805549124287 7.692967963132124e-05 0.0007210612524802686 0.9985184579116876 -0.0034638057869830806 0.0014480979805209088 0.0013533837913060635
0.01250521050438 0.0015841233371922927 0.0027353121356082 0.9983444570253004 -0.0069287514028141 0.00010961360078861036 0.0014424264523037079 -0.00010285637795994102 -0.0009008609986624667
 0.9983444570253004 -0.0069287514028141 0.0015841897949084127 0.0027352948404836775 -0.00010285464384991468 -0.0009008603658359424 0.00010923360739105815 0.0014424985024011035
 0.00010961360078861036 0.0014424264523037079 -0.00010285464384991468 -0.0009008603658359424 0.0015841271301352984 0.002735478707608465 0.9983444582952802 -0.00692858398915691
 -0.00010285637795994102 -0.0009008609986624667 0.00010923360739105815 0.0014424985024011035 0.9983444582952802 -0.00692858398915691 0.0015841884873759953 0.002735462938940323
0.01875781575657 0.0017305959052202953 0.004137335446833223 0.9981555995610017 -0.01040305587527403 0.0001486154395736848 0.002164709399541582 -0.00013666136164522708 -0.0013540891643458932
 0.9981555995610017 -0.01040305587527403 0.001730745250801859 0.004137307379194586 -0.00013665750137922716 -0.0013540882744387684 0.00014776178574462507 0.002164837213647141
 0.0001486154395736848 0.002164709399541582 -0.00013665750137922716 -0.0013540882744387684 0.0017306040059382397 0.004137584882035318 0.9981556019877842 -0.010402804929734064
 -0.00013666136164522708 -0.0013540891643458932 0.00014776178574462507 0.002164837213647141 0.9981556019877842 -0.010402804929734064 0.0017307418649110638 0.004137559292935343
0.02501042100875 0.0018877567293767376 0.005557444337333393 0.9979516862642572 -0.013888521714012747 0.00019410121249044689 0.0028879365216120875 -0.00017575016680076414 -0.0018087759821491143
 0.9979516862642572 -0.013888521714012747 0.001888021973880401 0.0055574039643855955 -0.00017574335918193795 -0.001808774881651869 0.00019258483725333961 0.0028881359141908216
 0.00019410121249044689 0.0028879365216120875 -0.00017574335918193795 -0.001808774881651869 0.001887770754686412 0.005557776364890043 0.9979516902073596 -0.013888187244097927
 -0.00017575016680076414 -0.0018087759821491143 0.00019258483725333961 0.0028881359141908216 0.9979516902073596 -0.013888187244097927 0.0018880155564792727 0.00555773958051807
0.03126302626094 0.0020558524660561793 0.006994661246645802 0.9977325070553834 -0.01738590512766253 0.0002461424204133778 0.0036120964989817214 -0.0002201997738893393 -0.0022647964607619107
 0.9977325070553834 -0.01738590512766253 0.002056266575628274 0.006994606953169128 -0.0002201892077562946 -0.0022647952017068383 0.00024377397136916135 0.00361238526445438
 0.0002461424204133778 0.0036120964989817214 -0.0002201892077562946 -0.0022647952017068383 0.0020558740272452027 0.006995075552324122 0.9977325128716986 -0.017385487110371908
 -0.0002201997738893393 -0.0022647964607619107 0.00024377397136916135 0.00361238526445438 0.9977325128716986 -0.017385487110371908 0.0020562561574631257 0.006995026139461833
0.037515631513130004 0.002235124603501441 0.008448361871035832 0.9974978463722959 -0.02089560216799727 0.00030481060801567424 0.004337151579400739 -0.000270085822084985 -0.0027220482295275197
 0.9974978463722959 -0.02089560216799727 0.0022357205096438315 0.008448291960296318 -0.0002700706951861256 -0.0027220468694923007 0.00030140035510669964 0.004337549512037894
 0.00030481060801567424 0.004337151579400739 -0.0002700706951861256 -0.0027220468694923007 0.0022351553106560807 0.008448858105728492 0.9974978544213244 -0.020895100540850496
 -0.000270085822084985 -0.0027220482295275197 0.00030140035510669964 0.004337549512037894 0.9974978544213244 -0.020895100540850496 0.002235705109583467 0.008448794574027786
0.043768236765320004 0.0024258116650011674 0.009918091888665511 0.9972474854994852 -0.02441783194633666 0.00037017702914972974 0.005063050181494848 -0.00032548283337596306 -0.003180438923598432
 0.9972474854994852 -0.02441783194633666 0.002426622272589611 0.009918004582896156 -0.0003254623516954849 -0.0031804375256841723 0.0003655348200023455 0.005063579098318226
 0.00037017702914972974 0.005063050181494848 -0.0003254623516954849 -0.0031804375256841723 0.002425853127763026 0.009918669641554047 0.9972474961459209 -0.02441724663376781
 -0.00032548283337596306 -0.003180438923598432 0.0003655348200023455 0.005063579098318226 0.9972474961459209 -0.02441724663376781 0.00242660089839878 0.0099185904443879
0.050020842017509996 0.002628150240008413 0.011403491183902813 0.996981203727697 -0.027952712348670344 0.0004423124564528098 0.0057897320984288255 -0.00038646430124231017 -0.003639880970173479
 0.996981203727697 -0.027952712348670344 0.0026292084336525744 0.011403384624596937 -0.00038643767851823536 -0.0036398796029650246 0.0004362476933915818 0.005790415863444768
 0.0004423124564528098 0.0057897320984288255 -0.00038643767851823536 -0.0036398796029650246 0.0026282040659321936 0.011404150002477803 0.9969812173407439 -0.027952043241491024
 -0.00038646430124231017 -0.003639880970173479 0.0004362476933915818 0.005790415863444768 0.9969812173407439 -0.027952043241491024 0.0026291800803972362 0.011404053537684347
0.055454545454549996 0.002813633740324458 0.012706837138596936 0.9967366946649218 -0.031034947346275023 0.0005105520961258156 0.006421825493660806 -0.00044405063630721263 -0.004039937554315339
 0.9967366946649218 -0.031034947346275023 0.002814933788652815 0.012706712275456724 -0.0004440180440208646 -0.004039936273730609 0.0005030959488134895 0.006422664815398387
 0.0005105520961258156 0.006421825493660806 -0.0004440180440208646 -0.004039936273730609 0.0028136996132242377 0.012707565996962667 0.9967367111599096 -0.031034205312823488
 -0.00044405063630721263 -0.004039937554315339 0.0005030959488134895 0.006422664815398387 0.9967367111599096 -0.031034205312823488 0.002814898543950165 0.012707453182116784
0.056273447269699996 0.0028423755230584124 0.01290425666769699 0.996698779023209 -0.03150029715464984 0.0005212870500158812 0.006517131043117214 -0.0004531027231170857 -0.004100289034711438
 0.996698779023209 -0.03150029715464984 0.002843714172911112 0.012904128915757833 -0.000453069180467227 -0.0041002877722490115 0.0005136086804801417 0.006517995592137672
 0.0005212870500158812 0.006517131043117214 -0.000453069180467227 -0.0041002877722490115 0.002842443316284304 0.012904996046796083 0.996698795977171 -0.03149954412061677
 -0.0004531027231170857 -0.004100289034711438 0.0005136086804801417 0.006517995592137672 0.996698795977171 -0.03149954412061677 0.002843677822138545 0.012904880657116136
0.06252605252188 0.003068721612135101 0.01442012184863554 0.9963999884604289 -0.03506059640678688 0.0006071702575148985 0.0072451760520464824 -0.0005254696025551274 -0.004561578610265612
 0.9963999884604289 -0.03506059640678688 0.0030703735794135366 0.014419970884288594 -0.0005254283682499506 -0.00456157753200658 0.0005976867728413156 0.007246249417829928
 0.0006071702575148985 0.0072451760520464824 -0.0005254283682499506 -0.00456157753200658 0.0030688049737208345 0.014420941223837597 0.9964000091358653 -0.03505975929672758
 -0.0005254696025551274 -0.004561578610265612 0.0005976867728413156 0.007246249417829928 0.9964000091358653 -0.03505975929672758 0.003070328199431002 0.014420805197323559
0.06877865777407 0.0033074216780121985 0.01595084461958483 0.9960846085261262 -0.03863358856543976 0.0007000307312620945 0.007973792314561783 -0.0006036354343086561 -0.005023665183303688
 0.9960846085261262 -0.03863358856543976 0.0033094198199974034 0.015950668342259243 -0.0006035857435381965 -0.005023664374081104 0.0006885501716985493 0.007975104652079408
 0.0007000307312620945 0.007973792314561783 -0.0006035857435381965 -0.005023664374081104 0.003307522204058843 0.015951743378304194 0.9960846333102754 -0.03863266720178204
 -0.0006036354343086561 -0.005023665183303688 0.0006885501716985493 0.007975104652079408 0.9960846333102754 -0.03863266720178204 0.0033093643643961894 0.015951584948571837
0.07503126302626001 0.0035587080550557046 0.017496199549644372 0.9957524153493644 -0.04221922816028248 0.0007999362552102142 0.008702901702461484 -0.0006876696791001638 -0.005486463701296978
 0.9957524153493644 -0.04221922816028248 0.0035610852300005844 0.017495995777698427 -0.0006876107737874038 -0.005486463251286351 0.0007862662192806039 0.008704485314199026
 0.0007999362552102142 0.008702901702461484 -0.0006876107737874038 -0.005486463251286351 0.0035588273361486216 0.01749717702253974 0.9957524446367401 -0.04221822234529124
 -0.0006876696791001638 -0.005486463701296978 0.0007862662192806039 0.008704485314199026 0.9957524446367401 -0.04221822234529124 0.0035610186375826304 0.017496994368827835
0.08128386827845 0.003822812285197163 0.019055972729437244 0.9954031848864011 -0.04581745089063222 0.0009069536782228041 0.009432423119801964 -0.000777640731230787 -0.005949888222329794
 0.9954031848864011 -0.04581745089063222 0.003825601357423375 0.01905573919967117 -0.0007775718599352924 -0.005949888227005309 0.0008909013356997238 0.00943431248098971
 0.0009069536782228041 0.009432423119801964 -0.0007775718599352924 -0.005949888227005309 0.0038229519054897446 0.019057028192834724 0.9954032190796513 -0.045816360403558305
 -0.000777640731230787 -0.005949888222329794 0.0008909013356997238 0.00943431248098971 0.9954032190796513 -0.045816360403558305 0.003825522551184255 0.019056819440024266
0.08753647353064001 0.004099965129580517 0.020629958218132037 0.9950366930748806 -0.04942817712610721 0.0010211488510780305 0.01016227274645365 -0.0008736158818841582 -0.006413851673257611
 0.9950366930748806 -0.04942817712610721 0.004103198973871073 0.0206296925852588 -0.0008735362995970912 -0.00641385223336765 0.0010025209585513154 0.010164504530209081
 0.0010211488510780305 0.01016227274645365 -0.0008735362995970912 -0.00641385223336765 0.004100126665659151 0.02063109089184204 0.995036732585464 -0.04942700172511194
 -0.0008736158818841582 -0.006413851673257611 0.0010025209585513154 0.010164504530209081 0.995036732585464 -0.04942700172511194 0.004103106860971747 0.020630854110209314
0.09378907878283 0.004390396558263302 0.022217955493707198 0.9946527159702615 -0.053051314406650826 0.0011425865662550421 0.010892364212699054 -0.0009756612784546622 -0.006878265679214738
 0.9946527159702615 -0.053051314406650826 0.004394108065020037 0.022217655329675807 -0.0009755702465782722 -0.006878266900733502 0.0011211894850957761 0.010894977315028002
 0.0011425865662550421 0.010892364212699054 -0.0009755702465782722 -0.006878266900733502 0.004390581578331022 0.02221916454407914 0.9946527612190712 -0.053050053825446156
 -0.0009756612784546622 -0.006878265679214738 0.0011211894850957761 0.010894977315028002 0.9946527612190712 -0.053050053825446156 0.004394001535562112 0.022218897749080813
0.100041684035 0.004694335724669837 0.023819767596317595 0.9942510298675422 -0.05668675925200519 0.0012713304991444963 0.01162260872928615 -0.0010838418817793833 -0.0073430404402313664
 0.9942510298675422 -0.05668675925200519 0.004698557804325534 0.02381943038943315 -0.00108373866795695 -0.0073430424343325995 0.0012469702153856857 0.011625644293878409
 0.0012713304991444963 0.01162260872928615 -0.00108373866795695 -0.0073430424343325995 0.0046945457873061 0.023821052130159323 0.9942510812858728 -0.05668541320568094
 -0.0010838418817793833 -0.0073430404402313664 0.0012469702153856857 0.011625644293878409 0.9942510812858728 -0.05668541320568094 0.004698435731206758 0.023820753281908403
0.1059090909091 0.0049920389132287 0.025335289231893397 0.993857784961208 -0.06010933159649753 0.0013988436402905652 0.012307923824640105 -0.0011909945926094141 -0.0077794290389407855
 0.993857784961208 -0.06010933159649753 0.004996770065378553 0.02533491490446952 -0.0011908792868018704 -0.007779431863732383 0.001371525936195215 0.012311395268821208
 0.0013988436402905652 0.012307923824640105 -0.0011908792868018704 -0.007779431863732383 0.00499227388374174 0.025336643738728556 0.9938578425706358 -0.060107905069149904
 -0.0011909945926094141 -0.0077794290389407855 0.001371525936195215 0.012311395268821208 0.9938578425706358 -0.060107905069149904 0.004996632364712133 0.025336312906818217
0.1062942892872 0.005012010928161685 0.025435199711301267 0.9938314114146528 -0.060334398534220214 0.0014074431507228734 0.012352915186303427 -0.0011982214208487918 -0.007808084641480744
 0.9938314114146528 -0.060334398534220214 0.005016776516233484 0.025434822865218885 -0.001198105298955547 -0.007808087524492979 0.0013799252965783775 0.012356416629124864
 0.0014074431507228734 0.012352915186303427 -0.001198105298955547 -0.007808087524492979 0.0050122475813507514 0.025436558781709803 0.9938314694442846 -0.06033296671316103
 -0.0011982214208487918 -0.007808084641480744 0.0013799252965783775 0.012356416629124864 0.9938314694442846 -0.06033296671316103 0.005016637753915008 0.025436225784371155
0.11254689453939999 0.005343649567641873 0.027064058104658967 0.9933936377185599 -0.063994110500523 0.0015509857906296043 0.013083190231368811 -0.0013188623463364496 -0.008273305386937541
 0.9933936377185599 -0.063994110500523 0.005348991629305048 0.027063638937318966 -0.0013187325963317086 -0.00827330928032299 0.0015201156675984135 0.013087203265043723
 0.0015509857906296043 0.013083190231368811 -0.0013187325963317086 -0.00827330928032299 0.005343914347669693 0.0270654907065312 0.9933937028131856 -0.06399259257482307
 -0.0013188623463364496 -0.008273305386937541 0.0015201156675984135 0.013087203265043723 0.9933937028131856 -0.06399259257482307 0.0053488350137695624 0.027065121407578257
0.11879949979160001 0.005689478088651119 0.028706149275535667 0.9929374864469208 -0.06766576558227104 0.001702018401037787 0.013813338333487194 -0.0014458257824979477 -0.008738608150061486
 0.9929374864469208 -0.06766576558227104 0.005695429623500002 0.028705685017826464 -0.0014456816903924555 -0.008738613180372364 0.0016676010041817846 0.01381791099135513
 0.001702018401037787 0.013813338333487194 -0.0014456816903924555 -0.008738613180372364 0.00568977251918231 0.028707654347508906 0.9929375590728406 -0.06766416119957841
 -0.0014458257824979477 -0.008738608150061486 0.0016676010041817846 0.01381791099135513 0.9929375590728406 -0.06766416119957841 0.005695253971458934 0.028707246536797414
0.1250521050438 0.006049721924919489 0.030361279297550323 0.9924627359271619 -0.07134922701794937 0.0018605996204805735 0.014543261835671143 -0.0015791714782064767 -0.009203896738516418
 0.9924627359271619 -0.07134922701794937 0.006056315972039487 0.03036076709183434 -0.0015790123360087884 -0.009203903037365093 0.0018224396641536348 0.014548444495583367
 0.0018605996204805735 0.014543261835671143 -0.0015790123360087884 -0.009203903037365093 0.006050047515512811 0.030362855721541123 0.9924628165633427 -0.0713475358038182
 -0.0015791714782064767 -0.009203896738516418 0.0018224396641536348 0.014548444495583367 0.9924628165633427 -0.0713475358038182 0.00605612007983259 0.030362407130212564
0.131304710296 0.006424605434780892 0.03202925328235898 0.9919691652415514 -0.0750443513572096 0.002026786688285831 0.015272861000494572 -0.001718957756888596 -0.009669073268688756
 0.9919691652415514 -0.0750443513572096 0.006431875077442948 0.03202869018090938 -0.0017187828625282598 -0.009669080972717703 0.0019846886327629753 0.015278706408334633
 0.002026786688285831 0.015272861000494572 -0.0017187828625282598 -0.009669080972717703 0.006424963680252009 0.03203089988319513 0.9919692543811821 -0.07504257291549625
 -0.001718957756888596 -0.009669073268688756 0.0019846886327629753 0.015278706408334633 0.9919692543811821 -0.07504257291549625 0.006431657720955909 0.03203040818242226
0.1375573155481 0.006723203937566987 0.033491228283321677 0.9915477285713589 -0.07853227397860561 0.002178374502855081 0.0159794059357138 -0.0018430318391726532 -0.010111386704997278
 0.9915477285713589 -0.07853227397860561 0.006731183890753683 0.03349062391703798 -0.001842840005342774 -0.01011139579679962 0.002132240004928473 0.015985900773044258
 0.002178374502855081 0.0159794059357138 -0.001842840005342774 -0.01011139579679962 0.006723595664360139 0.03349294429143432 0.9915478266040755 -0.07853040805947567
 -0.0018430318391726532 -0.010111386704997278 0.002132240004928473 0.015985900773044258 0.9915478266040755 -0.07853040805947567 0.00673094469350985 0.03349241913472556
0.1438099208003 0.0070321184969434165 0.03494632762637376 0.9911118072188727 -0.0820122081211474 0.002336099640883451 0.016683630358751395 -0.001972089598883864 -0.010551594736125672
 0.9911118072188727 -0.0820122081211474 0.007040842136215836 0.034945679889709716 -0.0019718800446821873 -0.010551605350937538 0.002285750398845889 0.01669082238405409
 0.002336099640883451 0.016683630358751395 -0.0019718800446821873 -0.010551605350937538 0.0070325450568330975 0.03494811184699222 0.9911119146371444 -0.0820102543325118
 -0.001972089598883864 -0.010551594736125672 0.002285750398845889 0.01669082238405409 0.9911119146371444 -0.0820102543325118 0.007040579997623683 0.03494755170033653
0.1500625260525 0.007351251128450312 0.03639445475173994 0.9906615024280151 -0.08548409305769379 0.0024999149868507584 0.01738547986017353 -0.002106085581485002 -0.010989645728800497
 0.9906615024280151 -0.08548409305769379 0.0073607518783289985 0.0363937614250591 -0.0021058575258814144 -0.010989658007391745 0.0024451735889275458 0.0173934185639321
 0.0024999149868507584 0.01738547986017353 -0.0021058575258814144 -0.010989658007391745 0.007351713850383189 0.0363963059440599 0.9906616197360951 -0.08548205099099083
 -0.002106085581485002 -0.010989645728800497 0.0024451735889275458 0.0173934185639321 0.9906616197360951 -0.08548205099099083 0.007360465687595801 0.03639570918021703
0.15631513130469998 0.00768050327823697 0.03783551615340676 0.99019691581754 -0.0889478677840285 0.002669772947447254 0.018084900820332307 -0.002244973843992273 -0.011425489057220363
