! Created with skrf 1.8.0 (http://scikit-rf.org).
# GHz S RI R 50.0 
!freq ReS11 ImS11 ReS12 ImS12 ReS13 ImS13
! ReS14 ImS14
! ReS21 ImS21 ReS22 ImS22 ReS23 ImS23
! ReS24 ImS24
! ReS31 ImS31 ReS32 ImS32 ReS33 ImS33
! ReS34 ImS34
! ReS41 ImS41 ReS42 ImS42 ReS43 ImS43
! ReS44 ImS44
!
0.0 0.001457007924144 0.0 0.9985429920759 0.0 5.599747099931e-05 0.0 -5.599747083201e-05 6.857712341476832e-21
 0.9985429920759 0.0 0.001457007924127 0.0 -5.599747083225e-05 6.857712341506223e-21 5.599747099802e-05 0.0
 5.599747099931e-05 0.0 -5.599747083225e-05 6.857712341506223e-21 0.001457007907543 0.0 0.9985429920593 0.0
 -5.599747083201e-05 6.857712341476832e-21 5.599747099802e-05 0.0 0.9985429920593 0.0 0.001457007907519 0.0
0.005 0.0015673667636218328 0.0011932511038034927 0.9984034183422306 -0.0030522311211843484 7.815411359603262e-05 0.0006105322334883611 -7.595995742202558e-05 -0.0003843927277279573
 0.9984034183422306 -0.0030522311211843484 0.0015673775163531382 0.0011932448713010114 -7.596019909243943e-05 -0.0003843929702766537 7.808896456080146e-05 0.0006105570770236297
 7.815411359603262e-05 0.0006105322334883611 -7.596019909243943e-05 -0.0003843929702766537 0.001567365997251164 0.0011931843384278477 0.9984034179898239 -0.003052298179122599
 -7.595995742202558e-05 -0.0003843927277279573 7.808896456080146e-05 0.0006105570770236297 0.9984034179898239 -0.003052298179122599 0.0015673775842271274 0.0011931775265852627
0.006252605252188 0.0015962384506909742 0.0014962626275448823 0.9983666848707385 -0.003816046044349456 8.444401912143354e-05 0.0007634685047049351 -8.156077113596457e-05 -0.00048099047724628
 0.9983666848707385 -0.003816046044349456 0.0015962552585861679 0.0014962546954388097 -8.15611467430132e-05 -0.00048099077753583714 8.4342229843828e-05 0.0007635007473617261
 8.444401912143354e-05 0.0007634685047049351 -8.15611467430132e-05 -0.00048099077753583714 0.0015962373307685928 0.0014961791730283606 0.9983666843982161 -0.003816129873124823
 -8.156077113596457e-05 -0.00048099047724628 8.4342229843828e-05 0.0007635007473617261 0.9983666843982161 -0.003816129873124823 0.001596255443636666 0.001496170505289212
0.01250521050438 0.0017478056880165973 0.003023933178142726 0.9981726271786787 -0.007632961013108185 0.00012030310896388684 0.001527340318134883 -0.00011314930951367874 -0.0009643512633949784
 0.9981726271786787 -0.007632961013108185 0.0017478727937059108 0.0030239158874093884 -0.00011315078428673495 -0.000964351833020397 0.0001198972020972759 0.001527417583079689
 0.00012030310896388684 0.001527340318134883 -0.00011315078428673495 -0.000964351833020397 0.0017478017643739385 0.0030237666329669846 0.9981726258446452 -0.007633128415870389
 -0.00011314930951367874 -0.0009643512633949784 0.0001198972020972759 0.001527417583079689 0.9981726258446452 -0.007633128415870389 0.0017478740949656713 0.003023747746920136
0.01875781575657 0.0019120263519950673 0.004573435837953907 0.9979605879154666 -0.011460048380006931 0.00016365551845088253 0.002292127332302735 -0.0001508570844078377 -0.0014494044408016494
 0.9979605879154666 -0.011460048380006931 0.0019121771252997388 0.004573407662789341 -0.0001508603656090878 -0.0014494052449775144 0.0001627437040884314 0.002292264805823492
 0.00016365551845088253 0.002292127332302735 -0.0001508603656090878 -0.0014494052449775144 0.0019120179461930163 0.004573186430739633 0.9979605853361397 -0.011460299298564808
 -0.0001508570844078377 -0.0014494044408016494 0.0001627437040884314 0.002292264805823492 0.9979605853361397 -0.011460299298564808 0.001912180488406959 0.004573155648260145
0.02501042100875 0.0020892085900660767 0.006142619961624143 0.9977303272705849 -0.015299177448802562 0.00021458330130932505 0.0030578677352257394 -0.0001947753343269084 -0.0019359409707648619
 0.9977303272705849 -0.015299177448802562 0.0020894763235984075 0.006142579287807773 -0.00019478111830123826 -0.001935941970031543 0.00021296371513186585 0.003058082918728089
 0.00021458330130932505 0.0030578677352257394 -0.00019478111830123826 -0.001935941970031543 0.0020891940212039144 0.0061422879475563795 0.9977303230599865 -0.015299511859689096
 -0.0001947753343269084 -0.0019359409707648619 0.00021296371513186585 0.003058082918728089 0.9977303230599865 -0.015299511859689096 0.0020894827031667064 0.0061422434743370205
0.03126302626094 0.0022796477565412946 0.0077303862582228655 0.9974815926856819 -0.0191511571384884 0.00027316908203767963 0.0038245304172840676 -0.00024499290758194474 -0.0024238162434872543
 0.9974815926856819 -0.0191511571384884 0.0022800656831842557 0.007730331385186573 -0.00024500188161643703 -0.0024238173936418587 0.00027063959410886994 0.003824843139436125
 0.00027316908203767963 0.0038245304172840676 -0.00024500188161643703 -0.0024238173936418587 0.002279625343283556 0.0077299719211714486 0.9974815864563052 -0.019151575051234722
 -0.00024499290758194474 -0.0024238162434872543 0.00027063959410886994 0.003824843139436125 0.9974815864563052 -0.019151575051234722 0.0022800760453908424 0.007729911848488103
0.037515631513130004 0.0024836329255574887 0.009336023619801822 0.9972141255458123 -0.023016399095756 0.0003394952458926033 0.004592056978807092 -0.00030159689585075605 -0.0029129080626520473
 0.9972141255458123 -0.023016399095756 0.002484234230035131 0.00933595276175595 -0.00030160973918108667 -0.002912909314765839 0.0003358533735650844 0.004592489418402476
 0.0003394952458926033 0.004592056978807092 -0.00030160973918108667 -0.002912909314765839 0.002483600983941017 0.009335527283834945 0.9972141169059419 -0.02301690054181463
 -0.00030159689585075605 -0.0029129080626520473 0.0003358533735650844 0.004592489418402476 0.9972141169059419 -0.02301690054181463 0.002484249550418956 0.009335449589312868
0.043768236765320004 0.0027014494047540734 0.010959007302161079 0.9969276638747494 -0.026895119446955953 0.00041364356026904166 0.005360374505174992 -0.0003646728646549493 -0.0034031038647956416
 0.9969276638747494 -0.026895119446955953 0.002702267232580992 0.010958918588798506 -0.000364690249071309 -0.0034031051652452177 0.0004086864255541645 0.005360951217276155
 0.00041364356026904166 0.005360374505174992 -0.000364690249071309 -0.0034031051652452177 0.0027014062521327625 0.01095842933465083 0.9969276524311118 -0.026895704477027275
 -0.0003646728646549493 -0.0034031038647956416 0.0004086864255541645 0.005360951217276155 0.9969276524311118 -0.026895704477027275 0.002702288500123158 0.010958331882496916
0.050020842017509996 0.0029333799120910397 0.012598915521718946 0.9966219436958097 -0.03078742213181937 0.000495694949453033 0.006129400843343322 -0.00043430493912431374 -0.0038942954392942814
 0.9966219436958097 -0.03078742213181937 0.002934447377145823 0.012598806998646347 -0.00043432752941495494 -0.0038942967298163066 0.000489219260037469 0.0061301487867908965
 0.000495694949453033 0.006129400843343322 -0.00043432752941495494 -0.0038942967298163066 0.002933323864745312 0.01259825632969141 0.996621929049786 -0.030788090819992057
 -0.00043430493912431374 -0.0038942954392942814 0.000489219260037469 0.0061301487867908965 0.996621929049786 -0.030788090819992057 0.0029344755916136983 0.01259813687063939
0.055454545454549996 0.003146614941255711 0.014037509738182246 0.9963404173956341 -0.03418100829433423 0.0005734804561700928 0.006798214841038229 -0.0005002059504273904 -0.0043218818061187885
 0.9963404173956341 -0.03418100829433423 0.0031479262218096406 0.014037382347610034 -0.000500233599449376 -0.004321883037124227 0.000565519672891285 0.006799135371666995
 0.0005734804561700928 0.006798214841038229 -0.000500233599449376 -0.004321883037124227 0.003146546321978828 0.01403678032803139 0.996340399640193 -0.03418174975556764
 -0.0005002059504273904 -0.0043218818061187885 0.000565519672891285 0.006799135371666995 0.996340399640193 -0.03418174975556764 0.003147961295835926 0.014036639829381924
0.056273447269699996 0.003179705177993141 0.014255388516755393 0.9962966998213374 -0.03469333977343963 0.0005857293373182727 0.006899047185420205 -0.0005105758249292283 -0.004386376343805698
 0.9962966998213374 -0.03469333977343963 0.0031810553694519663 0.014255258145822196 -0.0005106042791708615 -0.004386377561539926 0.0005775313816579455 0.00689999575098911
 0.0005857293373182727 0.006899047185420205 -0.0005106042791708615 -0.004386377561539926 0.0031796345541314063 0.014254648555593953 0.996296681570935 -0.03469409220900163
 -0.0005105758249292283 -0.004386376343805698 0.0005775313816579455 0.00689999575098911 0.996296681570935 -0.03469409220900163 0.0031810915443270687 0.014254504726727684
0.06252605252188 0.0034407042779050897 0.01592810604060244 0.9959516663769322 -0.038612856118190084 0.0006838255221845847 0.007669219494281625 -0.0005935667976125397 -0.004879240480556686
 0.9959516663769322 -0.038612856118190084 0.0034423702668515727 0.015927951699815982 -0.0005936017674540936 -0.00487924155808956 0.0006737011740822449 0.007670400533049395
 0.0006838255221845847 0.007669219494281625 -0.0005936017674540936 -0.00487924155808956 0.003440617397008709 0.015927285808685965 0.9959516441146857 -0.03861369241126979
 -0.0005935667976125397 -0.004879240480556686 0.0006737011740822449 0.007670400533049395 0.9959516441146857 -0.03861369241126979 0.0034424154282290216 0.015927115132991672
0.06877865777407 0.0037166548092964235 0.01761677393814812 0.9955865771721387 -0.04254591939473948 0.0007900610714095049 0.008439819350972539 -0.0006833576721456394 -0.005372781253925158
 0.9955865771721387 -0.04254591939473948 0.0037186696548739593 0.0176165934216525 -0.0006833998029953713 -0.005372782119343013 0.0007778058010585862 0.008441267202779415
 0.0007900610714095049 0.008439819350972539 -0.0006833998029953713 -0.005372782119343013 0.0037165499936618984 0.01761587398109339 0.9955865504852062 -0.042546839672529556
 -0.0006833576721456394 -0.005372781253925158 0.0007778058010585862 0.008441267202779415 0.9955865504852062 -0.042546839672529556 0.0037187248426691975 0.017615673866869137
0.07503126302626001 0.004007832979841344 0.01932111564323937 0.9952011659864857 -0.046492450755445294 0.0009045122268049674 0.009210744493511001 -0.0007800267607770774 -0.005866891039966828
 0.9952011659864857 -0.046492450755445294 0.004010229735269931 0.01932090666098341 -0.0007800766919429846 -0.005866891616904211 0.0008899211169491102 0.009212496015347967
 0.0009045122268049674 0.009210744493511001 -0.0007800766919429846 -0.005866891616904211 0.004007708555107775 0.019320136553428173 0.9952011344561016 -0.04649345516308372
 -0.0007800267607770774 -0.005866891039966828 0.0008899211169491102 0.009212496015347967 0.9952011344561016 -0.04649345516308372 0.004010296003753063 0.019319904293466972
0.08128386827845 0.004314513641149446 0.02104086651111336 0.9947951668045666 -0.050452349886209974 0.001027253816225903 0.00998188918063894 -0.00088365082398458 -0.00636146083449267
 0.9947951668045666 -0.050452349886209974 0.00431732535988784 0.021040626688368452 -0.0008837091888412191 -0.0063614610421809424 0.001010121581904359 0.009983983774854105
 0.001027253816225903 0.00998188918063894 -0.0008837091888412191 -0.0063614610421809424 0.004314367937091911 0.02103980893080226 0.9947951300048642 -0.05045343858398154
 -0.00088365082398458 -0.00636146083449267 0.001010121581904359 0.009983983774854105 0.9947951300048642 -0.05045343858398154 0.004317403777756356 0.02103954170146539
0.08753647353064001 0.004636970283635511 0.022775769908866567 0.9943683140142965 -0.05442549886194423 0.0011583591700582354 0.010753144442321812 -0.000994305015310834 -0.0068563800180097
 0.9943683140142965 -0.05442549886194423 0.0046402300253388104 0.0227754967855173 -0.000994372441404205 -0.006856379771317987 0.0011384801817084203 0.010755624084610267
 0.0011583591700582354 0.010753144442321812 -0.000994372441404205 -0.006856379771317987 0.004636801635011295 0.022774634526169922 0.9943682715123924 -0.054426672029648696
 -0.000994305015310834 -0.0068563800180097 0.0011384801817084203 0.010755624084610267 0.9943682715123924 -0.054426672029648696 0.0046403216764148965 0.022774329386201195
0.09378907878283 0.004975475006981343 0.024525574411410542 0.9939203425851666 -0.058411764900761276 0.0012979000403254637 0.011524398266910452 -0.001112062822810597 -0.007351536187745745
 0.9939203425851666 -0.058411764900761276 0.004979215843287778 0.024525265441099908 -0.0011121399319819066 -0.007351535397229611 0.0012750683491587326 0.011527307534054553
 0.0012979000403254637 0.011524398266910452 -0.0011121399319819066 -0.007351535397229611 0.004975281754357913 0.024524361963820615 0.9939202939398073 -0.058413022734393145
 -0.001112062822810597 -0.007351536187745745 0.0012750683491587326 0.011527307534054553 0.9939202939398073 -0.058413022734393145 0.004979321826759664 0.024524015853069292
0.100041684035 0.005330298470950612 0.02629003175427466 0.993450988228908 -0.06241100236525334 0.0014459465215808382 0.012295535738507501 -0.0012369960074214467 -0.007846815043354532
 0.993450988228908 -0.06241100236525334 0.0053345534916299795 0.026289684303384842 -0.001237083415889409 -0.007846813615299137 0.00141995588749562 0.012298921835739978
 0.0014459465215808382 0.012295535738507501 -0.001237083415889409 -0.007846813615299137 0.005330078961994456 0.026288743028319628 0.9934509329906306 -0.062412345077667464
 -0.0012369960074214467 -0.007846815043354532 0.00141995588749562 0.012298921835739978 0.9934509329906306 -0.062412345077667464 0.005334674923084589 0.026288352766146626
0.1059090909091 0.005678344157736246 0.027958894694637672 0.9929908667693675 -0.06617552022309882 0.001592669118363596 0.01301895582776408 -0.0013608208295218089 -0.008311589743191407
 0.9929908667693675 -0.06617552022309882 0.005683111801858202 0.02795850865961808 -0.001360918458300708 -0.008311587627875112 0.001563526344700064 0.013022834677265139
 0.001592669118363596 0.01301895582776408 -0.001360918458300708 -0.008311587627875112 0.005678098514010244 0.027957535149274373 0.9929908049272871 -0.06617694279328924
 -0.0013608208295218089 -0.008311589743191407 0.001563526344700064 0.013022834677265139 0.9929908049272871 -0.06617694279328924 0.005683248758888564 0.027957100454086295
0.1062942892872 0.005701709833734726 0.02806889528837526 0.9929599875512556 -0.06642305426654974 0.001602566973337119 0.013066439148596802 -0.0013691745391897516 -0.008342100302344524
 0.9929599875512556 -0.06642305426654974 0.005706512152418933 0.02806850663465341 -0.0013692728576334087 -0.008342098138812135 0.0015732108944046192 0.013070351936655709
 0.001602566973337119 0.013066439148596802 -0.0013692728576334087 -0.008342098138812135 0.005701462423737909 0.028067531120505574 0.9929599252613247 -0.06642448208676127
 -0.0013691745391897516 -0.008342100302344524 0.0015732108944046192 0.013070351936655709 0.9929599252613247 -0.06642448208676127 0.005706650163947952 0.028067093404072155
0.11254689453939999 0.0060899766791381585 0.029861918801749796 0.9924470781950042 -0.07044775340564936 0.0017678279430887165 0.013836988082409633 -0.0015086665317042393 -0.008837273644808697
 0.9924470781950042 -0.07044775340564936 0.006095359439615245 0.029861486132927124 -0.0015087763653685565 -0.008837270643674674 0.001734899687014754 0.013841480104128528
 0.0017678279430887165 0.013836988082409633 -0.0015087763653685565 -0.008837270643674674 0.006089699732048585 0.0298604800762024 0.9924470083845424 -0.07044926658115606
 -0.0015086665317042393 -0.008837273644808697 0.001734899687014754 0.013841480104128528 0.9924470083845424 -0.07044926658115606 0.006095515180215296 0.029859991478540685
0.11879949979160001 0.006495364935551392 0.031668855601205734 0.9919119989776641 -0.07448492325988913 0.0019417940901410701 0.014607059494801228 -0.0016555381751408734 -0.009332214672847238
 0.9919119989776641 -0.07448492325988913 0.006501361317631287 0.031668376013239824 -0.001655660123895568 -0.009332210727850142 0.0019050867272489343 0.014612186001313074
 0.0019417940901410701 0.014607059494801228 -0.001655660123895568 -0.009332210727850142 0.006495056825035395 0.031667343254021645 0.9919119211674978 -0.07448652205281613
 -0.0016555381751408734 -0.009332214672847238 0.0019050867272489343 0.014612186001313074 0.9919119211674978 -0.07448652205281613 0.006501535953910294 0.03166680022186948
0.1250521050438 0.006918138788868799 0.03348945778625766 0.9913544900259634 -0.07853437868185079 0.0021245281098847585 0.01537652777508084 -0.0018098536682659126 -0.00982680088524354
 0.9913544900259634 -0.07853437868185079 0.00692478201442404 0.033488928281438755 -0.0018099883266654577 -0.009826795886022107 0.002083834547263059 0.01538234675156599
 0.0021245281098847585 0.01537652777508084 -0.0018099883266654577 -0.009826795886022107 0.006917797899409806 0.03348787280147973 0.9913544037259364 -0.07853606337278014
 -0.0018098536682659126 -0.00982680088524354 0.002083834547263059 0.01538234675156599 0.9913544037259364 -0.07853606337278014 0.006924976731279328 0.03348727165294454
0.131304710296 0.007358560589959625 0.03532347566868303 0.9907742929069275 -0.08259592645761167 0.002316090658239923 0.016145264803580802 -0.0019716751493357933 -0.010320907664814132
 0.9907742929069275 -0.08259592645761167 0.007365883929060502 0.035322893153460225 -0.001971823106695448 -0.010320901496947567 0.00227120367562233 0.016151836994442448
 0.002316090658239923 0.016145264803580802 -0.001971823106695448 -0.010320901496947567 0.007358185317565195 0.035321819081813526 0.9907741976150194 -0.08259769734231451
 -0.0019716751493357933 -0.010320907664814132 0.00227120367562233 0.016151836994442448 0.9907741976150194 -0.08259769734231451 0.007366099930003035 0.03532115600370118
0.1375573155481 0.007713711557225951 0.03693172090003385 0.9902743648759353 -0.08643033729447222 0.0024919154598273202 0.016889138778281163 -0.002116490782554865 -0.010790381415261672
 0.9902743648759353 -0.08643033729447222 0.0077217515739134435 0.036931095808452656 -0.0021166530768369817 -0.010790374084289381 0.002442729836013955 0.016896452948825448
 0.0024919154598273202 0.016889138778281163 -0.0021166530768369817 -0.010790374084289381 0.007713301054763426 0.03692999329954936 0.9902742601780584 -0.0864321945452378
 -0.002116490782554865 -0.010790381415261672 0.002442729836013955 0.016896452948825448 0.9902742601780584 -0.0864321945452378 0.007721989151419176 0.036929278707170686
0.1438099208003 0.008081291441712025 0.03853186941949545 0.9897569823051117 -0.09025539817276755 0.002674846847265112 0.017630175740212757 -0.0022671032067639488 -0.011257275796480523
 0.9897569823051117 -0.09025539817276755 0.008090081993742892 0.03853119952341222 -0.002267280500301217 -0.011257267186888761 0.00262117362706647 0.017638287295066352
 0.002674846847265112 0.017630175740212757 -0.002267280500301217 -0.011257267186888761 0.008080844258619416 0.03853007184153805 0.9897568677002978 -0.09025734207975568
 -0.0022671032067639488 -0.011257275796480523 0.00262117362706647 0.017638287295066352 0.9897568677002978 -0.09025734207975568 0.008090342213210694 0.03852930284268752
0.1500625260525 0.008461175839445886 0.04012379846473176 0.9892222733691017 -0.09407102506366842 0.002864824688262546 0.018368305784696688 -0.0024234543865063003 -0.011721525312786675
 0.9892222733691017 -0.09407102506366842 0.008470750854155617 0.04012308140582042 -0.0024236473420223203 -0.011721515304217838 0.0028064759784133773 0.018377272146558724
 0.002864824688262546 0.018368305784696688 -0.0024236473420223203 -0.011721515304217838 0.008460690545296072 0.040121931985425796 0.9892221483463969 -0.09407305592835374
 -0.0024234543865063003 -0.011721525312786675 0.0028064759784133773 0.018377272146558724 0.9892221483463969 -0.09407305592835374 0.008471034788392158 0.040121105533045924
0.15631513130469998 0.008853239524953175 0.04170738903202212 0.9886703668263334 -0.09787713401476575 0.0030617881699533116 0.019103460133327796 -0.0025854856018544445 -0.012183065810328408
