! Created with skrf 1.8.0 (http://scikit-rf.org).
# GHz S RI R 50.0 
!freq ReS11 ImS11 ReS12 ImS12 ReS13 ImS13
! ReS14 ImS14
! ReS21 ImS21 ReS22 ImS22 ReS23 ImS23
! ReS24 ImS24
! ReS31 ImS31 ReS32 ImS32 ReS33 ImS33
! ReS34 ImS34
! ReS41 ImS41 ReS42 ImS42 ReS43 ImS43
! ReS44 ImS44
!
0.0 0.001969199467479 0.0 0.9980308005325 0.0 7.633882588939e-05 0.0 -7.633882705585e-05 9.348810020461006e-21
 0.9980308005325 0.0 0.001969199467509 0.0 -7.63388270562e-05 9.348810020503869e-21 7.633882589114e-05 0.0
 7.633882588939e-05 0.0 -7.63388270562e-05 9.348810020503869e-21 0.001969199449013 0.0 0.998030800514 0.0
 -7.633882705585e-05 9.348810020461006e-21 7.633882589114e-05 0.0 0.998030800514 0.0 0.001969199449023 0.0
0.005 0.0021201588325167066 0.0016155161495530934 0.9978395607346615 -0.004123027818684755 0.00010697101837550505 0.0008047271827884087 -0.00010392100424174145 -0.0005112038717046564
 0.9978395607346615 -0.004123027818684755 0.0021201930476314147 0.0016154960876479062 -0.00010392036390029822 -0.0005112033103936248 0.00010676036624642502 0.0008048075289374664
 0.00010697101837550505 0.0008047271827884087 -0.00010392036390029822 -0.0005112033103936248 0.002120159926444998 0.001615582742458215 0.9978395611357759 -0.004122960752222245
 -0.00010392100424174145 -0.0005112038717046564 0.00010676036624642502 0.0008048075289374664 0.9978395611357759 -0.004122960752222245 0.002120192745544709 0.0016155636187340314
0.006252605252188 0.0021602109022278277 0.002025657407689703 0.9977884299370748 -0.005154714993238008 0.0001159795414474597 0.0010062852968611127 -0.00011190624600335488 -0.0006396298927338735
 0.9977884299370748 -0.005154714993238008 0.0021602643872905987 0.002025631937605627 -0.00011190525011727506 -0.0006396291994705678 0.00011565042380437302 0.0010063897564836306
 0.0001159795414474597 0.0010062852968611127 -0.00011190525011727506 -0.0006396291994705678 0.0021602125308986097 0.002025740623703092 0.9977884304826002 -0.0051546311729417545
 -0.00011190624600335488 -0.0006396298927338735 0.00011565042380437302 0.0010063897564836306 0.9977884304826002 -0.0051546311729417545 0.0021602638329023833 0.002025716342174543
0.01250521050438 0.0023737303719921247 0.004092824719097418 0.9975137223293125 -0.010309619581176516 0.00016899724188042538 0.0020128030091675245 -0.00015827368252388242 -0.0012820225789541937
 0.9975137223293125 -0.010309619581176516 0.0023739439507821578 0.00409276977064925 -0.00015826976486970864 -0.0012820212852225452 0.0001676849286578219 0.0020130561186048265
 0.00016899724188042538 0.0020128030091675245 -0.00015826976486970864 -0.0012820212852225452 0.002373736314194262 0.004092990755753732 0.9975137239415154 -0.010309452172338252
 -0.00015827368252388242 -0.0012820225789541937 0.0001676849286578219 0.0020130561186048265 0.9975137239415154 -0.010309452172338252 0.0023739411577794706 0.004092938364310087
0.01875781575657 0.002610318071764404 0.0061884338519432565 0.9972062701884237 -0.015477134449375466 0.00023552696940123708 0.0030201037946484405 -0.00021560046698969638 -0.0019262300965959276
 0.9972062701884237 -0.015477134449375466 0.0026107980213434727 0.00618834500294347 -0.00021559174053562656 -0.0019262283148396289 0.0002325793367433107 0.0030205601085238065
 0.00023552696940123708 0.0030201037946484405 -0.00021559174053562656 -0.0019262283148396289 0.002610331006216972 0.0061886823935209416 0.9972062733872571 -0.015476883500609278
 -0.00021560046698969638 -0.0019262300965959276 0.0002325793367433107 0.0030205601085238065 0.9972062733872571 -0.015476883500609278 0.0026107912924445975 0.006188597708944352
0.02501042100875 0.0028705113983939906 0.008309438654153371 0.996865647622156 -0.02065963686600733 0.00031570521986030986 0.004028134936089098 -0.00028403875975221055 -0.002571896708811122
 0.996865647622156 -0.02065963686600733 0.0028713638089086463 0.008309311105446204 -0.0002840233635475886 -0.0025718945731089855 0.0003104701998592332 0.004028859104958997
 0.00031570521986030986 0.004028134936089098 -0.0002840233635475886 -0.0025718945731089855 0.0028705340057660145 0.008309769319438972 0.9968656529346699 -0.020659302388177352
 -0.00028403875975221055 -0.002571896708811122 0.0003104701998592332 0.004028859104958997 0.9968656529346699 -0.020659302388177352 0.002871351438200808 0.008309647839689066
0.03126302626094 0.003154824954592918 0.01045420791014267 0.996491410947413 -0.02585806771586238 0.00040966756478156565 0.0050367533129441686 -0.00036373485626857086 -0.0032187458771903246
 0.996491410947413 -0.02585806771586238 0.0031561557958830772 0.01045403649157467 -0.000363710951186732 -0.00321874354339503 0.0004014926010591413 0.0050378201456084265
 0.00040966756478156565 0.0050367533129441686 -0.000363710951186732 -0.00321874354339503 0.0031548599113016417 0.010454620263058744 0.9964914189030487 -0.02585764967086604
 -0.00036373485626857086 -0.0032187458771903246 0.0004014926010591413 0.0050378201456084265 0.9964914189030487 -0.02585764967086604 0.003156136061438915 0.010454457173906634
0.037515631513130004 0.0034637605924491303 0.0126216298734298 0.9960831092942383 -0.031072826937123404 0.0005175471561444009 0.0060457787335271 -0.00045483012716099135 -0.0038665270004769993
 0.9960831092942383 -0.031072826937123404 0.0034656757609425066 0.01262140904558404 -0.00045479589365892624 -0.003866524646206067 0.0005057789947286309 0.006047273293896605
 0.0005175471561444009 0.0060457787335271 -0.00045479589365892624 -0.003866524646206067 0.003463810571066198 0.012622123408595242 0.9960831204278985 -0.03107232525175054
 -0.00045483012716099135 -0.0038665270004769993 0.0005057789947286309 0.006047273293896605 0.9960831204278985 -0.03107232525175054 0.003465646925390817 0.01262191358597427
0.043768236765320004 0.003797811247795911 0.01481083977291663 0.9956402890073927 -0.03630404597067137 0.0006394739815765406 0.007055010177384143 -0.0005574613024932317 -0.004514999257403776
 0.9956402890073927 -0.03630404597067137 0.003800416604788368 0.014810563626575266 -0.0005574149391752574 -0.004514997081955479 0.0006234586059410804 0.00705702789156176
 0.0006394739815765406 0.007055010177384143 -0.0005574149391752574 -0.004514997081955479 0.003797878914672507 0.014811413906062644 0.9956403038598717 -0.0363034605455702
 -0.0005574613024932317 -0.004514999257403776 0.0006234586059410804 0.00705702789156176 0.9956403038598717 -0.0363034605455702 0.003800376914258295 0.014811151916398854
0.050020842017509996 0.004157462670470894 0.017021107209309886 0.9951624959525296 -0.04155170032170794 0.0007755743842900092 0.00806423253734765 -0.0006717605223778908 -0.005163924961581131
 0.9951624959525296 -0.04155170032170794 0.0041608640785631285 0.01702076946321413 -0.000671700245256845 -0.005163923185845993 0.0007546570281487622 0.008066879304315993
 0.0007755743842900092 0.00806423253734765 -0.000671700245256845 -0.005163923185845993 0.004157550686645721 0.01702176127922025 0.9951625150734668 -0.04155103102880477
 -0.0006717605223778908 -0.005163924961581131 0.0007546570281487622 0.008066879304315993 0.9951625150734668 -0.04155103102880477 0.004160811762970007 0.017021441378176422
0.055454545454549996 0.004491174091104731 0.018958490695142154 0.9947185251310307 -0.04612532311212631 0.000905455556240781 0.008941094787049375 -0.0007806650251061883 -0.005728044686129398
 0.9947185251310307 -0.04612532311212631 0.00449535329023419 0.018958094024339595 -0.0007805912206013883 -0.005728043453862484 0.0008797459420072971 0.008944382440573195
 0.000905455556240781 0.008941094787049375 -0.0007805912206013883 -0.005728043453862484 0.0044912819450833716 0.018959213630702194 0.9947185484140326 -0.04612458081396959
 -0.0007806650251061883 -0.005728044686129398 0.0008797459420072971 0.008944382440573195 0.9947185484140326 -0.04612458081396959 0.004495288551192554 0.01895883849443124
0.056273447269699996 0.004543194263978064 0.019251780910638 0.994649276936795 -0.04681566477076555 0.0009259707022312229 0.009073219951267473 -0.0007978552822849033 -0.005813066339177119
 0.994649276936795 -0.04681566477076555 0.004547497619320979 0.0192513749080318 -0.0007977793240489438 -0.005813065205563462 0.0008994959088553526 0.009076612254402382
 0.0009259707022312229 0.009073219951267473 -0.0007977793240489438 -0.005813065205563462 0.004543305280840706 0.019252514174321497 0.994649300883855 -0.04681491145764396
 -0.0007978552822849033 -0.005813066339177119 0.0008994959088553526 0.009076612254402382 0.994649300883855 -0.04681491145764396 0.004547430889893457 0.019252130304060724
0.06252605252188 0.004955479478796943 0.021502258377569507 0.9941001806924625 -0.05209574370733449 0.0010907809646194453 0.01008173766268871 -0.0009358683261764484 -0.006462183790874522
 0.9941001806924625 -0.05209574370733449 0.004960790743377793 0.02150177708131267 -0.0009357749357947867 -0.006462183563213666 0.0010580926784638498 0.010086002680723922
 0.0010907809646194453 0.01008173766268871 -0.0009357749357947867 -0.006462183563213666 0.004955616138269986 0.021503070011248203 0.994100210034306 -0.052094906195730796
 -0.0009358683261764484 -0.006462183790874522 0.0010580926784638498 0.010086002680723922 0.994100210034306 -0.052094906195730796 0.004960707793303989 0.021502615796419135
0.06877865777407 0.0053947859648498615 0.023771967797441146 0.9935147586252443 -0.05739168920887529 0.0012701186239406142 0.011089543162300224 -0.0010859175078707394 -0.007111034886793389
 0.9935147586252443 -0.05739168920887529 0.005401211197585202 0.023771403783648313 -0.0010858049502592163 -0.007111035850254508 0.001230560304909363 0.01109481887895279
 0.0012701186239406142 0.011089543162300224 -0.0010858049502592163 -0.007111035850254508 0.005394950895949717 0.023772856899031542 0.9935147939409091 -0.05739076729187582
 -0.0010859175078707394 -0.007111034886793389 0.001230560304909363 0.01109481887895279 0.9935147939409091 -0.05739076729187582 0.005401110199730648 0.02377232564130144
0.07503126302626001 0.005861575578052331 0.026060356612451818 0.9928925654233175 -0.06270321248122052 0.0014640923063788784 0.012096386943562118 -0.0012481156358016621 -0.007759373761582705
 0.9928925654233175 -0.06270321248122052 0.00586922096581402 0.02605970206294804 -0.0012479821915935257 -0.007759376222588452 0.0014170070614227947 0.012102822255199291
 0.0014640923063788784 0.012096386943562118 -0.0012479821915935257 -0.007759376222588452 0.005861771396524506 0.026061322198686017 0.9928926073050436 -0.06270220592583933
 -0.0012481156358016621 -0.007759373761582705 0.0014170070614227947 0.012102822255199291 0.9928926073050436 -0.06270220592583933 0.005869100073263744 0.02606070686996834
0.08128386827845 0.006356304296810338 0.02836688392028706 0.9922331595816993 -0.06802999148317065 0.0016728055765886356 0.013102013037810917 -0.0014225703047590452 -0.008406950744643019
 0.9922331595816993 -0.06802999148317065 0.0063652761849389665 0.02836613061349031 -0.0014224142701207583 -0.008406955030783505 0.0016175363054416903 0.013109767858760073
 0.0016728055765886356 0.013102013037810917 -0.0014224142701207583 -0.008406955030783505 0.006356533602219481 0.028367924921010583 0.9922332086352877 -0.06802890003580539
 -0.0014225703047590452 -0.008406950744643019 0.0016175363054416903 0.013109767858760073 0.9922332086352877 -0.06802890003580539 0.006365133529314122 0.028367218155224687
0.08753647353064001 0.006879422076612532 0.030691015248007904 0.9915361038703622 -0.07337167619500896 0.0018963567117738982 0.014106159409062007 -0.0016093837200235094 -0.009053512145707165
 0.9915361038703622 -0.07337167619500896 0.00688982699954214 0.030690154548579075 -0.0016092034065307143 -0.009053518605662773 0.001832246263962129 0.014115404774303416
 0.0018963567117738982 0.014106159409062007 -0.0016092034065307143 -0.009053518605662773 0.006879687450781025 0.030692130515596303 0.9915361607165983 -0.07337049957196591
 -0.0016093837200235094 -0.009053512145707165 0.001832246263962129 0.014115404774303416 0.9915361607165983 -0.07337049957196591 0.006889660690473163 0.030691324599009567
0.09378907878283 0.007431372663174764 0.033032218840997454 0.9908009657648226 -0.07872789239008009 0.002134838481205634 0.015108558278776352 -0.00180865251758384 -0.009698800125687189
 0.9908009657648226 -0.07872789239008009 0.007443317374924147 0.03303124168782088 -0.0018084462521355163 -0.00969880912913651 0.00206122982285696 0.015119476443590662
 0.002134838481205634 0.015108558278776352 -0.0018084462521355163 -0.00969880912913651 0.00743167666824601 0.03303340714133636 0.9908010310410986 -0.07872663028657526
 -0.00180865251758384 -0.009698800125687189 0.00206122982285696 0.015119476443590662 0.9908010310410986 -0.07872663028657526 0.007443125499360764 0.033032494001429734
0.100041684035 0.008012593376066999 0.035389962961767996 0.9900273178519077 -0.08409824441503366 0.0023883379316186238 0.016108936394842857 -0.0020204675806493252 -0.010342552638866308
 0.9900273178519077 -0.08409824441503366 0.008026184880343668 0.03538885985460291 -0.00202023370532679 -0.010342564576435766 0.0023045743208454416 0.016121720931294492
 0.0023883379316186238 0.016108936394842857 -0.00202023370532679 -0.010342564576435766 0.00801293855165574 0.03539122297824504 0.9900273922123003 -0.08409689650126301
 -0.0020204675806493252 -0.010342552638866308 0.0023045743208454416 0.016121720931294492 0.9900273922123003 -0.08409689650126301 0.008025965501197892 0.03539019417100938
0.1059090909091 0.00858501194113313 0.03761702377548055 0.9892659311817597 -0.08915023715966708 0.0026399510295617395 0.017045599286262387 -0.0022307199903632818 -0.010945012480010405
 0.9892659311817597 -0.08915023715966708 0.008600246353569447 0.03761579342917152 -0.002230458711829063 -0.01094502754476055 0.0025460611943338854 0.017060321428884757
 0.0026399510295617395 0.017045599286262387 -0.002230458711829063 -0.01094502754476055 0.008585398039449316 0.03761834981711177 0.989266014678732 -0.08914880840192194
 -0.0022307199903632818 -0.010945012480010405 0.0025460611943338854 0.017060321428884757 0.989266014678732 -0.08914880840192194 0.00859999938191336 0.037617204445221146
0.1062942892872 0.00862351486891339 0.03776371388861587 0.9892147382147547 -0.0894823172891082 0.0026569361770737623 0.017107015261154095 -0.002244913853916828 -0.01098450343023432
 0.9892147382147547 -0.0894823172891082 0.008638860449844212 0.03776247487309758 -0.002244650726071795 -0.010984518713365001 0.002562361347016687 0.017121871151133485
 0.0026569361770737623 0.017107015261154095 -0.002244650726071795 -0.010984518713365001 0.008623903730885318 0.037765044221468265 0.9892148223326933 -0.08948088321110947
 -0.002244913853916828 -0.01098450343023432 0.002562361347016687 0.017121871151133485 0.9892148223326933 -0.08948088321110947 0.00863861160578758 0.03776389091719094
0.11254689453939999 0.009264560874786318 0.040152934405377275 0.9883628108064159 -0.09487967833193063 0.0029407081920446126 0.018102511358406393 -0.0024820701580756293 -0.011624382057392278
 0.9883628108064159 -0.09487967833193063 0.009281768127152961 0.04015154905652107 -0.002481776150207982 -0.011624401118331705 0.002834666540549005 0.018119655083026272
 0.0029407081920446126 0.018102511358406393 -0.002481776150207982 -0.011624401118331705 0.009264995912765831 0.040154333570522505 0.988362905374877 -0.09487815771300927
 -0.0024820701580756293 -0.011624382057392278 0.002834666540549005 0.018119655083026272 0.988362905374877 -0.09487815771300927 0.009281487831246903 0.040153046537994036
0.11879949979160001 0.009936147938609918 0.042557082653604715 0.9874711258119625 -0.10028987844859977 0.0032397226087975406 0.01909513634092917 -0.0027320090032189517 -0.012261913952580635
 0.9874711258119625 -0.10028987844859977 0.009955324798006903 0.04255554005770348 -0.0027316825029683792 -0.01226193724427344 0.0031215593946735307 0.019114795966040314
 0.0032397226087975406 0.01909513634092917 -0.0027316825029683792 -0.01226193724427344 0.009936631613754361 0.04255854908495297 0.9874712315454691 -0.10028827088751151
 -0.0027320090032189517 -0.012261913952580635 0.0031215593946735307 0.019114795966040314 0.9874712315454691 -0.10028827088751151 0.009955011037384588 0.042557118673977316
0.1250521050438 0.010638685139945064 0.04497561125223498 0.9865392800024153 -0.10571245316755402 0.0035540415176524005 0.02008459723270277 -0.002994796403738507 -0.01289682050159254
 0.9865392800024153 -0.10571245316755402 0.01065993991274078 0.044973899987036714 -0.002994435813998206 -0.012896848497567769 0.0034231030623833292 0.020107012490468992
 0.0035540415176524005 0.02008459723270277 -0.002994435813998206 -0.012896848497567769 0.010639219882896985 0.04497714329904819 0.986539397637974 -0.10571075824155331
 -0.002994796403738507 -0.01289682050159254 0.0034231030623833292 0.020107012490468992 0.986539397637974 -0.10571075824155331 0.010659590647380018 0.044975559421375357
0.131304710296 0.011372573808809442 0.04740796661800141 0.9855668770830234 -0.1111469234980083 0.003883720270658495 0.021070596621666257 -0.0032704916947260305 -0.013528819140494069
 0.9855668770830234 -0.1111469234980083 0.011396015202344744 0.04740607473133398 -0.003270095433532934 -0.013528852334875208 0.0037393541657823612 0.02109601898787122
 0.003883720270658495 0.021070596621666257 -0.003270095433532934 -0.013528852334875208 0.011373162017337173 0.04740956254577603 0.9855670073811533 -0.11114514076265863
 -0.0032704916947260305 -0.013528819140494069 0.0037393541657823612 0.02109601898787122 0.9855670073811533 -0.11114514076265863 0.011395628364491591 0.04740781465424309
0.1375573155481 0.011985305940191576 0.0495395641360455 0.9847065208657567 -0.11627854821902277 0.004192030252816335 0.02202407590184157 -0.003522538895443849 -0.014128761563466109
 0.9847065208657567 -0.11627854821902277 0.012011049563868496 0.049537514703146164 -0.003522104392106019 -0.014128800084594861 0.004033909507095426 0.02205250372340677
 0.004192030252816335 0.02202407590184157 -0.003522104392106019 -0.014128800084594861 0.011985949084483019 0.04954122286403812 0.9847066644309849 -0.11627667742191812
 -0.003522538895443849 -0.014128761563466109 0.004033909507095426 0.02205250372340677 0.9847066644309849 -0.11627667742191812 0.012010624287088337 0.04953933443333185
0.1438099208003 0.012620001023826119 0.05165694372276488 0.9838150251828937 -0.12139408558040263 0.0045126538622384475 0.022971647382528125 -0.0037844865437233737 -0.014723367504417204
 0.9838150251828937 -0.12139408558040263 0.012648157073803307 0.05165472638945361 -0.0037840120609449203 -0.014723411855307672 0.004340186378276338 0.023003314100350614
 0.0045126538622384475 0.022971647382528125 -0.0037840120609449203 -0.014723411855307672 0.012620701288817513 0.05165866351217977 0.9838151827772861 -0.1213921262916273
 -0.0037844865437233737 -0.014723367504417204 0.004340186378276338 0.023003314100350614 0.9838151827772861 -0.1213921262916273 0.012647691467333393 0.05165662552079661
0.1500625260525 0.013276384069856447 0.053759839522654035 0.9828926704285962 -0.1264933166949479 0.004845445723634819 0.02391314976234303 -0.0040561953210636655 -0.015312490886642792
 0.9828926704285962 -0.1264933166949479 0.013307063131262968 0.053757443275238175 -0.004055679124644072 -0.015312541591305297 0.004658044316373853 0.023948297334276978
 0.004845445723634819 0.02391314976234303 -0.004055679124644072 -0.015312541591305297 0.013277143598685783 0.05376161857019455 0.9828928428340938 -0.1264912684704212
 -0.0040561953210636655 -0.015312490886642792 0.004658044316373853 0.023948297334276978 0.9828928428340938 -0.1264912684704212 0.013306555291312893 0.05375942138676242
0.15631513130469998 0.01395417753429738 0.055847993735429535 0.9819397390837507 -0.1315760256827186 0.005190258384502917 0.02484842532741312 -0.004337523893241339 -0.015895989457703277
 0.9819397390837507 -0.1315760256827186 0.013987490589439312 0.055845406880124314 -0.004336964251921392 -0.015896047061127974 0.004987340874086121 0.02488730411616891
