! Created with skrf 1.8.0 (http://scikit-rf.org).
# GHz S RI R 50.0 
!freq ReS11 ImS11 ReS12 ImS12 ReS13 ImS13
! ReS14 ImS14
! ReS21 ImS21 ReS22 ImS22 ReS23 ImS23
! ReS24 ImS24
! ReS31 ImS31 ReS32 ImS32 ReS33 ImS33
! ReS34 ImS34
! ReS41 ImS41 ReS42 ImS42 ReS43 ImS43
! ReS44 ImS44
!
0.0 0.00153161815364 0.0 0.9984683818178 0.0 5.919884280873e-05 0.0 -5.919884296477e-05 7.249767355003239e-21
 0.9984683818178 0.0 0.001531618153669 0.0 -5.919884296502e-05 7.249767355033855e-21 5.919884281019e-05 0.0
 5.919884280873e-05 0.0 -5.919884296502e-05 7.249767355033855e-21 0.001531618144594 0.0 0.9984683818087 0.0
 -5.919884296477e-05 7.249767355003239e-21 5.919884281019e-05 0.0 0.9984683818087 0.0 0.001531618144612 0.0
0.005 0.001647881066231314 0.001250426733611605 0.9983212803730331 -0.0032084914618823617 8.338880603127327e-05 0.0006680538731182622 -8.082549834441624e-05 -0.00041658529990942913
 0.9983212803730331 -0.0032084914618823617 0.0016479080465905361 0.0012504110144268814 -8.082987596272191e-05 -0.0004165886574005652 8.320838130068343e-05 0.0006681225535769416
 8.338880603127327e-05 0.0006680538731182622 -8.082987596272191e-05 -0.0004165886574005652 0.0016478784836114464 0.0012503609883667479 0.9983212800088659 -0.0032085585346524163
 -8.082549834441624e-05 -0.00041658529990942913 8.320838130068343e-05 0.0006681225535769416 0.9983212800088659 -0.0032085585346524163 0.001647909907366292 0.0012503426190794838
0.006252605252188 0.0016783603330934854 0.001567965759763424 0.998282469954452 -0.004011401656284275 9.031358163336699e-05 0.0008353829400331747 -8.69278830396879e-05 -0.0005212743705592057
 0.998282469954452 -0.004011401656284275 0.001678402507826745 0.001567945770909295 -8.69346950333387e-05 -0.0005212785102552126 9.003168422006933e-05 0.0008354721187344209
 9.031358163336699e-05 0.0008353829400331747 -8.69346950333387e-05 -0.0005212785102552126 0.0016783563772830503 0.001567883599562642 0.9982824694669117 -0.004011485481590014
 -8.69278830396879e-05 -0.0005212743705592057 9.003168422006933e-05 0.0008354721187344209 0.9982824694669117 -0.004011485481590014 0.0016784054986328542 0.0015678602916785848
0.01250521050438 0.0018387347899188268 0.003168887505164153 0.9980768901079222 -0.008023629747986467 0.00013009713635363113 0.0016710659668900101 -0.00012153264041874794 -0.0010450966154874877
 0.9980768901079222 -0.008023629747986467 0.0018389031893088 0.00316884412463113 -0.00012155948683366819 -0.0010451042682436001 0.00012897297856361454 0.0016712802121064698
 0.00013009713635363113 0.0016710659668900101 -0.00012155948683366819 -0.0010451042682436001 0.0018387195625758066 0.003168723524296904 0.9980768887317366 -0.008023797151346448
 -0.00012153264041874794 -0.0010450966154874877 0.00012897297856361454 0.0016712802121064698 0.9980768887317366 -0.008023797151346448 0.0018389157092525493 0.0031686734043982322
0.01875781575657 0.002013090751729606 0.004792679045530586 0.9978513876199973 -0.012046453336782217 0.00017863990390253905 0.0025076235905939696 -0.00016311989617193455 -0.001570691645310945
 0.9978513876199973 -0.012046453336782217 0.002013469144306551 0.004792608687636086 -0.00016317976621654188 -0.0015707020638349297 0.00017611456705159898 0.002508005775004274
 0.00017863990390253905 0.0025076235905939696 -0.00016317976621654188 -0.0015707020638349297 0.0020130569545897003 0.0047924335027219826 0.9978513849496682 -0.012046704250070322
 -0.00016311989617193455 -0.001570691645310945 0.00017611456705159898 0.002508005775004274 0.9978513849496682 -0.012046704250070322 0.002013497713708467 0.004792352770994782
0.02501042100875 0.0022017671339241694 0.006437062980874822 0.9976056978195451 -0.01608182220846984 0.00023603430171469564 0.003345092001521807 -0.00021179287050996674 -0.002097817010060316
 0.9976056978195451 -0.01608182220846984 0.0022024391149730446 0.0064369619053306956 -0.0002118985988913635 -0.002097829313345177 0.00023154863086115388 0.003345691739777432
 0.00023603430171469564 0.003345092001521807 -0.0002118985988913635 -0.002097829313345177 0.002201707480068206 0.006436736194474594 0.9976056934474006 -0.016082156599327678
 -0.00021179287050996674 -0.002097817010060316 0.00023154863086115388 0.003345691739777432 0.9976056934474006 -0.016082156599327678 0.0022024902490112067 0.006436620789946104
0.03126302626094 0.002405088801152658 0.008100867124611525 0.9973395424912965 -0.02013057043018456 0.00030237344910056385 0.004183428490834337 -0.0002676518291947782 -0.002626303349780509
 0.9973395424912965 -0.02013057043018456 0.0024061378396785797 0.008100731442957153 -0.00026781612240055783 -0.002626316521462169 0.0002953675329660167 0.004184302178733193
 0.00030237344910056385 0.004183428490834337 -0.00026781612240055783 -0.002626316521462169 0.0024049960155503995 0.008100459471828844 0.997339536010447 -0.02013098830310851
 -0.0002676518291947782 -0.002626303349780509 0.0002953675329660167 0.004184302178733193 0.997339536010447 -0.02013098830310851 0.0024062180557057806 0.008100305078690946
0.037515631513130004 0.002623373568832356 0.00978332703132484 0.9970526370933107 -0.02419311376303465 0.0003777501209374251 0.005022559193381224 -0.0003307948367634826 -0.0031560066407036393
 0.9970526370933107 -0.02419311376303465 0.0026248830400114743 0.00978315271062355 -0.00033103028653247126 -0.0031560195285635136 0.00036766305838274076 0.0050237700761398075
 0.0003777501209374251 0.005022559193381224 -0.00033103028653247126 -0.0031560195285635136 0.0026232403836881375 0.009782838967589533 0.9970526280934707 -0.02419361514077153
 -0.0003307948367634826 -0.0031560066407036393 0.00036766305838274076 0.0050237700761398075 0.9970526280934707 -0.02419361514077153 0.002624998855574378 0.009782641017827614
0.043768236765320004 0.0028569349068183624 0.011483873744202963 0.9967446936809811 -0.028269661845415687 0.0004622562649083903 0.005862393601145674 -0.0004013180231989244 -0.003686793679785943
 0.9967446936809811 -0.028269661845415687 0.0028589881178170975 0.011483656609630136 -0.00040163711441824744 -0.0036868049955760193 0.00044852605383402755 0.005864011850662917
 0.0004622562649083903 0.005862393601145674 -0.00040163711441824744 -0.0036868049955760193 0.0028567540627943157 0.011483305805452744 0.9967446817496245 -0.028270246767629608
 -0.0004013180231989244 -0.003686793679785943 0.00044852605383402755 0.005864011850662917 0.9967446817496245 -0.028270246767629608 0.002859146053801832 0.011483059480063474
0.050020842017509996 0.003106083195591888 0.01320204608435815 0.9964154223885978 -0.03236030583249142 0.0005559827114927858 0.006702830564683129 -0.0004793156832351444 -0.004218536085586294
 0.9964154223885978 -0.03236030583249142 0.0031087634090161717 0.013201781820960807 -0.0004797307990254744 -0.004218544404952044 0.0005380462028995213 0.006704933360528681
 0.0005559827114927858 0.006702830564683129 -0.0004797307990254744 -0.004218544404952044 0.003105847440317426 0.013201398881730676 0.996415407108814 -0.032360974362074586
 -0.0004793156832351444 -0.004218536085586294 0.0005380462028995213 0.006704933360528681 0.996415407108814 -0.032360974362074586 0.0031089699888678956 0.013201099111025485
0.055454545454549996 0.0033354983309023347 0.014709195013495855 0.9961117288878361 -0.03592666059118136 0.0006449914029273146 0.00743360072083397 -0.0005532400699408423 -0.004681313968957854
 0.9961117288878361 -0.03592666059118136 0.003338791029215934 0.014708886181459902 -0.0005537486140874367 -0.004681318421883095 0.0006229412521637777 0.007436192786028042
 0.0006449914029273146 0.00743360072083397 -0.0005537486140874367 -0.004681318421883095 0.0033352089735933454 0.01470847949318507 0.9961117103573305 -0.03592740183763059
 -0.0005532400699408423 -0.004681313968957854 0.0006229412521637777 0.007436192786028042 0.9961117103573305 -0.03592740183763059 0.003339045184300769 0.014708128964619852
0.056273447269699996 0.003371126369249803 0.014937447586501968 0.9960645323015795 -0.03646506139063552 0.0006590189738000777 0.007543761230433015 -0.0005648802964383673 -0.004751107367228476
 0.9960645323015795 -0.03646506139063552 0.0033745168243967233 0.014937131740322119 -0.0005654037214968395 -0.004751111129712918 0.0006363118648740406 0.007546432842466287
 0.0006590189738000777 0.007543761230433015 -0.0005654037214968395 -0.004751111129712918 0.00337082845947855 0.014936721820425637 0.9960645132531231 -0.03646581360057425
 -0.0005648802964383673 -0.004751107367228476 0.0006363118648740406 0.007546432842466287 0.9960645132531231 -0.03646581360057425 0.0033747785768880796 0.014936363283552195
0.06252605252188 0.00365237026129443 0.016689722836392668 0.9956917320354993 -0.04058389229263797 0.0007714530878128443 0.008385070668073332 -0.0006581025110929793 -0.005284381307461186
 0.9956917320354993 -0.04058389229263797 0.003656554194605201 0.016689350814985914 -0.0006587464339339559 -0.00528437881652141 0.0007434099412149849 0.008388402539689232
 0.0007714530878128443 0.008385070668073332 -0.0006587464339339559 -0.00528437881652141 0.003652002962083328 0.016688919283990942 0.9956917087935274 -0.04058472827963666
 -0.0006581025110929793 -0.005284381307461186 0.0007434099412149849 0.008388402539689232 0.9956917087935274 -0.04058472827963666 0.003656877653418594 0.016688496407827613
0.06877865777407 0.003950118783684197 0.018458543354990763 0.9952967301532177 -0.044716724469954464 0.0008933714789708328 0.009226638833136198 -0.0007590711038418943 -0.005818231014737302
 0.9952967301532177 -0.044716724469954464 0.003955179448769518 0.01845811042737506 -0.0007598476183534919 -0.005818220437786487 0.0008594257601313207 0.009230729664596959
 0.0008933714789708328 0.009226638833136198 -0.0007598476183534919 -0.005818220437786487 0.003949674869205849 0.018457662882418555 0.9952967022873687 -0.04471764434308649
 -0.0007590711038418943 -0.005818231014737302 0.0008594257601313207 0.009230729664596959 0.9952967022873687 -0.04471764434308649 0.003955571152846387 0.018457169839885962
0.07503126302626001 0.004264674010706965 0.020243598653871858 0.9948792354893136 -0.04886345489790082 0.0010248588419035478 0.010068341190734624 -0.0008678729263783657 -0.006352528318713044
 0.9948792354893136 -0.04886345489790082 0.004270694698103241 0.020243099949787867 -0.0008687940327403025 -0.006352507687193353 0.0009844429704748774 0.010073297022171265
 0.0010248588419035478 0.010068341190734624 -0.0008687940327403025 -0.006352507687193353 0.004264146265017942 0.020242642215466417 0.9948792025636736 -0.048864458780499255
 -0.0008678729263783657 -0.006352528318713044 0.0009844429704748774 0.010073297022171265 0.9948792025636736 -0.048864458780499255 0.004271161192692454 0.020242072923093178
0.08128386827845 0.004596336200993181 0.022044590288711738 0.9944389574179224 -0.053023957487524295 0.0011659980296292861 0.010910049127457492 -0.0009845928428146428 -0.006887143382226214
 0.9944389574179224 -0.053023957487524295 0.004603400257940462 0.02204402079734908 -0.0009856704481379466 -0.006887110591675556 0.0011185434413000443 0.010915983421364918
 0.0011659980296292861 0.010910049127457492 -0.0009856704481379466 -0.006887110591675556 0.0045957174187439605 0.022043558924909206 0.9944389189900976 -0.053025045520104265
 -0.0009845928428146428 -0.006887143382226214 0.0011185434413000443 0.010915983421364918 0.9944389189900976 -0.053025045520104265 0.0046039480944159656 0.022042907039888798
0.08753647353064001 0.004945403780016289 0.023861227737359065 0.9939756060832144 -0.05719808715777048 0.0013168699480765786 0.011751630247801495 -0.0011093136611370544 -0.007421944433656262
 0.9939756060832144 -0.05719808715777048 0.004953594629622467 0.0238605823054356 -0.001110559579696534 -0.0074218972438092196 0.0012618071651318151 0.011758663970718005
 0.0013168699480765786 0.011751630247801495 -0.001110559579696534 -0.0074218972438092196 0.00494468676774491 0.023860122574744028 0.993975561704551 -0.05719925949905017
 -0.0011093136611370544 -0.007421944433656262 0.0012618071651318151 0.011758663970718005 0.993975561704551 -0.05719925949905017 0.004954230366734139 0.02385938149135953
0.09378907878283 0.005312173294093707 0.025693225464785918 0.9934888926065485 -0.06138568272638053 0.001477553454666162 0.012592948587802718 -0.0012421160598193332 -0.007956797586913781
 0.9934888926065485 -0.06138568272638053 0.005321574455587861 0.025692498793887377 -0.0012435420130880446 -0.007956733621824565 0.0014143121639822983 0.012601210291175174
 0.001477553454666162 0.012592948587802718 -0.0012435420130880446 -0.007956733621824565 0.0053113508701015805 0.025692047725041106 0.9934888418199931 -0.061386939545129096
 -0.0012421160598193332 -0.007956797586913781 0.0014143121639822983 0.012601210291175174 0.9934888418199931 -0.061386939545129096 0.005322304658597298 0.025691210570259953
0.100041684035 0.005696939343603001 0.0275403007719954 0.9929785292740649 -0.06558656902197263 0.0016481252593789338 0.013433864781957613 -0.0013830785114808605 -0.008491566713466599
 0.9929785292740649 -0.06558656902197263 0.005707634451495101 0.027539487415451452 -0.0013846961279678504 -0.00849148346163286 0.00157613439640928 0.01344349068186911
 0.0016481252593789338 0.013433864781957613 -0.0013846961279678504 -0.00849148346163286 0.005696004340072679 0.027539051765120427 0.992978471615248 -0.06558791050479651
 -0.0013830785114808605 -0.008491566713466599 0.00157613439640928 0.01344349068186911 0.992978471615248 -0.06558791050479651 0.005708465693791654 0.027538111393700198
0.1059090909091 0.006074629772822921 0.029287047181029716 0.99247784302079 -0.06954057609018506 0.0018172484679184293 0.014222482675733799 -0.0015228461975955183 -0.00899319109318182
 0.99247784302079 -0.06954057609018506 0.006086615297399146 0.029286147389876536 -0.0015246541626358107 -0.00899308733797787 0.0017365270918034653 0.014233519513115722
 0.0018172484679184293 0.014222482675733799 -0.0015246541626358107 -0.00899308733797787 0.00607358261896471 0.02928573257081294 0.9924777784826567 -0.06954199720428679
 -0.0015228461975955183 -0.00899319109318182 0.0017365270918034653 0.014233519513115722 0.9924777784826567 -0.06954199720428679 0.00608754733923046 0.029284688595579512
0.1062942892872 0.006099994502556448 0.029402172177618296 0.992444229716055 -0.06980055846972803 0.0018286598278582815 0.014274236192918646 -0.001532277203622049 -0.009026113356630328
 0.992444229716055 -0.06980055846972803 0.006112067326984533 0.029401266536425632 -0.0015340980185894416 -0.009026008171144361 0.001747347666211797 0.014285370248729588
 0.0018286598278582815 0.014274236192918646 -0.0015340980185894416 -0.009026008171144361 0.006098939765828521 0.029400853304160406 0.9924441647115542 -0.06980198481956273
 -0.001532277203622049 -0.009026113356630328 0.001747347666211797 0.014285370248729588 0.9924441647115542 -0.06980198481956273 0.006113006189260225 0.02939980229300843
0.11254689453939999 0.006521629225928023 0.03127855818140706 0.9918857090757723 -0.07402745230077641 0.0020192292855948754 0.015113917020164366 -0.001689785957825571 -0.00956029667239734
 0.9918857090757723 -0.07402745230077641 0.006535163692444102 0.03127755449962288 -0.001691821412805171 -0.009560166771122066 0.001928023531428955 0.015126711011823083
 0.0020192292855948754 0.015113917020164366 -0.001691821412805171 -0.009560166771122066 0.00652044761802207 0.03127717093718229 0.9918856362431823 -0.07402896373305763
 -0.001689785957825571 -0.00956029667239734 0.001928023531428955 0.015126711011823083 0.9918856362431823 -0.07402896373305763 0.006536216763650127 0.03127600157898084
0.11879949979160001 0.006962131748447296 0.033169176309088146 0.9913026841730005 -0.07826704148661785 0.002219903323206601 0.01595275839275533 -0.0018556761471553319 -0.0100939733915301
 0.9913026841730005 -0.07826704148661785 0.006977211958308635 0.03316806866844421 -0.0018579375893877708 -0.010093815857294219 0.0021182312141915967 0.015967371996805643
 0.002219903323206601 0.01595275839275533 -0.0018579375893877708 -0.010093815857294219 0.006960816147637564 0.0331677222825182 0.991302603019802 -0.07826863823275812
 -0.0018556761471553319 -0.0100939733915301 0.0021182312141915967 0.015967371996805643 0.991302603019802 -0.07826863823275812 0.006978385835659296 0.033166426578575485
0.1250521050438 0.0074217879761622925 0.03507374235498718 0.9906948736635355 -0.08251910748221515 0.0024307491026714805 0.01679060844937201 -0.002030016612437386 -0.010626997800039246
 0.9906948736635355 -0.08251910748221515 0.007438498226470137 0.03507252466872974 -0.0020325152942337163 -0.010626809580840123 0.002318037510754799 0.016807209313476706
 0.0024307491026714805 0.01679060844937201 -0.0020325152942337163 -0.010626809580840123 0.007420331278710226 0.03507222322828313 0.9906947836867213 -0.08252078978908199
 -0.002030016612437386 -0.010626997800039246 0.002318037510754799 0.016807209313476706 0.9906947836867213 -0.08252078978908199 0.007439799515606388 0.035070792880766935
0.131304710296 0.007900881372339049 0.03699196977671826 0.9900619981951044 -0.08678342282332174 0.002651831163842095 0.017627312413525033 -0.002212873577769596 -0.011159221730067288
 0.9900619981951044 -0.08678342282332174 0.007919306176669617 0.03699063578269633 -0.002215620655774185 -0.011158999639350397 0.002527506702074044 0.017646076229377604
 0.002651831163842095 0.017627312413525033 -0.002215620655774185 -0.011158999639350397 0.007899276493421726 0.03699038732862276 0.9900618988808388 -0.08678519095126655
 -0.002212873577769596 -0.011159221730067288 0.002527506702074044 0.017646076229377604 0.9900618988808388 -0.08678519095126655 0.007920741491972387 0.03698881373187744
0.1375573155481 0.008289687324843902 0.0386728805224572 0.9895138254881839 -0.09080896343836094 0.002855905935783882 0.018437572496300812 -0.0023771497537472797 -0.011665263936614271
 0.9895138254881839 -0.09080896343836094 0.008309918825659382 0.03867145600438935 -0.00238016173743303 -0.011665007720121863 0.0027196822246272835 0.018458472222331247
 0.002855905935783882 0.018437572496300812 -0.00238016173743303 -0.011665007720121863 0.00828792763560265 0.03867123654214294 0.9895137164057896 -0.09081081752807958
 -0.0023771497537472797 -0.011665263936614271 0.0027196822246272835 0.018458472222331247 0.9895137164057896 -0.09081081752807958 0.008311494180360254 0.0386695429183322
0.1438099208003 0.00869216031418671 0.040344906397897354 0.9889463740359861 -0.09482427760489098 0.0030682452984416107 0.019244489082001052 -0.002548000535627249 -0.012168311458352043
 0.9889463740359861 -0.09482427760489098 0.008714284493238673 0.04034338705265614 -0.002551289408128371 -0.012168017983349454 0.0029196004436081243 0.019267685405453178
 0.0030682452984416107 0.019244489082001052 -0.002551289408128371 -0.012168017983349454 0.0086902388369611 0.04034320273340523 0.9889462546726377 -0.09482621790874278
 -0.002548000535627249 -0.012168311458352043 0.0029196004436081243 0.019267685405453178 0.9889462546726377 -0.09482621790874278 0.008716006406527926 0.040341382342551586
0.1500625260525 0.00910815795864576 0.04200790703190753 0.9883597902213275 -0.09882926493424499 0.0032887767008836807 0.02004797725992888 -0.0027253567400470154 -0.012668286453569884
 0.9883597902213275 -0.09882926493424499 0.009132261049808079 0.04200628826104248 -0.0027289344572079014 -0.012667952461670294 0.003127191881575262 0.020073636734845576
 0.0032887767008836807 0.02004797725992888 -0.0027289344572079014 -0.012667952461670294 0.009106067738613876 0.0420061456049122 0.9883596600551583 -0.09883129171534281
 -0.0027253567400470154 -0.012668286453569884 0.003127191881575262 0.020073636734845576 0.9883596600551583 -0.09883129171534281 0.009134136042614904 0.042004191311339784
0.15631513130469998 0.009537536857963626 0.04366174629933778 0.9877542211777613 -0.10282382540869583 0.0035174267276650052 0.02084795354203525 -0.0029091483279520373 -0.013165112732005081
 0.9877542211777613 -0.10282382540869583 0.009563705354755075 0.04366002319877123 -0.0029130268178434067 -0.013164734839747642 0.0033423862429047893 0.020876248528632232
