! Created with skrf 1.8.0 (http://scikit-rf.org).
# GHz S RI R 50.0 
!freq ReS11 ImS11 ReS12 ImS12 ReS13 ImS13
! ReS14 ImS14
! ReS21 ImS21 ReS22 ImS22 ReS23 ImS23
! ReS24 ImS24
! ReS31 ImS31 ReS32 ImS32 ReS33 ImS33
! ReS34 ImS34
! ReS41 ImS41 ReS42 ImS42 ReS43 ImS43
! ReS44 ImS44
!
0.0 0.001946688589949 0.0 0.9980533113937 0.0 7.610772151718e-05 0.0 -7.61077212839e-05 9.320507726072702e-21
 0.9980533113937 0.0 0.001946688589944 0.0 -7.610772128369e-05 9.320507726046984e-21 7.610772151667e-05 0.0
 7.610772151718e-05 0.0 -7.610772128369e-05 9.320507726046984e-21 0.001946688598113 0.0 0.9980533114019 0.0
 -7.61077212839e-05 9.320507726072702e-21 7.610772151667e-05 0.0 0.9980533114019 0.0 0.001946688598119 0.0
0.005 0.0020960208152492224 0.001584584783268741 0.9978641168015674 -0.0040766873471164075 0.00010848564014858317 0.0008779926142878225 -0.00010503490043900038 -0.0005439177539105959
 0.9978641168015674 -0.0040766873471164075 0.0020960062321590347 0.001584593410481576 -0.00010503227143774458 -0.000543915866971549 0.00010857051731255359 0.0008779600500830742
 0.00010848564014858317 0.0008779926142878225 -0.00010503227143774458 -0.000543915866971549 0.002096021925601212 0.0015846514951949541 0.9978641172028316 -0.004076620287710439
 -0.00010503490043900038 -0.0005439177539105959 0.00010857051731255359 0.0008779600500830742 0.9978641172028316 -0.004076620287710439 0.0020960059120976446 0.001584660804456933
0.006252605252188 0.002135630256673681 0.0019869330268409784 0.997813548957608 -0.005096787436327474 0.00011797865629479202 0.0010978686451232347 -0.00011342088602298761 -0.000680581378517318
 0.997813548957608 -0.005096787436327474 0.0021356074604460293 0.00198694404666997 -0.00011341679411394413 -0.0006805790561823599 0.00011811126414503218 0.0010978263418699437
 0.00011797865629479202 0.0010978686451232347 -0.00011341679411394413 -0.0006805790561823599 0.00213563190818314 0.001987016421819154 0.9978135495014843 -0.005096703610567995
 -0.00011342088602298761 -0.000680581378517318 0.00011811126414503218 0.0010978263418699437 0.9978135495014843 -0.005096703610567995 0.002135606877137436 0.0019870282748158906
0.01250521050438 0.0023467267119484025 0.0040150613264830215 0.9975419573419066 -0.010193863530735705 0.00017370111019410998 0.0021957559290931667 -0.00016217502167231154 -0.0013641897773981498
 0.9975419573419066 -0.010193863530735705 0.00234663567662305 0.004015085758790249 -0.0001621588845175895 -0.0013641855407165073 0.0001742297999780234 0.002195653777936794
 0.00017370111019410998 0.0021957559290931667 -0.0001621588845175895 -0.0013641855407165073 0.002346732724725748 0.004015227880680197 0.9975419589489894 -0.010193696106789666
 -0.00016217502167231154 -0.0013641897773981498 0.0001742297999780234 0.002195653777936794 0.9975419589489894 -0.010193696106789666 0.002346632788013422 0.004015253791813234
0.01875781575657 0.0025805285597500544 0.006071447088140197 0.9972381360577769 -0.015303526073422996 0.00024341780513146202 0.0032943663210508694 -0.00022253965656696841 -0.0020497122279671165
 0.9972381360577769 -0.015303526073422996 0.002580323977870613 0.006071487512088921 -0.00022250365610328637 -0.0020497065868958077 0.00024460515997398844 0.003294182655270715
 0.00024341780513146202 0.0032943663210508694 -0.00022250365610328637 -0.0020497065868958077 0.002580541614507145 0.006071696640600072 0.9972381392503127 -0.015303275091552035
 -0.00022253965656696841 -0.0020497122279671165 0.00024460515997398844 0.003294182655270715 0.9972381392503127 -0.015303275091552035 0.0025803170747813516 0.00607173902261882
0.02501042100875 0.00283756416639636 0.008153075145385005 0.9969016667287424 -0.020428129138826048 0.0003272722391992454 0.004393677867207584 -0.00029467623471460844 -0.0027367503027346035
 0.9969016667287424 -0.020428129138826048 0.002837200808927926 0.008153134315142405 -0.000294612643716078 -0.0027367438765378248 0.0003293807336801948 0.004393387017327376
 0.0003272722391992454 0.004393677867207584 -0.000294612643716078 -0.0027367438765378248 0.0028375869199979754 0.00815340749385166 0.9969016720351257 -0.020427794569623056
 -0.00029467623471460844 -0.0027367503027346035 0.0003293807336801948 0.004393387017327376 0.9969016720351257 -0.020427794569623056 0.002837188190697312 0.008153468952256647
0.03126302626094 0.003118339407502604 0.010258331312040922 0.9965321134544732 -0.025568604772842035 0.0004254068892912783 0.005493560582651284 -0.0003787397690688291 -0.0034250019151722843
 0.9965321134544732 -0.025568604772842035 0.0031177720979187044 0.010258412155382859 -0.00037864093671646055 -0.003424995433321568 0.0004286991161555062 0.005493132854781427
 0.0004254068892912783 0.005493560582651284 -0.00037864093671646055 -0.003424995433321568 0.0031183744897221337 0.010258746187992053 0.9965321214076591 -0.02556818654219245
 -0.0003787397690688291 -0.0034250019151722843 0.0004286991161555062 0.005493132854781427 0.9965321214076591 -0.02556818654219245 0.0031177520654321975 0.010258829519273184
0.037515631513130004 0.0034233475689134357 0.012386115821157163 0.9961290332791627 -0.030725349525682375 0.0005379617306817129 0.006593840746624762 -0.00047487998635789005 -0.0041141971246591285
 0.9961290332791627 -0.030725349525682375 0.0034225311649103995 0.012386221439382375 -0.00047473833135436625 -0.004114191427110423 0.0005427004898170664 0.0065932423859916345
 0.0005379617306817129 0.006593840746624762 -0.00047473833135436625 -0.004114191427110423 0.0034233975834138033 0.012386612881711091 0.9961290444185322 -0.030724847522514052
 -0.00047487998635789005 -0.0041141971246591285 0.0005427004898170664 0.0065932423859916345 0.9961290444185322 -0.030724847522514052 0.0034225020182119983 0.012386721073464868
0.043768236765320004 0.003753073126903212 0.014535573509775601 0.9956919805360714 -0.03589849422719808 0.0006650735049861207 0.007694320481567932 -0.0005832416849686251 -0.0048040786533793825
 0.9956919805360714 -0.03589849422719808 0.0037519625051367494 0.014535707178282018 -0.000583049691666336 -0.00480407469069305 0.0006715218334274602 0.007693513631592364
 0.0006650735049861207 0.007694320481567932 -0.000583049691666336 -0.00480407469069305 0.0037531406524241155 0.014536152341989952 0.9956919954114858 -0.03589790829905851
 -0.0005832416849686251 -0.0048040786533793825 0.0006715218334274602 0.007693513631592364 0.9956919954114858 -0.03589790829905851 0.0037519225431587528 0.01453628857354734
0.050020842017509996 0.004107993457564148 0.01670598236088482 0.9952205091272454 -0.04108801540804458 0.0008068752449029454 0.008794785875525115 -0.0007039648207914275 -0.00549439386651994
 0.9952205091272454 -0.04108801540804458 0.004106543500330732 0.01670614753033982 -0.00070371503709021 -0.005494392699907706 0.0008152964151513477 0.008793728535355162
 0.0008068752449029454 0.008794785875525115 -0.00070371503709021 -0.005494392699907706 0.0041080810458281125 0.016706642478908185 0.9952205282988039 -0.041087345363598676
 -0.0007039648207914275 -0.00549439386651994 0.0008152964151513477 0.008793728535355162 0.9952205282988039 -0.041087345363598676 0.004106491016492565 0.016706810122844085
0.055454545454549996 0.0044372572479154165 0.018608647123957642 0.9947824882682177 -0.04561107256267257 0.0009421355704918262 0.009750936782072317 -0.0008190209132156958 -0.0060944553048912775
 0.9947824882682177 -0.04561107256267257 0.004435475751166488 0.018608842608374813 -0.000818714904361786 -0.006094457515909997 0.0009524851766745894 0.009749624397548857
 0.0009421355704918262 0.009750936782072317 -0.000818714904361786 -0.006094457515909997 0.0044373643219578675 0.018609377423882478 0.9947825116374782 -0.04561032923966971
 -0.0008190209132156958 -0.0060944553048912775 0.0009524851766745894 0.009749624397548857 0.9947825116374782 -0.04561032923966971 0.004435410993391386 0.018609575256736063
0.056273447269699996 0.004488579660997007 0.018896698793140397 0.9947141739229602 -0.04629378998197017 0.0009634959156414178 0.009895010989150353 -0.0008371844685724536 -0.006184890878461201
 0.9947141739229602 -0.04629378998197017 0.004486745242906565 0.018896899091110274 -0.0008368695047414568 -0.006184893679769954 0.0009741534145109507 0.009893656970738397
 0.0009634959156414178 0.009895010989150353 -0.0008368695047414568 -0.006184893679769954 0.004488689835854436 0.018897439630124597 0.9947141979629341 -0.0462930355989608
 -0.0008371844685724536 -0.006184890878461201 0.0009741534145109507 0.009893656970738397 0.9947141979629341 -0.0462930355989608 0.00448667852287859 0.01889764225435602
0.06252605252188 0.004895296950584974 0.021107127615551988 0.9941725317331489 -0.05151562527548082 0.001135060111982911 0.010994760091767402 -0.0009830307224978291 -0.006875316442290996
 0.9941725317331489 -0.05151562527548082 0.004893032926884348 0.021107366848637215 -0.000982643250713178 -0.006875324493979612 0.0011482176068297214 0.010993058977093382
 0.001135060111982911 0.010994760091767402 -0.000982643250713178 -0.006875324493979612 0.004895432207774267 0.021107948530002533 0.9941725612278528 -0.05151478629421861
 -0.0009830307224978291 -0.006875316442290996 0.0011482176068297214 0.010993058977093382 0.9941725612278528 -0.05151478629421861 0.004892950246358016 0.02110818990029597
0.06877865777407 0.005328604804048406 0.023336704126447116 0.9935951420455476 -0.05675327692724269 0.0013216877886101375 0.012093789025499919 -0.0011416285608650322 -0.007565414724695479
 0.9935951420455476 -0.05675327692724269 0.005325865997847942 0.023336986283085625 -0.0011411613150222005 -0.007565429419793126 0.001337609083949966 0.01209168612433247
 0.0013216877886101375 0.012093789025499919 -0.0011411613150222005 -0.007565429419793126 0.005328767609310333 0.023337604397993334 0.9935951775967756 -0.0567523530547806
 -0.0011416285608650322 -0.007565414724695479 0.001337609083949966 0.01209168612433247 0.9935951775967756 -0.0567523530547806 0.005325765620086313 0.023337888481154697
0.07503126302626001 0.005788956969709154 0.025584882787278093 0.992981567626157 -0.062006460228355514 0.0015234940094871676 0.013191846097784397 -0.0013130976893797055 -0.008254926566807836
 0.992981567626157 -0.062006460228355514 0.005785698160276347 0.02558521204087854 -0.0013125434653447282 -0.008254949408821011 0.001542442996736544 0.013189282406085589
 0.0015234940094871676 0.013191846097784397 -0.0013125434653447282 -0.008254949408821011 0.005789149757325075 0.025585861620985084 0.9929816098521412 -0.0620054511342102
 -0.0013130976893797055 -0.008254926566807836 0.001542442996736544 0.013189282406085589 0.9929816098521412 -0.0620054511342102 0.0057855783331401565 0.025586192588574044
0.08128386827845 0.006276801384980953 0.027851129714657297 0.9923313750357415 -0.06727485766053708 0.0017405887102777625 0.014288672707290914 -0.0014975523704700326 -0.00894358902627564
 0.9923313750357415 -0.06727485766053708 0.006272977296423341 0.02785151042733947 -0.001496904026669907 -0.008943621629072194 0.0017628293118770676 0.01428558486657194
 0.0017405887102777625 0.014288672707290914 -0.001496904026669907 -0.008943621629072194 0.006277026557548954 0.02785218623420253 0.9923314245737799 -0.06727376298355654
 -0.0014975523704700326 -0.00894358902627564 0.0017628293118770676 0.01428558486657194 0.9923314245737799 -0.06727376298355654 0.006272836249917591 0.02785256846687728
0.08753647353064001 0.006792580034166941 0.030134917499981075 0.9916441350914823 -0.07255812412415055 0.0019730764686730845 0.015384003811902712 -0.0016951012446619802 -0.009631135092480135
 0.9916441350914823 -0.07255812412415055 0.006788145322881996 0.03013535422693278 -0.0016943517026340984 -0.009631179180156978 0.001998872577491959 0.01538032406963115
 0.0019730764686730845 0.015384003811902712 -0.0016943517026340984 -0.009631179180156978 0.006792839960204669 0.030136050750650192 0.9916441925982946 -0.07255694346971216
 -0.0016951012446619802 -0.009631135092480135 0.001998872577491959 0.01538032406963115 0.9916441925982946 -0.07255694346971216 0.0067879812663990445 0.030136488843086638
0.09378907878283 0.007336728764441313 0.032435721538487776 0.9909194232900098 -0.07785589067434927 0.0022210562815055527 0.01647756829336633 -0.001905847145328787 -0.010317293520613797
 0.9909194232900098 -0.07785589067434927 0.007331638007720942 0.03243621903285189 -0.0019049893905131027 -0.010317350927326552 0.002250671696445131 0.016473224464439794
 0.0022210562815055527 0.01647756829336633 -0.0019049893905131027 -0.010317350927326552 0.0073370257780383235 0.03243693048755225 0.9909194894448697 -0.07785462361432051
 -0.001905847145328787 -0.010317293520613797 0.002250671696445131 0.016473224464439794 0.9909194894448697 -0.07785462361432051 0.007331449128409642 0.03243742925395168
0.100041684035 0.00790967707384806 0.034753017358638595 0.9901568202071329 -0.0831677672755404 0.0024846213467910466 0.017569089259052834 -0.0021298869097766083 -0.011001788744393502
 0.9901568202071329 -0.0831677672755404 0.007903884758133384 0.03475358057698283 -0.0021289139925211925 -0.011001861414158536 0.0025183197049171687 0.017564004688577644
 0.0024846213467910466 0.017569089259052834 -0.0021289139925211925 -0.011001861414158536 0.007910013472559709 0.03475430089556083 0.9901568957121001 -0.08316641334830266
 -0.0021298869097766083 -0.011001788744393502 0.0025183197049171687 0.017564004688577644 0.9901568957121001 -0.08316641334830266 0.007903669217226949 0.034754865375827663
0.1059090909091 0.008473898012695895 0.03694208399003758 0.9894063675639687 -0.0881648688766877 0.002746201565779302 0.01859125586624519 -0.00235229592341914 -0.01164235295366965
 0.9894063675639687 -0.0881648688766877 0.00846740587288136 0.03694271357782634 -0.002351208676431301 -0.011642441811894236 0.0027839709016498054 0.01858540245839307
 0.002746201565779302 0.01859125586624519 -0.002351208676431301 -0.011642441811894236 0.008474273426318757 0.03694343643944569 0.989406452504086 -0.08816343298564124
 -0.00235229592341914 -0.01164235295366965 0.0027839709016498054 0.01858540245839307 0.989406452504086 -0.08816343298564124 0.008467163615685787 0.03694406737598027
0.1062942892872 0.00851184787646296 0.037086278641608655 0.9893559118765854 -0.08849334488426729 0.002763858849532736 0.018658284303263988 -0.0023673111884462417 -0.01168434084525027
 0.9893559118765854 -0.08849334488426729 0.008505308385501146 0.03708691274997621 -0.0023662162249544856 -0.011684430831689682 0.0028019035552109012 0.018652377830650595
 0.002763858849532736 0.018658284303263988 -0.0023662162249544856 -0.011684430831689682 0.008512225920334526 0.03708763557698219 0.9893559974591092 -0.08849190359638058
 -0.0023673111884462417 -0.01168434084525027 0.0028019035552109012 0.018652377830650595 0.9893559974591092 -0.08849190359638058 0.008505064316308708 0.03708827104354763
0.11254689453939999 0.009143657252099594 0.039434975729659705 0.9885162901564618 -0.09383219706253829 0.0030588497514889537 0.019744865740712745 -0.0026182042527533953 -0.012364665565589879
 0.9885162901564618 -0.09383219706253829 0.00913632485527992 0.03943568611035342 -0.002616980426171921 -0.012364775031694636 0.003101503902743585 0.019738051665145293
 0.0030588497514889537 0.019744865740712745 -0.002616980426171921 -0.012364775031694636 0.009144079161914174 0.03943640479406723 0.9885163865706522 -0.09383066789039977
 -0.0026182042527533953 -0.012364665565589879 0.003101503902743585 0.019738051665145293 0.9885163865706522 -0.09383066789039977 0.009136050360545864 0.039437116759296474
0.11879949979160001 0.009805514184434164 0.041798574491236494 0.9876375530857482 -0.09918388125408509 0.003369668583973343 0.020828540825015562 -0.0028826438026856235 -0.013042474353239656
 0.9876375530857482 -0.09918388125408509 0.009797343025075619 0.04179936675006843 -0.0028812843643478414 -0.013042605571031457 0.003417194896489207 0.020820728872455285
 0.003369668583973343 0.020828540825015562 -0.0028812843643478414 -0.013042605571031457 0.009805982140479425 0.041800074338518824 0.987637661113945 -0.09918226364129717
 -0.0028826438026856235 -0.013042474353239656 0.003417194896489207 0.020820728872455285 0.987637661113945 -0.09918226364129717 0.009797036174336615 0.04180086856292374
0.1250521050438 0.010497820288746048 0.0441765354501613 0.98671930523082 -0.10454793981623506 0.0036963832446379754 0.021909011954703315 -0.0031607007749911552 -0.013717474435092412
 0.98671930523082 -0.10454793981623506 0.010488764372535412 0.04417741542444403 -0.0031591990455784483 -0.013717629785298944 0.0037490439733013216 0.0219001072464401
 0.0036963832446379754 0.021909011954703315 -0.0031591990455784483 -0.013717629785298944 0.010498336429364895 0.04417810465583723 0.9867194256856201 -0.10454623317600527
 -0.0031607007749911552 -0.013717474435092412 0.0037490439733013216 0.0219001072464401 0.9867194256856201 -0.10454623317600527 0.010488423199682833 0.04417898715685694
0.131304710296 0.011220969534180439 0.04656831311643071 0.9857611580274152 -0.10992390087052246 0.004039054797070367 0.022985976875902477 -0.003452439152556935 -0.014389368910398919
 0.9857611580274152 -0.10992390087052246 0.011210982717614197 0.04656928688366986 -0.0034507885233648334 -0.014389550882081307 0.004097111655503723 0.022975879898681113
 0.004039054797070367 0.022985976875902477 -0.0034507885233648334 -0.014389550882081307 0.01122153595405103 0.04656995017707897 0.9857612917531523 -0.10992210458713383
 -0.003452439152556935 -0.014389368910398919 0.004097111655503723 0.022975879898681113 0.9857612917531523 -0.10992210458713383 0.011210605217935099 0.046570927238655004
0.1375573155481 0.011824780215596043 0.04866122827268519 0.9849133918857843 -0.11499890281730553 0.004358888193198012 0.02402955038338564 -0.003719018158137271 -0.015028371718030661
 0.9849133918857843 -0.11499890281730553 0.011813813831147353 0.04866227967964177 -0.003717209048583589 -0.0150285809211557 0.0044224793565551005 0.024018262308589586
 0.004358888193198012 0.02402955038338564 -0.003717209048583589 -0.0150285809211557 0.011825400513622339 0.04866293103726426 0.9849135395260756 -0.11499701650680078
 -0.003719018158137271 -0.015028371718030661 0.0044224793565551005 0.024018262308589586 0.9849135395260756 -0.11499701650680078 0.01181339684900005 0.04866398834009994
0.1438099208003 0.012450199734674013 0.050740075966393246 0.9840349906487498 -0.12005798197937904 0.0046915132674576554 0.02506710690355928 -0.003996111486864241 -0.015661789621045807
 0.9840349906487498 -0.12005798197937904 0.012438207114609147 0.05074120973727134 -0.003994136854705609 -0.015662028530796412 0.004760877461197613 0.025054535299111926
 0.0046915132674576554 0.02506710690355928 -0.003994136854705609 -0.015662028530796412 0.012450876216896745 0.050741842766828846 0.9840351530520786 -0.12005600503911255
 -0.003996111486864241 -0.015661789621045807 0.004760877461197613 0.025054535299111926 0.9840351530520786 -0.12005600503911255 0.012437748379830074 0.0507429854373458
0.1500625260525 0.013096956801292053 0.052804593498056024 0.9831262313733042 -0.1251009220691559 0.005036781898336753 0.026098483675844754 -0.004283573563036066 -0.0162894684927257
 0.9831262313733042 -0.1251009220691559 0.013083891137289694 0.05280581464395274 -0.004281426398058914 -0.016289739682374547 0.005112155926427101 0.026084532729236432
 0.005036781898336753 0.026098483675844754 -0.004281426398058914 -0.016289739682374547 0.013097691749866313 0.0528064225995657 0.9831264094153754 -0.1250988538743396
 -0.004283573563036066 -0.0162894684927257 0.005112155926427101 0.026084532729236432 0.9831264094153754 -0.1250988538743396 0.013083388328386387 0.05280765607842239
0.15631513130469998 0.013764777583092434 0.054854526132653014 0.9821873932092869 -0.13012750977950946 0.005394543880108386 0.027123521559587898 -0.004581256703161419 -0.016911258202378727
 0.9821873932092869 -0.13012750977950946 0.013750591923346005 0.05485583995934236 -0.004578930028068682 -0.016911564342489506 0.005476162588869933 0.027108092121529103
