! Created with skrf 1.8.0 (http://scikit-rf.org).
# GHz S RI R 50.0 
!freq ReS11 ImS11 ReS12 ImS12 ReS13 ImS13
! ReS14 ImS14
! ReS21 ImS21 ReS22 ImS22 ReS23 ImS23
! ReS24 ImS24
! ReS31 ImS31 ReS32 ImS32 ReS33 ImS33
! ReS34 ImS34
! ReS41 ImS41 ReS42 ImS42 ReS43 ImS43
! ReS44 ImS44
!
0.0 0.001723903012232 0.0 0.9982760969785 0.0 6.675366993654e-05 0.0 -6.675366970884e-05 8.174966794027052e-21
 0.9982760969785 0.0 0.001723903012252 0.0 -6.675366970899e-05 8.174966794045422e-21 6.675366993648e-05 0.0
 6.675366993654e-05 0.0 -6.675366970899e-05 8.174966794045422e-21 0.001723903001672 0.0 0.998276096968 0.0
 -6.675366970884e-05 8.174966794027052e-21 6.675366993648e-05 0.0 0.998276096968 0.0 0.00172390300169 0.0
0.005 0.001855346330063619 0.0014105957876129425 0.9981097117493882 -0.0036104095976189697 9.374627545102128e-05 0.0007307718996227925 -9.101763720036307e-05 -0.000459413463554416
 0.9981097117493882 -0.0036104095976189697 0.001855356655364513 0.0014105897833287162 -9.101983633628902e-05 -0.0004594151883881545 9.367485016405198e-05 0.0007307991252914874
 9.374627545102128e-05 0.0007307718996227925 -9.101983633628902e-05 -0.0004594151883881545 0.0018553446537519962 0.001410529541256613 0.9981097113882864 -0.003610476664846558
 -9.101763720036307e-05 -0.000459413463554416 9.367485016405198e-05 0.0007307991252914874 0.9981097113882864 -0.003610476664846558 0.0018553576191589088 0.0014105219042383822
0.006252605252188 0.0018899919006626384 0.001768765637559664 0.9980655533850533 -0.004513866829165888 0.00010155168530433252 0.0009138098956462247 -9.794439975025193e-05 -0.000574849258979347
 0.9980655533850533 -0.004513866829165888 0.0018900080407268616 0.0017687579993873066 -9.794782149439569e-05 -0.0005748513859310472 0.0001014400909411714 0.0009138452653851329
 0.00010155168530433252 0.0009138098956462247 -9.794782149439569e-05 -0.0005748513859310472 0.0018899893378087557 0.0017686828542212876 0.9980655528783648 -0.00451395064873881
 -9.794439975025193e-05 -0.000574849258979347 0.0001014400909411714 0.0009138452653851329 0.9980655528783648 -0.00451395064873881 0.0018900096056086889 0.0017686731635684944
0.01250521050438 0.0020733745278776828 0.0035742925780240685 0.9978301548734189 -0.009028330899220848 0.00014680880408570688 0.0018279119350525996 -0.00013765429279326646 -0.0011523662912890456
 0.9978301548734189 -0.009028330899220848 0.0020734389703456458 0.0035742759699171397 -0.00013766777370907116 -0.0011523702236892362 0.0001463638117205915 0.0018279972133575062
 0.00014680880408570688 0.0018279119350525996 -0.00013766777370907116 -0.0011523702236892362 0.0020733648331582645 0.003574127381377222 0.9978301533919558 -0.009028498312619948
 -0.00013765429279326646 -0.0011523662912890456 0.0001463638117205915 0.0018279972133575062 0.9978301533919558 -0.009028498312619948 0.0020734457718049166 0.0035741065250717904
0.01875781575657 0.0022744873904802522 0.005405193124457191 0.9975695832499147 -0.01355433621284503 0.0002026351830540006 0.0027428833352025226 -0.00018601277089836087 -0.0017316996361382351
 0.9975695832499147 -0.01355433621284503 0.0022746321867865016 0.005405166138612933 -0.00018604282797225175 -0.0017317049848966971 0.0002016356085116462 0.002743036153384447
 0.0002026351830540006 0.0027428833352025226 -0.00018604282797225175 -0.0017317049848966971 0.002274466023501138 0.005404945826770701 0.9975695803413372 -0.013554587166113522
 -0.00018601277089836087 -0.0017316996361382351 0.0002016356085116462 0.002743036153384447 0.9975695803413372 -0.013554587166113522 0.002274647914253623 0.00540491217139018
0.02501042100875 0.0024937518984371816 0.007258861398208095 0.9972835068353028 -0.018094030250638653 0.00026914236680739635 0.0036587303299116035 -0.0002431443056464734 -0.0023125609029595994
 0.9972835068353028 -0.018094030250638653 0.002494009031866563 0.007258822561815554 -0.000243197375553982 -0.002312567204826369 0.000267366990999642 0.003658971317071044
 0.00026914236680739635 0.0036587303299116035 -0.000243197375553982 -0.002312567204826369 0.0024937143178589923 0.007258532380185226 0.9972835020365189 -0.01809436473395336
 -0.0002431443056464734 -0.0023125609029595994 0.000267366990999642 0.003658971317071044 0.9972835020365189 -0.01809436473395336 0.002494037373184958 0.007258484148278817
0.03126302626094 0.00273157197148847 0.00913393318420444 0.9969715784193303 -0.022648304111635795 0.0003464419159995419 0.0045753747611578174 -0.0003091693305228559 -0.0028947381670190175
 0.9969715784193303 -0.022648304111635795 0.002731973375965139 0.009133880961984165 -0.0003092517829496996 -0.0028947448838557936 0.00034366929007936613 0.004575727561637898
 0.0003464419159995419 0.0045753747611578174 -0.0003092517829496996 -0.0028947448838557936 0.0027315136437791937 0.009133522882742297 0.9969715712653264 -0.02264872217204631
 -0.0003091693305228559 -0.0028947381670190175 0.00034366929007936613 0.004575727561637898 0.9969715712653264 -0.02264872217204631 0.0027320180298729024 0.009133458154882286
0.037515631513130004 0.0029883423262711175 0.011029501401336414 0.9966334438932161 -0.027217576984027148 0.00043464427161232105 0.005492704634198967 -0.00038420508297140664 -0.0034780454369408055
 0.9966334438932161 -0.027217576984027148 0.0029889199003578105 0.011029434196980081 -0.0003843232274164462 -0.003478051955561112 0.00043065263609730104 0.005493195936668588
 0.00043464427161232105 0.005492704634198967 -0.0003843232274164462 -0.003478051955561112 0.0029882587255226946 0.011029010344697849 0.9966334339152018 -0.027218078691042993
 -0.00038420508297140664 -0.0034780454369408055 0.00043065263609730104 0.005493195936668588 0.9966334339152018 -0.027218078691042993 0.002988984577306816 0.01102892705996741
0.043768236765320004 0.0032644516691870333 0.012944877384512754 0.9962687457887152 -0.031802034793062345 0.0005338582051268477 0.006410589500406374 -0.00046836588966429795 -0.004062307298103828
 0.9962687457887152 -0.031802034793062345 0.003265237287342069 0.012944793541570717 -0.00046852597942125446 -0.004062312930251907 0.0005284254576283813 0.006411249070445004
 0.0005338582051268477 0.006410589500406374 -0.00046852597942125446 -0.004062312930251907 0.003264338274441116 0.012944306185974563 0.9962687325099789 -0.03180262024576789
 -0.00046836588966429795 -0.004062307298103828 0.0005284254576283813 0.006411249070445004 0.9962687325099789 -0.03180262024576789 0.003265325707395275 0.012944202141829285
0.050020842017509996 0.003560284155433553 0.01487949221903018 0.9958771250897841 -0.03640172879589969 0.0006441904776695971 0.0073288868238707465 -0.0005617632512062291 -0.0046473525771184
 0.9958771250897841 -0.03640172879589969 0.0035613096778773176 0.01487939002147976 -0.0005619714858162461 -0.004647356559521996 0.0006370941666131996 0.007329747537859841
 0.0006441904776695971 0.0073288868238707465 -0.0005619714858162461 -0.004647356559521996 0.003560136455146392 0.01487884158041458 0.9958771080281692 -0.036402398120241715
 -0.0005617632512062291 -0.0046473525771184 0.0006370941666131996 0.007329747537859841 0.9958771080281692 -0.036402398120241715 0.003561425575854248 0.014878714432007493
0.055454545454549996 0.0038336846353028537 0.016575967727837457 0.9955146512108627 -0.04041135031434485 0.0007491832373423783 0.008127132522155479 -0.0006505140718327145 -0.005156278837651674
 0.9955146512108627 -0.04041135031434485 0.0038349445126099773 0.01657584813984373 -0.0006507691401090425 -0.005156280708293809 0.0007404603171713602 0.008128197177820266
 0.0007491832373423783 0.008127132522155479 -0.0006507691401090425 -0.005156280708293809 0.0038335034649360344 0.016575248690779726 0.9955146304634311 -0.04041209265077598
 -0.0006505140718327145 -0.005156278837651674 0.0007404603171713602 0.008128197177820266 0.9955146304634311 -0.04041209265077598 0.003835087332802577 0.016575099448529772
0.056273447269699996 0.003876220124613116 0.01683284832003677 0.995458222324874 -0.04101662393484173 0.0007657455898366722 0.008247445111797858 -0.0006645058385320957 -0.005233011248526478
 0.995458222324874 -0.04101662393484173 0.003877517407171972 0.016832725992475747 -0.0006647683654886341 -0.005233012742961687 0.0007567629241194551 0.008248542991265522
 0.0007657455898366722 0.008247445111797858 -0.0006647683654886341 -0.005233012742961687 0.0038760336154988937 0.01683211903073384 0.9954582009894397 -0.0410173772854042
 -0.0006645058385320957 -0.005233011248526478 0.0007567629241194551 0.008248542991265522 0.9954582009894397 -0.0410173772854042 0.0038776645307001447 0.016831966289964338
0.06252605252188 0.004212636474307736 0.018804492818144412 0.9950116783033435 -0.045646625390302835 0.000898625577371427 0.00916610564240516 -0.0007766994440981065 -0.005819112750754145
 0.9950116783033435 -0.045646625390302835 0.0042142373774106305 0.018804348525624685 -0.0007770223598531325 -0.00581911084413517 0.0008875334463270256 0.009167479888386086
 0.000898625577371427 0.00916610564240516 -0.0007770223598531325 -0.00581911084413517 0.004212406664409595 0.01880368575732433 0.9950116521950432 -0.04564746294878091
 -0.0007766994440981065 -0.005819112750754145 0.0008875334463270256 0.009167479888386086 0.9950116521950432 -0.04564746294878091 0.0042144194904029765 0.018803504791377844
0.06877865777407 0.004569906839714125 0.020794001696673715 0.9945371346620753 -0.050291594388977214 0.001042929831508986 0.01008470351287771 -0.0008984469074546778 -0.0064054849892708704
 0.9945371346620753 -0.050291594388977214 0.004571843237618645 0.020793833544258268 -0.0008988362581464105 -0.006405478693739991 0.0010295048327482166 0.010086396540053624
 0.001042929831508986 0.01008470351287771 -0.0008988362581464105 -0.006405478693739991 0.0045696292478523215 0.02079311783779164 0.9945371032711816 -0.050292516360401024
 -0.0008984469074546778 -0.0064054849892708704 0.0010295048327482166 0.010086396540053624 0.9945371032711816 -0.050292516360401024 0.004572064119019379 0.02079290586752337
0.07503126302626001 0.004948401653707425 0.02280096973727819 0.9940342342982009 -0.05495135821173862 0.0011987549359530256 0.011003068308380765 -0.0010298480238214074 -0.006991953726340275
 0.9940342342982009 -0.05495135821173862 0.004950705443101579 0.02280077576927581 -0.0010303098057046448 -0.006991941979376645 0.0011827734083228638 0.011005125778840547
 0.0011987549359530256 0.011003068308380765 -0.0010303098057046448 -0.006991941979376645 0.0049480718127156865 0.022800010143228938 0.9940341971048092 -0.05495236482994684
 -0.0010298480238214074 -0.006991953726340275 0.0011827734083228638 0.011005125778840547 0.9940341971048092 -0.05495236482994684 0.004950968889472826 0.022799764241129644
0.08128386827845 0.005348488134872493 0.0248250038373024 0.9935026217350367 -0.05962571683836574 0.0013661945118076857 0.011921024567193067 -0.0011709994431587682 -0.007578342182671818
 0.9935026217350367 -0.05962571683836574 0.0053511912440432794 0.024824782036147297 -0.0011715396027860295 -0.007578323847206013 0.0013474325735158403 0.01192349542361564
 0.0013661945118076857 0.011921024567193067 -0.0011715396027860295 -0.007578323847206013 0.005348101591662261 0.024823969667330983 0.9935025782065423 -0.05962680835967013
 -0.0011709994431587682 -0.007578342182671818 0.0013474325735158403 0.01192349542361564 0.9935025782065423 -0.05962680835967013 0.005351501069427754 0.02482368675508856
0.08753647353064001 0.005770530225401515 0.026865718402972045 0.9929419434410115 -0.06431444752543172 0.0015453390698603763 0.012838392109665982 -0.0013219945616013632 -0.008164470783387166
 0.9929419434410115 -0.06431444752543172 0.0057736646229742325 0.026865466687707437 -0.0013226189959014026 -0.008164444647917045 0.0015235726596661968 0.012841328607961866
 0.0015453390698603763 0.012838392109665982 -0.0013226189959014026 -0.008164444647917045 0.005770082543248802 0.026864610907920805 0.9929418930320801 -0.06431562423392433
 -0.0013219945616013632 -0.008164470783387166 0.0015235726596661968 0.012841328607961866 0.9929418930320801 -0.06431562423392433 0.005774024660276138 0.026864287753748686
0.09378907878283 0.0062148884961545185 0.02892273204898669 0.9923518481217108 -0.06901730808751513 0.0017362758662859987 0.013754986292382991 -0.0014829234082246244 -0.008750156987320542
 0.9923518481217108 -0.06901730808751513 0.006218486200154198 0.028922448273528665 -0.0014836379644619167 -0.00875012176605331 0.0017112807882441207 0.013758444033579377
 0.0017362758662859987 0.013754986292382991 -0.0014836379644619167 -0.00875012176605331 0.006214375256150532 0.028921552577281563 0.9923517902724737 -0.06901857028946463
 -0.0014829234082246244 -0.008750156987320542 0.0017112807882441207 0.013758444033579377 0.9923517902724737 -0.06901857028946463 0.006218900301752214 0.028921185792846076
0.100041684035 0.0066819200259104605 0.030995665204673346 0.9917319869886868 -0.07373403928152113 0.0019390887619924644 0.014670618208273334 -0.001653872528079005 -0.009335215178881749
 0.9917319869886868 -0.07373403928152113 0.006686013112534975 0.030995347155519666 -0.0016546830036414002 -0.00933516951187129 0.0019106407326062202 0.014674656169721514
 0.0019390887619924644 0.014670618208273334 -0.0016546830036414002 -0.00933516951187129 0.006681336828643319 0.03099441519869874 0.9917319211245403 -0.07373538730954131
 -0.001653872528079005 -0.009335215178881749 0.0019106407326062202 0.014674656169721514 0.9917319211245403 -0.07373538730954131 0.006686485151623084 0.030994001235610455
0.1059090909091 0.007141115561022084 0.0329550336238658 0.9911229331073972 -0.07817256209998846 0.0021402799368300473 0.015528794599603523 -0.001823477405970873 -0.009883490970534014
 0.9911229331073972 -0.07817256209998846 0.00714570274444707 0.032954681337098626 -0.0018243831196801212 -0.009883434198527457 0.0021083876611400483 0.015533433709684434
 0.0021402799368300473 0.015528794599603523 -0.0018243831196801212 -0.009883434198527457 0.007140462733948303 0.032953718826260435 0.991122859184804 -0.07817399099099971
 -0.001823477405970873 -0.009883490970534014 0.0021083876611400483 0.015533433709684434 0.991122859184804 -0.07817399099099971 0.007146232693152299 0.03295325721795628
0.1062942892872 0.007171978264120791 0.0330841383085786 0.9910820140171264 -0.07846436661310122 0.002153858084006654 0.015585094849914636 -0.0018349248626003145 -0.00991945660572399
 0.9910820140171264 -0.07846436661310122 0.0071765988768278605 0.0330837837023175 -0.0018358370047892852 -0.009919399059024222 0.0021217327819067723 0.015589775415575916
 0.002153858084006654 0.015585094849914636 -0.0018358370047892852 -0.009919399059024222 0.007171320731276796 0.03308281930717853 0.9910819395467384 -0.07846580082378811
 -0.0018349248626003145 -0.00991945660572399 0.0021217327819067723 0.015589775415575916 0.9910819395467384 -0.07846580082378811 0.007177132747605963 0.03308235445327722
0.11254689453939999 0.007685412878224882 0.03518777044321073 0.9904015861901706 -0.08320800171310759 0.0023806604884912593 0.01649821925500502 -0.0020261596284798394 -0.0105026893430388
 0.9904015861901706 -0.08320800171310759 0.007690593236774562 0.03518737692354284 -0.0020271791342215146 -0.010502618408882159 0.0023446336062228935 0.016503608244952797
 0.0023806604884912593 0.01649821925500502 -0.0020271791342215146 -0.010502618408882159 0.007684676654555356 0.03518638408172484 0.9904015025050137 -0.08320952248735247
 -0.0020261596284798394 -0.0105026893430388 0.0023446336062228935 0.016503608244952797 0.9904015025050137 -0.08320952248735247 0.007691192855940493 0.03518586445680305
0.11879949979160001 0.008222569591963807 0.03730617827712521 0.989690363738343 -0.08796464341786712 0.0026195688258140526 0.017409790632185878 -0.002227652194830634 -0.011084718286757413
 0.989690363738343 -0.08796464341786712 0.008228342001420159 0.037305743411476654 -0.002228784710296558 -0.011084632383692502 0.002579416123507346 0.017415957331120998
 0.0026195688258140526 0.017409790632185878 -0.002228784710296558 -0.011084632383692502 0.008221750346835682 0.03730472628804988 0.989690270211086 -0.0879662511603104
 -0.002227652194830634 -0.011084718286757413 0.002579416123507346 0.017415957331120998 0.989690270211086 -0.0879662511603104 0.008229011308541593 0.03730414783932857
0.1250521050438 0.008783790014104826 0.039438975243859836 0.9889480103716075 -0.0927339786234524 0.0028706520063693907 0.018319604480446745 -0.002439473960057113 -0.011665345162323761
 0.9889480103716075 -0.0927339786234524 0.008790186873917418 0.0394384965196569 -0.0024407250802505657 -0.011665242635454681 0.0028261493673260685 0.01832662166528049
 0.0028706520063693907 0.018319604480446745 -0.0024407250802505657 -0.011665242635454681 0.008782883443545516 0.03943745945618379 0.9889479063555925 -0.09273567376325546
 -0.002439473960057113 -0.011665345162323761 0.0028261493673260685 0.01832662166528049 0.9889479063555925 -0.09273567376325546 0.008790929832590208 0.03943681795328523
0.131304710296 0.00936941146109098 0.04158577088682369 0.9881741935086937 -0.09751568298538567 0.003133974868130178 0.019227452700082817 -0.0026616922279181637 -0.012244368551340774
 0.9881741935086937 -0.09751568298538567 0.009376465274340181 0.04158524570732803 -0.0026630674962459136 -0.012244247672516258 0.0030848983560628532 0.01923539666641818
 0.003133974868130178 0.019227452700082817 -0.0026630674962459136 -0.012244247672516258 0.009368413289494537 0.041584193227288395 0.9881740783361735 -0.09751746597502452
 -0.0026616922279181637 -0.012244368551340774 0.0030848983560628532 0.01923539666641818 0.9881740783361735 -0.09751746597502452 0.00937728587264053 0.04158348425686549
0.1375573155481 0.00985147524231702 0.04346715937538503 0.9874969368192529 -0.10203025311999131 0.0033782593695558974 0.020106118527428208 -0.0028630906711234333 -0.012794556351858468
 0.9874969368192529 -0.10203025311999131 0.009859221854581539 0.04346659758054769 -0.002864598455566353 -0.012794416835423253 0.003324496835829314 0.020114982959605083
 0.0033782593695558974 0.020106118527428208 -0.002864598455566353 -0.012794416835423253 0.009850381882813154 0.04346552140223358 0.9874968099630242 -0.10203212422940643
 -0.0028630906711234333 -0.012794556351858468 0.003324496835829314 0.020114982959605083 0.9874968099630242 -0.10203212422940643 0.009860123147368652 0.04346475345434147
0.1438099208003 0.010350681144806645 0.045337524637715544 0.98679549722329 -0.10653223883557662 0.0036323766624605197 0.02098048424884976 -0.003072494738039274 -0.013340820052960283
 0.98679549722329 -0.10653223883557662 0.010359153712004052 0.045336924326532246 -0.0030741410158567875 -0.013340660180795248 0.0035737245844923294 0.020990339424206795
 0.0036323766624605197 0.02098048424884976 -0.0030741410158567875 -0.013340660180795248 0.010349488484947265 0.04533582832558934 0.9867953580144854 -0.10653419850693768
 -0.003072494738039274 -0.013340820052960283 0.0035737245844923294 0.020990339424206795 0.9867953580144854 -0.10653419850693768 0.01036013955550625 0.04533499767833329
0.1500625260525 0.010866836082890845 0.04719667701012799 0.9860700725887802 -0.11102149402239236 0.0038962277474719944 0.021850436719738877 -0.003289808635842408 -0.013883054471390205
 0.9860700725887802 -0.11102149402239236 0.01087606787766697 0.047196036142553716 -0.0032915993684788777 -0.013882872456043931 0.0038324840601017605 0.02186135547215923
 0.0038962277474719944 0.021850436719738877 -0.0032915993684788777 -0.013882872456043931 0.010865540045444532 0.047194924410816734 0.9860699203412592 -0.11102354271421595
 -0.003289808635842408 -0.013883054471390205 0.0038324840601017605 0.02186135547215923 0.9860699203412592 -0.11102354271421595 0.010877142141896215 0.04719402712985848
0.15631513130469998 0.011399745392595053 0.04904443248616335 0.9853208620188266 -0.11549787385029622 0.00416971232734683 0.022715864971442075 -0.003514935280397978 -0.014421156856954744
 0.9853208620188266 -0.11549787385029622 0.011409769807330598 0.04904374887759572 -0.0035168764132836156 -0.014420950842018014 0.004100676448823283 0.022727922660326406
