! Created with skrf 1.8.0 (http://scikit-rf.org).
# GHz S RI R 50.0 
!freq ReS11 ImS11 ReS12 ImS12 ReS13 ImS13
! ReS14 ImS14
! ReS21 ImS21 ReS22 ImS22 ReS23 ImS23
! ReS24 ImS24
! ReS31 ImS31 ReS32 ImS32 ReS33 ImS33
! ReS34 ImS34
! ReS41 ImS41 ReS42 ImS42 ReS43 ImS43
! ReS44 ImS44
!
0.0 0.001638489889417 0.0 0.9983615101019 0.0 6.339338336989e-05 0.0 -6.339338443584e-05 7.763450533646909e-21
 0.9983615101019 0.0 0.001638489889425 0.0 -6.339338443557e-05 7.763450533613844e-21 6.339338336989e-05 0.0
 6.339338336989e-05 0.0 -6.339338443557e-05 7.763450533613844e-21 0.00163848989366 0.0 0.9983615101062 0.0
 -6.339338443584e-05 7.763450533646909e-21 6.339338336989e-05 0.0 0.9983615101062 0.0 0.001638489893687 0.0
0.005 0.0017631930279753286 0.0013395480144038467 0.9982037156502555 -0.0034318823955077544 8.898709488994636e-05 0.0007023757973288951 -8.64687793520819e-05 -0.0004401185313664866
 0.9982037156502555 -0.0034318823955077544 0.0017631712673484958 0.0013395606745081143 -8.646922201554291e-05 -0.0004401187943868557 8.9127695353788e-05 0.0007023223312002759
 8.898709488994636e-05 0.0007023757973288951 -8.646922201554291e-05 -0.0004401187943868557 0.0017631928356667884 0.0013394808009157772 0.9982037152970852 -0.003431949458740025
 -8.64687793520819e-05 -0.0004401185313664866 8.9127695353788e-05 0.0007023223312002759 0.9982037152970852 -0.003431949458740025 0.0017631707536042462 0.0013394937601373586
0.006252605252188 0.0017959895681103487 0.001679694985828149 0.9981619467067003 -0.004290678672074903 9.63189121881287e-05 0.0008783043870631743 -9.302284372310275e-05 -0.0005507127449791307
 0.9981619467067003 -0.004290678672074903 0.0017959555525240147 0.001679711037647405 -9.302353315713943e-05 -0.000550713067572828 9.653858765715619e-05 0.0008782349280740041
 9.63189121881287e-05 0.0008783043870631743 -9.302353315713943e-05 -0.000550713067572828 0.001795989318123987 0.0016796109763945583 0.9981619462047138 -0.0042907624862219195
 -9.302284372310275e-05 -0.0005507127449791307 9.653858765715619e-05 0.0008782349280740041 0.9981619462047138 -0.0042907624862219195 0.0017959547990716248 0.001679627416168989
0.01250521050438 0.0019691648265750816 0.0033944661945033007 0.9979399086649051 -0.008582065261687822 0.00013847154397030062 0.00175693554394495 -0.00013041898370544914 -0.0011040407875384894
 0.9979399086649051 -0.008582065261687822 0.001969029005788736 0.0033945005784742415 -0.0001304217080972051 -0.0011040413636475854 0.00013934757999052507 0.0017567681905880231
 0.00013847154397030062 0.00175693554394495 -0.0001304217080972051 -0.0011040413636475854 0.0019691644184607706 0.003394298339277846 0.9979399072421263 -0.008582232645635601
 -0.00013041898370544914 -0.0011040407875384894 0.00013934757999052507 0.0017567681905880231 0.9979399072421263 -0.008582232645635601 0.001969026570771009 0.0033943336464114736
0.01875781575657 0.0021584121029947618 0.005133505891151032 0.9976951067744221 -0.012884583471203458 0.00018995348039407465 0.002636474612203204 -0.00017570081563588724 -0.0016591687008068452
 0.9976951067744221 -0.012884583471203458 0.0021581069152196695 0.005133561053381445 -0.00017570690133068316 -0.001659169444469393 0.00019192144781200737 0.0026361751246426817
 0.00018995348039407465 0.002636474612203204 -0.00017570690133068316 -0.001659169444469393 0.0021584116268223387 0.005133254206946043 0.9976951040020013 -0.012884834310634878
 -0.00017570081563588724 -0.0016591687008068452 0.00019192144781200737 0.0026361751246426817 0.9976951040020013 -0.012884834310634878 0.002158101851671058 0.00513331099496555
0.02501042100875 0.002364115068940739 0.006894355876025856 0.9974272399130989 -0.01720029477564931 0.00025086741585494997 0.003516947020335099 -0.00022898307949445135 -0.0022158297294443854
 0.9974272399130989 -0.01720029477564931 0.002363573088164354 0.0068944344027414345 -0.0002289938401333261 -0.0022158305366506933 0.00025436306759167755 0.0035164755355778948
 0.00025086741585494997 0.003516947020335099 -0.0002289938401333261 -0.0022158305366506933 0.00236411462656951 0.006894020319509323 0.9974272353660468 -0.01720062899948857
 -0.00022898307949445135 -0.0022158297294443854 0.00025436306759167755 0.0035164755355778948 0.9974272353660468 -0.01720062899948857 0.0023635644448164374 0.006894101362792215
0.03126302626094 0.0025866415456532103 0.008675739021202155 0.9971359922988544 -0.021530066850079462 0.0003213160214122014 0.004398296439191201 -0.00029037701005869056 -0.0027738319731879036
 0.9971359922988544 -0.021530066850079462 0.0025857954413226205 0.008675843633406125 -0.0002903937486485332 -0.002773832721718313 0.00032677568913258586 0.004397607435672426
 0.0003213160214122014 0.004398296439191201 -0.0002903937486485332 -0.002773832721718313 0.002586641248573166 0.008675319529411616 0.9971359855542119 -0.021530484390063723
 -0.00029037701005869056 -0.0027738319731879036 0.00032677568913258586 0.004397607435672426 0.9971359855542119 -0.021530484390063723 0.002585782261127005 0.008675427757911752
0.037515631513130004 0.0028263511942869545 0.010476813463574363 0.9968210414723966 -0.025874319313531163 0.0004014010620700966 0.0052804340203772854 -0.0003599911317278631 -0.0033330091754431024
 0.9968210414723966 -0.025874319313531163 0.0028251337031187478 0.010476947014204228 -0.00036001514157947166 -0.0033330097247414375 0.00040926183065500047 0.00527947626011345
 0.0004014010620700966 0.0052804340203772854 -0.00036001514157947166 -0.0033330097247414375 0.002826351162684913 0.010476309944350972 0.9968210321096086 -0.025874820113676786
 -0.0003599911317278631 -0.0033330091754431024 0.00040926183065500047 0.00527947626011345 0.9968210321096086 -0.025874820113676786 0.00282511502329715 0.010476448441320122
0.043768236765320004 0.003083598485744875 0.01229694561415947 0.9964820615583917 -0.030233250647505178 0.0004912229700036712 0.006163253370230231 -0.0004379315319516997 -0.0038932057675113625
 0.9964820615583917 -0.030233250647505178 0.003081942388801275 0.012297111086510612 -0.0004379640971722139 -0.0038932059586213722 0.0005019227567682735 0.0061619698339156325
 0.0004912229700036712 0.006163253370230231 -0.0004379640971722139 -0.0038932059586213722 0.003083598846182973 0.012296357961299492 0.9964820491565721 -0.030233834648915634
 -0.0004379315319516997 -0.0038932057675113625 0.0005019227567682735 0.0061619698339156325 0.9964820491565721 -0.030233834648915634 0.0030819172392734908 0.01229652996189436
0.050020842017509996 0.00335873406539633 0.014135616378245184 0.9961187249220683 -0.03460693190227521 0.0005908805739062024 0.007046636750300775 -0.0005243019540061401 -0.004454270686863698
 0.9961187249220683 -0.03460693190227521 0.0033565721674514155 0.014135816885137148 -0.0005243443497549742 -0.004454270342372127 0.0006048581571983088 0.007044964569612066
 0.0005908805739062024 0.007046636750300775 -0.0005243443497549742 -0.004454270342372127 0.0033587349514624804 0.014134944457827226 0.9961187090621227 -0.03460759905688303
 -0.0005243019540061401 -0.004454270686863698 0.0006048581571983088 0.007044964569612066 0.9961187090621227 -0.03460759905688303 0.0033565395722473935 0.014135153348699189
0.055454545454549996 0.003612632669086703 0.015748181397462733 0.9957829386921525 -0.038419765638973605 0.0006855492440384069 0.007814684013881305 -0.0006062854930747047 -0.004942442125447759
 0.9957829386921525 -0.038419765638973605 0.0036099766482065986 0.015748414978841035 -0.0006063374605244591 -0.004942441157042802 0.0007027323412542118 0.007812618438187788
 0.0006855492440384069 0.007814684013881305 -0.0006063374605244591 -0.004942441157042802 0.003612634125105498 0.015747436129941395 0.9957829194872994 -0.0384205050112616
 -0.0006062854930747047 -0.004942442125447759 0.0007027323412542118 0.007812618438187788 0.9957829194872994 -0.0384205050112616 0.003609936785462461 0.01574767994761941
0.056273447269699996 0.0036521054481248585 0.0159923750999497 0.9957307031617205 -0.038995352681547565 0.0007004709016148229 0.00793045811030189 -0.0006192038041732383 -0.005016054366439779
 0.9957307031617205 -0.038995352681547565 0.0036493705587618327 0.015992613883507735 -0.0006192572967297144 -0.0050160532904201345 0.0007181659190913032 0.007928328498963489
 0.0007004709016148229 0.00793045811030189 -0.0006192572967297144 -0.0050160532904201345 0.003652106999540439 0.015991618769117553 0.9957306834254576 -0.03899610293323105
 -0.0006192038041732383 -0.005016054366439779 0.0007181659190913032 0.007928328498963489 0.9957306834254576 -0.03899610293323105 0.003649329536228526 0.015991868088428653
0.06252605252188 0.003964057380706057 0.017866814266202003 0.9953176677710706 -0.04339844637163353 0.0008200890159502725 0.008814584775145969 -0.0007227361187306553 -0.005578407074493819
 0.9953176677710706 -0.04339844637163353 0.003960682295805366 0.01786709469827651 -0.0007228019654695199 -0.005578405052462574 0.0008419419422723714 0.00881192295960698
 0.0008200890159502725 0.008814584775145969 -0.0007228019654695199 -0.005578405052462574 0.003964059742082167 0.01786597336163696 0.9953176437407162 -0.04339927966776175
 -0.0007227361187306553 -0.005578407074493819 0.0008419419422723714 0.00881192295960698 0.9953176437407162 -0.04339927966776175 0.003960631858383868 0.017866266799767244
0.06877865777407 0.004294932021051269 0.0197585544182148 0.9948792906239453 -0.047816105168597016 0.0009498278712943694 0.009698878446380734 -0.0008349955051190615 -0.006141177945442247
 0.9948792906239453 -0.047816105168597016 0.004290849505023805 0.01975888000137342 -0.0008350749544895811 -0.006141174744328965 0.0009762799814395982 0.009695603596528274
 0.0009498278712943694 0.009698878446380734 -0.0008350749544895811 -0.006141174744328965 0.004294935342291874 0.019757628760032214 0.9948792618832454 -0.047817021456252384
 -0.0008349955051190615 -0.006141177945442247 0.0009762799814395982 0.009695603596528274 0.9948792618832454 -0.047817021456252384 0.004290788660117118 0.01975797016080793
0.07503126302626001 0.004645069012305084 0.021667234580189543 0.9944152443577877 -0.05224818959433777 0.0010897781805459619 0.010583195849109073 -0.0009560760691223513 -0.006704214371043256
 0.9944152443577877 -0.05224818959433777 0.00464021178020606 0.021667608949275947 -0.000956170360494541 -0.006704209739150904 0.0011212715025585949 0.010579221009342615
 0.0010897781805459619 0.010583195849109073 -0.000956170360494541 -0.006704209739150904 0.004645073447626938 0.021666223973339636 0.9944152104913812 -0.052249188818788754
 -0.0009560760691223513 -0.006704214371043256 0.0011212715025585949 0.010579221009342615 0.9944152104913812 -0.052249188818788754 0.004640139530445815 0.021666617335917026
0.08128386827845 0.005014805487536594 0.023592505912790333 0.9939252026917594 -0.05669453479434236 0.0012400282895472894 0.011467389172178207 -0.0010860693321059704 -0.007267361604458618
 0.9939252026917594 -0.05669453479434236 0.005009106187768587 0.023592932837081727 -0.001086179695638704 -0.0072673552714442894 0.0012770055482690056 0.01146262119303083
 0.0012400282895472894 0.011467389172178207 -0.001086179695638704 -0.0072673552714442894 0.005014811194835336 0.023591410147422956 0.9939251632853182 -0.056695616898799484
 -0.0010860693321059704 -0.007267361604458618 0.0012770055482690056 0.01146262119303083 0.9939251632853182 -0.056695616898799484 0.00500902153109985 0.02359185962862693
0.08753647353064001 0.005404476029427809 0.02553402731278548 0.9934088407043771 -0.061154954896489505 0.0014006640554950194 0.012351306380334822 -0.001225064141601334 -0.007830462498693956
 0.9934088407043771 -0.061154954896489505 0.005397867225919209 0.02553451069881923 -0.0012251917980199848 -0.007830454175558929 0.0014435686099301974 0.012345645850827923
 0.0014006640554950194 0.012351306380334822 -0.0012251917980199848 -0.007830454175558929 0.0054044831694068235 0.025532846161888154 0.9934087953442907 -0.06115611982453412
 -0.001225064141601334 -0.007830462498693956 0.0014435686099301974 0.012345645850827923 0.9934087953442907 -0.06115611982453412 0.005397769155924875 0.02553335607917931
0.09378907878283 0.00581441259925091 0.02749146227689795 0.9928658350842494 -0.06562924611295712 0.0015717687288823502 0.013234791447393588 -0.0013731465768834297 -0.00839335733075883
 0.9928658350842494 -0.06562924611295712 0.005806826753855035 0.027492006171800178 -0.0013732927373025217 -0.008393346709826782 0.0016210445035374334 0.01322813262822951
 0.0015717687288823502 0.013234791447393588 -0.0013732927373025217 -0.008393346709826782 0.005814421335525733 0.027490195497736177 0.99286578335811 -0.06563049380715304
 -0.0013731465768834297 -0.00839335733075883 0.0016210445035374334 0.01322813262822951 0.99286578335811 -0.06563049380715304 0.0058067142606166525 0.02749077033287386
0.100041684035 0.006244944443461609 0.029464476609558504 0.9922958643615947 -0.07011718900606431 0.001753422837290657 0.014117684535357921 -0.0015303998512839337 -0.008955883686529205
 0.9922958643615947 -0.07011718900606431 0.00623631389832865 0.029465085205133985 -0.0015305657169757342 -0.008955870441453146 0.0018095142484113123 0.014109915293129953
 0.001753422837290657 0.014117684535357921 -0.0015305657169757342 -0.008955870441453146 0.006244954941260693 0.029463123944998962 0.9922958058579091 -0.07011851940666519
 -0.0015303998512839337 -0.008955883686529205 0.0018095142484113123 0.014109915293129953 0.9922958058579091 -0.07011851940666519 0.006236185968111653 0.029463768348178022
0.1059090909091 0.006667974902727787 0.03132981337902709 0.9917361982732679 -0.0743408557397244 0.0019335497894807006 0.014945502061132073 -0.0016863776710672848 -0.009483272775248786
 0.9917361982732679 -0.0743408557397244 0.0066583023613847915 0.031330486634682915 -0.0016865631115964756 -0.00948325675426255 0.0019964415134999507 0.0149365830678281
 0.0019335497894807006 0.014945502061132073 -0.0016865631115964756 -0.00948325675426255 0.006667987205228788 0.03132837987406019 0.9917361330364886 -0.07434226369464206
 -0.0016863776710672848 -0.009483272775248786 0.0019964415134999507 0.0149365830678281 0.9917361330364886 -0.07434226369464206 0.006658159020851621 0.03132909394307823
0.1062942892872 0.006696397982715607 0.031452736697781 0.991698609127014 -0.07461855019488245 0.001945704070634128 0.014999822144651046 -0.0016969042118881155 -0.00951787638158926
 0.991698609127014 -0.07461855019488245 0.006686654942419247 0.03145341433519402 -0.0016970909740257323 -0.009517860167363276 0.0020090559479927898 0.014990823887096594
 0.001945704070634128 0.014999822144651046 -0.0016970909740257323 -0.009517860167363276 0.006696410408852536 0.031451297877120435 0.991698543435603 -0.0746199632391587
 -0.0016969042118881155 -0.00951787638158926 0.0020090559479927898 0.014990823887096594 0.991698543435603 -0.0746199632391587 0.006686510558769151 0.03145201667183888
0.11254689453939999 0.007169096689390538 0.03345590820784051 0.9910737522412204 -0.0791330836484501 0.0021486871674146397 0.01588103723690601 -0.0018727368372797191 -0.010079167416552508
 0.9910737522412204 -0.0791330836484501 0.007158173203262241 0.033456659382984526 -0.0018729456766728638 -0.010079147869521165 0.0022197446724633624 0.015870684849310143
 0.0021486871674146397 0.01588103723690601 -0.0018729456766728638 -0.010079147869521165 0.007169111211412163 0.0334543829426541 0.9910736789526416 -0.07913457927492552
 -0.0018727368372797191 -0.010079167416552508 0.0022197446724633624 0.015870684849310143 0.9910736789526416 -0.07913457927492552 0.007158011346905515 0.03345518113124055
0.11879949979160001 0.007663360954492617 0.035473655062769796 0.9904209790370417 -0.08366053170655917 0.0023624438020011227 0.01676115934459281 -0.0020579717339144245 -0.0106395859528382
 0.9904209790370417 -0.08366053170655917 0.007651188898231518 0.035474484432355055 -0.002058203820794317 -0.010639562690697112 0.0024416523421477336 0.016749321127502156
 0.0023624438020011227 0.01676115934459281 -0.002058203820794317 -0.010639562690697112 0.007663377740313176 0.03547204305014508 0.9904208977434441 -0.08366210985187124
 -0.0020579717339144245 -0.0106395859528382 0.0024416523421477336 0.016749321127502156 0.9904208977434441 -0.08366210985187124 0.0076510085478375565 0.035472925819928176
0.1250521050438 0.008179507947143267 0.03750563864785651 0.9897399775183475 -0.08820062588133375 0.002587042472812165 0.017640014668609354 -0.0022526796314165415 -0.011198958307783492
 0.9897399775183475 -0.08820062588133375 0.008166019005082166 0.037506551036219825 -0.0022529361250896553 -0.011198930929666336 0.002674847612393563 0.017626552276881167
 0.002587042472812165 0.017640014668609354 -0.0022529361250896553 -0.011198930929666336 0.008179527163956505 0.037503939570713414 0.9897398878124233 -0.0882022864801122
 -0.0022526796314165415 -0.011198958307783492 0.002674847612393563 0.017626552276881167 0.9897398878124233 -0.0882022864801122 0.008165819137275102 0.03750491230090133
0.131304710296 0.008717851466977235 0.03955151717699089 0.989030438553052 -0.0927530875070273 0.002822548390917575 0.0185174261703285 -0.002456927877223643 -0.011757107962939835
 0.989030438553052 -0.0927530875070273 0.008702977113649386 0.0395525175835875 -0.0024572099258496592 -0.01175707604939289 0.002919395759223177 0.018502194553505324
 0.002822548390917575 0.0185174261703285 -0.0024572099258496592 -0.01175707604939289 0.008717873281158748 0.03954973070387817 0.9890303400289692 -0.09275483049214278
 -0.002456927877223643 -0.011757107962939835 0.002919395759223177 0.018502194553505324 0.9890303400289692 -0.09275483049214278 0.00870275670374919 0.03955079897312803
0.1375573155481 0.009158648603833879 0.041344459040366946 0.9884121652608158 -0.09705099078701136 0.003039729528764551 0.019366857246848404 -0.002641377580875731 -0.012287601749471801
 0.9884121652608158 -0.09705099078701136 0.009142314311520548 0.041345531806859 -0.002641686674927186 -0.012287565237766054 0.0031458389898840334 0.01934987258989091
 0.003039729528764551 0.019366857246848404 -0.002641686674927186 -0.012287565237766054 0.009158672179121823 0.04134258529615388 0.9884120575248662 -0.09705281606567481
 -0.002641377580875731 -0.012287601749471801 0.0031458389898840334 0.01934987258989091 0.9884120575248662 -0.09705281606567481 0.009142073307200219 0.04134373304208004
0.1438099208003 0.00961506617580283 0.04312736518446702 0.9877719508216165 -0.10133739931317112 0.0032656484648375702 0.02021255673832331 -0.0028331831202074707 -0.012814605058697439
 0.9877719508216165 -0.10133739931317112 0.009597202212181874 0.043128514235004536 -0.002833520453599553 -0.012814563540710821 0.0033814249916605454 0.020193685828051273
 0.0032656484648375702 0.02021255673832331 -0.002833520453599553 -0.012814563540710821 0.009615091493676828 0.04312540387211716 0.9877718334730013 -0.10133930680733107
 -0.0028331831202074707 -0.012814605058697439 0.0033814249916605454 0.020193685828051273 0.9877718334730013 -0.10133930680733107 0.009596939762102569 0.04312663550237704
0.1500625260525 0.010086935217407602 0.04490006882790703 0.9871099688606877 -0.1056121885426049 0.003500221114124615 0.021054429103575852 -0.0030322613270697663 -0.013338025430768004
 0.9871099688606877 -0.1056121885426049 0.010067471616076287 0.04490129835592897 -0.003032628087135103 -0.013337978482699915 0.0036260671399606656 0.021033533844590235
 0.003500221114124615 0.021054429103575852 -0.003032628087135103 -0.013337978482699915 0.010086962245814965 0.04489801963875026 0.9871098415001984 -0.10561417817304054
 -0.0030322613270697663 -0.013338025430768004 0.0036260671399606656 0.021033533844590235 0.9871098415001984 -0.10561417817304054 0.010067186878566942 0.04489933984446044
0.15631513130469998 0.01057408546122572 0.04666240816724646 0.986426394003881 -0.10987523476253068 0.003743362337518189 0.021892380563439624 -0.0032385279496205026 -0.013857772463183258
 0.986426394003881 -0.10987523476253068 0.010552952014900628 0.04666372264516039 -0.003238925317034563 -0.013857719645674354 0.0038796777163874726 0.02186931802994755
