! Created with skrf 1.8.0 (http://scikit-rf.org).
# GHz S RI R 50.0 
!freq ReS11 ImS11 ReS12 ImS12 ReS13 ImS13
! ReS14 ImS14
! ReS21 ImS21 ReS22 ImS22 ReS23 ImS23
! ReS24 ImS24
! ReS31 ImS31 ReS32 ImS32 ReS33 ImS33
! ReS34 ImS34
! ReS41 ImS41 ReS42 ImS42 ReS43 ImS43
! ReS44 ImS44
!
0.0 0.001752927694104 0.0 0.9982470723002 0.0 6.804743302066e-05 0.0 -6.804743338667e-05 8.333407148717815e-21
 0.9982470723002 0.0 0.001752927694093 0.0 -6.804743338675e-05 8.333407148727612e-21 6.804743302005e-05 0.0
 6.804743302066e-05 0.0 -6.804743338675e-05 8.333407148727612e-21 0.001752927693385 0.0 0.9982470722995 0.0
 -6.804743338667e-05 8.333407148717815e-21 6.804743302005e-05 0.0 0.9982470722995 0.0 0.001752927693374 0.0
0.005 0.0018867052238407303 0.0014318212031570441 0.9980777025085938 -0.0036713008865150963 9.599779033007448e-05 0.0007591885784469091 -9.309950592437719e-05 -0.0004747560555094157
 0.9980777025085938 -0.0036713008865150963 0.0018867181782993335 0.0014318135545774847 -9.310070813730437e-05 -0.00047475688340589803 9.59208250886531e-05 0.0007592179817494007
 9.599779033007448e-05 0.0007591885784469091 -9.310070813730437e-05 -0.00047475688340589803 0.0018867054517217642 0.0014318882795731909 0.9980777028855756 -0.003671233823349402
 -9.309950592437719e-05 -0.0004747560555094157 9.59208250886531e-05 0.0007592179817494007 0.9980777028855756 -0.003671233823349402 0.0018867186910851341 0.001431880591139568
0.006252605252188 0.0019219949271929713 0.0017953876314408673 0.998032708460105 -0.004589991608862093 0.00010410068600820304 0.000949335357800015 -0.0001002682125480113 -0.000594048410577842
 0.998032708460105 -0.004589991608862093 0.0019220151778121656 0.0017953778906960116 -0.00010027008402403464 -0.000594049428963647 0.00010398043703879238 0.0009493735494206263
 0.00010410068600820304 0.000949335357800015 -0.00010027008402403464 -0.000594049428963647 0.0019219952145275495 0.0017954714602173166 0.9980327089802247 -0.004589907782270398
 -0.0001002682125480113 -0.000594048410577842 0.00010398043703879238 0.0009493735494206263 0.9980327089802247 -0.004589907782270398 0.0019220159095656737 0.0017954616857088475
0.01250521050438 0.002108954388282734 0.003628134659332923 0.9977926070702309 -0.00918055298269192 0.00015118945658164346 0.0018988997220428848 -0.0001414550990352353 -0.0011908469796094515
 0.9977926070702309 -0.00918055298269192 0.0021090352591645422 0.003628113353077461 -0.00014146248329000003 -0.0011908488325648298 0.0001507099814599195 0.0018989917550999318
 0.00015118945658164346 0.0018988997220428848 -0.00014146248329000003 -0.0011908488325648298 0.0021089549644548356 0.003628301903753865 0.9977926085721882 -0.009180385555684734
 -0.0001414550990352353 -0.0011908469796094515 0.0001507099814599195 0.0018989917550999318 0.9977926085721882 -0.009180385555684734 0.00210903759101434 0.003628280692622474
0.01875781575657 0.00231425708540887 0.0054866500487023824 0.9975264394940994 -0.013782807345686938 0.00020942866101563473 0.0028493033622095003 -0.0001917438207661778 -0.0017894910247390032
 0.9975264394940994 -0.013782807345686938 0.0023144388261922195 0.005486615205175756 -0.00019176029993862702 -0.001789493484914959 0.00020835169691263883 0.0028494682698865046
 0.00020942866101563473 0.0028493033622095003 -0.00019176029993862702 -0.001789493484914959 0.0023142579702400317 0.005486900381665454 0.9975264424556337 -0.013782556349225875
 -0.0001917438207661778 -0.0017894910247390032 0.00020835169691263883 0.0028494682698865046 0.9975264424556337 -0.013782556349225875 0.002314443618907634 0.005486865931800408
0.02501042100875 0.0025383380521302678 0.007368275010092868 0.9972338630521275 -0.018398930195480598 0.0002789347067141058 0.0038005508448940273 -0.00025126467426752496 -0.00238967311095842
 0.9972338630521275 -0.018398930195480598 0.0025386608435826624 0.0073682245228358 -0.0002512937910592609 -0.002389675904155008 0.00027702199887605464 0.003800810938044038
 0.0002789347067141058 0.0038005508448940273 -0.0002512937910592609 -0.002389675904155008 0.002538339257699873 0.007368608054924454 0.9972338679459276 -0.01839859560006146
 -0.00025126467426752496 -0.00238967311095842 0.00027702199887605464 0.003800810938044038 0.9972338679459276 -0.01839859560006146 0.002538668928116769 0.007368558437809619
0.03126302626094 0.002781614204662399 0.00927161344447604 0.9969145192612902 -0.02302981884973988 0.0003598239466778152 0.0047525571796594454 -0.0003201435631883837 -0.0029911668945641623
 0.9969145192612902 -0.02302981884973988 0.002782118180870342 0.009271545074202357 -0.0003201888273281638 -0.002991169699262488 0.00035683704079069183 0.00475293806451143
 0.0003598239466778152 0.0047525571796594454 -0.0003201888273281638 -0.002991169699262488 0.002781615747507795 0.00927202876399833 0.9969145265704619 -0.023029400575782205
 -0.0003201435631883837 -0.0029911668945641623 0.00035683704079069183 0.00475293806451143 0.9969145265704619 -0.023029400575782205 0.0027821303720882225 0.009271961927095436
0.037515631513130004 0.0030444928459899346 0.01119573396871735 0.9965680427083944 -0.027675890364946474 0.00045221145913473343 0.005705201457783794 -0.0003985028973643637 -0.0035937735133947193
 0.9965680427083944 -0.027675890364946474 0.003045218109339312 0.011195645343933528 -0.00039856778872114824 -0.003593775960581444 0.00044791161718501864 0.005705732066390638
 0.00045221145913473343 0.005705201457783794 -0.00039856778872114824 -0.003593775960581444 0.0030444947383869996 0.011196231060231085 0.9965680529215257 -0.027675388287420413
 -0.0003985028973643637 -0.0035937735133947193 0.00044791161718501864 0.005705732066390638 0.9965680529215257 -0.027675388287420413 0.0030452351986608515 0.011196144827780726
0.043768236765320004 0.0033273749257784037 0.013139927098853333 0.9961940646823286 -0.03233732428609357 0.0005562104552255961 0.006658343169503294 -0.0004864618964192964 -0.004197305302974175
 0.9961940646823286 -0.03233732428609357 0.00332836155886879 0.01313981571595566 -0.0004865498666553582 -0.004197306976032346 0.000550358624195985 0.0066590557940139905
 0.0005562104552255961 0.006658343169503294 -0.0004865498666553582 -0.004197306976032346 0.003327377175624528 0.013140505387357638 0.9961940782971431 -0.03233673824094647
 -0.0004864618964192964 -0.004197305302974175 0.000550358624195985 0.0066590557940139905 0.9961940782971431 -0.03233673824094647 0.0033283843158442247 0.013140397460648262
0.050020842017509996 0.003630656537718228 0.015103604899055132 0.9957922150490672 -0.037014162930551965 0.00067193191150828 0.007611828963324756 -0.0005841366779721081 -0.004801579076231509
 0.9957922150490672 -0.037014162930551965 0.003631944614395948 0.015103468121730535 -0.0005842511516275598 -0.004801579510856063 0.0006642887205314084 0.007612759291604757
 0.00067193191150828 0.007611828963324756 -0.0005842511516275598 -0.004801579510856063 0.0036306591467108913 0.01510426373664473 0.9957922325736396 -0.037013492714917384
 -0.0005841366779721081 -0.004801579076231509 0.0006642887205314084 0.007612759291604757 0.9957922325736396 -0.037013492714917384 0.003631973785162803 0.015104131693749995
0.055454545454549996 0.003911088895338491 0.016825522604094645 0.9954200726880061 -0.041090954097411106 0.0007821017460563985 0.00844059015379489 -0.0006769972747017393 -0.005327172543524083
 0.9954200726880061 -0.041090954097411106 0.003912671480812139 0.01682536151369862 -0.0006771375410431775 -0.005327171487775917 0.0007727071742106174 0.008441741320544519
 0.0007821017460563985 0.00844059015379489 -0.0006771375410431775 -0.005327171487775917 0.003911091811327734 0.016826250853447633 0.9954200940324192 -0.04109021054517617
 -0.0006769972747017393 -0.005327172543524083 0.0007727071742106174 0.008441741320544519 0.9954200940324192 -0.04109021054517617 0.003912706812795842 0.01682609578971434
0.056273447269699996 0.00395472966653128 0.017086251731548367 0.9953621233811707 -0.04170636057468663 0.0007994842997405513 0.00856549596751672 -0.0006916402520231383 -0.005406412847838671
 0.9953621233811707 -0.04170636057468663 0.003956359261348543 0.017086086790145796 -0.0006917846269503036 -0.005406411531998873 0.0007898100742821097 0.008566683119167305
 0.0007994842997405513 0.00856549596751672 -0.0006917846269503036 -0.005406411531998873 0.003954732627782455 0.017086990392622015 0.9953621453357397 -0.04170560595161392
 -0.0006916402520231383 -0.005406412847838671 0.0007898100742821097 0.008566683119167305 0.9953621453357397 -0.04170560595161392 0.003956395568039159 0.01708683168767833
0.06252605252188 0.004299982565868701 0.01908739718442383 0.994903419724195 -0.04641381046956805 0.0009389733651047454 0.009519173631022565 -0.0008090824671508661 -0.006011624046738303
 0.994903419724195 -0.04641381046956805 0.004301993763790225 0.019087201174547323 -0.0008092601148533718 -0.006011620420623378 0.0009270281527655906 0.009520660193332
 0.0009389733651047454 0.009519173631022565 -0.0008092601148533718 -0.006011620420623378 0.004299985861062524 0.019088214871319144 0.9949034466414578 -0.046412971162154294
 -0.0008090824671508661 -0.006011624046738303 0.0009270281527655906 0.009520660193332 0.9949034466414578 -0.046412971162154294 0.0043020379020622095 0.019088026833449
0.06877865777407 0.004666799934287188 0.021106599944097734 0.9944157351663002 -0.05113636091949533 0.0010905019334692136 0.010472684833375386 -0.0009365699276064587 -0.0066170284677638394
 0.9944157351663002 -0.05113636091949533 0.004669232839454507 0.02110636982525366 -0.0009367841932580339 -0.006617021923763232 0.0010760455378994204 0.010474516896925514
 0.0010905019334692136 0.010472684833375386 -0.0009367841932580339 -0.006617021923763232 0.004666803532023251 0.021107495782783207 0.9944157675937269 -0.05113543661514788
 -0.0009365699276064587 -0.0066170284677638394 0.0010760455378994204 0.010474516896925514 0.9944157675937269 -0.05113543661514788 0.004669285478160641 0.02110727561466743
0.07503126302626001 0.005055562969751074 0.02314343757387893 0.9938987022916431 -0.05587382546345984 0.0012541697337344426 0.011425846602918892 -0.001074205894413754 -0.007222439623529368
 0.9938987022916431 -0.05587382546345984 0.0050584577146831474 0.023143170167410427 -0.001074460096756105 -0.007222429506214988 0.0012369617548758046 0.011428073796629967
 0.0012541697337344426 0.011425846602918892 -0.001074460096756105 -0.007222429506214988 0.005055566823201793 0.023144410615325416 0.9938987407928045 -0.05587281581268908
 -0.001074205894413754 -0.007222439623529368 0.0012369617548758046 0.011428073796629967 0.9938987407928045 -0.05587281581268908 0.005058519494590043 0.023144155391209488
0.08128386827845 0.0054666493491485535 0.025197499715870236 0.9933519555632774 -0.06062598964265217 0.0014300732304701519 0.01237847061165547 -0.001222090175437193 -0.00782766832854452
 0.9933519555632774 -0.06062598964265217 0.005470046103530256 0.02519719170267533 -0.0012223876066838797 -0.007827653934659748 0.0014098731096208615 0.012381146137126691
 0.0014300732304701519 0.01237847061165547 -0.0012223876066838797 -0.007827653934659748 0.005466653394500985 0.025198548936190016 0.9933520007198411 -0.06062489425895918
 -0.001222090175437193 -0.00782766832854452 0.0014098731096208615 0.012381146137126691 0.9933520007198411 -0.06062489425895918 0.0054701176360293325 0.025198255599808726
0.08753647353064001 0.005900433158822505 0.027268383413881284 0.9927751316622571 -0.06539261565703207 0.0016183054639244872 0.013330363529435828 -0.0013803190074193953 -0.008432522433033995
 0.9927751316622571 -0.06539261565703207 0.005904372138219849 0.027268031331742097 -0.0013806629328819492 -0.008432503011508512 0.0015948725329440504 0.013333544194586322
 0.0016183054639244872 0.013330363529435828 -0.0013806629328819492 -0.008432503011508512 0.005900437311704841 0.027269507711006963 0.9927751840743441 -0.06539143412057807
 -0.0013803190074193953 -0.008432522433033995 0.0015948725329440504 0.013333544194586322 0.9927751840743441 -0.06539143412057807 0.005904454003534619 0.027269173072706234
0.09378907878283 0.006357284787133765 0.029355689761136027 0.9921678697924566 -0.07017344570760166 0.0018189558942830974 0.014281327298096771 -0.0015489849331484147 -0.009036806646320316
 0.9921678697924566 -0.07017344570760166 0.006361806261821931 0.029355290001614152 -0.0015493785909836972 -0.009036781398285907 0.0017920494281043707 0.014285073549834673
 0.0018189558942830974 0.014281327298096771 -0.0015493785909836972 -0.009036781398285907 0.006357288941258992 0.029356887958783665 0.992167930081142 -0.07017217756151613
 -0.0015489849331484147 -0.009036806646320316 0.0017920494281043707 0.014285073549834673 0.992167930081142 -0.07017217756151613 0.0063618990078416395 0.029356508692598725
0.100041684035 0.006837570794617774 0.03145902146698353 0.9915298119677736 -0.07496820443050603 0.00203211024926944 0.015231159347304324 -0.0017281766750517566 -0.009640322427929933
 0.9915298119677736 -0.07496820443050603 0.0068427150979901265 0.03145857027192085 -0.0017286232758044263 -0.009640290506759356 0.002001489521448753 0.015235535303265922
 0.00203211024926944 0.015231159347304324 -0.0017286232758044263 -0.009640290506759356 0.006837574819194881 0.03146029231360079 0.9915298807764824 -0.07496684918252808
 -0.0017281766750517566 -0.009640322427929933 0.002001489521448753 0.015235535303265922 0.9915298807764824 -0.07496684918252808 0.006842819239366469 0.03145986495357658
0.1059090909091 0.007309904622059113 0.033446995990714296 0.9909027376038098 -0.07947998582023323 0.002243578144704616 0.01612126244680413 -0.0019059778010364584 -0.010205779331768533
 0.9909027376038098 -0.07947998582023323 0.007315670131261554 0.033446492974021295 -0.001906476978116074 -0.010205740336064603 0.0022092530881482383 0.016126290924537184
 0.002243578144704616 0.01612126244680413 -0.001906476978116074 -0.010205740336064603 0.007309908382047592 0.033448333804591224 0.9909028150138216 -0.07947854835837237
 -0.0019059778010364584 -0.010205779331768533 0.0022092530881482383 0.016126290924537184 0.9909028150138216 -0.07947854835837237 0.007315785402431582 0.03344785803325482
0.1062942892872 0.007341653763722294 0.03357798102911261 0.9908606032822211 -0.07977660073686153 0.0022578503747570206 0.016179652775144483 -0.0019179790056496034 -0.010242867923792285
 0.9908606032822211 -0.07977660073686153 0.007347461301510954 0.033577474486708364 -0.0019184817318671347 -0.010242828435141474 0.002223274715684032 0.016184726254419936
 0.0022578503747570206 0.016179652775144483 -0.0019184817318671347 -0.010242828435141474 0.007341657501008642 0.03357932319652469 0.9908606812780758 -0.07977515786123426
 -0.0019179790056496034 -0.010242867923792285 0.002223274715684032 0.016184726254419936 0.9908606812780758 -0.07977515786123426 0.0073475773174493985 0.03357884413286826
0.11254689453939999 0.007869892135894944 0.035712169350267435 0.9901598921709284 -0.0845983292197838 0.002496254086912911 0.017126596504375195 -0.002118472616858475 -0.010844237936599978
 0.9901598921709284 -0.0845983292197838 0.007876403394557061 0.03571160339070896 -0.0021190346226025603 -0.010844189938481822 0.002457482944300949 0.017132439057171493
 0.002496254086912911 0.017126596504375195 -0.0021190346226025603 -0.010844189938481822 0.007869895398920305 0.03571358143690909 0.9901599800463414 -0.08459679815469219
 -0.002118472616858475 -0.010844237936599978 0.002457482944300949 0.017132439057171493 0.9901599800463414 -0.08459679815469219 0.007876531727868714 0.03571304691145332
0.11879949979160001 0.008422640037189037 0.03786118467128896 0.9894273306624307 -0.08943307125663169 0.00274739502661225 0.0180717754244529 -0.002329733987589755 -0.011444223920597598
 0.9894273306624307 -0.08943307125663169 0.008429895592601983 0.03786055506199689 -0.0023303583979608425 -0.01144416642345353 0.0027041880281908365 0.018078462360495227
 0.00274739502661225 0.0180717754244529 -0.0023303583979608425 -0.01144416642345353 0.008422642607277375 0.037862665199677265 0.9894274291366366 -0.0894314514075886
 -0.002329733987589755 -0.011444223920597598 0.0027041880281908365 0.018078462360495227 0.9894274291366366 -0.0894314514075886 0.00843003664808373 0.0378620713010748
0.1250521050438 0.009000247095010447 0.04002462173530341 0.9886625746250208 -0.09428049589249277 0.0030113425151478412 0.019014970521019636 -0.0025518352509569663 -0.01204261399892397
 0.9886625746250208 -0.09428049589249277 0.009008287621279995 0.04002392407565494 -0.0025525251615319076 -0.01204254596572123 0.0029634595333225254 0.019022580936902487
 0.0030113425151478412 0.019014970521019636 -0.0025525251615319076 -0.01204254596572123 0.009000248719665626 0.04002616915606628 0.9886626844462538 -0.09427878662927656
 -0.0025518352509569663 -0.01204261399892397 0.0029634595333225254 0.019022580936902487 0.9886626844462538 -0.09427878662927656 0.009008441764367853 0.04002551181440452
0.131304710296 0.009603058248826152 0.04220207113828441 0.9878652840099351 -0.09914026054948381 0.0032881614116998252 0.01995595900082227 -0.002784844061027395 -0.012639192995977731
 0.9878652840099351 -0.09914026054948381 0.009611924526763809 0.04220130085393723 -0.002785602537350832 -0.012639113342300744 0.003235362630165703 0.019964575805979802
 0.0032881614116998252 0.01995595900082227 -0.002785602537350832 -0.012639113342300744 0.009603058638920813 0.04220368382631584 0.9878654059563928 -0.09913846121106681
 -0.002784844061027395 -0.012639192995977731 0.003235362630165703 0.019964575805979802 0.9878654059563928 -0.09913846121106681 0.009612092081929695 0.04220295880724834
0.1375573155481 0.010100292915395551 0.04410957767979627 0.9871663085108854 -0.10372830643308828 0.003545299166487882 0.020867059919187927 -0.0029962734237031674 -0.013206263528272543
 0.9871663085108854 -0.10372830643308828 0.010110027639843644 0.04410874684390059 -0.0029971047764286644 -0.013206172053497958 0.003487462273036592 0.020876677000660683
 0.003545299166487882 0.020867059919187927 -0.0029971047764286644 -0.013206172053497958 0.010100290838152873 0.04411125479905887 0.9871664431667884 -0.10372641659877731
 -0.0029962734237031674 -0.013206263528272543 0.003487462273036592 0.020876677000660683 0.9871664431667884 -0.10372641659877731 0.010110210210702813 0.044110473289108124
0.1438099208003 0.010615222649740798 0.04600568106884452 0.986442330313545 -0.10830334407514838 0.003812781974817219 0.021773585786950978 -0.0032161013007484447 -0.013769170135626403
 0.986442330313545 -0.10830334407514838 0.010625866988969807 0.04600478610195467 -0.0032170087767207645 -0.013769065771148701 0.003749688775813683 0.021784279600434994
 0.003812781974817219 0.021773585786950978 -0.0032170087767207645 -0.013769065771148701 0.010615217591700235 0.04600742099120037 0.986442478461004 -0.1083013630916429
 -0.0032161013007484447 -0.013769170135626403 0.003749688775813683 0.021784279600434994 0.986442478461004 -0.1083013630916429 0.01062606507289728 0.046006579620032996
0.1500625260525 0.011147644769498297 0.04789018272846054 0.9856935570852624 -0.11286521859344324 0.004090503494691399 0.022675415312416857 -0.0034442249424488274 -0.014327800476335058
 0.9856935570852624 -0.11286521859344324 0.011159239992578817 0.04788921983771761 -0.0034452117747311986 -0.014327682111380117 0.004021937443446698 0.022687265083665243
 0.004090503494691399 0.022675415312416857 -0.0034452117747311986 -0.014327682111380117 0.011147636170529511 0.047891983764249746 0.9856937195322739 -0.112863145786085
 -0.0034442249424488274 -0.014327800476335058 0.004021937443446698 0.022687265083665243 0.9856937195322739 -0.112863145786085 0.011159454062433738 0.04789107895003391
0.15631513130469998 0.011697354896282288 0.04976289001875112 0.9849201978354086 -0.11741377658700268 0.004378355965604331 0.023572429577943574 -0.003680540193472808 -0.014882044854336331
 0.9849201978354086 -0.11741377658700268 0.011709942375399345 0.049761855192278236 -0.003681609601083975 -0.01488191133625236 0.004304102192965104 0.02358551726701155
