! Created with skrf 1.8.0 (http://scikit-rf.org).
# GHz S RI R 50.0 
!freq ReS11 ImS11 ReS12 ImS12 ReS13 ImS13
! ReS14 ImS14
! ReS21 ImS21 ReS22 ImS22 ReS23 ImS23
! ReS24 ImS24
! ReS31 ImS31 ReS32 ImS32 ReS33 ImS33
! ReS34 ImS34
! ReS41 ImS41 ReS42 ImS42 ReS43 ImS43
! ReS44 ImS44
!
0.0 0.001375936749204 0.0 0.9986240632449 0.0 5.266700319308e-05 0.0 -5.266700323766e-05 6.4498476935683605e-21
 0.9986240632449 0.0 0.001375936749217 0.0 -5.266700323758e-05 6.449847693558564e-21 5.266700319336e-05 0.0
 5.266700319308e-05 0.0 -5.266700323758e-05 6.449847693558564e-21 0.001375936752141 0.0 0.9986240632478 0.0
 -5.266700323766e-05 6.4498476935683605e-21 5.266700319336e-05 0.0 0.9986240632478 0.0 0.00137593675216 0.0
0.005 0.0014799217579985835 0.0011282585083060897 0.9984925819562132 -0.0028826501789636647 7.320714405365122e-05 0.0005663293804262813 -7.119999322986429e-05 -0.0003579972247647701
 0.9984925819562132 -0.0028826501789636647 0.001479941547982321 0.001128246940205527 -7.119692990669009e-05 -0.00035799486340462166 7.30994226824848e-05 0.0005663704119204706
 7.320714405365122e-05 0.0005663293804262813 -7.119692990669009e-05 -0.00035799486340462166 0.001479923717874439 0.0011283246024062494 0.9984925822984436 -0.002882583108709959
 -7.119999322986429e-05 -0.0003579972247647701 7.30994226824848e-05 0.0005663704119204706 0.9984925822984436 -0.002882583108709959 0.0014799402681047714 0.0011283149833754276
0.006252605252188 0.0015070616949829255 0.0014147689750919595 0.9984580687314065 -0.003604036980819027 7.900898669305509e-05 0.0007082002750565265 -7.63703656500967e-05 -0.00044796355684330514
 0.9984580687314065 -0.003604036980819027 0.0015070926303427557 0.0014147542786035166 -7.63655988775813e-05 -0.0004479606445029316 7.884068107127678e-05 0.0007082535190522945
 7.900898669305509e-05 0.0007082002750565265 -7.63655988775813e-05 -0.0004479606445029316 0.00150706468505736 0.0014148515723199633 0.9984580691924696 -0.0036039531583981267
 -7.63703656500967e-05 -0.00044796355684330514 7.884068107127678e-05 0.0007082535190522945 0.9984580691924696 -0.0036039531583981267 0.001507090555418493 0.0014148393188502138
0.01250521050438 0.0016491629020726859 0.002859282367458139 0.9982762596781157 -0.007208990053581086 0.00011193024978685642 0.001416841862610677 -0.00010537248936164977 -0.0008981662019976183
 0.9982762596781157 -0.007208990053581086 0.001649286428084261 0.0028592505750243405 -0.0001053537036883207 -0.0008981608054945686 0.00011125907030198353 0.001416969297136802
 0.00011193024978685642 0.001416841862610677 -0.0001053537036883207 -0.0008981608054945686 0.0016491742929053627 0.002859447242213651 0.998276260967265 -0.0072088226546325185
 -0.00010537248936164977 -0.0008981662019976183 0.00011125907030198353 0.001416969297136802 0.998276260967265 -0.0072088226546325185 0.0016492775845977422 0.002859420428024496
0.01875781575657 0.0018025240284711818 0.004324511335557769 0.9980784291871293 -0.01082365805376541 0.00015150257870128877 0.0021263985897112037 -0.0001397565321463399 -0.0013499955984226232
 0.9980784291871293 -0.01082365805376541 0.001802801598422249 0.004324459834170468 -0.00013971463826145222 -0.0013499882205346774 0.00014999480644835178 0.0021266249338489506
 0.00015150257870128877 0.0021263985897112037 -0.00013971463826145222 -0.0013499882205346774 0.0018025492066067244 0.004324758269064972 0.9980784316610436 -0.01082340715597446
 -0.0001397565321463399 -0.0013499955984226232 0.00014999480644835178 0.0021266249338489506 0.9980784316610436 -0.01082340715597446 0.001802781290979316 0.00432471445203711
0.02501042100875 0.0019674217449216556 0.00580843887323878 0.9978643629259989 -0.014449820380711792 0.0001977991234020455 0.002836912084962868 -0.00017960350337131503 -0.0018032676173799977
 0.9978643629259989 -0.014449820380711792 0.001967914687589632 0.00580836485699971 -0.0001795295194114302 -0.0018032588447692548 0.00019512087171469851 0.0028372656789288713
 0.0001977991234020455 0.002836912084962868 -0.0001795295194114302 -0.0018032588447692548 0.001967466094854114 0.005808767614204918 0.9978643669473162 -0.014449486029198037
 -0.00017960350337131503 -0.0018032676173799977 0.00019512087171469851 0.0028372656789288713 0.9978643669473162 -0.014449486029198037 0.001967878227229549 0.005808704233285556
0.03126302626094 0.00214412116157967 0.007310041174217824 0.9976338347013245 -0.01808825560861633 0.00025089373816171434 0.0035483608964162997 -0.000224992457635286 -0.0022578571427576853
 0.9976338347013245 -0.01808825560861633 0.002144890712367578 0.007309941647669481 -0.00022487749054433677 -0.0022578476471641473 0.0002467106313302822 0.003548873720457735
 0.00025089373816171434 0.0035483608964162997 -0.00022487749054433677 -0.0022578476471641473 0.0021441900603149607 0.007310451440218492 0.9976338406307611 -0.01808783781428706
 -0.000224992457635286 -0.0022578571427576853 0.0002467106313302822 0.003548873720457735 0.9976338406307611 -0.01808783781428706 0.0021448334065066604 0.00731036581885448
0.037515631513130004 0.0023328818198481505 0.00882866145051127 0.9973866125891089 -0.021739367613292718 0.00031086023532188854 0.004260698840429788 -0.00027600105240558085 -0.0027136597073717005
 0.9973866125891089 -0.021739367613292718 0.0023339891398592993 0.008828533230089643 -0.00027583628834868836 -0.002713650245997031 0.00030483725908650433 0.004261406551133503
 0.00031086023532188854 0.004260698840429788 -0.00027583628834868836 -0.002713650245997031 0.0023329806433433076 0.008829152901586102 0.9973866207921109 -0.02173886637871089
 -0.00027600105240558085 -0.0027136597073717005 0.00030483725908650433 0.004261406551133503 0.9973866207921109 -0.02173886637871089 0.0023339062967965437 0.00882904224976832
0.043768236765320004 0.0025339600232287414 0.010363819348630982 0.9971224614087455 -0.025403376093402104 0.00037777204565655424 0.004973866659400955 -0.00033270574983985 -0.0031705798244461834
 0.9971224614087455 -0.025403376093402104 0.002535466213771862 0.010363659063232777 -0.00033248244848449704 -0.0031705712401109373 0.00036957347094695504 0.0049748086314500535
 0.00037777204565655424 0.004973866659400955 -0.00033248244848449704 -0.0031705712401109373 0.0025340941411882895 0.01036439159970227 0.9971224722499152 -0.025402791399761253
 -0.00033270574983985 -0.0031705798244461834 0.00036957347094695504 0.0049748086314500535 0.9971224722499152 -0.025402791399761253 0.002535353136157438 0.010364253015455453
0.050020842017509996 0.002747609919058927 0.011915132204181264 0.9968411439516605 -0.02908039525107432 0.0004517020172840817 0.0056877968317130675 -0.00039518189688171395 -0.003628526168923283
 0.9968411439516605 -0.02908039525107432 0.0027495760339634827 0.011914936295295959 -0.00039489138769661784 -0.0036285193901401274 0.00044099136266832084 0.00568901620190073
 0.0004517020172840817 0.0056877968317130675 -0.00039489138769661784 -0.0036285193901401274 0.002747784698280506 0.011915784811297738 0.9968411577984446 -0.029079727071200028
 -0.00039518189688171395 -0.003628526168923283 0.00044099136266832084 0.00568901620190073 0.9968411577984446 -0.029079727071200028 0.002749428021456989 0.011915615281779837
0.055454545454549996 0.002943684088922611 0.013276137472531672 0.9965825442189711 -0.0322864405712181 0.0005217050460585163 0.006308786006919707 -0.00045422038206335586 -0.0040272592861198215
 0.9965825442189711 -0.0322864405712181 0.0029460994460571233 0.013275907570165977 -0.0004538644779842777 -0.0040272548970504175 0.0005085374585905321 0.006310284432619181
 0.0005217050460585163 0.006308786006919707 -0.0004538644779842777 -0.0040272548970504175 0.0029438985588473273 0.01327685951285991 0.9965825609774951 -0.03228569980262457
 -0.00045422038206335586 -0.0040272592861198215 0.0005085374585905321 0.006310284432619181 0.9965825609774951 -0.03228569980262457 0.002945917253083136 0.013276660558732112
0.056273447269699996 0.002974084066548669 0.013482276375378936 0.9965424216978633 -0.032770472393447506 0.0005327222782597668 0.006402415935330928 -0.0004635037483487942 -0.004087409207094157
 0.9965424216978633 -0.032770472393447506 0.002976571122467612 0.013482041096965644 -0.0004631374280550731 -0.0040874052480891635 0.0005191622957657651 0.006403959647671733
 0.0005327222782597668 0.006402415935330928 -0.0004631374280550731 -0.0040874052480891635 0.0029743048693454516 0.013483008843823644 0.996542438919702 -0.03276972068309405
 -0.0004635037483487942 -0.004087409207094157 0.0005191622957657651 0.006403959647671733 0.996542438919702 -0.03276972068309405 0.0029763834700778625 0.013482805246207683
0.06252605252188 0.0032136337476608846 0.01506496599864118 0.9962260552798382 -0.03647360911354731 0.0006209041293141648 0.00711764593651981 -0.0005377444626522218 -0.004547139903268669
 0.9962260552798382 -0.03647360911354731 0.0032167027342459038 0.01506468741655045 -0.0005372937935255542 -0.004547139863989573 0.0006041568055066213 0.007119564787870847
 0.0006209041293141648 0.00711764593651981 -0.0005372937935255542 -0.004547139863989573 0.0032139059323875873 0.015065777773439528 0.9962260762490346 -0.03647277382003209
 -0.0005377444626522218 -0.004547139903268669 0.0006041568055066213 0.007119564787870847 0.9962260762490346 -0.03647277382003209 0.0032164707322776117 0.015065536875483768
0.06877865777407 0.0034665091413474385 0.01666294030803841 0.995891804811906 -0.04018977390867543 0.0007163179552751837 0.007833404966084069 -0.0006179760799283614 -0.005007628941238938
 0.995891804811906 -0.04018977390867543 0.003470221030278019 0.016662614299407318 -0.0006174325885292911 -0.005007634007352117 0.0006960445230463145 0.00783575365197732
 0.0007163179552751837 0.007833404966084069 -0.0006174325885292911 -0.005007634007352117 0.0034668380621468166 0.016663830779705624 0.9958918299042371 -0.0401888549645253
 -0.0006179760799283614 -0.005007628941238938 0.0006960445230463145 0.00783575365197732 0.9958918299042371 -0.0401888549645253 0.0034699399644920518 0.01666354924016075
0.07503126302626001 0.0037329594149117006 0.018275955609987966 0.9955394301397487 -0.04391891014607993 0.0008190331452209015 0.008549607807771987 -0.0007042694913416891 -0.005468786236064442
 0.9955394301397487 -0.04391891014607993 0.0037373751690437176 0.018275577862176984 -0.0007036247676999681 -0.005468797678931491 0.0007948941037595581 0.00855244496821936
 0.0008190331452209015 0.008549607807771987 -0.0007036247676999681 -0.005468797678931491 0.0037333504206336545 0.018276924105786643 0.9955394597339564 -0.043917907477054964
 -0.0007042694913416891 -0.005468786236064442 0.0007948941037595581 0.00855244496821936 0.9955394597339564 -0.043917907477054964 0.0037370403194394246 0.018276598474465163
0.08128386827845 0.004013232764811661 0.01990377991980347 0.9951686910420408 -0.047660941369125166 0.0009291180203293979 0.009266166221262487 -0.000796694400627671 -0.005930520613834301
 0.9951686910420408 -0.047660941369125166 0.0040184133467523414 0.01990334592916238 -0.000795940097652542 -0.005930539790478071 0.0009007731610183509 0.009269554486446278
 0.0009291180203293979 0.009266166221262487 -0.000795940097652542 -0.005930539790478071 0.0040136911990450615 0.019904825710512428 0.9951687255210171 -0.04765985488671321
 -0.000796694400627671 -0.005930520613834301 0.0009007731610183509 0.009269554486446278 0.9951687255210171 -0.04765985488671321 0.0040180199879234595 0.01990445242822728
0.08753647353064001 0.004307576423440049 0.021546189278641516 0.9947793474012551 -0.051415774925707765 0.0010466397646199284 0.009982989172380967 -0.0008953192818945923 -0.006392739586891166
 0.9947793474012551 -0.051415774925707765 0.004313582804242097 0.021545694349058866 -0.000894447114987873 -0.0063927679399669686 0.001013748202092624 0.009986995208106779
 0.0010466397646199284 0.009982989172380967 -0.000894447114987873 -0.0063927679399669686 0.004308107623717292 0.021547311572183755 0.9947793871518821 -0.051414604532872034
 -0.0008953192818945923 -0.006392739586891166 0.001013748202092624 0.009986995208106779 0.9947793871518821 -0.051414604532872034 0.004313126205179094 0.021546886970270063
0.09378907878283 0.004616236642931946 0.023202965100445307 0.9943711593536226 -0.05518330456982703 0.0011716643590067263 0.010699982995023349 -0.0010002113334922366 -0.006855349200174132
 0.9943711593536226 -0.05518330456982703 0.004623129810683333 0.023202404341519985 -0.0009992130804087433 -0.006855388257912555 0.001133884566209035 0.010704677547823968
 0.0011716643590067263 0.010699982995023349 -0.0009992130804087433 -0.006855388257912555 0.004616845940548659 0.02320416304416887 0.9943712047674916 -0.05518205015797202
 -0.0010002113334922366 -0.006855349200174132 0.001133884566209035 0.010704677547823968 0.9943712047674916 -0.05518205015797202 0.004622605234507999 0.023203683343931684
0.100041684035 0.004939458661896727 0.02487389223352745 0.9939438874249645 -0.05896341235133453 0.0013042565168346297 0.011417051514715918 -0.0011114364295723655 -0.007318253918736192
 0.9939438874249645 -0.05896341235133453 0.004947299630075746 0.024873260558567176 -0.0011103039303145402 -0.007318305294886128 0.0012612463636874757 0.011422509456642069
 0.0013042565168346297 0.011417051514715918 -0.0011103039303145402 -0.007318305294886128 0.004940151380680452 0.02487516491426567 0.9939439388984099 -0.05896207379968142
 -0.0011114364295723655 -0.007318253918736192 0.0012612463636874757 0.011422509456642069 0.9939439388984099 -0.05896207379968142 0.004946702333624645 0.024874626226041138
0.1059090909091 0.005256229568459352 0.026454560667721276 0.9935253685892063 -0.0625219681486181 0.0014356192875301333 0.012089924412752117 -0.00122162669342918 -0.007752822736517648
 0.9935253685892063 -0.0625219681486181 0.005265015468070424 0.026453857642401983 -0.0012203608524680937 -0.007752887215995093 0.0013873893317253737 0.012096170523549665
 0.0014356192875301333 0.012089924412752117 -0.0012203608524680937 -0.007752887215995093 0.005257005404552599 0.026455902592610995 0.9935254261143569 -0.06252055052354111
 -0.00122162669342918 -0.007752822736517648 0.0013873893317253737 0.012096170523549665 0.9935254261143569 -0.06252055052354111 0.0052643456121982644 0.026455304912950485
0.1062942892872 0.005277486659548517 0.026558757499283363 0.9934972926563452 -0.06275597003199535 0.001444479620788622 0.012134096143345324 -0.001229059069553686 -0.007781356547141773
 0.9934972926563452 -0.06275597003199535 0.005286336475615871 0.026558049622996918 -0.0012277842264438274 -0.0077814219409011705 0.0013958964156839863 0.0121403965162119
 0.001444479620788622 0.012134096143345324 -0.0012277842264438274 -0.0077814219409011705 0.0052782681158843525 0.02656010393897595 0.9934973505912226 -0.06275454721125197
 -0.001229059069553686 -0.007781356547141773 0.0013958964156839863 0.0121403965162119 0.9934973505912226 -0.06275454721125197 0.005285661709786069 0.026559502260963926
0.11254689453939999 0.005630563701612758 0.02825734857858785 0.993031136724362 -0.06656084015721732 0.001592395660139034 0.012851015952974838 -0.0013531423262404514 -0.008244558172735308
 0.993031136724362 -0.06656084015721732 0.005640483455474496 0.02825655901448501 -0.0013517171040567722 -0.008244639368669263 0.0015378961944324445 0.012858242012208306
 0.001592395660139034 0.012851015952974838 -0.0013517171040567722 -0.008244639368669263 0.005631439203216276 0.028258767737151462 0.9930312015280297 -0.06655933292614101
 -0.0013531423262404514 -0.008244558172735308 0.0015378961944324445 0.012858242012208306 0.9930312015280297 -0.06655933292614101 0.005639726464516775 0.02825809895392963
0.11879949979160001 0.005998931676875218 0.02996945313820775 0.9925451820541004 -0.07037787689121335 0.0017480651691046765 0.013567707740200677 -0.001483747792328941 -0.008707758121542463
 0.9925451820541004 -0.07037787689121335 0.006009982509327354 0.02996857619573583 -0.0014821642184876358 -0.008707856989497116 0.0016873057638155226 0.013575946998079545
 0.0017480651691046765 0.013567707740200677 -0.0014821642184876358 -0.008707856989497116 0.005999906522319894 0.029970943909414197 0.9925452541399774 -0.0703762851001426
 -0.001483747792328941 -0.008707758121542463 0.0016873057638155226 0.013575946998079545 0.9925452541399774 -0.0703762851001426 0.006009138531325989 0.029970203790161694
0.1250521050438 0.006382831229571248 0.03169485813936827 0.9920391919304198 -0.07420692667370103 0.0019115471651090558 0.014284066076665089 -0.0016209355260824903 -0.009170853931212742
 0.9920391919304198 -0.07420692667370103 0.006395074341124934 0.03169388792065565 -0.0016191856909886814 -0.00917097242620025 0.001844183719939305 0.014293410344991715
 0.0019115471651090558 0.014284066076665089 -0.0016191856909886814 -0.00917097242620025 0.006383910707692867 0.03169641935432395 0.9920392717184509 -0.0742052501604124
 -0.0016209355260824903 -0.009170853931212742 0.001844183719939305 0.014293410344991715 0.9920392717184509 -0.0742052501604124 0.00639413860739753 0.03169560355077785
0.131304710296 0.006782501686297434 0.03343334928686653 0.9915129306061118 -0.0780478287397596 0.0020828990874201176 0.014999983357774836 -0.0017647639961187287 -0.009633741328967799
 0.9915129306061118 -0.0780478287397596 0.0067959983454164785 0.033432279683285195 -0.0017628400534164313 -0.009633881491062236 0.002008587131828328 0.01501052878991982
 0.0020828990874201176 0.014999983357774836 -0.0017628400534164313 -0.009633881491062236 0.006783691075074744 0.03343497971052358 0.991513018523145 -0.0780460673325516
 -0.0017647639961187287 -0.009633741328967799 0.002008587131828328 0.01501052878991982 0.991513018523145 -0.0780460673325516 0.0067949660806969564 0.03343408375459771
0.1375573155481 0.007102267839881499 0.03495833997585801 0.9910621053601155 -0.08167397282554242 0.002239680533209633 0.015692508050171194 -0.0018928833221347019 -0.010073422878513899
 0.9910621053601155 -0.08167397282554242 0.007117083097951946 0.034957186898519274 -0.0018907736839323824 -0.010073584708433829 0.0021582462478916906 0.01570423323074
 0.002239680533209633 0.015692508050171194 -0.0018907736839323824 -0.010073584708433829 0.007103571918699784 0.03496003841266453 0.9910622017762 -0.0816721264388623
 -0.0018928833221347019 -0.010073422878513899 0.0021582462478916906 0.01570423323074 0.9910622017762 -0.0816721264388623 0.007115950124747686 0.03495907992072276
0.1438099208003 0.007433145356281139 0.036476013806767175 0.990595681143317 -0.08529163602815319 0.0024028054133668326 0.016382579795882854 -0.0020261353638957873 -0.010510885932147513
 0.990595681143317 -0.08529163602815319 0.007449341145110342 0.03647477255303053 -0.0020238316006415493 -0.010511071419736822 0.0023139346866898627 0.016395572077006277
 0.0024028054133668326 0.016382579795882854 -0.0020238316006415493 -0.010511071419736822 0.007434569298694297 0.03647777897921285 0.9905957864835551 -0.08528970449586531
 -0.0020261353638957873 -0.010510885932147513 0.0023139346866898627 0.016395572077006277 0.9905957864835551 -0.08528970449586531 0.007448102786707402 0.03647675494716704
0.1500625260525 0.007775026894880374 0.037986265012490604 0.9901137686980098 -0.08890074968558712 0.0025722231823967503 0.01707013983128799 -0.0021644716379844225 -0.010946075637247667
 0.9901137686980098 -0.08890074968558712 0.007792665233344664 0.03798493063244826 -0.0021619653356613525 -0.010946286851944338 0.0024756035342190165 0.017084489742806405
 0.0025722231823967503 0.01707013983128799 -0.0021619653356613525 -0.010946286851944338 0.007776575858635746 0.03798809558995637 0.9901138833927118 -0.08889873283659741
 -0.0021644716379844225 -0.010946075637247667 0.0024756035342190165 0.017084489742806405 0.9901138833927118 -0.08889873283659741 0.007791316813605173 0.03798700283560221
0.15631513130469998 0.008127804465180372 0.03948899112182865 0.9896164792041671 -0.09250124497080249 0.0027478827601588353 0.017755130284209893 -0.002307843123001396 -0.01137893822510251
