! Created with skrf 1.8.0 (http://scikit-rf.org).
# GHz S RI R 50.0 
!freq ReS11 ImS11 ReS12 ImS12 ReS13 ImS13
! ReS14 ImS14
! ReS21 ImS21 ReS22 ImS22 ReS23 ImS23
! ReS24 ImS24
! ReS31 ImS31 ReS32 ImS32 ReS33 ImS33
! ReS34 ImS34
! ReS41 ImS41 ReS42 ImS42 ReS43 ImS43
! ReS44 ImS44
!
0.0 0.001716547512278 0.0 0.9982834524876 0.0 6.650257235134e-05 0.0 -6.650257309537e-05 8.144216327630776e-21
 0.9982834524876 0.0 0.001716547512299 0.0 -6.650257309477e-05 8.144216327557297e-21 6.650257235101e-05 0.0
 6.650257235134e-05 0.0 -6.650257309477e-05 8.144216327557297e-21 0.001716547509786 0.0 0.9982834524851 0.0
 -6.650257309537e-05 8.144216327630776e-21 6.650257235101e-05 0.0 0.9982834524851 0.0 0.001716547509836 0.0
0.005 0.0018474191985307763 0.001403763250149273 0.998117794410168 -0.0035950767553000963 9.348879475796195e-05 0.0007330522056020843 -9.075965663714073e-05 -0.00045996384784800315
 0.998117794410168 -0.0035950767553000963 0.0018474243578024529 0.0014037602730144984 -9.076113578039345e-05 -0.00045996503191717393 9.346375966265769e-05 0.0007330619608806302
 9.348879475796195e-05 0.0007330522056020843 -9.076113578039345e-05 -0.00045996503191717393 0.0018474178185643702 0.0014036968237712989 0.9981177940380163 -0.003595143817559018
 -9.075965663714073e-05 -0.00045996384784800315 9.346375966265769e-05 0.0007330619608806302 0.9981177940380163 -0.003595143817559018 0.0018474249930267139 0.0014036925721848464
0.006252605252188 0.001881908192436614 0.0017602030324439903 0.9980738379800536 -0.004494698598018802 0.00010128366277518842 0.0009166598542527575 -9.768264054985966e-05 -0.0005755394978295309
 0.9980738379800536 -0.004494698598018802 0.0018819162562647815 0.0017601991854193158 -9.768494182217387e-05 -0.0005755409584655848 0.00010124455066011569 0.000916672492281211
 0.00010128366277518842 0.0009166598542527575 -9.768494182217387e-05 -0.0005755409584655848 0.0018819061120893545 0.0017601200179829107 0.9980738374755009 -0.004494782412496668
 -9.768264054985966e-05 -0.0005755394978295309 0.00010124455066011569 0.000916672492281211 0.9980738374755009 -0.004494782412496668 0.0018819173270087498 0.0017601145655879655
0.01250521050438 0.002064427839371257 0.00355703017062092 0.9978395669643976 -0.008990008118669584 0.00014643462150175753 0.0018336041602490972 -0.0001373612635503997 -0.0011537592130197363
 0.9978395669643976 -0.008990008118669584 0.0020644600252995473 0.0035570212009593217 -0.0001373703277822477 -0.0011537619198703712 0.00014627873537913642 0.0018336342876156804
 0.00014643462150175753 0.0018336041602490972 -0.0001373703277822477 -0.0011537619198703712 0.002064420077583425 0.0035568644494477796 0.9978395655024993 -0.00899017549651514
 -0.0001373612635503997 -0.0011537592130197363 0.00014627873537913642 0.0018336342876156804 0.9978395655024993 -0.00899017549651514 0.002064464860517692 0.003556852123357768
0.01875781575657 0.002264539567187474 0.0053791424564094085 0.9975803236933171 -0.01349682866850187 0.00020206545239969927 0.002751419908426273 -0.00018566764660055412 -0.0017338007773965876
 0.9975803236933171 -0.01349682866850187 0.002264611867054883 0.005379126996865436 -0.00018568785311662362 -0.0017338044720431342 0.00020171546842710607 0.002751473454657406
 0.00020206545239969927 0.002751419908426273 -0.00018568785311662362 -0.0017338044720431342 0.002264522535266355 0.005378894217019732 0.9975803208328636 -0.013497079494788072
 -0.00018566764660055412 -0.0017338007773965876 0.00020171546842710607 0.002751473454657406 0.9975803208328636 -0.013497079494788072 0.002264623169523874 0.005378873438993183
0.02501042100875 0.00248266160658186 0.0072239463898712535 0.9972957790710574 -0.018017300361701113 0.0002682873874024637 0.0036701169995341375 -0.00024272605501954891 -0.0023153750247612427
 0.9972957790710574 -0.018017300361701113 0.0024827899634688637 0.007223922983318803 -0.00024276172827938613 -0.002315379400342989 0.00026766607155257334 0.003670200927238767
 0.0002682873874024637 0.0036701169995341375 -0.00024276172827938613 -0.002315379400342989 0.0024826317085052817 0.007223615810532865 0.997295774366462 -0.018017634547740764
 -0.00024272605501954891 -0.0023153750247612427 0.00026766607155257334 0.003670200927238767 0.997295774366462 -0.018017634547740764 0.00248281043207332 0.007223584849301155
0.03126302626094 0.0027191948353700803 0.009090085022401405 0.9969855885438429 -0.022552312208945265 0.0003452116553774536 0.0045896200990762585 -0.0003086567282031048 -0.0028982701556168533
 0.9969855885438429 -0.022552312208945265 0.0027193951508188525 0.009090052121646104 -0.0003087121469291053 -0.002898274856351688 0.0003442417883302083 0.004589742406793085
 0.0003452116553774536 0.0045896200990762585 -0.0003087121469291053 -0.002898274856351688 0.0027191484776676617 0.009089672283283596 0.9969855815569647 -0.02255272968067278
 -0.0003086567282031048 -0.0028982701556168533 0.0003442417883302083 0.004589742406793085 0.9969855815569647 -0.02255272968067278 0.0027194274930076217 0.00908962925377883
0.037515631513130004 0.0029745310220605143 0.01097665670768049 0.9966494006854154 -0.02710228330708985 0.0004329483733443211 0.005509819749331868 -0.0003835767322910913 -0.0034823006502683307
 0.9966494006854154 -0.02710228330708985 0.002974819160826788 0.010976612675162579 -0.0003836561342470135 -0.0034823052713426924 0.0004315527171411219 0.0055099894794085206
 0.0004329483733443211 0.005509819749331868 -0.0003836561342470135 -0.0034823052713426924 0.0029744646052428706 0.010976162006398785 0.9966493909767676 -0.027102783989867273
 -0.0003835767322910913 -0.0034823006502683307 0.0004315527171411219 0.0055099894794085206 0.9966493909767676 -0.027102783989867273 0.0029748660839324123 0.01097610486894168
0.043768236765320004 0.0032490559901189936 0.01288297736310348 0.9962868607032987 -0.03166740050729098 0.0005316060125446902 0.006430587921205177 -0.0004676002465367004 -0.004067291743124206
 0.9962868607032987 -0.03166740050729098 0.003249447783301918 0.012882920470734341 -0.00046770783123704294 -0.004067295830699709 0.0005297072962027471 0.006430815169314141
 0.0005316060125446902 0.006430587921205177 -0.00046770783123704294 -0.004067295830699709 0.0032489659117370473 0.01288240090965244 0.9962868478362948 -0.03166798433165506
 -0.0004676002465367004 -0.004067291743124206 0.0005297072962027471 0.006430815169314141 0.9962868478362948 -0.03166798433165506 0.0032495119983247537 0.012882327468825203
0.050020842017509996 0.003543151073398073 0.01480848219843786 0.9958976122419397 -0.03624771661554125 0.000641291065258406 0.007351784444580389 -0.0005608386509726109 -0.004653073022672854
 0.9958976122419397 -0.03624771661554125 0.0035436623216977205 0.014808410627231988 -0.0005609785815446754 -0.004653076073923523 0.0006388119795448064 0.007352080369798433
 0.000641291065258406 0.007351784444580389 -0.0005609785815446754 -0.004653076073923523 0.0035430337267750023 0.014807824231059126 0.9958975957815037 -0.03624838350185853
 -0.0005608386509726109 -0.004653073022672854 0.0006388119795448064 0.007352080369798433 0.9958975957815037 -0.03624838350185853 0.003543746541124064 0.014807732134536634
0.055454545454549996 0.003814915271898481 0.016496999478026728 0.9955373758455249 -0.040240469369635753 0.000745647347544946 0.00815256436067261 -0.0006494336665234492 -0.00516264504265366
 0.9955373758455249 -0.040240469369635753 0.0038155431407187017 0.016496913602401287 -0.0006496050602444136 -0.005162646746951768 0.000742601089791998 0.008152929864594554
 0.000745647347544946 0.00815256436067261 -0.0006496050602444136 -0.005162646746951768 0.003814771296432382 0.01649627087491597 0.9955373559107136 -0.04024120838038987
 -0.0006494336665234492 -0.00516264504265366 0.000742601089791998 0.008152929864594554 0.9955373559107136 -0.04024120838038987 0.0038156469486654867 0.01649616053277589
0.056273447269699996 0.0038571938478352704 0.016752677530092793 0.9954812984666649 -0.0408431985106673 0.0007621078004743227 0.00827326016557341 -0.0006634005242378056 -0.0052394753101669125
 0.9954812984666649 -0.0408431985106673 0.003857840324072179 0.016752589369857407 -0.0006635769285975877 -0.005239476773342914 0.0007589709991103647 0.008273637000733334
 0.0007621078004743227 0.00827326016557341 -0.0006635769285975877 -0.005239476773342914 0.0038570456226675338 0.01675193830050888 0.9954812779800479 -0.04084394838465869
 -0.0006634005242378056 -0.0052394753101669125 0.0007589709991103647 0.008273637000733334 0.9954812779800479 -0.04084394838465869 0.0038579472621111444 0.016751825037711714
0.06252605252188 0.004191558504178788 0.018715114239518018 0.9950375627938057 -0.04545375362421954 0.000894158063369711 0.009194858708315793 -0.000775391596886005 -0.005826328940274366
 0.9950375627938057 -0.04545375362421954 0.0041923559555328005 0.01871500748838168 -0.0007756085685500511 -0.0058263282147626265 0.0008902861674782603 0.009195329770471744
 0.000894158063369711 0.009194858708315793 -0.0007756085685500511 -0.0058263282147626265 0.004191375786165348 0.018714294025920463 0.9950375378501326 -0.0454545864044926
 -0.000775391596886005 -0.005826328940274366 0.0008902861674782603 0.009195329770471744 0.9950375378501326 -0.0454545864044926 0.004192488327181442 0.018714156926704157
0.06877865777407 0.004546616026615495 0.020695371999989217 0.9945660494313909 -0.05007924565861071 0.001037541099605133 0.010116417518808712 -0.0008969146779328668 -0.006413462766804764
 0.9945660494313909 -0.05007924565861071 0.0045475801767323 0.020695244563896018 -0.0008971762765167629 -0.00641345920319534 0.0010328567053089614 0.01011699721960393
 0.001037541099605133 0.010116417518808712 -0.0008971762765167629 -0.00641345920319534 0.004546395197537676 0.020694471102152043 0.9945660196019984 -0.05008016126225365
 -0.0008969146779328668 -0.006413462766804764 0.0010328567053089614 0.01011699721960393 0.9945660196019984 -0.05008016126225365 0.004547740697545513 0.020694307335320745
0.07503126302626001 0.004922734255019067 0.022693049254670295 0.9940664038093399 -0.05471950456185809 0.001192353394306074 0.011037768549264098 -0.001028069565318937 -0.007000703535359139
 0.9940664038093399 -0.05471950456185809 0.00492388080672443 0.022692898946773093 -0.0010283798170006445 -0.007000696435520038 0.0011867790824589806 0.01103847240526236
 0.001192353394306074 0.011037768549264098 -0.0010283798170006445 -0.007000696435520038 0.004922471693011266 0.022692067999002856 0.9940663686680418 -0.05472050289999592
 -0.001028069565318937 -0.007000703535359139 0.0011867790824589806 0.01103847240526236 0.9940663686680418 -0.05472050289999592 0.004924072191586458 0.022691874570820583
0.08128386827845 0.0053202778735784014 0.024707756563895778 0.9935382729397993 -0.05937433314150258 0.0013586885208725088 0.011958738718356628 -0.0011689529456153497 -0.007587875487948972
 0.9935382729397993 -0.05937433314150258 0.005321622510560841 0.02470758110389055 -0.001169315843342763 -0.007587864105098349 0.0013521468679768358 0.011959583361224043
 0.0013586885208725088 0.011958738718356628 -0.001169315843342763 -0.007587864105098349 0.005319969953404155 0.024706695300638282 0.9935382320627851 -0.05937541412286052
 -0.0011689529456153497 -0.007587875487948972 0.0013521468679768358 0.011959583361224043 0.9935382320627851 -0.05937541412286052 0.005321847473137083 0.024706469053261574
0.08753647353064001 0.005739608350917562 0.026739112012194498 0.992981305734154 -0.06404351162789332 0.00153663699421643 0.012879150250948197 -0.001319658287647152 -0.008174800096169641
 0.992981305734154 -0.06404351162789332 0.005741166739946705 0.026738909025507546 -0.0013200777912062258 -0.00817478363495403 0.0015290505851174691 0.012880153437408457
 0.00153663699421643 0.012879150250948197 -0.0013200777912062258 -0.00817478363495403 0.005739251443806355 0.02673797111907513 0.9929812587001389 -0.06404467515565693
 -0.001319658287647152 -0.008174800096169641 0.0015290505851174691 0.012880153437408457 0.9929812587001389 -0.06404467515565693 0.005741427992112691 0.026737708728842607
0.09378907878283 0.00618108384665581 0.028786737930070735 0.9923951532905869 -0.06872680093179159 0.001726286129544769 0.013798820927314794 -0.0014802757299944294 -0.008761295893181654
 0.9923951532905869 -0.06872680093179159 0.006182871639702861 0.028786504947042508 -0.0014807557661026015 -0.008761273509761938 0.0017175775708766043 0.013800001548985162
 0.001726286129544769 0.013798820927314794 -0.0014807557661026015 -0.008761273509761938 0.006180674321003028 0.028785517809646315 0.9923950996810883 -0.06872804690704001
 -0.0014802757299944294 -0.008761295893181654 0.0017175775708766043 0.013800001548985162 0.9923950996810883 -0.06872804690704001 0.0061831718908127225 0.02878521578532293
0.100041684035 0.006645059093936474 0.030850258498486837 0.9917794691609533 -0.07342394502922873 0.001927719903453661 0.014717564284526558 -0.001650891965203123 -0.00934717836207519
 0.9917794691609533 -0.07342394502922873 0.006647091930063491 0.030849992953379944 -0.001651436427481456 -0.009347149164212228 0.0019178118384184665 0.014718942377435469
 0.001927719903453661 0.014717564284526558 -0.001651436427481456 -0.009347149164212228 0.006644593315001684 0.030848959582111934 0.991779408560285 -0.07342527334763639
 -0.001650891965203123 -0.00934717836207519 0.0019178118384184665 0.014718942377435469 0.991779408560285 -0.07342527334763639 0.00664743388567981 0.030848614263084613
0.1059090909091 0.007101226797617285 0.032800774978645475 0.9911745499258874 -0.07784407599260929 0.0021275338907442956 0.015578694416438204 -0.0018201650961951277 -0.009896242000309296
 0.9911745499258874 -0.07784407599260929 0.007103503794719338 0.032800476457469516 -0.0018207735272609592 -0.009896205553298097 0.0021164299066961908 0.015580277065378335
 0.0021275338907442956 0.015578694416438204 -0.0018207735272609592 -0.009896205553298097 0.00710070492320882 0.03279940253833061 0.9911744823891825 -0.0778454814824874
 -0.0018201650961951277 -0.009896242000309296 0.0021164299066961908 0.015580277065378335 0.9911744823891825 -0.0778454814824874 0.007103887342714943 0.03279901310990622
0.1062942892872 0.007131885262693752 0.03292929795536469 0.9911339096039475 -0.07813467275429382 0.0021410188172014495 0.015635189783369738 -0.0018315901219073962 -0.009932259867254815
 0.9911339096039475 -0.07813467275429382 0.007134178770388515 0.032928997185290854 -0.0018322028708178833 -0.009932222914390627 0.0021298339405042208 0.015636786537312528
 0.0021410188172014495 0.015635189783369738 -0.0018322028708178833 -0.009932222914390627 0.007131359593648991 0.032927920704579734 0.991133841599398 -0.07813608330536968
 -0.0018315901219073962 -0.009932259867254815 0.0021298339405042208 0.015636786537312528 0.991133841599398 -0.07813608330536968 0.007134565132126063 0.03292752825887853
0.11254689453939999 0.007641909811420298 0.03502347923850229 0.9904581338280055 -0.08285869916588756 0.0023662597618255435 0.016551502946895762 -0.0020224496442988247 -0.010516349623189097
 0.9904581338280055 -0.08285869916588756 0.007644479610185144 0.03502314048230925 -0.00202313450694922 -0.010516303926577883 0.0023537208361090376 0.016553340714475895
 0.0023662597618255435 0.016551502946895762 -0.00202313450694922 -0.010516303926577883 0.007641320612762048 0.03502202413902413 0.9904580580098067 -0.08286019183977297
 -0.0020224496442988247 -0.010516349623189097 0.0023537208361090376 0.016553340714475895 0.9904580580098067 -0.08286019183977297 0.007644913074420729 0.03502158056138207
0.11879949979160001 0.008175476326010978 0.037132422922526394 0.9897518042261592 -0.08759572663119244 0.002603515884487532 0.017466305492976657 -0.002223546171057523 -0.011099253678041321
 0.9897518042261592 -0.08759572663119244 0.00817833802878978 0.03713204331942086 -0.0022243069411417593 -0.01109919820078529 0.002589545756930568 0.01746840779833799
 0.002603515884487532 0.017466305492976657 -0.0022243069411417593 -0.01109919820078529 0.008174819956662221 0.03713089049458526 0.9897517201880639 -0.08759730130883742
 -0.002223546171057523 -0.011099253678041321 0.002589545756930568 0.01746840779833799 0.9897517201880639 -0.08759730130883742 0.00817882128610095 0.03713039160428534
0.1250521050438 0.00873292435216095 0.03925574640830927 0.9890145866069092 -0.09234544566726403 0.002852856456505718 0.0183793954464578 -0.0024349514129255036 -0.011680774926773918
 0.9890145866069092 -0.09234544566726403 0.008736093567158282 0.039255322996552856 -0.002435791850462989 -0.011680708583989684 0.0028373780761044767 0.01838178699377751
 0.002852856456505718 0.0183793954464578 -0.002435791850462989 -0.011680708583989684 0.00873219716956773 0.039254137199459874 0.9890144939458471 -0.09234710222842542
 -0.0024349514129255036 -0.011680774926773918 0.0028373780761044767 0.01838178699377751 0.9890144939458471 -0.09234710222842542 0.008736629301364129 0.03925357863817419
0.131304710296 0.009314589220141615 0.04139306326458597 0.9882461504192587 -0.09710753564192219 0.0031143467424394698 0.019290567250634962 -0.002656733029854576 -0.012260713134256047
 0.9882461504192587 -0.09710753564192219 0.00931808155282868 0.041392592979950786 -0.0026576568609760266 -0.012260634793156712 0.003097283178057481 0.01929327393225051
 0.0031143467424394698 0.019290567250634962 -0.0026576568609760266 -0.012260634793156712 0.009313787580716253 0.04139137785417081 0.9882460487361601 -0.09710927396137949
 -0.002656733029854576 -0.012260713134256047 0.003097283178057481 0.01929327393225051 0.9882460487361601 -0.09710927396137949 0.009318672440280267 0.041390755083642566
0.1375573155481 0.009793228669081833 0.04326596486894254 0.9875738025739231 -0.10160349206639947 0.003356755059131473 0.020172588177000086 -0.0028576810366699222 -0.012811848306934057
 0.9875738025739231 -0.10160349206639947 0.009797062061664983 0.04326545735162489 -0.0028586939494187917 -0.012811757785752921 0.0033380598394424634 0.0201756081102466
 0.003356755059131473 0.020172588177000086 -0.0028586939494187917 -0.012811757785752921 0.009792349791192752 0.04326420349747461 0.9875736914694064 -0.1016053120032434
 -0.0028576810366699222 -0.012811848306934057 0.0033380598394424634 0.0201756081102466 0.9875736914694064 -0.1016053120032434 0.009797709906001291 0.043263525299862576
0.1438099208003 0.0102888833867333 0.0451279242220642 0.9868774593690196 -0.10608695222292368 0.0036089201425974753 0.021050354531261688 -0.0030666211604866585 -0.013359079756467317
 0.9868774593690196 -0.10608695222292368 0.010293073819273232 0.045127377323381665 -0.003067727185173333 -0.013358975926901268 0.003588522006029485 0.02105371171895598
 0.0036089201425974753 0.021050354531261688 -0.003067727185173333 -0.013358975926901268 0.010287923778477572 0.04512608743286138 0.9868773384503616 -0.10608885364059084
 -0.0030666211604866585 -0.013359079756467317 0.003588522006029485 0.02105371171895598 0.9868773384503616 -0.10608885364059084 0.010293781127103949 0.045125350211651774
0.1500625260525 0.010801362298977395 0.04697875353633289 0.986157316696891 -0.11055777172095557 0.0038707441959615744 0.021923754727299554 -0.0032834582800321246 -0.013902302861500038
 0.986157316696891 -0.11055777172095557 0.01080592576838909 0.04697816499720371 -0.003284661438005406 -0.013902184549363612 0.0038485723453423604 0.02192747405929197
 0.0038707441959615744 0.021923754727299554 -0.003284661438005406 -0.013902184549363612 0.010800318476663129 0.04697684189303643 0.9861571855747694 -0.11055975447759453
 -0.0032834582800321246 -0.013902302861500038 0.0038485723453423604 0.02192747405929197 0.9861571855747694 -0.11055975447759453 0.010806695027876598 0.04697604188548684
0.15631513130469998 0.011330472775608762 0.048818270624936946 0.9854135716668396 -0.11501580741311282 0.00414212814713653 0.022792679320081992 -0.003508095994954591 -0.014441415411471634
 0.9854135716668396 -0.11501580741311282 0.011335425295920198 0.04881763807458491 -0.0035094002983028427 -0.014441281396837641 0.00411811225773331 0.022796786563442046
