! Created with skrf 1.8.0 (http://scikit-rf.org).
# GHz S RI R 50.0 
!freq ReS11 ImS11 ReS12 ImS12 ReS13 ImS13
! ReS14 ImS14
! ReS21 ImS21 ReS22 ImS22 ReS23 ImS23
! ReS24 ImS24
! ReS31 ImS31 ReS32 ImS32 ReS33 ImS33
! ReS34 ImS34
! ReS41 ImS41 ReS42 ImS42 ReS43 ImS43
! ReS44 ImS44
!
0.0 0.001663702033788 0.0 0.9983362979634 0.0 6.455786672327e-05 0.0 -6.455786698835e-05 7.90605851670634e-21
 0.9983362979634 0.0 0.001663702033759 0.0 -6.45578669881e-05 7.906058516675724e-21 6.45578667203e-05 0.0
 6.455786672327e-05 0.0 -6.45578669881e-05 7.906058516675724e-21 0.001663702029518 0.0 0.9983362979591 0.0
 -6.455786698835e-05 7.90605851670634e-21 6.45578667203e-05 0.0 0.9983362979591 0.0 0.0016637020295 0.0
0.005 0.00179042287712232 0.0013572374456798195 0.9981759076737955 -0.0034848320652831268 9.119045900521199e-05 0.0007320267502281653 -8.841328278277046e-05 -0.00045579009265229927
 0.9981759076737955 -0.0034848320652831268 0.0017904260457640127 0.0013572356838232262 -8.841192992242497e-05 -0.00045578914825037515 9.116870707918182e-05 0.0007320349865203269
 9.119045900521199e-05 0.0007320267502281653 -8.841192992242497e-05 -0.00045578914825037515 0.0017904234581205243 0.0013573044366126067 0.9981759080342425 -0.0034847649971093057
 -8.841328278277046e-05 -0.00045579009265229927 9.116870707918182e-05 0.0007320349865203269 0.9981759080342425 -0.0034847649971093057 0.001790426173849397 0.0013573028169110908
0.006252605252188 0.0018237707881039761 0.0017018861338363317 0.9981334145443107 -0.004356875772450231 9.886114550505285e-05 0.000915371100911907 -9.520428320516393e-05 -0.0005703246250909764
 0.9981334145443107 -0.004356875772450231 0.0018237757406871723 0.0017018839179620418 -9.520217729384736e-05 -0.0005703234629019398 9.882715982927742e-05 0.0009153818066545398
 9.886114550505285e-05 0.000915371100911907 -9.520217729384736e-05 -0.0005703234629019398 0.0018237716392670335 0.0017019698611092917 0.9981334150514931 -0.004356791950555598
 -9.520428320516393e-05 -0.0005703246250909764 9.882715982927742e-05 0.0009153818066545398 0.9981334150514931 -0.004356791950555598 0.0018237758849061786 0.0017019678074027668
0.01250521050438 0.0019999783924360744 0.0034393809031530932 0.99790731550406 -0.008714444167346526 0.0001431774821107311 0.0018309872181509021 -0.00013403445512450918 -0.0011433568352708617
 0.99790731550406 -0.008714444167346526 0.0019999981575874346 0.0034393763400083896 -0.00013402614690779076 -0.0011433547140891087 0.00014304194142110465 0.0018310130742583493
 0.0001431774821107311 0.0018309872181509021 -0.00013402614690779076 -0.0011433547140891087 0.001999981206270258 0.003439548124590676 0.9979073169586643 -0.008714276737407238
 -0.00013403445512450918 -0.0011433568352708617 0.00014304194142110465 0.0018310130742583493 0.9979073169586643 -0.008714276737407238 0.001999998166644855 0.0034395437302140552
0.01875781575657 0.002192733637225396 0.005201499474177485 0.9976577027976795 -0.013083286460293334 0.0001976130953829354 0.0027474658084026132 -0.0001811734473478895 -0.0017182253907514656
 0.9976577027976795 -0.013083286460293334 0.002192778029568877 0.005201492426463824 -0.00018115490743252487 -0.001718222559353223 0.00019730858524493375 0.0027475121722997336
 0.0001976130953829354 0.0027474658084026132 -0.00018115490743252487 -0.001718222559353223 0.002192739511610326 0.005201750024661413 0.9976577056494701 -0.013083035472104407
 -0.0001811734473478895 -0.0017182253907514656 0.00019730858524493375 0.0027475121722997336 0.9976577056494701 -0.013083035472104407 0.0021927776377024012 0.005201742994734908
0.02501042100875 0.0024024317929039717 0.006985738098629679 0.9973842660079849 -0.01746548950389547 0.00026227556252669717 0.003664830755031072 -0.00023674164973817242 -0.0022946452213106817
 0.9973842660079849 -0.01746548950389547 0.002402510596145504 0.0069857284278005295 -0.0002367088931292247 -0.0022946419778490756 0.0002617346234445745 0.0036649038709767306
 0.00026227556252669717 0.003664830755031072 -0.0002367088931292247 -0.0022946419778490756 0.0024024418012597187 0.0069860717913234885 0.9973842707063104 -0.01746515493355898
 -0.00023674164973817242 -0.0022946452213106817 0.0002617346234445745 0.0036649038709767306 0.9973842707063104 -0.01746515493355898 0.002402509536694743 0.006986061826002058
0.03126302626094 0.0026294517425405777 0.00879079253499168 0.9970866798025316 -0.021861927285446215 0.0003372726591814924 0.00458301857147351 -0.00030085564201606796 -0.0028724112457275295
 0.9970866798025316 -0.021861927285446215 0.002629574717071298 0.00879078010238407 -0.0003008047208493617 -0.0028724079382650325 0.00033642772419588277 0.004583125577008333
 0.0003372726591814924 0.00458301857147351 -0.0003008047208493617 -0.0028724079382650325 0.0026294669416777757 0.008791209134766 0.9970866868050127 -0.021861509061811696
 -0.00030085564201606796 -0.0028724112457275295 0.00033642772419588277 0.004583125577008333 0.9970866868050127 -0.021861509061811696 0.0026295727276577194 0.008791195930034669
0.037515631513130004 0.002874163866033345 0.010615800446243398 0.9967646121226371 -0.026273018469134338 0.0004227112654640937 0.005501930994097037 -0.0003736290527696624 -0.0034513457979912254
 0.9967646121226371 -0.026273018469134338 0.0028743407539603646 0.010615785113830382 -0.00037355605258467006 -0.0034513428247145736 0.0004214946320409552 0.005502079929912973
 0.0004227112654640937 0.005501930994097037 -0.00037355605258467006 -0.0034513428247145736 0.002874185289970774 0.010616299666513661 0.996764621891572 -0.026272516476796653
 -0.0003736290527696624 -0.0034513457979912254 0.0004214946320409552 0.005502079929912973 0.996764621891572 -0.026272516476796653 0.0028743375697016255 0.01061628291464502
0.043768236765320004 0.0031369330702022925 0.012460110858597937 0.9964177275213237 -0.030698956867001064 0.0005186968442710187 0.006421450993377803 -0.00045517285562153814 -0.004031282635045705
 0.9964177275213237 -0.030698956867001064 0.003137173599257616 0.012460092489492888 -0.00045507389333525745 -0.004031280444370338 0.000517040660167068 0.006421650814294123
 0.0005186968442710187 0.006421450993377803 -0.00045507389333525745 -0.004031280444370338 0.0031369617311489645 0.012460692345474466 0.9964177405261969 -0.030698370961946872
 -0.00045517285562153814 -0.004031282635045705 0.000517040660167068 0.006421650814294123 0.9964177405261969 -0.030698370961946872 0.003137168952582363 0.012460671735466071
0.050020842017509996 0.0034181201884274023 0.014323188865864148 0.9960456888743592 -0.03513980666325103 0.0006253331202330501 0.007341449382725903 -0.000545595465722742 -0.0046120603501269355
 0.9960456888743592 -0.03513980666325103 0.0034184340767781035 0.01432316732471258 -0.00054546668843896 -0.004612059440803296 0.0006231693778696837 0.007341709969092839
 0.0006253331202330501 0.007341449382725903 -0.00054546668843896 -0.004612059440803296 0.0034181570774952353 0.01432385220752199 0.9960457055949701 -0.03513913666332312
 -0.000545595465722742 -0.0046120603501269355 0.0006231693778696837 0.007341709969092839 0.9960457055949701 -0.03513913666332312 0.003418427697056203 0.014323827425265213
0.055454545454549996 0.0036777156188864154 0.01595713886415942 0.9957016855233265 -0.03901113657348338 0.0007267320229418262 0.008141237314596395 -0.0006314684166097565 -0.00511733256325849
 0.9957016855233265 -0.03901113657348338 0.0036781011460168046 0.01595711445784465 -0.0006313106230534609 -0.005117333211651911 0.0007240718444816403 0.008141559459633194
 0.0007267320229418262 0.008141237314596395 -0.0006313106230534609 -0.005117333211651911 0.0036777604447273448 0.015957872960968206 0.9957017058702653 -0.039010393314618565
 -0.0006314684166097565 -0.00511733256325849 0.0007240718444816403 0.008141559459633194 0.9957017058702653 -0.039010393314618565 0.003678093035354384 0.01595784429548222
0.056273447269699996 0.0037180826882676848 0.01620456887481855 0.9956481584031254 -0.0395955491002302 0.0007427218462759857 0.008261788077210501 -0.0006450027490067644 -0.005193519140988594
 0.9956481584031254 -0.0395955491002302 0.0037184796476628923 0.016204544028026836 -0.0006448403332766469 -0.005193520062161645 0.0007399823808462231 0.008262120246588643
 0.0007427218462759857 0.008261788077210501 -0.0006448403332766469 -0.005193520062161645 0.0037181287724210245 0.01620531360226616 0.9956481793288757 -0.03959479478426294
 -0.0006450027490067644 -0.005193519140988594 0.0007399823808462231 0.008262120246588643 0.9956481793288757 -0.03959479478426294 0.00371847125755138 0.01620528433066628
0.06252605252188 0.0040371750364888975 0.018103828906662178 0.9952247983609269 -0.04406610811315899 0.0008709626154169813 0.00918232188354686 -0.0007534979840241084 -0.0057754990525375385
 0.9952247983609269 -0.04406610811315899 0.004037664776331209 0.01810380062258154 -0.0007532981354468848 -0.005775502403791933 0.0008675791069590339 0.009182737402470014
 0.0008709626154169813 0.00918232188354686 -0.0007532981354468848 -0.005775502403791933 0.004037231258240949 0.018104654483944042 0.9952248239928619 -0.044065269230640115
 -0.0007534979840241084 -0.0057754990525375385 0.0008675791069590339 0.009182737402470014 0.9952248239928619 -0.044065269230640115 0.004037654090691797 0.01810462040303849
0.06877865777407 0.004375748878065967 0.02002057526668182 0.9947752715373002 -0.04855136560248524 0.0010101526959292347 0.010102899582854602 -0.0008711817997107062 -0.006357838932868146
 0.9947752715373002 -0.04855136560248524 0.004376341109116712 0.02002054341556929 -0.0008709407527964815 -0.00635784536427699 0.0010060566728799687 0.010103411178653746
 0.0010101526959292347 0.010102899582854602 -0.0008709407527964815 -0.00635784536427699 0.0043758161549291375 0.020021481096714172 0.9947753023896891 -0.048550441867693465
 -0.0008711817997107062 -0.006357838932868146 0.0010060566728799687 0.010103411178653746 0.9947753023896891 -0.048550441867693465 0.004376327833531183 0.020021441883587544
0.07503126302626001 0.004734153106528968 0.021954432833307745 0.9942992416575386 -0.05305117109358501 0.0011603868818698454 0.011023364617642294 -0.0009981520957429593 -0.006940375791704034
 0.9942992416575386 -0.05305117109358501 0.004734857544184289 0.02195439728733115 -0.0009978661138452792 -0.0069403860038526255 0.0011555097267980262 0.011023985990220638
 0.0011603868818698454 0.011023364617642294 -0.0009978661138452792 -0.0069403860038526255 0.004734232328310653 0.02195541825788036 0.9942992782581763 -0.05305016218566187
 -0.0009981520957429593 -0.006940375791704034 0.0011555097267980262 0.011023985990220638 0.9942992782581763 -0.05305016218566187 0.004734841371861074 0.021955373586600848
0.08128386827845 0.005112733861227885 0.02390503860797576 0.9937963737151742 -0.05756534814301737 0.001321757352198584 0.011943555569814643 -0.0011345039533420841 -0.007522944374629502
 0.9937963737151742 -0.05756534814301737 0.0051135602295332575 0.0239049992409612 -0.0011341693287886786 -0.00752295911864612 0.001316030308289778 0.01194430140348137
 0.001321757352198584 0.011943555569814643 -0.0011341693287886786 -0.00752295911864612 0.00511282589018817 0.023906102906854163 0.9937964166076374 -0.05756425370688612
 -0.0011345039533420841 -0.007522944374629502 0.001316030308289778 0.01194430140348137 0.9937964166076374 -0.05756425370688612 0.00511354084067218 0.023906052448156006
0.08753647353064001 0.005511834481607566 0.025872037254241607 0.9932663342641987 -0.06209369876313777 0.0014943535355484358 0.012863306492283547 -0.0012803295386276036 -0.008105376890956806
 0.9932663342641987 -0.06209369876313777 0.0055127925168820605 0.02587199394144351 -0.0012799425929407057 -0.008105396968504585 0.0014877077147656373 0.012864192467420566
 0.0014943535355484358 0.012863306492283547 -0.0012799425929407057 -0.008105396968504585 0.005511940150810973 0.025873179640430368 0.9932663840088373 -0.062092518414463414
 -0.0012803295386276036 -0.008105376890956806 0.0014877077147656373 0.012864192467420566 0.9932663840088373 -0.062092518414463414 0.005512769576036694 0.025873123061538314
0.09378907878283 0.0059317954273766195 0.02785507790783968 0.9927087916821742 -0.06663600658407069 0.001678261979712308 0.013782447163559917 -0.0014357180008039846 -0.008687502825808291
 0.9927087916821742 -0.06663600658407069 0.005932894881905568 0.027855030525520016 -0.001435275084947312 -0.00868752908909953 0.0016706283712324384 0.013783489968320512
 0.001678261979712308 0.013782447163559917 -0.001435275084947312 -0.00868752908909953 0.005931915539544332 0.027856297535841616 0.9927088488577659 -0.06663473990121446
 -0.0014357180008039846 -0.008687502825808291 0.0016706283712324384 0.013783489968320512 0.9927088488577659 -0.06663473990121446 0.0059328680364451785 0.027856234499929605
0.100041684035 0.006372954176799188 0.02985381186032692 0.99212341641489 -0.07119203915036486 0.0018735662230572013 0.014700803283787502 -0.001600755367060374 -0.009269148818485038
 0.99212341641489 -0.07119203915036486 0.006374204822387391 0.02985376028519117 -0.0016002528617452348 -0.009269182170258058 0.001864875702781537 0.014702020625578
 0.0018735662230572013 0.014700803283787502 -0.0016002528617452348 -0.009269182170258058 0.006373089502445097 0.029855107818925603 0.9921234816192754 -0.07119068568189374
 -0.001600755367060374 -0.009269148818485038 0.001864875702781537 0.014702020625578 0.9921234816192754 -0.07119068568189374 0.0063741737001531 0.0298550379846584
0.1059090909091 0.006806511944194442 0.03174337429997609 0.9915484987453501 -0.07547965532608349 0.0020672745585947876 0.015561710855455609 -0.0017644748013187317 -0.009814368394113177
 0.9915484987453501 -0.07547965532608349 0.0068079133747117855 0.03174331867809391 -0.0017639131127879018 -0.00981440926368562 0.0020575292790800054 0.015563109004476982
 0.0020672745585947876 0.015561710855455609 -0.0017639131127879018 -0.00981440926368562 0.006806662217732357 0.031744741004000744 0.9915485720464463 -0.07547821997717159
 -0.0017644748013187317 -0.009814368394113177 0.0020575292790800054 0.015563109004476982 0.9915485720464463 -0.07547821997717159 0.0068078778818818535 0.031744664475276095
0.1062942892872 0.006835645106508543 0.03186789080776722 0.9915098812063786 -0.07576154966157742 0.0020803466685066063 0.015618196635610948 -0.0017755244344337612 -0.009850138583517111
 0.9915098812063786 -0.07576154966157742 0.006837056738467176 0.03186783491637727 -0.0017749587505599045 -0.00985017997699857 0.0020705300091323035 0.01561960725260547
 0.0020803466685066063 0.015618196635610948 -0.0017749587505599045 -0.00985017997699857 0.006835796383440925 0.03186926212542848 0.9915099550584903 -0.0757601089212224
 -0.0017755244344337612 -0.009850138583517111 0.0020705300091323035 0.01561960725260547 0.9915099550584903 -0.0757601089212224 0.006837020946049728 0.03186918514642434
0.11254689453939999 0.007320199359762162 0.033896965529165456 0.9908678613203231 -0.08034427829195478 0.002298680458810581 0.01653444522216653 -0.001960104659858735 -0.010430292862556848
 0.9908678613203231 -0.08034427829195478 0.007321781800554114 0.033896905197171125 -0.001959472238879168 -0.010430343301449955 0.0022876683407641865 0.01653606889456895
 0.002298680458810581 0.01653444522216653 -0.001959472238879168 -0.010430343301449955 0.007320367291032891 0.033898411170075596 0.9908679444613693 -0.08034274976309974
 -0.001960104659858735 -0.010430292862556848 0.0022876683407641865 0.01653606889456895 0.9908679444613693 -0.08034274976309974 0.007321740921171709 0.03389832669403324
0.11879949979160001 0.007826944703507107 0.03594068485605509 0.9901970347544846 -0.08493995322843045 0.0025286413535411576 0.017449363383735084 -0.002154572048667822 -0.011009429405555674
 0.9901970347544846 -0.08493995322843045 0.007828707806759512 0.03594061995724748 -0.0021538693631089293 -0.011009489943929874 0.0025163643758553595 0.017451220945009383
 0.0025286413535411576 0.017449363383735084 -0.0021538693631089293 -0.011009489943929874 0.007827129956780692 0.03594220372162245 0.990197127849614 -0.08493833636306372
 -0.002154572048667822 -0.011009429405555674 0.0025163643758553595 0.017451220945009383 0.990197127849614 -0.08493833636306372 0.007828661398314197 0.035942111389637536
0.1250521050438 0.008356205378518283 0.03799869486635245 0.9894970824494185 -0.0895482914936608 0.0027702996065631573 0.018362761909504616 -0.002358999042324196 -0.011587362964978877
 0.9894970824494185 -0.0895482914936608 0.008358159032711416 0.03799862527170847 -0.0023582225961866522 -0.01158743470727024 0.002756688298855359 0.01836487525739807
 0.0027702996065631573 0.018362761909504616 -0.0023582225961866522 -0.01158743470727024 0.008356408583831207 0.038000285799293224 0.989497186188527 -0.08954658570900433
 -0.002358999042324196 -0.011587362964978877 0.002756688298855359 0.01836487525739807 0.989497186188527 -0.08954658570900433 0.008358106625594643 0.03800018524478009
0.131304710296 0.00890830194185613 0.040070638254467245 0.9887676884939005 -0.09416899960277364 0.003023721844938083 0.019274448137571887 -0.002573454405209392 -0.012163905309968609
 0.9887676884939005 -0.09416899960277364 0.00891045607425715 0.04007056383092982 -0.002572600734569013 -0.01216398941085589 0.003008706679536105 0.01927684024500879
 0.003023721844938083 0.019274448137571887 -0.002572600734569013 -0.01216398941085589 0.008908523691041333 0.04007230003378534 0.9887678035937759 -0.09416720428695273
 -0.002573454405209392 -0.012163905309968609 0.003008706679536105 0.01927684024500879 0.9887678035937759 -0.09416720428695273 0.008910397169546813 0.04007219088151119
0.1375573155481 0.009361092938281591 0.04188559592599007 0.9881310533923291 -0.09853106872024876 0.0032582939569423034 0.020157481187690365 -0.0027673502827048405 -0.012712129798248933
 0.9881310533923291 -0.09853106872024876 0.009363459737199521 0.041885517837637325 -0.0027664145001135365 -0.012712226431271305 0.003241841475554818 0.0201601497545159
 0.0032582939569423034 0.020157481187690365 -0.0027664145001135365 -0.012712226431271305 0.009361335053133822 0.0418873268870885 0.9881311803945583 -0.09852918348371258
 -0.0027673502827048405 -0.012712129798248933 0.003241841475554818 0.0201601497545159 0.9881311803945583 -0.09852918348371258 0.00936339290920094 0.04188721126368833
0.1438099208003 0.009829932734381097 0.04369020107137582 0.9874717839352982 -0.10288129007126566 0.0035023261671328454 0.021036483378254443 -0.0029689796976907694 -0.01325665877462694
 0.9874717839352982 -0.10288129007126566 0.009832522564338657 0.0436901191840249 -0.002967958128593545 -0.013256769074728884 0.0034843732685417767 0.021039449523222283
 0.0035023261671328454 0.021036483378254443 -0.002967958128593545 -0.013256769074728884 0.009830195973855472 0.043691999863824736 0.9874719235591977 -0.10287931430879686
 -0.0029689796976907694 -0.01325665877462694 0.0034843732685417767 0.021039449523222283 0.9874719235591977 -0.10287931430879686 0.009832447103310795 0.04369187752133502
0.1500625260525 0.01031464449065188 0.0454842795944917 0.9867900616051682 -0.10721953194561377 0.0037557271781787247 0.02191134996807229 -0.0031782538128566585 -0.01379739361709232
 0.9867900616051682 -0.10721953194561377 0.010317467774382654 0.04548419374773259 -0.003177142796188149 -0.013797518764231603 0.0037362111208622505 0.0219146355934553
 0.0037557271781787247 0.02191134996807229 -0.003177142796188149 -0.013797518764231603 0.010314929590863714 0.04548614481220317 0.9867902145930884 -0.10721746503033466
 -0.0031782538128566585 -0.01379739361709232 0.0037362111208622505 0.0219146355934553 0.9867902145930884 -0.10721746503033466 0.010317382930739244 0.04548601547728479
0.15631513130469998 0.010815049967589299 0.04726766259951095 0.9860860689684083 -0.11154566361717994 0.004018404530496947 0.02278197815167309 -0.003395082618340813 -0.01433423792665927
 0.9860860689684083 -0.11154566361717994 0.010818117187428254 0.047267572604843364 -0.0033938785067904446 -0.014334379145473308 0.003997262937410786 0.022785605935997693
