! Created with skrf 1.8.0 (http://scikit-rf.org).
# GHz S RI R 50.0 
!freq ReS11 ImS11 ReS12 ImS12 ReS13 ImS13
! ReS14 ImS14
! ReS21 ImS21 ReS22 ImS22 ReS23 ImS23
! ReS24 ImS24
! ReS31 ImS31 ReS32 ImS32 ReS33 ImS33
! ReS34 ImS34
! ReS41 ImS41 ReS42 ImS42 ReS43 ImS43
! ReS44 ImS44
!
0.0 0.001717687784319 0.0 0.9982823122043 0.0 6.675338238922e-05 0.0 -6.675338216686e-05 8.17493158029051e-21
 0.9982823122043 0.0 0.001717687784344 0.0 -6.675338216805e-05 8.174931580436244e-21 6.675338238984e-05 0.0
 6.675338238922e-05 0.0 -6.675338216805e-05 8.174931580436244e-21 0.001717687787184 0.0 0.9982823122072 0.0
 -6.675338216686e-05 8.17493158029051e-21 6.675338238984e-05 0.0 0.9982823122072 0.0 0.001717687787151 0.0
0.005 0.0018486843824481107 0.001400803255119209 0.9981164623823175 -0.0035977461262289238 9.451621765076251e-05 0.0007588167471576479 -9.154426122006513e-05 -0.00047212910433518676
 0.9981164623823175 -0.0035977461262289238 0.0018487129020124797 0.0014007865627274968 -9.153915902268008e-05 -0.0004721251962221122 9.435766141410173e-05 0.000758877204726085
 9.451621765076251e-05 0.0007588167471576479 -9.153915902268008e-05 -0.0004721251962221122 0.0018486873207281748 0.0014008687904174383 0.9981164627500783 -0.0035976790545647857
 -9.154426122006513e-05 -0.00047212910433518676 9.435766141410173e-05 0.000758877204726085 0.9981164627500783 -0.0035976790545647857 0.0018487106928774522 0.0014008551661316574
0.006252605252188 0.0018832055424045392 0.0017565091528203218 0.998072448422108 -0.004498037163113019 0.00010256109356431974 0.000948865302590531 -9.862690931697248e-05 -0.0005907666005015539
 0.998072448422108 -0.004498037163113019 0.0018832501240466301 0.001756487969760738 -9.86189698361573e-05 -0.0005907617832250286 0.00010231336665037638 0.0009489438386738148
 0.00010256109356431974 0.000948865302590531 -9.86189698361573e-05 -0.0005907617832250286 0.0018832100753656805 0.001756591048967787 0.9980724489365721 -0.004497953340308626
 -9.862690931697248e-05 -0.0005907666005015539 0.00010231336665037638 0.0009489438386738148 0.9980724489365721 -0.004497953340308626 0.0018832466099042975 0.0017565737086591622
0.01250521050438 0.002065891560510574 0.0035497048104039214 0.9978378329840065 -0.00899670227444117 0.0001492927639882591 0.0018979253844547178 -0.00013925939557921823 -0.0011843036376045332
 0.9978378329840065 -0.00899670227444117 0.002066069582358858 0.0035496592155443403 -0.00013922810662950853 -0.0011842947536018225 0.00014830493804871196 0.0018981146693611813
 0.0001492927639882591 0.0018979253844547178 -0.00013922810662950853 -0.0011842947536018225 0.0020659090842310205 0.003549868257227473 0.9978378344594245 -0.008996534871983694
 -0.00013925939557921823 -0.0011843036376045332 0.00014830493804871196 0.0018981146693611813 0.9978378344594245 -0.008996534871983694 0.0020660549641691624 0.003549830472668531
0.01875781575657 0.0022661803439915024 0.005368232820008941 0.9975781492812995 -0.01350690652491601 0.00020706042628454064 0.0028478103745159878 -0.00018878371589316854 -0.0017796975391261903
 0.9975781492812995 -0.01350690652491601 0.002266580382172303 0.005368159277445269 -0.00018871394126173521 -0.0017796854991414465 0.00020484151097387501 0.0028481494620414185
 0.00020706042628454064 0.0028478103745159878 -0.00018871394126173521 -0.0017796854991414465 0.002266219301885526 0.005368477521835893 0.9975781521752429 -0.01350665562410686
 -0.00018878371589316854 -0.0017796975391261903 0.00020484151097387501 0.0028481494620414185 0.9975781521752429 -0.01350665562410686 0.002266547097974858 0.005368416025519102
0.02501042100875 0.002484491365208201 0.007209494916732235 0.9972930673466273 -0.01803079056507704 0.00027597810616323767 0.0037985332564812705 -0.0002473275453692197 -0.002376643818631202
 0.9972930673466273 -0.01803079056507704 0.0024852018314261994 0.0072093896143268655 -0.0002472043312001417 -0.0023766297086144366 0.00027203703125212804 0.0037990678304361002
 0.00027597810616323767 0.0037985332564812705 -0.0002472043312001417 -0.0023766297086144366 0.00248456018085535 0.007209820526220896 0.9972930721126686 -0.018030456190282058
 -0.0002473275453692197 -0.002376643818631202 0.00027203703125212804 0.0037990678304361002 0.9972930721126686 -0.018030456190282058 0.002485142319994666 0.007209731910694173
0.03126302626094 0.002721226626672951 0.009072130849032155 0.9969822417529045 -0.02256924237554126 0.0003561600548802424 0.004750015956091594 -0.00031501433676997705 -0.002974920917098918
 0.9969822417529045 -0.02256924237554126 0.002722335819170092 0.009071989703112376 -0.00031482288128032387 -0.0029749059999707055 0.00035000523053197314 0.004750798369592055
 0.0003561600548802424 0.004750015956091594 -0.00031482288128032387 -0.0029749059999707055 0.002721333714817118 0.009072536930903253 0.9969822488485177 -0.022568824529828408
 -0.00031501433676997705 -0.002974920917098918 0.00035000523053197314 0.004750798369592055 0.9969822488485177 -0.022568824529828408 0.002722242523212184 0.009072417654094814
0.037515631513130004 0.002976778934090795 0.010955236168400365 0.996645320225918 -0.027122679421191814 0.0004477194659234211 0.005702144014075941 -0.0003919642244319215 -0.0035743355474497896
 0.996645320225918 -0.027122679421191814 0.0029783750722457074 0.010955054825407182 -0.0003916898625207772 -0.003574321263595238 0.00043885859593207396 0.0057032333549834145
 0.0004477194659234211 0.005702144014075941 -0.0003916898625207772 -0.003574321263595238 0.002976932697948649 0.010955722197693021 0.9966453301094887 -0.027122178087261094
 -0.0003919642244319215 -0.0035743355474497896 0.00043885859593207396 0.0057032333549834145 0.9966453301094887 -0.027122178087261094 0.00297824043296449 0.010955568585832565
0.043768236765320004 0.003251535072296614 0.012858124202332179 0.99628194716432 -0.03169128661089835 0.0005507678652054266 0.0066547832209958475 -0.000478294329580078 -0.004174706085183203
 0.99628194716432 -0.03169128661089835 0.003253706324489743 0.012857898038674005 -0.0004779225239645597 -0.004174694052579201 0.0005387078682564221 0.006656245385233219
 0.0005507678652054266 0.0066547832209958475 -0.0004779225239645597 -0.004174694052579201 0.0032517439060771704 0.012858689558981978 0.9962819602980807 -0.0316907017552777
 -0.000478294329580078 -0.004174706085183203 0.0005387078682564221 0.006656245385233219 0.9962819602980807 -0.0316907017552777 0.0032535227819023545 0.012858497808348001
0.050020842017509996 0.003545877262793534 0.014780227688004922 0.9958917654482699 -0.03627511459551345 0.000665414736357409 0.007607786494859953 -0.0005741188549325768 -0.00477585572232751
 0.9958917654482699 -0.03627511459551345 0.0035487117707912585 0.014779951809086722 -0.000573635190564241 -0.004775847736531588 0.0006496617252122541 0.007609694262891336
 0.000665414736357409 0.007607786494859953 -0.000573635190564241 -0.004775847736531588 0.0035461495504015895 0.014780871662915654 0.9958917822973313 -0.036274446161243167
 -0.0005741188549325768 -0.00477585572232751 0.0006496617252122541 0.007609694262891336 0.9958917822973313 -0.036274446161243167 0.003548471761650941 0.014780637840860903
0.055454545454549996 0.0038178697817889493 0.0164658125888336 0.9955306361131651 -0.040270935286992174 0.0007745490142712677 0.008436149487923511 -0.0006651904053443947 -0.005298769516029861
 0.9955306361131651 -0.040270935286992174 0.00382135225727097 0.016465489318959147 -0.0006645979177504541 -0.0052987666431300985 0.0007551849493120602 0.008438509011085865
 0.0007745490142712677 0.008436149487923511 -0.0006645979177504541 -0.0052987666431300985 0.0038182040137709258 0.016466524228889536 0.9955306565722133 -0.04027019416653308
 -0.0006651904053443947 -0.005298769516029861 0.0007551849493120602 0.008438509011085865 0.9955306565722133 -0.04027019416653308 0.003821057032418577 0.01646625055163737
0.056273447269699996 0.003860183895370936 0.016721050500285137 0.9954744175268722 -0.04087412797515407 0.0007917672494374444 0.008560997270679733 -0.0006795490857882905 -0.005377609116084729
 0.9954744175268722 -0.04087412797515407 0.0038637697967523884 0.016720719738617596 -0.0006789392662456802 -0.005377607150184872 0.0007718265449623716 0.008563430385145659
 0.0007917672494374444 0.008560997270679733 -0.0006789392662456802 -0.005377607150184872 0.00386052801091556 0.016721772281224144 0.9954744385610788 -0.04087337589480456
 -0.0006795490857882905 -0.005377609116084729 0.0007718265449623716 0.008563430385145659 0.9954744385610788 -0.04087337589480456 0.0038634657549735836 0.01672149232626312
0.06252605252188 0.0041948299032503016 0.01868014110441612 0.9950295461555239 -0.045488231787680036 0.000929930042230154 0.00951425136810455 -0.000794693342373939 -0.005979790566565657
 0.9950295461555239 -0.045488231787680036 0.004199255353131914 0.018679750016956837 -0.0007939431876354259 -0.005979796771073068 0.0009053062108115826 0.009517296611692904
 0.000929930042230154 0.00951425136810455 -0.0007939431876354259 -0.005979796771073068 0.004195254210094346 0.01868093978411527 0.9950295718491252 -0.04548739597389124
 -0.000794693342373939 -0.005979790566565657 0.0009053062108115826 0.009517296611692904 0.9950295718491252 -0.04548739597389124 0.0041988797081976125 0.018680609505434303
0.06877865777407 0.004550186938912422 0.020657076759923922 0.994556794937824 -0.05011728725294318 0.0010800050304065327 0.010467378120806139 -0.0009196569050691684 -0.006582222940356923
 0.994556794937824 -0.05011728725294318 0.004555540130502923 0.020656619624678383 -0.0009187523500287163 -0.006582239643077232 0.0010502019379512466 0.010471129393782282
 0.0010800050304065327 0.010467378120806139 -0.0009187523500287163 -0.006582239643077232 0.004550699789160491 0.020657951326684996 0.994556825770974 -0.05011636760664192
 -0.0009196569050691684 -0.006582222940356923 0.0010502019379512466 0.010471129393782282 0.994556825770974 -0.05011636760664192 0.004555085307821054 0.020657566402902602
0.07503126302626001 0.004926623436110421 0.022651453475987605 0.9940558087598166 -0.05476112177363047 0.0012420912349671205 0.011420201103368265 -0.0010545419226301994 -0.007184727004514023
 0.9940558087598166 -0.05476112177363047 0.004932992621313217 0.022650924287790808 -0.0010534690163184178 -0.007184756710401458 0.0012066121134699838 0.011424759500405727
 0.0012420912349671205 0.011420201103368265 -0.0010534690163184178 -0.007184756710401458 0.0049272331693153435 0.022652402817528807 0.9940558452183063 -0.054760118179026
 -0.0010545419226301994 -0.007184727004514023 0.0012066121134699838 0.011424759500405727 0.9940558452183063 -0.054760118179026 0.004932451041176195 0.02265195879458802
0.08128386827845 0.005324504595693537 0.02466287937224152 0.9935262341525799 -0.059419535539335204 0.0014162846206927076 0.012372538627359904 -0.0011994473093826501 -0.007787120999565625
 0.9935262341525799 -0.059419535539335204 0.005331978105307992 0.024662271837820517 -0.001198192214669777 -0.007787166390542488 0.0013746321445548537 0.012378012513455045
 0.0014162846206927076 0.012372538627359904 -0.001198192214669777 -0.007787166390542488 0.0053252195387038055 0.024663902272490483 0.9935262767294689 -0.059418447865929196
 -0.0011994473093826501 -0.007787120999565625 0.0013746321445548537 0.012378012513455045 0.9935262767294689 -0.059418447865929196 0.005331342183214164 0.024663394560953025
0.08753647353064001 0.005744192325358755 0.02669097006717657 0.9929677196126958 -0.06409230611212313 0.0016026779415138728 0.013324204101757383 -0.0013544686351102137 -0.008389220356680565
 0.9929677196126958 -0.06409230611212313 0.005752858588989228 0.026690277599401728 -0.0013530176286880484 -0.008389284291441848 0.0015543543120835864 0.013330709186934598
 0.0016026779415138728 0.013324204101757383 -0.0013530176286880484 -0.008389284291441848 0.005745020790354128 0.026692065205014746 0.992967768807917 -0.06409113421485
 -0.0013544686351102137 -0.008389220356680565 0.0015543543120835864 0.013330709186934598 0.992967768807917 -0.06409113421485 0.005752120734905824 0.026691489076478583
0.09378907878283 0.006186045143670999 0.028735345405177803 0.9923799158918611 -0.06877919168311997 0.001801360591146634 0.01427500630052567 -0.0015196980094499724 -0.008990837516301097
 0.9923799158918611 -0.06877919168311997 0.006195992709940875 0.028734561116547368 -0.0015180374821794269 -0.008990923030085207 0.0017458676278826251 0.01428266571326898
 0.001801360591146634 0.01427500630052567 -0.0015180374821794269 -0.008990923030085207 0.006186995427537752 0.028736511353588078 0.9923799722135561 -0.06877793540205653
 -0.0015196980094499724 -0.008990837516301097 0.0017458676278826251 0.01428266571326898 0.9923799722135561 -0.06877793540205653 0.0061951453282965965 0.028735861936354048
0.100041684035 0.006650418059912229 0.030795627061259268 0.9917624762658941 -0.07347993346126062 0.00201241845670329 0.015224749579448499 -0.001695223962933839 -0.009591781806454786
 0.9917624762658941 -0.07347993346126062 0.006661735616430165 0.030794743756440843 -0.0016933404204011425 -0.009591892110785802 0.0019492576944234302 0.01523369393857985
 0.00201241845670329 0.015224749579448499 -0.0016933404204011425 -0.009591892110785802 0.006651498443121171 0.03079686228375729 0.9917625402310448 -0.0734785926241853
 -0.001695223962933839 -0.009591781806454786 0.0019492576944234302 0.01523369393857985 0.9917625402310448 -0.0734785926241853 0.006660771105939399 0.030796134557635885
0.1059090909091 0.007106977611727552 0.032743112522969235 0.9911558147164562 -0.07790343925399772 0.002221802305662613 0.01611484183589113 -0.00186937669390044 -0.010154919674205726
 0.9911558147164562 -0.07790343925399772 0.007119661560591414 0.03274212947646702 -0.0018672717050032472 -0.01015505631946961 0.002150992614942264 0.016125117511473632
 0.002221802305662613 0.01611484183589113 -0.0018672717050032472 -0.01015505631946961 0.00710818759413508 0.03274441125873971 0.9911558863321135 -0.0779020188997436
 -0.00186937669390044 -0.010154919674205726 0.002150992614942264 0.016125117511473632 0.9911558863321135 -0.0779020188997436 0.007118580218387755 0.032743605344618155
0.1062942892872 0.007137662437261341 0.03287143674399075 0.9911150567913098 -0.07819425747422704 0.0022359337756551736 0.016173234051794223 -0.0018811313248581045 -0.010191859371232084
 0.9911150567913098 -0.07819425747422704 0.007150438830637549 0.03287044691162089 -0.0018790113880764764 -0.010191997853636166 0.002164606566763095 0.01618360153684502
 0.0022359337756551736 0.016173234051794223 -0.0018790113880764764 -0.010191997853636166 0.007138881182047108 0.03287273959624371 0.9911151289256246 -0.07819283189394743
 -0.0018811313248581045 -0.010191859371232084 0.002164606566763095 0.01618360153684502 0.9911151289256246 -0.07819283189394743 0.00714934958395652 0.032871928386471225
0.11254689453939999 0.007648125840752877 0.03496239483857748 0.9904373165491199 -0.08292187593973349 0.002471984994180669 0.017120255740018058 -0.0020775010997319495 -0.010790873132466888
 0.9904373165491199 -0.08292187593973349 0.0076624500965974856 0.03496129064213298 -0.0020751315060363834 -0.010791043356177536 0.002391992615720218 0.017132192159813146
 0.002471984994180669 0.017120255740018058 -0.0020751315060363834 -0.010791043356177536 0.007649491190386315 0.03496376356650713 0.9904373973885925 -0.08292036541496085
 -0.0020775010997319495 -0.010790873132466888 0.002391992615720218 0.017132192159813146 0.9904373973885925 -0.08292036541496085 0.007661228500616906 0.03496286353686662
0.11879949979160001 0.008182151875821598 0.03706811935435565 0.9897289178830907 -0.08766248834325475 0.0027206466276784276 0.018065606712541794 -0.0022844103420999267 -0.011388622775661142
 0.9897289178830907 -0.08766248834325475 0.008198113218662095 0.03706689262220656 -0.0022817779461276615 -0.011388828479243619 0.002631490392616633 0.01807926557196055
 0.0027206466276784276 0.018065606712541794 -0.0022817779461276615 -0.011388828479243619 0.008183672052600332 0.037069552093818695 0.9897290079740623 -0.08766089265807657
 -0.0022844103420999267 -0.011388622775661142 0.002631490392616633 0.01807926557196055 0.9897290079740623 -0.08766089265807657 0.008196751654100267 0.03706855773879235
0.1250521050438 0.008740080017378879 0.03918822510262102 0.9889895266315872 -0.09241578229663042 0.0029819891228314984 0.01900907520688249 -0.0025019320304942878 -0.011984904759083516
 0.9889895266315872 -0.09241578229663042 0.00875776789112739 0.03918686731700674 -0.0024990238053814793 -0.011985149856066362 0.0028831704952580173 0.01902461777167212
 0.0029819891228314984 0.01900907520688249 -0.0024990238053814793 -0.011985149856066362 0.008741763221858441 0.039189719877225124 0.9889896265317721 -0.09241410122167439
 -0.0025019320304942878 -0.011984904759083516 0.0028831704952580173 0.01902461777167212 0.9889896265317721 -0.09241410122167439 0.008756258732736034 0.039188625513279396
0.131304710296 0.009322245433763273 0.041322323052019744 0.9882188123551399 -0.09718143423024382 0.003256078720933006 0.019950445748047854 -0.0027301349412527103 -0.012579512337132639
 0.9882188123551399 -0.09718143423024382 0.009341749521261695 0.04132082533726881 -0.002726937979745915 -0.012579800915611176 0.0031470994348304243 0.019968041107647445
 0.003256078720933006 0.019950445748047854 -0.002726937979745915 -0.012579800915611176 0.009324099842714952 0.04132387777111094 0.98821892263421 -0.09717966752399722
 -0.0027301349412527103 -0.012579512337132639 0.0031470994348304243 0.019968041107647445 0.98821892263421 -0.09717966752399722 0.009340085137789448 0.041322677526963614
0.1375573155481 0.009801305100937612 0.043191407507628815 0.9875441814270017 -0.10168034937285753 0.0035107069543800313 0.020862262583103086 -0.0029369452404544097 -0.013144928575680883
 0.9875441814270017 -0.10168034937285753 0.009822720675557456 0.04318978994531073 -0.0029334403337945 -0.013145261297686226 0.0033913159088908764 0.020881896539790154
 0.0035107069543800313 0.020862262583103086 -0.0029334403337945 -0.013145261297686226 0.009803338400179688 0.04319302010142376 0.9875443025657099 -0.10167849691574839
 -0.0029369452404544097 -0.013144928575680883 0.0033913159088908764 0.020881896539790154 0.9875443025657099 -0.10167849691574839 0.009820894083731525 0.043191737230269686
0.1438099208003 0.01029737574473659 0.04504949704009617 0.9868454752412771 -0.1061667033776783 0.0037756047068938075 0.021769626656111235 -0.0031519885114592054 -0.013706326530873966
 0.9868454752412771 -0.1061667033776783 0.01032079362431604 0.04504775234028806 -0.0031481617903431707 -0.013706707450027512 0.003645348591940254 0.021791454982128474
 0.0037756047068938075 0.021769626656111235 -0.0031481617903431707 -0.013706707450027512 0.010299595992687715 0.04505116534464017 0.9868456078073576 -0.10616476493937509
 -0.0031519885114592054 -0.013706326530873966 0.003645348591940254 0.021791454982128474 0.9868456078073576 -0.10616476493937509 0.01031879729924821 0.04504979566855692
0.1500625260525 0.010810264610929776 0.046896402675063696 0.9861228913348299 -0.11064035024316173 0.004050669658951049 0.0226724201981039 -0.003375166552604853 -0.014263598022464623
 0.9861228913348299 -0.11064035024316173 0.010835775862450067 0.04689452311143069 -0.003371004186995517 -0.014264031355395562 0.003909098261971 0.02269660436191608
 0.004050669658951049 0.0226724201981039 -0.003371004186995517 -0.014264031355395562 0.0108126798389365 0.04689812444067457 0.9861230359060088 -0.11063832558323175
 -0.003375166552604853 -0.014263598022464623 0.003909098261971 0.02269660436191608 0.9861230359060088 -0.11063832558323175 0.010833602280158455 0.046896663474123745
0.15631513130469998 0.011339777358268853 0.048731941095566514 0.9853766284904122 -0.11510114525611014 0.0043357981458867515 0.023570527678544995 -0.003606379834965383 -0.014816637373345815
 0.9853766284904122 -0.11510114525611014 0.01136747330432435 0.04872991849373175 -0.003601868034748338 -0.014817127498874521 0.004182464404457514 0.023597234779368974
