! Created with skrf 1.8.0 (http://scikit-rf.org).
# GHz S RI R 50.0 
!freq ReS11 ImS11 ReS12 ImS12 ReS13 ImS13
! ReS14 ImS14
! ReS21 ImS21 ReS22 ImS22 ReS23 ImS23
! ReS24 ImS24
! ReS31 ImS31 ReS32 ImS32 ReS33 ImS33
! ReS34 ImS34
! ReS41 ImS41 ReS42 ImS42 ReS43 ImS43
! ReS44 ImS44
!
0.0 0.001620437854066 0.0 0.9983795621204 0.0 6.226318680767e-05 0.0 -6.22631872511e-05 7.62504129717719e-21
 0.9983795621204 0.0 0.001620437854071 0.0 -6.226318725194e-05 7.62504129728006e-21 6.226318680719e-05 0.0
 6.226318680767e-05 0.0 -6.226318725194e-05 7.62504129728006e-21 0.001620437862617 0.0 0.9983795621289 0.0
 -6.22631872511e-05 7.62504129717719e-21 6.226318680719e-05 0.0 0.9983795621289 0.0 0.001620437862583 0.0
0.005 0.0017436157488798538 0.0013323787066882072 0.9982237300724952 -0.003393702176641568 8.624178145511834e-05 0.0006445345597248346 -8.404727979218994e-05 -0.00041176134704344955
 0.9982237300724952 -0.003393702176641568 0.0017436098694163043 0.0013323820851211534 -8.404830996276489e-05 -0.00041176205636777837 8.626953903095873e-05 0.0006445238680041949
 8.624178145511834e-05 0.0006445345597248346 -8.404830996276489e-05 -0.00041176205636777837 0.0017436152885954342 0.0013323116416399808 0.9982237297117948 -0.00339376923974803
 -8.404727979218994e-05 -0.00041176134704344955 8.626953903095873e-05 0.0006445238680041949 0.9982237297117948 -0.00339376923974803 0.0017436096065736257 0.0013323150202455853
0.006252605252188 0.0017759898367987407 0.0016706729050336836 0.9981825126256576 -0.004242943898556389 9.310373738877444e-05 0.0008059969507762715 -9.021615272792917e-05 -0.0005152206500029827
 0.9981825126256576 -0.004242943898556389 0.0017759806468824232 0.0016706772232690803 -9.021775640118615e-05 -0.0005152215226959022 9.314710451510184e-05 0.0008059830845814147
 9.310373738877444e-05 0.0008059969507762715 -9.021775640118615e-05 -0.0005152215226959022 0.0017759891914510756 0.0016705890786819736 0.9981825121354825 -0.0042430277136758275
 -9.021615272792917e-05 -0.0005152206500029827 9.314710451510184e-05 0.0008059830845814147 0.9981825121354825 -0.0042430277136758275 0.0017759803092249628 0.0016705934117356323
0.01250521050438 0.001946810979761076 0.003375984939741866 0.9979635892206183 -0.008486577414419983 0.00013251696018559567 0.0016124615660500715 -0.00012531611560492818 -0.001032857735057643
 0.9979635892206183 -0.008486577414419983 0.0019467742961600239 0.003375994549715776 -0.00012532244340351622 -0.0010328593256864907 0.0001326898542615197 0.0016124283893491384
 0.00013251696018559567 0.0016124615660500715 -0.00012532244340351622 -0.0010328593256864907 0.0019468089622432852 0.0033758174439028677 0.997963587814768 -0.008486744789133525
 -0.00012531611560492818 -0.001032857735057643 0.0001326898542615197 0.0016124283893491384 0.997963587814768 -0.008486744789133525 0.0019467734898101078 0.0033758272312881987
0.01875781575657 0.00213328813793207 0.005105265314306891 0.9977225096159968 -0.012741205085076477 0.00018059805260940142 0.0024198772441791005 -0.0001676727223363333 -0.0015522136380743282
 0.9977225096159968 -0.012741205085076477 0.002133205729462513 0.005105281284228107 -0.00016768684443528725 -0.0015522157574404337 0.00018098633783277324 0.0024198181778896126
 0.00018059805260940142 0.0024198772441791005 -0.00016768684443528725 -0.0015522157574404337 0.0021332840427952015 0.00510501414164508 0.9977225068801158 -0.01274145590066262
 -0.0001676727223363333 -0.0015522136380743282 0.00018098633783277324 0.0024198181778896126 0.9977225068801158 -0.01274145590066262 0.0021332043207822242 0.0051050306054456745
0.02501042100875 0.002335795939297001 0.006856091986819094 0.9974589799408454 -0.017008870531194993 0.000237442889443411 0.003228256397806673 -0.00021739206167404465 -0.0020730553775199054
 0.9974589799408454 -0.017008870531194993 0.0023356496243949186 0.006856115474823481 -0.00021741701492272836 -0.0020730577991046285 0.00023813240308125493 0.0032281637714968114
 0.000237442889443411 0.003228256397806673 -0.00021741701492272836 -0.0020730577991046285 0.002335789068963465 0.0068557570764774525 0.9974589754604446 -0.01700920469463085
 -0.00021739206167404465 -0.0020730553775199054 0.00023813240308125493 0.0032281637714968114 0.9974589754604446 -0.01700920469463085 0.00233564746701429 0.0068557815359407545
0.03126302626094 0.0025546935837908362 0.008627209894898527 0.9971726918353426 -0.021290438193579665 0.0003031474056861278 0.004037541941989141 -0.0002745771987215318 -0.00259521316735857
 0.9971726918353426 -0.021290438193579665 0.002554465220944719 0.008627242148726915 -0.00027461599221284685 -0.0025952156269150703 0.0003042240415978484 0.004037406988967113
 0.0003031474056861278 0.004037541941989141 -0.00027461599221284685 -0.0025952156269150703 0.0025546832513961347 0.008626791152785722 0.9971726851999448 -0.021290855617182684
 -0.0002745771987215318 -0.00259521316735857 0.0003042240415978484 0.004037406988967113 0.9971726851999448 -0.021290855617182684 0.002554462159931048 0.008626825024420033
0.037515631513130004 0.00279033239995453 0.010417794169677676 0.996863330278783 -0.025586330054754233 0.00037780677193554056 0.004847649009953828 -0.00033932884451089775 -0.0031185387146544876
 0.996863330278783 -0.025586330054754233 0.002790003882193033 0.010417836526630477 -0.00033938446236629334 -0.003118540910036572 0.00037935651882776755 0.004847461857240236
 0.00037780677193554056 0.004847649009953828 -0.00033938446236629334 -0.003118540910036572 0.0027903179247549263 0.010417291472056549 0.9968633210778978 -0.02558683065247339
 -0.00033932884451089775 -0.0031185387146544876 0.00037935651882776755 0.004847461857240236 0.9968633210778978 -0.02558683065247339 0.0027899997500356625 0.01041733626990599
0.043768236765320004 0.0030430587578267466 0.012227225902032202 0.9965305767724288 -0.02989674979815284 0.00046151499707417556 0.005658477626897541 -0.00041174558324748344 -0.0036428925562286907
 0.9965305767724288 -0.02989674979815284 0.0030426120084123287 0.01222727978909314 -0.00041182098612968916 -0.003642894147285511 0.00046362395698092574 0.005658227283607495
 0.00046151499707417556 0.005658477626897541 -0.00041182098612968916 -0.003642894147285511 0.003043039467837112 0.012226639100324605 0.9965305645996905 -0.029897333480839502
 -0.00041174558324748344 -0.0036428925562286907 0.00046362395698092574 0.005658227283607495 0.9965305645996905 -0.029897333480839502 0.0030426066287918773 0.012226696436332845
0.050020842017509996 0.003313215417065743 0.014054999469851594 0.9961741109611658 -0.034221775404753685 0.0005543646779150279 0.006469917959030441 -0.0004919239454977439 -0.004168138821872962
 0.9961741109611658 -0.034221775404753685 0.003312632385713672 0.01405506640402857 -0.0004920220715087055 -0.00416813943037712 0.0005571190744690308 0.006469592304038982
 0.0005543646779150279 0.006469917959030441 -0.0004920220715087055 -0.00416813943037712 0.003313190646175905 0.014054328391338362 0.9961740954123641 -0.03422244207945326
 -0.0004919239454977439 -0.004168138821872962 0.0005571190744690308 0.006469592304038982 0.9961740954123641 -0.03422244207945326 0.003312625571483581 0.01405439997585846
0.055454545454549996 0.003562409277567072 0.01565794466724414 0.9958448245925008 -0.03799221517252563 0.0006425485624438905 0.007175490176396609 -0.0005679781888728412 -0.0046252137820266765
 0.9958448245925008 -0.03799221517252563 0.0035616931722738505 0.015658024241949533 -0.0005680984309837367 -0.004625213199875668 0.0006459339831392827 0.007175088342138296
 0.0006425485624438905 0.007175490176396609 -0.0005680984309837367 -0.004625213199875668 0.003562379207199787 0.01565720019197749 0.995844805783724 -0.03799295389000452
 -0.0005679781888728412 -0.0046252137820266765 0.0006459339831392827 0.007175088342138296 0.995844805783724 -0.03799295389000452 0.003561684951155099 0.015657285624789536
0.056273447269699996 0.0036011422135250122 0.015900677054287476 0.995793611598133 -0.03856140456254259 0.0006564468155068357 0.00728185288652358 -0.0005799584105920302 -0.004694142677107432
 0.995793611598133 -0.03856140456254259 0.003600404873291057 0.015900758642976184 -0.0005800821758388327 -0.004694141886691166 0.0006599329959060615 0.0072814386558638445
 0.0006564468155068357 0.00728185288652358 -0.0005800821758388327 -0.004694141886691166 0.003601111301480583 0.0158999215040555 0.9957935922720226 -0.03856215413058628
 -0.0005799584105920302 -0.004694142677107432 0.0006599329959060615 0.0072814386558638445 0.9957935922720226 -0.03856215413058628 0.003600396426856856 0.015900009146457138
0.06252605252188 0.003907176419062049 0.017763863639840373 0.9953887571864076 -0.042915579595926644 0.0007678506640987269 0.008094159425807216 -0.0006759413731928242 -0.005220768920998302
 0.9953887571864076 -0.042915579595926644 0.0039062667638015474 0.01776396158125742 -0.0006760936720808548 -0.005220766277102693 0.0007721550971466231 0.008093642199879757
 0.0007678506640987269 0.008094159425807216 -0.0006760936720808548 -0.005220766277102693 0.003907138710635461 0.017763023402819017 0.9953887336847792 -0.04291641195085327
 -0.0006759413731928242 -0.005220768920998302 0.0007721550971466231 0.008093642199879757 0.9953887336847792 -0.04291641195085327 0.0039062564770253804 0.017763129012132083
0.06877865777407 0.00423165292414688 0.019644192104197954 0.9949592264475858 -0.047284202309894434 0.0008886635993175618 0.008906709576514439 -0.0007799630884261354 -0.005747881164135418
 0.9949592264475858 -0.047284202309894434 0.004230552965246085 0.019644308187981466 -0.0007801467937605126 -0.005747876173975139 0.0008938728701972354 0.008906073767287115
 0.0008886635993175618 0.008906709576514439 -0.0007801467937605126 -0.005747876173975139 0.004231607768152473 0.019643266941103524 0.9949591983752902 -0.04728511734170728
 -0.0007799630884261354 -0.005747881164135418 0.0008938728701972354 0.008906073767287115 0.9949591983752902 -0.04728511734170728 0.00423054061928152 0.019643392526700828
0.07503126302626001 0.004574904314951628 0.021541313768731453 0.9945046986900087 -0.05166714337924145 0.0010189709956955366 0.009719370872501106 -0.0008921116051347534 -0.006275341307792713
 0.9945046986900087 -0.05166714337924145 0.004573596078995869 0.021541449876551315 -0.0008923295681333197 -0.006275333440321474 0.0010251717989470724 0.009718599710702602
 0.0010189709956955366 0.009719370872501106 -0.0008923295681333197 -0.006275333440321474 0.0045748510641328505 0.021540303421495762 0.9945046656559983 -0.05166814096902365
 -0.0008921116051347534 -0.006275341307792713 0.0010251717989470724 0.009718599710702602 0.9945046656559983 -0.05166814096902365 0.0045735814448117805 0.021540451093898225
0.08128386827845 0.004937260884565637 0.023454892113365867 0.9940248541146974 -0.056064248579263794 0.0011588561118102752 0.010532006750372176 -0.0010124726900101323 -0.006803009211032414
 0.9940248541146974 -0.056064248579263794 0.004935726410935526 0.02345505021964668 -0.0010127277402448846 -0.006802997896914079 0.0011661352424120997 0.010531082272771218
 0.0011588561118102752 0.010532006750372176 -0.0010127277402448846 -0.006802997896914079 0.0049371988940107685 0.02345379630123434 0.9940248157309587 -0.05606532860318353
 -0.0010124726900101323 -0.006803009211032414 0.0011661352424120997 0.010531082272771218 0.9940248157309587 -0.05606532860318353 0.004935709248071206 0.0234539682729719
0.08753647353064001 0.005319050598815378 0.025384598431130494 0.9935193740801913 -0.06047534308316239 0.0013083999792491505 0.011344476812579891 -0.0011411297462321536 -0.007330742468949738
 0.9935193740801913 -0.06047534308316239 0.005317271936772689 0.025384780603901657 -0.0011414246914378326 -0.00733072710054654 0.0013168443223207239 0.01134337984934589
 0.0013083999792491505 0.011344476812579891 -0.0011414246914378326 -0.00733072710054654 0.005318979226089157 0.025383416856080306 0.9935193299631631 -0.060476505407207254
 -0.0011411297462321536 -0.007330742468949738 0.0013168443223207239 0.01134337984934589 0.9935193299631631 -0.060476505407207254 0.005317251994518819 0.02538361544263935
0.09378907878283 0.00572059903316493 0.027330108731402007 0.9929879413422401 -0.06490023451748005 0.0014676812943067057 0.012156637025948758 -0.0012781637278821876 -0.007858396261389263
 0.9929879413422401 -0.06490023451748005 0.005718558239643997 0.027330317133166346 -0.0012785013537516866 -0.007858376192754727 0.0014773778138149408 0.012155347188135561
 0.0014676812943067057 0.012156637025948758 -0.0012785013537516866 -0.007858376192754727 0.005720517636891031 0.02732884107202703 0.9929878911123934 -0.06490147900378092
 -0.0012781637278821876 -0.007858396261389263 0.0014773778138149408 0.012155347188135561 0.9929878911123934 -0.06490147900378092 0.00571853525613402 0.02732906869286999
0.100041684035 0.006142229286119948 0.029291101462763952 0.9924302402747742 -0.06933871520513028 0.0016367763118957037 0.012968339873471891 -0.0014236530511365563 -0.008385823254420988
 0.9924302402747742 -0.06933871520513028 0.006139908423286452 0.029291338351526443 -0.0014240361210982985 -0.008385797801299449 0.0016478120382393986 0.012966835540644088
 0.0016367763118957037 0.012968339873471891 -0.0014240361210982985 -0.008385797801299449 0.006142137225867443 0.02928974737912749 0.9924301835570293 -0.0693400417072303
 -0.0014236530511365563 -0.008385823254420988 0.0016478120382393986 0.012966835540644088 0.9924301835570293 -0.0693400417072303 0.00613988212573473 0.02929000655877221
0.1059090909091 0.006556434303695128 0.031145080469128054 0.9918827266634154 -0.07351592088513123 0.001804445198274013 0.013729486581581126 -0.0015679369361445753 -0.00888041776658577
 0.9918827266634154 -0.07351592088513123 0.006553834313555964 0.03114534622961366 -0.0015683651437273394 -0.008880386604258763 0.0018168168290291584 0.01372776019667403
 0.001804445198274013 0.013729486581581126 -0.0015683651437273394 -0.008880386604258763 0.006556331653683796 0.031143644960283937 0.9918826635204642 -0.07351732420927488
 -0.0015679369361445753 -0.00888041776658577 0.0018168168290291584 0.01372776019667403 0.9918826635204642 -0.07351732420927488 0.006553804648210883 0.031143936145207853
0.1062942892872 0.006584261877206018 0.03126725581055287 0.9918459570774215 -0.07379056384081344 0.0018157587405113107 0.01377943448101408 -0.0015776735033642836 -0.00891287353312392
 0.9918459570774215 -0.07379056384081344 0.006581643009840245 0.0312675235409389 -0.0015781047582387117 -0.008912841972964661 0.0018282207574026267 0.013777692789056953
 0.0018157587405113107 0.01377943448101408 -0.0015781047582387117 -0.008912841972964661 0.006584158512254516 0.031265814943876494 0.9918458935012789 -0.07379197220425049
 -0.0015776735033642836 -0.00891287353312392 0.0018282207574026267 0.013777692789056953 0.9918458935012789 -0.07379197220425049 0.006581613114341701 0.03126610831312801
0.11254689453939999 0.007047014631940155 0.033258250399751124 0.9912347799749698 -0.07825554676884587 0.0020046996384774983 0.014589766720514588 -0.0017402981502330462 -0.009439394564197486
 0.9912347799749698 -0.07825554676884587 0.007044079825169752 0.03325855142417631 -0.0017407803079559775 -0.009439356136174684 0.0020186750689406632 0.014587763549598034
 0.0020046996384774983 0.014589766720514588 -0.0017407803079559775 -0.009439356136174684 0.007046899321097647 0.033256722371398144 0.9912347091751852 -0.07825703683237285
 -0.0017402981502330462 -0.009439394564197486 0.0020186750689406632 0.014587763549598034 0.9912347091751852 -0.07825703683237285 0.007044046037007557 0.0332570526685736
0.11879949979160001 0.0075308025576166756 0.03526376228558116 0.9905963994102477 -0.08273341898098015 0.002203667310726518 0.015399179302569486 -0.001911597241794662 -0.0099652311756398
 0.9905963994102477 -0.08273341898098015 0.007527533874388293 0.03526409915558396 -0.0019121329970294297 -0.00996518508068932 0.0022192433024217665 0.015396889265331481
 0.002203667310726518 0.015399179302569486 -0.0019121329970294297 -0.00996518508068932 0.007530674658071352 0.035262146696062535 0.9905963210265736 -0.0827349905778621
 -0.001911597241794662 -0.0099652311756398 0.0022192433024217665 0.015396889265331481 0.9905963210265736 -0.0827349905778621 0.007527495887406004 0.03526251676839513
0.1250521050438 0.008035937710651836 0.03728346615875598 0.9899305082318824 -0.08722392490765328 0.0024127272064494248 0.01620751186147937 -0.0020916381172913466 -0.010490225550599029
 0.9899305082318824 -0.08722392490765328 0.008032317209352912 0.03728384152641355 -0.0020922301410590018 -0.010490170951450382 0.00242999091646596 0.0162049082913848
 0.0024127272064494248 0.01620751186147937 -0.0020922301410590018 -0.010490170951450382 0.008035796577599681 0.037281762591607884 0.9899304219095187 -0.08722557786204223
 -0.0020916381172913466 -0.010490225550599029 0.00242999091646596 0.0162049082913848 0.9899304219095187 -0.08722557786204223 0.008032274706253662 0.03728217539667327
0.131304710296 0.008562729058120958 0.03931703371806474 0.9892368018788529 -0.0917267990500786 0.0026319418170933115 0.017014601031813868 -0.0022804851095316794 -0.011014217236301652
 0.9892368018788529 -0.0917267990500786 0.008558738790157023 0.039317450337458544 -0.002281136048838972 -0.011014153257556553 0.0026509803960950654 0.017011655971780157
 0.0026319418170933115 0.017014601031813868 -0.002281136048838972 -0.011014153257556553 0.008562574043826559 0.039315241736531094 0.9892367072690095 -0.09172853318070334
 -0.0022804851095316794 -0.011014217236301652 0.0026509803960950654 0.017011655971780157 0.9892367072690095 -0.09172853318070334 0.008558691442480216 0.03931570034379474
0.1375573155481 0.008993112597693234 0.04110117153559674 0.988633400419078 -0.09597866529241339 0.0028340598659906025 0.01779477880456635 -0.0024508718619185785 -0.01151157231841116
 0.988633400419078 -0.09597866529241339 0.008988732526687493 0.04110162286013765 -0.0024515854143734423 -0.01151149883795178 0.002854921435835418 0.01779149527445773
 0.0028340598659906025 0.01779477880456635 -0.0024515854143734423 -0.01151149883795178 0.008992942035520424 0.041099291248752 0.9886332971572152 -0.09598048042394873
 -0.0024508718619185785 -0.01151157231841116 0.002854921435835418 0.01779149527445773 0.9886332971572152 -0.09598048042394873 0.008988681041434207 0.041099788315049866
0.1438099208003 0.009438744610114763 0.04287555109846161 0.9880086105064066 -0.10021934783431093 0.0030443087780172855 0.018571494255380842 -0.00262804178506872 -0.012005719099962049
 0.9880086105064066 -0.10021934783431093 0.009433956439785512 0.042876039266033575 -0.002628820752584338 -0.012005635258951998 0.0030670734291362856 0.018567846484104946
 0.0030443087780172855 0.018571494255380842 -0.002628820752584338 -0.012005635258951998 0.009438557662021074 0.042873582101389036 0.988008498249895 -0.10022124377446075
 -0.00262804178506872 -0.012005719099962049 0.0030670734291362856 0.018567846484104946 0.988008498249895 -0.10022124377446075 0.009433900658183473 0.04287411996262752
0.1500625260525 0.0098994628826137 0.04464001219474374 0.9873625987212635 -0.10444872873715848 0.0032626113207879694 0.019344659085142636 -0.0028119193211897 -0.012496573731808925
 0.9873625987212635 -0.10444872873715848 0.00989424829273678 0.04464053945198372 -0.002812766495394313 -0.012496478637396571 0.003287358687690937 0.019340620345399344
 0.0032626113207879694 0.019344659085142636 -0.002812766495394313 -0.012496478637396571 0.00989925869485607 0.04463795406719546 0.9873624771330825 -0.10445070528758368
 -0.0028119193211897 -0.012496573731808925 0.003287358687690937 0.019340620345399344 0.9873624771330825 -0.10445070528758368 0.009894188056944685 0.044638535171049334
0.15631513130469998 0.01037510399056276 0.0463943993938541 0.9866955325567072 -0.10866669074495235 0.0034888893072665397 0.020114186600575054 -0.003002427946601047 -0.012984054201481954
 0.9866955325567072 -0.10866669074495235 0.010369444636440198 0.04639496809732448 -0.0030033461085301086 -0.0129839469270478 0.0035156985617240677 0.020109729218020744
