! Created with skrf 1.8.0 (http://scikit-rf.org).
# GHz S RI R 50.0 
!freq ReS11 ImS11 ReS12 ImS12 ReS13 ImS13
! ReS14 ImS14
! ReS21 ImS21 ReS22 ImS22 ReS23 ImS23
! ReS24 ImS24
! ReS31 ImS31 ReS32 ImS32 ReS33 ImS33
! ReS34 ImS34
! ReS41 ImS41 ReS42 ImS42 ReS43 ImS43
! ReS44 ImS44
!
0.0 0.00126367322068 0.0 0.9987363267598 0.0 4.837275804562e-05 0.0 -4.837275870141e-05 5.923954410960904e-21
 0.9987363267598 0.0 0.001263673220707 0.0 -4.837275870163e-05 5.923954410987846e-21 4.837275804735e-05 0.0
 4.837275804562e-05 0.0 -4.837275870163e-05 5.923954410987846e-21 0.001263673223693 0.0 0.9987363267628 0.0
 -4.837275870141e-05 5.923954410960904e-21 4.837275804735e-05 0.0 0.9987363267628 0.0 0.00126367322371 0.0
0.005 0.0013589480393077734 0.001032348967820055 0.9986158857748281 -0.0026480431346773514 6.769131487179049e-05 0.0005444158205251817 -6.571194674167323e-05 -0.00033985166537525994
 0.9986158857748281 -0.0026480431346773514 0.0013589621708021938 0.0010323406764066057 -6.571083292296772e-05 -0.00033985077313212955 6.760573594058822e-05 0.000544448289504405
 6.769131487179049e-05 0.0005444158205251817 -6.571083292296772e-05 -0.00033985077313212955 0.001358949129028166 0.0010324155579948644 0.998615886111364 -0.0026479760694801393
 -6.571194674167323e-05 -0.00033985166537525994 6.760573594058822e-05 0.000544448289504405 0.998615886111364 -0.0026479760694801393 0.0013589617533103042 0.0010324082168582224
0.006252605252188 0.0013837369560423622 0.0012945339575478648 0.99858438042111 -0.003310733122124856 7.310699325698628e-05 0.0006807903181130331 -7.051701284216178e-05 -0.0004252682041359267
 0.99858438042111 -0.003310733122124856 0.001383759046644592 0.0012945234473819127 -7.051527990623424e-05 -0.00042526710285157064 7.297328126378553e-05 0.0006808324563291889
 7.310699325698628e-05 0.0006807903181130331 -7.051527990623424e-05 -0.00042526710285157064 0.0013837385795918097 0.001294617192883131 0.9985843808669506 -0.0033106492888385765
 -7.051701284216178e-05 -0.0004252682041359267 7.297328126378553e-05 0.0006808324563291889 0.9985843808669506 -0.0033106492888385765 0.001383758313462711 0.0012946078788711945
0.01250521050438 0.0015130739750955752 0.0026165499572966986 0.9984190487757051 -0.006622457960395522 0.00010361717467648251 0.0013619674422464473 -9.729490090537067e-05 -0.0008527351432305708
 0.9984190487757051 -0.006622457960395522 0.001513162189992615 0.002616527469800966 -9.728807457518409e-05 -0.0008527330918473324 0.0001030838921978921 0.0013620682549360316
 0.00010361717467648251 0.0013619674422464473 -9.728807457518409e-05 -0.0008527330918473324 0.0015130799108770648 0.002616716097495424 0.9984190500034436 -0.006622290576225337
 -9.729490090537067e-05 -0.0008527351432305708 0.0001030838921978921 0.0013620682549360316 0.9984190500034436 -0.006622290576225337 0.001513158703885231 0.0026166960975645176
0.01875781575657 0.0016519257283704133 0.003957762449302895 0.9982401558047277 -0.009943278118378503 0.00013996657429707742 0.0020440249248378796 -0.00012878005290770336 -0.0012817949914234528
 0.9982401558047277 -0.009943278118378503 0.0016521239624989266 0.003957726412666066 -0.00012876483366485068 -0.0012817921642278554 0.00013876844445638898 0.0020442037129788245
 0.00013996657429707742 0.0020440249248378796 -0.00012876483366485068 -0.0012817921642278554 0.001651938650794735 0.003958011349028521 0.998240158137424 -0.009943027261600845
 -0.00012878005290770336 -0.0012817949914234528 0.00013876844445638898 0.0020442037129788245 0.998240158137424 -0.009943027261600845 0.0016521156913896474 0.00395797922329122
0.02501042100875 0.0018005286200258952 0.005316332308278934 0.9980475197537159 -0.013274844809849189 0.0001822197375131511 0.002727019810100506 -0.0001650443191332577 -0.0017122751899002879
 0.9980475197537159 -0.013274844809849189 0.0018008806852312469 0.005316281062477674 -0.0001650174476346965 -0.001712271787762537 0.0001800912611352451 0.0027272985236030957
 0.0001822197375131511 0.002727019810100506 -0.0001650174476346965 -0.001712271787762537 0.0018005512091161307 0.005316663819168644 0.9980475235185134 -0.01327451054356175
 -0.0001650443191332577 -0.0017122751899002879 0.0001800912611352451 0.0027272985236030957 0.9980475235185134 -0.01327451054356175 0.0018008655987673493 0.005316618074382978
0.03126302626094 0.001959109002055811 0.00669133396558045 0.9978409482257345 -0.016617889702581063 0.00023044202422867923 0.0034109457639833135 -0.0002061578739600134 -0.002144063251665205
 0.9978409482257345 -0.016617889702581063 0.00195965864953719 0.006691265765748551 -0.00020611612398452848 -0.002144059502476289 0.0002271172231206493 0.003411349016263885
 0.00023044202422867923 0.0034109457639833135 -0.00020611612398452848 -0.002144059502476289 0.0019591439425607725 0.006691747928208426 0.9978409537523281 -0.016617472082600625
 -0.0002061578739600134 -0.002144063251665205 0.0002271172231206493 0.003411349016263885 0.9978409537523281 -0.016617472082600625 0.001959634716523514 0.0066916870212571965
0.037515631513130004 0.002127888503161978 0.008082179738993755 0.9976202436120154 -0.019972800540898856 0.0002846989258202985 0.004095771849020812 -0.00025218975614946075 -0.002577067970655276
 0.9976202436120154 -0.019972800540898856 0.002128679437643929 0.008082092757174404 -0.00025212993093305815 -0.002577064129474974 0.0002799112208465137 0.004096326944737446
 0.0002846989258202985 0.004095771849020812 -0.00025212993093305815 -0.002577064129474974 0.0021279384799247647 0.008082675989564242 0.9976202512272893 -0.019972299608801126
 -0.00025218975614946075 -0.002577067970655276 0.0002799112208465137 0.004096326944737446 0.9976202512272893 -0.019972299608801126 0.002128644620643793 0.008082598329488905
0.043768236765320004 0.0023070860961110036 0.009488444684881284 0.9973852052638191 -0.02333979623945223 0.0003450557591723873 0.004781454308757404 -0.0003032080708361669 -0.0030112076242142867
 0.9973852052638191 -0.02333979623945223 0.0023081619865912523 0.009488337011110095 -0.0003031270008279273 -0.0030112039733043282 0.000338537905796543 0.004782191275630621
 0.0003450557591723873 0.004781454308757404 -0.0003031270008279273 -0.0030112039733043282 0.0023071537953981173 0.009489023045886273 0.9973852152933907 -0.02333921203159035
 -0.0003032080708361669 -0.0030112076242142867 0.000338537905796543 0.004782191275630621 0.9973852152933907 -0.02333921203159035 0.0023081142431745135 0.009488926995494043
0.050020842017509996 0.0024969190663192277 0.010909794173488436 0.9971356305683724 -0.026718999251824995 0.00041157749027202317 0.0054679414340036555 -0.0003592800747823773 -0.003446405095014449
 0.9971356305683724 -0.026718999251824995 0.0024983235549999104 0.010909663816600709 -0.000359174616178987 -0.0034464019438497032 0.00040306154434300656 0.005468893056415854
 0.00041157749027202317 0.0054679414340036555 -0.000359174616178987 -0.0034464019438497032 0.0024970071782611353 0.010910454451806724 0.9971356433389651 -0.02671833180084282
 -0.0003592800747823773 -0.003446405095014449 0.00040306154434300656 0.005468893056415854 0.9971356433389651 -0.02671833180084282 0.0024982608399694585 0.010910338328977512
0.055454545454549996 0.0026706947627304235 0.012157022125947001 0.9969067789275649 -0.029665591761049895 0.00047444364679045714 0.006065128658134955 -0.00041216417927090814 -0.003825405760704001
 0.9969067789275649 -0.029665591761049895 0.002672420241170256 0.01215687037702311 -0.0004120349923073766 -0.0038254033163016136 0.00046397313888465184 0.00606629561450968
 0.00047444364679045714 0.006065128658134955 -0.0004120349923073766 -0.0038254033163016136 0.0026708028001634697 0.012157753422016523 0.9969067943449751 -0.029664851994577142
 -0.00041216417927090814 -0.003825405760704001 0.00046397313888465184 0.00606629561450968 0.9969067943449751 -0.029664851994577142 0.002672342850885479 0.012157618455471274
0.056273447269699996 0.0026976035233567796 0.012345948369122199 0.9968713155692868 -0.030110471033855717 0.00048432861739862085 0.006155175940367107 -0.0004204722070620997 -0.0038825854830236966
 0.9968713155692868 -0.030110471033855717 0.00269938023363071 0.012345793257307978 -0.0004203392407791767 -0.003882583168295694 0.00047354591912356694 0.006156377793806896
 0.00048432861739862085 0.006155175940367107 -0.0004203392407791767 -0.003882583168295694 0.00269771474002758 0.012346690355885669 0.9968713314069143 -0.03010972036851322
 -0.0004204722070620997 -0.0038825854830236966 0.00047354591912356694 0.006156377793806896 0.9968713314069143 -0.03010972036851322 0.002699300497198952 0.012346552434644885
0.06252605252188 0.0029093546836183697 0.013796662689369608 0.9965920553617177 -0.03351423152865512 0.0005633730810659276 0.006843096282732138 -0.0004868500949254946 -0.0043196747819857495
 0.9965920553617177 -0.03351423152865512 0.002911547227800195 0.013796480670479701 -0.00048668652585895464 -0.00431967366758375 0.0005500542511480602 0.006844586768651392
 0.0005633730810659276 0.006843096282732138 -0.00048668652585895464 -0.00431967366758375 0.0029094916996502008 0.013797486154907551 0.9965920745921037 -0.0335133976784357
 -0.0004868500949254946 -0.0043196747819857495 0.0005500542511480602 0.006844586768651392 0.9965920745921037 -0.0335133976784357 0.002911448416264175 0.013797324666292991
0.06877865777407 0.0031323870349183333 0.015261716155010294 0.9962976443698404 -0.03693027076156962 0.0006487741914970478 0.0075316374275388774 -0.0005584785431041632 -0.0047575990996060235
 0.9962976443698404 -0.03693027076156962 0.0031350390209952763 0.015261504996785255 -0.0005582812995720481 -0.0047575995766112 0.0006326491352895033 0.007533457808469015
 0.0006487741914970478 0.0075316374275388774 -0.0005582812995720481 -0.0047575995766112 0.0031325525471369215 0.01526262085625295 0.9962976673186097 -0.03692935374902583
 -0.0005584785431041632 -0.0047575990996060235 0.0006326491352895033 0.007533457808469015 0.9962976673186097 -0.03692935374902583 0.0031349190767009046 0.015262433989004995
0.07503126302626001 0.0033669144268668677 0.016740904004013468 0.9959878765541423 -0.040358556172879 0.0007405945644781851 0.008220731348209942 -0.0006354215144964778 -0.005196284156316142
 0.9959878765541423 -0.040358556172879 0.0033700694653329886 0.01674066139407909 -0.0006351875477929429 -0.005196286642982909 0.0007213924824321017 0.008222925782914345
 0.0007405945644781851 0.008220731348209942 -0.0006351875477929429 -0.005196286642982909 0.0033671111346662403 0.016741889677005337 0.9959879035472416 -0.04035755602068801
 -0.0006354215144964778 -0.005196284156316142 0.0007213924824321017 0.008222925782914345 0.9959879035472416 -0.04035755602068801 0.0033699263275610582 0.016741675578105873
0.08128386827845 0.003613150118415814 0.018234032777556298 0.9956625455766546 -0.043799037479729845 0.0008388960637382011 0.008910307347931442 -0.0007177421038952079 -0.005635654958420963
 0.9956625455766546 -0.043799037479729845 0.00361685182933677 0.018233756323210924 -0.0007174683880500276 -0.005635659900145216 0.0008163454667526475 0.008912922926550677
 0.0008388960637382011 0.008910307347931442 -0.0007174683880500276 -0.005635659900145216 0.003613380722851931 0.018235099139936373 0.9956625769395852 -0.043797954207847045
 -0.0007177421038952079 -0.005635654958420963 0.0008163454667526475 0.008912922926550677 0.9956625769395852 -0.043797954207847045 0.0036166834332092283 0.018234855915011904
0.08753647353064001 0.0038713067942918794 0.01974091692050213 0.99532144493809 -0.047251650025401604 0.0009437397466022248 0.009600292289549802 -0.0008055025081827351 -0.006075635565971874
 0.99532144493809 -0.047251650025401604 0.0038755988135889354 0.01974060414836797 -0.0008051860396769545 -0.006075643435282911 0.0009175684748807967 0.00960337906864577
 0.0009437397466022248 0.009600292289549802 -0.0008051860396769545 -0.006075643435282911 0.0038715739988258086 0.01974206366766565 0.9953214809969865 -0.047250483654591495
 -0.0008055025081827351 -0.006075635565971874 0.0009175684748807967 0.00960337906864577 0.9953214809969865 -0.047250483654591495 0.0038754030915628566 0.019741789381157546
0.09378907878283 0.00414159656279855 0.021261376344765003 0.9949643680979428 -0.05071631716771627 0.0010551858125015102 0.010290610752693559 -0.0008987639926788509 -0.006516148935341546
 0.9949643680979428 -0.05071631716771627 0.004146522549082985 0.0212610247002915 -0.0008984017902853395 -0.00651616023186878 0.001025121057686455 0.010294221790154157
 0.0010551858125015102 0.010290610752693559 -0.0008984017902853395 -0.00651616023186878 0.004141903072217568 0.021262603150672035 0.994964409178728 -0.05071506771832008
 -0.0008987639926788509 -0.006516148935341546 0.001025121057686455 0.010294221790154157 0.994964409178728 -0.05071506771832008 0.004146297430187915 0.021262295825809248
0.100041684035 0.004424230937396889 0.02279523464800383 0.9945911085807123 -0.05419295201402996 0.0011732935525221352 0.010981185155442875 -0.0009975868557730986 -0.00695711679922711
 0.9945911085807123 -0.05419295201402996 0.004429834578378783 0.022794841494745293 -0.0009971759604342695 -0.006957132049680109 0.0011390618825732341 0.010985376545178407
 0.0011732935525221352 0.010981185155442875 -0.0009971759604342695 -0.006957132049680109 0.004424579458209265 0.022796541168226044 0.9945911550095937 -0.054191619502562766
 -0.0009975868557730986 -0.00695711679922711 0.0011390618825732341 0.010985376545178407 0.9945911550095937 -0.054191619502562766 0.0044295779890401584 0.02279619878688779
0.1059090909091 0.0047008684727537775 0.024246629035602825 0.9942259423639458 -0.057466204305897266 0.0012902358345090762 0.011629377835528098 -0.0010954324757478779 -0.007371260857762138
 0.9942259423639458 -0.057466204305897266 0.004707147786237435 0.024246194459201037 -0.001094973215698851 -0.007371280321687667 0.0012518447413229353 0.011634167575852483
 0.0012902358345090762 0.011629377835528098 -0.001094973215698851 -0.007371280321687667 0.004701258879371068 0.024248010025088643 0.9942259941084108 -0.05746479386537909
 -0.0010954324757478779 -0.007371260857762138 0.0012518447413229353 0.011634167575852483 0.9942259941084108 -0.05746479386537909 0.004706859776812249 0.02424763287433409
0.1062942892872 0.004719420809065669 0.02434231776952251 0.9942014600746137 -0.05768145872108303 0.0012981213004963025 0.01167193584477763 -0.0011020303914198626 -0.007398459579946162
 0.9942014600746137 -0.05768145872108303 0.004725745828435862 0.02434188038823313 -0.001101567866171709 -0.007398479338083997 0.0012594486865747023 0.011676766751195226
 0.0012981213004963025 0.01167193584477763 -0.001101567866171709 -0.007398479338083997 0.004719814049002442 0.024343703636465784 0.9942015121781785 -0.05768004316472067
 -0.0011020303914198626 -0.007398459579946162 0.0012594486865747023 0.011676766751195226 0.9942015121781785 -0.05768004316472067 0.004725455692320445 0.024343324138798427
0.11254689453939999 0.005027376409786514 0.025902452964259193 0.9937952165240812 -0.06118173347919573 0.0014297263845481963 0.012362781165494337 -0.0012121528501920955 -0.007840096326355541
 0.9937952165240812 -0.06118173347919573 0.0050344665735865745 0.02590196855184763 -0.001211635780110169 -0.007840121172953535 0.0013863382301172982 0.012368313857699108
 0.0014297263845481963 0.012362781165494337 -0.001211635780110169 -0.007840121172953535 0.005027817077582663 0.0259039177890166 0.9937952746288291 -0.061180234893473205
 -0.0012121528501920955 -0.007840096326355541 0.0013863382301172982 0.012368313857699108 0.9937952746288291 -0.061180234893473205 0.0050341408119453585 0.025903499072907715
0.11879949979160001 0.005348307269661243 0.02747546799369566 0.9933721722167759 -0.06469366528162397 0.0015681650791959806 0.013053637518984067 -0.0013280113991331471 -0.008281944663051825
 0.9933721722167759 -0.06469366528162397 0.0053562063931641285 0.02747493366192511 -0.0013274368912974245 -0.008281975205877529 0.001519786250898631 0.013059937404674746
 0.0015681650791959806 0.013053637518984067 -0.0013274368912974245 -0.008281975205877529 0.005348798074740259 0.027477011366160972 0.9933722366499662 -0.06469208368010848
 -0.0013280113991331471 -0.008281944663051825 0.001519786250898631 0.013059937404674746 0.9933722366499662 -0.06469208368010848 0.0053558429250231306 0.027476551286436248
0.1250521050438 0.005682422168941815 0.02906119049516103 0.9929321218687918 -0.06821713651819396 0.0017134925576927109 0.013744419407150672 -0.0014496620805935702 -0.008723920756747196
 0.9929321218687918 -0.06821713651819396 0.0056911741232886955 0.029060603269148506 -0.0014490272641086667 -0.008723957630517563 0.0016598474179258756 0.013751555066188909
 0.0017134925576927109 0.013744419407150672 -0.0014490272641086667 -0.008723957630517563 0.005682965821436413 0.029062811980017606 0.9929321929579281 -0.068215471915997
 -0.0014496620805935702 -0.008723920756747196 0.0016598474179258756 0.013751555066188909 0.9929321929579281 -0.068215471915997 0.005690770865916031 0.02906230834750488
0.131304710296 0.0060299290866147395 0.03065944746449701 0.9924748607070724 -0.07175202345786297 0.0018657628444878724 0.014435039474621282 -0.0015771597703595698 -0.009165939286471842
 0.9924748607070724 -0.07175202345786297 0.00603957780578621 0.030658804281035675 -0.0015764617963632082 -0.009165983152821439 0.0018065752853773924 0.014443082692245085
 0.0018657628444878724 0.014435039474621282 -0.0015764617963632082 -0.009165983152821439 0.006030528296586434 0.03066114660679368 0.9924749387799017 -0.07175027586579523
 -0.0015771597703595698 -0.009165939286471842 0.0018065752853773924 0.014443082692245085 0.9924749387799017 -0.07175027586579523 0.006039132674433111 0.030660597187129553
0.1375573155481 0.006304948518532311 0.0320606276619175 0.9920862934525394 -0.0750887011935924 0.0020042673788021113 0.015103676479204511 -0.001689870007674163 -0.009586142672932608
 0.9920862934525394 -0.0750887011935924 0.006315540423055622 0.03205993878663932 -0.0016891045857486459 -0.009586193474234159 0.0019394026598772715 0.01511260682838068
 0.0020042673788021113 0.015103676479204511 -0.0016891045857486459 -0.009586193474234159 0.006305605355837076 0.03206240420254928 0.9920863788232495 -0.07508687065153359
 -0.001689870007674163 -0.009586142672932608 0.0019394026598772715 0.01511260682838068 0.9920863788232495 -0.07508687065153359 0.006315052001620614 0.03206181974888933
0.1438099208003 0.0065894075001307496 0.03345543971374577 0.9916844784448822 -0.07841795922717046 0.0021483786417271934 0.015770229508485372 -0.0018071063278130596 -0.010004467031321192
 0.9916844784448822 -0.07841795922717046 0.006600986980110655 0.033454702920493865 -0.0018062703808937933 -0.010004525409234874 0.002077585593094142 0.015780111721682335
 0.0021483786417271934 0.015770229508485372 -0.0018062703808937933 -0.010004525409234874 0.006590124559657203 0.03345729320874427 0.991684571438802 -0.07841604575325424
 -0.0018071063278130596 -0.010004467031321192 0.002077585593094142 0.015780111721682335 0.991684571438802 -0.07841604575325424 0.006600453303482501 0.0334566723100731
0.1500625260525 0.006883218558000467 0.0348437976143484 0.9912695061656156 -0.08173974611013254 0.0022980552206545404 0.01643465082825086 -0.0019288290051773373 -0.010420867340680463
 0.9912695061656156 -0.08173974611013254 0.006895830077119148 0.03484301055042227 -0.0019279194599427613 -0.010420933962561631 0.002221083873522547 0.016445551975516937
 0.0022980552206545404 0.01643465082825086 -0.0019279194599427613 -0.010420933962561631 0.006883998427662228 0.03484572760326835 0.9912696071080243 -0.08173774972288127
 -0.0019288290051773373 -0.010420867340680463 0.002221083873522547 0.016445551975516937 0.9912696071080243 -0.08173774972288127 0.006895249186646945 0.034845068753367396
0.15631513130469998 0.007186293746009153 0.036225618134593136 0.9908414673918026 -0.0850540099916475 0.0024532553046495505 0.01709689336370882 -0.0020549979076995117 -0.01083529944259076
