! Created with skrf 1.8.0 (http://scikit-rf.org).
# GHz S RI R 50.0 
!freq ReS11 ImS11 ReS12 ImS12 ReS13 ImS13
! ReS14 ImS14
! ReS21 ImS21 ReS22 ImS22 ReS23 ImS23
! ReS24 ImS24
! ReS31 ImS31 ReS32 ImS32 ReS33 ImS33
! ReS34 ImS34
! ReS41 ImS41 ReS42 ImS42 ReS43 ImS43
! ReS44 ImS44
!
0.0 0.001843034557621 0.0 0.9981569654423 0.0 7.155003921984e-05 0.0 -7.155003859814e-05 8.762352574808172e-21
 0.9981569654423 0.0 0.00184303455759 0.0 -7.155003859773e-05 8.762352574757961e-21 7.155003921939e-05 0.0
 7.155003921984e-05 0.0 -7.155003859773e-05 8.762352574757961e-21 0.001843034554772 0.0 0.9981569654395 0.0
 -7.155003859814e-05 8.762352574808172e-21 7.155003921939e-05 0.0 0.9981569654395 0.0 0.00184303455476 0.0
0.005 0.001983962562983376 0.001507558297463187 0.9979784947952943 -0.0038595037957683325 0.00010078132365945229 0.0007840439684108599 -9.77687534452047e-05 -0.0004926991990011272
 0.9979784947952943 -0.0038595037957683325 0.001983983955107914 0.0015075458276397576 -9.777335637610728e-05 -0.0004927027332645978 0.00010063291786434034 0.000784100543214041
 0.00010078132365945229 0.0007840439684108599 -9.777335637610728e-05 -0.0004927027332645978 0.001983959796927601 0.001507492678814578 0.9979784944092842 -0.0038595708465197576
 -9.77687534452047e-05 -0.0004926991990011272 0.00010063291786434034 0.000784100543214041 0.9979784944092842 -0.0038595708465197576 0.0019839859554241575 0.0015074773491029804
0.006252605252188 0.0020212285464958073 0.0018903318166130357 0.9979309544423 -0.004825273645318651 0.000109311210047812 0.000980416049211912 -0.0001053092787323461 -0.0006164913614218932
 0.9979309544423 -0.004825273645318651 0.0020212619860224745 0.0018903159599654347 -0.00010531644119025332 -0.0006164957172974844 0.0001090793430336561 0.00098048957594306
 0.000109311210047812 0.000980416049211912 -0.00010531644119025332 -0.0006164957172974844 0.002021224303849723 0.0018902497967590267 0.9979309539204151 -0.0048253574626212535
 -0.0001053092787323461 -0.0006164913614218932 0.0001090793430336561 0.00098048957594306 0.9979309539204151 -0.0048253574626212535 0.0020212651949362594 0.001890230355174422
0.01250521050438 0.002219178974995475 0.003819771423275153 0.9976765339541993 -0.009650974978198527 0.00015917043821791308 0.001961046918736279 -0.00014883336241174516 -0.0012357622163619417
 0.9976765339541993 -0.009650974978198527 0.00221931249752585 0.003819737004707404 -0.0001488615874423352 -0.0012357702387252767 0.00015824586722113735 0.00196122463766339
 0.00015917043821791308 0.001961046918736279 -0.0001488615874423352 -0.0012357702387252767 0.0022191625741657534 0.00381960773656718 0.9976765324134019 -0.009651142373175292
 -0.00014883336241174516 -0.0012357622163619417 0.00015824586722113735 0.00196122463766339 0.9976765324134019 -0.009651142373175292 0.0022193258621074933 0.0038195659976935355
0.01875781575657 0.0024373812515567834 0.005776113073872373 0.9973933431858508 -0.014488770956290295 0.00022125158057886523 0.0029424903078214414 -0.00020226883067806653 -0.0018568785619767357
 0.9973933431858508 -0.014488770956290295 0.0024376812822441665 0.005776057224492693 -0.000202331769471373 -0.0018568894048243076 0.00021917478684323145 0.002942809735897372
 0.00022125158057886523 0.0029424903078214414 -0.000202331769471373 -0.0018568894048243076 0.002437344819493425 0.005775868019918817 0.9973933401488709 -0.014489021854864819
 -0.00020226883067806653 -0.0018568785619767357 0.00021917478684323145 0.002942809735897372 0.9973933401488709 -0.014489021854864819 0.0024377117550176057 0.005775800817182158
0.02501042100875 0.002676312140126409 0.007756538242322402 0.9970810055550247 -0.01934092346464709 0.000295680151879644 0.003924729971492882 -0.0002657560066093498 -0.0024795107852135117
 0.9970810055550247 -0.01934092346464709 0.002676844976320322 0.0077564579519718005 -0.00026586714379546114 -0.0024795234324642835 0.00029199158173498334 0.003925235285458184
 0.000295680151879644 0.003924729971492882 -0.00026586714379546114 -0.0024795234324642835 0.0026762478053913154 0.0077562121908735385 0.9970810005327455 -0.019341257831623673
 -0.0002657560066093498 -0.0024795107852135117 0.00029199158173498334 0.003925235285458184 0.9970810005327455 -0.019341257831623673 0.0026768994949964288 0.007756116075969754
0.03126302626094 0.0029364284164199016 0.00975955470323112 0.9967391278070517 -0.024208350242904037 0.0003825813542931305 0.0049076584461707415 -0.00033943020189293823 -0.003103410889674047
 0.9967391278070517 -0.024208350242904037 0.0029372602697157173 0.009759446825774799 -0.0003396028828145203 -0.00310342415370281 0.0003768210198151389 0.004908400523812941
 0.0003825813542931305 0.0049076584461707415 -0.0003396028828145203 -0.00310342415370281 0.0029363283222756556 0.009759148108215068 0.996739120312885 -0.024208768068572806
 -0.00033943020189293823 -0.003103410889674047 0.0003768210198151389 0.004908400523812941 0.996739120312885 -0.024208768068572806 0.002937345776261914 0.009759019355571812
0.037515631513130004 0.0032181760132632673 0.011784157886896367 0.9963673096026523 -0.029091463482326784 0.0004820787139496776 0.005891131380714801 -0.0004234226585924046 -0.003728358206619793
 0.9963673096026523 -0.029091463482326784 0.0032193730405920607 0.011784019142587195 -0.0004236701029385116 -0.003728370727879525 0.00047378603002897835 0.005892167866359134
 0.0004820787139496776 0.005891131380714801 -0.0004236701029385116 -0.003728370727879525 0.0032180323094825863 0.011783671291273095 0.9963672991453943 -0.029091964778589323
 -0.0004234226585924046 -0.003728358206619793 0.00047378603002897835 0.005892167866359134 0.9963672991453943 -0.029091964778589323 0.0032194964759012083 0.011783505899095097
0.043768236765320004 0.0035219935148336217 0.013829575644470828 0.9959651474597272 -0.033990424999818226 0.000594293416365021 0.006874984073427897 -0.0005178608541121255 -0.004354142909003823
 0.9959651474597272 -0.033990424999818226 0.0035236218438590363 0.013829402621554875 -0.0005181961636867679 -0.004354153155994792 0.0005830071388132608 0.00687637945086791
 0.000594293416365021 0.006874984073427897 -0.0005181961636867679 -0.004354153155994792 0.0035217983615134225 0.013829009680756472 0.9959651335464103 -0.033991009800804266
 -0.0005178608541121255 -0.004354142909003823 0.0005830071388132608 0.00687637945086791 0.9959651335464103 -0.033991009800804266 0.0035237901535539553 0.013828803370634671
0.050020842017509996 0.003848313753899372 0.015895162793853407 0.9955322368038996 -0.03890525163207691 0.0007193438876780892 0.007859038324939704 -0.0006228685799172692 -0.00498055921778389
 0.9955322368038996 -0.03890525163207691 0.0038504395071044537 0.01589495194897317 -0.0006233047435465417 -0.004980565487132452 0.0007046021055369194 0.007860863993123258
 0.0007193438876780892 0.007859038324939704 -0.0006233047435465417 -0.004980565487132452 0.0038480593200846108 0.01589451819396615 0.9955322189379155 -0.038905919985565425
 -0.0006228685799172692 -0.00498055921778389 0.0007046021055369194 0.007860863993123258 0.9955322189379155 -0.038905919985565425 0.003850659639906067 0.015894266409306735
0.055454545454549996 0.004150503325578274 0.017706156644315376 0.995130738659271 -0.043189211712892306 0.0008385304240989273 0.008714228929231089 -0.0007228005838526822 -0.005525287691479895
 0.995130738659271 -0.043189211712892306 0.004153115067777023 0.01770590995085902 -0.0007233348557162286 -0.005525288987387036 0.0008204100763077936 0.0087164919460971
 0.0008385304240989273 0.008714228929231089 -0.0007233348557162286 -0.005525288987387036 0.00415019102300328 0.017705444378111203 0.9951307169515129 -0.04318995272700291
 -0.0007228005838526822 -0.005525287691479895 0.0008204100763077936 0.0087164919460971 0.9951307169515129 -0.04318995272700291 0.0041533858830430865 0.017705149156354044
0.056273447269699996 0.004197564596954486 0.017980349362559534 0.9950681732135492 -0.04383586693848214 0.0008573454849704559 0.008843105808091991 -0.0007385659190700844 -0.00560740210017809
 0.9950681732135492 -0.04383586693848214 0.004200253914068941 0.01798009702033466 -0.0007391158155548158 -0.00560740251675023 0.0008386856457173172 0.008845440157736391
 0.0008573454849704559 0.008843105808091991 -0.0007391158155548158 -0.00560740251675023 0.004197243061146614 0.017979626957347058 0.9950681508936478 -0.043836618907500895
 -0.0007385659190700844 -0.00560740210017809 0.0008386856457173172 0.008845440157736391 0.9950681508936478 -0.043836618907500895 0.00420053282291212 0.017979324860990315
0.06252605252188 0.00457016933255326 0.020084612141277547 0.9945725532732976 -0.04878212960168918 0.0010084102395308142 0.009826989948621558 -0.0008650691736352279 -0.006234465466791832
 0.9945725532732976 -0.04878212960168918 0.004573488391993298 0.02008431449328464 -0.0008657455735978809 -0.006234457983867612 0.0009853691965153023 0.009829918438811057
 0.0010084102395308142 0.009826989948621558 -0.0008657455735978809 -0.006234457983867612 0.00456977288355581 0.020083812859653903 0.9945725259934276 -0.04878296526668999
 -0.0008650691736352279 -0.006234465466791832 0.0009853691965153023 0.009829918438811057 0.9945725259934276 -0.04878296526668999 0.004573833034678333 0.02008345533060717
0.06877865777407 0.004966546838358677 0.0222074577428229 0.9940449752141317 -0.05374385033340489 0.0011726466326738333 0.010810487060955344 -0.001002490760847027 -0.006861541123888063
 0.9940449752141317 -0.05374385033340489 0.004970561879326599 0.02220711084552635 -0.0010033063278510107 -0.006861523523343958 0.0011447607081340279 0.010814102295204468
 0.0011726466326738333 0.010810487060955344 -0.0010033063278510107 -0.006861523523343958 0.004966067676043116 0.02220658261992263 0.9940449424622262 -0.05374476978526273
 -0.001002490760847027 -0.006861541123888063 0.0011447607081340279 0.010814102295204468 0.9940449424622262 -0.05374476978526273 0.004970979218243022 0.022206164249199793
0.07503126302626001 0.005387111618715346 0.024348411864219762 0.9934850394270579 -0.0587208025879692 0.0013501593880097978 0.01179338708907112 -0.0011509390931323759 -0.007488418131291185
 0.9934850394270579 -0.0587208025879692 0.0053918889622659475 0.02434801163624495 -0.00115190638410513 -0.007488388023814964 0.0013169644480874108 0.011797788890456356
 0.0013501593880097978 0.01179338708907112 -0.00115190638410513 -0.007488388023814964 0.005386541955275908 0.024347462035291104 0.9934850006852561 -0.058721805935237244
 -0.0011509390931323759 -0.007488418131291185 0.0013169644480874108 0.011797788890456356 0.9934850006852561 -0.058721805935237244 0.005392385965506621 0.024346977120996326
0.08128386827845 0.00583227376140886 0.026507012161058666 0.9928923489036051 -0.06371272967596626 0.0015410492769912082 0.01277547412025817 -0.0013105184447705948 -0.008114882398408648
 0.9928923489036051 -0.06371272967596626 0.005837879831575958 0.02650655437952587 -0.0013116499100856436 -0.0081148372237391 0.0015020808162904832 0.012780769605356764
 0.0015410492769912082 0.01277547412025817 -0.0013116499100856436 -0.0081148372237391 0.005831605822417528 0.0265059888685709 0.9928923036470373 -0.0637138170389095
 -0.0013105184447705948 -0.008114882398408648 0.0015020808162904832 0.012780769605356764 0.9928923036470373 -0.0637138170389095 0.0058384634729264666 0.02650543141008711
0.08753647353064001 0.006302438837614591 0.028682803330760502 0.9922665096234045 -0.0687193496816318 0.001745412930911773 0.013756526764193887 -0.0014813288122459134 -0.008740716426295349
 0.9922665096234045 -0.0687193496816318 0.006308940183293403 0.02868228362681171 -0.0014826367955153256 -0.008740653453480681 0.0017002061647845516 0.013762830415670972
 0.001745412930911773 0.013756526764193887 -0.0014826367955153256 -0.008740653453480681 0.006301664863270211 0.028681707923727148 0.9922664573196887 -0.06872052119405915
 -0.0014813288122459134 -0.008740716426295349 0.0017002061647845516 0.013762830415670972 0.9922664573196887 -0.06872052119405915 0.0063096174420609035 0.02868107161504566
0.09378907878283 0.006798007765360125 0.030875333613197276 0.9916071309095716 -0.07374035897620565 0.0019633426595476768 0.014736318444002234 -0.0016634657682350726 -0.00936569914937638
 0.9916071309095716 -0.07374035897620565 0.00680547108147958 0.03087474746660938 -0.0016649625057523908 -0.009365615477069711 0.0019114326229085735 0.014743752181572839
 0.0019633426595476768 0.014736318444002234 -0.0016649625057523908 -0.009365615477069711 0.006797120011658844 0.030874167545699698 0.9916070710180145 -0.07374161478793093
 -0.0016634657682350726 -0.00936569914937638 0.0019114326229085735 0.014743752181572839 0.9916070710180145 -0.07374161478793093 0.006806248942835244 0.03087344576785213
0.100041684035 0.00731937664577282 0.033084152239882446 0.99091382576159 -0.07877543479643834 0.00219492627297989 0.015714617634317064 -0.0018570203126834922 -0.009989605841876184
 0.99091382576159 -0.07877543479643834 0.007327868794817534 0.033083494972782866 -0.001858717932675119 -0.00998949839866151 0.002135847925139276 0.01572331088403314
 0.00219492627297989 0.015714617634317064 -0.001858717932675119 -0.00998949839866151 0.00731836738573511 0.03308291707709902 0.9909137577329099 -0.07877677506835136
 -0.0018570203126834922 -0.009989605841876184 0.002135847925139276 0.01572331088403314 0.9909137577329099 -0.07877677506835136 0.007328754249838296 0.03308210288965397
0.1059090909091 0.007832439272094502 0.03517130598232987 0.9902320354624133 -0.083512810159517 0.0024247351089046734 0.016631079853054453 -0.0020491118120003135 -0.010573894024703313
 0.9902320354624133 -0.083512810159517 0.007841957850542872 0.03517057757491173 -0.002051008872350886 -0.01057376133039166 0.002358507140731785 0.016641079478714106
 0.0024247351089046734 0.016631079853054453 -0.002051008872350886 -0.01057376133039166 0.007831308980268837 0.03517000750128382 0.9902319592897183 -0.0835142298475
 -0.0020491118120003135 -0.010573894024703313 0.002358507140731785 0.016641079478714106 0.9902319592897183 -0.0835142298475 0.007842950634480173 0.03516909999041541
0.1062942892872 0.007866936578444006 0.03530880753113857 0.9901862111713419 -0.08382423718928794 0.0024402469072736434 0.016691188063675668 -0.002062078721108171 -0.010612208072140843
 0.9901862111713419 -0.08382423718928794 0.007876524611990877 0.03530807430076277 -0.0020639892428810694 -0.010612073616874128 0.0023735352414016356 0.016701277825331665
 0.0024402469072736434 0.016691188063675668 -0.0020639892428810694 -0.010612073616874128 0.00786579810375545 0.03530750494654775 0.9901861344463806 -0.08382566209708775
 -0.002062078721108171 -0.010612208072140843 0.0023735352414016356 0.016701277825331665 0.9901861344463806 -0.08382566209708775 0.007877524657705534 0.03530659107824949
0.11254689453939999 0.008441073462568493 0.03754884545816577 0.989423908427202 -0.08888641050630383 0.0026993828525860623 0.017665788893575417 -0.0022787223913580098 -0.011233273692300224
 0.989423908427202 -0.08888641050630383 0.008451824643311548 0.0375480312485981 -0.002280857724266359 -0.011233108814498769 0.0026245730102010707 0.017677419806091218
 0.0026993828525860623 0.017665788893575417 -0.002280857724266359 -0.011233108814498769 0.00843979808500549 0.037547477237720325 0.9894238224369719 -0.08888792023718517
 -0.0022787223913580098 -0.011233273692300224 0.0026245730102010707 0.017677419806091218 0.9894238224369719 -0.08888792023718517 0.008452946282693392 0.037546456076046474
0.11879949979160001 0.009042167786018738 0.03980380853559844 0.9886265434098309 -0.09396158458212538 0.0029724073839769677 0.018638174881811468 -0.002507027689550185 -0.011852566856086325
 0.9886265434098309 -0.09396158458212538 0.009054149609235902 0.039802908148649764 -0.0025093996318461993 -0.011852367976353499 0.0028890347732667882 0.018651499286600703
 0.0029724073839769677 0.018638174881811468 -0.0025093996318461993 -0.011852367976353499 0.00904074783917319 0.039802376575774095 0.9886264475745458 -0.09396317933774179
 -0.002507027689550185 -0.011852566856086325 0.0028890347732667882 0.018651499286600703 0.9886264475745458 -0.09396317933774179 0.00905539985124863 0.03980124015566288
0.1250521050438 0.009670594406076672 0.042073234967830705 0.9877937468816669 -0.09904937567468483 0.003259388594059977 0.019608096538086622 -0.002747065795852928 -0.012469848056946013
 0.9877937468816669 -0.09904937567468483 0.009683874621624818 0.04207224301278536 -0.0027496860334059866 -0.012469611427420046 0.0031669890124741023 0.019623274540070724
 0.003259388594059977 0.019608096538086622 -0.0027496860334059866 -0.012469611427420046 0.009669022246515146 0.04207174127907122 0.9877936406095605 -0.09905105566840945
 -0.002747065795852928 -0.012469848056946013 0.0031669890124741023 0.019623274540070724 0.9877936406095605 -0.09905105566840945 0.009685260480852614 0.042070481270500254
0.131304710296 0.01032672232206901 0.04435665798005835 0.9869251547699797 -0.10414938723591287 0.003560389228385864 0.020575300273371046 -0.002998902550413265 -0.01308487418477529
 0.9869251547699797 -0.10414938723591287 0.010341368956378397 0.04435556886244746 -0.003001782655384258 -0.013084595889621431 0.003458498988502148 0.020592499799827153
 0.003560389228385864 0.020575300273371046 -0.003001782655384258 -0.013084595889621431 0.010324990331382282 0.04435510468543545 0.9869250374573771 -0.10415115269502465
 -0.002998902550413265 -0.01308487418477529 0.003458498988502148 0.020592499799827153 0.9869250374573771 -0.10415115269502465 0.01034289745305581 0.0443537123800759
0.1375573155481 0.010870850622325332 0.04635715554479094 0.9861605465940906 -0.10896457342409761 0.0038409197013089297 0.021511438868868454 -0.00322817057151761 -0.013669242788930388
 0.9861605465940906 -0.10896457342409761 0.010886937846221424 0.04635598852743426 -0.003231327872624525 -0.013668921994915631 0.0037293064675715843 0.021530652718696006
 0.0038409197013089297 0.021511438868868454 -0.003231327872624525 -0.013668921994915631 0.0108689517710043 0.04635554462460873 0.9861604177290827 -0.10896642444885866
 -0.00322817057151761 -0.013669242788930388 0.0037293064675715843 0.021530652718696006 0.9861604177290827 -0.10896642444885866 0.010888615247982923 0.04635403624819656
0.1438099208003 0.011434408306168143 0.04834511639596021 0.985368439856245 -0.11376551237153454 0.0041327134856794 0.022442450094520512 -0.0034665092554042134 -0.014248962265720883
 0.985368439856245 -0.11376551237153454 0.011452005428988847 0.04834386718275783 -0.0034699561966737083 -0.014248595068085623 0.004010955962813002 0.022463833599713604
 0.0041327134856794 0.022442450094520512 -0.0034699561966737083 -0.014248595068085623 0.011432335112853322 0.048343450035411295 0.9853682988371362 -0.11376744917501062
 -0.0034665092554042134 -0.014248962265720883 0.004010955962813002 0.022463833599713604 0.9853682988371362 -0.11376744917501062 0.011453838630567169 0.04834181808863405
0.1500625260525 0.01201716416121162 0.05032031501102046 0.9845490708814686 -0.11855202380488804 0.004435648588374184 0.023368196083205717 -0.0037138011646210174 -0.014823906173048601
 0.9845490708814686 -0.11855202380488804 0.012036340779880299 0.05031897898392016 -0.0037175501497248424 -0.014823488509767894 0.004303328617316082 0.023391910261753218
 0.004435648588374184 0.023368196083205717 -0.0037175501497248424 -0.014823488509767894 0.012014909173791702 0.05031859548274666 0.9845489170968162 -0.1185540466080181
 -0.0037138011646210174 -0.014823906173048601 0.004303328617316082 0.023391910261753218 0.9845489170968162 -0.1185540466080181 0.012038336673444063 0.05031683201205448
0.15631513130469998 0.0126188849424814 0.052282532627502626 0.9837026776260617 -0.12332392950925915 0.004749601341545985 0.024288541811594632 -0.003969927213371577 -0.015393951172154289
 0.9837026776260617 -0.12332392950925915 0.012639710948664158 0.05228110483323636 -0.003973990604858888 -0.015393478824800848 0.004606303955093095 0.024314753298776876
