! Created with skrf 1.8.0 (http://scikit-rf.org).
# GHz S RI R 50.0 
!freq ReS11 ImS11 ReS12 ImS12 ReS13 ImS13
! ReS14 ImS14
! ReS21 ImS21 ReS22 ImS22 ReS23 ImS23
! ReS24 ImS24
! ReS31 ImS31 ReS32 ImS32 ReS33 ImS33
! ReS34 ImS34
! ReS41 ImS41 ReS42 ImS42 ReS43 ImS43
! ReS44 ImS44
!
0.0 0.001496604297237 0.0 0.9985033956825 0.0 5.727904546281e-05 0.0 -5.727904535134e-05 7.014659954773461e-21
 0.9985033956825 0.0 0.001496604297247 0.0 -5.72790453519e-05 7.014659954842042e-21 5.727904546248e-05 0.0
 5.727904546281e-05 0.0 -5.72790453519e-05 7.014659954842042e-21 0.001496604299123 0.0 0.9985033956844 0.0
 -5.727904535134e-05 7.014659954773461e-21 5.727904546248e-05 0.0 0.9985033956844 0.0 0.001496604299098 0.0
0.005 0.0016100246899207 0.001231315304692577 0.9983599780516185 -0.0031347851368256894 7.899776796977411e-05 0.0005896075904833398 -7.709967439228999e-05 -0.0003773385881565045
 0.9983599780516185 -0.0031347851368256894 0.0016099999413302308 0.0012313297875566947 -7.710025671970671e-05 -0.0003773390855521862 7.914777565429774e-05 0.0005895505231815534
 7.899776796977411e-05 0.0005896075904833398 -7.710025671970671e-05 -0.0003773390855521862 0.0016100244689650333 0.0012313827508134236 0.9983599784063137 -0.0031347180663861135
 -7.709967439228999e-05 -0.0003773385881565045 7.914777565429774e-05 0.0005895505231815534 0.9983599784063137 -0.0031347180663861135 0.0016100008636472077 0.0012313964750607165
0.006252605252188 0.00163973400724021 0.0015439614461355438 0.9983221916787152 -0.00391925147343389 8.514153244107535e-05 0.0007373193039561382 -8.266711964485158e-05 -0.00047215382257626053
 0.9983221916787152 -0.00391925147343389 0.001639695320471054 0.0015439798377222295 -8.266802540083884e-05 -0.0004721544369558187 8.537590668108023e-05 0.0007372452081376484
 8.514153244107535e-05 0.0007373193039561382 -8.266802540083884e-05 -0.0004721544369558187 0.001639733580246928 0.0015440457377905498 0.998322192152176 -0.003919167653544404
 -8.266711964485158e-05 -0.00047215382257626053 8.537590668108023e-05 0.0007372452081376484 0.998322192152176 -0.003919167653544404 0.0016396966815295359 0.0015440631697197125
0.01250521050438 0.0017959117240379041 0.0031200706796224195 0.9981223346447845 -0.007839309913971004 0.00012005401743398297 0.001475159609455896 -0.00011410205895349063 -0.0009465823636925518
 0.9981223346447845 -0.007839309913971004 0.0017957572442168618 0.0031201103863769423 -0.00011410562371212599 -0.000946583512359016 0.00012098867844695328 0.0014749816817334902
 0.00012005401743398297 0.001475159609455896 -0.00011410562371212599 -0.000946583512359016 0.001795909474777742 0.003120239032650494 0.9981223360010817 -0.007839142508775328
 -0.00011410205895349063 -0.0009465823636925518 0.00012098867844695328 0.0014749816817334902 0.9981223360010817 -0.007839142508775328 0.0017957621486426238 0.003120276693921599
0.01875781575657 0.001965469675582137 0.004718495179966481 0.9979035820389636 -0.011769717083270752 0.00016209890295148673 0.0022139755707532563 -0.0001516777716838895 -0.0014226648535164807
 0.9979035820389636 -0.011769717083270752 0.0019651225473233244 0.004718559387870391 -0.00015168571465938826 -0.0014226664427616153 0.00016419858974864635 0.0022136583868830042
 0.00016209890295148673 0.0022139755707532563 -0.00015168571465938826 -0.0014226664427616153 0.0019654641774640514 0.0047187475061157905 0.997903584664689 -0.011769466144745997
 -0.0001516777716838895 -0.0014226648535164807 0.00016419858974864635 0.0022136583868830042 0.997903584664689 -0.011769466144745997 0.0019651331513690063 0.004718808419745226
0.02501042100875 0.0021487307738649727 0.006337022011300347 0.997665681907479 -0.015712385528855465 0.00021135866809641554 0.0029537945071076536 -0.00019548549586719194 -0.0019002027551460348
 0.997665681907479 -0.015712385528855465 0.002148114294801543 0.006337114141915717 -0.00019549951362412486 -0.0019002046757948205 0.00021508834324117672 0.0029532971566361694
 0.00021135866809641554 0.0029537945071076536 -0.00019549951362412486 -0.0019002046757948205 0.002148720602902039 0.006337358212578321 0.9976656862030273 -0.01571205107745819
 -0.00019548549586719194 -0.0019002027551460348 0.00021508834324117672 0.0029532971566361694 0.9976656862030273 -0.01571205107745819 0.0021481327660759194 0.006337445601319398
0.03126302626094 0.0023460046192013222 0.007974516919295264 0.9974083691292276 -0.01966813944278457 0.0002679158865443296 0.003694581023226158 -0.00024561413412295955 -0.002379055270536023
 0.9974083691292276 -0.01966813944278457 0.002345042199201749 0.00797464062465055 -0.0002456359044319078 -0.0023790573977456268 0.00027374116943992296 0.003693857078017134
 0.0002679158865443296 0.003694581023226158 -0.0002456359044319078 -0.0023790573977456268 0.002345988336888521 0.007974936902459196 0.9974083754941226 -0.019667721452755464
 -0.00024561413412295955 -0.002379055270536023 0.00027374116943992296 0.003693857078017134 0.9974083754941226 -0.019667721452755464 0.0023450707006827548 0.007975054183509939
0.037515631513130004 0.002557594225861753 0.009630243802012481 0.9971313723476278 -0.02363739512746773 0.00033185264356287415 0.004436274872078826 -0.00030215082520274495 -0.002859101488858497
 0.9971313723476278 -0.02363739512746773 0.00255620936159515 0.009630402962234212 -0.0003021820091023911 -0.002859103682095321 0.0003402400061061343 0.004435272330914492
 0.00033185264356287415 0.004436274872078826 -0.0003021820091023911 -0.002859103682095321 0.002557570383990686 0.009630747455766574 0.9971313811861465 -0.023636893549623218
 -0.00030215082520274495 -0.002859101488858497 0.0003402400061061343 0.004435272330914492 0.9971313811861465 -0.023636893549623218 0.0025562500560735195 0.00963089823793278
0.043768236765320004 0.0027837986353060587 0.011303657589999619 0.9968344167837929 -0.027620368044379645 0.00040325024720323674 0.005178802477218116 -0.00036518115165104357 -0.0033402288658107198
 0.9968344167837929 -0.027620368044379645 0.002781914889481005 0.011303856312072041 -0.0003652233946388415 -0.0033402309688577887 0.00041466710765991193 0.005177463702950934
 0.00040325024720323674 0.005178802477218116 -0.0003652233946388415 -0.0033402309688577887 0.0027837657732461135 0.011304244791110215 0.9968344285039973 -0.027619782799897633
 -0.00036518115165104357 -0.0033402288658107198 0.00041466710765991193 0.005177463702950934 0.9968344285039973 -0.027619782799897633 0.002781969937201717 0.011304432873093956
0.050020842017509996 0.0030249141229672523 0.012994318672947442 0.9965172256469613 -0.03161715831442331 0.00048218905029139404 0.005922081677153118 -0.0004347892107787816 -0.0038223284799515133
 0.9965172256469613 -0.03161715831442331 0.0030224551074822742 0.012994561290050551 -0.0004348441436303498 -0.003822330320953118 0.0004971038133462104 0.005920343330768597
 0.00048218905029139404 0.005922081677153118 -0.0004348441436303498 -0.003822330320953118 0.00302487076767122 0.012994989274748828 0.9965172406620707 -0.03161648930641211
 -0.0004347892107787816 -0.0038223284799515133 0.0004971038133462104 0.005920343330768597 0.9965172406620707 -0.03161648930641211 0.0030225266657101786 0.012995218643888189
0.055454545454549996 0.003246788895233072 0.014477268005727816 0.9962249273103339 -0.03510173369144823 0.0005569752277875653 0.006568555681739569 -0.0005006868556672091 -0.004241993625206634
 0.9962249273103339 -0.03510173369144823 0.0032437679427069605 0.014477552463643907 -0.0005007541297835412 -0.004241995086791746 0.0005753109480200741 0.006566414177098508
 0.0005569752277875653 0.006568555681739569 -0.0005007541297835412 -0.004241995086791746 0.00324673521441027 0.014478010953203842 0.9962249455284691 -0.035100991792428954
 -0.0005006868556672091 -0.004241993625206634 0.0005753109480200741 0.006566414177098508 0.9962249455284691 -0.035100991792428954 0.003243855597907238 0.01447827958643409
0.056273447269699996 0.0032812348241316827 0.01470185086753398 0.9961795209650709 -0.0356277926777744 0.0005687483169928304 0.0066660240660566545 -0.0005110576287120451 -0.004305292694168506
 0.9961795209650709 -0.0356277926777744 0.003278124184137691 0.014702141938968358 -0.0005111268680514727 -0.004305294085660998 0.0005876303811021657 0.006663817039407475
 0.0005687483169928304 0.0066660240660566545 -0.0005111268680514727 -0.004305294085660998 0.003281179489571345 0.014702604706936318 0.9961795396938548 -0.035627039784289806
 -0.0005110576287120451 -0.004305292694168506 0.0005876303811021657 0.006663817039407475 0.9961795396938548 -0.035627039784289806 0.0032782144064007978 0.014702879538654881
0.06252605252188 0.0035530530712820987 0.016425918327294498 0.9958210241308069 -0.039652247513989936 0.00066300611536423 0.007410536273589141 -0.0005940675409788343 -0.0047890138805480745
 0.9958210241308069 -0.039652247513989936 0.0035492144710983927 0.016426262638834045 -0.0005941526897479783 -0.004789014619503553 0.0006863258588375836 0.007407785621564821
 0.00066300611536423 0.007410536273589141 -0.0005941526897479783 -0.004789014619503553 0.003552984257582347 0.016426755224693047 0.995821046998231 -0.03965141058813795
 -0.0005940675409788343 -0.0047890138805480745 0.0006863258588375836 0.007407785621564821 0.995821046998231 -0.03965141058813795 0.0035493255053607674 0.016427079882329564
0.06877865777407 0.003840659573902362 0.01816621177880015 0.9954414562930497 -0.04369046253852255 0.000765039221732725 0.008155520728081586 -0.0006838985567134633 -0.005273383664913347
 0.9954414562930497 -0.04369046253852255 0.003836016682648652 0.018166614343492194 -0.0006840012044063076 -0.00527338353278381 0.0007932679735266184 0.008152145600694773
 0.000765039221732725 0.008155520728081586 -0.0006840012044063076 -0.00527338353278381 0.0038405757673627226 0.018167131528887968 0.995441483731714 -0.04368954141783302
 -0.0006838985567134633 -0.005273383664913347 0.0007932679735266184 0.008152145600694773 0.995441483731714 -0.04368954141783302 0.0038361506714781495 0.018167510563906305
0.07503126302626001 0.004144343506637615 0.01992243977383253 0.9950405386603408 -0.047742349486981826 0.0008749230311588702 0.008900876151398163 -0.0007806287131142835 -0.005758292443043079
 0.9950405386603408 -0.047742349486981826 0.0041388199848832775 0.019922905833222173 -0.0007807504360855116 -0.005758291205799712 0.0009085330302891544 0.008896789726097809
 0.0008749230311588702 0.008900876151398163 -0.0007807504360855116 -0.005758291205799712 0.004144243178549563 0.019923442159020054 0.9950405711106154 -0.047741343980029334
 -0.0007806287131142835 -0.005758292443043079 0.0009085330302891544 0.008896789726097809 0.9950405711106154 -0.047741343980029334 0.004138979063297358 0.019923880311747143
0.08128386827845 0.004464392538336459 0.021694322894197322 0.9946179927486833 -0.051807797850402224 0.0009927314750187962 0.009646497876232913 -0.0008843344201678369 -0.006243629078061045
 0.9946179927486833 -0.051807797850402224 0.004457912024452052 0.021694857920024964 -0.0008844767817469549 -0.006243626486247408 0.0010321958211461616 0.009641607290624942
 0.0009927314750187962 0.009646497876232913 -0.0008844767817469549 -0.006243626486247408 0.0044642741447941045 0.02169540766984588 0.9946180306594464 -0.051806707751746395
 -0.0008843344201678369 -0.006243629078061045 0.0010321958211461616 0.009641607290624942 0.9946180306594464 -0.051806707751746395 0.004458098319539744 0.02169590987058994
0.08753647353064001 0.004801092822748869 0.023481589719040307 0.9941735405939245 -0.055886678852315144 0.0011185369386182147 0.010392278089008026 -0.0009950904029453597 -0.006729280676037906
 0.9941735405939245 -0.055886678852315144 0.004793578919851204 0.023482199415330418 -0.000995254953650144 -0.006729276464803225 0.001164329535576374 0.010386484374139986
 0.0011185369386182147 0.010392278089008026 -0.000995254953650144 -0.006729276464803225 0.00480095480380904 0.023482756626636334 0.9941735844232623 -0.05588550392954835
 -0.0009950904029453597 -0.006729280676037906 0.001164329535576374 0.010386484374139986 0.9941735844232623 -0.05588550392954835 0.004793794548848243 0.023483327997358357
0.09378907878283 0.00515472896226907 0.025283973965856594 0.9937069049408235 -0.059978848256600416 0.001252410183031257 0.011138105985901625 -0.0011129696380131383 -0.0072151324523425184
 0.9937069049408235 -0.059978848256600416 0.005146105224959312 0.025284664271483962 -0.0011131579156010392 -0.007215126341489189 0.001305005676305246 0.011131304000271876
 0.001252410183031257 0.011138105985901625 -0.0011131579156010392 -0.007215126341489189 0.005154569741809076 0.02528522272337478 0.9937069551576256 -0.05997758826021292
 -0.0011129696380131383 -0.0072151324523425184 0.001305005676305246 0.011131304000271876 0.9937069551576256 -0.05997758826021292 0.0051463522948620105 0.025285868579649387
0.100041684035 0.005525583953248837 0.027101212376677907 0.9932178094168992 -0.06408414843473757 0.0013944202665226333 0.011883867909270127 -0.0012380432885648227 -0.007701067621741563
 0.9932178094168992 -0.06408414843473757 0.005515773874095827 0.027101989468436172 -0.0012382568181372867 -0.007701059315772764 0.0014542939755461928 0.011875946273648087
 0.0013944202665226333 0.011883867909270127 -0.0012382568181372867 -0.007701059315772764 0.005525401937952681 0.027102542685265057 0.9932178665006018 -0.06408280309168896
 -0.0012380432885648227 -0.007701067621741563 0.0014542939755461928 0.011875946273648087 0.9932178665006018 -0.06408280309168896 0.005516054479894368 0.027103268538837665
0.1059090909091 0.005889503004628811 0.028819774348624805 0.9927381728641439 -0.06794832870108858 0.0015351419875862112 0.012583522710072183 -0.0013620166269587355 -0.008157036238362838
 0.9927381728641439 -0.06794832870108858 0.005878510020256665 0.02882063871267723 -0.0013622552286788607 -0.008157025590167101 0.0016022783649498613 0.012574443490497798
 0.0015351419875862112 0.012583522710072183 -0.0013622552286788607 -0.008157025590167101 0.005889298134065105 0.028821180894468973 0.9927382368382889 -0.06794690300319295
 -0.0013620166269587355 -0.008157036238362838 0.0016022783649498613 0.012574443490497798 0.9927382368382889 -0.06794690300319295 0.00587882398965629 0.028821987007335532
0.1062942892872 0.005913939115675465 0.028933043139080395 0.9927059786939462 -0.06820240990325004 0.0015446344670931097 0.012629447445353402 -0.001370380637013437 -0.008186967331367393
 0.9927059786939462 -0.06820240990325004 0.005902866112324092 0.028933913435163026 -0.0013706209310727399 -0.008186956519527562 0.0016122623131938922 0.012620288478484417
 0.0015446344670931097 0.012629447445353402 -0.0013706209310727399 -0.008186956519527562 0.005913732694538781 0.02893445467999963 0.9927060431357446 -0.06820097892029522
 -0.001370380637013437 -0.008186967331367393 0.0016122623131938922 0.012620288478484417 0.9927060431357446 -0.06820097892029522 0.005903182335794814 0.028935266241853653
0.11254689453939999 0.006320074013287702 0.030779204677355253 0.9921711386422638 -0.07233345249591352 0.0017031182057409026 0.01337472550864012 -0.001510049015782408 -0.008672710611353466
 0.9921711386422638 -0.07233345249591352 0.006307661414970027 0.03078017484137822 -0.0015103175742785932 -0.008672696967674205 0.0017789766359868906 0.01336420516394603
 0.0017031182057409026 0.01337472550864012 -0.0015103175742785932 -0.008672696967674205 0.006319841557285012 0.03078069711204397 0.9921712109461768 -0.07233193555996548
 -0.001510049015782408 -0.008672710611353466 0.0017789766359868906 0.01336420516394603 0.9921712109461768 -0.07233193555996548 0.006308015323620465 0.030781600295874675
0.11879949979160001 0.006744266364439416 0.03263943470485487 0.9916130164797029 -0.07647708628018594 0.0018699349697893783 0.014119580412795962 -0.0016571137369800028 -0.00915817434328691
 0.9916130164797029 -0.07647708628018594 0.006730437398579453 0.03264051165034977 -0.001657412047340563 -0.009158157526628997 0.001954500877233832 0.014107568216168207
 0.0018699349697893783 0.014119580412795962 -0.001657412047340563 -0.009158157526628997 0.006744006225677283 0.032641007676580805 0.9916130971629635 -0.07647548305697625
 -0.0016571137369800028 -0.00915817434328691 0.001954500877233832 0.014107568216168207 0.9916130971629635 -0.07647548305697625 0.006730831044178208 0.03264200860284913
0.1250521050438 0.00718679194604838 0.03451346948700472 0.9910313409154048 -0.08063311226825512 0.002045146236640993 0.014863887930005565 -0.0018116380208544627 -0.009643233244760527
 0.9910313409154048 -0.08063311226825512 0.0071714697247926805 0.034514660382504475 -0.001811967557981074 -0.009643212898867916 0.0021388968771757864 0.01485024691875833
 0.002045146236640993 0.014863887930005565 -0.001811967557981074 -0.009643212898867916 0.0071865024574180895 0.03451512262104485 0.9910314305095542 -0.08063142240262512
 -0.0018116380208544627 -0.009643233244760527 0.0021388968771757864 0.01485024691875833 0.9910314305095542 -0.08063142240262512 0.00717190514221328 0.034516227621558766
0.131304710296 0.007647924492749366 0.0364010432432738 0.9904258422924787 -0.08480132299479419 0.00222881139740796 0.015607521350130167 -0.0019736829236298606 -0.010127759858736912
 0.9904258422924787 -0.08480132299479419 0.007631031999720041 0.03640235551785168 -0.0019740451499290195 -0.010127735612276829 0.0023322243036354084 0.015592108013102936
 0.00222881139740796 0.015607521350130167 -0.0019740451499290195 -0.010127735612276829 0.007647603966859573 0.03640277614684723 0.990425941343741 -0.08479954611117306
 -0.0019736829236298606 -0.010127759858736912 0.0023322243036354084 0.015592108013102936 0.990425941343741 -0.08479954611117306 0.00763151120513168 0.036403991769864065
0.1375573155481 0.008021115179227288 0.038057598752000675 0.9899031152882265 -0.08873709450415447 0.0023968010218043726 0.016326234715610545 -0.0021190018658893556 -0.010587605372462196
 0.9899031152882265 -0.08873709450415447 0.008002570310854027 0.03805901343677256 -0.0021193990933192465 -0.010587577205552031 0.0025101136188641856 0.01630907301851857
 0.0023968010218043726 0.016326234715610545 -0.0021193990933192465 -0.010587577205552031 0.0080207628445691 0.03805941082450952 0.9899032242359537 -0.08873523037829334
 -0.0021190018658893556 -0.010587605372462196 0.0025101136188641856 0.01630907301851857 0.9899032242359537 -0.08873523037829334 0.008003094590516138 0.038060717864923606
0.1438099208003 0.008407432154048555 0.039705709241494205 0.9893620620362631 -0.09266313650926708 0.0025715417651739104 0.017042162803052225 -0.0022701206254845054 -0.01104482253300508
 0.9893620620362631 -0.09266313650926708 0.008387156962170282 0.03970723221394594 -0.0022705544513638596 -0.01104479007721008 0.0026951885751457273 0.017023121657860203
 0.0025715417651739104 0.017042162803052225 -0.0022705544513638596 -0.01104479007721008 0.008407046460692623 0.03970760003098523 0.9893621814265424 -0.0926611847720085
 -0.0022701206254845054 -0.01104482253300508 0.0026951885751457273 0.017023121657860203 0.9893621814265424 -0.0926611847720085 0.008387728174010043 0.03970900353038234
0.1500625260525 0.008806743557268178 0.0413452442133223 0.9888028183603528 -0.09657935850573096 0.0027529737778711994 0.017755237553009062 -0.002426979640981156 -0.011499344570152142
 0.9888028183603528 -0.09657935850573096 0.008784659945324935 0.041346881679470114 -0.0024274516607244983 -0.01149930744198843 0.002887386803850973 0.017734181092593043
 0.0027529737778711994 0.017755237553009062 -0.0024274516607244983 -0.01149930744198843 0.00880632294663891 0.04134721324754022 0.9888029487522558 -0.09657731877549215
 -0.002426979640981156 -0.011499344570152142 0.002887386803850973 0.017734181092593043 0.9888029487522558 -0.09657731877549215 0.008785279920722248 0.0413487185448802
0.15631513130469998 0.009218916644107152 0.04297607711703821 0.9882255207198208 -0.10048567017072337 0.002941036525190622 0.018465392060881908 -0.0025895186378876145 -0.011951106097774831
