! Created with skrf 1.8.0 (http://scikit-rf.org).
# GHz S RI R 50.0 
!freq ReS11 ImS11 ReS12 ImS12 ReS13 ImS13
! ReS14 ImS14
! ReS21 ImS21 ReS22 ImS22 ReS23 ImS23
! ReS24 ImS24
! ReS31 ImS31 ReS32 ImS32 ReS33 ImS33
! ReS34 ImS34
! ReS41 ImS41 ReS42 ImS42 ReS43 ImS43
! ReS44 ImS44
!
0.0 0.001406787840265 0.0 0.9985932121594 0.0 5.404499923138e-05 0.0 -5.404499930846e-05 6.618603541302646e-21
 0.9985932121594 0.0 0.001406787840276 0.0 -5.404499930884e-05 6.618603541349182e-21 5.40449992305e-05 0.0
 5.404499923138e-05 0.0 -5.404499930884e-05 6.618603541349182e-21 0.001406787840453 0.0 0.9985932121595 0.0
 -5.404499930846e-05 6.618603541302646e-21 5.40449992305e-05 0.0 0.9985932121595 0.0 0.001406787840448 0.0
0.005 0.001513214791673581 0.0011509749422366749 0.998458616879588 -0.0029472606127148794 7.560686630283885e-05 0.0005967711785523757 -7.338702051647096e-05 -0.0003744345981139346
 0.998458616879588 -0.0029472606127148794 0.0015132414093447172 0.0011509594312420525 -7.338962648803645e-05 -0.00037443661780455726 7.54206489343043e-05 0.0005968417894375332
 7.560686630283885e-05 0.0005967711785523757 -7.338962648803645e-05 -0.00037443661780455726 0.0015132130192160665 0.0011509087572088672 0.9984586165325514 -0.002947327667752534
 -7.338702051647096e-05 -0.0003744345981139346 7.54206489343043e-05 0.0005968417894375332 0.9984586165325514 -0.002947327667752534 0.0015132424950616106 0.0011508915128162563
0.006252605252188 0.0015410162824966162 0.0014432623313356025 0.9984232488392153 -0.0036848135604443393 8.172507952168867e-05 0.0007462580588848002 -7.879690705526394e-05 -0.00046853393193804375
 0.9984232488392153 -0.0036848135604443393 0.001541057890845825 0.0014432426766968905 -7.880096205704933e-05 -0.0004685364230078321 8.14341269543845e-05 0.000746349749793081
 8.172507952168867e-05 0.0007462580588848002 -7.880096205704933e-05 -0.0004685364230078321 0.0015410135846917906 0.0014431796043778732 0.9984232483698565 -0.003684897381910132
 -7.879690705526394e-05 -0.00046853393193804375 8.14341269543845e-05 0.000746349749793081 0.9984232483698565 -0.003684897381910132 0.0015410596616758229 0.001443157775451184
0.01250521050438 0.0016867232039565736 0.0029169251918752703 0.9982367214717175 -0.007370537921408238 0.0001165889971009177 0.0014928968930148282 -0.0001092177410289507 -0.0009394091599259926
 0.9982367214717175 -0.007370537921408238 0.0016868893456163051 0.0029168832305080865 -0.00010923372047875515 -0.0009394137768881782 0.00011542860387614259 0.0014931170104661618
 0.0001165889971009177 0.0014928968930148282 -0.00010923372047875515 -0.0009394137768881782 0.0016867129922061201 0.0029167600767993985 0.9982367201605398 -0.007370705328723014
 -0.0001092177410289507 -0.0009394091599259926 0.00011542860387614259 0.0014931170104661618 0.9982367201605398 -0.007370705328723014 0.0016868969875603425 0.0029167136678253844
0.01875781575657 0.001844205039768514 0.004411748248174104 0.998033413837109 -0.011066166657897562 0.00015871275869373393 0.002240428755939492 -0.00014539652382077398 -0.0014119600080090503
 0.998033413837109 -0.011066166657897562 0.0018445783610437933 0.004411681184315571 -0.00014543215780492543 -0.0014119663212121872 0.00015610572354173285 0.002240820690740126
 0.00015871275869373393 0.002240428755939492 -0.00014543215780492543 -0.0014119663212121872 0.0018441825128953553 0.004411500995149236 0.9980334113129268 -0.011066417593454248
 -0.00014539652382077398 -0.0014119600080090503 0.00015610572354173285 0.002240820690740126 0.9980334113129268 -0.011066417593454248 0.0018445959723408527 0.00441142704043777
0.02501042100875 0.0020137506246546196 0.005925662692701272 0.9978131018221905 -0.01477351366732093 0.0002081742101383033 0.002988896560968901 -0.00018741974751743996 -0.0018859858203245127
 0.9978131018221905 -0.01477351366732093 0.0020144136016443316 0.005925567619520881 -0.0001874826740535338 -0.0018859933277633046 0.00020354288918486606 0.002989510117323364
 0.0002081742101383033 0.002988896560968901 -0.0001874826740535338 -0.0018859933277633046 0.002013710984883517 0.005925333604969609 0.9978130977085322 -0.014773848108086305
 -0.00018741974751743996 -0.0018859858203245127 0.00020354288918486606 0.002989510117323364 0.9978130977085322 -0.014773848108086305 0.0020144452788420893 0.0059252289606874925
0.03126302626094 0.0021956367319326915 0.00745761539355444 0.9975755491033794 -0.01849336899904359 0.0002650520281755174 0.003738274692953099 -0.00023537169338746586 -0.0023613500106320685
 0.9975755491033794 -0.01849336899904359 0.0021966717171434964 0.007457489300901934 -0.00023546947437277905 -0.002361358136936513 0.00025781779107496793 0.0037391661276122935
 0.0002650520281755174 0.003738274692953099 -0.00023546947437277905 -0.002361358136936513 0.0021955751892910216 0.0074572048231043055 0.9975755430234657 -0.01849378696114312
 -0.00023537169338746586 -0.0023613500106320685 0.00025781779107496793 0.0037391661276122935 0.9975755430234657 -0.01849378696114312 0.0021967215630830845 0.0074570661750255314
0.037515631513130004 0.0023901342834510694 0.009006928400990386 0.9973205135078282 -0.022226139292306258 0.00032942484753955203 0.0044885106481314845 -0.0002893350524591551 -0.002837938402733742
 0.9973205135078282 -0.022226139292306258 0.0023916235364798734 0.009006768180110616 -0.0002894751818101671 -0.00283794649885122 0.00031900782587234014 0.004489742738182276
 0.00032942484753955203 0.0044885106481314845 -0.0002894751818101671 -0.00283794649885122 0.0023900460524274286 0.009006436758781383 0.99732050508088 -0.022226640821428688
 -0.0002893350524591551 -0.002837938402733742 0.00031900782587234014 0.004489742738182276 0.99732050508088 -0.022226640821428688 0.002391695659023735 0.009006260626346775
0.043768236765320004 0.002597510747087342 0.010573104039565448 0.9970477495678054 -0.025972042620208753 0.0004013708598884551 0.005239537691953061 -0.0003493911544154499 -0.003315646561444014
 0.9970477495678054 -0.025972042620208753 0.002599536459860179 0.010572906486545576 -0.0003495810629686419 -0.003315653904527257 0.00038718982055875096 0.005241179811595798
 0.0004013708598884551 0.005239537691953061 -0.0003495810629686419 -0.003315653904527257 0.0025973910482969607 0.010572531803736542 0.9970477384102164 -0.02597262778411105
 -0.0003493911544154499 -0.003315646561444014 0.00038718982055875096 0.005241179811595798 0.9970477384102164 -0.02597262778411105 0.0025996349743401133 0.01057231454263304
0.050020842017509996 0.0028180312570878683 0.012155744348178557 0.9967570098020705 -0.02973118898360934 0.0004809675815630326 0.005991280089164884 -0.0004156200549901527 -0.0037943745547792704
 0.9967570098020705 -0.02973118898360934 0.0028206755753439703 0.012155506166619274 -0.0004158671136701087 -0.0037943803481365304 0.00046243986605612713 0.005993408290209666
 0.0004809675815630326 0.005991280089164884 -0.0004158671136701087 -0.0037943803481365304 0.0028178753168508117 0.012155092066938905 0.9967569955255826 -0.02973185786987304
 -0.0004156200549901527 -0.0037943745547792704 0.00046243986605612713 0.005993408290209666 0.9967569955255826 -0.02973185786987304 0.0028208046045829958 0.012154829870889165
0.055454545454549996 0.0030205494302793442 0.013544214655634372 0.996489556398698 -0.033008789470735725 0.0005564124331786307 0.006645084277105997 -0.000478249281538611 -0.004211155790081543
 0.996489556398698 -0.033008789470735725 0.0030237980270916964 0.01354393841931918 -0.0004785519465817873 -0.0042111595323131275 0.0005336330113787273 0.006647701909065827
 0.0005564124331786307 0.006645084277105997 -0.0004785519465817873 -0.0042111595323131275 0.0030203581232034556 0.013543493309033632 0.9964895390929182 -0.033009531204522394
 -0.000478249281538611 -0.004211155790081543 0.0005336330113787273 0.006647701909065827 0.9964895390929182 -0.033009531204522394 0.003023956929367771 0.01354318884696497
0.056273447269699996 0.003051959196229264 0.013754511553443203 0.9964480454613744 -0.033503619771668706 0.0005682916933505672 0.00674365566383236 -0.0004881005623819573 -0.004274024388901376
 0.9964480454613744 -0.033503619771668706 0.0030553042396329892 0.01375422935654122 -0.0004884120843186959 -0.004274027761990418 0.000544833197013147 0.006746352758008658
 0.0005682916933505672 0.00674365566383236 -0.0004884120843186959 -0.004274027761990418 0.0030517622471677203 0.01375377984303464 0.9964480276731349 -0.03350437249054953
 -0.0004881005623819573 -0.004274024388901376 0.000544833197013147 0.006746352758008658 0.9964480276731349 -0.03350437249054953 0.003055467914990927 0.013753468744808945
0.06252605252188 0.0032995565141652706 0.015369106326539156 0.9961206070155053 -0.03728932944054513 0.0006634189174093038 0.0074965772080645265 -0.0005669102317587531 -0.0047544985971120675
 0.9961206070155053 -0.03728932944054513 0.003303684395626556 0.015368776638568652 -0.0005672934738206521 -0.00475449860554072 0.000634444094719696 0.007499932850130495
 0.0006634189174093038 0.0074965772080645265 -0.0005672934738206521 -0.00475449860554072 0.0032993137958813195 0.015368295874281162 0.9961205853166684 -0.03729016612265168
 -0.0005669102317587531 -0.0047544985971120675 0.000634444094719696 0.007499932850130495 0.9961205853166684 -0.03729016612265168 0.003303886857256063 0.015367931746337224
0.06877865777407 0.0035610839028073545 0.016999254817991166 0.9957744444978617 -0.041088278416167974 0.0007664239148667839 0.00824995332246375 -0.000652125341302243 -0.00523569939990009
 0.9957744444978617 -0.041088278416167974 0.0035660767467091685 0.016998874075382864 -0.0006525875050919624 -0.0052356950254503825 0.0007313458032213826 0.008254064093618018
 0.0007664239148667839 0.00824995332246375 -0.0006525875050919624 -0.0052356950254503825 0.0035607906628979235 0.016998366383470413 0.9957744184838625 -0.04108919921190894
 -0.000652125341302243 -0.00523569939990009 0.0007313458032213826 0.008254064093618018 0.9957744184838625 -0.04108919921190894 0.0035663221449159085 0.01699794493787739
0.07503126302626001 0.0038368008872475337 0.01864470044911344 0.9954093077708089 -0.04490040124285614 0.0008773801952195343 0.009003688946092506 -0.0007438208573111075 -0.00571752817839321
 0.9954093077708089 -0.04490040124285614 0.0038427408477005546 0.018644265000949997 -0.0007443690898878831 -0.005717518329051531 0.0008356104523879252 0.009008658437364052
 0.0008773801952195343 0.009003688946092506 -0.0007443690898878831 -0.005717518329051531 0.0038364523812963337 0.018643734864517935 0.9954092770298066 -0.044901406322839184
 -0.0007438208573111075 -0.00571752817839321 0.0008356104523879252 0.009008658437364052 0.9954092770298066 -0.044901406322839184 0.003843033342664227 0.01864325165250242
0.08128386827845 0.004126965862351282 0.02030519843564325 0.9950249467389846 -0.04872561200274018 0.0009963600335396942 0.0097576857157443 -0.0008420703915623863 -0.006199885121565121
 0.9950249467389846 -0.04872561200274018 0.004133935141582207 0.02030470454368893 -0.0008427117859726831 -0.006199868631557402 0.0009473089857821662 0.009763624611087504
 0.0009963600335396942 0.0097576857157443 -0.0008427117859726831 -0.006199868631557402 0.004126557356001964 0.02030415660852041 0.9950249108519202 -0.04872670155564507
 -0.0008420703915623863 -0.006199885121565121 0.0009473089857821662 0.009763624611087504 0.9950249108519202 -0.04872670155564507 0.004134278904677723 0.020303607019443136
0.08753647353064001 0.00443183609647974 0.021980512009863194 0.9946211115318991 -0.05256380803967359 0.0011234343922341115 0.010511842211652772 -0.0009469461539462938 -0.006682668990109079
 0.9946211115318991 -0.05256380803967359 0.004439916962570028 0.021979955848051708 -0.0009476877494943852 -0.006682644619942827 0.0010665110909264387 0.010518868370623194
 0.0011234343922341115 0.010511842211652772 -0.0009476877494943852 -0.006682644619942827 0.004431362865174688 0.021979394919629212 0.9946210700713592 -0.05256498227641892
 -0.0009469461539462938 -0.006682668990109079 0.0010665110909264387 0.010518868370623194 0.9946210700713592 -0.05256498227641892 0.004440316176078323 0.021978774179444684
0.09378907878283 0.00475166770824113 0.023670409714477002 0.9941975526641424 -0.056414872615001686 0.0012586728460289162 0.01126605413934726 -0.001058518901146208 -0.007165776947449365
 0.9941975526641424 -0.056414872615001686 0.004760942513556772 0.023669787367909027 -0.0010593676835495257 -0.0071657433839760615 0.0011932851315629794 0.011274292679177232
 0.0012586728460289162 0.01126605413934726 -0.0010593676835495257 -0.0071657433839760615 0.004751125039177403 0.023669218417552988 0.9941975051939365 -0.05641613176417522
 -0.001058518901146208 -0.007165776947449365 0.0011932851315629794 0.011274292679177232 0.9941975051939365 -0.05641613176417522 0.004761401372158079 0.023668521586719442
0.100041684035 0.005086715628526018 0.02537466342077729 0.9937540211815419 -0.06027867684240593 0.0014021435094355326 0.012020214463040376 -0.0011768578824345748 -0.007649104442498823
 0.9937540211815419 -0.06027867684240593 0.005097266827674813 0.025373970884098804 -0.0011778207838805273 -0.0076490602989690275 0.0013276980809349222 0.01202979784002225
 0.0014021435094355326 0.012020214463040376 -0.0011778207838805273 -0.0076490602989690275 0.0050860988211213895 0.025373399048269733 0.9937539672562159 -0.0602800211531174
 -0.0011768578824345748 -0.007649104442498823 0.0013276980809349222 0.01202979784002225 0.9937539672562159 -0.0602800211531174 0.0050977895383992385 0.025372621019177578
0.1059090909091 0.005415187632660171 0.026986779793667117 0.9933194278737746 -0.06391590966989989 0.0015443219453395972 0.012727769346126301 -0.0012941205951796306 -0.008102760987106168
 0.9933194278737746 -0.06391590966989989 0.005427011691042852 0.026986017665780633 -0.001295196842290193 -0.008102705588582372 0.0014608362617808365 0.012738741786006716
 0.0015443219453395972 0.012727769346126301 -0.001295196842290193 -0.008102705588582372 0.005414496991069411 0.026985447944718178 0.9933193674763949 -0.06391733413908136
 -0.0012941205951796306 -0.008102760987106168 0.0014608362617808365 0.012738741786006716 0.9933193674763949 -0.06391733413908136 0.005427598157728686 0.026984588921851835
0.1062942892872 0.005437233547428731 0.027093046836762488 0.9932902687968517 -0.06415508113642834 0.0015539129651011712 0.012774213512039043 -0.0013020307836269485 -0.008132545122913096
 0.9932902687968517 -0.06415508113642834 0.0054491437159159 0.02709228001205957 -0.001303114682746582 -0.008132488939050202 0.0014698154556377389 0.012785281602079857
 0.0015539129651011712 0.012774213512039043 -0.001303114682746582 -0.008132488939050202 0.005436537914493078 0.027091710597065877 0.9932902079603543 -0.06415651087629475
 -0.0013020307836269485 -0.008132545122913096 0.0014698154556377389 0.012785281602079857 0.9932902079603543 -0.06415651087629475 0.005449734498525252 0.027090846090847356
0.11254689453939999 0.005803473852666678 0.028825334367924574 0.9928060480183217 -0.06804393631246543 0.0017140461936542234 0.01352793906466732 -0.0014341036690179514 -0.008615990774207438
 0.9928060480183217 -0.06804393631246543 0.005816825705163399 0.02882448906201506 -0.00143531539073263 -0.008615921016288646 0.0016197012501134441 0.01354063924300604
 0.0017140461936542234 0.01352793906466732 -0.00143531539073263 -0.008615921016288646 0.005802694721513282 0.02882392754557252 0.9928059798039598 -0.0680454517692458
 -0.0014341036690179514 -0.008615990774207438 0.0016197012501134441 0.01354063924300604 0.9928059798039598 -0.0680454517692458 0.005817488792986603 0.0288229711083568
0.11879949979160001 0.006185687560183288 0.030571300223736126 0.9923011122734079 -0.07194508444483023 0.0018826065040151853 0.014281276417578963 -0.0015731409221266055 -0.00909933127722814
 0.9923011122734079 -0.07194508444483023 0.006200563969273111 0.030570372144859116 -0.0015744872374521687 -0.009099246338180352 0.0017774178711590686 0.014295763637459175
 0.0018826065040151853 0.014281276417578963 -0.0015744872374521687 -0.009099246338180352 0.006184820273732908 0.030569824181452654 0.992301036202899 -0.07194668592480932
 -0.0015731409221266055 -0.00909933127722814 0.0017774178711590686 0.014295763637459175 0.992301036202899 -0.07194668592480932 0.006201303609725975 0.030568770180002057
0.1250521050438 0.0065841242379009015 0.03233071772028982 0.9917752160283739 -0.07585835953290834 0.002059655464244542 0.015034108446242818 -0.001719205185144794 -0.009582454578024351
 0.9917752160283739 -0.07585835953290834 0.0066006082531304315 0.03232970247415886 -0.0017206928110195105 -0.009582352777511773 0.001943026072817221 0.015050545316541902
 0.002059655464244542 0.015034108446242818 -0.0017206928110195105 -0.009582352777511773 0.006583164155907072 0.03232917389828655 0.9917751316109215 -0.07586004736196277
 -0.001719205185144794 -0.009582454578024351 0.001943026072817221 0.015050545316541902 0.9917751316109215 -0.07586004736196277 0.006601428707629866 0.032328016515129315
0.131304710296 0.006999031925223739 0.034103358712650536 0.9912281149053442 -0.07978358804176998 0.002245252832744093 0.015786315657408255 -0.001872357297726119 -0.010065246669489014
 0.9912281149053442 -0.07978358804176998 0.0070172067917654785 0.0341022517979234 -0.0018739928966123817 -0.010065126254042246 0.0021165848910629863 0.015804872519163297
 0.002245252832744093 0.015786315657408255 -0.0018739928966123817 -0.010065126254042246 0.0069979744253675195 0.03410174862998206 0.9912280216373436 -0.07978536256451783
 -0.001872357297726119 -0.010065246669489014 0.0021165848910629863 0.015804872519163297 0.9912280216373436 -0.07978536256451783 0.007018112337083454 0.034100481857682045
0.1375573155481 0.007332009811272516 0.03565759092652014 0.9907582422260099 -0.08348911006560998 0.002415652979655727 0.016514359862348074 -0.002009007791591239 -0.010524078654801478
 0.9907582422260099 -0.08348911006560998 0.007351966205107731 0.03565641216790489 -0.0020108012438597458 -0.010523939599303762 0.0022746571874460862 0.016535000982157367
 0.002415652979655727 0.016514359862348074 -0.0020108012438597458 -0.010523939599303762 0.007330850795276718 0.03565591595522934 0.9907581396995858 -0.0834909714882332
 -0.002009007791591239 -0.010524078654801478 0.0022746571874460862 0.016535000982157367 0.9907581396995858 -0.0834909714882332 0.007352960428659328 0.03565455819291907
0.1438099208003 0.007676582762344937 0.03720419903203425 0.9902720536579517 -0.08718580775748867 0.002592959924920499 0.0172397193034675 -0.0021511350306825283 -0.010980518961962924
 0.9902720536579517 -0.08718580775748867 0.0076984053572775315 0.037202945299130104 -0.002153093500306521 -0.010980359552827466 0.0024390932691195364 0.01726259947372276
 0.002592959924920499 0.0172397193034675 -0.002153093500306521 -0.010980359552827466 0.0076753177278401545 0.03720246074317714 0.9902719413702455 -0.08718775641907009
 -0.0021511350306825283 -0.010980518961962924 0.0024390932691195364 0.01726259947372276 0.9902719413702455 -0.08718775641907009 0.007699492432593814 0.03720100731825429
0.1500625260525 0.008032636672323769 0.03874307060438044 0.9897696667932858 -0.09087360632847405 0.00277711777897553 0.017962328304463253 -0.0022986860080981817 -0.011434507600644073
 0.9897696667932858 -0.09087360632847405 0.008056410377614332 0.038741738538798726 -0.002300816645672698 -0.011434326055666081 0.0026098401414633454 0.017987607946417954
 0.00277711777897553 0.017962328304463253 -0.002300816645672698 -0.011434326055666081 0.008031261140253246 0.03874127063194568 0.9897695442301423 -0.09087564258132541
 -0.0022986860080981817 -0.011434507600644073 0.0026098401414633454 0.017987607946417954 0.9897695442301423 -0.09087564258132541 0.00805759448489444 0.03873971658151841
0.15631513130469998 0.008400056713219877 0.0402740967006512 0.9892511997224843 -0.09455243091977332 0.002968070040710517 0.018682122196049016 -0.0024516071113832643 -0.011885985787617995
