! Created with skrf 1.8.0 (http://scikit-rf.org).
# GHz S RI R 50.0 
!freq ReS11 ImS11 ReS12 ImS12 ReS13 ImS13
! ReS14 ImS14
! ReS21 ImS21 ReS22 ImS22 ReS23 ImS23
! ReS24 ImS24
! ReS31 ImS31 ReS32 ImS32 ReS33 ImS33
! ReS34 ImS34
! ReS41 ImS41 ReS42 ImS42 ReS43 ImS43
! ReS44 ImS44
!
0.0 0.001359691776494 0.0 0.9986403082136 0.0 5.250602479445e-05 0.0 -5.250602496672e-05 6.430133541144466e-21
 0.9986403082136 0.0 0.00135969177652 0.0 -5.250602496679e-05 6.430133541153039e-21 5.250602479492e-05 0.0
 5.250602479445e-05 0.0 -5.250602496679e-05 6.430133541153039e-21 0.001359691781456 0.0 0.9986403082185 0.0
 -5.250602496672e-05 6.430133541144466e-21 5.250602479492e-05 0.0 0.9986403082185 0.0 0.001359691781478 0.0
0.005 0.0014625244735462632 0.0011058491744488244 0.9985102670151511 -0.0028491247214060982 7.430790335863833e-05 0.0006199734490947882 -7.198040218072179e-05 -0.00038199789790441545
 0.9985102670151511 -0.0028491247214060982 0.0014625244388668315 0.00110584922907468 -7.197787089963246e-05 -0.0003819960538736138 7.432113824385203e-05 0.000619968550376854
 7.430790335863833e-05 0.0006199734490947882 -7.197787089963246e-05 -0.0003819960538736138 0.0014625249297344069 0.00110578171408835 0.9985102666659171 -0.0028491917757073417
 -7.198040218072179e-05 -0.00038199789790441545 7.432113824385203e-05 0.000619968550376854 0.9985102666659171 -0.0028491917757073417 0.0014625232923302768 0.0011057825892459238
0.006252605252188 0.0014893574902237337 0.0013867128275035232 0.9984761398729923 -0.003562127406169092 8.045472061495947e-05 0.0007752572527068253 -7.741903561193637e-05 -0.00047800922545425216
 0.9984761398729923 -0.003562127406169092 0.0014893574353891771 0.0013867128775876115 -7.741509587867745e-05 -0.0004780069532666808 8.047540072404132e-05 0.0007752508738979094
 8.045472061495947e-05 0.0007752572527068253 -7.741509587867745e-05 -0.0004780069532666808 0.0014893582862592681 0.0013866285031813594 0.9984761394103256 -0.0035622112343110432
 -7.741903561193637e-05 -0.00047800922545425216 8.047540072404132e-05 0.0007752508738979094 0.9984761394103256 -0.0035622112343110432 0.0014893557270054384 0.0013866295641135817
0.01250521050438 0.0016298154848985375 0.0028029322448657234 0.9982964112509872 -0.007125229103718915 0.0001152728636782495 0.0015508062830546798 -0.00010795668187358659 -0.0009584673062934534
 0.9982964112509872 -0.007125229103718915 0.0016298152566299002 0.002802932148715658 -0.00010794114498131804 -0.0009584631198894119 0.00011535538530928248 0.0015507908059664889
 0.0001152728636782495 0.0015508062830546798 -0.00010794114498131804 -0.0009584631198894119 0.0016298192169400887 0.002802763977035183 0.9982964099623839 -0.007125396516057988
 -0.00010795668187358659 -0.0009584673062934534 0.00011535538530928248 0.0015507908059664889 0.9982964099623839 -0.007125396516057988 0.0016298090057167923 0.002802765761451473
0.01875781575657 0.0017813444223990034 0.004239721920130706 0.9981009190746978 -0.010698013894739471 0.0001570359862925792 0.0023272325357774296 -0.0001442075977013266 -0.0014406442724251086
 0.9981009190746978 -0.010698013894739471 0.0017813438915767637 0.00423972144226888 -0.00014417293417295896 -0.0014406385942771945 0.0001572214902838041 0.002327204782542393
 0.0001570359862925792 0.0023272325357774296 -0.00014417293417295896 -0.0014406385942771945 0.0017813532165023068 0.004239469946877065 0.9981009165955022 -0.010698264844877662
 -0.0001442075977013266 -0.0014406442724251086 0.0001572214902838041 0.002327204782542393 0.9981009165955022 -0.010698264844877662 0.0017813302880838875 0.004239472101268043
0.02501042100875 0.0019442162425522208 0.005695085720960864 0.9978894529099077 -0.014282242930602481 0.00020582074337190898 0.0031045994404638156 -0.00018625784162004224 -0.0019243278809393965
 0.9978894529099077 -0.014282242930602481 0.001944215268677484 0.0056950845853603336 -0.0001861966060624396 -0.0019243212054456426 0.00020615046613430636 0.0031045557855668257
 0.00020582074337190898 0.0031045994404638156 -0.0001861966060624396 -0.0019243212054456426 0.0019442322175819073 0.00569475029845287 0.9978894488755974 -0.014282577410818486
 -0.00018625784162004224 -0.0019243278809393965 0.00020615046613430636 0.0031045557855668257 0.9978894488755974 -0.014282577410818486 0.0019441915243877982 0.005694752448377002
0.03126302626094 0.002118691472401205 0.007168010614661363 0.997661790625815 -0.01787868677950856 0.0002617044995834773 0.0038828945163399617 -0.0002341912300242092 -0.002409377525625539
 0.997661790625815 -0.01787868677950856 0.00211868990217223 0.0071680085037468455 -0.00023409604642879407 -0.002409370420142281 0.0002622198109467911 0.003882830881923271
 0.0002617044995834773 0.0038828945163399617 -0.00023409604642879407 -0.002409370420142281 0.002118716738608828 0.00716759201375806 0.9976617846671595 -0.017879104824587332
 -0.0002341912300242092 -0.002409377525625539 0.0002622198109467911 0.003882830881923271 0.9976617846671595 -0.017879104824587332 0.002118653246031554 0.0071675937624916305
0.037515631513130004 0.0023050251440642614 0.008657846848478817 0.9974177044569953 -0.021487745192361844 0.00032476455985965154 0.00466207572949643 -0.00028809000968202646 -0.0028956778742154333
 0.9974177044569953 -0.021487745192361844 0.0023050228105069926 0.00865784340230217 -0.0002879535640159457 -0.0028956709794701824 0.0003255069817658185 0.004661987579096743
 0.00032476455985965154 0.00466207572949643 -0.0002879535640159457 -0.0028956709794701824 0.002305061807503784 0.008657345366827218 0.9974176962017786 -0.02148824686779731
 -0.00028809000968202646 -0.0028956778742154333 0.0003255069817658185 0.004661987579096743 0.9974176962017786 -0.02148824686779731 0.0023049704904745554 0.008657346294493383
0.043768236765320004 0.002503469084858857 0.010164119340004598 0.9971569634364505 -0.02510963565162741 0.00039507781769939146 0.005442085582487137 -0.0003480351079832332 -0.0033831247708828505
 0.9971569634364505 -0.02510963565162741 0.0025034658058820463 0.010164114155525901 -0.00034785014371796106 -0.0033831188011890405 0.0003960890347313199 0.005441967914295539
 0.00039507781769939146 0.005442085582487137 -0.00034785014371796106 -0.0033831188011890405 0.002503519246711069 0.010163535310149706 0.9971569525073439 -0.025110221045772728
 -0.0003480351079832332 -0.0033831247708828505 0.0003960890347313199 0.005441967914295539 0.9971569525073439 -0.025110221045772728 0.0025033950873597434 0.010163534973106536
0.050020842017509996 0.0027142729894985692 0.011686449723975301 0.9968793346144662 -0.028744471262199367 0.0004727205498976617 0.006222856937866733 -0.0004141062340707463 -0.0038716194052547713
 0.9968793346144662 -0.028744471262199367 0.002714268566585819 0.01168644235433148 -0.0004138655494358614 -0.0038716151486561864 0.00047404241537502657 0.0062227042777041296
 0.0004727205498976617 0.006222856937866733 -0.0004138655494358614 -0.0038716151486561864 0.0027143387495970777 0.011685783506022505 0.9968793206294222 -0.02874514049374808
 -0.0004141062340707463 -0.0038716194052547713 0.00047404241537502657 0.0062227042777041296 0.9968793206294222 -0.02874514049374808 0.002714176734269982 0.011685781436387214
0.055454545454549996 0.0029076985093133435 0.013022192428130304 0.9966241699067476 -0.03191380427491773 0.0005462055390548705 0.006901932059609681 -0.00047656014494260523 -0.004296912097920603
 0.9966241699067476 -0.03191380427491773 0.002907692917067609 0.01302218276210001 -0.0004762652299541075 -0.004296910027398411 0.0005478314912801195 0.006901744172413527
 0.0005462055390548705 0.006901932059609681 -0.0004762652299541075 -0.004296910027398411 0.002907779528342175 0.013021455107330552 0.9966241529508516 -0.03191454647651731
 -0.00047656014494260523 -0.004296912097920603 0.0005478314912801195 0.006901744172413527 0.9966241529508516 -0.03191454647651731 0.0029075805451687312 0.013021451132854894
0.056273447269699996 0.0029376849781292138 0.013224518091616944 0.9965845837641286 -0.03239229894961517 0.0005577682756426585 0.0070043158669503905 -0.0004863819135749308 -0.004361065457619318
 0.9965845837641286 -0.03239229894961517 0.002937679194717528 0.01322450804551338 -0.0004860783596170068 -0.004361063776013228 0.0005594428152948789 0.007004122261115267
 0.0005577682756426585 0.0070043158669503905 -0.0004860783596170068 -0.004361063776013228 0.00293776843425119 0.013223770082362899 0.9965845663347811 -0.03239305215857314
 -0.0004863819135749308 -0.004361065457619318 0.0005594428152948789 0.007004122261115267 0.9965845663347811 -0.03239305215857314 0.002937563551576242 0.013223765787557568
0.06252605252188 0.003173951902400321 0.014778041960035031 0.9962724758391978 -0.03605312042959043 0.0006502956473600435 0.007786383220820494 -0.0005649394898614096 -0.004851367523854355
 0.9962724758391978 -0.03605312042959043 0.003173944522667371 0.014778028701090165 -0.0005645659692593621 -0.004851369353072858 0.000652365061145928 0.00778614222884257
 0.0006502956473600435 0.007786383220820494 -0.0005645659692593621 -0.004851369353072858 0.003174055152685292 0.014777212588702252 0.9962724545708456 -0.03605395778173983
 -0.0005649394898614096 -0.004851367523854355 0.000652365061145928 0.00778614222884257 0.9962724545708456 -0.03605395778173983 0.0031738023911085807 0.014777205551110282
0.06877865777407 0.003423319517413349 0.01634676372540829 0.9959427752993545 -0.03972690469554107 0.0007503763595154237 0.00856897555969378 -0.0006498551057066149 -0.005342430184264698
 0.9959427752993545 -0.03972690469554107 0.0034233102845245837 0.01634674667159373 -0.0006494045718879235 -0.005342436534161167 0.0007528830223891429 0.008568680247010971
 0.0007503763595154237 0.00856897555969378 -0.0006494045718879235 -0.005342436534161167 0.003423444661017278 0.01634585345202656 0.9959427497895778 -0.039727826384012316
 -0.0006498551057066149 -0.005342430184264698 0.0007528830223891429 0.008568680247010971 0.9959427497895778 -0.039727826384012316 0.0034231390066503816 0.01634584312868209
0.07503126302626001 0.0036860325714905685 0.017930442712822514 0.9955952463560054 -0.04341359591171101 0.0008580830675992493 0.009352005746206635 -0.000741203673326785 -0.005834157410967279
 0.9955952463560054 -0.04341359591171101 0.0036860212059435706 0.017930421235884054 -0.0007406691299570206 -0.00583416936548103 0.0008610695292843225 0.009351648676805293
 0.0008580830675992493 0.009352005746206635 -0.0007406691299570206 -0.00583416936548103 0.0036861817098755613 0.01792945203565792 0.9955952161945439 -0.0434146021495849
 -0.000741203673326785 -0.005834157410967279 0.0008610695292843225 0.009351648676805293 0.9955952161945439 -0.0434146021495849 0.0036858181441485906 0.017929437858061382
0.08128386827845 0.003962334846760409 0.019528849883235975 0.9952296531725713 -0.047113118651601886 0.0009734873134060138 0.010135383339224839 -0.0008390588366162371 -0.006326452177415364
 0.9952296531725713 -0.047113118651601886 0.003962321045073135 0.019528823308191022 -0.0008384333372995026 -0.006326470894624781 0.000976996297632877 0.010134956568217368
 0.0009734873134060138 0.010135383339224839 -0.0008384333372995026 -0.006326470894624781 0.003962510084946558 0.019527779333716622 0.9952296179400477 -0.04711420967701001
 -0.0008390588366162371 -0.006326452177415364 0.000976996297632877 0.010134956568217368 0.9952296179400477 -0.04711420967701001 0.003962083582525368 0.0195277607075231
0.08753647353064001 0.004252469165430802 0.021141764177761528 0.9948457600317568 -0.05082538150190047 0.00109665945427218 0.010919014868434742 -0.0009434929282295272 -0.00681921618986225
 0.9948457600317568 -0.05082538150190047 0.00425245259820064 0.021141731782411226 -0.0009427695763511775 -0.006819242902031488 0.0011007338573917266 0.010918509934619451
 0.00109665945427218 0.010919014868434742 -0.0009427695763511775 -0.006819242902031488 0.004252672613023423 0.021140614319265092 0.9948457192992033 -0.0508265575791569
 -0.0009434929282295272 -0.00681921618986225 0.0011007338573917266 0.010918509934619451 0.9948457192992033 -0.0508265575791569 0.004252178139561721 0.02114059062422488
0.09378907878283 0.004556677374311368 0.02276896989213026 0.9944433314841712 -0.0545502796391835 0.0012276685952931439 0.011702804031710161 -0.0010545769223696746 -0.007312349698978535
 0.9944433314841712 -0.0545502796391835 0.004556657684510536 0.02276893090661222 -0.001053748871114199 -0.007312385712592863 0.0012323514844122415 0.011702211950106083
 0.0012276685952931439 0.011702804031710161 -0.001053748871114199 -0.007312385712592863 0.004556911146869692 0.02276774132573854 0.9944432848122189 -0.05455154105287515
 -0.0010545769223696746 -0.007312349698978535 0.0012323514844122415 0.011702211950106083 0.9944432848122189 -0.05455154105287515 0.00455634365655543 0.022767711915578758
0.100041684035 0.004875200311585884 0.024410254766455725 0.9940221324820544 -0.05828769669432148 0.0013665825228525769 0.012486651841096506 -0.001172380385005908 -0.007805751365779587
 0.9940221324820544 -0.05828769669432148 0.004875177112858852 0.024410208372828347 -0.0011714408374338414 -0.007805798061564701 0.0013719171338054097 0.012485963095455929
 0.0013665825228525769 0.012486651841096506 -0.0011714408374338414 -0.007805798061564701 0.00487546653147676 0.02440894812640218 0.9940220794201233 -0.05828904375376031
 -0.001172380385005908 -0.007805751365779587 0.0013719171338054097 0.012485963095455929 0.9940220794201233 -0.05828904375376031 0.004874820965114243 0.024408912328740456
0.1059090909091 0.0051873330055970425 0.025963044060450656 0.9936096014544042 -0.061806139451145055 0.0015041869955183642 0.013222172777821629 -0.0012890984099887745 -0.008268908630265163
 0.9936096014544042 -0.061806139451145055 0.00518730613497278 0.02596298992803889 -0.0012880480978412273 -0.008268966672033222 0.001510172648748635 0.013221384188475183
 0.0015041869955183642 0.013222172777821629 -0.0012880480978412273 -0.008268966672033222 0.005187631611384696 0.025961664763570813 0.9936095419754633 -0.061807567182534696
 -0.0012890984099887745 -0.008268908630265163 0.001510172648748635 0.013221384188475183 0.9936095419754633 -0.061807567182534696 0.005186908163448168 0.025961622337167648
0.1062942892872 0.005208277762224493 0.026065408537592608 0.993581928503918 -0.062037506157568215 0.00151346763962828 0.013270456738348977 -0.0012969714217157405 -0.008299318161085987
 0.993581928503918 -0.062037506157568215 0.0052082506370873674 0.026065353869462078 -0.0012959136309959643 -0.008299376994018929 0.001519497374330946 0.013269661273648313
 0.00151346763962828 0.013270456738348977 -0.0012959136309959643 -0.008299376994018929 0.005208578559955633 0.026064024492418115 0.9935818685890797 -0.06203893919542937
 -0.0012969714217157405 -0.008299318161085987 0.001519497374330946 0.013269661273648313 0.9935818685890797 -0.06203893919542937 0.005207849842403382 0.0260639816087892
0.11254689453939999 0.005556148404039627 0.027734221835264892 0.9931224856712727 -0.06579957244330864 0.0016683889001700408 0.014054114683312392 -0.0014284166237825164 -0.008792945295320749
 0.9931224856712727 -0.06579957244330864 0.0055561169017622125 0.027734157977489644 -0.0014272338934275734 -0.008793017794626878 0.001675157323867325 0.014053201898233435
 0.0016683889001700408 0.014054114683312392 -0.0014272338934275734 -0.008793017794626878 0.005556485919546024 0.027732761084950902 0.9931224184281758 -0.06580109181821817
 -0.0014284166237825164 -0.008792945295320749 0.001675157323867325 0.014053201898233435 0.9931224184281758 -0.06580109181821817 0.005555668957400064 0.02773271039087796
0.11879949979160001 0.005919049745982148 0.02941648531814201 0.9926435708619498 -0.0695737517182821 0.0018314097469979715 0.014837519226959703 -0.0015667810128224507 -0.009286526166828596
 0.9926435708619498 -0.0695737517182821 0.005919013381036179 0.029416411306490628 -0.0015654666970509803 -0.009286613935968607 0.001838960585300066 0.014836477966387353
 0.0018314097469979715 0.014837519226959703 -0.0015654666970509803 -0.009286613935968607 0.0059194261297233495 0.02941494860108693 0.992643495801375 -0.06957535780759427
 -0.0015667810128224507 -0.009286526166828596 0.001838960585300066 0.014836477966387353 0.992643495801375 -0.06957535780759427 0.005918515809153602 0.029414889346133934
0.1250521050438 0.006297218061486545 0.03111198899622354 0.9921449518185538 -0.07335989254719759 0.0020025920471474327 0.015620561574725085 -0.0017121279842641772 -0.009779952323249626
 0.9921449518185538 -0.07335989254719759 0.006297176311374061 0.031111903817153053 -0.0017106754883867363 -0.009780057039884604 0.0020109691826654605 0.01561938012222179
 0.0020025920471474327 0.015620561574725085 -0.0017106754883867363 -0.009780057039884604 0.006297635475639159 0.031110377080315253 0.992144868436741 -0.07336158575552311
 -0.0017121279842641772 -0.009779952323249626 0.0020109691826654605 0.01561938012222179 0.992144868436741 -0.07336158575552311 0.0062966266597571105 0.03111030848832664
0.131304710296 0.0066908883166390725 0.032820521680270116 0.9916263972549304 -0.07715783641490136 0.002181996028868327 0.01640313063843375 -0.0018645192498015172 -0.010273113437672784
 0.9916263972549304 -0.07715783641490136 0.006690840619724747 0.0328204242707939 -0.0018629220306180948 -0.010273236853633565 0.0021912434977577958 0.016401796708701
 0.002181996028868327 0.01640313063843375 -0.0018629220306180948 -0.010273236853633565 0.006691348936062674 0.03281883537007234 0.9916263050329802 -0.07715961716661272
 -0.0018645192498015172 -0.010273113437672784 0.0021912434977577958 0.016401796708701 0.9916263050329802 -0.07715961716661272 0.0066902364626670475 0.032818756639318235
0.1375573155481 0.007005880644924361 0.03431697697148581 0.9911821196660566 -0.080742444180644 0.002345793268637395 0.017161588403490746 -0.0020001182320844913 -0.010742393581162218
 0.9911821196660566 -0.080742444180644 0.007005827015930973 0.03431686845787648 -0.0019983669483253086 -0.01074253568724698 0.0023559283375248876 0.017160104811864627
 0.002345793268637395 0.017161588403490746 -0.0019983669483253086 -0.01074253568724698 0.007006387562400577 0.03431521629477457 0.9911820181969466 -0.08074431274651993
 -0.0020001182320844913 -0.010742393581162218 0.0023559283375248876 0.017160104811864627 0.9911820181969466 -0.08074431274651993 0.007005164815122338 0.03431513013296553
0.1438099208003 0.007331794295483682 0.03580618825884759 0.9907225000562484 -0.08431864996505276 0.002516219285984238 0.017917502210360457 -0.00214116995861969 -0.011209345268324322
 0.9907225000562484 -0.08431864996505276 0.007331734230998358 0.035806067775641756 -0.0021392576366658857 -0.011209507763688679 0.0025272813669829273 0.017915857859341265
 0.002516219285984238 0.017917502210360457 -0.0021392576366658857 -0.011209507763688679 0.007332349871932767 0.03580435398945781 0.9907223888215152 -0.08432060676756305
 -0.00214116995861969 -0.011209345268324322 0.0025272813669829273 0.017915857859341265 0.9907223888215152 -0.08432060676756305 0.007331011396938546 0.035804259942762345
0.1500625260525 0.0076685234290583245 0.037288051043226744 0.9902476477733686 -0.0878863857451577 0.0026932215816571807 0.018670811550462033 -0.0022876232812226076 -0.011673910223536041
 0.9902476477733686 -0.0878863857451577 0.007668456397660433 0.037287917693139744 -0.0022855429629022135 -0.01167409487483983 0.002705249922641406 0.018668994934659355
 0.0026932215816571807 0.018670811550462033 -0.0022855429629022135 -0.01167409487483983 0.007669130049315592 0.03728614398299659 0.9902475262412345 -0.08788843122388194
 -0.0022876232812226076 -0.011673910223536041 0.002705249922641406 0.018668994934659355 0.9902475262412345 -0.08788843122388194 0.007667670353001461 0.03728604158737375
0.15631513130469998 0.008015961555799722 0.03876246408698104 0.9897576726125796 -0.09144558333600857 0.0028767471018885903 0.019421456820920616 -0.0024394264801179486 -0.012136031330477514
