! Created with skrf 1.8.0 (http://scikit-rf.org).
# GHz S RI R 50.0 
!freq ReS11 ImS11 ReS12 ImS12 ReS13 ImS13
! ReS14 ImS14
! ReS21 ImS21 ReS22 ImS22 ReS23 ImS23
! ReS24 ImS24
! ReS31 ImS31 ReS32 ImS32 ReS33 ImS33
! ReS34 ImS34
! ReS41 ImS41 ReS42 ImS42 ReS43 ImS43
! ReS44 ImS44
!
0.0 0.001600362404026 0.0 0.9983996375928 0.0 6.186521621483e-05 0.0 -6.186521610978e-05 7.576303888740135e-21
 0.9983996375928 0.0 0.001600362403994 0.0 -6.186521610926e-05 7.576303888676453e-21 6.186521621512e-05 0.0
 6.186521621483e-05 0.0 -6.186521610926e-05 7.576303888676453e-21 0.001600362405349 0.0 0.9983996375941 0.0
 -6.186521610978e-05 7.576303888740135e-21 6.186521621512e-05 0.0 0.9983996375941 0.0 0.001600362405343 0.0
0.005 0.0017220410364575999 0.0013083549844622906 0.998245676184303 -0.003352154747222114 8.686234010442747e-05 0.0006862007713631347 -8.434395983369629e-05 -0.0004298845590915496
 0.998245676184303 -0.003352154747222114 0.0017220401847605929 0.001308355441602724 -8.43443179793998e-05 -0.0004298847602434637 8.6863935328343e-05 0.0006862000950267254
 8.686234010442747e-05 0.0006862007713631347 -8.43443179793998e-05 -0.0004298847602434637 0.001722040868927451 0.0013082877522397108 0.9982456758257792 -0.0033522218162998067
 -8.434395983369629e-05 -0.0004298845590915496 8.6863935328343e-05 0.0006862000950267254 0.9982456758257792 -0.0033522218162998067 0.0017220396390809159 0.00130828853827457
0.006252605252188 0.0017540051284872377 0.0016405866359953494 0.9982049703087423 -0.004191005454037729 9.402327557533679e-05 0.000858078535700497 -9.071308978991407e-05 -0.0005379094074204788
 0.9982049703087423 -0.004191005454037729 0.00175400379771159 0.0016405872320749727 -9.071364767554787e-05 -0.0005379096538360588 9.402576718631636e-05 0.000858077668412211
 9.402327557533679e-05 0.000858078535700497 -9.071364767554787e-05 -0.0005379096538360588 0.0017540049392721067 0.0016405026064390776 0.9982049698204146 -0.004191089274318198
 -9.071308978991407e-05 -0.0005379094074204788 9.402576718631636e-05 0.000858077668412211 0.9982049698204146 -0.004191089274318198 0.00175400301643062 0.0016405036271246217
0.01250521050438 0.0019225705327660142 0.0033154893767261503 0.997988860040309 -0.008382760890089902 0.00013519236797076127 0.0017164848460156981 -0.0001269716100621811 -0.001078396915013108
 0.997988860040309 -0.008382760890089902 0.0019225652266471928 0.00331549082054156 -0.00012697381578054018 -0.0010783973515456973 0.000135202279523564 0.0017164828672328605
 0.00013519236797076127 0.0017164848460156981 -0.00012697381578054018 -0.0010783973515456973 0.001922570331096091 0.0033153215143298504 0.9979888586346286 -0.00838292828583725
 -0.0001269716100621811 -0.001078396915013108 0.000135202279523564 0.0017164828672328605 0.9979888586346286 -0.00838292828583725 0.0019225626446703033 0.003315323950328837
0.01875781575657 0.0021064377989818504 0.005014159501335233 0.997751030161174 -0.012585456383414111 0.00018547012701672296 0.002575791058586116 -0.00017075484695750517 -0.0016206704351974294
 0.997751030161174 -0.012585456383414111 0.0021064258907648173 0.005014162066295461 -0.00017075977572635417 -0.0016206709916285807 0.00018549233358269545 0.0025757876616157387
 0.00018547012701672296 0.002575791058586116 -0.00017075977572635417 -0.0016206709916285807 0.0021064377846367935 0.005013907858605661 0.9977510274211715 -0.012585707267244704
 -0.00017075484695750517 -0.0016206704351974294 0.00018549233358269545 0.0025757876616157387 0.9977510274211715 -0.012585707267244704 0.002106420495087059 0.0050139121472037515
0.02501042100875 0.0023059742714858734 0.006734204184535083 0.9974911928332113 -0.016801114246762342 0.00024495532358687267 0.0034360260005871766 -0.00022217294357994974 -0.0021644746942978796
 0.9974911928332113 -0.016801114246762342 0.002305953148227534 0.006734208165722646 -0.00022218166092685898 -0.0021644752855642688 0.0002449946646679733 0.0034360208224975706
 0.00024495532358687267 0.0034360260005871766 -0.00022218166092685898 -0.0021644752855642688 0.0023059746528844923 0.006733868785389637 0.9974911883392339 -0.016801448573107156
 -0.00022217294357994974 -0.0021644746942978796 0.0002449946646679733 0.0034360208224975706 0.9974911883392339 -0.016801448573107156 0.0023059439183713256 0.0067338754068094146
0.03126302626094 0.0025215321111966837 0.008474384533518974 0.9972090459434062 -0.021030590965088868 0.00031374701687599107 0.004297138656390404 -0.0002813327895315638 -0.0027096278040123845
 0.9972090459434062 -0.021030590965088868 0.0025214991730046904 0.008474390247779478 -0.0002813463529046797 -0.0027096283300609546 0.0003138083004885575 0.004297131279053796
 0.00031374701687599107 0.004297138656390404 -0.0002813463529046797 -0.0027096283300609546 0.002521533107254092 0.008473965394757539 0.9972090392743092 -0.021031008708803037
 -0.0002813327895315638 -0.0027096278040123845 0.0003138083004885575 0.004297131279053796 0.9972090392743092 -0.021031008708803037 0.002521485083116141 0.008473974872485137
0.037515631513130004 0.0027534557421757017 0.010233887079647206 0.9969042808119842 -0.025274305641598216 0.0003919436058132302 0.005159046325998816 -0.00034833879043007514 -0.0032559731143297324
 0.9969042808119842 -0.025274305641598216 0.0027534084015895595 0.010233894865700907 -0.00034835824997025804 -0.0032559734600011163 0.00039203160884156607 0.005159036276695548
 0.0003919436058132302 0.005159046325998816 -0.00034835824997025804 -0.0032559734600011163 0.0027534575839695606 0.010233384214232305 0.9969042715465369 -0.025274806794571645
 -0.00034833879043007514 -0.0032559731143297324 0.00039203160884156607 0.005159036276695548 0.9969042715465369 -0.025274806794571645 0.0027533884223802174 0.010233397115660346
0.043768236765320004 0.0030020847207711024 0.012012102076189643 0.9965765853248693 -0.0295324616279166 0.00047964237685476805 0.006021649267483926 -0.000423293137787987 -0.003803364580534665
 0.9965765853248693 -0.0295324616279166 0.0030020204027951143 0.012012112294799981 -0.0004233195367075971 -0.003803364615494331 0.00047976184473217564 0.006021636019387007
 0.00047964237685476805 0.006021649267483926 -0.0004233195367075971 -0.003803364615494331 0.003002087651651758 0.012011515494200414 0.9965765730416045 -0.02953304619824145
 -0.000423293137787987 -0.003803364580534665 0.00047976184473217564 0.006021636019387007 0.9965765730416045 -0.02953304619824145 0.003001993502151978 0.012011532431137381
0.050020842017509996 0.003267755066661617 0.013808531867361019 0.9962256455312345 -0.033805138081703025 0.0005769392271540634 0.006884836754084868 -0.0005062959020670181 -0.0043516607175397605
 0.9962256455312345 -0.033805138081703025 0.003267671208400803 0.013808544901434648 -0.0005063302768281728 -0.00435166029620479 0.0005770948715653043 0.00688481972672936
 0.0005769392271540634 0.006884836754084868 -0.0005063302768281728 -0.00435166029620479 0.003267759338690601 0.01380786158606259 0.9962256298041561 -0.03380580608346622
 -0.0005062959020670181 -0.0043516607175397605 0.0005770948715653043 0.00688481972672936 0.9962256298041561 -0.03380580608346622 0.0032676363484041935 0.01380788321520612
0.055454545454549996 0.003512729132027566 0.015384140882226964 0.9959015464827687 -0.03753001715333402 0.0006693612401878641 0.007635355503443539 -0.0005850402528793545 -0.004828772733580258
 0.9959015464827687 -0.03753001715333402 0.0035126262211527394 0.015384156691242556 -0.0005850823954783206 -0.004828771785592972 0.0006695521220993996 0.007635334679087284
 0.0006693612401878641 0.007635355503443539 -0.0005850823954783206 -0.004828771785592972 0.00351273478451926 0.015383397879367527 0.9959015274165274 -0.03753075767960423
 -0.0005850402528793545 -0.004828772733580258 0.0006695521220993996 0.007635334679087284 0.9959015274165274 -0.03753075767960423 0.0035125836003205204 0.015383424154780265
0.056273447269699996 0.0035507999342098123 0.015622745937500238 0.9958511465853807 -0.03809233484567607 0.0006839284659285338 0.007748490041559087 -0.0005974450441182516 -0.004900721647495674
 0.9958511465853807 -0.03809233484567607 0.003550693985493202 0.01562276219216651 -0.0005974884245588647 -0.0049007206089720645 0.0006841249631038711 0.007748468601320929
 0.0006839284659285338 0.007748490041559087 -0.0005974884245588647 -0.0049007206089720645 0.0035508058125432716 0.015621991973626917 0.9958511269879202 -0.038093086306719676
 -0.0005974450441182516 -0.004900721647495674 0.0006841249631038711 0.007748468601320929 0.9958511269879202 -0.038093086306719676 0.0035506501268264623 0.015622018997118667
0.06252605252188 0.003851549974787881 0.01745435617006022 0.995452773383404 -0.04239399712058177 0.0008007026521549669 0.008612484013184976 -0.0006968363891520475 -0.0054504074740994975
 0.995452773383404 -0.04239399712058177 0.0038514193974005903 0.0174543760729041 -0.0006968897984016635 -0.005450405642129847 0.0008009446401701517 0.008612457473833286
 0.0008007026521549669 0.008612484013184976 -0.0006968897984016635 -0.005450405642129847 0.0038515577353322667 0.01745351854520848 0.9954527494860783 -0.042394832077060116
 -0.0006968363891520475 -0.0054504074740994975 0.0008009446401701517 0.008612457473833286 0.9954527494860783 -0.042394832077060116 0.0038513654983162566 0.017453551711146504
0.06877865777407 0.004170333513749161 0.019303002121423527 0.9950302110192739 -0.04671003012793296 0.0009273524554937806 0.009476688154991869 -0.0008045635748816225 -0.006000577331586051
 0.9950302110192739 -0.04671003012793296 0.004170175782379729 0.019303026122497954 -0.0008046280293876168 -0.006000574514486435 0.0009276445316760602 0.009476655778278074
 0.0009273524554937806 0.009476688154991869 -0.0008046280293876168 -0.006000574514486435 0.004170343443512018 0.019302080858425563 0.9950301823892396 -0.04671094862792708
 -0.0008045635748816225 -0.006000577331586051 0.0009276445316760602 0.009476655778278074 0.9950301823892396 -0.04671094862792708 0.004170110798787301 0.019302120961302703
0.07503126302626001 0.00450747662903498 0.021168341674671038 0.994583145146925 -0.05104030839819844 0.0010639665286003004 0.010340967186126471 -0.0009207179868745972 -0.006551088783770958
 0.994583145146925 -0.05104030839819844 0.004507289230949316 0.021168370246723665 -0.0009207944962707887 -0.0065510847743927075 0.001064313246545205 0.01034092818245601
 0.0010639665286003004 0.010340967186126471 -0.0009207944962707887 -0.0065510847743927075 0.004507489026940292 0.02116733680170954 0.9945831113482655 -0.05104131049742256
 -0.0009207179868745972 -0.006551088783770958 0.001064313246545205 0.01034092818245601 0.9945831113482655 -0.05104131049742256 0.004507212118199048 0.021167384683011086
0.08128386827845 0.004863303163195461 0.023050044824329593 0.9941112622791248 -0.05538468193365861 0.0012106313875642756 0.011205181486546536 -0.0010453886839315006 -0.0071017974313008535
 0.9941112622791248 -0.05538468193365861 0.004863083598949042 0.023050078462819947 -0.0010454782509426357 -0.007101792006979128 0.0012110372540424562 0.011205135015704483
 0.0012106313875642756 0.011205181486546536 -0.0010454782509426357 -0.007101792006979128 0.004863318339728793 0.023048956370822275 0.994111222872157 -0.05538576769966567
 -0.0010453886839315006 -0.0071017974313008535 0.0012110372540424562 0.011205135015704483 0.994111222872157 -0.05538576769966567 0.0048629933117197745 0.023049012919375972
0.08753647353064001 0.005238134692614132 0.024947789383601697 0.9936142500478253 -0.05974298045518472 0.0013674312972344375 0.012069187394269626 -0.0011786623171559751 -0.007652556655027363
 0.9936142500478253 -0.05974298045518472 0.005237880475690353 0.024947828607003935 -0.0011787659374452408 -0.0076525495775499434 0.0013679007689673943 0.012069132566265049
 0.0013674312972344375 0.012069187394269626 -0.0011787659374452408 -0.0076525495775499434 0.00523815296989433 0.0249466173858798 0.9936142045888204 -0.05974414996152295
 -0.0011786623171559751 -0.007652556655027363 0.0013679007689673943 0.012069132566265049 0.9936142045888204 -0.05974414996152295 0.005237775968789171 0.024946683538458973
0.09378907878283 0.005632290465209633 0.02686125791953677 0.9930917974371628 -0.06411501642765675 0.0015344481597927345 0.012932837431779863 -0.0013206230443984206 -0.008203217436203444
 0.9930917974371628 -0.06411501642765675 0.0056319991228192786 0.026861303269309918 -0.001320741706404853 -0.008203208451765386 0.0015349856402129846 0.012932773307709363
 0.0015344481597927345 0.012932837431779863 -0.001320741706404853 -0.008203208451765386 0.005632312177274546 0.026860002419023758 0.9930917454782077 -0.06411626975558365
 -0.0013206230443984206 -0.008203217436203444 0.0015349856402129846 0.012932773307709363 0.9930917454782077 -0.06411626975558365 0.005631879351927303 0.026860079160796368
0.100041684035 0.006046087318104082 0.02879013550862282 0.9925435949999227 -0.06850058727166704 0.0017117614059764187 0.013795980477129405 -0.0014713524410147581 -0.00875362823796454
 0.9925435949999227 -0.06850058727166704 0.006045756391104526 0.02879018754949078 -0.0014714871257584918 -0.00875361707714629 0.0017123712418163233 0.013795906070206794
 0.0017117614059764187 0.013795980477129405 -0.0014714871257584918 -0.00875361707714629 0.006046112810685758 0.028788796546276394 0.9925435360877823 -0.06850192451562179
 -0.0014713524410147581 -0.00875362823796454 0.0017123712418163233 0.013795906070206794 0.9925435360877823 -0.06850192451562179 0.0060456203133395624 0.028788884911266795
0.1059090909091 0.006452535156387015 0.030613917103425953 0.9920054718741669 -0.07262809797153193 0.0018875840214905358 0.0146053498803979 -0.0016208413219465114 -0.00926976577462306
 0.9920054718741669 -0.07262809797153193 0.006452164859530238 0.03061397595755573 -0.001620991927818853 -0.009269752312534065 0.0018882656549789696 0.014605264884873083
 0.0018875840214905358 0.0146053498803979 -0.001620991927818853 -0.009269752312534065 0.006452564521841153 0.030612499863642215 0.992005406020741 -0.07262951405346241
 -0.0016208413219465114 -0.00926976577462306 0.0018882656549789696 0.014605264884873083 0.992005406020741 -0.07262951405346241 0.006452012532866819 0.030612600120190056
0.1062942892872 0.006479839577956057 0.03073410804917027 0.9919693350596802 -0.07289947702575632 0.0018994478873075988 0.014658461904290593 -0.0016309294085567244 -0.009303634923882417
 0.9919693350596802 -0.07289947702575632 0.0064794666214412515 0.030734167369176613 -0.001631081089505767 -0.009303621301620282 0.0019001343651628214 0.01465837618086054
 0.0018994478873075988 0.014658461904290593 -0.001631081089505767 -0.009303621301620282 0.006479869209000034 0.030732685671514957 0.9919692687362985 -0.0729008982871624
 -0.0016309294085567244 -0.009303634923882417 0.0019001343651628214 0.01465837618086054 0.9919692687362985 -0.0729008982871624 0.006479313195962547 0.030732786743116157
0.11254689453939999 0.006933858950361453 0.03269286097781413 0.9913687119061746 -0.07731145761176456 0.0020975817701578184 0.015520123698688064 -0.0017994300811454474 -0.009853080707649063
 0.9913687119061746 -0.07731145761176456 0.006933441533698887 0.032692928188549734 -0.0017995997239263616 -0.0098530643232169 0.002098349112726204 0.015520025579428427
 0.0020975817701578184 0.015520123698688064 -0.0017995997239263616 -0.0098530643232169 0.006933893089845054 0.032691355237661535 0.9913686377077902 -0.07731296299818399
 -0.0017994300811454474 -0.009853080707649063 0.002098349112726204 0.015520025579428427 0.9913686377077902 -0.07731296299818399 0.006933269722804242 0.032691470149043826
0.11879949979160001 0.007408454398443938 0.034666078275885456 0.9907414219822758 -0.08173628981790321 0.002306234430168217 0.01638080455769375 -0.00197692773042629 -0.010401806124277579
 0.9907414219822758 -0.08173628981790321 0.007407990105910096 0.03466615401261456 -0.001977116292695756 -0.010401786661290305 0.002307086792833097 0.016380692918865333
 0.002306234430168217 0.01638080455769375 -0.001977116292695756 -0.010401786661290305 0.007408493428698418 0.034664489226554525 0.9907413394392249 -0.0817378794486865
 -0.00197692773042629 -0.010401806124277579 0.002307086792833097 0.016380692918865333 0.9907413394392249 -0.0817378794486865 0.007407798875270346 0.0346646191611827
0.1250521050438 0.007903932014522174 0.03665344168274484 0.9900871640678082 -0.08617372408284715 0.002525474347803936 0.017240339982004842 -0.00216349266961907 -0.010949649017084447
 0.9900871640678082 -0.08617372408284715 0.007903418445588265 0.036653526604535434 -0.0021637011007976294 -0.010949626143459523 0.002526415814843194 0.017240213656824474
 0.002525474347803936 0.017240339982004842 -0.0021637011007976294 -0.010949626143459523 0.007903976330334414 0.036651769382634515 0.990087072703908 -0.08617539808428182
 -0.00216349266961907 -0.010949649017084447 0.002526415814843194 0.017240213656824474 0.990087072703908 -0.08617539808428182 0.007903206765383164 0.03665191557467917
0.131304710296 0.008420594886172724 0.038654630076111966 0.9894056394589896 -0.09062350112047747 0.0027553670043712905 0.018098562357826815 -0.0023591921566022303 -0.011496444540586029
 0.9894056394589896 -0.09062350112047747 0.008420029655568694 0.038654724866078016 -0.0023594213976613617 -0.011496417908568111 0.0027564015851827936 0.01809842013786884
 0.0027553670043712905 0.018098562357826815 -0.0023594213976613617 -0.011496417908568111 0.008420644894544126 0.03865287458666713 0.9894055387914092 -0.09062525962773914
 -0.0023591921566022303 -0.011496444540586029 0.0027564015851827936 0.01809842013786884 0.9894055387914092 -0.09062525962773914 0.00841979650083863 0.038653038321500806
0.1375573155481 0.008842303369647517 0.040408509920621845 0.9888130418012429 -0.09482441051963521 0.0029674981276874837 0.018929424485124826 -0.0025356187954506076 -0.012016169066591859
 0.9888130418012429 -0.09482441051963521 0.00884168335693603 0.040408612679690786 -0.0025358700320459375 -0.012016138625490724 0.0029686300148108334 0.01892926653250365
 0.0029674981276874837 0.018929424485124826 -0.0025358700320459375 -0.012016138625490724 0.008842358463626082 0.04040667170312003 0.9888129314052748 -0.09482625358315101
 -0.0025356187954506076 -0.012016169066591859 0.0029686300148108334 0.01892926653250365 0.9888129314052748 -0.09482625358315101 0.008841428611772256 0.04040685074261926
0.1438099208003 0.009278916467664973 0.04215278071202484 0.9881994766694687 -0.09901429815669853 0.003188189513921535 0.0197567218277232 -0.0027190923272249145 -0.012532606727698091
 0.9881994766694687 -0.09901429815669853 0.009278239181395266 0.04215289192787972 -0.0027193665325556757 -0.01253257213975223 0.003189422642271248 0.019756547013882794
 0.003188189513921535 0.0197567218277232 -0.0027193665325556757 -0.01253257213975223 0.009278976888035324 0.04215085988040395 0.9881993560649804 -0.09901622590305402
 -0.0027190923272249145 -0.012532606727698091 0.003189422642271248 0.019756547013882794 0.9881993560649804 -0.09901622590305402 0.00927796199164603 0.042151055227316964
0.1500625260525 0.009730275265347199 0.04388728550844464 0.9875651073160704 -0.10319304868750544 0.0034173620023530216 0.020580363503502713 -0.002909535446008906 -0.013045671087855953
 0.9875651073160704 -0.10319304868750544 0.009729538221255272 0.043887405691229675 -0.002909833588291776 -0.013045632002095327 0.0034187002367987514 0.020580170667504852
 0.0034173620023530216 0.020580363503502713 -0.002909833588291776 -0.013045632002095327 0.009730341253134232 0.043885282182609744 0.9875649760175851 -0.10319506124745627
 -0.002909535446008906 -0.013045671087855953 0.0034187002367987514 0.020580170667504852 0.9875649760175851 -0.10319506124745627 0.009729237748068218 0.043885494879502655
0.15631513130469998 0.010196219656163932 0.04561187206587609 0.9869100978935983 -0.10736054741252618 0.003654935464484497 0.021400260248475658 -0.003106869860633526 -0.013555277592738772
