! Created with skrf 1.8.0 (http://scikit-rf.org).
# GHz S RI R 50.0 
!freq ReS11 ImS11 ReS12 ImS12 ReS13 ImS13
! ReS14 ImS14
! ReS21 ImS21 ReS22 ImS22 ReS23 ImS23
! ReS24 ImS24
! ReS31 ImS31 ReS32 ImS32 ReS33 ImS33
! ReS34 ImS34
! ReS41 ImS41 ReS42 ImS42 ReS43 ImS43
! ReS44 ImS44
!
0.0 0.001623433588205 0.0 0.9983765663948 0.0 6.333807817894e-05 0.0 -6.333807817852e-05 7.756677470546933e-21
 0.9983765663948 0.0 0.00162343358818 0.0 -6.333807817858e-05 7.756677470554283e-21 6.333807817811e-05 0.0
 6.333807817894e-05 0.0 -6.333807817858e-05 7.756677470554283e-21 0.001623433593879 0.0 0.9983765664004 0.0
 -6.333807817852e-05 7.756677470546933e-21 6.333807817811e-05 0.0 0.9983765664004 0.0 0.00162343359385 0.0
0.005 0.0017470507968835407 0.0013170000587768443 0.9982200837784806 -0.003400981306160713 9.061660019487905e-05 0.000763580670785825 -8.753640031653452e-05 -0.0004677683231809301
 0.9982200837784806 -0.003400981306160713 0.0017470684217986711 0.0013169897977659106 -8.753518116849021e-05 -0.000467767481207478 9.051548536931697e-05 0.0007636193108512704
 9.061660019487905e-05 0.000763580670785825 -8.753518116849021e-05 -0.000467767481207478 0.0017470506159799578 0.0013169329579371775 0.9982200834218133 -0.0034010483625729238
 -8.753640031653452e-05 -0.0004677683231809301 9.051548536931697e-05 0.0007636193108512704 0.9982200834218133 -0.0034010483625729238 0.0017470678893939996 0.0013169227831760831
0.006252605252188 0.0017795470091213422 0.0016514707836597755 0.9981786680891169 -0.00425205097363462 9.847502390164853e-05 0.000954808774054864 -9.441792042390154e-05 -0.0005853252483650402
 0.9981786680891169 -0.00425205097363462 0.0017795745595116513 0.0016514577290416292 -9.441602258214899e-05 -0.0005853242123372166 9.831704347443685e-05 0.0009548589392916928
 9.847502390164853e-05 0.000954808774054864 -9.441602258214899e-05 -0.0005853242123372166 0.001779546787702157 0.001651386921079941 0.9981786675935821 -0.0042521347872484065
 -9.441792042390154e-05 -0.0005853252483650402 9.831704347443685e-05 0.0009548589392916928 0.9981786675935821 -0.0042521347872484065 0.001779573789593958 0.0016513739592398475
0.01250521050438 0.001951051907073427 0.0033378235693830144 0.9979585424181215 -0.008504877615989339 0.0001438834950498048 0.0019097300769829746 -0.00013372811377267455 -0.0011734954492390844
 0.9979585424181215 -0.008504877615989339 0.0019511619082694274 0.0033377951631955445 -0.00013372062542493706 -0.0011734935592882963 0.0001432535614491556 0.001909850609898856
 0.0001438834950498048 0.0019097300769829746 -0.00013372062542493706 -0.0011734935592882963 0.001951051574101968 0.0033376561522826254 0.9979585409996509 -0.008505044995821484
 -0.00013372811377267455 -0.0011734954492390844 0.0001432535614491556 0.001909850609898856 0.9979585409996509 -0.008505044995821484 0.0019511594027290273 0.0033376277791659255
0.01875781575657 0.0021383399534056083 0.005048333581522634 0.9977159039406869 -0.012768822628610772 0.00019966939718506042 0.0028654620526724073 -0.00018139518424980703 -0.0017635604556287881
 0.9977159039406869 -0.012768822628610772 0.002138587115861585 0.0050482873785925265 -0.00018137847244878005 -0.0017635579339866584 0.0001982544535637746 0.0028656772857450366
 0.00019966939718506042 0.0028654620526724073 -0.00018137847244878005 -0.0017635579339866584 0.0021383396113179697 0.005048082771990675 0.9977159011781279 -0.012769073460812
 -0.00018139518424980703 -0.0017635604556287881 0.0001982544535637746 0.0028656772857450366 0.9977159011781279 -0.012769073460812 0.002138581926764153 0.005048036384544182
0.02501042100875 0.002341790184594916 0.006780561384720639 0.997450455582227 -0.017045930804209918 0.0002659406793379222 0.003822045947841298 -0.00023754079337319508 -0.0023552197771799306
 0.997450455582227 -0.017045930804209918 0.0023422290997883073 0.006780494808942307 -0.00023751126479671958 -0.0023552168896228643 0.00026342764113059273 0.003822384201432301
 0.0002659406793379222 0.003822045947841298 -0.00023751126479671958 -0.0023552168896228643 0.00234178992348554 0.006780227313697853 0.9974504510536976 -0.0170462649945428
 -0.00023754079337319508 -0.0023552197771799306 0.00026342764113059273 0.003822384201432301 0.9974504510536976 -0.0170462649945428 0.0023422202878759625 0.006780160171118143
0.03126302626094 0.0025617658624147964 0.008533239557495175 0.9971618857796186 -0.02133706233659749 0.00034280582679197544 0.004779426661826853 -0.00030228269856794033 -0.0029482619845219897
 0.9971618857796186 -0.02133706233659749 0.0025624510334433716 0.008533149904954036 -0.0003022367928608237 -0.0029482590408415896 0.0003388812955126957 0.004779920265412356
 0.00034280582679197544 0.004779426661826853 -0.0003022367928608237 -0.0029482590408415896 0.002561765763950845 0.008532822315733395 0.9971618790662204 -0.021337479819809567
 -0.00030228269856794033 -0.0029482619845219897 0.0003388812955126957 0.004779920265412356 0.9971618790662204 -0.021337479819809567 0.002562437670743021 0.008532731542245067
0.037515631513130004 0.002798622107495931 0.010305532594402976 0.9968498763958114 -0.02564263286105716 0.0004303726266114957 0.005737511002748486 -0.00037573569602507474 -0.0035425064622899424
 0.9968498763958114 -0.02564263286105716 0.002799607970669294 0.01030541703470155 -0.0003756698826296508 -0.003542503816493836 0.0004247227660960761 0.005738196333073328
 0.0004303726266114957 0.005737511002748486 -0.0003756698826296508 -0.003542503816493836 0.002798622245164336 0.010305032270806303 0.9968498670811824 -0.02564313356272359
 -0.00037573569602507474 -0.0035425064622899424 0.0004247227660960761 0.005738196333073328 0.9968498670811824 -0.02564313356272359 0.0027995891387695895 0.010304914856845395
0.043768236765320004 0.003052708841192593 0.012096811699437184 0.9965141059464551 -0.02996283859338791 0.000528747589101145 0.006696185410930209 -0.00045801195349560504 -0.0041377856992642105
 0.9965141059464551 -0.02996283859338791 0.0030540497830042266 0.012096667276288331 -0.0004579227298084722 -0.004137783749702674 0.0005210580713058757 0.006697102935274521
 0.000528747589101145 0.006696185410930209 -0.0004579227298084722 -0.004137783749702674 0.0030527092774695983 0.012096228367392176 0.9965140936139297 -0.029963422443894553
 -0.00045801195349560504 -0.0041377856992642105 0.0005210580713058757 0.006697102935274521 0.9965140936139297 -0.029963422443894553 0.0030540245692284103 0.012096081169963298
0.050020842017509996 0.0033243721400275585 0.01390656170776698 0.9961542512438595 -0.03429774933951194 0.0006380355997251348 0.007655323281639417 -0.0005492211270315835 -0.004733937983380898
 0.9961542512438595 -0.03429774933951194 0.0033261225122325046 0.01390638533900818 -0.0005491050173442591 -0.004733937172810401 0.0006279915874482922 0.007656517603144498
 0.0006380355997251348 0.007655323281639417 -0.0005491050173442591 -0.004733937172810401 0.003324372930393496 0.013905895435184756 0.9961542354801785 -0.03429841626413315
 -0.0005492211270315835 -0.004733937983380898 0.0006279915874482922 0.007656517603144498 0.9961542354801785 -0.03429841626413315 0.0033260900124815855 0.013905715177899916
0.055454545454549996 0.0035749965033298726 0.015493941404440048 0.9958217156885462 -0.038076853387933686 0.0007419529778858199 0.008489114080454276 -0.000635822575864542 -0.005252597514849169
 0.9958217156885462 -0.038076853387933686 0.00357714680689745 0.01549373467282009 -0.00063568029912535 -0.005252598088218802 0.000729606760489693 0.00849058841709061
 0.0007419529778858199 0.008489114080454276 -0.00063568029912535 -0.005252598088218802 0.0035749976390540734 0.015493203101140218 0.9958216966079041 -0.038077592445737746
 -0.000635822575864542 -0.005252597514849169 0.000729606760489693 0.00849058841709061 0.9958216966079041 -0.038077592445737746 0.0035771072451818453 0.01549299134897237
0.056273447269699996 0.0036139549267039254 0.015734335400707927 0.9957699883820884 -0.038647354114460554 0.0007583396720198202 0.00861478857022554 -0.0006494703819525338 -0.005330803819318591
 0.9957699883820884 -0.038647354114460554 0.0036161690604832285 0.01573412387788183 -0.0006493239368052309 -0.005330804634980117 0.0007456258240649923 0.008616308473994902
 0.0007583396720198202 0.00861478857022554 -0.0006493239368052309 -0.005330804634980117 0.00361395611749412 0.01573358624586869 0.9957699687749856 -0.038648104037702115
 -0.0006494703819525338 -0.005330803819318591 0.0007456258240649923 0.008616308473994902 0.9957699687749856 -0.038648104037702115 0.00361612837618231 0.01573336951835494
0.06252605252188 0.003921797326441565 0.017579728408228763 0.9953609933919039 -0.04301158617788632 0.000889760751482717 0.009574437771607056 -0.0007588643644874278 -0.005928223977318197
 0.9953609933919039 -0.04301158617788632 0.003924529545672602 0.01757947839569882 -0.0007586841603484619 -0.005928226950974365 0.0008740612427909943 0.009576336270982724
 0.000889760751482717 0.009574437771607056 -0.0007586841603484619 -0.005928226950974365 0.003921798956237892 0.017578896417208476 0.9953609695316797 -0.04301241902627595
 -0.0007588643644874278 -0.005928223977318197 0.0008740612427909943 0.009576336270982724 0.9953609695316797 -0.04301241902627595 0.003924479784079459 0.017578639674246867
0.06877865777407 0.004248236847488756 0.019442364220055117 0.9949269427242909 -0.04739033796663808 0.0010323975469264557 0.01053412111280828 -0.0008775051463163925 -0.0065260383349189845
 0.9949269427242909 -0.04739033796663808 0.004251541481795563 0.019442072253708854 -0.0008772877854611823 -0.006526044042896403 0.0010133960990709955 0.010536455495490727
 0.0010323975469264557 0.01053412111280828 -0.0008772877854611823 -0.006526044042896403 0.004248238947026115 0.01944144943972091 0.9949269142031771 -0.047391253655834006
 -0.0008775051463163925 -0.0065260383349189845 0.0010133960990709955 0.010536455495490727 0.9949269142031771 -0.047391253655834006 0.004251481754681625 0.01944114899995358
0.07503126302626001 0.004593608451621762 0.021321884721260773 0.9944675136289345 -0.05178347050891499 0.0011863463784513794 0.011493683316574957 -0.0010054921518169507 -0.007124085153940866
 0.9944675136289345 -0.05178347050891499 0.004597539849094189 0.021321547206752355 -0.001005234262275477 -0.007124094217158515 0.0011637262983254138 0.011496515190362634
 0.0011863463784513794 0.011493683316574957 -0.001005234262275477 -0.007124094217158515 0.004593611043780106 0.02132088718824796 0.9944674800410905 -0.05178446895500976
 -0.0010054921518169507 -0.007124085153940866 0.0011637262983254138 0.011496515190362634 0.9944674800410905 -0.05178446895500976 0.004597469272269604 0.021320539232345503
0.08128386827845 0.004958244559600047 0.02321794387271354 0.9939823844704849 -0.05619081970033355 0.0013517010366008327 0.012452964117612817 -0.0011429220735298268 -0.007722200611442144
 0.9939823844704849 -0.05619081970033355 0.004962857099487323 0.023217557083262935 -0.0011426203092303581 -0.007722213695422332 0.0013251452610515825 0.012456359455567407
 0.0013517010366008327 0.012452964117612817 -0.0011426203092303581 -0.007722213695422332 0.004958247659953513 0.0232168636174636 0.9939823454127146 -0.05619190081589919
 -0.0011429220735298268 -0.007722200611442144 0.0013251452610515825 0.012456359455567407 0.9939823454127146 -0.05619190081589919 0.004962774792071026 0.02321646418601751
0.08753647353064001 0.005342475010915545 0.025130203355660772 0.9934712350049099 -0.06061220062288092 0.0015285526470295303 0.013411798629550952 -0.0012898887810292598 -0.008320218486742552
 0.9934712350049099 -0.06061220062288092 0.005347823116156622 0.025129763429455988 -0.0012895398219691652 -0.00832023630161859 0.0014977437928345625 0.01341582781451706
 0.0015285526470295303 0.013411798629550952 -0.0012895398219691652 -0.00832023630161859 0.005342478627610556 0.025129040405831464 0.9934711900760226 -0.060613364313731384
 -0.0012898887810292598 -0.008320218486742552 0.0014977437928345625 0.01341582781451706 0.9934711900760226 -0.060613364313731384 0.005347728199667326 0.025128585396773692
0.09378907878283 0.005746626992817827 0.02705832946640624 0.9929337466274062 -0.06504741062143131 0.001716989540839196 0.014370017618866322 -0.0014464832234673884 -0.008917969948496739
 0.9929337466274062 -0.06504741062143131 0.005752765142897667 0.027057832403424565 -0.0014460837760035946 -0.00891799324900954 0.001681609958781315 0.014374755487224894
 0.001716989540839196 0.014370017618866322 -0.0014460837760035946 -0.00891799324900954 0.005746631127210938 0.02705708384137555 0.9929336954289719 -0.06504865679233786
 -0.0014464832234673884 -0.008917969948496739 0.001681609958781315 0.014374755487224894 0.9929336954289719 -0.06504865679233786 0.005752656740684047 0.027056569006865126
0.100041684035 0.006171024946918493 0.029001990836062686 0.9923696026023466 -0.06949623156278459 0.0019170971275237019 0.015327447716545286 -0.0016127933287043315 -0.009515283411250746
 0.9923696026023466 -0.06949623156278459 0.0061780076902264785 0.029001432494462107 -0.0016123401258193047 -0.009515312996721885 0.0018768289601860217 0.01533297360106546
 0.0019170971275237019 0.015327447716545286 -0.0016123401258193047 -0.009515312996721885 0.006171029593619519 0.029000662551918056 0.9923695447386673 -0.06949756011258934
 -0.0016127933287043315 -0.009515283411250746 0.0018768289601860217 0.01533297360106546 0.9923695447386673 -0.06949756011258934 0.00617788492692627 0.029000083494857467
0.1059090909091 0.006587977408986406 0.030839745413687093 0.9918156899378602 -0.0736831507384305 0.0021155646491661287 0.016225018910175467 -0.0017777695948412954 -0.010075245042016588
 0.9918156899378602 -0.0736831507384305 0.006595802397148875 0.03083912567173648 -0.00177726300094869 -0.010075281291920882 0.002070419843359269 0.01623136045877093
 0.0021155646491661287 0.016225018910175467 -0.00177726300094869 -0.010075281291920882 0.00658798252557572 0.03083833957182498 0.9918156254617841 -0.07368455649761657
 -0.0017777695948412954 -0.010075245042016588 0.002070419843359269 0.01623136045877093 0.9918156254617841 -0.07368455649761657 0.006595665361407097 0.03083769611315817
0.1062942892872 0.006615990460143433 0.030960856734618514 0.9917784882808578 -0.07395843151861327 0.002128957770441001 0.016283911587454333 -0.001788903899295552 -0.010111984441560862
 0.9917784882808578 -0.07395843151861327 0.006623872426574275 0.030960232826669928 -0.0017883937009617263 -0.01011202115586657 0.002083483013222271 0.016290309359249272
 0.002128957770441001 0.016283911587454333 -0.0017883937009617263 -0.01011202115586657 0.0066159956071157 0.03095944580144571 0.9917784233586671 -0.07395984234317106
 -0.001788903899295552 -0.010111984441560862 0.002083483013222271 0.016290309359249272 0.9917784233586671 -0.07395984234317106 0.006623734427083685 0.030958797971507575
0.11254689453939999 0.007081842142112297 0.032934595764436254 0.9911600913077233 -0.07843376606727523 0.0023526506638732363 0.0172392280750325 -0.0019748965064743545 -0.010707895696372505
 0.9911600913077233 -0.07843376606727523 0.0070906780561433925 0.03293390185187075 -0.0019743261000900155 -0.01070794042790395 0.002301651228941043 0.01724658618447191
 0.0023526506638732363 0.0172392280750325 -0.0019743261000900155 -0.01070794042790395 0.007081847771150168 0.032933102186469096 0.9911600189368659 -0.07843525905936881
 -0.0019748965064743545 -0.010707895696372505 0.002301651228941043 0.01724658618447191 0.9911600189368659 -0.07843525905936881 0.007090523945091623 0.03293238087555816
0.11879949979160001 0.007568895493585854 0.03492287485932588 0.9905141018225785 -0.08292197929848531 0.002588251711675791 0.018193212324611487 -0.0021708493824178715 -0.011302836890305494
 0.9905141018225785 -0.08292197929848531 0.007578740186459513 0.03492210634821222 -0.002170215583131141 -0.011302890571896207 0.0025314094945323657 0.018201623841193518
 0.002588251711675791 0.018193212324611487 -0.002170215583131141 -0.011302890571896207 0.007568901580501716 0.03492129863911154 0.9905140216159097 -0.08292355434393055
 -0.0021708493824178715 -0.011302836890305494 0.0025314094945323657 0.018201623841193518 0.9905140216159097 -0.08292355434393055 0.00757856908754871 0.03492049897644264
0.1250521050438 0.008077462766929324 0.03692535849740619 0.9898402126560397 -0.08742280461316053 0.0028358334069665527 0.01914567589506469 -0.002376837311402171 -0.011896624782480436
 0.9898402126560397 -0.08742280461316053 0.008088371189658241 0.0369245106324656 -0.002376136962645725 -0.011896688391347044 0.0027728303554407497 0.019155238546098616
 0.0028358334069665527 0.01914567589506469 -0.002376136962645725 -0.011896688391347044 0.008077469281789564 0.03692369963164953 0.989840124229603 -0.08742446159502833
 -0.002376837311402171 -0.011896624782480436 0.0027728303554407497 0.019155238546098616 0.989840124229603 -0.08742446159502833 0.008088182225093473 0.03692281657820797
0.131304710296 0.008607852820632247 0.03894170807765888 0.989138119521796 -0.09193596536837406 0.003095464712975824 0.020096426861533206 -0.002592931520087051 -0.012489073179943647
 0.989138119521796 -0.09193596536837406 0.008619880056632006 0.03894077593604221 -0.0025921614940011503 -0.012489147737608584 0.0030259828984477923 0.020107243069705006
 0.003095464712975824 0.020096426861533206 -0.0025921614940011503 -0.012489147737608584 0.008607859727798229 0.038939966556647894 0.9891380224947246 -0.09193770416777987
 -0.002592931520087051 -0.012489073179943647 0.0030259828984477923 0.020107243069705006 0.9891380224947246 -0.09193770416777987 0.008619672346113574 0.03893899489918099
0.1375573155481 0.00904178356239502 0.04070619246568575 0.9885261581118534 -0.09619565826921812 0.0033358874192553306 0.021018406202531183 -0.002787959883858958 -0.013053094134238484
 0.9885261581118534 -0.09619565826921812 0.00905499013095671 0.04070519305545559 -0.002787115796628527 -0.01305317977224495 0.003259763351203231 0.021030463665181725
 0.0033358874192553306 0.021018406202531183 -0.002787115796628527 -0.01305317977224495 0.00904179187045005 0.040704367682037106 0.9885260521022715 -0.0961974787500274
 -0.002787959883858958 -0.013053094134238484 0.003259763351203231 0.021030463665181725 0.9885260521022715 -0.0961974787500274 0.00905476174583152 0.040703325280820664
0.1438099208003 0.009491039166746295 0.04246070803186374 0.987892509714063 -0.10044392016240021 0.00358603700630395 0.02193634003016375 -0.0029907918589301237 -0.0136134533720209
 0.987892509714063 -0.10044392016240021 0.009505481186301507 0.04245963779468167 -0.0029898703975576165 -0.013613551090987682 0.0035029808105516815 0.021949732779931598
 0.00358603700630395 0.02193634003016375 -0.0029898703975576165 -0.013613551090987682 0.009491049020519393 0.04245879989616072 0.9878923943468214 -0.10044582219239051
 -0.0029907918589301237 -0.0136134533720209 0.0035029808105516815 0.021949732779931598 0.9878923943468214 -0.10044582219239051 0.009505231050511778 0.042457683022403596
0.1500625260525 0.00995545163573714 0.044205089423268076 0.9872373468698002 -0.10468062688351931 0.0038458227416883514 0.02285012336260299 -0.0032013399756145853 -0.014170053035614328
 0.9872373468698002 -0.10468062688351931 0.009971185387904829 0.044203944570584325 -0.00320033783955189 -0.014170163875557407 0.0037555464431022387 0.02286494885598794
 0.0038458227416883514 0.02285012336260299 -0.00320033783955189 -0.014170163875557407 0.009955463187132184 0.04420309783777981 0.9872372217733608 -0.10468261032653808
 -0.0032013399756145853 -0.014170053035614328 0.0037555464431022387 0.02286494885598794 0.9872372217733608 -0.10468261032653808 0.009970912409818025 0.044201902531835716
0.15631513130469998 0.010434851652027927 0.04593917625282507 0.9865608431399471 -0.10890565511079388 0.004115152750997197 0.023759653094634604 -0.003419515621397335 -0.014722797444693769
 0.9865608431399471 -0.10890565511079388 0.010451933586132077 0.04593795275871743 -0.003418429522623155 -0.014722922484719703 0.0040173703055450295 0.023776012172805852
