! Created with skrf 1.8.0 (http://scikit-rf.org).
# GHz S RI R 50.0 
!freq ReS11 ImS11 ReS12 ImS12 ReS13 ImS13
! ReS14 ImS14
! ReS21 ImS21 ReS22 ImS22 ReS23 ImS23
! ReS24 ImS24
! ReS31 ImS31 ReS32 ImS32 ReS33 ImS33
! ReS34 ImS34
! ReS41 ImS41 ReS42 ImS42 ReS43 ImS43
! ReS44 ImS44
!
0.0 0.001162006558992 0.0 0.998837993441 0.0 4.433140458659e-05 0.0 -4.433140450868e-05 5.42903126332615e-21
 0.998837993441 0.0 0.001162006559 0.0 -4.433140450884e-05 5.429031263345745e-21 4.433140458634e-05 0.0
 4.433140458659e-05 0.0 -4.433140450884e-05 5.429031263345745e-21 0.001162006555079 0.0 0.9988379934371 0.0
 -4.433140450868e-05 5.42903126332615e-21 4.433140458634e-05 0.0 0.9988379934371 0.0 0.00116200655508 0.0
0.005 0.001249401236005626 0.0009483369343395393 0.9987275482426852 -0.0024353288384210184 6.204822387307912e-05 0.0005058682200723356 -6.023964533902899e-05 -0.00031463895729600175
 0.9987275482426852 -0.0024353288384210184 0.0012494044504759005 0.0009483350787757355 -6.0239625482219984e-05 -0.0003146389921898616 6.202793852658342e-05 0.0005058759389579666
 6.204822387307912e-05 0.0005058682200723356 -6.0239625482219984e-05 -0.0003146389921898616 0.0012494006711630437 0.0009482700587807462 0.9987275479162677 -0.002435395895710899
 -6.023964533902899e-05 -0.00031463895729600175 6.202793852658342e-05 0.0005058759389579666 0.9987275479162677 -0.002435395895710899 0.0012494043684807125 0.0009482678457393054
0.006252605252188 0.0012720752353952368 0.0011891999345138755 0.9986987518068302 -0.003044796183926461 6.697009832272425e-05 0.000632588080800268 -6.461791539671597e-05 -0.00039372408948439133
 0.9986987518068302 -0.003044796183926461 0.0012720802599851984 0.001189197576085484 -6.461788410175172e-05 -0.00039372413353545014 6.693840382350181e-05 0.000632598091741342
 6.697009832272425e-05 0.000632588080800268 -6.461788410175172e-05 -0.00039372413353545014 0.0012720744273732178 0.0011891163535860199 0.998698751371792 -0.0030448799994822703
 -6.461791539671597e-05 -0.00039372408948439133 6.693840382350181e-05 0.000632598091741342 0.998698751371792 -0.0030448799994822703 0.0012720802074028127 0.0011891135390806214
0.01250521050438 0.0013899980864429662 0.002403783846019505 0.9985481803338998 -0.0060906162974795185 9.445767520474095e-05 0.0012655604084740246 -8.885184983459086e-05 -0.0007895318278868477
 0.9985481803338998 -0.0060906162974795185 0.0013900181450636738 0.0024037787402077593 -8.885172155635815e-05 -0.0007895319211149806 9.433127394079282e-05 0.0012655842756905706
 9.445767520474095e-05 0.0012655604084740246 -8.885172155635815e-05 -0.0007895319211149806 0.0013899954158393011 0.002403616998926447 0.9985481791563566 -0.006090783709709822
 -8.885184983459086e-05 -0.0007895318278868477 9.433127394079282e-05 0.0012655842756905706 0.9985481791563566 -0.006090783709709822 0.001390018503095101 0.0024036108839848628
0.01875781575657 0.0015159806133636744 0.0036361411656232884 0.9983861292886129 -0.009144927369020261 0.00012684878902789902 0.0018993917558928362 -0.00011709657171349892 -0.0011868604041860413
 0.9983861292886129 -0.009144927369020261 0.0015160256762172591 0.003636132904404332 -0.00011709627873348428 -0.001186860553936528 0.00012656481571714394 0.001899433930312961
 0.00012684878902789902 0.0018993917558928362 -0.00011709627873348428 -0.001186860553936528 0.001515975021329677 0.0036358912852594706 0.9983861270575676 -0.009145178295815114
 -0.00011709657171349892 -0.0011868604041860413 0.00012656481571714394 0.001899433930312961 0.9983861270575676 -0.009145178295815114 0.0015160269135763276 0.0036358813500217534
0.02501042100875 0.0016502248461279765 0.004884592116330149 0.9982124446206236 -0.01220926096891687 0.00016419894995264468 0.0025341457361115986 -0.00014941408013877905 -0.0015855555732125883
 0.9982124446206236 -0.01220926096891687 0.0016503048568445732 0.004884580276137451 -0.00014941355322613224 -0.0015855557889815483 0.00016369449396257409 0.002534211245012045
 0.00016419894995264468 0.0025341457361115986 -0.00014941355322613224 -0.0015855557889815483 0.001650215274803412 0.004884259423833441 0.9982124410264985 -0.012209595394918104
 -0.00014941408013877905 -0.0015855555732125883 0.00016369449396257409 0.002534211245012045 0.9982124410264985 -0.012209595394918104 0.0016503074542569996 0.0048842451182111515
0.03126302626094 0.0017929240321256747 0.006148297759884373 0.9980269627335006 -0.015284303136563435 0.00020656441325909425 0.003169826488434155 -0.00018586500092775024 -0.00198551994910117
 0.9980269627335006 -0.015284303136563435 0.001793048912523785 0.006148281902433355 -0.00018586416955355592 -0.001985520242549702 0.0002057764570611651 0.0031699209379440936
 0.00020656441325909425 0.003169826488434155 -0.00018586416955355592 -0.001985520242549702 0.0017929094237528705 0.006147882502431049 0.9980269574666096 -0.01528472107565157
 -0.00018586500092775024 -0.00198551994910117 0.0002057764570611651 0.0031699209379440936 0.9980269574666096 -0.01528472107565157 0.0017930533620452037 0.0061478632468265505
0.037515631513130004 0.0019442673884716062 0.007426730426748336 0.9978295153133658 -0.01837042390912645 0.00025400162436237583 0.0038064152127461723 -0.00022650907153960926 -0.0023866764586453013
 0.9978295153133658 -0.01837042390912645 0.0019444470420954328 0.007426710099499372 -0.0002265078640303713 -0.0023866768436490377 0.0002528670144510965 0.0038065447934963717
 0.00025400162436237583 0.0038064152127461723 -0.0002265078640303713 -0.0023866768436490377 0.0019442466811401475 0.0074262328913275956 0.9978295080587003 -0.018370925391061835
 -0.00022650907153960926 -0.0023866764586453013 0.0002528670144510965 0.0038065447934963717 0.9978295080587003 -0.018370925391061835 0.0019444538427458012 0.007426208076759837
0.043768236765320004 0.002104441934968201 0.008719512580558341 0.9976199312389652 -0.021467838410968436 0.0003065669727664778 0.004443881284619437 -0.0002714053258188832 -0.0027889572137088006
 0.9976199312389652 -0.021467838410968436 0.0021046862490449888 0.008719487317076361 -0.00027140366942384505 -0.002788957706377654 0.00030502240417681876 0.004444052778376384
 0.0003065669727664778 0.004443881284619437 -0.00027140366942384505 -0.002788957706377654 0.002104414066812511 0.008718933077951786 0.9976199216794805 -0.021468423497745796
 -0.0002714053258188832 -0.0027889572137088006 0.00030502240417681876 0.004444052778376384 0.9976199216794805 -0.021468423497745796 0.002104695911195313 0.0087189020662165
0.050020842017509996 0.0022736333629763844 0.010026350184876303 0.9973980375283747 -0.024576673438909253 0.0003643166523050949 0.005082186839941325 -0.0003206121746488407 -0.0031922989143568863
 0.9973980375283747 -0.024576673438909253 0.0022739522107938577 0.010026319505092248 -0.00032060999567774877 -0.003192299533083379 0.0003622986604258145 0.00508240762664317
 0.0003643166523050949 0.005082186839941325 -0.00032060999567774877 -0.003192299533083379 0.0022735972720667025 0.010025689072508111 0.9973980253439955 -0.02457734220235556
 -0.0003206121746488407 -0.0031922989143568863 0.0003622986604258145 0.00508240762664317 0.9973980253439955 -0.02457734220235556 0.002273965255495396 0.01002565119617002
0.055454545454549996 0.002428132209160393 0.011173256614509831 0.9971950728931527 -0.02728767638410081 0.00041875661227635413 0.0056375422819467625 -0.00036692006883853374 -0.0035436293118262796
 0.9971950728931527 -0.02728767638410081 0.0024285238375850926 0.011173220827558979 -0.000366917375178608 -0.0035436300568330646 0.0004162755333169248 0.0056378123691377706
 0.00041875661227635413 0.0056375422819467625 -0.000366917375178608 -0.0035436300568330646 0.002428088110192562 0.011172524899305663 0.9971950581648236 -0.027288417939257997
 -0.00036692006883853374 -0.0035436293118262796 0.0004162755333169248 0.0056378123691377706 0.9971950581648236 -0.027288417939257997 0.0024285402537148103 0.011172480492705179
0.056273447269699996 0.0024520264928271428 0.011347000043180915 0.9971636598767137 -0.02769700007397332 0.00042730656909852565 0.005721289013622457 -0.0003741874395280779 -0.0035966405985372154
 0.9971636598767137 -0.02769700007397332 0.0024524297351070307 0.011346963453700514 -0.00037418466337999005 -0.0035966413640270414 0.0004247515258882188 0.005721567078619793
 0.00042730656909852565 0.005721289013622457 -0.00037418466337999005 -0.0035966413640270414 0.0024519811175691287 0.011346257714789447 0.9971636447435795 -0.027697752606333607
 -0.0003741874395280779 -0.0035966405985372154 0.0004247515258882188 0.005721567078619793 0.9971636447435795 -0.027697752606333607 0.0024524466947515896 0.01134621227722396
0.06252605252188 0.0026398055317440176 0.012681251815737237 0.9969166229949618 -0.03082885161625626 0.0004955922718916674 0.006361141179482075 -0.0004321883635555351 -0.004001922391428875
 0.9969166229949618 -0.03082885161625626 0.002640303018582822 0.012681208809992166 -0.000432184914836343 -0.004001923326738306 0.0004924363848642791 0.006361485120849093
 0.0004955922718916674 0.006361141179482075 -0.000432184914836343 -0.004001923326738306 0.002639749811639258 0.012680428695773394 0.9969166045852511 -0.030829688036282346
 -0.0004321883635555351 -0.004001922391428875 0.0004924363848642791 0.006361485120849093 0.9969166045852511 -0.030829688036282346 0.002640324437043454 0.01268037497104228
0.06877865777407 0.0028371542261093874 0.01402891729808822 0.9966567508457364 -0.03397223425886431 0.000569228897084138 0.007001693675655237 -0.0004946716072765253 -0.004408084770190295
 0.9966567508457364 -0.03397223425886431 0.0028377557981538386 0.014028867356585975 -0.0004946674098314065 -0.004408085900764038 0.0005654082103240994 0.007002112711572245
 0.000569228897084138 0.007001693675655237 -0.0004946674098314065 -0.004408085900764038 0.0028370871019595613 0.014028013858033364 0.9966567288266514 -0.0339731546957719
 -0.0004946716072765253 -0.004408084770190295 0.0005654082103240994 0.007002112711572245 0.9966567288266514 -0.0339731546957719 0.0028377822311315103 0.014027951090839619
0.07503126302626001 0.003044255949746169 0.01538982363700967 0.9963838668158174 -0.03712713382507267 0.0006482711198254843 0.007642894270141562 -0.000561693237783957 -0.004815068089686003
 0.9963838668158174 -0.03712713382507267 0.0030449714398578247 0.01538976622741385 -0.0005616882147771385 -0.004815069443389301 0.0006437215164562182 0.00764339824625517
 0.0006482711198254843 0.007642894270141562 -0.0005616882147771385 -0.004815069443389301 0.0030441763646258065 0.015388840385295087 0.9963838408496356 -0.03712813842897999
 -0.000561693237783957 -0.004815068089686003 0.0006437215164562182 0.00764339824625517 0.9963838408496356 -0.03712813842897999 0.00304500345549147 0.015388767790879155
0.08128386827845 0.00326129375330773 0.016763808806036208 0.9960977938519988 -0.04029352024692019 0.0007327731109023158 0.008284688465221205 -0.0006333087113655202 -0.005222812270438575
 0.9960977938519988 -0.04029352024692019 0.0032621329878300717 0.016763743383365035 -0.0006333027853302322 -0.005222813877594761 0.0007274303166495831 0.008285287862020067
 0.0007327731109023158 0.008284688465221205 -0.0006333027853302322 -0.005222813877594761 0.003261200652730579 0.016762746291662356 0.9960977635952166 -0.04029460918550963
 -0.0006333087113655202 -0.005222812270438575 0.0007274303166495831 0.008285287862020067 0.9960977635952166 -0.04029460918550963 0.003262171166775445 0.016762663055624027
0.08753647353064001 0.0034884503875535562 0.018150718476967143 0.9957983545724494 -0.043471350648962875 0.0008227884960742807 0.008927019706488433 -0.0007095728528547778 -0.005631256583223605
 0.9957983545724494 -0.043471350648962875 0.003489423187834517 0.01815064448357462 -0.0007095659457831905 -0.005631258476641118 0.0008165880838140832 0.008927725646623228
 0.0008227884960742807 0.008927019706488433 -0.0007095659457831905 -0.005631258476641118 0.003488342720906257 0.018149577292189502 0.9957983196756341 -0.04347252410513683
 -0.0007095728528547778 -0.005631256583223605 0.0008165880838140832 0.008927725646623228 0.9957983196756341 -0.04347252410513683 0.003489468124225992 0.0181494825703142
0.09378907878283 0.003725908310252396 0.019550403783738495 0.9954853713630428 -0.046660571540758984 0.0009183703172746438 0.00956982953579246 -0.0007905398324724581 -0.006040339490979236
 0.9954853713630428 -0.046660571540758984 0.0037270244940717945 0.019550320649419067 -0.0007905318658712763 -0.006040341705987772 0.0009112477122501246 0.009570653791376742
 0.0009183703172746438 0.00956982953579246 -0.0007905318658712763 -0.006040341705987772 0.00372578503101015 0.01954918455728463 0.9954853314702841 -0.046661829719643486
 -0.0007905398324724581 -0.006040339490979236 0.0009112477122501246 0.009570653791376742 0.9954853314702841 -0.046661829719643486 0.003727076795584974 0.019549077475333895
0.100041684035 0.003973849678767904 0.020962719678829456 0.9951586664606271 -0.04986112041805765 0.0010195709955057941 0.010213057698520586 -0.0008762631401477291 -0.006449998537723641
 0.9951586664606271 -0.04986112041805765 0.003975119061665298 0.020962626820804898 -0.0008762540350958609 -0.006450001112207433 0.0010114614811751882 0.01021401269836037
 0.0010195709955057941 0.010213057698520586 -0.0008762540350958609 -0.006450001112207433 0.0039737097451767915 0.020961423083522474 0.9951586212088872 -0.049862463539731554
 -0.0008762631401477291 -0.006449998537723641 0.0010114614811751882 0.01021401269836037 0.9951586212088872 -0.049862463539731554 0.003975179349948994 0.020961302736975614
0.1059090909091 0.004216212921635687 0.022299388798490558 0.9948394504209237 -0.05287473621124115 0.0011196935058250435 0.010816984398164163 -0.0009610782279106311 -0.006834887579755814
 0.9948394504209237 -0.05287473621124115 0.004217634991793767 0.022299286274609146 -0.0009610679824302728 -0.006834890528325653 0.0011105989020915525 0.010818073982779737
 0.0011196935058250435 0.010816984398164163 -0.0009610679824302728 -0.006834890528325653 0.004216056417019223 0.022298020251674152 0.9948393998032095 -0.052876159256535105
 -0.0009610782279106311 -0.006834887579755814 0.0011105989020915525 0.010818073982779737 0.9948393998032095 -0.052876159256535105 0.004217703353094217 0.022297886607846693
0.1062942892872 0.004232456334700456 0.022387523698827502 0.9948180620310496 -0.053072926956426944 0.001126442294307763 0.010856642226266856 -0.000966795558532108 -0.006860170263420718
 0.9948180620310496 -0.053072926956426944 0.004233888731145181 0.022387420521777977 -0.000966785235730751 -0.006860173237848225 0.0011172810186993772 0.010857741063055613
 0.001126442294307763 0.010856642226266856 -0.000966785235730751 -0.006860173237848225 0.004232298710414973 0.02238615045146315 0.9948180110495298 -0.053074355256147523
 -0.000966795558532108 -0.006860170263420718 0.0011172810186993772 0.010857741063055613 0.9948180110495298 -0.053074355256147523 0.004233957642376465 0.02238601590525029
0.11254689453939999 0.004501909780569007 0.023824675021731523 0.994463380239659 -0.05629591391432133 0.0012390352836590532 0.011500519500761025 -0.0010621891347492786 -0.007270790139064243
 0.994463380239659 -0.05629591391432133 0.004503515005774422 0.023824560917664037 -0.0010621775146292655 -0.007270793556513117 0.0012287572663143473 0.011501775938168344
 0.0012390352836590532 0.011500519500761025 -0.0010621775146292655 -0.007270793556513117 0.00450173343576226 0.023823225876156484 0.994463323149765 -0.056297427649756315
 -0.0010621891347492786 -0.007270790139064243 0.0012287572663143473 0.011501775938168344 0.994463323149765 -0.056297427649756315 0.004503593191085191 0.023823076164322488
0.11879949979160001 0.004782391151961205 0.025274033716512136 0.9940944433194288 -0.05952999784553082 0.0013574003044679807 0.012144624303027683 -0.0011624951510126374 -0.007681792517872858
 0.9940944433194288 -0.05952999784553082 0.004784179023042633 0.025273908064685286 -0.0011624821537675426 -0.007681796424060196 0.0013459404436515763 0.012146052782742932
 0.0013574003044679807 0.012144624303027683 -0.0011624821537675426 -0.007681796424060196 0.004782195063648864 0.02527250947305543 0.9940943797338038 -0.059531597287445205
 -0.0011624951510126374 -0.007681792517872858 0.0013459404436515763 0.012146052782742932 0.9940943797338038 -0.059531597287445205 0.0047842671488883964 0.025272343598424545
0.1250521050438 0.00507408118467879 0.026735460165651235 0.9937110736350196 -0.06277508964015857 0.001481586933095832 0.012788889853065345 -0.0012677640943397352 -0.008093110597591876
 0.9937110736350196 -0.06277508964015857 0.005076061521935107 0.02673532233243099 -0.0012677496399827618 -0.008093115040905836 0.0014688800135316412 0.012790505501751568
 0.001481586933095832 0.012788889853065345 -0.0012677496399827618 -0.008093115040905836 0.005073864337728014 0.02673386166537462 0.9937110031573648 -0.06277677507837176
 -0.0012677640943397352 -0.008093110597591876 0.0014688800135316412 0.012790505501751568 0.9937110031573648 -0.06277677507837176 0.0050761602708269135 0.02673367859914715
0.131304710296 0.005377160178509875 0.02820881458946794 0.9933130937464065 -0.06603109496550481 0.0016116439460054192 0.013433247843774976 -0.0013780456255563464 -0.008504676389962546
 0.9933130937464065 -0.06603109496550481 0.0053793428071664375 0.02820866392816367 -0.0013780296340339298 -0.008504681421481171 0.0015976246468663335 0.013435066479933975
 0.0016116439460054192 0.013433247843774976 -0.0013780296340339298 -0.008504681421481171 0.00537692156637366 0.02820714271457342 0.9933130159704154 -0.06603286670858784
 -0.0013780456255563464 -0.008504676389962546 0.0015976246468663335 0.013435066479933975 0.9933130159704154 -0.06603286670858784 0.005379452877718943 0.02820694139592097
0.1375573155481 0.00561432036479153 0.029500365833622266 0.9929778314008721 -0.06910427513271485 0.001728968098789635 0.014057208765059013 -0.0014747547047643068 -0.008895996398816988
 0.9929778314008721 -0.06910427513271485 0.00561671641318637 0.029500205542883396 -0.0014747372095421506 -0.008896002025269455 0.0017136038490506778 0.01405922484806995
 0.001728968098789635 0.014057208765059013 -0.0014747372095421506 -0.008896002025269455 0.005614059608633902 0.02949862109605961 0.9929777459978926 -0.0691061333722771
 -0.0014747547047643068 -0.008895996398816988 0.0017136038490506778 0.01405922484806995 0.9929777459978926 -0.0691061333722771 0.005616837742742202 0.029498404881329064
0.1438099208003 0.005859516541252089 0.03078635205675715 0.9926313206846671 -0.07217094014312915 0.0018510284294429192 0.014679449736512123 -0.0015753471423691032 -0.00928575349432671
 0.9926313206846671 -0.07217094014312915 0.005862136057990934 0.03078618175331844 -0.0015753280836703209 -0.00928575976302174 0.0018342596954549909 0.014681677435444958
 0.0018510284294429192 0.014679449736512123 -0.0015753280836703209 -0.00928575976302174 0.00585923276097214 0.030784535347662397 0.9926312272500565 -0.0721728851845901
 -0.0015753471423691032 -0.00928575349432671 0.0018342596954549909 0.014681677435444958 0.9926312272500565 -0.0721728851845901 0.005862269230813526 0.030784303489201602
0.1500625260525 0.006112677305857153 0.03206670323924245 0.9922736356500921 -0.07523105221206687 0.0019777919765974978 0.015299933625989866 -0.0016797910333285447 -0.009673911761830311
 0.9922736356500921 -0.07523105221206687 0.006115530355956223 0.03206652251576385 -0.001679770352590082 -0.00967391872187348 0.0019595595076273473 0.015302387614923058
 0.0019777919765974978 0.015299933625989866 -0.001679770352590082 -0.00967391872187348 0.006112369637228742 0.03206481548560982 0.992273533771075 -0.07523308437274283
 -0.0016797910333285447 -0.009673911761830311 0.0019595595076273473 0.015302387614923058 0.992273533771075 -0.07523308437274283 0.006115675963326156 0.03206456719883723
0.15631513130469998 0.006373730918203123 0.03334135172202006 0.9919048505398863 -0.07828457299016262 0.0021092254937483215 0.01591862377349648 -0.0017880541750861247 -0.010060435957402901
