! Created with skrf 1.8.0 (http://scikit-rf.org).
# GHz S RI R 50.0 
!freq ReS11 ImS11 ReS12 ImS12 ReS13 ImS13
! ReS14 ImS14
! ReS21 ImS21 ReS22 ImS22 ReS23 ImS23
! ReS24 ImS24
! ReS31 ImS31 ReS32 ImS32 ReS33 ImS33
! ReS34 ImS34
! ReS41 ImS41 ReS42 ImS42 ReS43 ImS43
! ReS44 ImS44
!
0.0 0.001434814134367 0.0 0.9985651858515 0.0 5.526281802657e-05 0.0 -5.526281784891e-05 6.767743299053085e-21
 0.9985651858515 0.0 0.001434814134318 0.0 -5.526281784802e-05 6.767743298944092e-21 5.526281802565e-05 0.0
 5.526281802657e-05 0.0 -5.526281784802e-05 6.767743298944092e-21 0.00143481413861 0.0 0.9985651858557 0.0
 -5.526281784891e-05 6.767743299053085e-21 5.526281802565e-05 0.0 0.9985651858557 0.0 0.001434814138609 0.0
0.005 0.0015434698633298627 0.0011721041208063603 0.998427768125878 -0.0030060453107258384 7.753460772909455e-05 0.0006202802549141262 -7.526234704189419e-05 -0.0003874042477371261
 0.998427768125878 -0.0030060453107258384 0.0015434720391121143 0.0011721029035708188 -7.52655079606062e-05 -0.0003874066867362509 7.749924092193762e-05 0.0006202935192604492
 7.753460772909455e-05 0.0006202802549141262 -7.52655079606062e-05 -0.0003874066867362509 0.0015434685342897282 0.0011721721907417383 0.9984277684722813 -0.0030059782500230143
 -7.526234704189419e-05 -0.0003874042477371261 7.749924092193762e-05 0.0006202935192604492 0.9984277684722813 -0.0030059782500230143 0.0015434740606264205 0.0011721689562450906
0.006252605252188 0.0015718804369102902 0.0014697619381248658 0.9983916243367683 -0.003758306279879792 8.384757610953933e-05 0.0007756511338841201 -8.086879148396567e-05 -0.00048476392058900583
 0.9983916243367683 -0.003758306279879792 0.001571883837949444 0.001469760425975571 -8.087371007213095e-05 -0.000484766928519788 8.379231607090594e-05 0.0007756683830411776
 8.384757610953933e-05 0.0007756511338841201 -8.087371007213095e-05 -0.000484766928519788 0.001571878286929302 0.0014698470309438985 0.9983916248061222 -0.0037582224525608836
 -8.086879148396567e-05 -0.00048476392058900583 8.379231607090594e-05 0.0007756683830411776 0.9983916248061222 -0.0037582224525608836 0.0015718869263316847 0.0014698429900762105
0.01250521050438 0.0017209361220011745 0.002970511185224497 0.9982008096812534 -0.007517512880997423 0.00011978705022722964 0.001551660328519905 -0.00011246349248929293 -0.000971944796174774
 0.9982008096812534 -0.007517512880997423 0.001720949699666847 0.0029705082814262306 -0.00011248287599247693 -0.0009719503668513182 0.00011956660656679354 0.0015517019868171473
 0.00011978705022722964 0.001551660328519905 -0.00011248287599247693 -0.0009719503668513182 0.0017209269710940567 0.0029706811611474476 0.9982008109945655 -0.007517345490983066
 -0.00011246349248929293 -0.000971944796174774 0.00011956660656679354 0.0015517019868171473 0.9982008109945655 -0.007517345490983066 0.001720961475503858 0.0029706731027875745
0.01875781575657 0.001882289205391633 0.004492815721735984 0.9979925171479562 -0.011286789455413249 0.0001631615931529079 0.00232857074035999 -0.0001501407567196227 -0.0014608370049025961
 0.9979925171479562 -0.011286789455413249 0.001882319708010512 0.004492811605483646 -0.00015018398287840372 -0.0014608446129755611 0.00016266620216706993 0.002328645256246862
 0.0001631615931529079 0.00232857074035999 -0.00015018398287840372 -0.0014608446129755611 0.0018822682145763175 0.004493070575336653 0.9979925196800342 -0.011286538610474349
 -0.0001501407567196227 -0.0014608370049025961 0.00016266620216706993 0.002328645256246862 0.9979925196800342 -0.011286538610474349 0.0018823457595853147 0.004493058498756116
0.02501042100875 0.002056239562388709 0.006034559613204334 0.9977665136450224 -0.015067980924532758 0.00021405277959384887 0.003106428880241601 -0.00019399160646888736 -0.001951226812247868
 0.9977665136450224 -0.015067980924532758 0.002056293722559823 0.006034554527369788 -0.0001940679416789657 -0.0019512358426332162 0.00021317251868305893 0.0031065459533014483
 0.00021405277959384887 0.003106428880241601 -0.0001940679416789657 -0.0019512358426332162 0.0020562018913924465 0.006034899423016398 0.9977665177649258 -0.015067646693182122
 -0.00019399160646888736 -0.001951226812247868 0.00021317251868305893 0.0031065459533014483 0.9977665177649258 -0.015067646693182122 0.002056339627835438 0.0060348833136046965
0.03126302626094 0.002243074586713446 0.007594662925620386 0.9975225535686212 -0.018861887532126885 0.00027254279530241894 0.0038852087349538233 -0.00024410464947557104 -0.0024429682289646183
 0.9975225535686212 -0.018861887532126885 0.0022431591275462724 0.007594657179114511 -0.00024422326797802953 -0.002442977975641998 0.0002711674814784178 0.003885379326207041
 0.00027254279530241894 0.0038852087349538233 -0.00024422326797802953 -0.002442977975641998 0.0022430154000125328 0.007595087827795125 0.9975225596475797 -0.018861469970005353
 -0.00024410464947557104 -0.0024429682289646183 0.0002711674814784178 0.003885379326207041 0.9975225596475797 -0.018861469970005353 0.002243230464972383 0.007595067659093536
0.037515631513130004 0.0024430755703953584 0.00917242830718945 0.9972603853550269 -0.0226689182047772 0.0003387136271903979 0.004664855835327814 -0.00030056674574718503 -0.0029359389367924257
 0.9972603853550269 -0.0226689182047772 0.002443197210420305 0.0091724222768303 -0.00030073673946929923 -0.002935948602417016 0.00033673276929774314 0.004665092182381187
 0.0003387136271903979 0.004664855835327814 -0.00030073673946929923 -0.002935948602417016 0.0024429900316705437 0.009172938479949794 0.9972603937619948 -0.022668417370410122
 -0.00030056674574718503 -0.0029359389367924257 0.00033673276929774314 0.004665092182381187 0.9972603937619948 -0.022668417370410122 0.002443299555683772 0.009172914214862443
0.043768236765320004 0.002656520167828751 0.010767342142174955 0.9969797541182387 -0.0264892893323372 0.00041264668709859066 0.005445300657989202 -0.0003634632521530944 -0.003430026880916193
 0.9969797541182387 -0.0264892893323372 0.0026566856261477714 0.010767336274251723 -0.0003636936366580331 -0.0034300355766680494 0.00040994946091355434 0.0054456162917604625
 0.00041264668709859066 0.005445300657989202 -0.0003636936366580331 -0.0034300355766680494 0.002656403441112684 0.010767937811660721 0.9969797652213646 -0.026488705281697777
 -0.0003634632521530944 -0.003430026880916193 0.00040994946091355434 0.0054456162917604625 0.9969797652213646 -0.026488705281697777 0.002656824553821997 0.010767909403073293
0.050020842017509996 0.0028836835450678825 0.01237899236252868 0.9966804029751345 -0.030323106888614677 0.0004944225917547422 0.006226464148725431 -0.00043287811391369926 -0.0039251247423160536
 0.9966804029751345 -0.030323106888614677 0.002883899545312228 0.012378987174383094 -0.0004331778321025702 -0.003925131487844531 0.0004908978269468513 0.006226873910843058
 0.0004944225917547422 0.006226464148725431 -0.0004331778321025702 -0.003925131487844531 0.0028835307940100903 0.012379673814879071 0.996680417141401 -0.030322439663466646
 -0.00043287811391369926 -0.0039251247423160536 0.0004908978269468513 0.006226873910843058 0.996680417141401 -0.030322439663466646 0.002884080629560561 0.012379641206083902
0.055454545454549996 0.003092449008598694 0.013792883668819813 0.9964048544698764 -0.03366575977647763 0.0005719195768201931 0.006905835997201984 -0.00049855959068221 -0.004356118151767911
 0.9964048544698764 -0.03366575977647763 0.003092714398943907 0.013792879547714996 -0.0004989267702445987 -0.004356122335220966 0.0005675850991253271 0.006906340644234657
 0.0005719195768201931 0.006905835997201984 -0.0004989267702445987 -0.004356122335220966 0.0030922610240035685 0.013793639927124615 0.9964048715959002 -0.03366502031426443
 -0.00049855959068221 -0.004356118151767911 0.0005675850991253271 0.006906340644234657 0.9964048715959002 -0.03366502031426443 0.0030929366454570473 0.013793603614927319
0.056273447269699996 0.0031248389737577 0.014007028136145253 0.9963620738183494 -0.03417040667600678 0.0005841210053790576 0.007008260447894278 -0.0005088938932742436 -0.004421127210259796
 0.9963620738183494 -0.03417040667600678 0.003125112248969128 0.01400702421746296 -0.0005092718180309677 -0.004421130933659184 0.0005796571802014504 0.007008780508446971
 0.0005841210053790576 0.007008260447894278 -0.0005092718180309677 -0.004421130933659184 0.003124645362498107 0.014007795692745195 0.9963620914144615 -0.034169656329068786
 -0.0005088938932742436 -0.004421127210259796 0.0005796571802014504 0.007008780508446971 0.9963620914144615 -0.034169656329068786 0.003125341063984062 0.014007758817709538
0.06252605252188 0.003380258157386258 0.015651137669629205 0.9960245078249326 -0.03803117645715642 0.0006818205200122256 0.007790598370495582 -0.0005915917604626538 -0.004917929502757447
 0.9960245078249326 -0.03803117645715642 0.0033805954542602983 0.01565113568376355 -0.000592056696383513 -0.004917929040571753 0.0006763057602983655 0.007791246245994868
 0.0006818205200122256 0.007790598370495582 -0.000592056696383513 -0.004917929040571753 0.003380018850093615 0.015651991703228837 0.9960245292163651 -0.03803034303653597
 -0.0005915917604626538 -0.004917929502757447 0.0006763057602983655 0.007791246245994868 0.9960245292163651 -0.03803034303653597 0.0033808775741620413 0.01565195048662846
0.06877865777407 0.003650211406488077 0.017311034992673988 0.9956674458164146 -0.04190536910759955 0.0007875985511816567 0.00857338230155629 -0.0006810514678297144 -0.005415426474631396
 0.9956674458164146 -0.04190536910759955 0.003650619489906811 0.01731103567778348 -0.0006816121524832435 -0.005415420571867155 0.0007809206330112647 0.008574176872991416
 0.0007875985511816567 0.00857338230155629 -0.0006816121524832435 -0.005415420571867155 0.0036499215677355734 0.017311975922550408 0.9956674713680789 -0.04190445266201442
 -0.0006810514678297144 -0.005415426474631396 0.0007809206330112647 0.008574176872991416 0.9956674713680789 -0.04190445266201442 0.0036509604887888757 0.017311930279860124
0.07503126302626001 0.003934967728129141 0.0189864515780721 0.9952906285367884 -0.0457929109355698 0.0009015312458845753 0.0093565127616315 -0.0007773513107087963 -0.005913512058604746
 0.9952906285367884 -0.0457929109355698 0.00393545338581284 0.018986455748122195 -0.0007780164154650943 -0.005913499368757672 0.0008935776007827305 0.009357474292573338
 0.0009015312458845753 0.0093565127616315 -0.0007780164154650943 -0.005913499368757672 0.0039346225230824285 0.018987479871414532 0.995290658612773 -0.04579191151351497
 -0.0007773513107087963 -0.005913512058604746 0.0008935776007827305 0.009357474292573338 0.995290658612773 -0.04579191151351497 0.003935858837744823 0.018987429708651853
0.08128386827845 0.004234794860299514 0.020677130760449258 0.9948937968786369 -0.049693707206442894 0.0010236933974705615 0.010139886780469745 -0.0008805680803347986 -0.006412078901525865
 0.9948937968786369 -0.049693707206442894 0.0042353649071576885 0.020677139306199473 -0.0008813462109139992 -0.006412057986622424 0.0010143511191686785 0.010141036935188742
 0.0010236933974705615 0.010139886780469745 -0.0008813462109139992 -0.006412057986622424 0.004234389454693793 0.020678246929532063 0.9948938318419527 -0.049692624859477966
 -0.0008805680803347986 -0.006412078901525865 0.0010143511191686785 0.010141036935188742 0.9948938318419527 -0.049692624859477966 0.004235840385913299 0.020678192143085958
0.08753647353064001 0.004549959269770331 0.022382823879379867 0.9944766920749613 -0.053607645946250795 0.0011541583638031338 0.010923398165415949 -0.0009907770118362813 -0.00691101810931976
 0.9944766920749613 -0.053607645946250795 0.0045506205529695695 0.022382837769209244 -0.0009916767086666943 -0.00691098743995856 0.001143314217068052 0.010924760026980337
 0.0011541583638031338 0.010923398165415949 -0.0009916767086666943 -0.00691098743995856 0.004549488830557344 0.022384028485713723 0.9944767322878962 -0.053606480725316895
 -0.0009907770118362813 -0.00691101810931976 0.001143314217068052 0.010924760026980337 0.9944767322878962 -0.053606480725316895 0.004551171631963793 0.022383968961916363
0.09378907878283 0.0048807261251761205 0.024103287519623522 0.9940390558702571 -0.05753460065199381 0.0012929979891609402 0.011706937691437923 -0.0011080517277883087 -0.007410219073856118
 0.9940390558702571 -0.05753460065199381 0.004881485528514018 0.024103307800192778 -0.001109081466141737 -0.007410177029275961 0.0012805384195464014 0.01170853577977307
 0.0012929979891609402 0.011706937691437923 -0.001109081466141737 -0.007410177029275961 0.004880185820692975 0.024104581173700745 0.994039101693945 -0.057533352608130896
 -0.0011080517277883087 -0.007410219073856118 0.0012805384195464014 0.01170853577977307 0.994039101693945 -0.057533352608130896 0.004882117780754198 0.02410451678834723
0.100041684035 0.005227359252161001 0.02583828149288425 0.9935806306756819 -0.06147443226416942 0.0014402825274376153 0.012490393245895973 -0.0012324641790044145 -0.007909569348826872
 0.9935806306756819 -0.06147443226416942 0.005228223701353685 0.025838309289749912 -0.0012336323690989492 -0.00790951421695686 0.0014260936723310667 0.012492253535752673
 0.0014402825274376153 0.012490393245895973 -0.0012336323690989492 -0.00790951421695686 0.005226744253015262 0.0258396648513204 0.9935806824707925 -0.06147310145188769
 -0.0012324641790044145 -0.007909569348826872 0.0014260936723310667 0.012492253535752673 0.9935806824707925 -0.06147310145188769 0.005228942699077176 0.025839595469067847
0.1059090909091 0.005567301660921262 0.027479392041164313 0.9931313111500013 -0.06518312416601063 0.001586235120139592 0.013225404512442232 -0.001355766332905768 -0.008378190559325848
 0.9931313111500013 -0.06518312416601063 0.005568271024664738 0.027479427985633367 -0.0013570720361393762 -0.008378121508061769 0.0015703196931351146 0.013227535786022319
 0.001586235120139592 0.013225404512442232 -0.0013570720361393762 -0.008378121508061769 0.0055666121781758945 0.02748086021798649 0.9931313688755316 -0.06518171573531042
 -0.001355766332905768 -0.008378190559325848 0.0015703196931351146 0.013227535786022319 0.9931313688755316 -0.06518171573531042 0.005569076490980707 0.027480786012975388
0.1062942892872 0.005590121075158859 0.027587567316246724 0.9931011597140144 -0.06542699064699514 0.0015960805668892154 0.013273649941349545 -0.0013640845830630622 -0.008408954561295215
 0.9931011597140144 -0.06542699064699514 0.005591097542404619 0.02758760383430448 -0.0013653995698629507 -0.008408884538853918 0.001580048267381617 0.013275799880193872
 0.0015960805668892154 0.013273649941349545 -0.0013653995698629507 -0.008408884538853918 0.005589426553813926 0.02758904108545088 0.9931012178399057 -0.06542557712104849
 -0.0013640845830630622 -0.008408954561295215 0.001580048267381617 0.013275799880193872 0.9931012178399057 -0.06542557712104849 0.005591908856921711 0.02758896655903111
0.11254689453939999 0.005969272548658592 0.029350907047102488 0.992600387156925 -0.06939211571630208 0.0017604589556052357 0.014056590205411893 -0.001502981360812996 -0.008908258350129884
 0.992600387156925 -0.06939211571630208 0.0059703680578190605 0.029350953570914624 -0.0015044514239202647 -0.008908171542705932 0.0017424687693853576 0.01405905873127844
 0.0017604589556052357 0.014056590205411893 -0.0015044514239202647 -0.008908171542705932 0.0059684936806227926 0.029352471983990117 0.9926004519723518 -0.06939061953145993
 -0.001502981360812996 -0.008908258350129884 0.0017424687693853576 0.01405905873127844 0.9926004519723518 -0.06939061953145993 0.005971277259436757 0.02935239215339035
0.11879949979160001 0.006365073081572271 0.031128062381347125 0.9920780582578109 -0.07336963830865281 0.0019334827274846186 0.014839093859299768 -0.0016492210718405808 -0.009407362319737744
 0.9920780582578109 -0.07336963830865281 0.006366294713242331 0.03112812027536881 -0.0016508544252196004 -0.009407256741895903 0.0019134199423535571 0.014841911418444839
 0.0019334827274846186 0.014839093859299768 -0.0016508544252196004 -0.009407256741895903 0.0063642050451524655 0.031129719290884404 0.9920781301202017 -0.07336805952261827
 -0.0016492210718405808 -0.009407362319737744 0.0019134199423535571 0.014841911418444839 0.9920781301202017 -0.07336805952261827 0.006367307370410456 0.031129633982298233
0.1250521050438 0.006777780453369352 0.03291879393739447 0.9915339194791165 -0.07735938086931564 0.002115215028825919 0.015621038179275895 -0.00180286834832439 -0.009906146014926145
 0.9915339194791165 -0.07735938086931564 0.006779135350276199 0.03291886464597695 -0.0018046731399951465 -0.009906019590317143 0.002092964677101993 0.015624236743755092
 0.002115215028825919 0.015621038179275895 -0.0018046731399951465 -0.009906019590317143 0.006776818430780538 0.032920543675426184 0.9915339987452051 -0.07735771954033781
 -0.00180286834832439 -0.009906146014926145 0.002092964677101993 0.015624236743755092 0.9915339987452051 -0.07735771954033781 0.006780257029732002 0.03292045270018518
0.131304710296 0.007207650727110647 0.034722860679759444 0.9909677186185377 -0.08136115800534051 0.0023057170450953434 0.016402297957045453 -0.001963985828333186 -0.01040448690098358
 0.9909677186185377 -0.08136115800534051 0.007209146099219656 0.034722945727085563 -0.0019659701399600813 -0.010404337462488936 0.0022811639184323724 0.01640591104215023
 0.0023057170450953434 0.016402297957045453 -0.0019659701399600813 -0.010404337462488936 0.007206589904648365 0.03472470415282105 0.990967805644091 -0.08135941419286408
 -0.001963985828333186 -0.01040448690098358 0.0022811639184323724 0.01640591104215023 0.990967805644091 -0.08135941419286408 0.007210382365405543 0.034724607306074046
0.1375573155481 0.007553785209918711 0.036304148197569996 0.9904803919175603 -0.08513881012259185 0.0024803582202930917 0.01715874566691634 -0.002107977140251549 -0.010878250917852108
 0.9904803919175603 -0.08513881012259185 0.007555430053748084 0.036304247901412096 -0.0021101529334638185 -0.01087807840317231 0.002453451629977809 0.01716276670221803
 0.0024803582202930917 0.01715874566691634 -0.0021101529334638185 -0.01087807840317231 0.007552621360288511 0.036306086352757894 0.9904804870501381 -0.08513698390589289
 -0.002107977140251549 -0.010878250917852108 0.002453451629977809 0.01716276670221803 0.9904804870501381 -0.08513698390589289 0.00755678590475199 0.03630598219527815
0.1438099208003 0.007912008955558093 0.03787752847313596 0.9899760910439092 -0.08890732345367866 0.00266206183587764 0.01791240199445558 -0.0022577404194589912 -0.011349471897733313
 0.9899760910439092 -0.08890732345367866 0.00791381086815564 0.037877644165127004 -0.002260116379547173 -0.011349274186593405 0.002632697897190445 0.0179168614226953
 0.00266206183587764 0.01791240199445558 -0.002260116379547173 -0.011349274186593405 0.007910737377285886 0.03787956225628519 0.9899761946353994 -0.08890541489975991
 -0.0022577404194589912 -0.011349471897733313 0.002632697897190445 0.0179168614226953 0.9899761946353994 -0.08890541489975991 0.00791529176451955 0.03787945033726138
0.1500625260525 0.008282201734059722 0.039442882800089986 0.9894549399401297 -0.0926666175278704 0.002850769079715387 0.01866319865762759 -0.002413218681808059 -0.011818085354140908
 0.9894549399401297 -0.0926666175278704 0.008284168390744369 0.03944301584697915 -0.0024158034772831507 -0.011817860241244968 0.002818844426572602 0.01866812803642215
 0.002850769079715387 0.01866319865762759 -0.0024158034772831507 -0.011817860241244968 0.008280817736760206 0.039445013195475755 0.9894550523412875 -0.09266462670673022
 -0.002413218681808059 -0.011818085354140908 0.002818844426572602 0.01866812803642215 0.9894550523412875 -0.09266462670673022 0.00828577978479774 0.039444893027018584
0.15631513130469998 0.0086642425308635 0.041000096116039636 0.9889170631039763 -0.0964166119006075 0.003046420484779955 0.01941106845317658 -0.002574354277446028 -0.012284028116868408
