! Created with skrf 1.8.0 (http://scikit-rf.org).
# GHz S RI R 50.0 
!freq ReS11 ImS11 ReS12 ImS12 ReS13 ImS13
! ReS14 ImS14
! ReS21 ImS21 ReS22 ImS22 ReS23 ImS23
! ReS24 ImS24
! ReS31 ImS31 ReS32 ImS32 ReS33 ImS33
! ReS34 ImS34
! ReS41 ImS41 ReS42 ImS42 ReS43 ImS43
! ReS44 ImS44
!
0.0 0.00130924824839 0.0 0.9986907517516 0.0 5.028331914471e-05 0.0 -5.028331861356e-05 6.157930519060278e-21
 0.9986907517516 0.0 0.001309248248384 0.0 -5.028331861365e-05 6.1579305190713e-21 5.028331914831e-05 0.0
 5.028331914471e-05 0.0 -5.028331861365e-05 6.1579305190713e-21 0.001309248229914 0.0 0.9986907517331 0.0
 -5.028331861356e-05 6.157930519060278e-21 5.028331914831e-05 0.0 0.9986907517331 0.0 0.001309248229909 0.0
0.005 0.0014081075300205067 0.001068228618381443 0.9985657786690555 -0.0027433989350582064 7.053708908271686e-05 0.0005739693914654186 -6.850708986995622e-05 -0.00035688538737671603
 0.9985657786690555 -0.0027433989350582064 0.0014080899659922458 0.0010682388191566514 -6.850847597866737e-05 -0.000356886374025524 7.0643576917555e-05 0.0005739289152430918
 7.053708908271686e-05 0.0005739693914654186 -6.850847597866737e-05 -0.000356886374025524 0.0014081068753761677 0.0010681616950141226 0.998565778330013 -0.002743465996159043
 -6.850708986995622e-05 -0.00035688538737671603 7.0643576917555e-05 0.0005739289152430918 0.998565778330013 -0.002743465996159043 0.001408089946962333 0.0010681716243710936
0.006252605252188 0.0014338680028205058 0.0013395270428372213 0.9985330383526632 -0.003429947775336034 7.620839145127741e-05 0.0007177428138908188 -7.357447259320609e-05 -0.000446582917670884
 0.9985330383526632 -0.003429947775336034 0.001433840547533718 0.001339539988127952 -7.357663014797926e-05 -0.0004465841329809366 7.637477118559319e-05 0.0007176902881811921
 7.620839145127741e-05 0.0007177428138908188 -7.357663014797926e-05 -0.0004465841329809366 0.001433867058977125 0.0013394433895758222 0.9985330379018343 -0.0034300315964038586
 -7.357447259320609e-05 -0.000446582917670884 7.637477118559319e-05 0.0007176902881811921 0.9985330379018343 -0.0034300315964038586 0.0014338405964637842 0.001339456008257352
0.01250521050438 0.0015685022431505113 0.0027074877007827107 0.9983609404009594 -0.0068608765669303 0.00010812519972869002 0.0014358602392984727 -0.00010190824068230322 -0.0008954608897378341
 0.9983609404009594 -0.0068608765669303 0.001568392621597839 0.002707515541774232 -0.00010191675164237554 -0.0008954631245316266 0.00010878873740528035 0.0014357345707017445
 0.00010812519972869002 0.0014358602392984727 -0.00010191675164237554 -0.0008954631245316266 0.001568499029768807 0.0027073206056627886 0.9983609391468381 -0.006861043968161555
 -0.00010190824068230322 -0.0008954608897378341 0.00010878873740528035 0.0014357345707017445 0.9983609391468381 -0.006861043968161555 0.001568393357380364 0.0027073479181323494
0.01875781575657 0.0017134094618075338 0.004095289649191633 0.9981742692474418 -0.010301176443366686 0.00014610282388660274 0.002154880710071756 -0.00013536460644229603 -0.0013459829066288958
 0.9981742692474418 -0.010301176443366686 0.0017131631539293176 0.004095334461223808 -0.00013538359816918344 -0.0013459859302367323 0.000147593519953227 0.002154657725542165
 0.00014610282388660274 0.002154880710071756 -0.00013538359816918344 -0.0013459859302367323 0.001713402678610164 0.004095039192772578 0.9981742668469591 -0.010301427350030033
 -0.00013536460644229603 -0.0013459829066288958 0.000147593519953227 0.002154657725542165 0.9981742668469591 -0.010301427350030033 0.00171316521447056 0.004095083394351531
0.02501042100875 0.0018688424287030734 0.0055010201387952805 0.9979728298470694 -0.013752551279834064 0.00019021083880855154 0.002874865413356424 -0.00017402143691301044 -0.0017979614329836858
 0.9979728298470694 -0.013752551279834064 0.0018684050353547418 0.0055010841024733855 -0.00017405499188734167 -0.001797964975870217 0.00019285891845973645 0.0028745175309145585
 0.00019021083880855154 0.002874865413356424 -0.00017405499188734167 -0.001797964975870217 0.0018688307883741118 0.005500686405164415 0.9979728259560215 -0.0137528856482744
 -0.00017402143691301044 -0.0017979614329836858 0.00019285891845973645 0.0028745175309145585 0.9979728259560215 -0.0137528856482744 0.0018684090506966222 0.005500749793480194
0.03126302626094 0.002035043265113056 0.006923712836299344 0.9977564160116216 -0.017215751878023225 0.00024051936060375266 0.0035958076665290506 -0.00021795469970012775 -0.0022512731126669255
 0.9977564160116216 -0.017215751878023225 0.0020343604793323007 0.006923798233500744 -0.00021800686340086897 -0.0022512768658549715 0.00024465559196386127 0.0035953038771245477
 0.00024051936060375266 0.0035958076665290506 -0.00021800686340086897 -0.0022512768658549715 0.0020350254914399428 0.006923295899055944 0.9977564102828931 -0.01721616970970296
 -0.00021795469970012775 -0.0022512731126669255 0.00024465559196386127 0.0035953038771245477 0.9977564102828931 -0.01721616970970296 0.0020343670716672334 0.006923380870346306
0.037515631513130004 0.002212249034764114 0.008362751300803979 0.9975248161275401 -0.02069117243747029 0.0002970984557293915 0.004317674414881469 -0.0002672390546715727 -0.002705817270981297
 0.9975248161275401 -0.02069117243747029 0.0022112666232102546 0.00836286051248846 -0.00026731383956937955 -0.002705820885813037 0.00030305429944999434 0.004316980247490626
 0.0002970984557293915 0.004317674414881469 -0.00026731383956937955 -0.002705820885813037 0.002212223863389426 0.008362251266947798 0.9975248082119721 -0.020691673735237698
 -0.0002672390546715727 -0.002705817270981297 0.00030305429944999434 0.004316980247490626 0.9975248082119721 -0.020691673735237698 0.002211276409042254 0.008362360313954903
0.043768236765320004 0.0024006939138653542 0.00981768748539162 0.9972778154513051 -0.024179031995880177 0.00036001786836163874 0.005040418842269031 -0.0003219480770407204 -0.0031615032964803025
 0.9972778154513051 -0.024179031995880177 0.0023993577026559854 0.00981782299008189 -0.0003220494649711543 -0.0031615063844709296 0.00036812555519532143 0.005039496323785682
 0.00036001786836163874 0.005040418842269031 -0.0003220494649711543 -0.0031615063844709296 0.002400660094027308 0.009817104473824763 0.9972778049986841 -0.024179616785553422
 -0.0003219480770407204 -0.0031615032964803025 0.00036812555519532143 0.005039496323785682 0.9972778049986841 -0.024179616785553422 0.002399371295341401 0.009817240184449714
0.050020842017509996 0.0026006102101728515 0.011288166700708958 0.9970151972531011 -0.0276794494056598 0.0004293468624894352 0.005763985576785418 -0.0003821543470651964 -0.0036182454264902858
 0.9970151972531011 -0.0276794494056598 0.0025988660729682786 0.0112883310734157 -0.0003822862907217156 -0.003618247559239392 0.0004399394329446537 0.005762793189727266
 0.0004293468624894352 0.005763985576785418 -0.0003822862907217156 -0.003618247559239392 0.0026005665029627464 0.01128750084748186 0.9970151839108259 -0.027680117731015596
 -0.0003821543470651964 -0.0036182454264902858 0.0004399394329446537 0.005762793189727266 0.9970151839108259 -0.027680117731015596 0.0025988840818023653 0.011287665903670594
0.055454545454549996 0.002783839132879554 0.012578447965999856 0.9967741214127587 -0.03073166094490483 0.0004948545729080856 0.006393407270291631 -0.0004389955055197657 -0.004015960997041076
 0.9967741214127587 -0.03073166094490483 0.002781696566972602 0.01257863959150457 -0.00043915719119619833 -0.004015961920674089 0.0005078776938001857 0.006391943856626614
 0.0004948545729080856 0.006393407270291631 -0.00043915719119619833 -0.004015961920674089 0.002783785836821883 0.012577710251902775 0.996774105270956 -0.030732401907669123
 -0.0004389955055197657 -0.004015960997041076 0.0005078776938001857 0.006391943856626614 0.996774105270956 -0.030732401907669123 0.0027817189064234474 0.012577903060856127
0.056273447269699996 0.002812228891966215 0.012773890794636 0.9967367434734478 -0.031192480094237227 0.0005051541094283571 0.006488313252178897 -0.0004479294853908875 -0.00407596017742208
 0.9967367434734478 -0.031192480094237227 0.00281002273884143 0.0127740867061378 -0.00044809590929107356 -0.0040759608865253115 0.0005185654304165282 0.0064868058913135134
 0.0005051541094283571 0.006488313252178897 -0.00044809590929107356 -0.0040759608865253115 0.0028121740706686816 0.012773142261963586 0.9967367268860154 -0.031193232008127802
 -0.0004479294853908875 -0.00407596017742208 0.0005185654304165282 0.0064868058913135134 0.9967367268860154 -0.031193232008127802 0.0028100457702601687 0.012773339439009972
0.06252605252188 0.003035779884021806 0.014274597911863047 0.9964422351484638 -0.034718136245408766 0.0005875076034499363 0.007213335895900196 -0.0005193441547302162 -0.004534564949655658
 0.9964422351484638 -0.034718136245408766 0.003033057651614598 0.014274828128180433 -0.0005195489559062185 -0.004534563726643937 0.0006040723701823461 0.0072114648243697945
 0.0005875076034499363 0.007213335895900196 -0.0005195489559062185 -0.004534563726643937 0.003035712734477313 0.01427376688043741 0.9964422149576365 -0.03471897181762754
 -0.0005193441547302162 -0.004534564949655658 0.0006040723701823461 0.0072114648243697945 0.9964422149576365 -0.03471897181762754 0.0030330863099523524 0.014273999046431216
0.06877865777407 0.0032714922345225468 0.015790050418949052 0.9961314527079789 -0.038256398816395955 0.0006764745880540242 0.007938983773253793 -0.0005964680476048066 -0.004993977177929424
 0.9961314527079789 -0.038256398816395955 0.003268199876138028 0.015790317801107734 -0.0005967150959908756 -0.004993973474205988 0.0006965283152378597 0.007936696578476276
 0.0006764745880540242 0.007938983773253793 -0.0005967150959908756 -0.004993973474205988 0.003271411554437735 0.015789137095417387 0.9961314285515958 -0.03825731812637972
 -0.0005964680476048066 -0.004993977177929424 0.0006965283152378597 0.007936696578476276 0.9961314285515958 -0.03825731812637972 0.003268234763828155 0.01578940721101018
0.07503126302626001 0.0035195942057456497 0.017320027253175076 0.9958041762001122 -0.041807225132941425 0.0007721214912368217 0.008665183906842188 -0.0006793698622453744 -0.005454113808281076
 0.9958041762001122 -0.041807225132941425 0.0035156776819120585 0.01732033475719924 -0.0006796630009674626 -0.005454107035066578 0.0007960004965547797 0.008662424456388079
 0.0007721214912368217 0.008665183906842188 -0.0006796630009674626 -0.005454107035066578 0.003519498805451352 0.017319031865181845 0.9958041477121123 -0.04180822827486691
 -0.0006793698622453744 -0.005454113808281076 0.0007960004965547797 0.008662424456388079 0.9958041477121123 -0.04180822827486691 0.00351571940073113 0.0173193429835379
0.08128386827845 0.0037803133191551897 0.018864318826960276 0.9954601854724938 -0.04537055393079298 0.0008745138653998079 0.009391860431872739 -0.0007681172718033531 -0.005914890941129968
 0.9954601854724938 -0.04537055393079298 0.0037757185885653383 0.018864669504114043 -0.000768460317333196 -0.005914880469425976 0.0009025552469976708 0.009388568829411885
 0.0008745138653998079 0.009391860431872739 -0.000768460317333196 -0.005914880469425976 0.0037802020215822606 0.018863241625409435 0.9954601522824791 -0.045371641011462106
 -0.0007681172718033531 -0.005914890941129968 0.0009025552469976708 0.009388568829411885 0.9954601522824791 -0.045371641011462106 0.0037757677400391616 0.018863596892344073
0.08753647353064001 0.004053876367474753 0.020422723502703542 0.995099260322328 -0.04894630882882435 0.0009837163295656104 0.010118934837282871 -0.0008627768894439016 -0.006376223590670678
 0.995099260322328 -0.04894630882882435 0.0040485493774953425 0.020423120499991947 -0.0008631736316232182 -0.006376208751213158 0.0010162579388214156 0.01011504737873901
 0.0009837163295656104 0.010118934837282871 -0.0008631736316232182 -0.006376208751213158 0.004053748008262902 0.02042156476218646 0.9950992220555722 -0.04894747996739307
 -0.0008627768894439016 -0.006376223590670678 0.0010162579388214156 0.01011504737873901 0.9950992220555722 -0.04894747996739307 0.004048606563842181 0.020421967416667717
0.09378907878283 0.004340509406482697 0.021995045076334464 0.9947211806293377 -0.052534400795815915 0.0010997925144565076 0.01084632614002677 -0.0009634142291811251 -0.006838025513347568
 0.9947211806293377 -0.052534400795815915 0.0043343960841208335 0.021995491637225268 -0.0009638684312105529 -0.006838005596579342 0.0011371729244700729 0.010841775269947137
 0.0010997925144565076 0.01084632614002677 -0.0009638684312105529 -0.006838005596579342 0.004340362834321233 0.021993805095868114 0.9947211369062173 -0.052535656123197584
 -0.0009634142291811251 -0.006838025513347568 0.0011371729244700729 0.010841775269947137 0.9947211369062173 -0.052535656123197584 0.004334461909062297 0.02199425847059587
0.100041684035 0.0046404377311195805 0.023581090925053037 0.994325726474791 -0.05613472995560873 0.00122280500792099 0.011573951013412983 -0.0010700936646453078 -0.0073002090845918684
 0.994325726474791 -0.05613472995560873 0.004633483973958609 0.02358159039045232 -0.001070609063042196 -0.007300183340633955 0.0012653634790434096 0.01156866528172643
 0.00122280500792099 0.011573951013412983 -0.001070609063042196 -0.007300183340633955 0.004640271807401355 0.02357977002917943 0.9943256769094504 -0.056136069613406926
 -0.0010700936646453078 -0.0073002090845918684 0.0012653634790434096 0.01156866528172643 0.9943256769094504 -0.056136069613406926 0.0046335590426264985 0.023580277551561106
0.1059090909091 0.004934180560281795 0.025081739155990695 0.9939386371832188 -0.059524289286903426 0.0013446024726454476 0.01225688601666602 -0.001175752524382342 -0.00773418710384287
 0.9939386371832188 -0.059524289286903426 0.004926388904241457 0.025082291393114412 -0.0011763287234576034 -0.007734155173746954 0.0013923291375388931 0.012250842205244732
 0.0013446024726454476 0.01225688601666602 -0.0011763287234576034 -0.007734155173746954 0.004933995453705206 0.025080342643570813 0.9939385817802071 -0.059525708222246954
 -0.001175752524382342 -0.00773418710384287 0.0013923291375388931 0.012250842205244732 0.9939385817802071 -0.059525708222246954 0.004926473200475291 0.025080904180329888
0.1062942892872 0.004953885839447671 0.025180670620956625 0.9939126782498602 -0.05974718692868257 0.001352815301582669 0.012301723886399689 -0.0011828783857756324 -0.007762685207033809
 0.9939126782498602 -0.05974718692868257 0.004946037506272971 0.025181226430505643 -0.0011834586901821559 -0.007762652845668943 0.0014008917437447446 0.012295627905467423
 0.001352815301582669 0.012301723886399689 -0.0011834586901821559 -0.007762652845668943 0.004953699439047252 0.02517926915614871 0.9939126224514089 -0.05974861107297053
 -0.0011828783857756324 -0.007762685207033809 0.0014008917437447446 0.012295627905467423 0.9939126224514089 -0.05974861107297053 0.004946122427025364 0.02517983434944359
0.11254689453939999 0.005281077389573033 0.026793594861819876 0.9934818167610453 -0.06337165385959871 0.00148988373795778 0.01302955702064639 -0.0013018303536869403 -0.008225363243400612
 0.9934818167610453 -0.06337165385959871 0.005272280291166849 0.026794210555401526 -0.0013024792467498632 -0.008225323434062567 0.0015438186703720224 0.013022571422799547
 0.00148988373795778 0.01302955702064639 -0.0013024792467498632 -0.008225323434062567 0.0052808694007377924 0.02679211319891172 0.9934817543317701 -0.06337316265855947
 -0.0013018303536869403 -0.008225363243400612 0.0015438186703720224 0.013022571422799547 0.9934817543317701 -0.06337316265855947 0.0052723756756126346 0.026792739683642725
0.11879949979160001 0.005622235148108809 0.028419674637289512 0.9930329233270516 -0.06700800521163494 0.0016340694575254673 0.013757360571974206 -0.0014270102545026373 -0.008688150967626374
 0.9930329233270516 -0.06700800521163494 0.005612435037963175 0.028420353856878317 -0.0014277313916436175 -0.008688102839399234 0.0016942039663183845 0.013749401967473186
 0.0016340694575254673 0.013757360571974206 -0.0014277313916436175 -0.008688102839399234 0.005622004472707629 0.02841811317325082 0.9930328538629316 -0.06700959884384693
 -0.0014270102545026373 -0.008688150967626374 0.0016942039663183845 0.013749401967473186 0.9930328538629316 -0.06700959884384693 0.005612541501950552 0.028418804668894702
0.1250521050438 0.0059775809344434945 0.030058720575408055 0.9925657798753065 -0.07065610838407278 0.0017854303463230344 0.014485042643276595 -0.0015584774518715074 -0.009150954527077553
 0.9925657798753065 -0.07065610838407278 0.005966723499483848 0.030059467067112645 -0.0015592744610817724 -0.00915089716869421 0.0018521060398185654 0.014476023578757649
 0.0017854303463230344 0.014485042643276595 -0.0015592744610817724 -0.00915089716869421 0.0059773264882738006 0.030057079730576978 0.9925657029649338 -0.07065778704128829
 -0.0015584774518715074 -0.009150954527077553 0.0018521060398185654 0.014476023578757649 0.9925657029649338 -0.07065778704128829 0.005966841663768357 0.030057840057596923
0.131304710296 0.006347335559850048 0.03171054241082794 0.9920801690342915 -0.0743158242107259 0.0019440229833842515 0.015212509327976737 -0.0016962899387747126 -0.009613678416909601
 0.9920801690342915 -0.0743158242107259 0.006335366410636121 0.031711360027399695 -0.0016971664203197312 -0.00961361087677192 0.0020175819453707817 0.015202338245531263
 0.0019440229833842515 0.015212509327976737 -0.0016971664203197312 -0.00961361087677192 0.006347056272786794 0.031708822630643146 0.9920800842590707 -0.07431758809626896
 -0.0016962899387747126 -0.009613678416909601 0.0020175819453707817 0.015202338245531263 0.9920800842590707 -0.07431758809626896 0.00633549690178925 0.03170965571272894
0.1375573155481 0.0066417073071021486 0.033158274661264746 0.9916659145715175 -0.07777025171853368 0.002087979932282584 0.01591707074618311 -0.0018184969574368073 -0.010053701816637554
 0.9916659145715175 -0.07777025171853368 0.00662856707415635 0.03315914887806955 -0.001819457974389119 -0.010053624121119705 0.0021685917137315817 0.015905771416374826
 0.002087979932282584 0.01591707074618311 -0.001819457974389119 -0.010053624121119705 0.006641401162730838 0.0331564768280511 0.9916658215740888 -0.07777210094646991
 -0.0018184969574368073 -0.010053701816637554 0.0021685917137315817 0.015905771416374826 0.9916658215740888 -0.07777210094646991 0.006628711355130455 0.03315736720045324
0.1438099208003 0.006946246392933245 0.0345992375635837 0.9912374464165982 -0.0812168137037273 0.002237746165625978 0.016619424177137358 -0.0019456143080570025 -0.010491662240561944
 0.9912374464165982 -0.0812168137037273 0.006931879786561137 0.03460017106212742 -0.0019466636846179571 -0.010491573470457935 0.002325722286271039 0.016606913794617647
 0.002237746165625978 0.016619424177137358 -0.0019466636846179571 -0.010491573470457935 0.006945912169104521 0.03459736219867063 0.991237344779914 -0.08121874847199785
 -0.0019456143080570025 -0.010491662240561944 0.002325722286271039 0.016606913794617647 0.991237344779914 -0.08121874847199785 0.006932038644128073 0.034598312504853526
0.1500625260525 0.00726085720822402 0.03603333666197762 0.9907948634537578 -0.08465545143825207 0.0023932769384246893 0.01731951902741717 -0.002077597635412723 -0.010927509301991363
 0.9907948634537578 -0.08465545143825207 0.00724520882774098 0.03603433228559134 -0.002078739186963844 -0.010927408501750786 0.0024889273608991085 0.017305711790550356
 0.0023932769384246893 0.01731951902741717 -0.002078739186963844 -0.010927408501750786 0.007260493684956254 0.036031384307484725 0.9907947527546704 -0.08465747195475921
 -0.002077597635412723 -0.010927509301991363 0.0024889273608991085 0.017305711790550356 0.9907947527546704 -0.08465747195475921 0.007245383064497212 0.036032397347113575
0.15631513130469998 0.007585443597940908 0.03746048049017088 0.9903382649257324 -0.08808610588965081 0.0025545270617089114 0.018017305441977993 -0.0022144021131083108 -0.011361193593156406
