! Created with skrf 1.8.0 (http://scikit-rf.org).
# GHz S RI R 50.0 
!freq ReS11 ImS11 ReS12 ImS12 ReS13 ImS13
! ReS14 ImS14
! ReS21 ImS21 ReS22 ImS22 ReS23 ImS23
! ReS24 ImS24
! ReS31 ImS31 ReS32 ImS32 ReS33 ImS33
! ReS34 ImS34
! ReS41 ImS41 ReS42 ImS42 ReS43 ImS43
! ReS44 ImS44
!
0.0 0.001477612242649 0.0 0.9985223877464 0.0 5.683496488607e-05 0.0 -5.683496485225e-05 6.960275778596029e-21
 0.9985223877464 0.0 0.00147761224263 0.0 -5.68349648516e-05 6.960275778516426e-21 5.683496488436e-05 0.0
 5.683496488607e-05 0.0 -5.68349648516e-05 6.960275778516426e-21 0.001477612238899 0.0 0.9985223877426 0.0
 -5.683496485225e-05 6.960275778596029e-21 5.683496488436e-05 0.0 0.9985223877426 0.0 0.001477612238913 0.0
0.005 0.0015895939821886657 0.001209844535816193 0.9983807544803793 -0.0030954026736084396 7.935848547903086e-05 0.0006206785650835268 -7.714126758655626e-05 -0.0003905870501775155
 0.9983807544803793 -0.0030954026736084396 0.0015895991019564612 0.0012098414965214172 -7.714255460716742e-05 -0.0003905879563234733 7.933957951945228e-05 0.0006206859867753039
 7.935848547903086e-05 0.0006206785650835268 -7.714255460716742e-05 -0.0003905879563234733 0.0015895940967741518 0.0012099116737088961 0.998380754838482 -0.0030953356168903177
 -7.714126758655626e-05 -0.0003905870501775155 7.933957951945228e-05 0.0006206859867753039 0.998380754838482 -0.0030953356168903177 0.0015895996952852997 0.0012099084641555313
0.006252605252188 0.0016189081681566946 0.0015170684121246362 0.9983434544212415 -0.003870018572469299 8.57555852151595e-05 0.0007761553490951563 -8.28464205653358e-05 -0.0004887406725184489
 0.9983434544212415 -0.003870018572469299 0.0016189161711294142 0.0015170644801723765 -8.284842394532427e-05 -0.0004887417881410146 8.572604901880322e-05 0.0007761649466639987
 8.57555852151595e-05 0.0007761553490951563 -8.284842394532427e-05 -0.0004887417881410146 0.0016189082641419397 0.001517152329669159 0.9983434548974884 -0.003869934745731489
 -8.28464205653358e-05 -0.0004887406725184489 8.572604901880322e-05 0.0007761649466639987 0.9983434548974884 -0.003869934745731489 0.0016189170144827979 0.0015171481986071015
0.01250521050438 0.001772902832133014 0.0030659643341163045 0.9981462624609077 -0.007740890774864447 0.00012224239609526886 0.001552710226673569 -0.00011506597899408604 -0.0009798800650732938
 0.9981462624609077 -0.007740890774864447 0.0017729347903865616 0.0030659551162926183 -0.00011507388234882032 -0.0009798821087364808 0.00012212469374307426 0.0015527328972488501
 0.00012224239609526886 0.001552710226673569 -0.00011507388234882032 -0.0009798821087364808 0.00177290266668797 0.0030661317936037137 0.998146263809104 -0.007740723364929202
 -0.00011506597899408604 -0.0009798800650732938 0.00012212469374307426 0.0015527328972488501 0.998146263809104 -0.007740723364929202 0.0017729375929638447 0.0030661223150349713
0.01875781575657 0.0019399215951654634 0.004636972673023773 0.9979305744681767 -0.011622048054676998 0.00016637855144781573 0.0023301848485449274 -0.0001535903594835465 -0.0014727257549435495
 0.9979305744681767 -0.011622048054676998 0.0019399934152875386 0.004636956709882705 -0.00015360799590167463 -0.0014727285012954923 0.00016611433716355142 0.002330224774544274
 0.00016637855144781573 0.0023301848485449274 -0.00015360799590167463 -0.0014727285012954923 0.0019399208125176635 0.004637223430278307 0.9979305770787543 -0.011621797110751987
 -0.0001535903594835465 -0.0014727257549435495 0.00016611433716355142 0.002330224774544274 0.9979305770787543 -0.011621797110751987 0.001939999268620901 0.004637207281091407
0.02501042100875 0.002120280800014761 0.006227908572762976 0.9976961439661699 -0.015515382246413054 0.00021824829683343635 0.0031086168711187403 -0.00019851336738962172 -0.0019670628204767073
 0.9976961439661699 -0.015515382246413054 0.0021204083585038376 0.006227884300100866 -0.00019854452806175577 -0.0019670660027215287 0.00021777931643032948 0.00310867890321731
 0.00021824829683343635 0.0031086168711187403 -0.00019854452806175577 -0.0019670660027215287 0.0021202790522990983 0.006228242358281754 0.9976961482343708 -0.015515047779199216
 -0.00019851336738962172 -0.0019670628204767073 0.00021777931643032948 0.00310867890321731 0.9976961482343708 -0.015515047779199216 0.0021204183407439706 0.006228218110938718
0.03126302626094 0.002314283684820956 0.007837653270619131 0.9974427115130281 -0.01942170968300041 0.0002779363625782447 0.0038879733238152284 -0.0002499263078879548 -0.002462741898439792
 0.9974427115130281 -0.01942170968300041 0.002314482833851313 0.007837619018658532 -0.00024997474930850834 -0.0024627452078111603 0.000277204394517318 0.0038880629809331275
 0.0002779363625782447 0.0038879733238152284 -0.00024997474930850834 -0.0024627452078111603 0.002314280627833078 0.007838069791487792 0.9974427178368889 -0.019421291662267175
 -0.0002499263078879548 -0.002462741898439792 0.000277204394517318 0.0038880629809331275 0.9974427178368889 -0.019421291662267175 0.002314498006926205 0.0078380359136749
0.037515631513130004 0.0025222270157873785 0.00946548155511561 0.9971700115248029 -0.02334144367762516 0.00034552716451193266 0.004668193389617453 -0.00030791863863310887 -0.0029596364003680975
 0.9971700115248029 -0.02334144367762516 0.002522513586149027 0.009465435547721779 -0.00030798808620250047 -0.0029596394859111434 0.00034447399408462075 0.00466831686286564
 0.00034552716451193266 0.004668193389617453 -0.00030798808620250047 -0.0029596394859111434 0.0025222223073908044 0.009465980479617291 0.9971700203053735 -0.023340942047215128
 -0.00030791863863310887 -0.0029596364003680975 0.00034447399408462075 0.00466831686286564 0.9971700203053735 -0.023340942047215128 0.002522534995321971 0.00946593533366463
0.043768236765320004 0.0027444036563838555 0.01111085709157868 0.9968777750368657 -0.02727479912961142 0.0004211044282683595 0.005449201423669171 -0.00037257820605546255 -0.0034576294907885086
 0.9968777750368657 -0.02727479912961142 0.0027447934593719295 0.011110797445597112 -0.00037267235615387055 -0.003457631959249738 0.0004196718357934938 0.005449365581579759
 0.0004211044282683595 0.005449201423669171 -0.00037267235615387055 -0.003457631959249738 0.0027443969563426974 0.011111438051071263 0.9968777866802635 -0.027274213805280882
 -0.00037257820605546255 -0.0034576294907885086 0.0004196718357934938 0.005449365581579759 0.9968777866802635 -0.027274213805280882 0.0027448221340105514 0.011111379893329044
0.050020842017509996 0.002981103761890204 0.012773347834876398 0.9965657310929926 -0.0312218770412994 0.0005047509643920546 0.006230912329260408 -0.00044399133210726375 -0.0039566087097105416
 0.9965657310929926 -0.0312218770412994 0.0029816125904806533 0.012773272559250459 -0.0004441138533917628 -0.003956610125427511 0.0005028807207867641 0.006231124723450091
 0.0005047509643920546 0.006230912329260408 -0.0004441138533917628 -0.003956610125427511 0.0029810947300850607 0.012774010420686188 0.9965657460103263 -0.031221207913391662
 -0.00044399133210726375 -0.0039566087097105416 0.0005028807207867641 0.006231124723450091 0.9965657460103263 -0.031221207913391662 0.002981649542902353 0.012773937400929488
0.055454545454549996 0.0031988219264564672 0.014231714397435707 0.996278258040937 -0.03466317519494337 0.0005840590841260329 0.0069107423633692775 -0.0005116021300348734 -0.004390951627813289
 0.996278258040937 -0.03466317519494337 0.0031994470040627083 0.014231623837895427 -0.0005117522651827004 -0.004390951741873477 0.0005817612123231283 0.006911003344095291
 0.0005840590841260329 0.0069107423633692775 -0.0005117522651827004 -0.004390951741873477 0.003198810591312774 0.014232447554481756 0.9962782761419464 -0.03466243313183837
 -0.0005116021300348734 -0.004390951627813289 0.0005817612123231283 0.006911003344095291 0.9962782761419464 -0.03466243313183837 0.0031994919590128024 0.014232360033212701
0.056273447269699996 0.0032326153953320656 0.014452584512266052 0.9962336075599204 -0.03518270596522429 0.0005965485088049255 0.00701323418728049 -0.0005222428350187963 -0.0044564633440381625
 0.9962336075599204 -0.03518270596522429 0.0032332590249978363 0.014452491507374963 -0.0005223973691919678 -0.004456463228884962 0.0005941823760938158 0.007013503058287893
 0.0005965485088049255 0.00701323418728049 -0.0005223973691919678 -0.004456463228884962 0.0032326036904148795 0.014453328273454096 0.9962336261680719 -0.035181952900786156
 -0.0005222428350187963 -0.0044564633440381625 0.0005941823760938158 0.007013503058287893 0.9962336261680719 -0.035181952900786156 0.003233305250168332 0.014453238434101559
0.06252605252188 0.003499224860720799 0.016148237796352383 0.9958811316620805 -0.039157264763625174 0.0006965775967141236 0.007796069713244233 -0.0006074160159576525 -0.004957082974374599
 0.9958811316620805 -0.039157264763625174 0.003500019050182096 0.016148124853133602 -0.0006076061783156481 -0.0049570808076881585 0.0006936573310437986 0.007796403996444191
 0.0006965775967141236 0.007796069713244233 -0.0006076061783156481 -0.0049570808076881585 0.0034992101400951442 0.016149062241191857 0.9958811543854965 -0.03915642760455417
 -0.0006074160159576525 -0.004957082974374599 0.0006936573310437986 0.007796403996444191 0.9958811543854965 -0.03915642760455417 0.003500075525913514 0.0161489535166741
0.06877865777407 0.003781216883810963 0.017860004693460975 0.9955080303674377 -0.04314549615500577 0.0008049174541981446 0.008579317116240652 -0.0006995926264402107 -0.005458356623181492
 0.9955080303674377 -0.04314549615500577 0.003782177375632167 0.017859869492610553 -0.0006998220061435424 -0.005458351841721779 0.0008013848112704746 0.008579726447699896
 0.0008049174541981446 0.008579317116240652 -0.0006998220061435424 -0.005458351841721779 0.0037811988012123824 0.017860909285373514 0.9955080576377041 -0.04314457472201896
 -0.0006995926264402107 -0.005458356623181492 0.0008013848112704746 0.008579726447699896 0.9955080576377041 -0.04314457472201896 0.0037822450609850075 0.01786077950127013
0.07503126302626001 0.00407887469795081 0.01958759992268822 0.9951140306818979 -0.047147315273671116 0.0009216459007063957 0.00936287065368219 -0.0007988528236788745 -0.005960172210648385
 0.9951140306818979 -0.047147315273671116 0.004080017218666613 0.019587440033851565 -0.0007991249838872247 -0.005960164208550069 0.0009174426426437632 0.009363365375948599
 0.0009216459007063957 0.00936287065368219 -0.0007991249838872247 -0.005960164208550069 0.004078852902752811 0.01958858408222904 0.9951140629390259 -0.04714630936412921
 -0.0007988528236788745 -0.005960172210648385 0.0009174426426437632 0.009363365375948599 0.9951140629390259 -0.04714630936412921 0.004080097053931663 0.01958843095451093
0.08128386827845 0.0043924800750906635 0.02133075016447053 0.9946988598924632 -0.051162615363420275 0.0010468392582400593 0.010146620998154398 -0.0009052751177651686 -0.006462416202184235
 0.9946988598924632 -0.051162615363420275 0.004393820335855448 0.021330563045300167 -0.0009055935957027433 -0.006462404330914791 0.0010419071617770472 0.010147212165931748
 0.0010468392582400593 0.010146620998154398 -0.0009055935957027433 -0.006462404330914791 0.0043924542117689345 0.021331813269525175 0.9946988975861284 -0.05116152475098394
 -0.0009052751177651686 -0.006462416202184235 0.0010419071617770472 0.010147212165931748 0.9946988975861284 -0.05116152475098394 0.004393913242227764 0.021331634403696287
0.08753647353064001 0.004722313318807511 0.023089190097162173 0.9942622457749063 -0.0551912716872008 0.0011805722642820042 0.010930455500063408 -0.0010189363140290844 -0.006964973363934823
 0.9942622457749063 -0.0551912716872008 0.004723867015214528 0.023088973092471307 -0.0010193046208578737 -0.006964956932278759 0.0011748531297983784 0.01093115488574165
 0.0011805722642820042 0.010930455500063408 -0.0010193046208578737 -0.006964956932278759 0.004722283024014031 0.02309033148082477 0.9942622893638565 -0.055190096123967254
 -0.0010189363140290844 -0.006964973363934823 0.0011748531297983784 0.01093115488574165 0.9942622893638565 -0.055190096123967254 0.004723973893057705 0.023090124371010885
0.09378907878283 0.005068653229037925 0.024862659557924868 0.9938039167775695 -0.059233144316926875 0.0013229179881778471 0.011714258373263519 -0.0011399114504231287 -0.007467726599369853
 0.9938039167775695 -0.059233144316926875 0.00507043604177617 0.02486240989870365 -0.0011403330711952941 -0.007467704873401626 0.0013163536497258746 0.011715078472307999
 0.0013229179881778471 0.011714258373263519 -0.0011403330711952941 -0.007467704873401626 0.005068618132189077 0.024863878509771054 0.9938039667320036 -0.05923188353209154
 -0.0011399114504231287 -0.007467726599369853 0.0013163536497258746 0.011715078472307999 0.9938039667320036 -0.05923188353209154 0.005070557771015028 0.024863640537772007
0.100041684035 0.005431777050589696 0.026650901460234813 0.9933236021907066 -0.06328808017112894 0.0014739477485597055 0.012497910839411517 -0.0012682737330342191 -0.007970556831217068
 0.9933236021907066 -0.06328808017112894 0.00543380464521081 0.026650616262656402 -0.001268752126452672 -0.007970529034288031 0.0014664800844672375 0.012498864875562399
 0.0014739477485597055 0.012497910839411517 -0.001268752126452672 -0.007970529034288031 0.005431736771596732 0.026652197226498444 0.9933236589921057 -0.06328673387083737
 -0.0012682737330342191 -0.007970556831217068 0.0014664800844672375 0.012498864875562399 0.9933236589921057 -0.06328673387083737 0.005433942084212639 0.026651925660819024
0.1059090909091 0.005788040569748 0.028342184519233524 0.9928526419743954 -0.06710494166967008 0.0016236331182684744 0.01323304043611236 -0.0013955101936770826 -0.008442371815421712
 0.9928526419743954 -0.06710494166967008 0.005790312100450926 0.02834186324675241 -0.0013960449841865024 -0.008442337577130424 0.0016152649671525832 0.01323413283802155
 0.0016236331182684744 0.01323304043611236 -0.0013960449841865024 -0.008442337577130424 0.005787995072871463 0.028343551641227066 0.9928527056501026 -0.06710351483679908
 -0.0013955101936770826 -0.008442371815421712 0.0016152649671525832 0.01323413283802155 0.9928527056501026 -0.06710351483679908 0.005790465042362788 0.028343245965335814
0.1062942892872 0.005811960405394929 0.028453660235091032 0.9928210323037957 -0.06735591453363396 0.0016337310326430506 0.013281291241590039 -0.0014040944684740363 -0.00847334291840753
 0.9928210323037957 -0.06735591453363396 0.005814248432503798 0.02845333649953918 -0.0014046330666779017 -0.008473308231148063 0.0016253019767883178 0.013282393171872298
 0.0016337310326430506 0.013281291241590039 -0.0014046330666779017 -0.008473308231148063 0.005811914553689639 0.02845503201660096 0.9928210964462069 -0.06735448240315509
 -0.0014040944684740363 -0.00847334291840753 0.0016253019767883178 0.013282393171872298 0.9928210964462069 -0.06735448240315509 0.005814402417408526 0.028454724011392936
0.11254689453939999 0.006209477215417627 0.03027068063304158 0.9922959385556336 -0.07143647221637082 0.0018023354159882475 0.014064275137896499 -0.001547442995004716 -0.008975961597356532
 0.9922959385556336 -0.07143647221637082 0.006212041310732476 0.03027031524303895 -0.001548045203309546 -0.008975919157679386 0.001792886969492913 0.01406553965742121
 0.0018023354159882475 0.014064275137896499 -0.001548045203309546 -0.008975919157679386 0.0062094253888650775 0.030272127587261527 0.9922960105464086 -0.0714349539181483
 -0.001547442995004716 -0.008975961597356532 0.001792886969492913 0.01406553965742121 0.9922960105464086 -0.0714349539181483 0.00621221265487312 0.0302717801812704
0.11879949979160001 0.00662459961665702 0.03210170679268191 0.9917480536788663 -0.07552956846077041 0.001979826483146541 0.014846735374297178 -0.001698386611798903 -0.009478287448404385
 0.9917480536788663 -0.07552956846077041 0.006627455401144167 0.032101296513765205 -0.001699055808385345 -0.009478236351523589 0.00196930072678455 0.014848177920907812
 0.001979826483146541 0.014846735374297178 -0.001699055808385345 -0.009478236351523589 0.006624541399970859 0.032103228034137066 0.991748134039511 -0.0755279636342538
 -0.001698386611798903 -0.009478287448404385 0.00196930072678455 0.014848177920907812 0.991748134039511 -0.0755279636342538 0.006627644894131537 0.03210283814949438
0.1250521050438 0.00705759786685662 0.0339464815101461 0.9911771118404363 -0.07963500964343305 0.002166267748474269 0.015628542155964636 -0.0018569905075269645 -0.009980192868412837
 0.9911771118404363 -0.07963500964343305 0.007060760946498816 0.033946022988763105 -0.00185773004313723 -0.009980132166862084 0.0021546068553783206 0.01563017891455603
 0.002166267748474269 0.015628542155964636 -0.00185773004313723 -0.009980132166862084 0.007057532830595878 0.03394807610817786 0.9911772011073615 -0.07963331790749459
 -0.0018569905075269645 -0.009980192868412837 0.0021546068553783206 0.01563017891455603 0.9911772011073615 -0.07963331790749459 0.007060969353546792 0.033947640549289
0.131304710296 0.007508740247055586 0.03580474564792417 0.9905828487787727 -0.08375259384788747 0.002361720577341894 0.01640956310694368 -0.002023317687847442 -0.010481548059466066
 0.9905828487787727 -0.08375259384788747 0.007512226212984256 0.03580423541025679 -0.00202413088539379 -0.01048147676315939 0.002348866826206681 0.01641141101363238
 0.002361720577341894 0.01640956310694368 -0.00202413088539379 -0.01048147676315939 0.007508667946139912 0.03580641262834177 0.9905829475044152 -0.08375081479952394
 -0.002023317687847442 -0.010481548059466066 0.002348866826206681 0.01641141101363238 0.9905829475044152 -0.08375081479952394 0.00751245427424087 0.035805928080582666
0.1375573155481 0.007873240487901707 0.03743414472926965 0.9900700926402463 -0.08763992181697566 0.0025411334034486635 0.01716536798950624 -0.0021723303395958793 -0.01095792783973328
 0.9900700926402463 -0.08763992181697566 0.007877065009336943 0.03743359242873177 -0.0021732218724570124 -0.010957845879382814 0.002527049714190652 0.01716742417875325
 0.0025411334034486635 0.01716536798950624 -0.0021732218724570124 -0.010957845879382814 0.007873159601380523 0.03743588377721965 0.9900702012636436 -0.08763805520858366
 -0.0021723303395958793 -0.01095792783973328 0.002527049714190652 0.01716742417875325 0.9900702012636436 -0.08763805520858366 0.007877314536942799 0.037435358970054296
0.1438099208003 0.008250519680275806 0.03905524270613617 0.9895393958673885 -0.09151767254000985 0.002727792196256173 0.0179182581396308 -0.0023273063243737283 -0.011431636734271547
 0.9895393958673885 -0.09151767254000985 0.008254698308004717 0.03905464587720176 -0.0023282797189885466 -0.01143154314415642 0.002712424734790648 0.017920538179202826
 0.002727792196256173 0.0179182581396308 -0.0023282797189885466 -0.01143154314415642 0.008250429581512482 0.03905705286378624 0.9895395149408891 -0.09151571797483525
 -0.0023273063243737283 -0.011431636734271547 0.002712424734790648 0.017920538179202826 0.9895395149408891 -0.09151571797483525 0.00825497020043306 0.0390564853743007
0.1500625260525 0.008640448910713045 0.04066791228905964 0.9889908912694914 -0.0953857578783347 0.00292163469317625 0.018668161555647902 -0.002488185158090348 -0.011902606551534939
 0.9889908912694914 -0.0953857578783347 0.008644997176433468 0.04066726835511361 -0.0024892439306232876 -0.011902500327619987 0.0029049299658982434 0.018670681577974125
 0.00292163469317625 0.018668161555647902 -0.0024892439306232876 -0.011902500327619987 0.008640348947248196 0.04066979256376018 0.9889910213586371 -0.09538371494358114
 -0.002488185158090348 -0.011902606551534939 0.0029049299658982434 0.018670681577974125 0.9889910213586371 -0.09538371494358114 0.008645292320467105 0.040669179855198224
0.15631513130469998 0.009042898398941207 0.042272030067523246 0.9884247122790927 -0.09924408983953698 0.003122597918801769 0.01941500741509275 -0.002654905634603563 -0.012370770511137818
