! Created with skrf 1.8.0 (http://scikit-rf.org).
# GHz S RI R 50.0 
!freq ReS11 ImS11 ReS12 ImS12 ReS13 ImS13
! ReS14 ImS14
! ReS21 ImS21 ReS22 ImS22 ReS23 ImS23
! ReS24 ImS24
! ReS31 ImS31 ReS32 ImS32 ReS33 ImS33
! ReS34 ImS34
! ReS41 ImS41 ReS42 ImS42 ReS43 ImS43
! ReS44 ImS44
!
0.0 0.001523107581068 0.0 0.9984768923706 0.0 5.878192220585e-05 0.0 -5.87819212287e-05 7.198709168045931e-21
 0.9984768923706 0.0 0.001523107581071 0.0 -5.878192122892e-05 7.198709168072873e-21 5.878192220572e-05 0.0
 5.878192220585e-05 0.0 -5.878192122892e-05 7.198709168072873e-21 0.001523107605226 0.0 0.9984768923948 0.0
 -5.87819212287e-05 7.198709168045931e-21 5.878192220572e-05 0.0 0.9984768923948 0.0 0.001523107605224 0.0
0.005 0.001638703288017581 0.0012448623146979702 0.9983306698189274 -0.0031906129455536226 8.244886129949307e-05 0.0006551508994231105 -8.009315283672611e-05 -0.0004099219327437065
 0.9983306698189274 -0.0031906129455536226 0.001638690834003692 0.0012448695504863295 -8.009223672230504e-05 -0.0004099211790014197 8.251958103865533e-05 0.0006551237994303206
 8.244886129949307e-05 0.0006551508994231105 -8.009223672230504e-05 -0.0004099211790014197 0.0016387036632824659 0.0012447947821780975 0.9983306694662729 -0.0031906800153153458
 -8.009315283672611e-05 -0.0004099219327437065 8.251958103865533e-05 0.0006551237994303206 0.9983306694662729 -0.0031906800153153458 0.0016386897625289701 0.0012448029527297943
0.006252605252188 0.0016690057751861584 0.0015609827260994454 0.9982921032643709 -0.003989049743130503 8.918340986925083e-05 0.0008192547513971098 -8.610200796060162e-05 -0.0005129350588445152
 0.9982921032643709 -0.003989049743130503 0.0016689863081315265 0.0015609919691290145 -8.6100582792724e-05 -0.0005129341284031989 8.929390098718738e-05 0.0008192195932795779
 8.918340986925083e-05 0.0008192547513971098 -8.6100582792724e-05 -0.0005129341284031989 0.001669006426971478 0.0015608983299063477 0.9982921027777456 -0.003989133559724345
 -8.610200796060162e-05 -0.0005129350588445152 8.929390098718738e-05 0.0008192195932795779 0.9982921027777456 -0.003989133559724345 0.0016689846976555758 0.001560908752494648
0.01250521050438 0.001828438355546679 0.0031547328842655175 0.9980878837444306 -0.007978926470033176 0.00012766302034623967 0.0016388639008202636 -0.00012015198474456948 -0.0010283744456879385
 0.9980878837444306 -0.007978926470033176 0.0018283606350132213 0.0031547533732497837 -0.00012014637305451329 -0.0010283727128203206 0.0001281035748437695 0.0016387797311570452
 0.00012766302034623967 0.0016388639008202636 -0.00012014637305451329 -0.0010283727128203206 0.001828441537369439 0.003154564317331051 0.9980878823695408 -0.007979093887965446
 -0.00012015198474456948 -0.0010283744456879385 0.0001281035748437695 0.0016387797311570452 0.9980878823695408 -0.007979093887965446 0.001828354769364122 0.0031545872914616204
0.01875781575657 0.002001750406729911 0.004771224185804594 0.9978639820234014 -0.011979345239175267 0.00017431055221485856 0.0024593882174104667 -0.0001610361943584867 -0.0015455679059029927
 0.9978639820234014 -0.011979345239175267 0.0020015757865445073 0.004771258060078072 -0.00016102368663614033 -0.001545565521404464 0.00017530007490610425 0.002459238458297974
 0.00017431055221485856 0.0024593882174104667 -0.00016102368663614033 -0.001545565521404464 0.002001757998941875 0.004770971568217215 0.9978639793526147 -0.011979596199844811
 -0.0001610361943584867 -0.0015455679059029927 0.00017530007490610425 0.002459238458297974 0.9978639793526147 -0.011979596199844811 0.002001563021291932 0.004771009403282024
0.02501042100875 0.002189276991003531 0.006408194286406918 0.9976201364207731 -0.01599224688915543 0.0002292165808179441 0.003280867402207345 -0.000208855645500742 -0.0020642805580406167
 0.9976201364207731 -0.01599224688915543 0.002188966918268961 0.006408243811671462 -0.00020883356669438915 -0.0020642776983529013 0.00023097398417462896 0.0032806328564422777
 0.0002292165808179441 0.003280867402207345 -0.00020883356669438915 -0.0020642776983529013 0.0021892908841603595 0.006407857737905271 0.9976201320444175 -0.015992581386555297
 -0.000208855645500742 -0.0020642805580406167 0.00023097398417462896 0.0032806328564422777 0.9976201320444175 -0.015992581386555297 0.0021889446120295143 0.006407912912175033
0.03126302626094 0.0023913393103445002 0.00806447975521318 0.9973560717942695 -0.020018463033949642 0.0002924720215831967 0.004103264824636665 -0.00026370852334652045 -0.002584348234660314
 0.9973560717942695 -0.020018463033949642 0.00239085530604521 0.008064547321744841 -0.00026367422702317883 -0.0025843451021775017 0.00029521643621088116 0.004102923663004746
 0.0002924720215831967 0.004103264824636665 -0.00026367422702317883 -0.0025843451021775017 0.002391361407561641 0.008064059395288084 0.9973560653001443 -0.020018881114652047
 -0.00026370852334652045 -0.002584348234660314 0.00029521643621088116 0.004102923663004746 0.9973560653001443 -0.020018881114652047 0.0023908208211302494 0.00806413455450376
0.037515631513130004 0.0026082516463887652 0.009739322608782054 0.9970715066999977 -0.024058409467146755 0.0003641673142154293 0.004926513744136289 -0.00032569091078076787 -0.0031056312701741354
 0.9970715066999977 -0.024058409467146755 0.0026075552921710926 0.00973941073077508 -0.0003256417760262407 -0.0031056280933175594 0.00036811818474848584 0.0049260414805169525
 0.0003641673142154293 0.004926513744136289 -0.0003256417760262407 -0.0031056280933175594 0.002608283862839041 0.009738818583525244 0.9970714976713335 -0.024058911203549957
 -0.00032569091078076787 -0.0031056312701741354 0.00036811818474848584 0.0049260414805169525 0.9970714976713335 -0.024058911203549957 0.002607505994008223 0.00973891654064382
0.043768236765320004 0.0028403240329974394 0.011432159308704854 0.9967661562841051 -0.028112297094125407 0.00044439204100782013 0.005750531355484657 -0.00039489704209338456 -0.0036280004589551696
 0.9967661562841051 -0.028112297094125407 0.0028393769613303988 0.011432270623759667 -0.00039483047172479913 -0.0036279974921566787 0.0004497691729163975 0.005749900818056522
 0.00044439204100782013 0.005750531355484657 -0.00039483047172479913 -0.0036279974921566787 0.0028403682968834508 0.011431571784929886 0.9967661442983915 -0.028112882590234933
 -0.00039489704209338456 -0.0036280004589551696 0.0004497691729163975 0.005749900818056522 0.9967661442983915 -0.028112882590234933 0.0028393102189668454 0.011431695520327346
0.050020842017509996 0.0030878635007337125 0.013142533528576035 0.9964397337491718 -0.03218021909299483 0.0005332346904968728 0.00657522460005694 -0.00047141939817290415 -0.004151331247647239
 0.9964397337491718 -0.03218021909299483 0.0030866273863685784 0.013142670797608618 -0.000471332817539337 -0.004151328771320722 0.0005402582712238589 0.006574405900975003
 0.0005332346904968728 0.00657522460005694 -0.000471332817539337 -0.004151328771320722 0.0030879217554805206 0.013141862699451676 0.9964397183784566 -0.032180888478747664
 -0.00047141939817290415 -0.004151331247647239 0.0005402582712238589 0.006574405900975003 0.9964397183784566 -0.032180888478747664 0.003086540574675518 0.013142015361486722
0.055454545454549996 0.0033157806340939266 0.014642837640956202 0.99613872597485 -0.03572677972529199 0.0006175082323177336 0.007292378841679566 -0.000543931834919584 -0.004606807157492818
 0.99613872597485 -0.03572677972529199 0.0033142622349493136 0.014642999802732096 -0.0005438257906829366 -0.004606805355277504 0.000626141746729887 0.007291370219038125
 0.0006175082323177336 0.007292378841679566 -0.0005438257906829366 -0.004606805355277504 0.0033158526362582178 0.014642094589205118 0.9961387073083307 -0.03572752214438139
 -0.000543931834919584 -0.004606807157492818 0.000626141746729887 0.007291370219038125 0.9961387073083307 -0.03572752214438139 0.0033141558541364842 0.014642275077139279
0.056273447269699996 0.00335117471711193 0.014870053353701777 0.9960919512187199 -0.03626219364411277 0.0006307824916868767 0.007400493009699305 -0.0005553487245420198 -0.0046755008971852054
 0.9960919512187199 -0.03626219364411277 0.003349611269203358 0.014870219460908435 -0.0005552395806900917 -0.004675499217682468 0.0006396730957568899 0.007399453513996473
 0.0006307824916868767 0.007400493009699305 -0.0005552395806900917 -0.004675499217682468 0.00335124892012736 0.014869299434229292 0.9960919320268663 -0.03626294707976025
 -0.0005553487245420198 -0.0046755008971852054 0.0006396730957568899 0.007399453513996473 0.9960919320268663 -0.03626294707976025 0.003349501767936839 0.014869484339874235
0.06252605252188 0.003630560326554093 0.01661436774880643 0.9957225203056805 -0.04035818739382882 0.00073712127779167 0.008226230276961953 -0.0006467740151116441 -0.005200386921564835
 0.9957225203056805 -0.04035818739382882 0.003628631281422057 0.01661456570198709 -0.0006466397761923139 -0.005200386371134642 0.000748099861847906 0.008224934571161885
 0.00073712127779167 0.008226230276961953 -0.0006466397761923139 -0.005200386371134642 0.003630652451354916 0.016613530982936543 0.9957224968485102 -0.040359025062736316
 -0.0006467740151116441 -0.005200386921564835 0.000748099861847906 0.008224934571161885 0.9957224968485102 -0.040359025062736316 0.0036284964776391072 0.016613751618776797
0.06877865777407 0.003926321131385966 0.01837515252143398 0.9953311525250302 -0.044468129426435694 0.0008523353696823954 0.009052325189867731 -0.0007457824731507407 -0.005725866165809278
 0.9953311525250302 -0.044468129426435694 0.003923988245607881 0.018375385452439167 -0.0007456206280355734 -0.005725867102539139 0.0008656232601278862 0.009050735050513598
 0.0008523353696823954 0.009052325189867731 -0.0007456206280355734 -0.005725867102539139 0.003926433168897932 0.0183742331761106 0.9953311243497371 -0.044469051540772846
 -0.0007457824731507407 -0.005725866165809278 0.0008656232601278862 0.009050735050513598 0.9953311243497371 -0.044469051540772846 0.003923825534993269 0.01837449319948289
0.07503126302626001 0.004238756176070744 0.020152101429248555 0.9949175596135076 -0.048591920096003764 0.000976507469627126 0.00987866223051071 -0.0008524594593346803 -0.006251814224110131
 0.9949175596135076 -0.048591920096003764 0.004235981219374167 0.02015237259464822 -0.0008522675172663907 -0.0062518170318738965 0.000992326344911944 0.009876736592767834
 0.000976507469627126 0.00987866223051071 -0.0008522675172663907 -0.0062518170318738965 0.004238890134621296 0.020151099798198038 0.9949175262571288 -0.04859292689270018
 -0.0008524594593346803 -0.006251814224110131 0.000992326344911944 0.009876736592767834 0.9949175262571288 -0.04859292689270018 0.004235788006976416 0.02015140303854739
0.08128386827845 0.0045681627709065285 0.021944920261612808 0.9944814537923682 -0.052729436888459776 0.001109718561259885 0.010705121977227719 -0.0009668884314259562 -0.0067781050586928826
 0.9944814537923682 -0.052729436888459776 0.004564907519456507 0.021945233043549093 -0.0009666639218346471 -0.006778110147099451 0.0011282904298398737 0.010702816903638985
 0.001109718561259885 0.010705121977227719 -0.0009666639218346471 -0.006778110147099451 0.004568320677730046 0.02194383666209211 0.9944814147814591 -0.05273052863229741
 -0.0009668884314259562 -0.0067781050586928826 0.0011282904298398737 0.010702816903638985 0.9944814147814591 -0.05273052863229741 0.004564681221296636 0.02194418712256018
0.08753647353064001 0.004914836476147005 0.023753322747595954 0.9940225479941833 -0.056880538462180066 0.0012520478139268943 0.011531581384936478 -0.0010891508777236055 -0.007304610744992881
 0.9940225479941833 -0.056880538462180066 0.004911062705856996 0.02375368065494616 -0.00108889135003848 -0.007304618549324933 0.0012735949888573025 0.011528850034460605
 0.0012520478139268943 0.011531581384936478 -0.00108889135003848 -0.007304618549324933 0.004915020377766486 0.02375215752471317 0.9940225028431705 -0.05688171544104222
 -0.0010891508777236055 -0.007304610744992881 0.0012735949888573025 0.011528850034460605 0.9940225028431705 -0.05688171544104222 0.004910800750072857 0.023752559383918712
0.09378907878283 0.005279071058178091 0.025577027635932597 0.993540556064925 -0.06104506752163455 0.0014035724894841785 0.012357913995099423 -0.0012193262463224394 -0.00783120129181304
 0.993540556064925 -0.06104506752163455 0.005274740537993027 0.025577434305552166 -0.0012190292698562445 -0.007831212272971613 0.0014283175603524991 0.012354706592423093
 0.0014035724894841785 0.012357913995099423 -0.0012190292698562445 -0.007831212272971613 0.005279283021093394 0.02557578115839463 0.9935405042754252 -0.06104633005039792
 -0.0012193262463224394 -0.00783120129181304 0.0014283175603524991 0.012354706592423093 0.9935405042754252 -0.06104633005039792 0.005274440366078132 0.025576238772392706
0.100041684035 0.0056611584255473425 0.027415756548192945 0.9930351929496707 -0.06522285292315282 0.0015643678513904751 0.01318399009083029 -0.0013574918709254114 -0.008357744521247058
 0.9930351929496707 -0.06522285292315282 0.005656232910779359 0.02741621574654333 -0.0013571550348675898 -0.008357759165686889 0.0015925336534977086 0.013180253896079637
 0.0015643678513904751 0.01318399009083029 -0.0013571550348675898 -0.008357759165686889 0.0056614005380215705 0.027414429208346348 0.9930351340098053 -0.06522420134328485
 -0.0013574918709254114 -0.008357744521247058 0.0015925336534977086 0.013180253896079637 0.9930351340098053 -0.06522420134328485 0.005655891979481255 0.027414947112934362
0.1059090909091 0.006036202138472632 0.029154625932485873 0.9925394546235086 -0.06915515467997063 0.00172375404226177 0.01395882329536261 -0.0014944796714200157 -0.00885168672182082
 0.9925394546235086 -0.06915515467997063 0.0060306834831442 0.029155137965994206 -0.0014941032563889755 -0.008851705268998712 0.001755332694123498 0.013954540251933658
 0.00172375404226177 0.01395882329536261 -0.0014941032563889755 -0.008851705268998712 0.006036474461656573 0.029153223092574777 0.9925393884949182 -0.06915658403101892
 -0.0014944796714200157 -0.00885168672182082 0.001755332694123498 0.013954540251933658 0.9925393884949182 -0.06915658403101892 0.0060303020047605465 0.02915380186098148
0.1062942892872 0.0060613885512557555 0.02926923236947432 0.9925061748668513 -0.06941371124892926 0.0017345070743946104 0.014009676824739848 -0.0015037228946586428 -0.008884105980644845
 0.9925061748668513 -0.06941371124892926 0.006055829776811978 0.02926974799432899 -0.0015033438080029455 -0.00888412480031323 0.0017663166559770682 0.01400535610358876
 0.0017345070743946104 0.014009676824739848 -0.0015033438080029455 -0.00888412480031323 0.006061662923311007 0.02926782458634561 0.9925061082497887 -0.06941514592483358
 -0.0015037228946586428 -0.008884105980644845 0.0017663166559770682 0.01400535610358876 0.9925061082497887 -0.06941514592483358 0.006055445558986997 0.029268407499487656
0.11254689453939999 0.006480049382783648 0.03113717802697303 0.991953219474315 -0.07361744799860034 0.0019140611555537046 0.01483483831976659 -0.001658092191512383 -0.009410148886753891
 0.991953219474315 -0.07361744799860034 0.006473819056348742 0.031137754109586847 -0.001657668483055842 -0.009410172419027602 0.001949737743165541 0.014829874313970908
 0.0019140611555537046 0.01483483831976659 -0.001657668483055842 -0.009410172419027602 0.006480358147350309 0.031135690240835623 0.9919531446376371 -0.073618969322715
 -0.001658092191512383 -0.009410148886753891 0.001949737743165541 0.014829874313970908 0.9919531446376371 -0.073618969322715 0.006473389042662419 0.03113634306540797
0.11879949979160001 0.006917426743350535 0.0330193155252242 0.9913760460291746 -0.07783385853043363 0.0021030988255755756 0.015659335758034097 -0.001820670286644287 -0.009935734086961055
 0.9913760460291746 -0.07783385853043363 0.006910486538753886 0.03301995623251903 -0.0018201996050181914 -0.009935762894571312 0.002142865787776976 0.01565366665650486
 0.0021030988255755756 0.015659335758034097 -0.0018201996050181914 -0.009935762894571312 0.006917772057464507 0.03301774820191128 0.9913759624138212 -0.07783546691820548
 -0.001820670286644287 -0.009935734086961055 0.002142865787776976 0.01565366665650486 0.9913759624138212 -0.07783546691820548 0.006910008239324118 0.03301847602866511
0.1250521050438 0.007373804227087863 0.034915365199122306 0.9907743755440843 -0.08206272879076995 0.0023016864609392202 0.01648302745537145 -0.0019915252753220166 -0.010460720040127155
 0.9907743755440843 -0.08206272879076995 0.00736611577725433 0.03491607483630244 -0.001991005289028396 -0.010460754711104725 0.0023457672702087927 0.0164765883657426
 0.0023016864609392202 0.01648302745537145 -0.001991005289028396 -0.010460754711104725 0.0073741882722641455 0.03491371882672317 0.9907742825731619 -0.08206442468332559
 -0.0019915252753220166 -0.010460720040127155 0.0023457672702087927 0.0164765883657426 0.9907742825731619 -0.08206442468332559 0.007365586722996552 0.034914526937439266
0.131304710296 0.007849463087404652 0.036825045108987604 0.9901479309399319 -0.0863038359076091 0.0025098879960528744 0.017305768932901335 -0.002170722741139019 -0.01098496280574447
 0.9901479309399319 -0.0863038359076091 0.007840987977680467 0.0368258281223965 -0.0021701511385818217 -0.010985003953328725 0.0025585061893982847 0.01729849185367448
 0.0025098879960528744 0.017305768932901335 -0.0021701511385818217 -0.010985003953328725 0.007849888070846509 0.036823320199665374 0.9901478280178072 -0.08630561976925585
 -0.002170722741139019 -0.01098496280574447 0.0025585061893982847 0.01729849185367448 0.9901478280178072 -0.08630561976925585 0.007840405721880129 0.036824214070761245
0.1375573155481 0.008235463134460516 0.0384988490631264 0.9896057006809625 -0.09030760384755324 0.002701154647291858 0.01810233597783072 -0.002331667746310373 -0.01148329714078482
 0.9896057006809625 -0.09030760384755324 0.00822615884340144 0.03849969046991536 -0.0023310409596024716 -0.011483344803090878 0.0027544286297925156 0.01809423140506628
 0.002701154647291858 0.01810233597783072 -0.0023310409596024716 -0.011483344803090878 0.008235930336170216 0.038497046292852506 0.9896055873425765 -0.09030947597098009
 -0.002331667746310373 -0.01148329714078482 0.0027544286297925156 0.01809423140506628 0.9896055873425765 -0.09030947597098009 0.008225521639292915 0.03849801138344663
0.1438099208003 0.00863504306708422 0.04016386520983808 0.9890444146883588 -0.0943012597435333 0.002900139803889898 0.018895762306855787 -0.002499054742541458 -0.011978710653721426
 0.9890444146883588 -0.0943012597435333 0.008624870463266637 0.04016476814163619 -0.002498370262739426 -0.011978765436769456 0.002958274199571654 0.0188867679478814
 0.002900139803889898 0.018895762306855787 -0.002498370262739426 -0.011978765436769456 0.00863555456399504 0.04016198515555157 0.989044290337716 -0.09430322058918868
 -0.002499054742541458 -0.011978710653721426 0.002958274199571654 0.0188867679478814 0.989044290337716 -0.09430322058918868 0.008624176022602709 0.040163025592931785
0.1500625260525 0.009048063064004465 0.041819955207174464 0.9884642168723924 -0.09828470546253024 0.003106775237453997 0.019685969801430774 -0.002672816599809608 -0.012471127715914965
 0.9884642168723924 -0.09828470546253024 0.00903698294004718 0.041820922971101335 -0.002672071921950311 -0.012471190250274726 0.003169973515748459 0.01967602107683843
 0.003106775237453997 0.019685969801430774 -0.002672071921950311 -0.012471190250274726 0.009048620947155217 0.04181799847052924 0.9884640808971287 -0.09828675550684457
 -0.002672816599809608 -0.012471127715914965 0.003169973515748459 0.01967602107683843 0.9884640808971287 -0.09828675550684457 0.009036229004601853 0.041819118595908776
0.15631513130469998 0.009474382318975981 0.04346698488732869 0.9878652518668184 -0.10225784319483852 0.003320991922488257 0.02047288167154383 -0.0028528853655421416 -0.012960474290890225
 0.9878652518668184 -0.10225784319483852 0.009462355389264692 0.04346802096938771 -0.002852077988819527 -0.01296054523151807 0.003389456381041612 0.020461911737859148
