! Created with skrf 1.8.0 (http://scikit-rf.org).
# GHz S RI R 50.0 
!freq ReS11 ImS11 ReS12 ImS12 ReS13 ImS13
! ReS14 ImS14
! ReS21 ImS21 ReS22 ImS22 ReS23 ImS23
! ReS24 ImS24
! ReS31 ImS31 ReS32 ImS32 ReS33 ImS33
! ReS34 ImS34
! ReS41 ImS41 ReS42 ImS42 ReS43 ImS43
! ReS44 ImS44
!
0.0 0.001470117536757 0.0 0.9985298824632 0.0 5.649545774463e-05 0.0 -5.649545787158e-05 6.918698164879458e-21
 0.9985298824632 0.0 0.001470117536772 0.0 -5.649545787264e-05 6.91869816500927e-21 5.649545774422e-05 0.0
 5.649545774463e-05 0.0 -5.649545787264e-05 6.91869816500927e-21 0.001470117533413 0.0 0.9985298824599 0.0
 -5.649545787158e-05 6.918698164879458e-21 5.649545774422e-05 0.0 0.9985298824599 0.0 0.001470117533369 0.0
0.005 0.0015815130594430782 0.0012044289120884157 0.99838901080467 -0.003079686741190844 7.870790511154648e-05 0.000612709241864449 -7.659019832377255e-05 -0.00038631622312889014
 0.99838901080467 -0.003079686741190844 0.0015814961606648512 0.001204438815484098 -7.659335284242753e-05 -0.00038631865666583696 7.8797950552617e-05 0.0006126749144780794
 7.870790511154648e-05 0.000612709241864449 -7.659335284242753e-05 -0.00038631865666583696 0.0015815117305382062 0.0012044969869228464 0.9983890111574394 -0.003079619676653673
 -7.659019832377255e-05 -0.00038631622312889014 7.8797950552617e-05 0.0006126749144780794 0.9983890111574394 -0.003079619676653673 0.0015814981902861833 0.001204504865955294
0.006252605252188 0.0016106707015672182 0.0015102750058004423 0.9983519208912299 -0.0038503704589975076 8.499704308204932e-05 0.0007661932408360205 -8.223189497549552e-05 -0.00048339601020306716
 0.9983519208912299 -0.0038503704589975076 0.0016106442854731235 0.0015102875854939748 -8.223680360298162e-05 -0.00048339901121993196 8.513773072249423e-05 0.0007661486857012266
 8.499704308204932e-05 0.0007661932408360205 -8.223680360298162e-05 -0.00048339901121993196 0.0016106685510607897 0.001510360098271073 0.9983519213700282 -0.0038502866312797365
 -8.223189497549552e-05 -0.00048339601020306716 8.513773072249423e-05 0.0007661486857012266 0.9983519213700282 -0.0038502866312797365 0.0016106473858054791 0.001510370139913613
0.01250521050438 0.0017638245871748803 0.0030522166165903165 0.9981558948276767 -0.00770159684899503 0.000120765019524375 0.001532812571397434 -0.00011407149505077518 -0.000969164943127697
 0.9981558948276767 -0.00770159684899503 0.0017637191044413828 0.0030522438163470573 -0.0001140908391970579 -0.0009691704981514782 0.0001213260442250604 0.0015327057509453821
 0.000120765019524375 0.001532812571397434 -0.0001140908391970579 -0.0009691704981514782 0.0017638154216148905 0.0030523865662124682 0.9981558961676951 -0.007701429448777057
 -0.00011407149505077518 -0.000969164943127697 0.0001213260442250604 0.0015327057509453821 0.9981558961676951 -0.007701429448777057 0.0017637309153832959 0.003052408586119423
0.01875781575657 0.0019299011734006898 0.004616161368358292 0.9979415692372494 -0.011563063508896652 0.0001638819747262542 0.0023003704156373986 -0.00015210955663760528 -0.0014566290804871574
 0.9979415692372494 -0.011563063508896652 0.0019296641432877738 0.004616205423441325 -0.00015215269463255828 -0.0014566366597552058 0.00016514224562001243 0.002300180264187405
 0.0001638819747262542 0.0023003704156373986 -0.00015215269463255828 -0.0014566366597552058 0.0019298801394908756 0.004616416133548385 0.9979415718244551 -0.011562812608736322
 -0.00015210955663760528 -0.0014566290804871574 0.00016514224562001243 0.002300180264187405 0.9979415718244551 -0.011562812608736322 0.0019296902644177936 0.004616452176657968
0.02501042100875 0.0021092136394006583 0.006199937103901129 0.9977087001286818 -0.015436654251758728 0.00021443105137937136 0.0030689065186403513 -0.00019643855286534983 -0.0019455783654684078
 0.9977087001286818 -0.015436654251758728 0.002108792684769587 0.006200000426949691 -0.00019651473161190494 -0.001945587346973885 0.00021666958369996237 0.003068608740687481
 0.00021443105137937136 0.0030689065186403513 -0.00019651473161190494 -0.001945587346973885 0.002109175887887314 0.006200276686708679 0.997708704352809 -0.015436319888935941
 -0.00019643855286534983 -0.0019455783654684078 0.00021666958369996237 0.003068608740687481 0.997708704352809 -0.015436319888935941 0.0021088387108176613 0.006200328893820797
0.03126302626094 0.0023020622067884467 0.00780243229904057 0.9974570306220429 -0.019323182998173136 0.00027249572759492267 0.0038383914753307878 -0.0002471485318329217 -0.0024358669526826403
 0.9974570306220429 -0.019323182998173136 0.002301405026873757 0.007802517477216293 -0.0002472669058087293 -0.002435876620983422 0.00027599190661618865 0.003837958528067043
 0.00027249572759492267 0.0038383914753307878 -0.0002472669058087293 -0.002435876620983422 0.002302002883308282 0.0078028567347598055 0.997457036870672 -0.01932276518503224
 -0.0002471485318329217 -0.0024358669526826403 0.00027599190661618865 0.003837958528067043 0.997457036870672 -0.01932276518503224 0.002301476544275177 0.007802927339366307
0.037515631513130004 0.0025087407143794026 0.009422926990314913 0.9971862977160119 -0.023223062787361463 0.000338159128414587 0.004608768637497195 -0.0003043277539679369 -0.0029273713067005
 0.9971862977160119 -0.023223062787361463 0.0025077950678357276 0.0094230367844267 -0.00030449739505004377 -0.0029273808525603524 0.0003431928296692439 0.00460816969879486
 0.000338159128414587 0.004608768637497195 -0.00030449739505004377 -0.0029273808525603524 0.002508654961534595 0.009423436341346174 0.9971863063786364 -0.02322256151756527
 -0.0003043277539679369 -0.0029273713067005 0.0003431928296692439 0.00460816969879486 0.9971863063786364 -0.02322256151756527 0.002507897658590748 0.009423527668017725
0.043768236765320004 0.0027295391683871914 0.011060889161480887 0.9968962350284184 -0.027136509321820174 0.0004115036950678328 0.0053799668674549455 -0.00036806292661333223 -0.0034199774474129355
 0.9968962350284184 -0.027136509321820174 0.0027282528602203047 0.011061026505684825 -0.000368292829870818 -0.0034199859676593584 0.0004183553432771976 0.005379167799155193
 0.0004115036950678328 0.0053799668674549455 -0.000368292829870818 -0.0034199859676593584 0.0027294221242367897 0.011061483521409732 0.9968962464962201 -0.027135924566565717
 -0.00036806292661333223 -0.0034199774474129355 0.0004183553432771976 0.005379167799155193 0.9968962464962201 -0.027135924566565717 0.0027283921018585065 0.011061597984535775
0.050020842017509996 0.0029647449246272594 0.012715890605292803 0.9965865741700211 -0.031063625034666136 0.0004926109874737406 0.006151905795609045 -0.0004384392884882764 -0.003913575691026919
 0.9965865741700211 -0.031063625034666136 0.0029630657954020133 0.012716058607315093 -0.00043873837592639617 -0.003913582188520606 0.0005015615827134983 0.00615086910496741
 0.0004926109874737406 0.006151905795609045 -0.00043873837592639617 -0.003913582188520606 0.002964591723581605 0.012716570083863881 0.9965865888378992 -0.03106295675814311
 -0.0004384392884882764 -0.003913575691026919 0.0005015615827134983 0.00615086910496741 0.9965865888378992 -0.03106295675814311 0.0029632472622683876 0.012716710186625825
0.055454545454549996 0.0031810679842972887 0.014167689834646766 0.9963013440348624 -0.034487533601202054 0.0005694625397637088 0.006823278209014407 -0.0005050570509212389 -0.004343249359368754
 0.9963013440348624 -0.034487533601202054 0.003179005142100142 0.014167887138268725 -0.0005054234524106828 -0.004343253216234521 0.0005804658420919788 0.006822001933674638
 0.0005694625397637088 0.006823278209014407 -0.0005054234524106828 -0.004343253216234521 0.003180879405685868 0.014168443391236045 0.9963013618062098 -0.03448679270221678
 -0.0005050570509212389 -0.004343249359368754 0.0005804658420919788 0.006822001933674638 0.9963013618062098 -0.03448679270221678 0.0031792278271002097 0.014168607877058273
0.056273447269699996 0.0032146433026723807 0.014387565602686895 0.9962570455535257 -0.03500444034031831 0.0005815615404373416 0.006924498404849516 -0.0005155406316716656 -0.004408058065859032
 0.9962570455535257 -0.03500444034031831 0.0032125192187002355 0.014387767544322892 -0.0005159177547137633 -0.004408061449476635 0.0005928926649005034 0.006923183205117273
 0.0005815615404373416 0.006924498404849516 -0.0005159177547137633 -0.004408061449476635 0.003214449073126675 0.014388330332986742 0.9962570638186918 -0.03500368849284692
 -0.0005155406316716656 -0.004408058065859032 0.0005928926649005034 0.006923183205117273 0.9962570638186918 -0.03500368849284692 0.003212748480212732 0.01438849866679529
0.06252605252188 0.0034795179170556993 0.0160755882229595 0.9959073789221308 -0.038958936266169746 0.0006784347489178155 0.007697652449690255 -0.000599449289427448 -0.004903316895805157
 0.9959073789221308 -0.038958936266169746 0.00347689676113025 0.016075827560865254 -0.0005999132305890512 -0.0049033159804744335 0.0006924285606538742 0.007696014420322201
 0.0006784347489178155 0.007697652449690255 -0.0005999132305890512 -0.0049033159804744335 0.003479277781084621 0.01607643836581659 0.9959074011850181 -0.03895810078029233
 -0.000599449289427448 -0.004903316895805157 0.0006924285606538742 0.007696014420322201 0.9959074011850181 -0.03895810078029233 0.0034771793818777377 0.016076637609754457
0.06877865777407 0.0037596508550803483 0.017779658786194884 0.9955373037284216 -0.04292705792461738 0.0007833087687359706 0.008471271302709115 -0.000690246104856879 -0.0053992439594402145
 0.9955373037284216 -0.04292705792461738 0.0037564805180378066 0.017779939152921136 -0.0006908055789654183 -0.005399237466162819 0.0008002479861911597 0.008469262649506834
 0.0007833087687359706 0.008471271302709115 -0.0006908055789654183 -0.005399237466162819 0.003759359928572624 0.017780594522236806 0.9955373303932376 -0.04292613872348168
 -0.000690246104856879 -0.0053992439594402145 0.0008002479861911597 0.008469262649506834 0.9955373303932376 -0.04292613872348168 0.0037568220574077022 0.017780827442955855
0.07503126302626001 0.0040553227652002505 0.019499495273714203 0.9951465494269739 -0.04690872304039651 0.000896260425909562 0.009245254492055877 -0.0007880103880624621 -0.005895729961291488
 0.9951465494269739 -0.04690872304039651 0.004051551137744378 0.019499820479038265 -0.0007886740429835049 -0.005895716517198809 0.0009164283059407136 0.00924282390735686
 0.000896260425909562 0.009245254492055877 -0.0007886740429835049 -0.005895716517198809 0.0040549761573466505 0.019500516807211384 0.9951465809023387 -0.04690772003438351
 -0.0007880103880624621 -0.005895729961291488 0.0009164283059407136 0.00924282390735686 0.9951465809023387 -0.04690772003438351 0.004051957149711792 0.019500786258931237
0.08128386827845 0.0043668128885417596 0.021234827619108707 0.9947348457132672 -0.05090382760090974 0.001017365131615727 0.010019498064110404 -0.0008928198656461786 -0.006392664181365741
 0.9947348457132672 -0.05090382760090974 0.004362387852750207 0.02123520165164384 -0.000893596282806314 -0.006392642319775402 0.001041045441780267 0.010016590687254254
 0.001017365131615727 0.010019498064110404 -0.000893596282806314 -0.006392642319775402 0.004366405701739785 0.021235935180112367 0.994734882412426 -0.05090274068606235
 -0.0008928198656461786 -0.006392664181365741 0.001041045441780267 0.010016590687254254 0.994734882412426 -0.05090274068606235 0.004362863885282659 0.021236244104956708
0.08753647353064001 0.004694399052940779 0.022985393755541875 0.9943019227281443 -0.05491224975431304 0.0011466968009148858 0.010793894835179386 -0.0010047506241630487 -0.006889934239346578
 0.9943019227281443 -0.05491224975431304 0.004689268474524554 0.02298582078450292 -0.0010056483188127761 -0.006889902399832684 0.0011741737878802122 0.010790452213214138
 0.0011466968009148858 0.010793894835179386 -0.0010056483188127761 -0.006889902399832684 0.0046939263820268045 0.022986587597222368 0.9943019650696513 -0.05491107881547623
 -0.0010047506241630487 -0.006889934239346578 0.0011741737878802122 0.010790452213214138 0.9943019650696513 -0.05491107881547623 0.0046898200686067626 0.022986939025791686
0.09378907878283 0.005038357639915828 0.024750936795123177 0.9938475112390485 -0.05893385257957671 0.0012843277731197445 0.011568334575826223 -0.0011238770505541138 -0.007387425929831593
 0.9938475112390485 -0.05893385257957671 0.005032469360157066 0.024751421172459213 -0.0011249044718685908 -0.007387382458307264 0.0013158861272444357 0.011564294624668505
 0.0012843277731197445 0.011568334575826223 -0.0011249044718685908 -0.007387382458307264 0.005037814572148469 0.02475221719251128 0.9938475596466665 -0.05893259749221572
 -0.0011238770505541138 -0.007387425929831593 0.0013158861272444357 0.011564294624668505 0.9938475596466665 -0.05893259749221572 0.005033102049227677 0.02475261424463254
0.100041684035 0.005398963534323128 0.026531202954540374 0.9933713428059949 -0.0629684861145796 0.001430328734112632 0.01234270415068886 -0.001250271768949274 -0.007885023106098905
 0.9933713428059949 -0.0629684861145796 0.005392265361951981 0.026531749217426192 -0.0012514372999638682 -0.007884966254916977 0.001466253551174537 0.012338001116676453
 0.001430328734112632 0.01234270415068886 -0.0012514372999638682 -0.007884966254916977 0.005398345148949283 0.026532570211782555 0.9933713977095912 -0.06296714673819845
 -0.001250271768949274 -0.007885023106098905 0.001466253551174537 0.012338001116676453 0.9933713977095912 -0.06296714673819845 0.005392984671328167 0.026533016097708324
0.1059090909091 0.00575273795678508 0.02821495974123156 0.9929044832423038 -0.06676626933757629 0.0015750090109959863 0.013069200813438332 -0.0013755533270874744 -0.008351955981986962
 0.9929044832423038 -0.06676626933757629 0.005745232282959426 0.028215568370870654 -0.0013768560246368489 -0.008351884902698094 0.0016152909069441666 0.013063812442102335
 0.0015750090109959863 0.013069200813438332 -0.0013768560246368489 -0.008351884902698094 0.005752044411391946 0.028216408803607988 0.9929045446385152 -0.06676485072952001
 -0.0013755533270874744 -0.008351955981986962 0.0016152909069441666 0.013063812442102335 0.9929045446385152 -0.06676485072952001 0.005746037893808273 0.028216903516254953
0.1062942892872 0.0057764900584845605 0.02832594000436212 0.9928731499363606 -0.06701598886549524 0.001584768639310728 0.013116887625611551 -0.001384005575637831 -0.008382607600511831
 0.9928731499363606 -0.06701598886549524 0.005768929761943729 0.028326552877739403 -0.0013853175331040072 -0.008382535528570675 0.0016253453794681748 0.013111452047559712
 0.001584768639310728 0.013116887625611551 -0.0013853175331040072 -0.008382535528570675 0.005775791426767494 0.02832739444801388 0.9928732117723083 -0.06701456505084297
 -0.001384005575637831 -0.008382607600511831 0.0016253453794681748 0.013111452047559712 0.9928732117723083 -0.06701456505084297 0.005769741208229893 0.028327892469727993
0.11254689453939999 0.006171208897461235 0.03013489607313283 0.9923526662321218 -0.07107618896565451 0.0017477146376582208 0.013890766359162754 -0.0015251473718534176 -0.00888005916467856
 0.9923526662321218 -0.07107618896565451 0.0061627341968577545 0.030135580472753633 -0.0015266140060216941 -0.008879969937535467 0.0017932290819956372 0.013884525031036715
 0.0017477146376582208 0.013890766359162754 -0.0015266140060216941 -0.008879969937535467 0.0061704250824788824 0.03013643805763327 0.9923527354438132 -0.0710746805499705
 -0.0015251473718534176 -0.00888005916467856 0.0017932290819956372 0.013884525031036715 0.9923527354438132 -0.0710746805499705 0.006163643286862842 0.030136991610574784
0.11879949979160001 0.006583390015190507 0.03195781872605552 0.9918096265323347 -0.07514890506509354 0.0019192319954052994 0.014664219074404065 -0.0016737640957038224 -0.009377255433632757
 0.9918096265323347 -0.07514890506509354 0.0065739485745307915 0.03195857976173575 -0.0016753935899752313 -0.009377147023649779 0.0019699702005055364 0.014657095008467113
 0.0019192319954052994 0.014664219074404065 -0.0016753935899752313 -0.009377147023649779 0.00658251607123882 0.03195944863208733 0.9918097035702597 -0.07514731187436237
 -0.0016737640957038224 -0.009377255433632757 0.0019699702005055364 0.014657095008467113 0.9918097035702597 -0.07514731187436237 0.00657496080430149 0.03196006120711475
0.1250521050438 0.007013301563791832 0.033794454227714835 0.9912437670500903 -0.07923394704098798 0.0020993840208002007 0.015437121926212998 -0.0018299206525232404 -0.009874071898734408
 0.9912437670500903 -0.07923394704098798 0.007002840982552806 0.033795297206910796 -0.0018317211230574496 -0.009873942185225566 0.0021556322711768047 0.015429034316941674
 0.0020993840208002007 0.015437121926212998 -0.0018317211230574496 -0.009873942185225566 0.007012332536578142 0.03379617246383048 0.9912438523727336 -0.07923226888897028
 -0.0018299206525232404 -0.009874071898734408 0.0021556322711768047 0.015429034316941674 0.9912438523727336 -0.07923226888897028 0.007003961837096392 0.03379684764948197
0.131304710296 0.007461209787854864 0.03564454696488916 0.9906548255082632 -0.08333111655319991 0.0022882319887169494 0.016209348555745032 -0.001993679844431442 -0.01037038189786726
 0.9906548255082632 -0.08333111655319991 0.007449677593386676 0.03564547739663116 -0.0019956593396640034 -0.0103702286672574 0.002350276747420874 0.016200212744375116
 0.0022882319887169494 0.016209348555745032 -0.0019956593396640034 -0.0103702286672574 0.007460140714207185 0.03564635396661949 0.990654919582497 -0.08332935324311974
 -0.001993679844431442 -0.01037038189786726 0.002350276747420874 0.016200212744375116 0.990654919582497 -0.08332935324311974 0.007450912545336463 0.035647095451763325
0.1375573155481 0.007823007222024905 0.03726698212274347 0.9901469524661713 -0.08719923955676778 0.0024611275263199343 0.016956557046198226 -0.0021403256469815276 -0.010841908777445435
 0.9901469524661713 -0.08719923955676778 0.007810347861732182 0.03726798694495913 -0.0021424960966660825 -0.010841731916351828 0.0025291139226514027 0.016946388196710876
 0.0024611275263199343 0.016956557046198226 -0.0021424960966660825 -0.010841731916351828 0.007821833791107739 0.03726887840388705 0.9901470556925951 -0.0871973909882601
 -0.0021403256469815276 -0.010841908777445435 0.0025291139226514027 0.016946388196710876 0.9901470556925951 -0.0871973909882601 0.007811701848358041 0.03726967131049453
0.1438099208003 0.008197492134423516 0.03888119239302778 0.9896213219987269 -0.09105787744062784 0.002640995420186441 0.01770096822334421 -0.0022928412032408355 -0.011310819936310003
 0.9896213219987269 -0.09105787744062784 0.008183652580164015 0.038882275964794974 -0.002295211257512061 -0.011310617273871004 0.0027151846149227033 0.017689689073089425
 0.002640995420186441 0.01770096822334421 -0.002295211257512061 -0.011310617273871004 0.008196209487512854 0.038883178401070286 0.9896214348420662 -0.09105594342362687
 -0.0022928412032408355 -0.011310819936310003 0.0027151846149227033 0.017689689073089425 0.9896214348420662 -0.09105594342362687 0.008185130961472253 0.03888402521151624
0.1500625260525 0.008584537519549412 0.0404870520460264 0.9890780649540771 -0.09490694381517581 0.0028277759879893065 0.018442513990096786 -0.0024511675432391904 -0.011777048854320607
 0.9890780649540771 -0.09490694381517581 0.008569464658250333 0.04048821895817359 -0.0024537458340962233 -0.011776818132718815 0.0029084276733022073 0.018430044458287293
 0.0028277759879893065 0.018442513990096786 -0.0024537458340962233 -0.011776818132718815 0.008583140797010131 0.04048912824760846 0.9890781878862746 -0.09490492415239533
 -0.0024511675432391904 -0.011777048854320607 0.0029084276733022073 0.018430044458287293 0.9890781878862746 -0.09490492415239533 0.008571072776527595 0.04049003159919873
0.15631513130469998 0.008984015527987286 0.04208443917387516 0.9885173127834933 -0.09874635240632242 0.00302140887845076 0.019181127371131583 -0.002615245000930331 -0.012240530377401684
