! Created with skrf 1.8.0 (http://scikit-rf.org).
# GHz S RI R 50.0 
!freq ReS11 ImS11 ReS12 ImS12 ReS13 ImS13
! ReS14 ImS14
! ReS21 ImS21 ReS22 ImS22 ReS23 ImS23
! ReS24 ImS24
! ReS31 ImS31 ReS32 ImS32 ReS33 ImS33
! ReS34 ImS34
! ReS41 ImS41 ReS42 ImS42 ReS43 ImS43
! ReS44 ImS44
!
0.0 0.001529705061728 0.0 0.9984702949383 0.0 5.896789876705e-05 0.0 -5.896789897248e-05 7.221484872909214e-21
 0.9984702949383 0.0 0.001529705061728 0.0 -5.896789897232e-05 7.221484872889619e-21 5.896789876699e-05 0.0
 5.896789876705e-05 0.0 -5.896789897232e-05 7.221484872889619e-21 0.001529705044129 0.0 0.9984702949207 0.0
 -5.896789897248e-05 7.221484872909214e-21 5.896789876699e-05 0.0 0.9984702949207 0.0 0.001529705044144 0.0
0.005 0.001645779942268748 0.0012517433549407522 0.9983234404289699 -0.003204326764315889 8.262308803707391e-05 0.0006482097918927622 -8.018902258710214e-05 -0.00040715492001285714
 0.9983234404289699 -0.003204326764315889 0.001645813215027564 0.0012517240072269192 -8.018659678251675e-05 -0.0004071531604718542 8.242610168185654e-05 0.0006482848432861335
 8.262308803707391e-05 0.0006482097918927622 -8.018659678251675e-05 -0.0004071531604718542 0.0016457803128138947 0.0012516759319013944 0.998323440078006 -0.0032043938298922763
 -8.018902258710214e-05 -0.00040715492001285714 8.242610168185654e-05 0.0006482848432861335 0.998323440078006 -0.0032043938298922763 0.001645812145216345 0.0012516573010110774
0.006252605252188 0.001676206238955365 0.0015696037355478595 0.9982847008574787 -0.004006193882225623 8.939212089099496e-05 0.0008105764731365226 -8.617319849892894e-05 -0.0005094703278778184
 0.9982847008574787 -0.004006193882225623 0.0016762582494085486 0.0015695791560095755 -8.616942291073664e-05 -0.0005094681605648166 8.908434821128636e-05 0.0008106739122456552
 8.939212089099496e-05 0.0008105764731365226 -8.616942291073664e-05 -0.0005094681605648166 0.00167620688287479 0.0015695194784877081 0.9982847003740013 -0.00400627770135698
 -8.617319849892894e-05 -0.0005094703278778184 8.908434821128636e-05 0.0008106739122456552 0.9982847003740013 -0.00400627770135698 0.0016762566427806947 0.0015694957792055334
0.01250521050438 0.0018362805187484498 0.0031720956739380406 0.9980795287774779 -0.008013201203884233 0.00012826698285616284 0.0016215057877108025 -0.00012008710959593449 -0.0010214160587708847
 0.9980795287774779 -0.008013201203884233 0.0018364881832292727 0.0031720425221405083 -0.00012007222000727208 -0.0010214120773757477 0.00012703966304536803 0.001621739760693732
 0.00012826698285616284 0.0016215057877108025 -0.00012007222000727208 -0.0010214120773757477 0.001836283643968274 0.0031719274955183145 0.9980795274094152 -0.008013368598513915
 -0.00012008710959593449 -0.0010214160587708847 0.00012703966304536803 0.001621739760693732 0.9980795274094152 -0.008013368598513915 0.001836482340577411 0.0031718759540810054
0.01875781575657 0.002010275804982354 0.004797407971054563 0.9978545249766914 -0.012030775904629847 0.00017568089669837416 0.0024333264334979424 -0.0001608134487121717 -0.0015351033300313817
 0.9978545249766914 -0.012030775904629847 0.002010742409460697 0.004797321937450071 -0.00016078022990339416 -0.0015350979593302806 0.00017292386884305342 0.0024337436559547193
 0.00017568089669837416 0.0024333264334979424 -0.00016078022990339416 -0.0015350979593302806 0.002010283235180302 0.0047971560581184245 0.9978545223261037 -0.012031026785678314
 -0.0001608134487121717 -0.0015351033300313817 0.00017292386884305342 0.0024337436559547193 0.9978545223261037 -0.012031026785678314 0.0020107297258391238 0.004797072237854145
0.02501042100875 0.0021985297807429155 0.0064432683837343215 0.9976094257655335 -0.016060865919318067 0.0002317242601604554 0.0032460690777703473 -0.00020845273400234827 -0.002050300582296603
 0.9976094257655335 -0.016060865919318067 0.0021993583875773285 0.006443144876977309 -0.00020839405219848762 -0.0020502943256075087 0.00022682713417078709 0.0032467236172625084
 0.0002317242601604554 0.0032460690777703473 -0.00020839405219848762 -0.0020502943256075087 0.002198543322541435 0.0064429329031915296 0.9976094214296082 -0.016061200224985174
 -0.00020845273400234827 -0.002050300582296603 0.00022682713417078709 0.0032467236172625084 0.9976094214296082 -0.016061200224985174 0.0021993362704660064 0.006442812105609392
0.03126302626094 0.0024013661390137105 0.008108508061174012 0.9973439539237816 -0.0201043053690885 0.0002964881473223544 0.004059689895300934 -0.0002631026919620756 -0.0025668450935386745
 0.9973439539237816 -0.0201043053690885 0.0024026596431198626 0.00810834221492384 -0.00026301148092063237 -0.0025668385336815452 0.00028883973181993857 0.0040606432132961005
 0.0002964881473223544 0.004059689895300934 -0.00026301148092063237 -0.0025668385336815452 0.0024013875930050323 0.008108089152195734 0.9973439475041875 -0.020104723073102442
 -0.0002631026919620756 -0.0025668450935386745 0.00028883973181993857 0.0040606432132961005 0.9973439475041875 -0.020104723073102442 0.002402625520602948 0.0081079264232264
0.037515631513130004 0.002619101572863753 0.009792365237781382 0.99705782590141 -0.02416151080874617 0.0003700633029520961 0.004874115580546557 -0.0003248589511038664 -0.0030845979545218636
 0.99705782590141 -0.02416151080874617 0.002620962739240678 0.009792151913773665 -0.0003247282051982744 -0.003084591754167428 0.00035905134692906603 0.00487543660642337
 0.0003700633029520961 0.004874115580546557 -0.0003247282051982744 -0.003084591754167428 0.0026191327294600684 0.009791863037323463 0.9970578169981094 -0.024162011894938884
 -0.0003248589511038664 -0.0030845979545218636 0.00035905134692906603 0.00487543660642337 0.9970578169981094 -0.024162011894938884 0.0026209140533303837 0.009791653170478289
0.043768236765320004 0.002852048471634284 0.011494273338540044 0.9967507547307023 -0.028232693051566393 0.0004525396726252052 0.005689257042172665 -0.0003938152903574572 -0.003603430371133006
 0.9967507547307023 -0.028232693051566393 0.0028545799649455634 0.011494007128366115 -0.00039363806055295184 -0.003603425272993598 0.000437550741155872 0.005691022257316078
 0.0004525396726252052 0.005689257042172665 -0.00039363806055295184 -0.003603425272993598 0.0028520911122014835 0.011493687983153549 0.9967507429422543 -0.0282332775121833
 -0.0003938152903574572 -0.003603430371133006 0.000437550741155872 0.005691022257316078 0.9967507429422543 -0.0282332775121833 0.002854514171071332 0.011493425521347711
0.050020842017509996 0.003100516174029575 0.013213773412960188 0.996422451501174 -0.03231794466338403 0.0005440061227678899 0.006505015059197527 -0.00047006372791558664 -0.004123218009586932
 0.996422451501174 -0.03231794466338403 0.0031038205836963597 0.013213448638914927 -0.0004698331191747299 -0.004123214836532277 0.0005244255438426183 0.0065073085851729785
 0.0005440061227678899 0.006505015059197527 -0.0004698331191747299 -0.004123214836532277 0.0031005720721188662 0.013213105041207323 0.9964224364250164 -0.03231861249678363
 -0.00047006372791558664 -0.004123218009586932 0.0005244255438426183 0.0065073085851729785 0.9964224364250164 -0.03231861249678363 0.003103735151476648 0.013212784277672328
0.055454545454549996 0.0033292853588090744 0.01472205053413856 0.9961196778175027 -0.03587959294041081 0.000630862347257695 0.007214351591643611 -0.0005423181614111295 -0.004575609714715203
 0.9961196778175027 -0.03587959294041081 0.003333344730739886 0.014721670046173816 -0.0005420356059205958 -0.004575608945212176 0.0006067913297930626 0.007217178554235938
 0.000630862347257695 0.007214351591643611 -0.0005420356059205958 -0.004575608945212176 0.003329354213335326 0.014721310126325772 0.9961196595562612 -0.03588033323708993
 -0.0005423181614111295 -0.004575609714715203 0.0006067913297930626 0.007217178554235938 0.9961196595562612 -0.03588033323708993 0.0033332401880937865 0.014720933868538748
0.056273447269699996 0.0033648116100712566 0.0149504711586586 0.996072626227621 -0.036417282868296305 0.0006445502456111068 0.007321283052728613 -0.0005536945375886507 -0.0046438382299209885
 0.996072626227621 -0.036417282868296305 0.0033689914739491273 0.014950081873726899 -0.0005534037073342694 -0.004643837885069075 0.0006197620998660575 0.0073241967413431325
 0.0006445502456111068 0.007321283052728613 -0.0005534037073342694 -0.004643837885069075 0.0033648825324671806 0.014949719904083211 0.9960726074596726 -0.03641803408596019
 -0.0005536945375886507 -0.0046438382299209885 0.0006197620998660575 0.0073241967413431325 0.9960726074596726 -0.03641803408596019 0.003368883886781876 0.01494933488266025
0.06252605252188 0.0036452396465134046 0.01670401328163339 0.995700988424986 -0.040530673120058536 0.0007542582046615984 0.00813794861661793 -0.0006447962303316145 -0.005165168564587564
 0.995700988424986 -0.040530673120058536 0.0036503974727214623 0.016703553268949824 -0.0006444383873962879 -0.005165172031360199 0.0007236453434988075 0.008141582140749587
 0.0007542582046615984 0.00813794861661793 -0.0006444383873962879 -0.005165172031360199 0.0036453273538227466 0.016703179276993982 0.9957009655599691 -0.040531507742393905
 -0.0006447962303316145 -0.005165168564587564 0.0007236453434988075 0.008141582140749587 0.9957009655599691 -0.040531507742393905 0.00365026522772667 0.016702723791755133
0.06877865777407 0.003942103268469696 0.018474073408338277 0.9953072475246995 -0.04465804312536227 0.0008732146046842933 0.008954894430246985 -0.000743455513714366 -0.00568708581912497
 0.9953072475246995 -0.04465804312536227 0.003948341556582356 0.0184735361798694 -0.0007430239177392074 -0.005687094161306619 0.0008361586883944068 0.008959355374794949
 0.0008732146046842933 0.008954894430246985 -0.0007430239177392074 -0.005687094161306619 0.003942209515052239 0.018473156791022915 0.9953072201547104 -0.04465896117623446
 -0.000743455513714366 -0.00568708581912497 0.0008361586883944068 0.008959355374794949 0.9953072201547104 -0.04465896117623446 0.0039481821636701935 0.018472624385273476
0.07503126302626001 0.004255703662007563 0.020260343160618494 0.9948911131952191 -0.04879929170823856 0.0010015023748746914 0.009771998841772041 -0.0008497572390895656 -0.006209465506729895
 0.9948911131952191 -0.04879929170823856 0.004263124923977297 0.02025972195531418 -0.0008492452001906172 -0.006209479868503187 0.0009573839258343868 0.009777402794363125
 0.0010015023748746914 0.009771998841772041 -0.0008492452001906172 -0.006209479868503187 0.004255830197346806 0.02025934406773502 0.9948910809105073 -0.04880029321988834
 -0.0008497572390895656 -0.006209465506729895 0.0009573839258343868 0.009777402794363125 0.9948910809105073 -0.04880029321988834 0.004262935906621448 0.020258728032361138
0.08128386827845 0.004586340239009267 0.02206252621123043 0.9944522956084161 -0.052954294698549204 0.0011392026610947774 0.010589136258519635 -0.0009637843399534269 -0.006732181480227991
 0.9944522956084161 -0.052954294698549204 0.004595047019632364 0.022061813992436837 -0.0009631852186145254 -0.006732203086192532 0.0010874011284171818 0.01059560689969353
 0.0011392026610947774 0.010589136258519635 -0.0009631852186145254 -0.006732203086192532 0.004586488807947497 0.022061444779201373 0.9944522579967073 -0.05295537971192344
 -0.0009637843399534269 -0.006732181480227991 0.0010874011284171818 0.01059560689969353 0.9944522579967073 -0.05295537971192344 0.004594825914428199 0.02206073815046553
0.08753647353064001 0.004934310619718858 0.023880334170913217 0.9939905056680082 -0.05712290899384906 0.0012863947231602495 0.011406177426761937 -0.001085617764688553 -0.007255105679364979
 0.9939905056680082 -0.05712290899384906 0.004944405517200205 0.023879523623146312 -0.0010849249718382211 -0.007255135834549032 0.0012262885571050833 0.01141384661934878
 0.0012863947231602495 0.011406177426761937 -0.0010849249718382211 -0.007255135834549032 0.004934482962936278 0.023879170539059545 0.9939904623138531 -0.05712407755488184
 -0.001085617764688553 -0.007255105679364979 0.0012262885571050833 0.01141384661934878 0.9939904623138531 -0.05712407755488184 0.004944149873514416 0.02387836609564932
0.09378907878283 0.005299910588689559 0.025713483660915637 0.9935054552137846 -0.06130497544083263 0.0014431558363285615 0.012222989633593067 -0.0012153364049163054 -0.007778107960777093
 0.9935054552137846 -0.06130497544083263 0.005311496274875151 0.025712567185947294 -0.0012145434020941984 -0.007778148050635111 0.0013741225703141479 0.01223199751128148
 0.0014431558363285615 0.012222989633593067 -0.0012145434020941984 -0.007778148050635111 0.005300108443307234 0.02571223797138241 0.9935054056988549 -0.06130622760051401
 -0.0012153364049163054 -0.007778107960777093 0.0013741225703141479 0.01223199751128148 0.9935054056988549 -0.06130622760051401 0.0053112036550749895 0.025711328230803066
0.100041684035 0.005683434028986868 0.027561694160108504 0.9929968572089659 -0.06550032094785108 0.0016095611949508994 0.013039436862169212 -0.0013530170207999937 -0.008301055979657
 0.9929968572089659 -0.06550032094785108 0.005696613270030704 0.027560663872371126 -0.0013521173204703223 -0.008301107470045277 0.00153097753448769 0.013049931916868934
 0.0016095611949508994 0.013039436862169212 -0.0013521173204703223 -0.008301107470045277 0.005683659129432768 0.02756036655344603 0.9929968011115733 -0.06550165676646383
 -0.0013530170207999937 -0.008301055979657 0.00153097753448769 0.013049931916868934 0.9929968011115733 -0.06550165676646383 0.005696281249640721 0.027559343767818663
0.1059090909091 0.00605989135199947 0.029309492717582555 0.9924979211381527 -0.06944911985513616 0.0017745513829893044 0.013805130095027833 -0.0014895234446927759 -0.008791617982512157
 0.9924979211381527 -0.06944911985513616 0.006074659541711297 0.02930834819614611 -0.001488517765403756 -0.008791681575867514 0.0016864381566702885 0.013817163280621684
 0.0017745513829893044 0.013805130095027833 -0.001488517765403756 -0.008791681575867514 0.006060143595144683 0.02930808837045727 0.9924978584771782 -0.069450534238107
 -0.0014895234446927759 -0.008791617982512157 0.0016864381566702885 0.013817163280621684 0.9924978584771782 -0.069450534238107 0.006074288354727722 0.029306952216617197
0.1062942892872 0.006085172843735968 0.029424686388470737 0.9924644259166308 -0.06970876006660756 0.0017856838180648807 0.013855379916909723 -0.0014987341639264092 -0.00882381510642137
 0.9924644259166308 -0.06970876006660756 0.006100048520334338 0.029423534109718326 -0.001497721329821928 -0.008823879543572201 0.0016969257356144619 0.013867519085050444
 0.0017856838180648807 0.013855379916909723 -0.001497721329821928 -0.008823879543572201 0.006085426921960801 0.02942327700681347 0.9924643628113854 -0.06971017961042765
 -0.0014987341639264092 -0.00882381510642137 0.0016969257356144619 0.013867519085050444 0.9924643628113854 -0.06971017961042765 0.00609967468796623 0.02942213315784552
0.11254689453939999 0.006505416864276633 0.03130218107606112 0.9919078770671297 -0.07393009619426588 0.00197159445628835 0.014670676524212794 -0.0016525600982950233 -0.009346248373120272
 0.9919078770671297 -0.07393009619426588 0.0065220919924820825 0.03130089832925257 -0.0016514277459288651 -0.009346327383575454 0.0018720372912613703 0.01468462527165323
 0.00197159445628835 0.014670676524212794 -0.0016514277459288651 -0.009346327383575454 0.0065057016506752914 0.031300690064087325 0.9919078065250087 -0.07393159953441016
 -0.0016525600982950233 -0.009346248373120272 0.0018720372912613703 0.01468462527165323 0.9919078065250087 -0.07393159953441016 0.006521673949732297 0.031299416857376604
0.11879949979160001 0.006944453750881807 0.03319389800190213 0.9913269280203503 -0.07816412251175756 0.002167361499404997 0.015485181421662263 -0.0018145647200254434 -0.00986821643667693
 0.9913269280203503 -0.07816412251175756 0.006963031502783455 0.0331924760043705 -0.0018133065171765093 -0.009868311727224313 0.0020563800632383672 0.015501113827206694
 0.002167361499404997 0.015485181421662263 -0.0018133065171765093 -0.009868311727224313 0.006944770974335539 0.03319232550549373 0.9913268496078057 -0.07816570972535988
 -0.0018145647200254434 -0.00986821643667693 0.0020563800632383672 0.015501113827206694 0.9913268496078057 -0.07816570972535988 0.006962566864219884 0.03319091436404912
0.1250521050438 0.007402568885451399 0.03509955524265622 0.9907212979227088 -0.0824106227184212 0.002373050885171001 0.016298746433377816 -0.0019848154756261552 -0.010389577561306044
 0.9907212979227088 -0.0824106227184212 0.007423152609721079 0.03509798489848138 -0.001983425142890626 -0.010389690918921507 0.0022500195705590317 0.01631684527078698
 0.002373050885171001 0.016298746433377816 -0.001983425142890626 -0.010389690918921507 0.007402920274334331 0.03509790140578287 0.9907212112019097 -0.0824122938915212
 -0.0019848154756261552 -0.010389577561306044 0.0022500195705590317 0.01631684527078698 0.9907212112019097 -0.0824122938915212 0.007422639003335867 0.0350963434628469
0.131304710296 0.007880045259107281 0.03701886856476876 0.9900907078624044 -0.0866693716298293 0.002588726008204237 0.017111220541230463 -0.002163377279725231 -0.010910187610613258
 0.9900907078624044 -0.0866693716298293 0.007902738502255922 0.03701714045627487 -0.002161848591192735 -0.010910320902309202 0.0024530189025095644 0.017131677359609007
 0.002588726008204237 0.017111220541230463 -0.002161848591192735 -0.010910320902309202 0.007880432541721171 0.03701713353469284 0.9900906123908413 -0.08667112685194167
 -0.002163377279725231 -0.010910187610613258 0.0024530189025095644 0.017131677359609007 0.9900906123908413 -0.08667112685194167 0.007902173569000137 0.03701541962563757
0.1375573155481 0.008267320197594704 0.03870146856236161 0.9895447625250441 -0.09068995730746937 0.00278778426962558 0.017897579569397158 -0.002323809149117476 -0.011404930919899164
 0.9895447625250441 -0.09068995730746937 0.008292235705050478 0.03869961033897401 -0.0023221331829780204 -0.011405084312721138 0.002639085994469083 0.01792036501739903
 0.00278778426962558 0.017897579569397158 -0.0023221331829780204 -0.011405084312721138 0.008267746157195903 0.038699651739418695 0.9895446579056169 -0.09069179660578269
 -0.002323809149117476 -0.011404930919899164 0.002639085994469083 0.01792036501739903 0.9895446579056169 -0.09069179660578269 0.008291615945164185 0.03869781114844519
0.1438099208003 0.008668210327428691 0.040375231897583894 0.9889796190888727 -0.0947003699066517 0.0029949009795796223 0.018680672698830267 -0.002490657066933334 -0.01189675037744901
 0.9889796190888727 -0.0947003699066517 0.00869545335256675 0.040373236366851355 -0.00248882718825164 -0.011896925700257395 0.0028326413058663825 0.018705962038561844
 0.0029949009795796223 0.018680672698830267 -0.00248882718825164 -0.011896925700257395 0.008668676883651236 0.040373333353601305 0.9889795048818935 -0.09470229336349416
 -0.002490657066933334 -0.01189675037744901 0.0028326413058663825 0.018705962038561844 0.9889795048818935 -0.09470229336349416 0.008694776218077594 0.04037135930433822
0.1500625260525 0.009082574417139132 0.042040019387285084 0.9883954227411371 -0.09870051026311259 0.003210005443857893 0.019460417078862906 -0.002663853726173287 -0.012385570290610212
 0.9883954227411371 -0.09870051026311259 0.009112250462906948 0.042037878931383485 -0.0026618633186762334 -0.012385769445103174 0.003033617443860254 0.019488391984943315
 0.003210005443857893 0.019460417078862906 -0.0026618633186762334 -0.012385769445103174 0.009083083501940306 0.04203803919176594 0.9883952985033508 -0.09870251796534106
 -0.002663853726173287 -0.012385570290610212 0.003033617443860254 0.019488391984943315 0.9883952985033508 -0.09870251796534106 0.009111513404610368 0.04203592450540799
0.15631513130469998 0.009510270234915779 0.04369569606090918 0.9877923194019045 -0.10269027955563231 0.003433026128760111 0.020236731245830936 -0.0028433309913406288 -0.012871316564834489
 0.9877923194019045 -0.10269027955563231 0.009542485061700304 0.04369340262617498 -0.002841173457793887 -0.012871541525143379 0.003241946225029191 0.020267579740479897
