! Created with skrf 1.8.0 (http://scikit-rf.org).
# GHz S RI R 50.0 
!freq ReS11 ImS11 ReS12 ImS12 ReS13 ImS13
! ReS14 ImS14
! ReS21 ImS21 ReS22 ImS22 ReS23 ImS23
! ReS24 ImS24
! ReS31 ImS31 ReS32 ImS32 ReS33 ImS33
! ReS34 ImS34
! ReS41 ImS41 ReS42 ImS42 ReS43 ImS43
! ReS44 ImS44
!
0.0 0.001618338434943 0.0 0.9983816615649 0.0 6.267513911844e-05 0.0 -6.267513894177e-05 7.675490829115426e-21
 0.9983816615649 0.0 0.001618338434943 0.0 -6.267513894056e-05 7.675490828967244e-21 6.267513911918e-05 0.0
 6.267513911844e-05 0.0 -6.267513894056e-05 7.675490828967244e-21 0.001618338434923 0.0 0.9983816615649 0.0
 -6.267513894177e-05 7.675490829115426e-21 6.267513911918e-05 0.0 0.9983816615649 0.0 0.001618338434987 0.0
0.005 0.001741448061343328 0.0013214003995237413 0.9982258612612832 -0.003389839515113523 8.834199001758294e-05 0.0007048246219700686 -8.565517919485353e-05 -0.00043987864952382887
 0.9982258612612832 -0.003389839515113523 0.001741466107137527 0.001321389893347452 -8.565794331180861e-05 -0.0004398807967555574 8.822733842269812e-05 0.000704868397838986
 8.834199001758294e-05 0.0007048246219700686 -8.565794331180861e-05 -0.0004398807967555574 0.0017414461612279973 0.0013213342786898372 0.9982258608983337 -0.0033899065809336946
 -8.565517919485353e-05 -0.00043987864952382887 8.822733842269812e-05 0.000704868397838986 0.9982258608983337 -0.0033899065809336946 0.0017414672920150153 0.0013213218929747537
0.006252605252188 0.0017738021185406134 0.0016569499322421203 0.9981846440068338 -0.004238118537802332 9.572267635286532e-05 0.0008813604364318241 -9.217592125154836e-05 -0.0005504160619720206
 0.9981846440068338 -0.004238118537802332 0.0017738303266894107 0.0016569365444162286 -9.218022225078168e-05 -0.0005504187097216075 9.554354569274039e-05 0.0008814172733241903
 9.572267635286532e-05 0.0008813604364318241 -9.218022225078168e-05 -0.0005504187097216075 0.0017737992138390076 0.0016568672956106612 0.9981846435052114 -0.004238202365434566
 -9.217592125154836e-05 -0.0005504160619720206 9.554354569274039e-05 0.0008814172733241903 0.9981846435052114 -0.004238202365434566 0.001773832245250981 0.001656851548803934
0.01250521050438 0.0019445060207433954 0.00334859356153149 0.9979656747848686 -0.008476975878596582 0.00013830076215146667 0.001762997506099386 -0.00012934876566546814 -0.0011034677291233566
 0.9979656747848686 -0.008476975878596582 0.001944618648076606 0.003348564220334427 -0.00012936571311636643 -0.0011034726255322459 0.00013758647823760556 0.0017631341047481916
 0.00013830076215146667 0.001762997506099386 -0.00012936571311636643 -0.0011034726255322459 0.0019444949969315323 0.0033484286634473935 0.9979656733582983 -0.008477143304225663
 -0.00012934876566546814 -0.0011034677291233566 0.00013758647823760556 0.0017631341047481916 0.9979656733582983 -0.008477143304225663 0.0019446268958290716 0.003348394479311875
0.01875781575657 0.0021308378814406913 0.005064257087462068 0.997724471190489 -0.012726874059399993 0.00019050933464821216 0.0026455035320736655 -0.00017431162003283935 -0.0016583282635360577
 0.997724471190489 -0.012726874059399993 0.0021310909455644635 0.005064209071495657 -0.00017434940992860353 -0.001658334929696766 0.0001889048865136183 0.00264574749310046
 0.00019050933464821216 0.0026455035320736655 -0.00017434940992860353 -0.001658334929696766 0.002130813525560431 0.005064010254569876 0.9977244684001552 -0.012727125028405655
 -0.00017431162003283935 -0.0016583282635360577 0.0001889048865136183 0.00264574749310046 0.9977244684001552 -0.012727125028405655 0.00213110991721031 0.005063954700112776
0.02501042100875 0.0023331730691251227 0.006801515894259413 0.9974607389665034 -0.016989853637636526 0.0002524500673735678 0.0035289044846568947 -0.00022717819227421041 -0.0022147305628492653
 0.9974607389665034 -0.016989853637636526 0.002333622465719213 0.006801446343253665 -0.0002272449212651194 -0.0022147384317839545 0.00024960038437557683 0.0035292879254776198
 0.0002524500673735678 0.0035289044846568947 -0.0002272449212651194 -0.0022147384317839545 0.002333130183184113 0.00680118750792378 0.9974607343759612 -0.016990188165404044
 -0.00022717819227421041 -0.0022147305628492653 0.00024960038437557683 0.0035292879254776198 0.9974607343759612 -0.016990188165404044 0.002333656566240279 0.006801107428627323
0.03126302626094 0.002551871411821757 0.008559112348269752 0.9971741694147386 -0.02126677587361277 0.00032422504573743097 0.004413143067710673 -0.00028805872349499417 -0.0027724840068019483
 0.9971741694147386 -0.02126677587361277 0.0025525729457700117 0.008559018266623962 -0.0002881624056029709 -0.0027724924224820802 0.00031977466961247055 0.004413702647676214
 0.00032422504573743097 0.004413143067710673 -0.0002881624056029709 -0.0027724924224820802 0.0025518048071617168 0.008558702879040248 0.9971741625842804 -0.021267194011527317
 -0.00028805872349499417 -0.0027724840068019483 0.00031977466961247055 0.004413702647676214 0.9971741625842804 -0.021267194011527317 0.0025526265892139985 0.008558594902057815
0.037515631513130004 0.002787284758153525 0.010336218983227213 0.9968644472272903 -0.025558059484671342 0.0004059356819968356 0.005298128899547688 -0.00035706079214827083 -0.003331424280116943
 0.9968644472272903 -0.025558059484671342 0.002788294165063424 0.010336097241881987 -0.00035720936732932753 -0.0033314324972060763 0.00039952862252285376 0.005298905864155629
 0.0004059356819968356 0.005298128899547688 -0.00035720936732932753 -0.0033314324972060763 0.002787189254142376 0.010335728985885174 0.9968644377116344 -0.02555856132586197
 -0.00035706079214827083 -0.003331424280116943 0.00039952862252285376 0.005298905864155629 0.9968644377116344 -0.02555856132586197 0.0027883717746403835 0.010335589520986163
0.043768236765320004 0.0030397599050439833 0.012132214230172269 0.9965312536883393 -0.029863904844638498 0.0004976821943589264 0.006183753795566906 -0.0004342896025958688 -0.003891398099368802
 0.9965312536883393 -0.029863904844638498 0.003041132868561285 0.012132061567737017 -0.0004344909417073328 -0.0038914052831472683 0.0004889618637257705 0.006184794026613428
 0.0004976821943589264 0.006183753795566906 -0.0004344909417073328 -0.0038914052831472683 0.0030396303281694584 0.012131644360000991 0.996531241034073 -0.029864490508547725
 -0.0004342896025958688 -0.003891398099368802 0.0004889618637257705 0.006184794026613428 0.996531241034073 -0.029864490508547725 0.0030412388772605575 0.012131469599627291
0.050020842017509996 0.0033096399412393864 0.013946589769932268 0.9961742682966294 -0.03418438655917694 0.0005995632957670181 0.007069898072593987 -0.0005198480795461416 -0.00445225692250442
 0.9961742682966294 -0.03418438655917694 0.0033114321084308286 0.013946402793374073 -0.000520109987553332 -0.004452262148882158 0.0005881724845492008 0.007071252140678531
 0.0005995632957670181 0.007069898072593987 -0.000520109987553332 -0.004452262148882158 0.0033094711297018535 0.013945940777756773 0.9961742520445788 -0.03418505619737402
 -0.0005198480795461416 -0.00445225692250442 0.0005881724845492008 0.007071252140678531 0.9961742520445788 -0.03418505619737402 0.0033115709637851613 0.013945726696394075
0.055454545454549996 0.00355857295375238 0.01553792077643985 0.9958444657388797 -0.03795089964991704 0.0006964069547300651 0.007840306803013276 -0.0006010439295539669 -0.004940264881999555
 0.9958444657388797 -0.03795089964991704 0.0035607745963857637 0.015537701122152615 -0.0006013647627943983 -0.004940267587482954 0.0006824048352654171 0.007841978356334068
 0.0006964069547300651 0.007840306803013276 -0.0006013647627943983 -0.004940267587482954 0.0035583658617353692 0.01553720370854492 0.9958444459798381 -0.037951642413261606
 -0.0006010439295539669 -0.004940264881999555 0.0006824048352654171 0.007841978356334068 0.9958444459798381 -0.037951642413261606 0.0035609456182741583 0.015536952016774084
0.056273447269699996 0.0035972649360645325 0.015778905038304484 0.9957931697369466 -0.03851949889062019 0.000711675970239027 0.007956433649423212 -0.0006138368805613692 -0.0050138538669151425
 0.9957931697369466 -0.03851949889062019 0.0035995319317738126 0.01577868022307621 -0.000614167098641517 -0.005013856122474097 0.000697256848809329 0.007958156867477301
 0.000711675970239027 0.007956433649423212 -0.000614167098641517 -0.005013856122474097 0.0035970517377394576 0.015778177769535898 0.9957931494181815 -0.03852025268861094
 -0.0006138368805613692 -0.0050138538669151425 0.000697256848809329 0.007958156867477301 0.9957931494181815 -0.03852025268861094 0.003599708094090177 0.015777920122651737
0.06252605252188 0.0039029722975837625 0.017628762220098525 0.9953876365261406 -0.042869180697897954 0.0008341152933867814 0.008843225756521649 -0.0007163543665390401 -0.005576042023566243
 0.9953876365261406 -0.042869180697897954 0.003905769738179161 0.017628495909861153 -0.0007167605734929781 -0.0055760402056174605 0.0008163094299723339 0.008845378233648912
 0.0008341152933867814 0.008843225756521649 -0.0007167605734929781 -0.0055760402056174605 0.0039027095729964466 0.017627957624271325 0.9953876116625966 -0.042870018866432706
 -0.0007163543665390401 -0.005576042023566243 0.0008163094299723339 0.008845378233648912 0.9953876116625966 -0.042870018866432706 0.003905987683338114 0.017627651946708445
0.06877865777407 0.004227096953872416 0.019495791359482782 0.994957347486825 -0.04723333026520334 0.0009669742778310231 0.00973013396375093 -0.0008274965476970137 -0.0061386734586356285
 0.994957347486825 -0.04723333026520334 0.004230480460093834 0.0194954797655475 -0.0008279863608161573 -0.006138666375303127 0.0009454226684268477 0.009732780659016938
 0.0009669742778310231 0.00973013396375093 -0.0008279863608161573 -0.006138666375303127 0.004226779576855973 0.019494910480176125 0.9949573175896882 -0.04723425305113002
 -0.0008274965476970137 -0.0061386734586356285 0.0009454226684268477 0.009732780659016938 0.9949573175896882 -0.04723425305113002 0.004230744680509005 0.019494552084220896
0.07503126302626001 0.004569971427010429 0.021379640890048544 0.9945019821182681 -0.051611814716663165 0.0011103437345764881 0.010617012834733265 -0.0009473570130462442 -0.006701598594376636
 0.9945019821182681 -0.051611814716663165 0.004573996637745613 0.021379280090162656 -0.00094793798876429 -0.006701584964672228 0.0010846868419211353 0.010620223610643438
 0.0011103437345764881 0.010617012834733265 -0.00094793798876429 -0.006701584964672228 0.004569594285997936 0.02137868487903937 0.994501946686678 -0.05161282238948422
 -0.0009473570130462442 -0.006701598594376636 0.0010846868419211353 0.010620223610643438 0.994501946686678 -0.05161282238948422 0.004574311642820768 0.021378268851913688
0.08128386827845 0.004931925842560362 0.023279971373792747 0.9940212209060096 -0.05600447622842455 0.0012643121417567084 0.011503712374744098 -0.001076026852130403 -0.007264665802510816
 0.9940212209060096 -0.05600447622842455 0.004936648427183029 0.023279557310662093 -0.001076706486276813 -0.0072646442564474915 0.0012341899410761267 0.011507562050233643
 0.0012643121417567084 0.011503712374744098 -0.001076706486276813 -0.0072646442564474915 0.0049314838420212856 0.02327894148115501 0.9940211794259985 -0.05600556909094733
 -0.001076026852130403 -0.007264665802510816 0.0012341899410761267 0.011507562050233643 0.9940211794259985 -0.05600556909094733 0.004937018744955378 0.023278462682125033
0.08753647353064001 0.005313287892467689 0.02519645114455088 0.9935147455908003 -0.06041113634307762 0.001428965520850058 0.012390078345109202 -0.0012135945681026022 -0.007827721137393936
 0.9935147455908003 -0.06041113634307762 0.005318763564713447 0.025195979623694246 -0.0012143802961313076 -0.007827690216075787 0.0013940175514730712 0.01239464674790389
 0.001428965520850058 0.012390078345109202 -0.0012143802961313076 -0.007827690216075787 0.005312775955262366 0.025195348725450237 0.9935146975345244 -0.060412314725075016
 -0.0012135945681026022 -0.007827721137393936 0.0013940175514730712 0.01239464674790389 0.9935146975345244 -0.060412314725075016 0.005319193742961466 0.02519480178246455
0.09378907878283 0.005714382769885211 0.027128753217069295 0.992982239411128 -0.0648315990250783 0.001604387315797563 0.013275952502780488 -0.0013601459874286524 -0.00839060815045433
 0.992982239411128 -0.0648315990250783 0.005720667300252835 0.02712821990452179 -0.0013610451843392032 -0.008390566306214653 0.0015642527373944486 0.013281324521071296
 0.001604387315797563 0.013275952502780488 -0.0013610451843392032 -0.008390566306214653 0.005713795837914723 0.02712757973140203 0.9929821842351464 -0.06483286328439142
 -0.0013601459874286524 -0.00839060815045433 0.0015642527373944486 0.013281324521071296 0.9929821842351464 -0.06483286328439142 0.00572116190706798 0.027126959037277694
0.100041684035 0.0061355330792936804 0.029076553019552403 0.9924233873263915 -0.06926565290074765 0.0017906582756247642 0.014161172779891196 -0.0015157641651215037 -0.008953167771309403
 0.9924233873263915 -0.06926565290074765 0.00614268230827287 0.029075953438770192 -0.0015167841453170188 -0.008953113367835332 0.0017449759286111365 0.01416743841310253
 0.0017906582756247642 0.014161172779891196 -0.0015167841453170188 -0.008953113367835332 0.0061348661156926405 0.029075310029357444 0.9924233244712897 -0.06926700342622157
 -0.0015157641651215037 -0.008953167771309403 0.0017449759286111365 0.01416743841310253 0.9924233244712897 -0.06926700342622157 0.006143245933711677 0.029074609737434406
0.1059090909091 0.006549263182639596 0.030918163059652233 0.991874723669169 -0.07343870293707595 0.0019753904750282334 0.014991115830725208 -0.0016701129045380864 -0.00948062847623517
 0.991874723669169 -0.07343870293707595 0.006557274699974842 0.030917497091753184 -0.001671252825243234 -0.009480560720203124 0.0019241734367502342 0.014998306477137121
 0.0019753904750282334 0.014991115830725208 -0.001671252825243234 -0.009480560720203124 0.006548516557088148 0.030916856362848376 0.9918746530832139 -0.07344013479154197
 -0.0016701129045380864 -0.00948062847623517 0.0019241734367502342 0.014998306477137121 0.9918746530832139 -0.07344013479154197 0.00655790728666108 0.03091607584177586
0.1062942892872 0.0065770587323842385 0.031039526686271784 0.9918378762289921 -0.07371307294514752 0.001987856338723837 0.015045573434802176 -0.001680529287767662 -0.009515238224137464
 0.9918378762289921 -0.07371307294514752 0.006585128583878741 0.03103885621467426 -0.0016816773048417125 -0.00951516953661525 0.001936264808253512 0.015052827843503409
 0.001987856338723837 0.015045573434802176 -0.0016816773048417125 -0.00951516953661525 0.006576306723083485 0.031038215861489037 0.9918378051174357 -0.07371451015136869
 -0.001680529287767662 -0.009515238224137464 0.001936264808253512 0.015052827843503409 0.9918378051174357 -0.07371451015136869 0.00658576584057723 0.031037429880766416
0.11254689453939999 0.0070392768304020905 0.0330173497709092 0.9912253951457793 -0.07817362175649546 0.0021960565187824827 0.015928985175172886 -0.0018545185744272034 -0.010076654978921448
 0.9912253951457793 -0.07817362175649546 0.007048323324666986 0.033016603635943415 -0.0018558018208625956 -0.010076570194191923 0.0021381942019291123 0.015937328729993205
 0.0021960565187824827 0.015928985175172886 -0.0018558018208625956 -0.010076570194191923 0.00703843478595411 0.0330159728840649 0.9912253151817251 -0.07817514608942204
 -0.0018545185744272034 -0.010076654978921448 0.0021381942019291123 0.015937328729993205 0.9912253151817251 -0.07817514608942204 0.0070490388489075784 0.03301509487396231
0.11879949979160001 0.007522501536847351 0.035009696231914605 0.9905856354331262 -0.08264705056658796 0.002415330791756069 0.016811235266479038 -0.0020378061763141777 -0.010637250724260843
 0.9905856354331262 -0.08264705056658796 0.007532580803926847 0.03500886950648881 -0.0020392317829895255 -0.010637147941024513 0.002350835967715111 0.016820773595976547
 0.002415330791756069 0.016811235266479038 -0.0020392317829895255 -0.010637147941024513 0.007521564494074758 0.03500825516528016 0.9905855460006339 -0.08264866249668561
 -0.0020378061763141777 -0.010637250724260843 0.002350835967715111 0.016820773595976547 0.9905855460006339 -0.08264866249668561 0.007533379256878372 0.035007278529616825
0.1250521050438 0.008027043943125995 0.03701623765380545 0.9899182909684409 -0.08713310002354605 0.0026457479840064535 0.017692147631779644 -0.002230463074998255 -0.011196855356188118
 0.9899182909684409 -0.08713310002354605 0.008038212236312552 0.03701532525128274 -0.0022320381108806866 -0.011196732585143624 0.0025742588869202315 0.01770299166914408
 0.0026457479840064535 0.017692147631779644 -0.0022320381108806866 -0.011196732585143624 0.008026006967252813 0.03701473439363604 0.9899181914303172 -0.08713480005166042
 -0.002230463074998255 -0.011196855356188118 0.0025742588869202315 0.01770299166914408 0.9899181914303172 -0.08713480005166042 0.008039098304911365 0.03701365227435645
0.131304710296 0.008553211927486546 0.03903664261392503 0.9892230583365008 -0.09163150083761055 0.0028873736612210427 0.018571542940076215 -0.0024325569802298714 -0.01175529598556417
 0.9892230583365008 -0.09163150083761055 0.008565525636561624 0.03903563928243545 -0.002434288451770063 -0.011755151149646328 0.002808528555515284 0.01858380896865969
 0.0028873736612210427 0.018571542940076215 -0.002434288451770063 -0.011755151149646328 0.00855207011384352 0.03903507925509601 0.9892229480333481 -0.09163328949056014
 -0.0024325569802298714 -0.01175529598556417 0.002808528555515284 0.01858380896865969 0.9892229480333481 -0.09163328949056014 0.008566504034414706 0.03903388452524111
0.1375573155481 0.008983173905397731 0.04080688520094568 0.9886178214821312 -0.09587815953453135 0.0031109125236048894 0.019423116032606793 -0.0026148852121992716 -0.01228622409900857
 0.9886178214821312 -0.09587815953453135 0.008996694931736786 0.04080581010197463 -0.0026167835971811545 -0.012286056952293884 0.0030245263230742536 0.019436790267221834
 0.0031109125236048894 0.019423116032606793 -0.0026167835971811545 -0.012286056952293884 0.008981922929453294 0.040805263569225564 0.9886176999050696 -0.09588003714106547
 -0.0026148852121992716 -0.01228622409900857 0.0030245263230742536 0.019436790267221834 0.9886176999050696 -0.09588003714106547 0.008997769531483924 0.04080397375949722
0.1438099208003 0.009428335274640313 0.042567305555635995 0.9879911412388629 -0.10011355350975017 0.0033434803962423196 0.020270899876080443 -0.0028044919232073718 -0.012813725001523458
 0.9879911412388629 -0.10011355350975017 0.009443121045584774 0.04256615496580128 -0.0028065647629809615 -0.012813533491322752 0.0032492233023818187 0.020286089118279473
 0.0033434803962423196 0.020270899876080443 -0.0028065647629809615 -0.012813533491322752 0.00942697037812206 0.042565627815093994 0.9879910077268341 -0.1001155205891332
 -0.0028044919232073718 -0.012813725001523458 0.0032492233023818187 0.020286089118279473 0.9879910077268341 -0.1001155205891332 0.00944429644903867 0.0425642372974796
0.1500625260525 0.009888531783403454 0.04431774194913739 0.9873431862741048 -0.10433756256092189 0.003584992749629788 0.021114796448283263 -0.0030012958030379926 -0.013337708053368428
 0.9873431862741048 -0.10433756256092189 0.009904639890259134 0.044316511906261215 -0.0030035506207409723 -0.01333749004445649 0.003482537030041293 0.021131611409328073
 0.003584992749629788 0.021114796448283263 -0.0030035506207409723 -0.01333749004445649 0.00988704824370943 0.04431601034942616 0.987343040147262 -0.10433961965220323
 -0.0030012958030379926 -0.013337708053368428 0.003482537030041293 0.021131611409328073 0.987343040147262 -0.10433961965220323 0.009905920716019088 0.04431451317950467
0.15631513130469998 0.01036359792270108 0.04605803750436173 0.9866741262136983 -0.10855006723325976 0.00383536399534763 0.021954709477520377 -0.0032052144892102913 -0.013858084616037495
