! Created with skrf 1.8.0 (http://scikit-rf.org).
# GHz S RI R 50.0 
!freq ReS11 ImS11 ReS12 ImS12 ReS13 ImS13
! ReS14 ImS14
! ReS21 ImS21 ReS22 ImS22 ReS23 ImS23
! ReS24 ImS24
! ReS31 ImS31 ReS32 ImS32 ReS33 ImS33
! ReS34 ImS34
! ReS41 ImS41 ReS42 ImS42 ReS43 ImS43
! ReS44 ImS44
!
0.0 0.001273294961853 0.0 0.9987267050257 0.0 4.846323296034e-05 0.0 -4.846323304948e-05 5.93503432303779e-21
 0.9987267050257 0.0 0.001273294961875 0.0 -4.846323304967e-05 5.935034323061059e-21 4.846323296121e-05 0.0
 4.846323296034e-05 0.0 -4.846323304967e-05 5.935034323061059e-21 0.0012732949663 0.0 0.9987267050302 0.0
 -4.846323304948e-05 5.93503432303779e-21 4.846323296121e-05 0.0 0.9987267050302 0.0 0.001273294966315 0.0
0.005 0.0013692585868121628 0.0010458193477418155 0.9986054157555135 -0.002667790214031339 6.697247208875815e-05 0.0005120542966796027 -6.523594071667248e-05 -0.0003253481163788883
 0.9986054157555135 -0.002667790214031339 0.0013692667610648202 0.0010458146128121285 -6.523626704997737e-05 -0.0003253484133643094 6.691935651216557e-05 0.0005120744716378407
 6.697247208875815e-05 0.0005120542966796027 -6.523626704997737e-05 -0.0003253484133643094 0.001369257834942744 0.0010457525851079838 0.9986054154147962 -0.0026678572600851
 -6.523594071667248e-05 -0.0003253481163788883 6.691935651216557e-05 0.0005120744716378407 0.9986054154147962 -0.0026678572600851 0.0013692668366518247 0.0010457472881823773
0.006252605252188 0.0013942329422681804 0.0013113982467730478 0.9985736838528807 -0.003335418662715498 7.215333121696565e-05 0.0006403380686082374 -6.98804146435085e-05 -0.00040711158847902
 0.9985736838528807 -0.003335418662715498 0.0013942457196992632 0.0013113922344021166 -6.988092208080983e-05 -0.00040711195574082273 7.20703415237454e-05 0.0006403642486240197
 7.215333121696565e-05 0.0006403380686082374 -6.988092208080983e-05 -0.00040711195574082273 0.001394231840716105 0.001311314789900177 0.9985736833943076 -0.003335502481053133
 -6.98804146435085e-05 -0.00040711158847902 7.20703415237454e-05 0.0006403642486240197 0.9985736833943076 -0.003335502481053133 0.0013942459124185883 0.0013113080653541652
0.01250521050438 0.001524573860845922 0.002650418146778311 0.9984071364779306 -0.0066717956822061174 0.00010129859019680563 0.0012811618729072318 -9.574356594597016e-05 -0.0008162941074446762
 0.9984071364779306 -0.0066717956822061174 0.0015246248750115689 0.0026504051810715924 -9.574556136866444e-05 -0.0008162947994679042 0.00010096761086285243 0.001281224483330607
 0.00010129859019680563 0.0012811618729072318 -9.574556136866444e-05 -0.0008162947994679042 0.0015245700572783319 0.002650251552897911 0.998407135245919 -0.006671963090370441
 -9.574356594597016e-05 -0.0008162941074446762 0.00010096761086285243 0.001281224483330607 0.998407135245919 -0.006671963090370441 0.0015246262519640445 0.002650237058426676
0.01875781575657 0.0016645618614919244 0.004008719768409889 0.9982268849038898 -0.010017287642996621 0.00013596053593201046 0.0019228995060545694 -0.00012612327977868325 -0.0012270125213830016
 0.9982268849038898 -0.010017287642996621 0.0016646764795513831 0.004008698846994581 -0.00012612772365999238 -0.0012270134901464008 0.0001352169398207659 0.0019230105273618334
 0.00013596053593201046 0.0019228995060545694 -0.00012612772365999238 -0.0012270134901464008 0.0016645537210348068 0.004008470269497331 0.9982268825491778 -0.010017538551662309
 -0.00012612327977868325 -0.0012270125213830016 0.0001352169398207659 0.0019230105273618334 0.9982268825491778 -0.010017538551662309 0.0016646800048907787 0.004008446874295248
0.02501042100875 0.001814435907686706 0.005384451694936989 0.9980327452327035 -0.01337355658178883 0.00017620164074021733 0.002565596603744471 -0.000161088588016805 -0.0016391111140967747
 0.9980327452327035 -0.01337355658178883 0.0018146394373062657 0.005384421763236119 -0.00016109642751413282 -0.0016391123049411859 0.0001748806719539256 0.002565769673736556
 0.00017620164074021733 0.002565596603744471 -0.00016109642751413282 -0.0016391123049411859 0.0018144218128879792 0.005384119496786809 0.9980327414234152 -0.013373890978801012
 -0.000161088588016805 -0.0016391111140967747 0.0001748806719539256 0.002565769673736556 0.9980327414234152 -0.013373890978801012 0.0018146461018924162 0.005384085994770381
0.03126302626094 0.001974424844458839 0.006776682003076345 0.9978245228329035 -0.016741338981255804 0.00022208503761622587 0.0032092431678314793 -0.00020070700700654397 -0.002052486622786454
 0.9978245228329035 -0.016741338981255804 0.001974742546928651 0.00677664195634951 -0.00020071917821633045 -0.0020524879743004597 0.00022002165047919225 0.003209493590653488
 0.00022208503761622587 0.0032092431678314793 -0.00020071917821633045 -0.0020524879743004597 0.0019744031697484813 0.006776267361475696 0.9978245172290819 -0.016741756855824307
 -0.00020070700700654397 -0.002052486622786454 0.00022002165047919225 0.003209493590653488 0.9978245172290819 -0.016741756855824307 0.0019747533437837446 0.00677622247303391
0.037515631513130004 0.0021447527600850324 0.008184818891889652 0.9976020178060974 -0.020121025092081486 0.00027367393164994593 0.0038538075254995864 -0.0002450450136329086 -0.0024670542654374786
 0.9976020178060974 -0.020121025092081486 0.002145209858642686 0.008184767576439614 -0.000245062442814177 -0.002467055709451194 0.000270702713769049 0.0038541522889862134
 0.00027367393164994593 0.0038538075254995864 -0.000245062442814177 -0.002467055709451194 0.0021447218819371752 0.008184322077498918 0.9976020100693611 -0.020121526470301538
 -0.0002450450136329086 -0.0024670542654374786 0.000270702713769049 0.0038541522889862134 0.9976020100693611 -0.020121526470301538 0.0021452257933133215 0.008184264450352275
0.043768236765320004 0.002325641075192481 0.009608434312034864 0.9973650271823785 -0.023512835248321092 0.0003310313358265446 0.0044992466337384065 -0.0002941682201557431 -0.0028827374241164644
 0.9973650271823785 -0.023512835248321092 0.0023262627615319256 0.009608370526022479 -0.00029419182449765246 -0.002882738885711259 0.0003269864667441418 0.004499704429358648
 0.0003310313358265446 0.0044992466337384065 -0.00029419182449765246 -0.002882738885711259 0.0023255993677856763 0.009607855638143276 0.9973650169698988 -0.023513420165745303
 -0.0002941682201557431 -0.0028827374241164644 0.0003269864667441418 0.004499704429358648 0.9973650169698988 -0.023513420165745303 0.002326284847612561 0.009607783847874552
0.050020842017509996 0.002517309517479797 0.011047191129306761 0.9971133460023954 -0.026916892646192073 0.0003942199154544025 0.005145510350779754 -0.00034814144753138375 -0.003299463362084803
 0.9971133460023954 -0.026916892646192073 0.0025181209571037175 0.01104711362348898 -0.0003481721356553647 -0.0032994647596269275 0.00038893514431879956 0.005146101594698391
 0.0003942199154544025 0.005145510350779754 -0.0003481721356553647 -0.0032994647596269275 0.002517255355571454 0.011046530939877333 0.9971133329698808 -0.026917561160305036
 -0.00034814144753138375 -0.003299463362084803 0.00038893514431879956 0.005146101594698391 0.9971133329698808 -0.026917561160305036 0.002518150219073065 0.011046443490216981
0.055454545454549996 0.0026927997444417566 0.01230959105386537 0.9968825366887135 -0.029885117066561346 0.0004539166635718378 0.005707760046006226 -0.00039903439506553344 -0.0036624025752815884
 0.9968825366887135 -0.029885117066561346 0.0026937965060482567 0.012309500574154109 -0.000399071970721682 -0.003662403845662286 0.00044741902113516334 0.005708485196728526
 0.0004539166635718378 0.005707760046006226 -0.000399071970721682 -0.003662403845662286 0.0026927334388816785 0.012308860332828587 0.9968825209227753 -0.029885858287979124
 -0.00039903439506553344 -0.0036624025752815884 0.00044741902113516334 0.005708485196728526 0.9968825209227753 -0.029885858287979124 0.002693832843809825 0.012308758003879318
0.056273447269699996 0.0027199766364234355 0.012500807331191348 0.9968467679432599 -0.030333259079768558 0.0004633018831903556 0.005792543512348611 -0.00040702875092510864 -0.0037171611371722723
 0.9968467679432599 -0.030333259079768558 0.0027210029733443653 0.012500714809428068 -0.0004070674232217318 -0.003717162382333031 0.0004566105175315124 0.005793290367068241
 0.0004633018831903556 0.005792543512348611 -0.0004070674232217318 -0.003717162382333031 0.002719908394343178 0.012500066008392464 0.9968467517425359 -0.030334011262772402
 -0.00040702875092510864 -0.0037171611371722723 0.0004566105175315124 0.005793290367068241 0.9968467517425359 -0.030334011262772402 0.0027210404457310906 0.012499961331412112
0.06252605252188 0.0029338600886005413 0.013969036372380308 0.9965650857161285 -0.0337619545380044 0.0005383389180837042 0.0064402870815078225 -0.0004708934216965245 -0.0041357604428252075
 0.9965650857161285 -0.0337619545380044 0.002935126449901967 0.013968927492139346 -0.00047094097065143514 -0.004135761440621635 0.0005300738202648438 0.006441213477803284
 0.0005383389180837042 0.0064402870815078225 -0.00047094097065143514 -0.004135761440621635 0.0029337761418798606 0.01396821433315404 0.9965650659958735 -0.03376279048065118
 -0.0004708934216965245 -0.0041357604428252075 0.0005300738202648438 0.006441213477803284 0.9965650659958735 -0.03376279048065118 0.002935173178262907 0.013968090789338533
0.06877865777407 0.0031591768044037303 0.015451655444868663 0.9962680913475697 -0.03720296887818329 0.0006193920982622217 0.007088678827657783 -0.0005397979760781295 -0.004555190921437859
 0.9962680913475697 -0.03720296887818329 0.0031607083043879037 0.015451528817577035 -0.0005398552864205878 -0.004555191570267673 0.0006093856868860162 0.007089810486666528
 0.0006193920982622217 0.007088678827657783 -0.0005398552864205878 -0.004555191570267673 0.0031590755288168574 0.015450753148723502 0.9962680677516024 -0.037203888682437056
 -0.0005397979760781295 -0.004555190921437859 0.0006093856868860162 0.007089810486666528 0.9962680677516024 -0.037203888682437056 0.003160765344730018 0.015450609026889722
0.07503126302626001 0.0033961430779207795 0.01694845804616476 0.9959555763871097 -0.04065626920281414 0.0007065218430567017 0.007737653753830079 -0.0006138041336982018 -0.004975381730977259
 0.9959555763871097 -0.04065626920281414 0.003397964822442896 0.01694831223740135 -0.0006138720826221637 -0.0049753819226467716 0.0006946060982859363 0.007739018209217105
 0.0007065218430567017 0.007737653753830079 -0.0006138720826221637 -0.0049753819226467716 0.0033960228515915155 0.01694747599026567 0.9959555485549988 -0.04065727298697819
 -0.0006138041336982018 -0.004975381730977259 0.0006946060982859363 0.007739018209217105 0.9959555485549988 -0.04065727298697819 0.003398033242638436 0.016947309507475215
0.08128386827845 0.0036449746158842677 0.018459249031363034 0.9956273320745714 -0.04412180475380642 0.0007997878580440988 0.008387144385797827 -0.0006929727927291237 -0.005396261251418922
 0.9956273320745714 -0.04412180475380642 0.0036471117063420484 0.018459082561084965 -0.0006930522500311711 -0.005396260871183593 0.0007857943297782972 0.00838877100595035
 0.0007997878580440988 0.008387144385797827 -0.0006930522500311711 -0.005396260871183593 0.0036448338190438138 0.01845818775266879 0.995627299640853 -0.04412289265091348
 -0.0006929727927291237 -0.005396261251418922 0.0007857943297782972 0.00838877100595035 0.995627299640853 -0.04412289265091348 0.003647192585605619 0.018457997053978287
0.08753647353064001 0.0039058865537962384 0.01998384118470431 0.995283149478096 -0.047599510289360325 0.0008992490848844022 0.009037080966518944 -0.0007773639993512813 -0.005817756887652597
 0.995283149478096 -0.047599510289360325 0.00390836409112265 0.019983652527244787 -0.0007774558275190383 -0.00581775581424441 0.0008830089034419866 0.00903900097668209
 0.0008992490848844022 0.009037080966518944 -0.0007774558275190383 -0.00581775581424441 0.0039057235699952067 0.01998270125922053 0.9952831120719989 -0.04760068244809911
 -0.0007773639993512813 -0.005817756887652597 0.0008830089034419866 0.00903900097668209 0.9952831120719989 -0.04760068244809911 0.00390845852122247 0.019982484417320524
0.09378907878283 0.0041790934535468165 0.02152205277694175 0.9949228196152258 -0.051089308476570165 0.0010049636522732792 0.00968739159821188 -0.0008670369154764474 -0.006239794926537559
 0.9949228196152258 -0.051089308476570165 0.004181936542243546 0.02152184036101835 -0.0008671419697923738 -0.006239793032207286 0.0009863075407653334 0.009689638102587342
 0.0010049636522732792 0.00968739159821188 -0.0008671419697923738 -0.006239793032207286 0.004178906669608214 0.02152083482097379 0.9949227768598699 -0.051090565060422616
 -0.0008670369154764474 -0.006239794926537559 0.0009863075407653334 0.009689638102587342 0.9949227768598699 -0.051090565060422616 0.0041820456270800655 0.021520589835804356
0.100041684035 0.0044648092853493545 0.023073705761112978 0.9945461335603022 -0.05459111164782719 0.001116988828368261 0.010338002346438337 -0.0009620497839875658 -0.006662300433895385
 0.9945461335603022 -0.05459111164782719 0.004468043037570215 0.023073467969666635 -0.0009621689126114426 -0.006662297584442448 0.0010957471168584673 0.010340610350160987
 0.001116988828368261 0.010338002346438337 -0.0009621689126114426 -0.006662297584442448 0.0044645970927093895 0.02307241043495426 0.9945460850726526 -0.0545924528316397
 -0.0009620497839875658 -0.006662300433895385 0.0010957471168584673 0.010340610350160987 0.9945460850726526 -0.0545924528316397 0.00446816789414127 0.023072135233136382
0.1059090909091 0.004744490084511901 0.02454183576858891 0.9941775919023029 -0.05788801488137206 0.0012279022213395497 0.010948736902186161 -0.0010561169551601493 -0.007059134309773424
 0.9941775919023029 -0.05788801488137206 0.00474811328258186 0.024541572653178426 -0.0010562500561393509 -0.007059130436269388 0.0012040795491225138 0.01095171768406849
 0.0012279022213395497 0.010948736902186161 -0.0010562500561393509 -0.007059130436269388 0.00474425258963205 0.024540468470436838 0.994177537680766 -0.05788943563065742
 -0.0010561169551601493 -0.007059134309773424 0.0012040795491225138 0.01095171768406849 0.994177537680766 -0.05788943563065742 0.004748253966602012 0.024540162961943873
0.1062942892872 0.00476324739913861 0.0246386244318683 0.9941528825438698 -0.058104823095739416 0.001235380974431849 0.010988837318209483 -0.001062459892002903 -0.007085197179389957
 0.9941528825438698 -0.058104823095739416 0.004766896938773077 0.024638359601774684 -0.0010625939360486135 -0.007085193234197488 0.0012113836155540983 0.01099184374925442
 0.001235380974431849 0.010988837318209483 -0.0010625939360486135 -0.007085193234197488 0.004763008193893916 0.02463725243113512 0.9941528279338259 -0.05810624907467468
 -0.001062459892002903 -0.007085197179389957 0.0012113836155540983 0.01099184374925442 0.9941528279338259 -0.05810624907467468 0.004767038696914382 0.024636944865350802
0.11254689453939999 0.005074620488024816 0.026216634373577075 0.9937428580456417 -0.061630338081443525 0.0013601954986881951 0.01163981872502986 -0.001168323533281699 -0.00750840757855565
 0.9937428580456417 -0.061630338081443525 0.005078710954540728 0.02621634079533993 -0.001168473326851724 -0.007508402390629617 0.0013332720842293409 0.01164326245591431
 0.0013601954986881951 0.01163981872502986 -0.001168473326851724 -0.007508402390629617 0.0050743526722263664 0.026215186439380974 0.993742796916036 -0.06163184906104823
 -0.001168323533281699 -0.00750840757855565 0.0013332720842293409 0.01164326245591431 0.993742796916036 -0.06163184906104823 0.005078870758013234 0.026214844287634858
0.11879949979160001 0.005399140545006452 0.02780756166407632 0.9933158518832296 -0.06516754458973348 0.0014914868105982235 0.012290866931001527 -0.0012796959691109538 -0.007931852651791624
 0.9933158518832296 -0.06516754458973348 0.005403697097896979 0.027807237581327637 -0.0012798623393949543 -0.007931846067785296 0.0014614665894994632 0.012294788800376218
 0.0014914868105982235 0.012290866931001527 -0.0012798623393949543 -0.007931846067785296 0.005398842527018399 0.027806038579167934 0.9933157838287867 -0.06516914078995364
 -0.0012796959691109538 -0.007931852651791624 0.0014614665894994632 0.012294788800376218 0.9933157838287867 -0.06516914078995364 0.005403876104064585 0.027805659543928066
0.1250521050438 0.005737018814587785 0.029411232227080055 0.9928716562972326 -0.06871632393775705 0.0016293082753339422 0.01294190049473307 -0.0013966313885619493 -0.008355451991684588
 0.9928716562972326 -0.06871632393775705 0.005742066637204282 0.029410875835974366 -0.0013968151558141303 -0.008355443851944202 0.0015960201725323296 0.012946343328826921
 0.0016293082753339422 0.01294190049473307 -0.0013968151558141303 -0.008355443851944202 0.0057366890099384785 0.029409634814799475 0.9928715809048377 -0.06871800559431028
 -0.0013966313885619493 -0.008355451991684588 0.0015960201725323296 0.012946343328826921 0.9928715809048377 -0.06871800559431028 0.005742266018054843 0.02940921652200145
0.131304710296 0.006088465740471295 0.031027471316967592 0.992410064035047 -0.07227655125402012 0.0017737121684281863 0.01359283620389242 -0.001519182867640979 -0.008779123739958147
 0.992410064035047 -0.07227655125402012 0.00609403004445702 0.031027080765502434 -0.0015193848452888666 -0.008779113878549311 0.0017369848046649363 0.013597844837673286
 0.0017737121684281863 0.01359283620389242 -0.0015193848452888666 -0.008779113878549311 0.006088102572518421 0.031025800442662663 0.9924099808824818 -0.07227831861706745
 -0.001519182867640979 -0.008779123739958147 0.0017369848046649363 0.013597844837673286 0.9924099808824818 -0.07227831861706745 0.006094250986392584 0.03102534044068227
0.1375573155481 0.006366734607913613 0.03244579927913397 0.9920178475933616 -0.07563773061951265 0.0019048956417160028 0.014222221858935232 -0.001627593559563292 -0.009181396195477802
 0.9920178475933616 -0.07563773061951265 0.006372843147944297 0.032445381587880594 -0.0016278150824140375 -0.009181384633101395 0.0018646444866933694 0.014227783923164438
 0.0019048956417160028 0.014222221858935232 -0.0016278150824140375 -0.009181384633101395 0.00636633716422899 0.03244405545266799 0.9920177563280724 -0.07563958383593712
 -0.001627593559563292 -0.009181396195477802 0.0018646444866933694 0.014227783923164438 0.9920177563280724 -0.07563958383593712 0.006373086052071375 0.03244356071539232
0.1438099208003 0.006654576485127745 0.03385771623711446 0.9916122407687021 -0.07899144631317151 0.002041377650397214 0.01484962002270468 -0.0017403463518295358 -0.009581853122321526
 0.9916122407687021 -0.07899144631317151 0.0066612549210642415 0.033857270119119855 -0.0017405883172925362 -0.009581839696102374 0.0019974466246082795 0.014855776005241513
 0.002041377650397214 0.01484962002270468 -0.0017405883172925362 -0.009581839696102374 0.006654143320676714 0.03385590032999124 0.9916121409700162 -0.07899338562692182
 -0.0017403463518295358 -0.009581853122321526 0.0019974466246082795 0.014855776005241513 0.9916121409700162 -0.07899338562692182 0.006661520852859404 0.03385536901289799
0.1500625260525 0.006951903130074597 0.03526313538002745 0.991193334790128 -0.08233764657468257 0.0021831186830439282 0.01547498555471516 -0.001857403038808555 -0.009980451473924713
 0.991193334790128 -0.08233764657468257 0.0069591771691252646 0.03526265947284505 -0.001857666344006243 -0.009980436014396877 0.0021353524296286648 0.015481777412808083
 0.0021831186830439282 0.01547498555471516 -0.001857666344006243 -0.009980436014396877 0.006951432815532072 0.035261248294789015 0.99119322603009 -0.08233967224270101
 -0.001857403038808555 -0.009980451473924713 0.0021353524296286648 0.015481777412808083 0.99119322603009 -0.08233967224270101 0.006959467198794082 0.03526067845720592
0.15631513130469998 0.007258625829839834 0.036661972689468546 0.9907612211775729 -0.08567627923928006 0.0023300788520825024 0.01609827395464347 -0.0019787250280181427 -0.010377149020183244
