! Created with skrf 1.8.0 (http://scikit-rf.org).
# GHz S RI R 50.0 
!freq ReS11 ImS11 ReS12 ImS12 ReS13 ImS13
! ReS14 ImS14
! ReS21 ImS21 ReS22 ImS22 ReS23 ImS23
! ReS24 ImS24
! ReS31 ImS31 ReS32 ImS32 ReS33 ImS33
! ReS34 ImS34
! ReS41 ImS41 ReS42 ImS42 ReS43 ImS43
! ReS44 ImS44
!
0.0 0.001153848007695 0.0 0.9988461519868 0.0 4.396432654579e-05 0.0 -4.396432614106e-05 5.3840771285319434e-21
 0.9988461519868 0.0 0.001153848007645 0.0 -4.396432613968e-05 5.384077128362942e-21 4.396432654539e-05 0.0
 4.396432654579e-05 0.0 -4.396432613968e-05 5.384077128362942e-21 0.001153848001514 0.0 0.9988461519807 0.0
 -4.396432614106e-05 5.3840771285319434e-21 4.396432654539e-05 0.0 0.9988461519807 0.0 0.001153848001541 0.0
0.005 0.0012406062208005647 0.0009423832193300627 0.9987365211197621 -0.002418218055861495 6.13946609092112e-05 0.0004975117104035156 -5.965745581540093e-05 -0.00031014334590501457
 0.9987365211197621 -0.002418218055861495 0.0012406014457554298 0.0009423859858775186 -5.965634162668615e-05 -0.00031014245768585136 6.142451063121262e-05 0.0004975003068931361
 6.13946609092112e-05 0.0004975117104035156 -5.965634162668615e-05 -0.00031014245768585136 0.0012406066256432978 0.0009423156974760336 0.9987365207951829 -0.0024182851181248585
 -5.965745581540093e-05 -0.00031014334590501457 6.142451063121262e-05 0.0004975003068931361 0.9987365207951829 -0.0024182851181248585 0.0012406003898419882 0.0009423193796722306
0.006252605252188 0.00126311077762215 0.0011817315181695564 0.9987079452395689 -0.003023403730734917 6.622597345613175e-05 0.0006221410309229223 -6.397344849402786e-05 -0.0003880978775128488
 0.9987079452395689 -0.003023403730734917 0.0012631033137647278 0.0011817350545641995 -6.397171494102721e-05 -0.00038809678112320436 6.627261114079866e-05 0.0006221262495169415
 6.622597345613175e-05 0.0006221410309229223 -6.397171494102721e-05 -0.00038809678112320436 0.0012631114926566884 0.0011816471091248661 0.9987079448140865 -0.003023487560138405
 -6.397344849402786e-05 -0.0003880978775128488 6.627261114079866e-05 0.0006221262495169415 0.9987079448140865 -0.003023487560138405 0.0012631017447416128 0.0011816517973900018
0.01250521050438 0.0013801268590300298 0.0023886688938662025 0.9985585747974489 -0.006047828783382854 9.314871482886649e-05 0.0012446839184159857 -8.784569067078295e-05 -0.0007782492743656483
 0.9985585747974489 -0.006047828783382854 0.001380097061187578 0.0023886767487963437 -8.783886130479002e-05 -0.0007782472305214402 9.333469439409517e-05 0.00124464875866319
 9.314871482886649e-05 0.0012446839184159857 -8.783886130479002e-05 -0.0007782472305214402 0.0013801302520808877 0.0023885002892786353 0.9985585736321916 -0.006047996162328582
 -8.784569067078295e-05 -0.0007782492743656483 9.333469439409517e-05 0.00124464875866319 0.9985585736321916 -0.006047996162328582 0.0013800913235004447 0.00238851053120933
0.01875781575657 0.0015050988310158493 0.0036132569654280904 0.9983978930197729 -0.00908069000842618 0.00012478639647518487 0.0018680929639999207 -0.0001156430726577993 -0.00116990579889541
 0.9983978930197729 -0.00908069000842618 0.001505031884588343 0.0036132699552892354 -0.00011562784568423355 -0.0011699029773426777 0.0001252041808509033 0.0018680309416478367
 0.00012478639647518487 0.0018680929639999207 -0.00011562784568423355 -0.0011699029773426777 0.0015051068906331729 0.0036130041579778426 0.9983978908288919 -0.009080940837178817
 -0.0001156430726577993 -0.00116990579889541 0.0001252041808509033 0.0018680309416478367 0.9983978908288919 -0.009080940837178817 0.0015050194065210937 0.003613020885653942
0.02501042100875 0.0016382259408528814 0.004853829006872602 0.9982257480601294 -0.012123509260954372 0.0001611934561996455 0.002492431567905474 -0.00014742632747856654 -0.0015629174106518767
 0.9982257480601294 -0.012123509260954372 0.001638107069463699 0.0048538479783075674 -0.00014739944087084964 -0.00156291400544449 0.0001619355567096984 0.0024923353566999353
 0.0001611934561996455 0.002492431567905474 -0.00014739944087084964 -0.00156291400544449 0.001638240644155748 0.004853491939931896 0.998225744546676 -0.01212384344937642
 -0.00014742632747856654 -0.0015629174106518767 0.0001619355567096984 0.0024923353566999353 0.998225744546676 -0.01212384344937642 0.001638085264228931 0.0048535161462807536
0.03126302626094 0.0017796987667307584 0.006109553168178918 0.9980419786158368 -0.015176968931719862 0.00020242499193412624 0.0031177051552081303 -0.00018325487152734646 -0.0019571895163389055
 0.9980419786158368 -0.015176968931719862 0.0017795132253026961 0.006109578997346415 -0.00018321309595701647 -0.001957185746303741 0.00020358406256798924 0.0031175665835591186
 0.00020242499193412624 0.0031177051552081303 -0.00018321309595701647 -0.001957185746303741 0.001779722094902363 0.006109131743138077 0.9980419734869791 -0.015177386391971638
 -0.00018325487152734646 -0.0019571895163389055 0.00020358406256798924 0.0031175665835591186 0.9980419734869791 -0.015177386391971638 0.0017794795049041396 0.0061091644811664975
0.037515631513130004 0.001929703908707094 0.0073799066925310935 0.997846418695083 -0.018241437688906997 0.0002485362630879348 0.0037438968088960084 -0.0002231872739635846 -0.002352647329003109
 0.997846418695083 -0.018241437688906997 0.0019294369790931307 0.00737994028456257 -0.00022312740918558325 -0.0023526434378791203 0.00025020514672557904 0.003743706851583225
 0.0002485362630879348 0.0037438968088960084 -0.00022312740918558325 -0.0023526434378791203 0.0019297378441856755 0.0073794007613760745 0.997846411658756 -0.018241938342674957
 -0.0002231872739635846 -0.002352647329003109 0.00025020514672557904 0.003743706851583225 0.997846411658756 -0.018241938342674957 0.001929388750273154 0.007379443144037454
0.043768236765320004 0.0020884258172853797 0.008664515904445754 0.9976388995202315 -0.021317130444273004 0.00029958246962780947 0.004370978099553921 -0.0002672814349795405 -0.0027492250272513285
 0.9976388995202315 -0.021317130444273004 0.0020880628049350105 0.008664558193078509 -0.0002672003075694473 -0.002749221283753426 0.0003018542238481361 0.0043707268679085256
 0.00029958246962780947 0.004370978099553921 -0.0002672003075694473 -0.002749221283753426 0.002088472345376711 0.008663925284932662 0.9976388902875934 -0.021317714207436295
 -0.0002672814349795405 -0.0027492250272513285 0.0003018542238481361 0.0043707268679085256 0.9976388902875934 -0.021317714207436295 0.0020879974705156033 0.008663978485076574
0.050020842017509996 0.0022560476463825115 0.009963090081890724 0.9974192504581539 -0.024404174433637293 0.0003556186259031669 0.004998913553187297 -0.0003155946639625073 -0.0031468612757697767
 0.9974192504581539 -0.024404174433637293 0.002255573877822676 0.009963142029038658 -0.0003154891258499266 -0.0031468579735973237 0.0003585865379920899 0.004998590284585842
 0.0003556186259031669 0.004998913553187297 -0.0003154891258499266 -0.0031468579735973237 0.0022561087536272606 0.009962414558048189 0.9974192387414428 -0.02440484121548639
 -0.0003155946639625073 -0.0031468612757697767 0.0003585865379920899 0.004998590284585842 0.9974192387414428 -0.02440484121548639 0.0022554888346707214 0.009962479808564285
0.055454545454549996 0.0024090855268892957 0.011102744181143927 0.9972183842904615 -0.027096184703934045 0.00040841071822072053 0.005545270954476226 -0.00036105081299898917 -0.0034932329989694018
 0.9972183842904615 -0.027096184703934045 0.0024085036056876873 0.011102805324686106 -0.0003609215235259439 -0.0034932303382580613 0.00041205955819709526 0.00554487565609053
 0.00040841071822072053 0.005545270954476226 -0.0003609215235259439 -0.0034932303382580613 0.0024091609189270395 0.01110199466837883 0.9972183701839885 -0.027096923555490333
 -0.00036105081299898917 -0.0034932329989694018 0.00041205955819709526 0.00554487565609053 0.9972183701839885 -0.027096923555490333 0.0024083993171271035 0.011102071438982803
0.056273447269699996 0.002432751706568145 0.011275389012109999 0.9971872995497741 -0.0275026416131881 0.00041669947648909653 0.005627662845988726 -0.00036818371274050264 -0.0035454970190868145
 0.9971872995497741 -0.0275026416131881 0.002432152526952531 0.011275451607567892 -0.000368050640164428 -0.003545494476937824 0.0004204570720634556 0.0056272558929939065
 0.00041669947648909653 0.005627662845988726 -0.000368050640164428 -0.003545494476937824 0.0024328293814913082 0.011274628328771656 0.9971872850643231 -0.02750339132168892
 -0.00036818371274050264 -0.0035454970190868145 0.0004204570720634556 0.0056272558929939065 0.9971872850643231 -0.02750339132168892 0.0024320451666715913 0.011274706922675832
0.06252605252188 0.0026187197223446904 0.012601205131799572 0.9969428738476254 -0.03061256647147752 0.00048287943301793024 0.006257182000536278 -0.00042510478593839524 -0.003945074274539694
 0.9969428738476254 -0.03061256647147752 0.0026179804934068442 0.012601279392980695 -0.00042494107872945706 -0.003945072836100263 0.000487520480396599 0.006256678819881909
 0.00048287943301793024 0.006257182000536278 -0.00042494107872945706 -0.003945072836100263 0.002618815955255506 0.01260035900463108 0.9969428563113807 -0.030613399002996745
 -0.00042510478593839524 -0.003945074274539694 0.000487520480396599 0.006256678819881909 0.9969428563113807 -0.030613399002996745 0.0026178482017568208 0.012600452295357419
0.06877865777407 0.0028141329829405345 0.01394035290388199 0.9966857996462372 -0.03373395660545547 0.0005542125233467857 0.006887424098983953 -0.00048641353755238677 -0.004345535409063954
 0.9966857996462372 -0.03373395660545547 0.0028132390807120928 0.01394043987551076 -0.000486216118532183 -0.004345535442999064 0.0005598310349933971 0.006886811240400305
 0.0005542125233467857 0.006887424098983953 -0.000486216118532183 -0.004345535442999064 0.002814249764795431 0.01393942100922862 0.9966857787791594 -0.03373487185467938
 -0.00048641353755238677 -0.004345535409063954 0.0005598310349933971 0.006886811240400305 0.9966857787791594 -0.03373487185467938 0.0028130792367883593 0.013939530410832086
0.07503126302626001 0.00301917242944865 0.015292662063194485 0.9964159026518765 -0.036866799428252606 0.0006307523464206029 0.007518339736451542 -0.0005521650604049131 -0.004746822676722415
 0.9964159026518765 -0.036866799428252606 0.003018109242554549 0.01529276281714648 -0.0005519308750046045 -0.004746824576661212 0.0006374425784617944 0.007517602831439745
 0.0006307523464206029 0.007518339736451542 -0.0005519308750046045 -0.004746824576661212 0.003019311752083919 0.015291644042798482 0.9964158781771421 -0.03686779728323609
 -0.0005521650604049131 -0.004746822676722415 0.0006374425784617944 0.007517602831439745 0.9964158781771421 -0.03686779728323609 0.00301791921881403 0.015291771030268398
0.08128386827845 0.003234018705281813 0.016657973129358822 0.996133008116681 -0.0400110666106426 0.000712552032128508 0.00814987731435355 -0.0006224138698433547 -0.005148877917336019
 0.996133008116681 -0.0400110666106426 0.003232771632859843 0.016658088764450203 -0.0006221398857655012 -0.005148882101855886 0.0007204084819461155 0.008149001064930309
 0.000712552032128508 0.00814987731435355 -0.0006221398857655012 -0.005148882101855886 0.003234182561111969 0.01665686859399141 0.9961329797601192 -0.040012146948991585
 -0.0006224138698433547 -0.005148877917336019 0.0007204084819461155 0.008149001064930309 0.9961329797601192 -0.040012146948991585 0.0032325487949693686 0.016657014703586454
0.08753647353064001 0.00345885218046403 0.01803613430380473 0.9958369409479143 -0.04316671713951003 0.0007996642031118983 0.00878198324889344 -0.0006972138841689033 -0.005551642341063861
 0.9958369409479143 -0.04316671713951003 0.0034574066303034215 0.01803626594566704 -0.0006968970911500303 -0.005551649253670729 0.0008087816058674009 0.008780951416318551
 0.0007996642031118983 0.00878198324889344 -0.0006968970911500303 -0.005551649253670729 0.0034590425619424495 0.01803494282844468 0.9958369084386458 -0.04316787983293132
 -0.0006972138841689033 -0.005551642341063861 0.0008087816058674009 0.008780951416318551 0.9958369084386458 -0.04316787983293132 0.00345714833672426 0.01803510965807595
0.09378907878283 0.003693852957668589 0.019426999245503028 0.9955275258009264 -0.046333699498547175 0.0008921409387907291 0.009414602114941316 -0.0007766184021172048 -0.005955056378773725
 0.9955275258009264 -0.046333699498547175 0.0036921943441741052 0.019427148046472647 -0.0007762558117593024 -0.005955066487880257 0.0009026142627693705 0.00941339750845229
 0.0008921409387907291 0.009414602114941316 -0.0007762558117593024 -0.005955066487880257 0.0036940718569997773 0.01942572036972066 0.9955274888714722 -0.04633494441226335
 -0.0007766184021172048 -0.005955056378773725 0.0009026142627693705 0.00941339750845229 0.9955274888714722 -0.04633494441226335 0.0036918979458998562 0.019425909579384847
0.100041684035 0.003939200867021187 0.02083042543971149 0.9952045871626534 -0.049511953257326755 0.0009900337401175694 0.010047676752521018 -0.0008606800785906748 -0.006359059571038785
 0.9952045871626534 -0.049511953257326755 0.003937314609486215 0.020830592578781604 -0.0008602687242075081 -0.006359073369939309 0.0010019581813383526 0.010046281218075336
 0.0009900337401175694 0.010047676752521018 -0.0008602687242075081 -0.006359073369939309 0.003939450275930074 0.02082905866924873 0.9952045455490125 -0.04951328024834223
 -0.0008606800785906748 -0.006359059571038785 0.0010019581813383526 0.010046281218075336 0.9952045455490125 -0.04951328024834223 0.003936977450135604 0.020829271981456832
0.1059090909091 0.004179004399311583 0.022158691732684047 0.9948890876087324 -0.052504597905097754 0.0010868669419019578 0.010642112304395079 -0.0009438449972042661 -0.006738654835616552
 0.9948890876087324 -0.052504597905097754 0.004176891263613195 0.02215887717612256 -0.0009433852040724117 -0.006738672567787721 0.0011002398798358847 0.010640520225465773
 0.0010868669419019578 0.010642112304395079 -0.0009433852040724117 -0.006738672567787721 0.004179284248800455 0.022157242004023612 0.9948890413626872 -0.052506001778097076
 -0.0009438449972042661 -0.006738654835616552 0.0011002398798358847 0.010640520225465773 0.9948890413626872 -0.052506001778097076 0.004176513431313811 0.02215747955667677
0.1062942892872 0.004195075451099874 0.02224627297733007 0.9948679494260398 -0.052701410250916965 0.0010933934952391826 0.01068114834771064 -0.0009494508987382767 -0.006763590483982016
 0.9948679494260398 -0.052701410250916965 0.004192946971701028 0.02224645966013228 -0.0009489878352850136 -0.006763608490829059 0.0011068644712188868 0.010679542756759764
 0.0010933934952391826 0.01068114834771064 -0.0009489878352850136 -0.006763608490829059 0.0041953573602322245 0.02224481778589278 0.9948679028679117 -0.05270281916601431
 -0.0009494508987382767 -0.006763590483982016 0.0011068644712188868 0.010679542756759764 0.9948679028679117 -0.05270281916601431 0.004192566386932846 0.022245056986214092
0.11254689453939999 0.004461655943184555 0.0236744036082937 0.9945174369601217 -0.05590199548698743 0.0012022704454878058 0.01131495649201494 -0.0010429821509005592 -0.00716858664799716
 0.9945174369601217 -0.05590199548698743 0.004459270665194217 0.02367461106709787 -0.0010424644549188377 -0.007168609405768606 0.001217383588300845 0.011313120730332367
 0.0012022704454878058 0.01131495649201494 -0.0010424644549188377 -0.007168609405768606 0.004461972341968462 0.023672859430444664 0.994517385201165 -0.05590348616960961
 -0.0010429821509005592 -0.00716858664799716 0.001217383588300845 0.011313120730332367 0.994517385201165 -0.05590348616960961 0.0044588439826448185 0.02367312636803034
0.11879949979160001 0.004739121240270127 0.0251146800070536 0.9941528741754752 -0.059113627842030614 0.0013167141516702762 0.01194903923235937 -0.0011413243983727796 -0.007573984507163076
 0.9941528741754752 -0.059113627842030614 0.004736464585833543 0.025114909500884196 -0.0011407491679174622 -0.007574012583631531 0.0013335653006525039 0.011946952188897603
 0.0013167141516702762 0.01194903923235937 -0.0011407491679174622 -0.007574012583631531 0.004739474116341526 0.025113046246411627 0.9941528169638585 -0.059115200124000934
 -0.0011413243983727796 -0.007573984507163076 0.0013335653006525039 0.011946952188897603 0.9941528169638585 -0.059115200124000934 0.004735989125186373 0.025113342834620873
0.1250521050438 0.005027649871549298 0.02656696519240315 0.9937740855881438 -0.06233622060497675 0.0014367734604780003 0.012583333107632107 -0.0012445274504877374 -0.007979719383592793
 0.9937740855881438 -0.06233622060497675 0.005024707260084679 0.026567218007120075 -0.0012438918051854368 -0.007979753371290418 0.001455458654116885 0.012580972663460723
 0.0014367734604780003 0.012583333107632107 -0.0012438918051854368 -0.007979753371290418 0.005028041210355027 0.02656524121526578 0.9937740226759266 -0.062337874312658956
 -0.0012445274504877374 -0.007979719383592793 0.001455458654116885 0.012580972663460723 0.9937740226759266 -0.062337874312658956 0.005024180332230558 0.026565569432299586
0.131304710296 0.005327419963648953 0.028031122056023615 0.9933808958794612 -0.06556968191347351 0.0015624964709881552 0.0132177731819952 -0.0013526403327525258 -0.00838572544639452
 0.9933808958794612 -0.06556968191347351 0.005324176809532737 0.028031399504516576 -0.0013519414137318857 -0.008385765962576707 0.0015831119386174124 0.013215116199255202
 0.0015624964709881552 0.0132177731819952 -0.0013519414137318857 -0.008385765962576707 0.005327851747972216 0.02802930719439649 0.9933808270236958 -0.06557141686459769
 -0.0013526403327525258 -0.00838572544639452 0.0015831119386174124 0.013215116199255202 0.9933808270236958 -0.06557141686459769 0.0053235957170654005 0.02802966908400158
0.1375573155481 0.005561794026716109 0.0293147981812277 0.9930499637579351 -0.06862164675771039 0.0016756312739870142 0.013832031538025862 -0.001447391132014266 -0.008771698069334186
 0.9930499637579351 -0.06862164675771039 0.005558233996978246 0.02931509371998001 -0.0014466246594190145 -0.008771745008715404 0.0016982270270461978 0.013829086118084229
 0.0016756312739870142 0.013832031538025862 -0.0014466246594190145 -0.008771745008715404 0.005562267664561033 0.029312891906630088 0.9930498886915307 -0.0686234627959874
 -0.001447391132014266 -0.008771698069334186 0.0016982270270461978 0.013829086118084229 0.9930498886915307 -0.0686234627959874 0.005557596654418987 0.029313281393199345
0.1438099208003 0.005804105039134188 0.030592975530210502 0.9927079439854323 -0.07166717349736479 0.0017933260368273292 0.014444637810418826 -0.0015459460943455577 -0.009156146951155348
 0.9927079439854323 -0.07166717349736479 0.0058002132565800595 0.030593289892008005 -0.0015451089841147384 -0.009156200906510596 0.0018179901935558504 0.01444138319784171
 0.0017933260368273292 0.014444637810418826 -0.0015451089841147384 -0.009156200906510596 0.005804622404735266 0.030590977153528483 0.9927078624679408 -0.07166907043338759
 -0.0015459460943455577 -0.009156146951155348 0.0018179901935558504 0.01444138319784171 0.9927078624679408 -0.07166907043338759 0.005799517063923777 0.030591395693790074
0.1500625260525 0.00605428295381142 0.031865585357230414 0.9923549092216774 -0.07470622554314942 0.0019155491803833171 0.015055556992064203 -0.0016482742842454142 -0.009539037333492798
 0.9923549092216774 -0.07470622554314942 0.0060500445214795836 0.031865919316188845 -0.001647363455763517 -0.009539098921084923 0.0019423695005143687 0.01505197168097357
 0.0019155491803833171 0.015055556992064203 -0.001647363455763517 -0.009539098921084923 0.006054845911755566 0.031863494158445194 0.9923548210166261 -0.0747082031827174
 -0.0016482742842454142 -0.009539037333492798 0.0019423695005143687 0.01505197168097357 0.9923548210166261 -0.0747082031827174 0.006049286877281291 0.03186394327883625
0.15631513130469998 0.006312257398282227 0.03313256123912196 0.9919909323049757 -0.07773876572860021 0.0020422688598131095 0.015664754522733502 -0.0017543444831923153 -0.009920335101946438
