! Created with skrf 1.8.0 (http://scikit-rf.org).
# GHz S RI R 50.0 
!freq ReS11 ImS11 ReS12 ImS12 ReS13 ImS13
! ReS14 ImS14
! ReS21 ImS21 ReS22 ImS22 ReS23 ImS23
! ReS24 ImS24
! ReS31 ImS31 ReS32 ImS32 ReS33 ImS33
! ReS34 ImS34
! ReS41 ImS41 ReS42 ImS42 ReS43 ImS43
! ReS44 ImS44
!
0.0 0.00175742197027 0.0 0.9982425779996 0.0 6.795098154764e-05 0.0 -6.795098150248e-05 8.321595199593313e-21
 0.9982425779996 0.0 0.001757421970293 0.0 -6.795098150325e-05 8.321595199687611e-21 6.795098154686e-05 0.0
 6.795098154764e-05 0.0 -6.795098150325e-05 8.321595199687611e-21 0.001757421979513 0.0 0.9982425780088 0.0
 -6.795098150248e-05 8.321595199593313e-21 6.795098154686e-05 0.0 0.9982425780088 0.0 0.0017574219795 0.0
0.005 0.0018915025906730977 0.0014406582255331037 0.9980728557263328 -0.0036804032100413134 9.500806095774786e-05 0.0007269877087774292 -9.238225361465194e-05 -0.00045997809613256485
 0.9980728557263328 -0.0036804032100413134 0.0018914997575047747 0.001440659949577964 -9.238121381955526e-05 -0.000459977387776925 9.501115368181574e-05 0.000726986291805675
 9.500806095774786e-05 0.0007269877087774292 -9.238121381955526e-05 -0.000459977387776925 0.0018915030333743585 0.0014407253080410474 0.9980728561018432 -0.003680336142609882
 -9.238225361465194e-05 -0.00045997809613256485 9.501115368181574e-05 0.000726986291805675 0.9980728561018432 -0.003680336142609882 0.001891500055261884 0.001440726991877526
0.006252605252188 0.001926876833809174 0.00180644409938397 0.9980277685144681 -0.004601368993990213 0.00010283433175266626 0.0009090846069338745 -9.936744588081708e-05 -0.0005755499672784116
 0.9980277685144681 -0.004601368993990213 0.0019268724052417842 0.0018064463630470986 -9.936582718275283e-05 -0.0005755490961443783 0.00010283916097291674 0.0009090828055283622
 0.00010283433175266626 0.0009090846069338745 -9.936582718275283e-05 -0.0005755490961443783 0.0019268774568001483 0.0018065279418716888 0.9980277690332175 -0.004601285173371439
 -9.936744588081708e-05 -0.0005755499672784116 0.00010283916097291674 0.0009090828055283622 0.9980277690332175 -0.004601285173371439 0.0019268728026539928 0.0018065301395217186
0.01250521050438 0.0021143103144785854 0.003650282589441875 0.9977871726053898 -0.009203276429425618 0.00014822497446567238 0.0018185074002446061 -0.00013946873388403456 -0.001153734085474078
 0.9977871726053898 -0.009203276429425618 0.0021142926288369515 0.0036502882351527725 -0.00013946234631582826 -0.0011537325030662308 0.00014824414276491893 0.0018185034376720136
 0.00014822497446567238 0.0018185074002446061 -0.00013946234631582826 -0.0011537325030662308 0.002114312215612148 0.003650450052569874 0.9977871741038986 -0.009203109009964197
 -0.00013946873388403456 -0.001153734085474078 0.00014824414276491893 0.0018185034376720136 0.9977871741038986 -0.009203109009964197 0.002114293647744419 0.003650455404765154
0.01875781575657 0.0023201745411819885 0.005519903555506025 0.997520460674561 -0.013816867518813225 0.0002042355516293343 0.0027288201335125767 -0.0001883861298410962 -0.0017337185590860073
 0.997520460674561 -0.013816867518813225 0.0023201347939410177 0.0055199138113403165 -0.00018837187397324304 -0.0017337164635690227 0.00020427839866392317 0.002728813517808267
 0.0002042355516293343 0.0027288201335125767 -0.00018837187397324304 -0.0017337164635690227 0.0023201783659859304 0.005520154507444665 0.9975204636247158 -0.013816616556169366
 -0.0001883861298410962 -0.0017337185590860073 0.00020427839866392317 0.002728813517808267 0.9975204636247158 -0.013816616556169366 0.002320136673201196 0.005520164071010652
0.02501042100875 0.0025449056697165115 0.007412643924937743 0.9972272889794386 -0.018444323145161094 0.0002709796200981546 0.0036400209681023317 -0.0002462458986106591 -0.002315214933933244
 0.9972272889794386 -0.018444323145161094 0.0025448350738831713 0.007412660130515883 -0.0002462207087866803 -0.0023152125646517547 0.0002710553584562293 0.0036400110934003433
 0.0002709796200981546 0.0036400209681023317 -0.0002462207087866803 -0.0023152125646517547 0.002544912039771535 0.00741297822297798 0.9972272938507138 -0.018443988630236184
 -0.0002462458986106591 -0.002315214933933244 0.0002710553584562293 0.0036400110934003433 0.9972272938507138 -0.018443988630236184 0.0025448380500038563 0.007412993155164742
0.03126302626094 0.0027889217558817346 0.009327105682902494 0.9969072979040914 -0.023086543630842064 0.00034857050454349285 0.004552026047423867 -0.0003131701871487928 -0.0028980085828524617
 0.9969072979040914 -0.023086543630842064 0.0027888115413070755 0.009327129290866477 -0.0003131310260049846 -0.0028980062207187695 0.00034868823067737487 0.004552012198018682
 0.00034857050454349285 0.004552026047423867 -0.0003131310260049846 -0.0028980062207187695 0.0027889312784001867 0.009327523145237507 0.9969073051742856 -0.023086125517893553
 -0.0003131701871487928 -0.0028980085828524617 0.00034868823067737487 0.004552012198018682 0.9969073051742856 -0.023086125517893553 0.0027888158564901497 0.009327544704895208
0.037515631513130004 0.0030526312702489605 0.011262356415298179 0.996560120845022 -0.02774394813587627 0.00043712023545100536 0.005464718485972963 -0.0003892778368827501 -0.003481909751106637
 0.996560120845022 -0.02774394813587627 0.0030524726837961196 0.011262388992561411 -0.00038922169270400985 -0.0034819077187814395 0.000437288932147138 0.0054646998388293705
 0.00043712023545100536 0.005464718485972963 -0.00038922169270400985 -0.0034819077187814395 0.0030526445304988313 0.011262856822814566 0.9965601309943519 -0.027743446340630012
 -0.0003892778368827501 -0.003481909751106637 0.000437288932147138 0.0054646998388293705 0.9965601309943519 -0.027743446340630012 0.0030524785771245677 0.01126288637125268
0.043768236765320004 0.003336436366787479 0.013217686023252347 0.996185387852479 -0.03241671787334557 0.0005367390222970884 0.006377963289502394 -0.00047468465738976275 -0.004066738669377087
 0.996185387852479 -0.03241671787334557 0.0033362206733420557 0.013217729252020175 -0.000474608542637792 -0.004066737331359467 0.0005369675579807707 0.006377938916400912
 0.0005367390222970884 0.006377963289502394 -0.000474608542637792 -0.004066737331359467 0.003336453931002406 0.013218269113100119 0.9961854013682055 -0.03241613227923155
 -0.00047468465738976275 -0.004066738669377087 0.0005369675579807707 0.006377938916400912 0.9961854013682055 -0.03241613227923155 0.003336228382839202 0.013218308114917414
0.050020842017509996 0.003640734381808242 0.015192506189303524 0.9957827275052387 -0.037104896572295466 0.0006475349229018451 0.00729161351644342 -0.0005695035012858819 -0.004652319429365208
 0.9957827275052387 -0.037104896572295466 0.003640452865530863 0.015192561868250142 -0.0005694044517864912 -0.004652319192067167 0.0006478320489860836 0.007291582386014304
 0.0006475349229018451 0.00729161351644342 -0.0005694044517864912 -0.004652319192067167 0.0036407567960252433 0.015193171651240444 0.995782744882821 -0.03710422703414948
 -0.0005695035012858819 -0.004652319429365208 0.0006478320489860836 0.007291582386014304 0.995782744882821 -0.03710422703414948 0.003640462626062711 0.015193221675140109
0.055454545454549996 0.00392212686063691 0.016924111536008205 0.9954098343003697 -0.04119154700610012 0.0007529792254292915 0.008085811650160445 -0.0006596330807037769 -0.0051616815045247445
 0.9954098343003697 -0.04119154700610012 0.00392178108034003 0.016924179586414633 -0.0006595117107746763 -0.005161682586435242 0.0007533429720576204 0.008085773731280754
 0.0007529792254292915 0.008085811650160445 -0.0006595117107746763 -0.005161682586435242 0.003922153916759107 0.016924848295231252 0.9954098554432519 -0.04119080437564653
 -0.0006596330807037769 -0.0051616815045247445 0.0007533429720576204 0.008085773731280754 0.9954098554432519 -0.04119080437564653 0.003921792810033541 0.01692490925305496
0.056273447269699996 0.003965918582561583 0.017186301028958975 0.9953517680416047 -0.041808439759582317 0.0007696135970364524 0.008205513316567598 -0.0006738442523735556 -0.005238476988038221
 0.9953517680416047 -0.041808439759582317 0.003965562548614835 0.01718637107413835 -0.0006737193268985224 -0.0052384782998416025 0.0007699879439943855 0.008205474296400514
 0.0007696135970364524 0.008205513316567598 -0.0006737193268985224 -0.0052384782998416025 0.003965946371819001 0.017187048506374317 0.9953517897853599 -0.04180768610249257
 -0.0006738442523735556 -0.005238476988038221 0.0007699879439943855 0.008205474296400514 0.9953517897853599 -0.04180768610249257 0.003965574589979988 0.017187111225916762
0.06252605252188 0.00431237854735254 0.019198599966400345 0.9948921381259238 -0.046527241823640285 0.0009030781016150043 0.00911949961434331 -0.0007878137698663211 -0.005825035534194047
 0.9948921381259238 -0.046527241823640285 0.004311939323203503 0.019198686412265818 -0.0007876600498809957 -0.0058250388854868915 0.0009035381744066798 0.0091194514731567
 0.0009030781016150043 0.00911949961434331 -0.0007876600498809957 -0.0058250388854868915 0.004312412214672115 0.019199429058060075 0.9948921647502392 -0.046526403841170426
 -0.0007878137698663211 -0.005825035534194047 0.0009035381744066798 0.0091194514731567 0.9948921647502392 -0.046526403841170426 0.004311953868796135 0.019199506252493944
0.06877865777407 0.004680500341484281 0.02122896157952779 0.9944034674170286 -0.051261152116669054 0.0010480287099579229 0.010033403121211353 -0.000911515806499155 -0.00641181753370315
 0.9944034674170286 -0.051261152116669054 0.004679969278779852 0.021229066579910597 -0.0009113303961774383 -0.006411823456917267 0.0010485828829073097 0.01003334453115743
 0.0010480287099579229 0.010033403121211353 -0.0009113303961774383 -0.006411823456917267 0.004680540367248413 0.021229871831732722 0.9944034994478156 -0.051260229578863246
 -0.000911515806499155 -0.00641181753370315 0.0010485828829073097 0.01003334453115743 0.9944034994478156 -0.051260229578863246 0.004679986543695285 0.021229965386693514
0.07503126302626001 0.005070666573718275 0.023276963353520717 0.9938853870222653 -0.05600998515701475 0.0012045627452199528 0.010947048993338713 -0.0010450509107881609 -0.006998643137381671
 0.9938853870222653 -0.05600998515701475 0.005070035050448016 0.02327708918242212 -0.0010448309370913774 -0.006998652207006838 0.0012052192564962854 0.010946978532455423
 0.0012045627452199528 0.010947048993338713 -0.0010448309370913774 -0.006998652207006838 0.005070713414282727 0.023277954268392097 0.99388542499734 -0.05600897780205003
 -0.0010450509107881609 -0.006998643137381671 0.0012052192564962854 0.010946978532455423 0.99388542499734 -0.05600897780205003 0.005070055239461699 0.023278066176738384
0.08128386827845 0.005483256376730283 0.025342194870364994 0.9933375298800163 -0.06077352740481991 0.0013727744224231796 0.01186025728118946 -0.0011885163191987062 -0.007585329805488227
 0.9933375298800163 -0.06077352740481991 0.005482515798976032 0.025342343922997355 -0.0011882589320354176 -0.007585342638090923 0.0013735413682079275 0.011860173435990927
 0.0013727744224231796 0.01186025728118946 -0.0011882589320354176 -0.007585342638090923 0.005483310463592404 0.02534326590310706 0.9933375743511973 -0.0607724349420108
 -0.0011885163191987062 -0.007585329805488227 0.0013735413682079275 0.011860173435990927 0.9933375743511973 -0.0607724349420108 0.005482539105041506 0.025343398265584557
0.08753647353064001 0.005918645336539372 0.027424253114864457 0.9927595310969726 -0.06555154193118198 0.0015527546961209122 0.012772843258614565 -0.0013420058415319533 -0.00817169206144655
 0.9927595310969726 -0.06555154193118198 0.005917787140729623 0.027424427908425086 -0.0013417082140578277 -0.008171709315660785 0.0015536400243416578 0.012772744426876476
 0.0015527546961209122 0.012772843258614565 -0.0013417082140578277 -0.008171709315660785 0.005918707075655335 0.02742540366848405 0.9927595826305451 -0.06555036404644767
 -0.0013420058415319533 -0.00817169206144655 0.0015536400243416578 0.012772744426876476 0.9927595826305451 -0.06555036404644767 0.005917813743157316 0.02742555869455663
0.09378907878283 0.0063772053880795185 0.029522739122323175 0.992151028254577 -0.07034377175586881 0.0017445911123271402 0.01368461767037964 -0.0015056097410095992 -0.008757541336053743
 0.992151028254577 -0.07034377175586881 0.006376221043034555 0.029522942296866705 -0.001505269069913636 -0.008757563712577538 0.0017456026163890747 0.013684502164091493
 0.0017445911123271402 0.01368461767037964 -0.001505269069913636 -0.008757563712577538 0.00637727515875319 0.029523968555020572 0.9921510874332233 -0.07034250810464382
 -0.0015056097410095992 -0.008757541336053743 0.0017456026163890747 0.013684502164091493 0.9921510874332233 -0.07034250810464382 0.006376251105774188 0.029524148563493294
0.100041684035 0.006859304683939987 0.031637255530004946 0.9915116616943559 -0.07514994229209299 0.001948367662931814 0.014595386932402516 -0.0016794146113788678 -0.009342685868199613
 0.9915116616943559 -0.07514994229209299 0.006858185693272312 0.03163748984925406 -0.0016790281172558736 -0.009342714109759103 0.0019495129751974805 0.01459525298088853
 0.001948367662931814 0.014595386932402516 -0.0016790281172558736 -0.009342714109759103 0.006859382837405296 0.031638563151599214 0.9915117291175289 -0.07514859250324894
 -0.0016794146113788678 -0.009342685868199613 0.0019495129751974805 0.01459525298088853 0.9915117291175289 -0.07514859250324894 0.006858219362513106 0.03163877057147948
0.1059090909091 0.007333436923413614 0.03363573022005733 0.9908832960580412 -0.0796724440581413 0.0021505213384532687 0.015448957016944525 -0.001851863526144083 -0.00989096732356026
 0.9908832960580412 -0.0796724440581413 0.007332183887454604 0.03363599638974344 -0.0018514315257412528 -0.009891001781756318 0.0021517990076823034 0.015448804075447305
 0.0021505213384532687 0.015448957016944525 -0.0018514315257412528 -0.009891001781756318 0.007333523237155769 0.03363711054345617 0.9908833717798018 -0.07967101307680308
 -0.001851863526144083 -0.00989096732356026 0.0021517990076823034 0.015448804075447305 0.9908833717798018 -0.07967101307680308 0.007332221057306158 0.03363734599390104
0.1062942892872 0.007365307445657608 0.03376740474996927 0.9908410747883616 -0.07996976318103699 0.002164164642680417 0.015504953298505698 -0.001863503251258879 -0.009926930648416564
 0.9908410747883616 -0.07996976318103699 0.007364045349793483 0.033767673102099036 -0.0018630681789515691 -0.0099269655397416 0.002165451227707835 0.01550479905180797
 0.002164164642680417 0.015504953298505698 -0.0018630681789515691 -0.0099269655397416 0.007365394304454781 0.03376878982171944 0.9908411510743454 -0.07996832685746641
 -0.001863503251258879 -0.009926930648416564 0.002165451227707835 0.01550479905180797 0.9908411510743454 -0.07996832685746641 0.007364082752994857 0.03376902719282451
0.11254689453939999 0.00789557380065612 0.03591278757705135 0.9901389142001704 -0.08480292970249978 0.0023920585077159343 0.016413115003714996 -0.0020579545367008247 -0.010510077395444559
 0.9901389142001704 -0.08480292970249978 0.007894160179500386 0.035913092975453545 -0.0020574681558603244 -0.010510119763206364 0.002393493655425134 0.016412938536077178
 0.0023920585077159343 0.016413115003714996 -0.0020574681558603244 -0.010510119763206364 0.007895669657508842 0.03591424931565715 0.9901389999865808 -0.08480140641757622
 -0.0020579545367008247 -0.010510077395444559 0.002393493655425134 0.016412938536077178 0.9901389999865808 -0.08480140641757622 0.007894201422609699 0.03591451928939741
0.11879949979160001 0.008450459608003308 0.038073002117427 0.9894048301363849 -0.0896491238767682 0.0026321217355896164 0.017319666396449135 -0.0022628432930616917 -0.011091924553540532
 0.9894048301363849 -0.0896491238767682 0.008448886083189113 0.0380733477014425 -0.002262302898449338 -0.011091975266299259 0.0026337125542917495 0.017319465710110483
 0.0026321217355896164 0.017319666396449135 -0.002262302898449338 -0.011091975266299259 0.008450564724400339 0.03807453968973008 0.9894049260818122 -0.08964751318031898
 -0.0022628432930616917 -0.011091924553540532 0.0026337125542917495 0.017319465710110483 0.9894049260818122 -0.08964751318031898 0.008448931249401975 0.03807484502974944
0.1250521050438 0.009030316275248878 0.040247642950286516 0.9886384765934941 -0.0945080153454418 0.002884422686849306 0.018224398059236164 -0.0024782401656414407 -0.011672267311126507
 0.9886384765934941 -0.0945080153454418 0.009028574512783737 0.04024803198590885 -0.0024776430776820083 -0.011672327279246723 0.002886176096215963 0.018224171088352725
 0.002884422686849306 0.018224398059236164 -0.0024776430776820083 -0.011672327279246723 0.00903043088097553 0.04024925547856319 0.9886385833790327 -0.09450631675897343
 -0.0024782401656414407 -0.011672267311126507 0.002886176096215963 0.018224171088352725 0.9886385833790327 -0.09450631675897343 0.009028623660447791 0.040249599061492274
0.131304710296 0.009635490569551968 0.04243630047212176 0.98783951160105 -0.09937926208177396 0.0031490254679391173 0.019127096924833196 -0.002704211490487155 -0.012250897633930237
 0.98783951160105 -0.09937926208177396 0.009633572282230253 0.04243673635263226 -0.0027035550557528744 -0.012250967809497174 0.0031509481917233145 0.019126841539676104
 0.0031490254679391173 0.019127096924833196 -0.0027035550557528744 -0.012250967809497174 0.009635614860779447 0.04243798703103482 0.9878396299306861 -0.0993774751023231
 -0.002704211490487155 -0.012250897633930237 0.0031509481917233145 0.019126841539676104 0.9878396299306861 -0.0993774751023231 0.009633625442559399 0.042438371847119155
0.1375573155481 0.010134748447415803 0.04435493817712174 0.9871392395368705 -0.10397871051180402 0.0033944562554677118 0.02000036900001414 -0.002909294127191909 -0.012800450513430366
 0.9871392395368705 -0.10397871051180402 0.010132645862623555 0.04435541349249901 -0.00290857463653674 -0.012800531077648317 0.003396560126435633 0.020000085160784317
 0.0033944562554677118 0.02000036900001414 -0.00290857463653674 -0.012800531077648317 0.01013488385521706 0.04435669738815451 0.9871393699599185 -0.10397683483508648
 -0.002909294127191909 -0.012800450513430366 0.003396560126435633 0.020000085160784317 0.9871393699599185 -0.10397683483508648 0.010132702102052273 0.04435711682311317
0.1438099208003 0.010651797981350256 0.04626216987948392 0.9864139048097097 -0.10856515887944217 0.003649745607628761 0.02086926397966569 -0.003122514441267265 -0.013345964114897059
 0.9864139048097097 -0.10856515887944217 0.010649502986116714 0.04626268716591533 -0.003121729088425264 -0.013346056005938686 0.003652037987891791 0.02086894959257927
 0.003649745607628761 0.02086926397966569 -0.003121729088425264 -0.013346056005938686 0.010651944878219188 0.046264000704177154 0.986414048032298 -0.10856319401205936
 -0.003122514441267265 -0.013345964114897059 0.003652037987891791 0.02086894959257927 0.986414048032298 -0.10856319401205936 0.01064956212274349 0.0462644570169211
0.1500625260525 0.011186436881184238 0.04815779685507812 0.9856637145857869 -0.11313845286953655 0.003914791811883094 0.021733666617480732 -0.0033437731212250105 -0.013887329980008188
 0.9856637145857869 -0.11313845286953655 0.0111839414153389 0.04815835875272782 -0.0033429191122935466 -0.013887434173079489 0.003917279934035677 0.02173331952603002
 0.003914791811883094 0.021733666617480732 -0.0033429191122935466 -0.013887434173079489 0.011186595622128362 0.048159698213225924 0.9856638713340543 -0.11313639829983314
 -0.0033437731212250105 -0.013887329980008188 0.003917279934035677 0.02173331952603002 0.9856638713340543 -0.11313639829983314 0.011184003229882498 0.04816019376127543
0.15631513130469998 0.011738461178686965 0.050041626299068234 0.9848888773506226 -0.11769843961136311 0.004189491813705517 0.02259346394211154 -0.003572969505145737 -0.014424442192103398
 0.9848888773506226 -0.11769843961136311 0.011735757236649559 0.05004223555113789 -0.003572044058786915 -0.014424559699135244 0.004192182776373564 0.022593081930368464
