! Created with skrf 1.8.0 (http://scikit-rf.org).
# GHz S RI R 50.0 
!freq ReS11 ImS11 ReS12 ImS12 ReS13 ImS13
! ReS14 ImS14
! ReS21 ImS21 ReS22 ImS22 ReS23 ImS23
! ReS24 ImS24
! ReS31 ImS31 ReS32 ImS32 ReS33 ImS33
! ReS34 ImS34
! ReS41 ImS41 ReS42 ImS42 ReS43 ImS43
! ReS44 ImS44
!
0.0 0.001601060544084 0.0 0.998398939446 0.0 6.24134415215e-05 0.0 -6.241344115548e-05 7.643442093483026e-21
 0.998398939446 0.0 0.001601060544087 0.0 -6.241344115538e-05 7.64344209347078e-21 6.241344152211e-05 0.0
 6.24134415215e-05 0.0 -6.241344115538e-05 7.64344209347078e-21 0.001601060548168 0.0 0.9983989394501 0.0
 -6.241344115548e-05 7.643442093483026e-21 6.241344152211e-05 0.0 0.9983989394501 0.0 0.001601060548182 0.0
0.005 0.0017229189379455833 0.0012992041021480222 0.9982447163109652 -0.003354167354872256 8.910515588744684e-05 0.0007506997375272613 -8.619158056464761e-05 -0.00046015184769854385
 0.9982447163109652 -0.003354167354872256 0.001722904719447572 0.001299212391596577 -8.618775526608422e-05 -0.00046014889916094987 8.920345602362126e-05 0.0007506622645262281
 8.910515588744684e-05 0.0007506997375272613 -8.618775526608422e-05 -0.00046014889916094987 0.0017229205780791125 0.0012991358354442538 0.9982447159522204 -0.003354234419572744
 -8.619158056464761e-05 -0.00046015184769854385 8.920345602362126e-05 0.0007506622645262281 0.9982447159522204 -0.003354234419572744 0.0017229023615409349 0.0012991465260174654
0.006252605252188 0.0017549373284395531 0.001629156527896999 0.9982039278000908 -0.004193525296620236 9.67548999540941e-05 0.0009387059597588092 -9.294365983371074e-05 -0.0005757955351887886
 0.9982039278000908 -0.004193525296620236 0.0017549151025780577 0.001629167083674516 -9.29377074359259e-05 -0.0005757918996999379 9.690848404177406e-05 0.00093865729878714
 9.67548999540941e-05 0.0009387059597588092 -9.29377074359259e-05 -0.0005757918996999379 0.0017549399638556672 0.0016290712014870594 0.9982039273103566 -0.004193609115609149
 -9.294365983371074e-05 -0.0005757955351887886 9.690848404177406e-05 0.00093865729878714 0.9982039273103566 -0.004193609115609149 0.0017549114875358045 0.0016290847663676894
0.01250521050438 0.0019238301040765174 0.0032927410012412958 0.9979873022078364 -0.00838784817064798 0.00014075185107179875 0.0018775632652278823 -0.00013146137927802515 -0.001154402096594913
 0.9979873022078364 -0.00838784817064798 0.0019237413580583341 0.0032927640420351836 -0.0001314379224060645 -0.0011543953770201468 0.00014136429309025738 0.0018774462614024028
 0.00014075185107179875 0.0018775632652278823 -0.0001314379224060645 -0.0011543953770201468 0.0019238411797179835 0.0032925705367787147 0.9979873007999612 -0.00838801554727845
 -0.00013146137927802515 -0.001154402096594913 0.00014136429309025738 0.0018774462614024028 0.9979873007999612 -0.00838801554727845 0.0019237274645191398 0.003292599706748855
0.01875781575657 0.0021081201025110676 0.004980181550826486 0.997748784670417 -0.012593173592883304 0.0001945082040947016 0.0028172634487332415 -0.0001780895078083351 -0.001734890368037997
 0.997748784670417 -0.012593173592883304 0.0021079206890780543 0.004980219073327545 -0.0001780371996097996 -0.001734881224915096 0.00019588395151140227 0.0028170544553875643
 0.0001945082040947016 0.0028172634487332415 -0.0001780371996097996 -0.001734881224915096 0.002108145426731817 0.004979925912831295 0.9977487819348698 -0.012593424421079599
 -0.0001780895078083351 -0.001734890368037997 0.00019588395151140227 0.0028170544553875643 0.9977487819348698 -0.012593424421079599 0.002107889885975721 0.00497997289861877
0.02501042100875 0.0023081765651687533 0.006689077433557769 0.9974880859704928 -0.016811523358696064 0.000258128942767713 0.0037578536420694113 -0.0002329463495703083 -0.002316968350151373
 0.9974880859704928 -0.016811523358696064 0.002307822426663433 0.006689131487548651 -0.00023285397942496178 -0.0023169575645648932 0.0002605725323385679 0.0037575251806682254
 0.000258128942767713 0.0037578536420694113 -0.00023285397942496178 -0.0023169575645648932 0.0023082219319864065 0.006688736504810108 0.9974880814907129 -0.01681185754849126
 -0.0002329463495703083 -0.002316968350151373 0.0002605725323385679 0.0037575251806682254 0.9974880814907129 -0.01681185754849126 0.002307768080379016 0.0066888036677990965
0.03126302626094 0.002524353398001225 0.008418183896138519 0.99720490263119 -0.02104375119344312 0.0003317193419986334 0.0046992865688568735 -0.00029614648212114445 -0.0029004314806437906
 0.99720490263119 -0.02104375119344312 0.002523800540175669 0.00841825658114 -0.0002960029526177714 -0.0029004199556205176 0.00033553568092452524 0.004698807306558483
 0.0003317193419986334 0.0046992865688568735 -0.0002960029526177714 -0.0029004199556205176 0.002524424600279473 0.008417757482000963 0.9972048959945596 -0.021044168666657682
 -0.00029614648212114445 -0.0029004314806437906 0.00033553568092452524 0.004698807306558483 0.9972048959945596 -0.021044168666657682 0.002523716021747316 0.008417847331226585
0.037515631513130004 0.002756996645243394 0.010166682320174272 0.9968989246654155 -0.025290272548006632 0.00041538393077945624 0.005641477699639819 -0.00036780166834697223 -0.0034851055019016
 0.9968989246654155 -0.025290272548006632 0.002756201118706189 0.010166775783253873 -0.00036759598346659844 -0.0034850942628015026 0.0004208784217013548 0.005640812410806868
 0.00041538393077945624 0.005641477699639819 -0.00036759598346659844 -0.0034850942628015026 0.0027570994734843067 0.010166170153177084 0.9968989154606593 -0.025290773233227804
 -0.00036780166834697223 -0.0034851055019016 0.0004208784217013548 0.005640812410806868 0.9968989154606593 -0.025290773233227804 0.002756079800645442 0.010166285344239356
0.043768236765320004 0.0030064473697160076 0.011933958103734375 0.9965698387284354 -0.02955128664869418 0.0005092259992367656 0.006584322642131915 -0.0004480211814053076 -0.004070829086229982
 0.9965698387284354 -0.02955128664869418 0.0030053652544761 0.011934074537998888 -0.00044774243968766285 -0.004070819280882562 0.0005167045976528803 0.006583432164789331
 0.0005092259992367656 0.006584322642131915 -0.00044774243968766285 -0.004070819280882562 0.003006587612695271 0.011933359854997659 0.9965698265464841 -0.029551870469341008
 -0.0004480211814053076 -0.004070829086229982 0.0005167045976528803 0.006583432164789331 0.9965698265464841 -0.029551870469341008 0.003005200509201705 0.011933503189937944
0.050020842017509996 0.0032730429842237905 0.013719508872814657 0.9962173297260752 -0.033826868216346 0.000613347299104707 0.0075277043288781 -0.0005369119192906614 -0.004657446664587023
 0.9962173297260752 -0.033826868216346 0.0032716303755364368 0.013719650516319518 -0.0005365493093750201 -0.00465743956331731 0.0006231165355088928 0.007526545519173154
 0.000613347299104707 0.0075277043288781 -0.0005365493093750201 -0.00465743956331731 0.003273226429338026 0.013718824142793932 0.99621731416001 -0.0338275350993422
 -0.0005369119192906614 -0.004657446664587023 0.0006231165355088928 0.007526545519173154 0.99621731416001 -0.0338275350993422 0.0032714155754175094 0.013718998570537046
0.055454545454549996 0.003518906209705693 0.015285708935899664 0.995891721001323 -0.03755430648534896 0.000712257567103184 0.008347869665996509 -0.0006212840130298638 -0.005167842057062095
 0.995891721001323 -0.03755430648534896 0.0035171707381190624 0.015285874339028099 -0.0006208398067509952 -0.005167838432505901 0.0007242668247759066 0.008346439501820872
 0.000712257567103184 0.008347869665996509 -0.0006208398067509952 -0.005167838432505901 0.0035191318969398982 0.01528494867980413 0.9958917021649919 -0.037555045486743426
 -0.0006212840130298638 -0.005167842057062095 0.0007242668247759066 0.008346439501820872 0.9958917021649919 -0.037555045486743426 0.0035169070551135753 0.01528515263777792
0.056273447269699996 0.003557117927745116 0.015522899430522177 0.9958410817701945 -0.03811701244993638 0.0007278478284589679 0.008471496543567691 -0.0006345784265426472 -0.005244804920124837
 0.9958410817701945 -0.03811701244993638 0.0035553309229054007 0.015523068565647091 -0.000634121224276239 -0.005244801915737396 0.0007402148088514215 0.008470022229369127
 0.0007278478284589679 0.008471496543567691 -0.000634121224276239 -0.005244801915737396 0.0035573503600826338 0.015522127758588224 0.9958410624147505 -0.0381177623154123
 -0.0006345784265426472 -0.005244804920124837 0.0007402148088514215 0.008470022229369127 0.9958410624147505 -0.0381177623154123 0.0035550594388347873 0.015522336375866166
0.06252605252188 0.0038590040197561144 0.017343736993979373 0.9954407788169005 -0.04242165972633969 0.0008528256577808254 0.00941556586776081 -0.0007411228690919084 -0.005832750865986105
 0.9954407788169005 -0.04242165972633969 0.0038567987055108588 0.01734393594712156 -0.0007405604356005624 -0.005832753473714632 0.0008680980500407742 0.009413724801921932
 0.0008528256577808254 0.00941556586776081 -0.0007405604356005624 -0.005832753473714632 0.003859291222651079 0.017342877854720256 0.9954407552691289 -0.042422492490778965
 -0.0007411228690919084 -0.005832750865986105 0.0008680980500407742 0.009413724801921932 0.9954407552691289 -0.042422492490778965 0.003856463907227742 0.017343123907392812
0.06877865777407 0.004179030639986828 0.019181656427496013 0.9950161051335717 -0.04674071030898069 0.0009883767787603615 0.010359772848647935 -0.0008566449826760044 -0.00642113070729814
 0.9950161051335717 -0.04674071030898069 0.004176363079729859 0.019181887569193347 -0.0008559667630610686 -0.006421140564743996 0.0010068627886966992 0.01035750966230623
 0.0009883767787603615 0.010359772848647935 -0.0008559667630610686 -0.006421140564743996 0.004179378394262202 0.019180709230119507 0.9950160769928934 -0.04674162588518426
 -0.0008566449826760044 -0.00642113070729814 0.0010068627886966992 0.01035750966230623 0.9950160769928934 -0.04674162588518426 0.004175958335251136 0.01918099611492417
0.07503126302626001 0.004517524801463818 0.021036310889604726 0.9945667456645416 -0.051074033648330824 0.0011345949672914894 0.011303972744278435 -0.0009812420039003041 -0.007009789131417811
 0.9945667456645416 -0.051074033648330824 0.004514351022545887 0.02103657663506563 -0.0009804375263858921 -0.007009807998475641 0.0011566033072121153 0.011301227900388781
 0.0011345949672914894 0.011303972744278435 -0.0009804375263858921 -0.007009807998475641 0.004517938884829995 0.021035274974755224 0.9945667125325799 -0.0510750319478773
 -0.0009812420039003041 -0.007009789131417811 0.0011566033072121153 0.011301227900388781 0.9945667125325799 -0.0510750319478773 0.004513869698090833 0.021035606241467174
0.08128386827845 0.004874811160572116 0.02290736560726227 0.9940923863366246 -0.05542147456132642 0.0012915716542969123 0.012248016025985875 -0.001115008590981161 -0.007598568846998145
 0.9940923863366246 -0.05542147456132642 0.004871087142624534 0.022907668417148367 -0.00111406746653519 -0.007598598605750105 0.001317411505753289 0.01224472577318939
 0.0012915716542969123 0.012248016025985875 -0.00111406746653519 -0.007598598605750105 0.004875297347753117 0.022906240252353563 0.9940923478176534 -0.05542255548869168
 -0.001115008590981161 -0.007598568846998145 0.001317411505753289 0.01224472577318939 0.9940923478176534 -0.05542255548869168 0.004870522602433214 0.022906619606317014
0.08753647353064001 0.005251211981537393 0.024794493579349815 0.99359271432292 -0.05978285748824293 0.0014593958024078718 0.013191748737320859 -0.0012580367369154296 -0.008187310272763494
 0.99359271432292 -0.05978285748824293 0.005246893643115221 0.02479483596126903 -0.0012569486589670137 -0.00818735292737828 0.001489376774003376 0.013187845064385674
 0.0014593958024078718 0.013191748737320859 -0.0012569486589670137 -0.00818735292737828 0.005251776043331715 0.024793277995216075 0.9935926700238359 -0.05978402094341217
 -0.0012580367369154296 -0.008187310272763494 0.001489376774003376 0.013187845064385674 0.9935926700238359 -0.05978402094341217 0.005246239249614845 0.02479370930045405
0.09378907878283 0.005647047072076117 0.026697372508473434 0.9930674182821436 -0.06415798952814764 0.001638153785908748 0.014135012760085634 -0.0014104156775074197 -0.00877585132574518
 0.9930674182821436 -0.06415798952814764 0.005642090258358207 0.026697757018618776 -0.0014091704219685152 -0.008775909002354546 0.0016725858670975837 0.014130423350808118
 0.001638153785908748 0.014135012760085634 -0.0014091704219685152 -0.008775909002354546 0.005647694774829136 0.026696065836230392 0.9930673678127809 -0.06415923540928366
 -0.0014104156775074197 -0.00877585132574518 0.0016725858670975837 0.014130423350808118 0.9930673678127809 -0.06415923540928366 0.005641339372160893 0.02669655311873442
0.100041684035 0.006062633696427242 0.028615682552240094 0.9925161885786925 -0.06854666266224994 0.0018279292733589772 0.015077646016111121 -0.0015722317954442845 -0.009364027280306877
 0.9925161885786925 -0.06854666266224994 0.006056994166683105 0.02861611179760778 -0.0015708192209284932 -0.009364102226854394 0.0018671227847493102 0.015072294204959586
 0.0018279292733589772 0.015077646016111121 -0.0015708192209284932 -0.009364102226854394 0.00606337080131226 0.02861428386887356 0.9925161315515055 -0.06854799085932681
 -0.0015722317954442845 -0.009364027280306877 0.0018671227847493102 0.015072294204959586 0.9925161315515055 -0.06854799085932681 0.006056140146213424 0.02861483132060121
0.1059090909091 0.006470861762955538 0.03042956326836098 0.9919750574446144 -0.07267708528146859 0.0020161057940059337 0.01596148596511796 -0.0017327364274849172 -0.009915486835669335
 0.9919750574446144 -0.07267708528146859 0.006464541252416702 0.030430036911612963 -0.0017311576922790332 -0.009915580141080762 0.0020600498845120495 0.015955345081543275
 0.0020161057940059337 0.01596148596511796 -0.0017311576922790332 -0.009915580141080762 0.006471687997097798 0.03042807734110094 0.991974993914241 -0.07267849062015891
 -0.0017327364274849172 -0.009915486835669335 0.0020600498845120495 0.015955345081543275 0.991974993914241 -0.07267849062015891 0.006463584409744919 0.0304286852193617
0.1062942892872 0.006498286472445892 0.030549104643653097 0.9919387174898276 -0.07294865541548791 0.00202880311188524 0.01601948263321713 -0.001743568521613975 -0.009951670669899942
 0.9919387174898276 -0.07294865541548791 0.006491919887210089 0.03054958128470285 -0.0017419785696871576 -0.009951765255993856 0.002073068652628506 0.016013287361700754
 0.00202880311188524 0.01601948263321713 -0.0017419785696871576 -0.009951765255993856 0.006499118735114257 0.030547612956056288 0.9919386535206486 -0.07295006581577956
 -0.001743568521613975 -0.009951670669899942 0.002073068652628506 0.016013287361700754 0.9919386535206486 -0.07295006581577956 0.006490956089609245 0.030548224939167277
0.11254689453939999 0.006954317257392151 0.03249731920486484 0.9913346994046699 -0.07736373413258461 0.0022408532129447032 0.016960353079839494 -0.0019245062341792499 -0.010538611227025237
 0.9913346994046699 -0.07736373413258461 0.006947179165628533 0.032497845958645494 -0.0019227289299003475 -0.010538727943747276 0.0022905016051104794 0.016953228853621053
 0.0022408532129447032 0.016960353079839494 -0.0019227289299003475 -0.010538727943747276 0.00695525042713732 0.03249573345203949 0.9913346281123978 -0.07736522661780233
 -0.0019245062341792499 -0.010538611227025237 0.0022905016051104794 0.016953228853621053 0.9913346281123978 -0.07736522661780233 0.006946098945909789 0.032496414503782434
0.11879949979160001 0.007431035022872548 0.03446000515721974 0.9907038310155494 -0.08179165396586213 0.00246415443895357 0.017900084284372578 -0.002115122156158677 -0.011124675845686204
 0.9907038310155494 -0.08179165396586213 0.0074230808488255666 0.03446058480097307 -0.0021131476084329565 -0.01112481730539012 0.0025194966698340606 0.017891941131296357
 0.00246415443895357 0.017900084284372578 -0.0021131476084329565 -0.01112481730539012 0.007432074841908285 0.03445832420668324 0.9907037520227138 -0.08179322841527571
 -0.002115122156158677 -0.011124675845686204 0.0025194966698340606 0.017891941131296357 0.9907037520227138 -0.08179322841527571 0.007421877561117374 0.03445907904461119
0.1250521050438 0.007928745723411356 0.036436839133832465 0.9900458115060355 -0.08623215966865724 0.0026987784909864457 0.018838499739258524 -0.0023154902516974198 -0.011709688566180744
 0.9900458115060355 -0.08623215966865724 0.007919930753762452 0.0364374745090927 -0.00231330865407333 -0.011709857502315497 0.0027601256526575985 0.018829243168188015
 0.0026987784909864457 0.018838499739258524 -0.00231330865407333 -0.011709857502315497 0.007929897926231905 0.03643506178551125 0.9900457244385635 -0.08623381595448273
 -0.0023154902516974198 -0.011709688566180744 0.0027601256526575985 0.018829243168188015 0.9900457244385635 -0.08623381595448273 0.00791859775079852 0.036435895313306314
0.131304710296 0.008447752158198216 0.03842749486851762 0.9893603427337798 -0.0906849862206786 0.0029447937970739106 0.019775419597616462 -0.0025256811216108504 -0.012293470574782379
 0.9893603427337798 -0.0906849862206786 0.008438031528919653 0.03842818888573163 -0.00252328275284603 -0.012293669841597483 0.0030124570242017115 0.01976495055835884
 0.0029447937970739106 0.019775419597616462 -0.00252328275284603 -0.012293669841597483 0.008449022470657446 0.038425619850046916 0.9893602472211589 -0.09068672421235813
 -0.0025256811216108504 -0.012293470574782379 0.0030124570242017115 0.01976495055835884 0.9893602472211589 -0.09068672421235813 0.008436562162490618 0.0384265371638009
0.1375573155481 0.008871889558082682 0.040169668702496435 0.9887636454831974 -0.09488774261376282 0.003171769164166275 0.020683952735250265 -0.0027151962058014996 -0.012849213793911685
 0.9887636454831974 -0.09488774261376282 0.008861214025566505 0.04017040572348299 -0.002712566610762815 -0.01284944369039309 0.0032459053920479704 0.020672283845212764
 0.003171769164166275 0.020683952735250265 -0.002712566610762815 -0.01284944369039309 0.008873283085751318 0.04016769471313196 0.9887635411501783 -0.09488956216829791
 -0.0027151962058014996 -0.012849213793911685 0.0032459053920479704 0.020672283845212764 0.9887635411501783 -0.09488956216829791 0.008859602269781526 0.04016868236151966
0.1438099208003 0.009311001083651176 0.04190212774924969 0.9881458399679812 -0.09907935056840683 0.003407908014962046 0.021588669486978965 -0.002912298474920075 -0.01340142385020631
 0.9881458399679812 -0.09907935056840683 0.009299324908441863 0.04190290952526696 -0.002909427202580769 -0.013401687190681456 0.003488800595981937 0.021575709899448865
 0.003407908014962046 0.021588669486978965 -0.002909427202580769 -0.013401687190681456 0.009312523428537561 0.0419000534649494 0.9881457264499997 -0.09908125154261534
 -0.002912298474920075 -0.01340142385020631 0.003488800595981937 0.021575709899448865 0.9881457264499997 -0.09908125154261534 0.009297564222356959 0.041901115443642584
0.1500625260525 0.009764924994386272 0.043624712413426796 0.9875070925630697 -0.10325969145046691 0.003653125098169666 0.02248947222020962 -0.0031169040803968196 -0.013950006699890386
 0.9875070925630697 -0.10325969145046691 0.009752202268247672 0.04362554084204889 -0.0031137807044878956 -0.01395030641175529 0.0037410556465289147 0.02247512776384883
 0.003653125098169666 0.02248947222020962 -0.0031137807044878956 -0.01395030641175529 0.009766581742816825 0.04362253645370352 0.9875069694988206 -0.10326167369767499
 -0.0031169040803968196 -0.013950006699890386 0.0037410556465289147 0.02247512776384883 0.9875069694988206 -0.10326167369767499 0.009750286115897913 0.04362367699659123
0.15631513130469998 0.010233498304285707 0.045337267886075484 0.9868475706022449 -0.10742864736013978 0.003907334106130859 0.0233862650441315 -0.0033289280882709514 -0.01449487037125804
 0.9868475706022449 -0.10742864736013978 0.01021968294525471 0.045338145018058815 -0.0033255422077917993 -0.01449520949442147 0.004002582470848748 0.023370438258316955
