! Created with skrf 1.8.0 (http://scikit-rf.org).
# GHz S RI R 50.0 
!freq ReS11 ImS11 ReS12 ImS12 ReS13 ImS13
! ReS14 ImS14
! ReS21 ImS21 ReS22 ImS22 ReS23 ImS23
! ReS24 ImS24
! ReS31 ImS31 ReS32 ImS32 ReS33 ImS33
! ReS34 ImS34
! ReS41 ImS41 ReS42 ImS42 ReS43 ImS43
! ReS44 ImS44
!
0.0 0.001493357165987 0.0 0.9985066428241 0.0 5.746900785103e-05 0.0 -5.746900874873e-05 7.037923761430344e-21
 0.9985066428241 0.0 0.001493357165988 0.0 -5.74690087491e-05 7.037923761475656e-21 5.746900784831e-05 0.0
 5.746900785103e-05 0.0 -5.74690087491e-05 7.037923761475656e-21 0.001493357163691 0.0 0.9985066428218 0.0
 -5.746900874873e-05 7.037923761430344e-21 5.746900784831e-05 0.0 0.9985066428218 0.0 0.001493357163666 0.0
0.005 0.0016065902842935646 0.0012226780758381646 0.9983634366382598 -0.003128334301263876 8.019339654533592e-05 0.0006277258427326115 -7.802538384668364e-05 -0.00039497919161050275
 0.9983634366382598 -0.003128334301263876 0.001606568559638572 0.0012226908154448959 -7.80249344069898e-05 -0.00039497891609032847 8.033123467186637e-05 0.00062767346346313
 8.019339654533592e-05 0.0006277258427326115 -7.80249344069898e-05 -0.00039497891609032847 0.001606590503914122 0.0012227452644292343 0.9983634369858051 -0.0031282672358584284
 -7.802538384668364e-05 -0.00039497919161050275 8.033123467186637e-05 0.00062767346346313 0.9983634369858051 -0.0031282672358584284 0.0016065690315518926 0.0012227577549529828
0.006252605252188 0.0016362492522788478 0.0015331589295642352 0.9983257035301116 -0.003911189184240165 8.663295468685806e-05 0.0007849684696582217 -8.380706519027845e-05 -0.0004942357836470991
 0.9983257035301116 -0.003911189184240165 0.0016362152920318758 0.001533175093786673 -8.380636526311641e-05 -0.0004942354453844361 8.684831577712125e-05 0.0007849004512270296
 8.663295468685806e-05 0.0007849684696582217 -8.380636526311641e-05 -0.0004942354453844361 0.001636249526350029 0.0015332429143658807 0.998325704004718 -0.0039111053583762295
 -8.380706519027845e-05 -0.0004942357836470991 8.684831577712125e-05 0.0007849004512270296 0.998325704004718 -0.0039111053583762295 0.0016362159614451215 0.0015332587545075665
0.01250521050438 0.0017921549586558624 0.0030984622352662693 0.9981261142558003 -0.007823219312092702 0.00012328587024658223 0.001570346930476592 -0.00011649258719449642 -0.0009908887633432218
 0.9981261142558003 -0.007823219312092702 0.001792019345752856 0.003098496979854492 -0.00011648982203182858 -0.0009908881548270681 0.00012414473229408106 0.0015701835105524362
 0.00012328587024658223 0.001570346930476592 -0.00011648982203182858 -0.0009908881548270681 0.001792155499226596 0.003098629997496405 0.9981261156061647 -0.007823051910606438
 -0.00011649258719449642 -0.0009908887633432218 0.00012414473229408106 0.0015701835105524362 0.9981261156061647 -0.007823051910606438 0.0017920214802351956 0.0030986639611690213
0.01875781575657 0.0019614061897594696 0.004686088467937896 0.9979076327563795 -0.01174561919075604 0.00016751319903871581 0.0023566625767752047 -0.00015562422353528098 -0.0014892567316691085
 0.9979076327563795 -0.01174561919075604 0.001961101444708221 0.004686144389436849 -0.00015561804756092829 -0.0014892559360474291 0.00016944266224423485 0.0023563711599672204
 0.00016751319903871581 0.0023566625767752047 -0.00015561804756092829 -0.0014892559360474291 0.0019614069617940786 0.0046863399494991844 0.9979076353670845 -0.011745368298798579
 -0.00015562422353528098 -0.0014892567316691085 0.00016944266224423485 0.0023563711599672204 0.9979076353670845 -0.011745368298798579 0.0019611058290903917 0.004686394484656488
0.02501042100875 0.0021443255290665704 0.0062938264322116655 0.9976700074275043 -0.015680297715076497 0.00021940075865579017 0.003143954306236457 -0.00020129760256697914 -0.0019891204442987736
 0.9976700074275043 -0.015680297715076497 0.002143784298153064 0.006293906283011965 -0.00020128668320453904 -0.001989119561043828 0.00022282816401242856 0.0031434972666706993
 0.00021940075865579017 0.003143954306236457 -0.00020128668320453904 -0.001989119561043828 0.0021443264957971948 0.006294161595548026 0.9976700116923211 -0.015679963381402342
 -0.00020129760256697914 -0.0019891204442987736 0.00022282816401242856 0.0031434972666706993 0.9976700116923211 -0.015679963381402342 0.002143791730837891 0.006294239289914078
0.03126302626094 0.002341222228937548 0.0079205422753665 0.997412973535853 -0.01962807673632462 0.00027903459603556216 0.003932189537542806 -0.0002536057756629193 -0.0024903269207621017
 0.997412973535853 -0.01962807673632462 0.002340377247400043 0.007920648958576512 -0.00025358879107922975 -0.0024903260658600992 0.0002843879236305904 0.003931524188754067
 0.00027903459603556216 0.003932189537542806 -0.00025358879107922975 -0.0024903260658600992 0.0023412233407610426 0.007920961091945187 0.9974129798468222 -0.019627658984819867
 -0.0002536057756629193 -0.0024903269207621017 0.0002843879236305904 0.003931524188754067 0.9974129798468222 -0.019627658984819867 0.0023403885290250496 0.007921064667522473
0.037515631513130004 0.0025523989338528557 0.009565499782479872 0.9971362601476625 -0.023589370705042675 0.0003465002970521536 0.004721307511988936 -0.0003126398784788216 -0.0029927461538550525
 0.9971362601476625 -0.023589370705042675 0.0025511830014116766 0.009565636349354464 -0.0003126155165537298 -0.002992745459922136 0.00035420834635517475 0.0047203860550932945
 0.0003465002970521536 0.004721307511988936 -0.0003126155165537298 -0.002992745459922136 0.0025524001291378075 0.009566002232369416 0.997136268896304 -0.023588869535098703
 -0.0003126398784788216 -0.0029927461538550525 0.00035420834635517475 0.0047203860550932945 0.997136268896304 -0.023588869535098703 0.002551198934852385 0.009566134542554984
0.043768236765320004 0.002778154280458165 0.011228153536553287 0.9968395929325996 -0.027564393441149443 0.00042188265765623367 0.0055112324487487105 -0.0003784893670616547 -0.003496257956526311
 0.9968395929325996 -0.027564393441149443 0.0027765002422910556 0.01122832318488776 -0.00037845632479801406 -0.0034962575728730433 0.00043237513505949715 0.005510001913779186
 0.00042188265765623367 0.0055112324487487105 -0.00037845632479801406 -0.0034962575728730433 0.0027781554902644215 0.011228739583269523 0.9968396045147873 -0.02756380885283513
 -0.0003784893670616547 -0.003496257956526311 0.00043237513505949715 0.005510001913779186 0.9968396045147873 -0.02756380885283513 0.002776521636680654 0.011228903610958303
0.050020842017509996 0.0030187841135633567 0.012908063405180992 0.9965226955838097 -0.031553243575958886 0.0005052654801657907 0.0063018789913471636 -0.000451242105577994 -0.004000746516813187
 0.9965226955838097 -0.031553243575958886 0.0030166248430391965 0.012908269478397384 -0.00045119908878597445 -0.004000746609508754 0.0005189730369422974 0.006300281175817227
 0.0005052654801657907 0.0063018789913471636 -0.00045119908878597445 -0.004000746609508754 0.0030187852567739033 0.01290873301896729 0.9965227103951534 -0.03155257554664419
 -0.000451242105577994 -0.004000746516813187 0.0005189730369422974 0.006300281175817227 0.9965227103951534 -0.03155257554664419 0.003016652508355448 0.012908931875387964
0.055454545454549996 0.0032402067605879384 0.014381676310935823 0.9962306573742424 -0.035030925773480985 0.0005842892633084535 0.006989489307446113 -0.0005201397804899156 -0.004439866984333259
 0.9962306573742424 -0.035030925773480985 0.0032375539236501496 0.014381916866442869 -0.0005200870512287397 -0.004439867638916549 0.0006011413034900598 0.006987520935437788
 0.0005842892633084535 0.006989489307446113 -0.0005200870512287397 -0.004439867638916549 0.0032402077726689502 0.014382418512730925 0.996230675315118 -0.035030185210773855
 -0.0005201397804899156 -0.004439866984333259 0.0006011413034900598 0.006987520935437788 0.996230675315118 -0.035030185210773855 0.0032375876983438932 0.014382650262132358
0.056273447269699996 0.0032745821044091075 0.014604852609795257 0.9961852906442333 -0.03555594641225324 0.0005967314268763902 0.007093154868230214 -0.0005309843849660587 -0.004506097740396134
 0.9961852906442333 -0.03555594641225324 0.00327185048833609 0.014605098596415192 -0.0005309301081285357 -0.004506098492322964 0.0006140856676057646 0.007091126274424575
 0.0005967314268763902 0.007093154868230214 -0.0005309301081285357 -0.004506098492322964 0.0032745830901483876 0.014605605749875345 0.9961853090826531 -0.035555194914378176
 -0.0005309843849660587 -0.004506097740396134 0.0006140856676057646 0.007091126274424575 0.9961853090826531 -0.035555194914378176 0.003271885236792522 0.014605842673788538
0.06252605252188 0.0035458400892017425 0.01631818463255678 0.9958271000549453 -0.03957247694922538 0.0006963619004848854 0.007884962366239609 -0.000617800908264446 -0.005012197782954786
 0.9958271000549453 -0.03957247694922538 0.003542469012872593 0.016318474166226768 -0.0006177340944092133 -0.005012199393853337 0.0007177953716607959 0.007882434137965851
 0.0006963619004848854 0.007884962366239609 -0.0006177340944092133 -0.005012199393853337 0.003545840817134665 0.0163190212532614 0.9958271225216303 -0.03957164194409542
 -0.000617800908264446 -0.005012197782954786 0.0007177953716607959 0.007882434137965851 0.9958271225216303 -0.03957164194409542 0.0035425116590390264 0.01631929961074304
0.06877865777407 0.0038328482481961115 0.01804774948092526 0.995447845548432 -0.04360277355246156 0.0008042369403670336 0.00867719920467494 -0.0007117747553880911 -0.005518932185122678
 0.995447845548432 -0.04360277355246156 0.0038287705813907754 0.01804808634081296 -0.0007116941361216361 -0.005518934871633387 0.000830183105035343 0.008674097063924722
 0.0008042369403670336 0.00867719920467494 -0.0007116941361216361 -0.005518934871633387 0.0038328486074198195 0.018048669528789075 0.9954478724467182 -0.04360185499323259
 -0.0007117747553880911 -0.005518932185122678 0.000830183105035343 0.008674097063924722 0.9954478724467182 -0.04360185499323259 0.0038288219400778893 0.018048992813352833
0.07503126302626001 0.0041358951917864015 0.019793254955183366 0.9950472489523742 -0.0476467466249938 0.0009204351274638478 0.009469759091825576 -0.0008129873358277336 -0.006026185328570405
 0.9950472489523742 -0.0476467466249938 0.004131043775187919 0.019793643066828907 -0.0008128916513845696 -0.0060261893242766155 0.0009513283298021661 0.009466003275594048
 0.0009204351274638478 0.009469759091825576 -0.0008128916513845696 -0.0060261893242766155 0.0041358950615831246 0.019794258371203508 0.9950472806888152 -0.04764574445430668
 -0.0008129873358277336 -0.006026185328570405 0.0009513283298021661 0.009466003275594048 0.9950472806888152 -0.04764574445430668 0.004131104661531585 0.01979463020446022
0.08128386827845 0.004455267989347072 0.02155442084723407 0.9946250324384975 -0.051704284350669906 0.0010450334946664908 0.010262532100999682 -0.0009215183334667189 -0.006533840076387146
 0.9946250324384975 -0.051704284350669906 0.0044495756206571375 0.021554864283775968 -0.0009214063327872904 -0.006533845631836597 0.001081308916224397 0.010258037298444064
 0.0010450334946664908 0.010262532100999682 -0.0009214063327872904 -0.006533845631836597 0.004455267239120745 0.02155550756966165 0.9946250694232022 -0.051703198497885
 -0.0009215183334667189 -0.006533840076387146 0.001081308916224397 0.010258037298444064 0.9946250694232022 -0.051703198497885 0.00444964684945036 0.02155593170236482
0.08753647353064001 0.004791252158692906 0.02333097493775417 0.9941809187362901 -0.0557752566436266 0.0011781074403673937 0.011055404933980764 -0.0010374456458848579 -0.0070417775300277465
 0.9941809187362901 -0.0557752566436266 0.004784651579113132 0.023331477921674806 -0.0010373160867202234 -0.00704178491277581 0.001220201049831664 0.011050080224047966
 0.0011781074403673937 0.011055404933980764 -0.0010373160867202234 -0.00704178491277581 0.00479125064765551 0.023332144892915966 0.9941809613832427 -0.055774087034090924
 -0.0010374456458848579 -0.0070417775300277465 0.001220201049831664 0.011050080224047966 0.9941809613832427 -0.055774087034090924 0.00478473396380326 0.023332625206408553
0.09378907878283 0.005144131629072833 0.02512265011957781 0.9937146313235826 -0.05985951797616782 0.0013197306445524738 0.01184826111168348 -0.0011608453192569125 -0.0075498768632032524
 0.9937146313235826 -0.05985951797616782 0.005136555509874109 0.025123217024799062 -0.0011606969683292012 -0.007549886357822765 0.001368079142167659 0.01184200990138561
 0.0013197306445524738 0.01184826111168348 -0.0011606969683292012 -0.007549886357822765 0.005144129206529821 0.025123903227507873 0.9937146800506729 -0.05985826452550067
 -0.0011608453192569125 -0.0075498768632032524 0.001368079142167659 0.01184200990138561 0.9937146800506729 -0.05985826452550067 0.005136649861985646 0.02512444373573479
0.100041684035 0.005514188684735845 0.02692918229733234 0.993225894599849 -0.06395690943509527 0.0014699749860476528 0.012640981120617071 -0.0012917914806582068 -0.008058015204257907
 0.993225894599849 -0.06395690943509527 0.005505569613434591 0.026929817651869695 -0.0012916231137900234 -0.008058027112365546 0.001525015743227139 0.0126337010839862
 0.0014699749860476528 0.012640981120617071 -0.0012916231137900234 -0.008058027112365546 0.005514185190227505 0.026930518472552248 0.9932259498299977 -0.0639555720485051
 -0.0012917914806582068 -0.008058015204257907 0.001525015743227139 0.0126337010839862 0.9932259498299977 -0.0639555720485051 0.0055056767421745945 0.026931123324429776
0.1059090909091 0.005877320759367779 0.028637699427859258 0.9927466050714959 -0.06781366647787261 0.0016188665711986182 0.013384631903816991 -0.001421598298749607 -0.00853477329976613
 0.9927466050714959 -0.06781366647787261 0.005867661590745475 0.02863840327293966 -0.001421410043968281 -0.00853478776217815 0.0016805856299053534 0.013376288198615251
 0.0016188665711986182 0.013384631903816991 -0.001421410043968281 -0.00853478776217815 0.005877316103915523 0.02863911346735842 0.9927466667923824 -0.06781225023373608
 -0.001421598298749607 -0.00853477329976613 0.0016805856299053534 0.013376288198615251 0.9927466667923824 -0.06781225023373608 0.00586778144150507 0.028639782595195465
0.1062942892872 0.005901703895135133 0.028750308813362997 0.9927144340507069 -0.06806726025672037 0.001628910460736439 0.013433442529040857 -0.001430356267922047 -0.008566067553287867
 0.9927144340507069 -0.06806726025672037 0.0058919743619333005 0.028751017302378987 -0.0014301666702578304 -0.008566082193546435 0.0016910814556225246 0.013425025546858439
 0.001628910460736439 0.013433442529040857 -0.0014301666702578304 -0.008566082193546435 0.005901699158014445 0.028751727962205754 0.9927144962109754 -0.0680658388316698
 -0.001430356267922047 -0.008566067553287867 0.0016910814556225246 0.013425025546858439 0.9927144962109754 -0.0680658388316698 0.0058920950726044285 0.028752401444640786
0.11254689453939999 0.006306956032727914 0.030585767235970455 0.9921799764014306 -0.0721903890047406 0.0017966051005824997 0.014225520079011374 -0.001576609757556246 -0.009073906727892586
 0.9921799764014306 -0.0721903890047406 0.006296048416546804 0.030586553705373283 -0.001576397723669527 -0.009073924436028252 0.001866344850074531 0.014215852179390927
 0.0017966051005824997 0.014225520079011374 -0.001576397723669527 -0.009073924436028252 0.006306949872393013 0.030587269257906603 0.9921800459244594 -0.07218888342974066
 -0.001576609757556246 -0.009073906727892586 0.001866344850074531 0.014215852179390927 0.9921800459244594 -0.07218888342974066 0.006296183510846806 0.030588015799098412
0.11879949979160001 0.0067302219837176765 0.03243529442064542 0.991622249767371 -0.07632610448061779 0.001973124892930326 0.015017085767913508 -0.0017306198914745971 -0.009581403324020587
 0.991622249767371 -0.07632610448061779 0.00671806853851221 0.03243616388112433 -0.0017303842256478738 -0.009581424452817048 0.002050872381142512 0.015006047067889447
 0.001973124892930326 0.015017085767913508 -0.0017303842256478738 -0.009581424452817048 0.006730214209522573 0.03243687920894384 0.991622327091398 -0.07632451463462084
 -0.0017306198914745971 -0.009581403324020587 0.002050872381142512 0.015006047067889447 0.991622327091398 -0.07632451463462084 0.006718218812893542 0.03243770338239274
0.1250521050438 0.0071717766510822475 0.03429862576977974 0.9910409837992551 -0.08047420644078411 0.002158533700189248 0.015808008916021184 -0.0018924524023854572 -0.01008842569558319
 0.9910409837992551 -0.08047420644078411 0.007158309491966774 0.034299583401402566 -0.0018921919187647972 -0.010088450614878095 0.0022447283041627016 0.015795473564059928
 0.002158533700189248 0.015808008916021184 -0.0018921919187647972 -0.010088450614878095 0.007171767062578123 0.034300293209090685 0.9910410693684003 -0.08047253219561007
 -0.0018924524023854572 -0.01008842569558319 0.0022447283041627016 0.015795473564059928 0.9910410693684003 -0.08047253219561007 0.007158475737452043 0.03430119973807252
0.131304710296 0.007631892852747471 0.036175494641439584 0.9904359098257303 -0.08463448617065915 0.0023528931797299813 0.01659815623080936 -0.0020621707385104614 -0.010594839942115832
 0.9904359098257303 -0.08463448617065915 0.007617043941820088 0.03617654579878066 -0.0020618842613463703 -0.010594869038776588 0.002447974592061238 0.016583992350446247
 0.0023528931797299813 0.01659815623080936 -0.0020618842613463703 -0.010594869038776588 0.007631881239292725 0.03617724461103768 0.9904360040903005 -0.08463272738794474
 -0.0020621707385104614 -0.010594839942115832 0.002447974592061238 0.016583992350446247 0.9904360040903005 -0.08463272738794474 0.0076172269428303905 0.03617823837355955
0.1375573155481 0.008004350443661244 0.03782116224351115 0.9899132933248873 -0.08856213982363434 0.0025308938984386735 0.017362816383117166 -0.0022143581046850584 -0.01107602784038691
 0.9899132933248873 -0.08856213982363434 0.007988047498244132 0.03782229046212761 -0.0022140440962224377 -0.011076061149400492 0.002635078519658572 0.01734704638073321
 0.0025308938984386735 0.017362816383117166 -0.0022140440962224377 -0.011076061149400492 0.008004337554932609 0.03782299424092435 0.9899133966809751 -0.08856029644534114
 -0.0022143581046850584 -0.01107602784038691 0.002635078519658572 0.01734704638073321 0.9899133966809751 -0.08856029644534114 0.007988247177522436 0.037824059185826805
0.1438099208003 0.00838989190622756 0.03945836726277549 0.9893723626608993 -0.09248004029278031 0.0027160639164142027 0.01812455032777468 -0.002372633921011779 -0.011554472446552045
 0.9893723626608993 -0.09248004029278031 0.008372066060385123 0.03945957663083003 -0.002372291154669313 -0.011554510342821874 0.002829751525548386 0.018107053819721372
 0.0027160639164142027 0.01812455032777468 -0.002372291154669313 -0.011554510342821874 0.00838987769218046 0.039460281111918745 0.9893724755565848 -0.0924781121890684
 -0.002372633921011779 -0.011554472446552045 0.002829751525548386 0.018107053819721372 0.9893724755565848 -0.0924781121890684 0.008372283037143581 0.03946142093718098
0.1500625260525 0.00878838482988211 0.04108697871763615 0.9888132542779685 -0.09638809622523534 0.002908340265197968 0.018883286172613423 -0.002536935743941119 -0.012030103421947897
 0.9888132542779685 -0.09638809622523534 0.008768967053402268 0.04108827357249829 -0.0025365629983630945 -0.012030146294953636 0.0030319283550951 0.018863938384555346
 0.002908340265197968 0.018883286172613423 -0.0025365629983630945 -0.012030146294953636 0.008788369242417762 0.041088974235359677 0.9888133771661628 -0.09638608325978656
 -0.002536935743941119 -0.012030103421947897 0.0030319283550951 0.018863938384555346 0.9888133771661628 -0.09638608325978656 0.008769201930460494 0.04109019287661182
0.15631513130469998 0.009199695902387365 0.04270686959955479 0.9882361052748787 -0.10028621646913388 0.003107659251379188 0.019638953232177597 -0.002707200376737496 -0.012502851892395707
