! Created with skrf 1.8.0 (http://scikit-rf.org).
# GHz S RI R 50.0 
!freq ReS11 ImS11 ReS12 ImS12 ReS13 ImS13
! ReS14 ImS14
! ReS21 ImS21 ReS22 ImS22 ReS23 ImS23
! ReS24 ImS24
! ReS31 ImS31 ReS32 ImS32 ReS33 ImS33
! ReS34 ImS34
! ReS41 ImS41 ReS42 ImS42 ReS43 ImS43
! ReS44 ImS44
!
0.0 0.001775520167026 0.0 0.998224479831 0.0 6.918306609852e-05 0.0 -6.918306673147e-05 8.472482122789248e-21
 0.998224479831 0.0 0.001775520167019 0.0 -6.918306673067e-05 8.472482122691276e-21 6.9183066098e-05 0.0
 6.918306609852e-05 0.0 -6.918306673067e-05 8.472482122691276e-21 0.001775520165504 0.0 0.9982244798295 0.0
 -6.918306673147e-05 8.472482122789248e-21 6.9183066098e-05 0.0 0.9982244798295 0.0 0.001775520165536 0.0
0.005 0.001911161041406903 0.0014460473366083163 0.9980527355054803 -0.003718714238672786 9.823741756666385e-05 0.0007972081976113664 -9.517238336494506e-05 -0.0004941310821742733
 0.9980527355054803 -0.003718714238672786 0.0019111481315712577 0.001446054880096837 -9.517528708838469e-05 -0.0004941333415930981 9.831441651709459e-05 0.0007971789575805146
 9.823741756666385e-05 0.0007972081976113664 -9.517528708838469e-05 -0.0004941333415930981 0.0019111590264376797 0.001445981271930591 0.9980527351244898 -0.0037187813050760976
 -9.517238336494506e-05 -0.0004941310821742733 9.831441651709459e-05 0.0007971789575805146 0.9980527351244898 -0.0037187813050760976 0.0019111493896844585 0.0014459868158170231
0.006252605252188 0.0019469705399500442 0.0018132417971861113 0.9980070729314269 -0.004649267398597931 0.00010665947040440871 0.0009968654047289476 -0.00010262625652789493 -0.0006182960701071938
 0.9980070729314269 -0.004649267398597931 0.0019469503589560322 0.0018132513342137488 -0.00010263077468959218 -0.0006182988557156932 0.00010677977403742697 0.000996827395233115
 0.00010665947040440871 0.0009968654047289476 -0.00010263077468959218 -0.0006182988557156932 0.0019469674681649072 0.0018131592286676507 0.9980070724142039 -0.004649351226797961
 -0.00010262625652789493 -0.0006182960701071938 0.00010677977403742697 0.000996827395233115 0.9980070724142039 -0.004649351226797961 0.001946952404508024 0.0018131662551518623
0.01250521050438 0.002136846836952248 0.0036643290888985353 0.9977631896845972 -0.009299093852465138 0.00015559935783241376 0.001993878763648523 -0.00014554146354207482 -0.0012394616226366155
 0.9977631896845972 -0.009299093852465138 0.002136766245867666 0.0036643492522955307 -0.00014555926561385865 -0.0012394667656707113 0.0001560791135247667 0.00199378686182208
 0.00015559935783241376 0.001993878763648523 -0.00014555926561385865 -0.0012394667656707113 0.0021368351286086694 0.0036641643095251153 0.9977631881813873 -0.009299261256786696
 -0.00014554146354207482 -0.0012394616226366155 0.0001560791135247667 0.00199378686182208 0.9977631881813873 -0.009299261256786696 0.002136774984748336 0.0036641793075971527
0.01875781575657 0.002345611850302821 0.005541507550732442 0.9974924929228114 -0.013960743989731034 0.00021612377888801857 0.0029917088822171826 -0.00019807193814071612 -0.0018625164144719679
 0.9974924929228114 -0.013960743989731034 0.0023454307411055362 0.005541539535450975 -0.00019811163168065012 -0.0018625233942682236 0.0002172015248344838 0.0029915437733533494
 0.00021612377888801857 0.0029917088822171826 -0.00019811163168065012 -0.0018625233942682236 0.002345585952840839 0.0055412608348964255 0.9974924899635497 -0.013960994884620864
 -0.00019807193814071612 -0.0018625164144719679 0.0002172015248344838 0.0029915437733533494 0.9974924899635497 -0.013960994884620864 0.002345450814454758 0.005541284756312617
0.02501042100875 0.0025737116962100026 0.007442074834209519 0.9971946309993234 -0.018636414319885955 0.0002883547579093036 0.00399036677250113 -0.00026035489181280413 -0.0024871288655887646
 0.9971946309993234 -0.018636414319885955 0.0025733900257535803 0.007442119924994303 -0.00026042497879803246 -0.0024871370603982658 0.00029026912348964327 0.003990105804332029
 0.0002883547579093036 0.00399036677250113 -0.00026042497879803246 -0.0024871370603982658 0.0025736660664687585 0.007441746487594063 0.9971946261158904 -0.018636748669909737
 -0.00026035489181280413 -0.0024871288655887646 0.00029026912348964327 0.003990105804332029 0.9971946261158904 -0.018636748669909737 0.0025734260786546472 0.007441780279015475
0.03126302626094 0.0028215738540588926 0.009364608001295113 0.9968692362645043 -0.023327005784244362 0.00037241404204870686 0.004989766285670478 -0.0003325227246608041 -0.003113055543147948
 0.9968692362645043 -0.023327005784244362 0.002821071618479715 0.009364667569797645 -0.0003326316189773353 -0.003113064229172652 0.00037540395906108696 0.004989383445660465
 0.00037241404204870686 0.004989766285670478 -0.0003326316189773353 -0.003113064229172652 0.0028215029540420555 0.009364198385294979 0.996869228987366 -0.023327423580120007
 -0.0003325227246608041 -0.003113055543147948 0.00037540395906108696 0.004989383445660465 0.996869228987366 -0.023327423580120007 0.002821128299780585 0.009364242984950843
0.037515631513130004 0.0030896158342228813 0.01130815484220332 0.9965159341334686 -0.02803293238486553 0.00046842189332850325 0.005989782378429818 -0.0004147040154068997 -0.003740082943656451
 0.9965159341334686 -0.02803293238486553 0.003088893051440934 0.011308230345880825 -0.00041486005175289214 -0.003740091294819359 0.0004727266864610423 0.005989248258758991
 0.00046842189332850325 0.005989782378429818 -0.00041486005175289214 -0.003740091294819359 0.0030895141303682694 0.011307664389166725 0.9965159239909388 -0.028033433628964603
 -0.0004147040154068997 -0.003740082943656451 0.0004727266864610423 0.005989248258758991 0.9965159239909388 -0.028033433628964603 0.0030889750143340646 0.011307720724664865
0.043768236765320004 0.00337824849794859 0.01327198779636148 0.9961343468047511 -0.032754367199759084 0.00057649649877373 0.006990268845734533 -0.0005070238548765035 -0.0043680098046586
 0.9961343468047511 -0.032754367199759084 0.003377265192690086 0.013272080778255563 -0.0005072352939102842 -0.004368016892575925 0.0005823559237918778 0.006989550604509756
 0.00057649649877373 0.006990268845734533 -0.0005072352939102842 -0.004368016892575925 0.003378110461746738 0.013271416999285537 0.9961343333226056 -0.032754951917335115
 -0.0005070238548765035 -0.0043680098046586 0.0005823559237918778 0.006989550604509756 0.9961343333226056 -0.032754951917335115 0.0033773770959929154 0.013271485986029088
0.050020842017509996 0.003687877580092348 0.01525550224449289 0.9957240951856304 -0.037491344027373856 0.0006967535999675094 0.007991065657837757 -0.0006096039443703634 -0.004996639815873901
 0.9957240951856304 -0.037491344027373856 0.003686593770799356 0.015255614333542184 -0.0006098789760009941 -0.004996644609891173 0.0007044078543939134 0.007990126978826223
 0.0006967535999675094 0.007991065657837757 -0.0006098789760009941 -0.004996644609891173 0.003687697688193362 0.015254851667598286 0.9957240778863707 -0.03749201225677816
 -0.0006096039443703634 -0.004996639815873901 0.0007044078543939134 0.007990126978826223 0.9957240778863707 -0.03749201225677816 0.0036867402789051993 0.015254934207805312
0.055454545454549996 0.003974318114925883 0.016994806056108078 0.9953440006514517 -0.04162050091487733 0.0008112421899616094 0.008860908451229983 -0.0007071736988519118 -0.005543358006920306
 0.9953440006514517 -0.04162050091487733 0.003972740674403328 0.016994936140000833 -0.0007075105922030925 -0.0055433598910663625 0.0008206516140091141 0.008859745982730486
 0.0008112421899616094 0.008860908451229983 -0.0007075105922030925 -0.0055433598910663625 0.003974097368536558 0.016994086665368828 0.9953439796446306 -0.04162124175690376
 -0.0007071736988519118 -0.005543358006920306 0.0008206516140091141 0.008859745982730486 0.9953439796446306 -0.04162124175690376 0.003972921048470282 0.016994181705888022
0.056273447269699996 0.004018904441575836 0.01725816661347009 0.9952848000512164 -0.04224380722308036 0.0008293062163083732 0.008992002577710234 -0.0007225625922864048 -0.005625778056519121
 0.9952848000512164 -0.04224380722308036 0.004017280127892561 0.017258299525257672 -0.000722909337733171 -0.005625779423776566 0.000838995933326301 0.008990803629401772
 0.0008293062163083732 0.008992002577710234 -0.000722909337733171 -0.005625779423776566 0.004018677177142968 0.017257436894567442 0.995284778454127 -0.04224455901431942
 -0.0007225625922864048 -0.005625778056519121 0.000838995933326301 0.008990803629401772 0.995284778454127 -0.04224455901431942 0.004017465912137407 0.017257533876582645
0.06252605252188 0.004371726452341313 0.019279494938878126 0.9948160828403425 -0.04701163908524078 0.0009742644183790629 0.009992901158962317 -0.0008460146554649207 -0.006255229059924889
 0.9948160828403425 -0.04701163908524078 0.004369721602892698 0.01927965047692413 -0.0008464411686181165 -0.00625522576546239 0.0009862306494361158 0.00999139855351267
 0.0009742644183790629 0.009992901158962317 -0.0008464411686181165 -0.00625522576546239 0.004371446304738719 0.019278686789330358 0.9948160564600773 -0.047012474500921886
 -0.0008460146554649207 -0.006255229059924889 0.0009862306494361158 0.00999139855351267 0.9948160564600773 -0.047012474500921886 0.004369951340846965 0.019278799087345897
0.06877865777407 0.004746737160480678 0.021319030522482213 0.9943175662419881 -0.05179467615501382 0.0011317351264044189 0.01099357595556349 -0.0009800714517130046 -0.00688479567502893
 0.9943175662419881 -0.05179467615501382 0.00474431170131629 0.02131921057984057 -0.0009805857200730164 -0.006884786381876662 0.0011462193157989842 0.010991722707864367
 0.0011317351264044189 0.01099357595556349 -0.0009805857200730164 -0.006884786381876662 0.0047463986273228636 0.021318144725837335 0.9943175345889786 -0.05179559527248452
 -0.0009800714517130046 -0.00688479567502893 0.0011462193157989842 0.010991722707864367 0.9943175345889786 -0.05179559527248452 0.004744590077473288 0.02131827320018594
0.07503126302626001 0.005144326343113022 0.023376335578404763 0.9937888746695668 -0.056592719537074 0.0013018219250652003 0.011993835302883664 -0.001124840653294624 -0.007514278365704757
 0.9937888746695668 -0.056592719537074 0.005141440145962604 0.023376542139751114 -0.001125450598377527 -0.007514261635009232 0.0013190658786746557 0.01199158078986639
 0.0013018219250652003 0.011993835302883664 -0.001125450598377527 -0.007514261635009232 0.005143923930413488 0.023375372995207897 0.9937888372489254 -0.056593722444467046
 -0.001124840653294624 -0.007514278365704757 0.0013190658786746557 0.01199158078986639 0.9937888372489254 -0.056593722444467046 0.0051417718519271086 0.023375518492868026
0.08128386827845 0.005564879977859514 0.025450984354690377 0.9932296346591115 -0.06140554175527263 0.0014846248881274623 0.01299348185446864 -0.0012804261685923 -0.008143474763948522
 0.9932296346591115 -0.06140554175527263 0.005561492848578481 0.02545121949879973 -0.0012811396462433552 -0.008143449055083173 0.0015048707371570977 0.012990771774873648
 0.0014846248881274623 0.01299348185446864 -0.0012811396462433552 -0.008143449055083173 0.005564408201379141 0.02544994591889429 0.9932295909700178 -0.06140662855589154
 -0.0012804261685923 -0.008143474763948522 0.0015048707371570977 0.012990771774873648 0.9932295909700178 -0.06140662855589154 0.005561882582823714 0.025450109274563888
0.08753647353064001 0.006008780163199971 0.027542558381978097 0.9926394752226327 -0.06623289149213704 0.0016802404096002061 0.013992312973724932 -0.0014469280156443965 -0.008772179378007798
 0.9926394752226327 -0.06623289149213704 0.006004851830256671 0.027542824284665497 -0.0014477528160305843 -0.008772143048726111 0.0017037305706624245 0.013989089308340875
 0.0016802404096002061 0.013992312973724932 -0.0014477528160305843 -0.008772143048726111 0.006008233549680071 0.027541445107252645 0.992639424758174 -0.06623406229890542
 -0.0014469280156443965 -0.008772179378007798 0.0017037305706624245 0.013989089308340875 0.992639424758174 -0.06623406229890542 0.006005304298695448 0.02754162714482673
0.09378907878283 0.006476405003635946 0.029650643096912163 0.9920180281691131 -0.07107449696494667 0.001888761039647599 0.01499012102855582 -0.0016244421900894457 -0.00940018340776659
 0.9920180281691131 -0.07107449696494667 0.006471895106410892 0.029650942034444242 -0.001625386037578149 -0.00940013471434202 0.001915738171290583 0.014986322001075626
 0.001888761039647599 0.01499012102855582 -0.001625386037578149 -0.00940013471434202 0.006475778091500799 0.029649456074865684 0.9920179704151811 -0.07107575190293139
 -0.0016244421900894457 -0.00940018340776659 0.001915738171290583 0.014986322001075626 0.9920179704151811 -0.07107575190293139 0.006472415021786369 0.029649657609355447
0.100041684035 0.006968128468061361 0.0317748253721194 0.9913649284038343 -0.07593006840715195 0.002110275323668904 0.01598669363076866 -0.001813060529155919 -0.010027274625687426
 0.9913649284038343 -0.07593006840715195 0.006962996545288294 0.03177515972500241 -0.001814131082055291 -0.010027211723086342 0.0021409822802210686 0.015982253669286916
 0.002110275323668904 0.01598669363076866 -0.001814131082055291 -0.010027211723086342 0.0069674158091121915 0.031773565772458975 0.991364862839021 -0.07593140761397983
 -0.001813060529155919 -0.010027274625687426 0.0021409822802210686 0.015982253669286916 0.991364862839021 -0.07593140761397983 0.006963588627705853 0.03177378761244573
0.1059090909091 0.007451805580554916 0.03378241733253884 0.9907229534943885 -0.0804989368298446 0.0023300357926058332 0.016920554490750125 -0.00200023598827401 -0.010614710915141634
 0.9907229534943885 -0.0804989368298446 0.007446053054021093 0.033782787180692386 -0.002001432346736292 -0.010614632910591745 0.0023644637992868843 0.016915450029501396
 0.0023300357926058332 0.016920554490750125 -0.002001432346736292 -0.010614632910591745 0.007451007515321352 0.03378109076174646 0.9907228801186878 -0.08050035524921172
 -0.00200023598827401 -0.010614710915141634 0.0023644637992868843 0.016915450029501396 0.9907228801186878 -0.08050035524921172 0.0074467171568935765 0.03378133238846751
0.1062942892872 0.00748432023044237 0.03391469167313507 0.990679814212724 -0.0807992999347803 0.0023448676440619037 0.016981813831456274 -0.0020128705728617753 -0.010653237312436477
 0.990679814212724 -0.0807992999347803 0.007478525708707958 0.03391506393046155 -0.0020140754230700544 -0.010653158254474911 0.002379547427013831 0.01697666353071322
 0.0023448676440619037 0.016981813831456274 -0.0020140754230700544 -0.010653158254474911 0.0074835163912223505 0.03391336074603717 0.9906797403077705 -0.08080072355901578
 -0.0020128705728617753 -0.010653237312436477 0.002379547427013831 0.01697666353071322 0.9906797403077705 -0.08080072355901578 0.0074791946855531834 0.03391360369655036
0.11254689453939999 0.0080253454957294 0.03606982666070708 0.9899623275358129 -0.08568187098015911 0.0025926180640049494 0.017975260294424884 -0.0022239554236615144 -0.011277852225145888
 0.9899623275358129 -0.08568187098015911 0.008018847677552857 0.03607023942501563 -0.0022253020961439398 -0.011277754964714903 0.0026315137708963726 0.017969326378861686
 0.0025926180640049494 0.017975260294424884 -0.0022253020961439398 -0.011277754964714903 0.008024445058189859 0.036068425735803294 0.9899622447527171 -0.08568337918289483
 -0.0022239554236615144 -0.011277852225145888 0.0026315137708963726 0.017969326378861686 0.9899622447527171 -0.08568337918289483 0.008019598283336121 0.036068690601681094
0.11879949979160001 0.008591564814833873 0.038239812114851196 0.9892121142325195 -0.09057744741657137 0.0028536021733037557 0.0189668074498709 -0.0024463936044294833 -0.01190089659641816
 0.9892121142325195 -0.09057744741657137 0.008584322867087978 0.03824026810731315 -0.0024478895568078823 -0.011900778985666318 0.002896956944603896 0.01896001273745062
 0.0028536021733037557 0.0189668074498709 -0.0024478895568078823 -0.011900778985666318 0.008590562378523809 0.0382383426037983 0.9892120220241343 -0.09057904036937033
 -0.0024463936044294833 -0.01190089659641816 0.002896956944603896 0.01896001273745062 0.9892120220241343 -0.09057904036937033 0.008585159843419485 0.038238630193693036
0.1250521050438 0.009183333890979644 0.040424226099234 0.98842882434031 -0.09548568245558421 0.0031278909357153957 0.01995622563833064 -0.002680258916246328 -0.012522144154130537
 0.98842882434031 -0.09548568245558421 0.009175306832989458 0.04042472816560618 -0.0026819115380931763 -0.012522003944692406 0.0031759478999410606 0.01994848900530166
 0.0031278909357153957 0.01995622563833064 -0.0026819115380931763 -0.012522003944692406 0.009182224073700703 0.04042268949498341 0.9884287221497701 -0.09548736034175573
 -0.002680258916246328 -0.012522144154130537 0.0031759478999410606 0.01994848900530166 0.9884287221497701 -0.09548736034175573 0.009176234928523073 0.04042300062572263
0.131304710296 0.009801003379020233 0.042622642302944554 0.9876121123290456 -0.10040621738034652 0.0034155505381931878 0.02094328124644072 -0.002925620295776154 -0.013141365160419388
 0.9876121123290456 -0.10040621738034652 0.009792150070909089 0.04262319341980201 -0.0029274369080158845 -0.013141200003680083 0.0034685527550324204 0.02093451759308466
 0.0034155505381931878 0.02094328124644072 -0.0029274369080158845 -0.013141200003680083 0.009799780818617173 0.04262104017996911 0.9876119995890665 -0.10040798039513488
 -0.002925620295776154 -0.013141365160419388 0.0034685527550324204 0.02093451759308466 0.9876119995890665 -0.10040798039513488 0.00979317404118687 0.04262137568160179
0.1375573155481 0.01031158801486427 0.044547330081829414 0.9868950377625557 -0.10505119774319224 0.003682612002528851 0.02189966608522659 -0.0031484538078464276 -0.013730328841939808
 0.9868950377625557 -0.10505119774319224 0.010301865068680149 0.0445479240070027 -0.0031504454221182206 -0.013730138310814096 0.0037406780268548685 0.021889880902657945
 0.003682612002528851 0.02189966608522659 -0.0031504454221182206 -0.013730138310814096 0.010310248059962442 0.044545663742141264 0.9868949139870362 -0.10505304597000845
 -0.0031484538078464276 -0.013730328841939808 0.0037406780268548685 0.021889880902657945 0.9868949139870362 -0.10505304597000845 0.010302988812230046 0.0445460155961116
0.1438099208003 0.01084035713335801 0.04646027768875628 0.9861522811812238 -0.10968280093872258 0.0039604054620594195 0.02285127368836048 -0.003380140216578388 -0.014314875018542643
 0.9861522811812238 -0.10968280093872258 0.010829722881418348 0.04646091702928564 -0.003382314719065079 -0.014314656775629283 0.004023755820146703 0.02284038847119799
 0.0039604054620594195 0.02285127368836048 -0.003382314719065079 -0.014314656775629283 0.010838894576081086 0.046458548732560175 0.986152145805373 -0.10968473456081991
 -0.003380140216578388 -0.014314875018542643 0.004023755820146703 0.02284038847119799 0.986152145805373 -0.10968473456081991 0.010830951010008326 0.04645891738027138
0.1500625260525 0.011387099640698286 0.04836127833472602 0.9853840589277651 -0.11430086419102856 0.00424881876823957 0.023797977565072462 -0.0036205695543589586 -0.014894883716739998
 0.9853840589277651 -0.11430086419102856 0.011375512259583933 0.048361965876109025 -0.003622934809614929 -0.014894635330119713 0.0043176724949715835 0.02378591091994413
 0.00424881876823957 0.023797977565072462 -0.003622934809614929 -0.014894635330119713 0.011385509300243046 0.04835948842461522 0.9853839113785685 -0.11430288339841534
 -0.0036205695543589586 -0.014894883716739998 0.0043176724949715835 0.02378591091994413 0.9853839113785685 -0.11430288339841534 0.011376849381733894 0.04835987439942971
0.15631513130469998 0.011951602637387246 0.05025013141521259 0.9845905887896846 -0.1189052263936717 0.0045477382697459105 0.024739653755513544 -0.0038696303332002983 -0.01547023782595425
 0.9845905887896846 -0.1189052263936717 0.011939020143676614 0.05025087012805122 -0.003872194183654262 -0.015469956769686065 0.004622312884331254 0.02472632143277019
