! Created with skrf 1.8.0 (http://scikit-rf.org).
# GHz S RI R 50.0 
!freq ReS11 ImS11 ReS12 ImS12 ReS13 ImS13
! ReS14 ImS14
! ReS21 ImS21 ReS22 ImS22 ReS23 ImS23
! ReS24 ImS24
! ReS31 ImS31 ReS32 ImS32 ReS33 ImS33
! ReS34 ImS34
! ReS41 ImS41 ReS42 ImS42 ReS43 ImS43
! ReS44 ImS44
!
0.0 0.001136410625368 0.0 0.9988635893349 0.0 4.278064082404e-05 0.0 -4.278064002538e-05 5.239117387255676e-21
 0.9988635893349 0.0 0.001136410625327 0.0 -4.278064002456e-05 5.239117387155255e-21 4.278064082459e-05 0.0
 4.278064082404e-05 0.0 -4.278064002456e-05 5.239117387155255e-21 0.001136410636704 0.0 0.9988635893463 0.0
 -4.278064002538e-05 5.239117387255676e-21 4.278064082459e-05 0.0 0.9988635893463 0.0 0.001136410636709 0.0
0.005 0.0012217122874456118 0.000937046987414847 0.9987558300482232 -0.0023812905980121566 5.840596396195813e-05 0.00043038823828587955 -5.706406825153479e-05 -0.00027744081261730217
 0.9987558300482232 -0.0023812905980121566 0.0012217163239647123 0.000937044597400816 -5.706555397495837e-05 -0.0002774418879130327 5.838595975546065e-05 0.0004303959439115302
 5.840596396195813e-05 0.00043038823828587955 -5.706555397495837e-05 -0.0002774418879130327 0.0012217122145158942 0.0009371142375240014 0.9987558303766113 -0.002381223537326982
 -5.706406825153479e-05 -0.00027744081261730217 5.838595975546065e-05 0.0004303959439115302 0.9987558303766113 -0.002381223537326982 0.0012217170526386651 0.0009371114684485754
0.006252605252188 0.0012438244284652252 0.0011749999651627157 0.9987277651684624 -0.0029772325484255387 6.272681271732682e-05 0.0005382284802252499 -6.097764709844335e-05 -0.00034716418968102643
 0.9987277651684624 -0.0029772325484255387 0.0012438307383706153 0.0011749968890156423 -6.097995959011127e-05 -0.000347165514887829 6.269555849944112e-05 0.000538238456535184
 6.272681271732682e-05 0.0005382284802252499 -6.097995959011127e-05 -0.000347165514887829 0.0012438242280013753 0.0011750840208043952 0.9987277655948432 -0.0029771487237410005
 -6.097764709844335e-05 -0.00034716418968102643 6.269555849944112e-05 0.000538238456535184 0.9987277655948432 -0.0029771487237410005 0.0012438317901180343 0.001175080482081529
0.01250521050438 0.0013587140093058573 0.0023747475456488906 0.9985812000323441 -0.0059554381458629515 8.674984867798976e-05 0.0010770050248962377 -8.254289656784569e-05 -0.0006961232352431303
 0.9985812000323441 -0.0059554381458629515 0.0013587392093418387 0.0023747404976736533 -8.25520173437282e-05 -0.0006961256817633346 8.662523812114234e-05 0.001077028639214263
 8.674984867798976e-05 0.0010770050248962377 -8.25520173437282e-05 -0.0006961256817633346 0.0013587126661773127 0.0023749153412376714 0.9985812011860407 -0.005955270754090088
 -8.254289656784569e-05 -0.0006961232352431303 8.662523812114234e-05 0.001077028639214263 0.9985812011860407 -0.005955270754090088 0.0013587428529160442 0.002374907477517798
0.01875781575657 0.0014812749079560659 0.003591818395456925 0.9984237515522503 -0.008941910101596725 0.00011489768335649592 0.0016166738173291903 -0.00010753053725145937 -0.0010464604582445072
 0.9984237515522503 -0.008941910101596725 0.001481331545709534 0.003591806425467825 -0.00010755088829452353 -0.0010464637906938135 0.00011461781337341058 0.0016167153197703976
 0.00011489768335649592 0.0016166738173291903 -0.00010755088829452353 -0.0010464637906938135 0.0014812714823487986 0.0035920697852419303 0.9984237537239101 -0.008941659232059055
 -0.00010753053725145937 -0.0010464604582445072 0.00011461781337341058 0.0016167153197703976 0.9984237537239101 -0.008941659232059055 0.0014813392974094915 0.003592056745284629
0.02501042100875 0.0016116995529642888 0.004824577312896263 0.9982552733375287 -0.01193814829968309 0.00014721879103493768 0.002157277353515691 -0.00013599383632692974 -0.0013980587161895547
 0.9982552733375287 -0.01193814829968309 0.0016118001571209075 0.004824559418060398 -0.0001360297914814497 -0.0013980626632902153 0.00014672175770168828 0.0021573415486802598
 0.00014721879103493768 0.002157277353515691 -0.0001360297914814497 -0.0013980626632902153 0.001611693117925432 0.004824912175059767 0.9982552768210108 -0.011937814018368678
 -0.00013599383632692974 -0.0013980587161895547 0.00014672175770168828 0.0021573415486802598 0.9982552768210108 -0.011937814018368678 0.0016118135252573107 0.004824893046469944
0.03126302626094 0.001750171960086903 0.006072209978237837 0.9980756097495385 -0.014944827435871753 0.00018376218944761997 0.0026988144029768397 -0.00016798507254774068 -0.0017508424178796162
 0.9980756097495385 -0.014944827435871753 0.00175032904536373 0.00607218510302371 -0.00016804096617919787 -0.0017508466718169384 0.00018298602268726477 0.0026989066511771353
 0.00018376218944761997 0.0026988144029768397 -0.00016804096617919787 -0.0017508466718169384 0.0017501615971607168 0.006072628213455593 0.9980756148381513 -0.014944409786619003
 -0.00016798507254774068 -0.0017508424178796162 0.00018298602268726477 0.0026989066511771353 0.9980756148381513 -0.014944409786619003 0.0017503495277541097 0.006072602022947974
0.037515631513130004 0.0018968723173118445 0.007334206073513901 0.997884600553327 -0.01796231385816469 0.0002245770463773274 0.003241266789654908 -0.00020355587188046551 -0.0021047507304494104
 0.997884600553327 -0.01796231385816469 0.0018970983873304041 0.007334173109482698 -0.00020363600335659437 -0.0021047549466115946 0.00022345967752762254 0.0032413930118124715
 0.0002245770463773274 0.003241266789654908 -0.00020363600335659437 -0.0021047549466115946 0.0018968571146357079 0.0073347075899411265 0.9978846075389208 -0.017961812877471287
 -0.00020355587188046551 -0.0021047507304494104 0.00022345967752762254 0.0032413930118124715 0.9978846075389208 -0.017961812877471287 0.0018971274702575891 0.007334673303383897
0.043768236765320004 0.0020519787607655438 0.008610201937653281 0.9976820827615205 -0.02099082286728108 0.0002697124947181838 0.003784607542230827 -0.00024275734244369487 -0.0024597294170440476
 0.9976820827615205 -0.02099082286728108 0.002052286310293958 0.00861015972326033 -0.00024286597881127922 -0.002459733213867547 0.00026819173799110197 0.003784774225946873
 0.0002697124947181838 0.003784607542230827 -0.00024286597881127922 -0.002459733213867547 0.002051957816107256 0.008610786650643812 0.9976820919376311 -0.020990238584466178
 -0.00024275734244369487 -0.0024597294170440476 0.00026819173799110197 0.003784774225946873 0.9976820919376311 -0.020990238584466178 0.002052325472175287 0.008610743172913174
0.050020842017509996 0.002215668215437076 0.009899915583161965 0.9974678915431003 -0.024030483653913637 0.0003192175259473556 0.004328804247234761 -0.0002856401328910473 -0.002815727471910969
 0.9974678915431003 -0.024030483653913637 0.0022160697315531854 0.009899862903606747 -0.0002857815106188571 -0.002815730430779604 0.0003172310677652027 0.0043290184533087955
 0.0003192175259473556 0.004328804247234761 -0.0002857815106188571 -0.002815730430779604 0.002215640632539706 0.009900583413292943 0.997467903201729 -0.024029816092959122
 -0.0002856401328910473 -0.002815727471910969 0.0003172310677652027 0.0043290184533087955 0.997467903201729 -0.024029816092959122 0.0022161204398932384 0.009900529588139279
0.055454545454549996 0.002365026590378636 0.011031675074840142 0.9972721436092198 -0.026681156813054687 0.00036582542612346476 0.004802394764968332 -0.0003259352659960018 -0.003125890009951862
 0.9972721436092198 -0.026681156813054687 0.002365519902389001 0.011031612272638498 -0.0003261085146005384 -0.0031258918718030195 0.0003633835485398078 0.004802656453912105
 0.00036582542612346476 0.004802394764968332 -0.0003261085146005384 -0.0031258918718030195 0.002364992516756551 0.01103241507183778 0.9972721576628223 -0.026680416900198425
 -0.0003259352659960018 -0.003125890009951862 0.0003633835485398078 0.004802656453912105 0.9972721576628223 -0.026680416900198425 0.002365581830214673 0.011032351267787139
0.056273447269699996 0.0023881168342848856 0.011203114773662008 0.9972418607329363 -0.027081371174355388 0.00037314092179785744 0.004873820692876369 -0.00033225445372563213 -0.0031726954651942084
 0.9972418607329363 -0.027081371174355388 0.002388624797712121 0.01120305036065781 -0.00033243277985114164 -0.003172697130353491 0.0003706263138954818 0.004874090062084695
 0.00037314092179785744 0.004873820692876369 -0.00033243277985114164 -0.003172697130353491 0.002388081724383771 0.01120386564229273 0.9972418751664228 -0.027080620358336204
 -0.00033225445372563213 -0.0031726954651942084 0.0003706263138954818 0.004874090062084695 0.9972418751664228 -0.027080620358336204 0.0023886885113481105 0.011203800252109158
0.06252605252188 0.0025695002515784948 0.012519599486995861 0.9970038231564315 -0.030143523640892872 0.00043153119909162033 0.0054196177734866504 -0.00038265008465348854 -0.003530584627711919
 0.9970038231564315 -0.030143523640892872 0.002570127137843937 0.012519522018482042 -0.0003828695376871249 -0.0035305845061861262 0.00042842585507754536 0.005419950533515819
 0.00043153119909162033 0.0054196177734866504 -0.0003828695376871249 -0.0035305845061861262 0.002569456733611236 0.012520433321746705 0.997003840657859 -0.03014268958624951
 -0.00038265008465348854 -0.003530584627711919 0.00042842585507754536 0.005419950533515819 0.997003840657859 -0.03014268958624951 0.0025702053069039193 0.012520355087382072
0.06877865777407 0.00275999373266539 0.013849191456400022 0.9967536108526357 -0.03321695293409828 0.0004944365689420904 0.005966154017815476 -0.0004368763676950616 -0.003889346312575604
 0.9967536108526357 -0.03321695293409828 0.002760752012985667 0.013849099556393437 -0.0004371410981936293 -0.003889343874114549 0.0004906777626240066 0.005966558990310137
 0.0004944365689420904 0.005966154017815476 -0.0004371410981936293 -0.003889343874114549 0.002759940931998743 0.013850108189913326 0.9967536317147828 -0.0332160356519742
 -0.0004368763676950616 -0.003889346312575604 0.0004906777626240066 0.005966558990310137 0.9967536317147828 -0.0332160356519742 0.002760846078073578 0.013850015770412458
0.07503126302626001 0.0029597722605801593 0.015191727540129167 0.9964910552352109 -0.036301651187600564 0.0005619048958942546 0.006513385938543809 -0.0004949821999153186 -0.00424893163644266
 0.9964910552352109 -0.036301651187600564 0.0029606744025160382 0.015191619778409991 -0.0004952963308567298 -0.004248926313451643 0.0005574297605936542 0.00651387254617437
 0.0005619048958942546 0.006513385938543809 -0.0004952963308567298 -0.004248926313451643 0.0029597093096215416 0.015192727104555364 0.9964910797512393 -0.0363006506891093
 -0.0004949821999153186 -0.00424893163644266 0.0005574297605936542 0.00651387254617437 0.9964910797512393 -0.0363006506891093 0.0029607857958812538 0.01519261909691958
0.08128386827845 0.003169010588360393 0.016547055301497752 0.9962159872208419 -0.039397595162942826 0.0006339836656098004 0.007061268238185299 -0.0005570160161910147 -0.004609291265215608
 0.9962159872208419 -0.039397595162942826 0.003170069056968893 0.01654693019336895 -0.0005573836433125722 -0.004609282452700875 0.0006287291956387527 0.007061846511768893
 0.0006339836656098004 0.007061268238185299 -0.0005573836433125722 -0.004609282452700875 0.003168936625880609 0.016548137630978812 0.9962160156842019 -0.03939651145673354
 -0.0005570160161910147 -0.004609291265215608 0.0006287291956387527 0.007061846511768893 0.9962160156842019 -0.03939651145673354 0.0031701992017056273 0.01654801256985533
0.08753647353064001 0.0033878832635445303 0.017915029964552378 0.9959282373312043 -0.04250474924979373 0.000710719951573535 0.007609753976624068 -0.0006230257734795567 -0.004970375239029771
 0.9959282373312043 -0.04250474924979373 0.003389110521851579 0.017914885970554795 -0.0006234509654223776 -0.0049703622945552715 0.0007046230035107558 0.007610434562242377
 0.000710719951573535 0.007609753976624068 -0.0006234509654223776 -0.0049703622945552715 0.003387797434958832 0.017916194993104824 0.9959282700357915 -0.04250358234397975
 -0.0006230257734795567 -0.004970375239029771 0.0007046230035107558 0.007610434562242377 0.9959282700357915 -0.04250358234397975 0.003389260832747988 0.017916051350503254
0.09378907878283 0.0036165646382047916 0.019295512221225428 0.9956276357819646 -0.04562306761549807 0.0007921603845207509 0.008158794670220992 -0.0006930589307440212 -0.005332132866642427
 0.9956276357819646 -0.04562306761549807 0.003617973147996113 0.019295347746876506 -0.0006935457291932165 -0.005332115110273653 0.0007851576798674906 0.008159588836377593
 0.0007921603845207509 0.008158794670220992 -0.0006935457291932165 -0.005332115110273653 0.003616466095263218 0.019296759888417184 0.995627673022291 -0.04562181751203059
 -0.0006930589307440212 -0.005332132866642427 0.0007851576798674906 0.008159588836377593 0.995627673022291 -0.04562181751203059 0.003618145031146012 0.019296596073392732
0.100041684035 0.003855228865546393 0.020688366634380083 0.9953140125601605 -0.04875249575992025 0.0008783511229175075 0.008708340374072972 -0.000767162427817711 -0.005694512637694151
 0.9953140125601605 -0.04875249575992025 0.0038568310882570477 0.020688180029787735 -0.0007677148475455454 -0.005694489351959293 0.0008703792508648659 0.00870926001882857
 0.0008783511229175075 0.008708340374072972 -0.0007677148475455454 -0.005694489351959293 0.0038551167662934397 0.020689696879771218 0.9953140546310735 -0.04875116245998296
 -0.000767162427817711 -0.005694512637694151 0.0008703792508648659 0.00870926001882857 0.9953140546310735 -0.04875116245998296 0.0038570259412665036 0.020689511238086895
0.1059090909091 0.0040884241737186066 0.02200654680666189 0.9950077157776807 -0.051699181242316566 0.0009635930159292829 0.009224444312452848 -0.0008404439684544825 -0.006035086790024004
 0.9950077157776807 -0.051699181242316566 0.00409021950907926 0.02200633788504769 -0.0008410615941934339 -0.006035057629562911 0.0009546538971572446 0.009225493093757631
 0.0009635930159292829 0.009224444312452848 -0.0008410615941934339 -0.006035057629562911 0.0040882985927906245 0.022007954487369523 0.9950077626505068 -0.05169776987232124
 -0.0008404439684544825 -0.006035086790024004 0.0009546538971572446 0.009225493093757631 0.9950077626505068 -0.05169776987232124 0.0040904371802793745 0.022007746802422727
0.1062942892872 0.00410404988838708 0.022093460430478946 0.9949871974940374 -0.051892971681605976 0.0009693378226482821 0.009258339743172186 -0.0008453826638897474 -0.006057462157108583
 0.9949871974940374 -0.051892971681605976 0.004105858285520595 0.02209324999010018 -0.0008460046927419661 -0.006057432586962331 0.0009603332438155915 0.009259397401248452
 0.0009693378226482821 0.009258339743172186 -0.0008460046927419661 -0.006057432586962331 0.004103923396758317 0.02209487319327006 0.9949872446911144 -0.051891555185972646
 -0.0008453826638897474 -0.006057462157108583 0.0009603332438155915 0.009259397401248452 0.9949872446911144 -0.051891555185972646 0.004106077497330548 0.022094664007001507
0.11254689453939999 0.004363201420135543 0.023510662569746526 0.9946470203182539 -0.05504442676777648 0.0010651656089361956 0.009808740071941258 -0.0009277654735117916 -0.006420928102210199
 0.9946470203182539 -0.05504442676777648 0.004365228454267134 0.02351042653193779 -0.0009284610723631126 -0.006420891455001566 0.0010550646592402825 0.009809948921844957
 0.0010651656089361956 0.009808740071941258 -0.0009284610723631126 -0.006420891455001566 0.004363059706149503 0.023512157792196335 0.9946470729378075 -0.0550429270732872
 -0.0009277654735117916 -0.006420928102210199 0.0010550646592402825 0.009809948921844957 0.9946470729378075 -0.0550429270732872 0.004365473405536722 0.02351192327936731
0.11879949979160001 0.00463285692173532 0.024939843028043425 0.9942933107349906 -0.058206786473667484 0.0011658790469724367 0.01035948733591157 -0.0010143561031106326 -0.0067848561788193375
 0.9942933107349906 -0.058206786473667484 0.004635115057060203 0.024939579574754102 -0.0010151292057768494 -0.006784811624264149 0.001154617941874158 0.010360861207007046
 0.0011658790469724367 0.01035948733591157 -0.0010151292057768494 -0.006784811624264149 0.004632699161187994 0.024941420652862204 0.9942933690740697 -0.058205203575799364
 -0.0010143561031106326 -0.0067848561788193375 0.001154617941874158 0.010360861207007046 0.9942933690740697 -0.058205203575799364 0.004635387120078894 0.024941158967024205
0.1250521050438 0.004913189573293972 0.02638087222169218 0.9939258984721842 -0.06137997086031753 0.0012715221136216284 0.010910526212999854 -0.001105199185751002 -0.007149191098919687
 0.9939258984721842 -0.06137997086031753 0.004915691276260069 0.026380579478071268 -0.0011060536989002142 -0.007149137769074877 0.0012590369527877784 0.01091207959258188
 0.0012715221136216284 0.010910526212999854 -0.0011060536989002142 -0.007149137769074877 0.004913014947773901 0.02638253219263647 0.993925962828637 -0.06137830475250281
 -0.001105199185751002 -0.007149191098919687 0.0012590369527877784 0.01091207959258188 0.993925962828637 -0.06137830475250281 0.004915991814851291 0.026382241422493825
0.131304710296 0.005204372243354039 0.027833620543500803 0.993544613340648 -0.06456389502246844 0.0013821381683828552 0.011461800111903123 -0.0012003387160685135 -0.007513876552403763
 0.993544613340648 -0.06456389502246844 0.005207129983448245 0.02783329657745687 -0.0012012785190548673 -0.007513813541653528 0.001368364940771018 0.01146354815217453
 0.0013821381683828552 0.011461800111903123 -0.0012012785190548673 -0.007513813541653528 0.005204179939869467 0.027835362805659833 0.9935446840130693 -0.06456214569578897
 -0.0012003387160685135 -0.007513876552403763 0.001368364940771018 0.01146354815217453 0.9935446840130693 -0.06456214569578897 0.005207460353040665 0.027835040974535215
0.1375573155481 0.005431120124584229 0.029109528016047014 0.9932247595072401 -0.06756999728914409 0.0014815283500961328 0.011994165959495033 -0.001283590739093375 -0.007859763863290323
 0.9932247595072401 -0.06756999728914409 0.005434146190822748 0.029109179535067385 -0.0012846213018268262 -0.007859691295811332 0.0014664312664921441 0.011996103301597725
 0.0014815283500961328 0.011994165959495033 -0.0012846213018268262 -0.007859691295811332 0.005430908540048156 0.029111353020117706 0.9932248367794079 -0.06756816476282951
 -0.001283590739093375 -0.007859763863290323 0.0014664312664921441 0.011996103301597725 0.9932248367794079 -0.06756816476282951 0.005434508566166294 0.02911100582991985
0.1438099208003 0.0056655346782612526 0.03038012203425513 0.9928942245416261 -0.07056987124529188 0.0015849125124269318 0.012525070160410564 -0.0013701641122116335 -0.008204306140878134
 0.9928942245416261 -0.07056987124529188 0.00566884148758279 0.03037974777920162 -0.0013712895617065172 -0.008204223150622813 0.0015684325262167798 0.012527210422896918
 0.0015849125124269318 0.012525070160410564 -0.0013712895617065172 -0.008204223150622813 0.00566530286500633 0.030382029780772424 0.9928943087102325 -0.07056795551480813
 -0.0013701641122116335 -0.008204306140878134 0.0015684325262167798 0.012527210422896918 0.9928943087102325 -0.07056795551480813 0.0056692373611315315 0.030381655820940316
0.1500625260525 0.005907549407045869 0.031645337599930226 0.9925530774164194 -0.07356348379036082 0.0016922631438726135 0.013054482250335656 -0.0014600320988850716 -0.008547473852968368
 0.9925530774164194 -0.07356348379036082 0.00591114937299775 0.031644936254821995 -0.0014612565553262715 -0.008547379539669052 0.0016743414325380136 0.013056839547388744
 0.0016922631438726135 0.013054482250335656 -0.0014612565553262715 -0.008547379539669052 0.005907296413247732 0.03164732809076541 0.9925531687785754 -0.07356148485125161
 -0.0014600320988850716 -0.008547473852968368 0.0016743414325380136 0.013056839547388744 0.9925531687785754 -0.07356148485125161 0.005911580238948702 0.031646925885003466
0.15631513130469998 0.0061570975248163165 0.032905111942188994 0.9922013872500557 -0.07655080120487281 0.0018035525103934729 0.013582372155367997 -0.0015531677290514065 -0.00888923800514911
