! Created with skrf 1.8.0 (http://scikit-rf.org).
# GHz S RI R 50.0 
!freq ReS11 ImS11 ReS12 ImS12 ReS13 ImS13
! ReS14 ImS14
! ReS21 ImS21 ReS22 ImS22 ReS23 ImS23
! ReS24 ImS24
! ReS31 ImS31 ReS32 ImS32 ReS33 ImS33
! ReS34 ImS34
! ReS41 ImS41 ReS42 ImS42 ReS43 ImS43
! ReS44 ImS44
!
0.0 0.001523814787982 0.0 0.998476185212 0.0 5.852295174888e-05 0.0 -5.852295121615e-05 7.16699448835148e-21
 0.998476185212 0.0 0.001523814788018 0.0 -5.852295121755e-05 7.16699448852293e-21 5.852295175064e-05 0.0
 5.852295174888e-05 0.0 -5.852295121755e-05 7.16699448852293e-21 0.001523814779494 0.0 0.9984761852035 0.0
 -5.852295121615e-05 7.16699448835148e-21 5.852295175064e-05 0.0 0.9984761852035 0.0 0.001523814779461 0.0
0.005 0.0016394035813567407 0.0012508074013048963 0.9983299943765391 -0.0031917866396493633 8.124405780722207e-05 0.0006200063067100717 -7.913887805807959e-05 -0.00039349814894221034
 0.9983299943765391 -0.0031917866396493633 0.0016393900646350928 0.0012508152515354797 -7.913789682690431e-05 -0.00039349734900952015 8.13319015465707e-05 0.0006199728745759185
 8.124405780722207e-05 0.0006200063067100717 -7.913789682690431e-05 -0.00039349734900952015 0.0016394039738351586 0.0012507398628124884 0.9983299940177506 -0.0031918536953771063
 -7.913887805807959e-05 -0.00039349814894221034 8.13319015465707e-05 0.0006199728745759185 0.9983299940177506 -0.0031918536953771063 0.0016393889560761146 0.0012507486785781456
0.006252605252188 0.0016697031415874362 0.0015684126881647504 0.9982914413273583 -0.003990514903306541 8.769833596672219e-05 0.0007753225302002515 -8.494448991419995e-05 -0.0004923767052359897
 0.9982914413273583 -0.003990514903306541 0.0016696820128924426 0.0015684226635370574 -8.494296339798515e-05 -0.0004923757179235078 8.78355839877677e-05 0.0007752791200125098
 8.769833596672219e-05 0.0007753225302002515 -8.494296339798515e-05 -0.0004923757179235078 0.0016697038321304965 0.001568328260441191 0.9982914408431004 -0.003990598722199777
 -8.494448991419995e-05 -0.0004923767052359897 8.78355839877677e-05 0.0007752791200125098 0.9982914408431004 -0.003990598722199777 0.0016696803561939023 0.0015683394538560831
0.01250521050438 0.0018291137311025993 0.003169551964756391 0.9980873227425184 -0.007981828356552572 0.00012451813203107664 0.001551100373591381 -0.00011780397566184089 -0.0009871277487940016
 0.9980873227425184 -0.007981828356552572 0.0018290293713593999 0.0031695735545567063 -0.00011779796414861328 -0.0009871259118508077 0.00012506545617495883 0.0015509960901509152
 0.00012451813203107664 0.001551100373591381 -0.00011779796414861328 -0.0009871259118508077 0.0018291170685451365 0.0031693833010818704 0.9980873213814956 -0.007981995742727734
 -0.00011780397566184089 -0.0009871277487940016 0.00012506545617495883 0.0015509960901509152 0.9980873213814956 -0.007981995742727734 0.001829023322427497 0.0031694074531869215
0.01875781575657 0.0020023909689499356 0.004793396705408792 0.9978635780663975 -0.011983653382194079 0.00016906899693899327 0.002327828260048486 -0.00015720106764410916 -0.0014835770657298678
 0.9978635780663975 -0.011983653382194079 0.002002201423376572 0.004793431665250529 -0.00015718766774627693 -0.0014835745417878723 0.00017029852504652597 0.002327642254390494
 0.00016906899693899327 0.002327828260048486 -0.00015718766774627693 -0.0014835745417878723 0.0020023989054099435 0.004793143820855371 0.9978635754307495 -0.011983904241193945
 -0.00015720106764410916 -0.0014835770657298678 0.00017029852504652597 0.002327642254390494 0.9978635754307495 -0.011983904241193945 0.002002188241426016 0.004793182859744687
0.02501042100875 0.0021898693209183384 0.006437686847701703 0.997619946041314 -0.015997931739043993 0.00022143806076936433 0.0031055352558790475 -0.00020323242947454184 -0.0019815087871384728
 0.997619946041314 -0.015997931739043993 0.002189532727633497 0.006437737035423374 -0.00020320877442509542 -0.0019815057668662777 0.00022362203583296264 0.003105243411739798
 0.00022143806076936433 0.0031055352558790475 -0.00020320877442509542 -0.0019815057668662777 0.0021898838154589587 0.006437349714670044 0.9976199417356405 -0.01599826600071335
 -0.00020323242947454184 -0.0019815087871384728 0.00022362203583296264 0.003105243411739798 0.9976199417356405 -0.01599826600071335 0.002189509672222791 0.006437405714860384
0.03126302626094 0.002391869447407665 0.008101260882554305 0.9973561519405835 -0.02002549639287708 0.0002817126588936067 0.003884182082251008 -0.0002559921269793246 -0.0024807700059237122
 0.9973561519405835 -0.02002549639287708 0.002391344014626749 0.008101328254765372 -0.0002559553803738675 -0.0024807667083310316 0.0002851236900122505 0.0038837569974612186
 0.0002817126588936067 0.003884182082251008 -0.0002559553803738675 -0.0024807667083310316 0.002391892463946083 0.008100839429757525 0.997356145569698 -0.020025914012229355
 -0.0002559921269793246 -0.0024807700059237122 0.0002851236900122505 0.0038837569974612186 0.997356145569698 -0.020025914012229355 0.0023913083422361947 0.008100914609366336
0.037515631513130004 0.0026087051338708625 0.009783362637513088 0.9970719147170084 -0.024066764669855252 0.0003499796175338544 0.004663702382873571 -0.00031557226645513787 -0.0029812295181450683
 0.9970719147170084 -0.024066764669855252 0.0026079491242480594 0.009783449248100498 -0.00031551961900599674 -0.002981226190679058 0.0003548907914989955 0.004663113336821833
 0.0003499796175338544 0.004663702382873571 -0.00031551961900599674 -0.002981226190679058 0.002608738643468526 0.00978285677638706 0.9970719058873445 -0.024067265600659072
 -0.00031557226645513787 -0.0029812295181450683 0.0003548907914989955 0.004663113336821833 0.9970719058873445 -0.024067265600659072 0.0026078980902180153 0.009782953495910511
0.043768236765320004 0.0028406859623069896 0.011483430352158704 0.9967669498904407 -0.028121949109801578 0.00042632491131795047 0.00544401527878467 -0.00038206322060577044 -0.003482765270980469
 0.9967669498904407 -0.028121949109801578 0.0028396576808666306 0.011483538350993612 -0.00038199188824582713 -0.003482762189517915 0.00043300984435708944 0.0054432281955617825
 0.00042632491131795047 0.00544401527878467 -0.00038199188824582713 -0.003482762189517915 0.0028407319411910973 0.011482839958506356 0.9967669382081844 -0.028122533322710405
 -0.00038206322060577044 -0.003482765270980469 0.00043300984435708944 0.0054432281955617825 0.9967669382081844 -0.028122533322710405 0.0028395885369881606 0.01148296072030192
0.050020842017509996 0.003088118553363344 0.01320100946901651 0.9964409710080995 -0.03219114460188635 0.0005108334530434398 0.006225030552121257 -0.0004555537067799727 -0.003985259181870194
 0.9964409710080995 -0.03219114460188635 0.003086776336875435 0.013201141101295309 -0.00045546092936632167 -0.003985256650696727 0.0005195663109202907 0.006224007961843706
 0.0005108334530434398 0.006225030552121257 -0.00045546092936632167 -0.003985256650696727 0.003088178983893184 0.013200334396249923 0.9964409560799956 -0.03219181207102236
 -0.0004555537067799727 -0.003985259181870194 0.0005195663109202907 0.006224007961843706 0.9964409560799956 -0.03219181207102236 0.003086686332675803 0.013200481844380654
0.055454545454549996 0.0033159300805241155 0.01470755502335447 0.9961403961795589 -0.035738794373373385 0.0005909685281626139 0.00690425170002792 -0.0005251713109670644 -0.004422629156967356
 0.9961403961795589 -0.035738794373373385 0.003314281226563473 0.014707709090839608 -0.0005250576734987951 -0.004422627373160538 0.0006017041787637108 0.006902991351305438
 0.0005909685281626139 0.00690425170002792 -0.0005250576734987951 -0.004422627373160538 0.0033160046832180125 0.014706806229734432 0.9961403781103819 -0.0357395341719293
 -0.0005251713109670644 -0.004422629156967356 0.0006017041787637108 0.006902991351305438 0.9961403781103819 -0.0357395341719293 0.003314170857428638 0.014706979126701242
0.056273447269699996 0.0033513072065840667 0.014935709851647697 0.9960936905060062 -0.03627437109419899 0.0006035889399002807 0.007006651184752567 -0.000536130800636307 -0.004488594604896345
 0.9960936905060062 -0.03627437109419899 0.0033496094137274958 0.014935867457387553 -0.0005360138410771284 -0.004488592956664211 0.0006146444391183501 0.007005352184192005
 0.0006035889399002807 0.007006651184752567 -0.0005360138410771284 -0.004488592956664211 0.0033513840755270813 0.014934949935704609 0.9960936719377494 -0.03627512179206512
 -0.000536130800636307 -0.004488594604896345 0.0006146444391183501 0.007005352184192005 0.9960936719377494 -0.03627512179206512 0.0033494957950484495 0.014935126856246919
0.06252605252188 0.0036305542408770395 0.01668718225656389 0.9957248202752587 -0.04037159705204425 0.0007046737282276088 0.007788774766732883 -0.0006238799165941693 -0.004992654930404909
 0.9957248202752587 -0.04037159705204425 0.003628459243132482 0.01668736827051717 -0.0006237360602557321 -0.004992654526094874 0.0007183271242708765 0.007787154979681208
 0.0007046737282276088 0.007788774766732883 -0.0006237360602557321 -0.004992654526094874 0.003630649541286363 0.016686337305650313 0.995724797673086 -0.04037243095955766
 -0.0006238799165941693 -0.004992654930404909 0.0007183271242708765 0.007787154979681208 0.995724797673086 -0.04037243095955766 0.0036283192541605447 0.01668654662719981
0.06877865777407 0.00392616017719626 0.018455104311395507 0.9953340720726198 -0.04448275341334914 0.0008141687246284193 0.008571294326541086 -0.0007188847680011402 -0.005497322766371544
 0.9953340720726198 -0.04448275341334914 0.003923626350191834 0.01845532126308231 -0.0007187113222644065 -0.005497323995242171 0.0008306957917875974 0.00856930586421931
 0.0008141687246284193 0.008571294326541086 -0.0007187113222644065 -0.005497323995242171 0.003926275906396753 0.018454174114104473 0.9953340450417247 -0.044483670511469287
 -0.0007188847680011402 -0.005497322766371544 0.0008306957917875974 0.00856930586421931 0.9953340450417247 -0.044483670511469287 0.003923457231794 0.018454418908527483
0.07503126302626001 0.004238423822828648 0.020239171610357754 0.9949211578368495 -0.04860774243050652 0.0009321532868426448 0.009354098863843384 -0.0008212273156288098 -0.006002479421130458
 0.9949211578368495 -0.04860774243050652 0.004235409537041651 0.020239422124574333 -0.0008210216095592404 -0.006002482700671685 0.0009518302902495522 0.009351690285483895
 0.0009321532868426448 0.009354098863843384 -0.0008210216095592404 -0.006002482700671685 0.00423856198393686 0.020238155932395148 0.9949211259828112 -0.04860874270339862
 -0.0008212273156288098 -0.006002479421130458 0.0009518302902495522 0.009351690285483895 0.9949211259828112 -0.04860874270339862 0.004235208528947211 0.020238439416003232
0.08128386827845 0.004567642297400226 0.022039091809234607 0.9944857899513132 -0.05274644351734256 0.0010587051283920445 0.01013707371433406 -0.0009309877088301047 -0.006508004558105545
 0.9944857899513132 -0.05274644351734256 0.004564105910043838 0.022039378606692233 -0.0009307470929471541 -0.006508010333991429 0.001081808792337335 0.010134189988094136
 0.0010587051283920445 0.01013707371433406 -0.0009307470929471541 -0.006508010333991429 0.004567804897357112 0.022037990393681667 0.9944857528783579 -0.05274752695185207
 -0.0009309877088301047 -0.006508004558105545 0.001081808792337335 0.010134189988094136 0.9944857528783579 -0.05274752695185207 0.004563870249404263 0.022038315928504915
0.08753647353064001 0.004914111016860227 0.02385458052506137 0.9940276814668563 -0.056898717295943715 0.0011939002290557172 0.010920100795453724 -0.0010482442204829841 -0.007013775973975911
 0.9940276814668563 -0.056898717295943715 0.004910010863018678 0.023854906423352768 -0.0010479660666200964 -0.007013784720009 0.0012207076995426976 0.010916683259748755
 0.0011939002290557172 0.010920100795453724 -0.0010479660666200964 -0.007013784720009 0.004914300067768706 0.023853393091369367 0.9940276387791623 -0.05689988388230594
 -0.0010482442204829841 -0.007013775973975911 0.0012207076995426976 0.010916683259748755 0.9940276387791623 -0.05689988388230594 0.004909737786107426 0.02385376418688371
0.09378907878283 0.00527812365289932 0.025685358418000827 0.9935465463038178 -0.061064408466138274 0.001337812745744558 0.01170305879827015 -0.0011730731786468794 -0.00751966943510888
 0.9935465463038178 -0.061064408466138274 0.005273418036950286 0.02568572633293899 -0.0011727548798346388 -0.007519681653170725 0.0013686015505304217 0.011699045123640275
 0.001337812745744558 0.01170305879827015 -0.0011727548798346388 -0.007519681653170725 0.005278341170705758 0.025684084664126586 0.993546497604485 -0.0610656581958048
 -0.0011730731786468794 -0.00751966943510888 0.0013686015505304217 0.011699045123640275 0.993546497604485 -0.0610656581958048 0.005273104778589241 0.02568450497913023
0.100041684035 0.005659972069317286 0.02753114904767437 0.993042099435212 -0.06524334790606309 0.0014905149259625684 0.012485823324542083 -0.0013055488948854911 -0.00802555857344886
 0.993042099435212 -0.06524334790606309 0.005654619256328196 0.027531561994797785 -0.0013051878653161026 -0.008025574793435734 0.0015255629311776051 0.01248114747601049
 0.0014905149259625684 0.012485823324542083 -0.0013051878653161026 -0.008025574793435734 0.00566022007412374 0.027529788649395696 0.9930420443264134 -0.06524468077200417
 -0.0013055488948854911 -0.00802555857344886 0.0015255629311776051 0.01248114747601049 0.9930420443264134 -0.06524468077200417 0.0056542630506624435 0.027530261994328856
0.1059090909091 0.006034776091336696 0.02927663658889452 0.9925472749886783 -0.06917672708582437 0.0016418664347990694 0.013220075423039742 -0.0014368823081626356 -0.008500163432798469
 0.9925472749886783 -0.06917672708582437 0.00602877795254053 0.029277094627086653 -0.0014364788473367005 -0.00850018391501968 0.0016811642249466867 0.013214714803173686
 0.0016418664347990694 0.013220075423039742 -0.0014364788473367005 -0.00850018391501968 0.006035054545269398 0.029275194565485996 0.9925472135025843 -0.06917813796512659
 -0.0014368823081626356 -0.008500163432798469 0.0016811642249466867 0.013214714803173686 0.9925472135025843 -0.06917813796512659 0.006028378929481566 0.029275721276162764
0.1062942892872 0.0060599462456466194 0.029391677262635175 0.992514057059099 -0.0694353542446535 0.0016520770221436383 0.01326826700249086 -0.0014457435904319162 -0.008531314808342622
 0.992514057059099 -0.0694353542446535 0.006053904452730865 0.029392138359154402 -0.0014453372653942245 -0.008531335588119991 0.001691662386050051 0.013262859202651672
 0.0016520770221436383 0.01326826700249086 -0.0014453372653942245 -0.008531335588119991 0.0060602267609695575 0.02939022987070361 0.9925139951420617 -0.06943677024408895
 -0.0014457435904319162 -0.008531314808342622 0.001691662386050051 0.013262859202651672 0.9925139951420617 -0.06943677024408895 0.006053502533446274 0.02939076021010221
0.11254689453939999 0.006478334188840426 0.03126666797073965 0.9919621367632325 -0.07364023505922407 0.0018225672063153636 0.014050259578192085 -0.0015937273206527486 -0.009036807297718276
 0.9919621367632325 -0.07364023505922407 0.006471561576497442 0.031267180437715765 -0.0015932731565842728 -0.009036833223047934 0.0018669683310323342 0.014044046270862368
 0.0018225672063153636 0.014050259578192085 -0.0015932731565842728 -0.009036833223047934 0.006478649241991508 0.03126513321534476 0.9919620676381143 -0.07364173418886179
 -0.0015937273206527486 -0.009036807297718276 0.0018669683310323342 0.014044046270862368 0.9919620676381143 -0.07364173418886179 0.006471111177550574 0.031265724670799994
0.11879949979160001 0.00691542183673779 0.03315584518463186 0.9913860576837249 -0.0778577878034202 0.0020020514858978705 0.01483166799522819 -0.0017495678979994975 -0.009541902905747938
 0.9913860576837249 -0.0778577878034202 0.006907876499961571 0.0331564123495624 -0.001749063372490525 -0.009541934590237456 0.0020515469664735644 0.014824571809942426
 0.0020020514858978705 0.01483166799522819 -0.001749063372490525 -0.009541934590237456 0.00691577345794071 0.033154222671129004 0.9913859809494951 -0.07785937006360484
 -0.0017495678979994975 -0.009541902905747938 0.0020515469664735644 0.014824571809942426 0.9913859809494951 -0.07785937006360484 0.006907374855449996 0.03315487952439177
0.1250521050438 0.007371492953185346 0.03505893126402916 0.990785540658793 -0.08208780054473792 0.002190593619054513 0.015612356463820917 -0.0019133308141053892 -0.01004646618632418
 0.990785540658793 -0.08208780054473792 0.007363132912799212 0.03505955656373035 -0.0019127734259699973 -0.010046504271344202 0.002245462191098675 0.015604296180998237
 0.002190593619054513 0.015612356463820917 -0.0019127734259699973 -0.010046504271344202 0.007371883175749274 0.0350572205750028 0.990785455913069 -0.08208946593703151
 -0.0019133308141053892 -0.01004646618632418 0.002245462191098675 0.015604296180998237 0.990785455913069 -0.08208946593703151 0.0073625772578667665 0.03505794727160552
0.131304710296 0.007846829018941957 0.03697564631548583 0.9901603083806708 -0.08633005255035685 0.002388255031008961 0.016392186525593877 -0.002085079160930279 -0.01055035937584387
 0.9901603083806708 -0.08633005255035685 0.007837612212912154 0.036976333299307634 -0.002084466430266851 -0.010550404530480511 0.0024487755160765537 0.016383077042603004
 0.002388255031008961 0.016392186525593877 -0.002084466430266851 -0.010550404530480511 0.007847259878757694 0.03697384701000079 0.9901602152199365 -0.08633180107823044
 -0.002085079160930279 -0.01055035937584387 0.0024487755160765537 0.016383077042603004 0.9901602152199365 -0.08633180107823044 0.007836999784251503 0.036974648163001646
0.1375573155481 0.008232397935421494 0.03865697617396359 0.9896194407905639 -0.09033546295264663 0.002569619329909465 0.017146373878820786 -0.0022393313278793437 -0.011028863652338867
 0.9896194407905639 -0.09033546295264663 0.008222278252251662 0.038657713172683836 -0.002238659446782382 -0.011028915924874027 0.002635930520092957 0.017136228544054274
 0.002569619329909465 0.017146373878820786 -0.002238659446782382 -0.011028915924874027 0.008232870638516743 0.038655088052955276 0.9896193388356044 -0.09033729457778646
 -0.0022393313278793437 -0.011028863652338867 0.002635930520092957 0.017136228544054274 0.9896193388356044 -0.09033729457778646 0.008221607066892414 0.038655952486249534
0.1438099208003 0.008631543762880538 0.04032956039344153 0.9890595627709237 -0.09433080784145677 0.002758286598360315 0.017897548657102254 -0.0023997440652756405 -0.011504557179772945
 0.9890595627709237 -0.09433080784145677 0.008620478393408222 0.04033035005998538 -0.0023990103454151535 -0.011504617231630675 0.0028306421325035073 0.01788628966459836
 0.002758286598360315 0.017897548657102254 -0.0023990103454151535 -0.011504617231630675 0.008632060198094626 0.040327583024883366 0.9890594516217156 -0.09433272255957827
 -0.0023997440652756405 -0.011504557179772945 0.0028306421325035073 0.01788628966459836 0.9890594516217156 -0.09433272255957827 0.008619745829797602 0.04032851442432144
0.1500625260525 0.009044127722074134 0.04199326173491496 0.9884808171796022 -0.09831599032880049 0.0029541915451786823 0.018645636108185974 -0.0025662529818154907 -0.011977367725824813
 0.9884808171796022 -0.09831599032880049 0.009032073750942362 0.04199410688739851 -0.002565454739373836 -0.011977436245226555 0.003032843521922081 0.018633182822203522
 0.0029541915451786823 0.018645636108185974 -0.002565454739373836 -0.011977436245226555 0.009044689770431746 0.04199119467130889 0.9884806964353675 -0.09831798813385546
 -0.0025662529818154907 -0.011977367725824813 0.003032843521922081 0.018633182822203522 0.9884806964353675 -0.09831798813385546 0.009031277197496503 0.041992196927706706
0.15631513130469998 0.009470010070707918 0.04364794710421131 0.9878833475776476 -0.1022909138178374 0.003157268115476547 0.019390562760038886 -0.0027387929001150414 -0.01244722457504271
