! Created with skrf 1.8.0 (http://scikit-rf.org).
# GHz S RI R 50.0 
!freq ReS11 ImS11 ReS12 ImS12 ReS13 ImS13
! ReS14 ImS14
! ReS21 ImS21 ReS22 ImS22 ReS23 ImS23
! ReS24 ImS24
! ReS31 ImS31 ReS32 ImS32 ReS33 ImS33
! ReS34 ImS34
! ReS41 ImS41 ReS42 ImS42 ReS43 ImS43
! ReS44 ImS44
!
0.0 0.00127633115799 0.0 0.9987236688381 0.0 4.869847671135e-05 0.0 -4.86984764226e-05 5.963843327428994e-21
 0.9987236688381 0.0 0.00127633115797 0.0 -4.869847642218e-05 5.9638433273775585e-21 4.869847671073e-05 0.0
 4.869847671135e-05 0.0 -4.869847642218e-05 5.9638433273775585e-21 0.001276331159932 0.0 0.99872366884 0.0
 -4.86984764226e-05 5.963843327428994e-21 4.869847671073e-05 0.0 0.99872366884 0.0 0.00127633115993 0.0
0.005 0.001372559010111007 0.0010461883473756428 0.9986020410337599 -0.002674261799932424 6.760500327597364e-05 0.0005273463547991175 -6.578901906727016e-05 -0.00033272764550074183
 0.9986020410337599 -0.002674261799932424 0.0013725599273357461 0.0010461878178660727 -6.579046232077761e-05 -0.0003327287844277822 6.75911904270203e-05 0.000527351557604957
 6.760500327597364e-05 0.0005273463547991175 -6.579046232077761e-05 -0.0003327287844277822 0.0013725577774553984 0.0010461218380540362 0.9986020406977474 -0.002674328868409131
 -6.578901906727016e-05 -0.00033272764550074183 6.75911904270203e-05 0.000527351557604957 0.9986020406977474 -0.002674328868409131 0.0013725604908670056 0.0010461201923755196
0.006252605252188 0.001397605979700069 0.0013118704113541913 0.9985702155338245 -0.003343510369857279 7.289556469620752e-05 0.0006594549170541654 -7.052493060682897e-05 -0.0004163485331139261
 0.9985702155338245 -0.003343510369857279 0.0013976074134403192 0.0013118697458009434 -7.052717621958349e-05 -0.0004163499385188785 7.287398243934474e-05 0.000659461676769374
 7.289556469620752e-05 0.0006594549170541654 -7.052717621958349e-05 -0.0004163499385188785 0.0013976041257165502 0.0013117872926921325 0.9985702150817567 -0.003343594192593756
 -7.052493060682897e-05 -0.0004163485331139261 7.287398243934474e-05 0.000659461676769374 0.9985702150817567 -0.003343594192593756 0.0013976083679677945 0.0013117852239048716
0.01250521050438 0.0015283483598884482 0.0026514468886054965 0.9984031478541048 -0.006687989353889635 0.0001026500504105488 0.001319361524279689 -9.691605804116225e-05 -0.0008348255260127858
 0.9984031478541048 -0.006687989353889635 0.001528354082953579 0.002651445529030384 -9.692490557109985e-05 -0.000834828139574969 0.00010256395858295391 0.001319377769566109
 0.0001026500504105488 0.001319361524279689 -9.692490557109985e-05 -0.000834828139574969 0.001528341524854814 0.0026512809606210976 0.9984031466212158 -0.0066881567557477975
 -9.691605804116225e-05 -0.0008348255260127858 0.00010256395858295391 0.001319377769566109 0.9984031466212158 -0.0066881567557477975 0.0015283584733369673 0.002651276700537568
0.01875781575657 0.0016688038207351443 0.004010365588814926 0.9982222867355118 -0.010041615104052073 0.00013802487291290005 0.0019801751272089533 -0.00012794435546227545 -0.0012548650266669976
 0.9982222867355118 -0.010041615104052073 0.0016688166754834858 0.004010363522295016 -0.00012796408323395133 -0.0012548686200209906 0.00013783141385397148 0.001980204033400521
 0.00013802487291290005 0.0019801751272089533 -0.00012796408323395133 -0.0012548686200209906 0.0016687888747279188 0.00401011705085861 0.9982222843853819 -0.010041865992036714
 -0.00012794435546227545 -0.0012548650266669976 0.00013783141385397148 0.001980204033400521 0.9982222843853819 -0.010041865992036714 0.001668826974750526 0.004010110449047987
0.02501042100875 0.0018192126855760195 0.005386769093351996 0.9980274472049567 -0.013406053253003836 0.00017908379722558968 0.0026419456290407463 -0.00016368061754202964 -0.0016763032130069726
 0.9980274472049567 -0.013406053253003836 0.0018192355053332646 0.005386766324536575 -0.00016371545249990345 -0.0016763075222119767 0.00017874005778535884 0.0026419908045519267
 0.00017908379722558968 0.0026419456290407463 -0.00016371545249990345 -0.0016763075222119767 0.0018191865010409602 0.005386438140809013 0.9980274434024293 -0.013406387577728234
 -0.00016368061754202964 -0.0016763032130069726 0.00017874005778535884 0.0026419908045519267 0.9980274434024293 -0.013406387577728234 0.00181925419059483 0.0053864290232169335
0.03126302626094 0.001979805095204607 0.006779722052618233 0.9978184335140388 -0.016782041238758958 0.00022589121477997105 0.00330466399574532 -0.00020419402743602425 -0.002099031914272973
 0.9978184335140388 -0.016782041238758958 0.001979840706599224 0.0067797186043914975 -0.0002042481541830071 -0.002099036639229182 0.00022535418701153257 0.0033047294848906257
 0.00022589121477997105 0.00330466399574532 -0.0002042481541830071 -0.002099036639229182 0.001979764547583001 0.006779308891612514 0.9978184279258786 -0.016782458979878703
 -0.00020419402743602425 -0.002099031914272973 0.00022535418701153257 0.0033047294848906257 0.9978184279258786 -0.016782458979878703 0.001979870261519414 0.006779297061266815
0.037515631513130004 0.002150806401092177 0.008188630116661284 0.9975950446402181 -0.020169969324528615 0.00027851155679015587 0.003968298253349902 -0.00024955266097296527 -0.0025229626029851814
 0.9975950446402181 -0.020169969324528615 0.0021508576253737783 0.008188626030886766 -0.0002496302264311779 -0.0025229674072550787 0.00027773811984769923 0.003968388541132455
 0.00027851155679015587 0.003968298253349902 -0.0002496302264311779 -0.0025229674072550787 0.002150748365098911 0.008188134990042298 0.9975950369317294 -0.020170470465124053
 -0.00024955266097296527 -0.0025229626029851814 0.00027773811984769923 0.003968388541132455 0.9975950369317294 -0.020170470465124053 0.002150900537487637 0.008188120227370255
0.043768236765320004 0.0023324392612225115 0.009613063141821199 0.9973570764919576 -0.023570057336589897 0.00033700902502362535 0.004632804431932989 -0.0002998236773088225 -0.0029480154396956896
 0.9973570764919576 -0.023570057336589897 0.0023325089158732545 0.009613058479849517 -0.0002999287935187457 -0.0029480199504384437 0.0003359559362409661 0.004632924449378231
 0.00033700902502362535 0.004632804431932989 -0.0002999287935187457 -0.0029480199504384437 0.0023323606111189873 0.009612486314590801 0.9973570663269155 -0.023570641878210542
 -0.0002998236773088225 -0.0029480154396956896 0.0003359559362409661 0.004632924449378231 0.9973570663269155 -0.023570641878210542 0.0023325676774683464 0.009612468377365667
0.050020842017509996 0.0025249246155025825 0.01105268211087903 0.9971043229947361 -0.02698242768671053 0.0004014474386298274 0.005298131074644007 -0.00035507339416303416 -0.0033741147531541524
 0.9971043229947361 -0.02698242768671053 0.0025250155155327803 0.011052676954100282 -0.0003552101401842115 -0.0033741185610974157 0.0004000713292912274 0.005298286204378581
 0.0004014474386298274 0.005298131074644007 -0.0003552101401842115 -0.0033741185610974157 0.002524822226501141 0.011052023881036781 0.9971043100367734 -0.02698309563889141
 -0.00035507339416303416 -0.0033741147531541524 0.0004000713292912274 0.005298286204378581 0.9971043100367734 -0.02698309563889141 0.0025250926249151037 0.011052002504439381
0.055454545454549996 0.002701184460130491 0.01231586608626077 0.9968725039645122 -0.029957904058693825 0.0004623203439023233 0.0058769424568303795 -0.00040718128191312154 -0.0037452005475068465
 0.9968725039645122 -0.029957904058693825 0.002701296108204904 0.01231586058154801 -0.00040734880325319755 -0.0037452033840176123 0.0004606282002520989 0.0058771328265697425
 0.0004623203439023233 0.0058769424568303795 -0.00040734880325319755 -0.0037452033840176123 0.0027010589031818987 0.01231513738441286 0.9968724883042548 -0.02995864450983079
 -0.00040718128191312154 -0.0037452005475068465 0.0004606282002520989 0.0058771328265697425 0.9968724883042548 -0.02995864450983079 0.002701391194765217 0.01231511278620199
0.056273447269699996 0.002728482204495943 0.012507203261318938 0.9968365767225094 -0.030407141185944765 0.00047189012532659067 0.005964221457483287 -0.00041536731830346473 -0.003801186810723418
 0.9968365767225094 -0.030407141185944765 0.0027285971636625585 0.012507197711699745 -0.0004155397414892006 -0.0038011894701595796 0.00047014749931620494 0.005964417539415676
 0.00047189012532659067 0.005964221457483287 -0.0004155397414892006 -0.0038011894701595796 0.0027283529512593004 0.012506463960002418 0.9968365606327592 -0.030407892566588036
 -0.00041536731830346473 -0.003801186810723418 0.00047014749931620494 0.005964417539415676 0.9968365606327592 -0.030407892566588036 0.0027286951237103564 0.01250643885649813
0.06252605252188 0.002943330855045314 0.013976378369566406 0.9965536292980173 -0.03384421670343863 0.0005483998409803221 0.006631014799380945 -0.00048077014674557716 -0.004229158599802655
 0.9965536292980173 -0.03384421670343863 0.0029434726873174277 0.013976372550013785 -0.00048098226367298706 -0.0042291596285893305 0.000546247075471179 0.006631258136430473
 0.0005483998409803221 0.006631014799380945 -0.00048098226367298706 -0.0042291596285893305 0.0029431716133627548 0.013975558361638071 0.9965536097365782 -0.03384505153861465
 -0.00048077014674557716 -0.004229158599802655 0.000546247075471179 0.006631258136430473 0.9965536097365782 -0.03384505153861465 0.0029435940069806638 0.013975529220843387
0.06877865777407 0.0031696886450187515 0.015459982997394275 0.9962552716749161 -0.037293642863625784 0.0006310387013532469 0.007298446982535303 -0.0005513457550956156 -0.004657957100494919
 0.9962552716749161 -0.037293642863625784 0.003169860165608031 0.015459977052274908 -0.0005516015522460527 -0.0046579559800662956 0.0006284320485280811 0.007298744346377237
 0.0006310387013532469 0.007298446982535303 -0.0005516015522460527 -0.0046579559800662956 0.0031694962917375264 0.015459082678568995 0.9962552483001922 -0.037294561190925155
 -0.0005513457550956156 -0.004657957100494919 0.0006284320485280811 0.007298744346377237 0.9962552483001922 -0.037294561190925155 0.003170007359592951 0.01545904916707381
0.07503126302626001 0.0034077729962057324 0.01695780902683675 0.9959412943495731 -0.04075538545678104 0.0007198681215623995 0.00796645101226512 -0.0006271571768600286 -0.005087508820407649
 0.9959412943495731 -0.04075538545678104 0.0034079770228951376 0.016957803122333342 -0.0006274606110864499 -0.005087504995789643 0.0007167637117246565 0.007966809649053231
 0.0007198681215623995 0.00796645101226512 -0.0006274606110864499 -0.005087504995789643 0.0034075444087435223 0.01695682882836337 0.9959412668169654 -0.04075638732108961
 -0.0006271571768600286 -0.005087508820407649 0.0007167637117246565 0.007966809649053231 0.9959412668169654 -0.04075638732108961 0.003408152611183564 0.016956790589519027
0.08128386827845 0.003657800719114817 0.018469659705640226 0.9956114875272545 -0.04422939234034587 0.0008149487611689241 0.008634957317179096 -0.0007082665764109485 -0.005517739490903197
 0.9956114875272545 -0.04422939234034587 0.0036580400736239546 0.018469654030164782 -0.0007086215753547907 -0.005517732370729844 0.0008113026062891036 0.008635384953251574
 0.0008149487611689241 0.008634957317179096 -0.0007086215753547907 -0.005517732370729844 0.003657532777062212 0.018468600094798435 0.9956114554904493 -0.04423047779371831
 -0.0007082665764109485 -0.005517739490903197 0.0008113026062891036 0.008635384953251574 0.9956114554904493 -0.04423047779371831 0.003658246582181233 0.018468556748521665
0.08753647353064001 0.003919988030963311 0.019995346211115005 0.9952656412639607 -0.04771559682380331 0.0009163404717264317 0.009303893958946267 -0.0007947352183428785 -0.0059485738555827205
 0.9952656412639607 -0.04771559682380331 0.003920265540278518 0.01999534097559887 -0.0007951456806751928 -0.005948562812108446 0.0009121084697757203 0.009304398806480227
 0.0009163404717264317 0.009303893958946267 -0.0007951456806751928 -0.005948562812108446 0.003919677616039599 0.01999420769290603 0.995265604373872 -0.04771676592422025
 -0.0007947352183428785 -0.0059485738555827205 0.0009121084697757203 0.009304398806480227 0.995265604373872 -0.04771676592422025 0.003920505500947473 0.01999415883535386
0.09378907878283 0.004194550551367407 0.02153468519532012 0.9949035455873789 -0.051213920074083215 0.0010241022467175904 0.0099731867841972 -0.0008866234335091236 -0.006379935518558345
 0.9949035455873789 -0.051213920074083215 0.004194869048824059 0.021534680633549387 -0.0008870932291027077 -0.0063799198876969415 0.0010192401864434957 0.00997377754683388
 0.0010241022467175904 0.0099731867841972 -0.0008870932291027077 -0.0063799198876969415 0.004194194547776814 0.021533468309493316 0.9949035034921738 -0.05121517288889471
 -0.0008866234335091236 -0.006379935518558345 0.0010192401864434957 0.00997377754683388 0.9949035034921738 -0.05121517288889471 0.004195144999295356 0.02153341351279449
0.100041684035 0.004481703284021233 0.02308749698745332 0.9945249906066957 -0.05472427286597486 0.0011382921725210857 0.01064275953298318 -0.0009839905830069959 -0.006811746838160886
 0.9945249906066957 -0.05472427286597486 0.004482065610984538 0.02308749335631797 -0.0009845235530770529 -0.006811725919496179 0.001132755738737504 0.010643445411405958
 0.0011382921725210857 0.01064275953298318 -0.0009845235530770529 -0.006811725919496179 0.004481298578726081 0.023086202311295188 0.9945249429509823 -0.05472560946943131
 -0.0009839905830069959 -0.006811746838160886 0.001132755738737504 0.010643445411405958 0.9945249429509823 -0.05472560946943131 0.004482380094505158 0.023086141123211997
0.1059090909091 0.00476280728364076 0.024556741518061972 0.994154600542944 -0.058029219925844346 0.001251344543629158 0.011271267423429234 -0.0010803943499863168 -0.007217294593239611
 0.994154600542944 -0.058029219925844346 0.004763213332288935 0.024556739014651326 -0.0010809900706918029 -0.007217268043181643 0.0012451348899977378 0.011272051373388004
 0.001251344543629158 0.011271267423429234 -0.0010809900706918029 -0.007217268043181643 0.00476235404910535 0.02455537440123421 0.9941545473434455 -0.05803063523127204
 -0.0010803943499863168 -0.007217294593239611 0.0012451348899977378 0.011272051373388004 0.9941545473434455 -0.05803063523127204 0.0047635662934259835 0.02455530678214343
0.1062942892872 0.0047816605865894785 0.024653604233890885 0.9941297666123182 -0.05824655689695936 0.001258967380765757 0.011312533924680452 -0.001086895019942202 -0.007243928845342833
 0.9941297666123182 -0.05824655689695936 0.004782069593584686 0.024653601813621914 -0.001087494977132275 -0.007243901902165323 0.001252712159950194 0.01131332462206035
 0.001258967380765757 0.011312533924680452 -0.001087494977132275 -0.007243901902165323 0.004781204070377632 0.02465223238138243 0.9941297130377612 -0.0582479773714684
 -0.001086895019942202 -0.007243928845342833 0.001252712159950194 0.01131332462206035 0.9941297130377612 -0.0582479773714684 0.0047824251594254675 0.024652164324913385
0.11254689453939999 0.005094636133867665 0.026232830859295304 0.9937176641707215 -0.06178066578325753 0.0013861840002884975 0.011982429722987308 -0.0011953940506825985 -0.007676401184927263
 0.9937176641707215 -0.06178066578325753 0.005095094681962633 0.02623282995368612 -0.0011960647790667253 -0.007676367444267893 0.0013791654865318776 0.011983335450491205
 0.0013861840002884975 0.011982429722987308 -0.0011960647790667253 -0.007676367444267893 0.005094124701595705 0.02623138248150428 0.9937176043152102 -0.06178217021941331
 -0.0011953940506825985 -0.007676401184927263 0.0013791654865318776 0.011983335450491205 0.9937176043152102 -0.06178217021941331 0.005095493885375053 0.02623130705452343
0.11879949979160001 0.0054208428733189 0.027825001256444937 0.9932884742143567 -0.06532648582967379 0.0015199971101973492 0.012652364789984103 -0.0013095438940954952 -0.008109082070210168
 0.9932884742143567 -0.06532648582967379 0.005421353835646247 0.027825002192998414 -0.0013102891491963032 -0.008109040722869262 0.0015121707115397286 0.012653396272076005
 0.0015199971101973492 0.012652364789984103 -0.0013102891491963032 -0.008109040722869262 0.005420273424155667 0.027823477045169125 0.993288407711793 -0.06532807432290023
 -0.0013095438940954952 -0.008109082070210168 0.0015121707115397286 0.012653396272076005 0.993288407711793 -0.06532807432290023 0.005421799237395416 0.027823393720015757
0.1250521050438 0.005760492975539096 0.029429939644515502 0.9928419881275552 -0.06888389663338682 0.0016604606930891387 0.013322255128403557 -0.001429399639989603 -0.008541888251425347
 0.9928419881275552 -0.06888389663338682 0.005761059238583578 0.02942994277454853 -0.001430223148717777 -0.008541838452021198 0.0016517817380289376 0.013323423608151213
 0.0016604606930891387 0.013322255128403557 -0.001430223148717777 -0.008541838452021198 0.005759862413886671 0.0294283403296126 0.9928419146078554 -0.06888556928705132
 -0.001429399639989603 -0.008541888251425347 0.0016517817380289376 0.013323423608151213 0.9928419146078554 -0.06888556928705132 0.005761553405479069 0.029428248552550645
0.131304710296 0.006113797781113192 0.031047469552763267 0.9923779978316611 -0.07245277156497959 0.0018076275877700189 0.013992014920329402 -0.00155501520714938 -0.008974734990127613
 0.9923779978316611 -0.07245277156497959 0.006114422246303153 0.031047475251496103 -0.0015559206677771263 -0.00897467585713482 0.0017980513321068266 0.013993332164587723
 0.0018076275877700189 0.013992014920329402 -0.0015559206677771263 -0.00897467585713482 0.006113103017232455 0.031045795900339974 0.9923779169203786 -0.07245452849241804
 -0.00155501520714938 -0.008974734990127613 0.0017980513321068266 0.013993332164587723 0.9923779169203786 -0.07245452849241804 0.006114967751000275 0.03104569509111379
0.1375573155481 0.006393767500975044 0.03246640006241645 0.9919835197539999 -0.07582189853546495 0.0019412446591861644 0.014639934482184055 -0.0016661510082783115 -0.009385912996095772
 0.9919835197539999 -0.07582189853546495 0.006394453869370174 0.032466409033475536 -0.0016671439427214027 -0.009385844590553619 0.001930751000473387 0.014641397150198987
 0.0019412446591861644 0.014639934482184055 -0.0016671439427214027 -0.009385844590553619 0.0063930060404296255 0.03246465265615815 0.9919834311170799 -0.07582373978367446
 -0.0016661510082783115 -0.009385912996095772 0.001930751000473387 0.014641397150198987 0.9919834311170799 -0.07582373978367446 0.0063950526173092385 0.03246454282661895
0.1438099208003 0.006683371410678651 0.0338788795295279 0.9915755688958766 -0.0791835143555098 0.0020802549117834735 0.015285811824036438 -0.0017817410052209594 -0.009795223761094483
 0.9915755688958766 -0.0791835143555098 0.00668412273882128 0.03387889214327029 -0.0017828253992898243 -0.009795145227622256 0.0020688034640089256 0.015287430504584615
 0.0020802549117834735 0.015285811824036438 -0.0017828253992898243 -0.009795145227622256 0.006682540279430948 0.03387705914452531 0.9915754721608042 -0.07918544003201755
 -0.0017817410052209594 -0.009795223761094483 0.0020688034640089256 0.015287430504584615 0.9915754721608042 -0.07918544003201755 0.00668477718964576 0.03387693971014558
0.1500625260525 0.0069825203981244855 0.03528482029251707 0.9911542374353226 -0.08253756634272735 0.0022246176261163024 0.01592960031486434 -0.0019017456818691567 -0.010202622666307132
 0.9911542374353226 -0.08253756634272735 0.00698333976391726 0.035284836928145075 -0.0019029255159567148 -0.010202533115289493 0.0022121682218463707 0.015931385974134037
 0.0022246176261163024 0.01592960031486434 -0.0019029255159567148 -0.010202533115289493 0.006981616634642804 0.03528292773572946 0.9911541322260649 -0.0825395765578687
 -0.0019017456818691567 -0.010202622666307132 0.0022121682218463707 0.015931385974134037 0.9911541322260649 -0.0825395765578687 0.0069840523747608275 0.03528279808365372
0.15631513130469998 0.007291124869208592 0.03668413750982857 0.9907196178531081 -0.08588400142294897 0.0023742916868153825 0.016571253984446855 -0.0020261251150064316 -0.010608065947887749
