! Created with skrf 1.8.0 (http://scikit-rf.org).
# GHz S RI R 50.0 
!freq ReS11 ImS11 ReS12 ImS12 ReS13 ImS13
! ReS14 ImS14
! ReS21 ImS21 ReS22 ImS22 ReS23 ImS23
! ReS24 ImS24
! ReS31 ImS31 ReS32 ImS32 ReS33 ImS33
! ReS34 ImS34
! ReS41 ImS41 ReS42 ImS42 ReS43 ImS43
! ReS44 ImS44
!
0.0 0.001534017202125 0.0 0.9984659827894 0.0 5.890274491947e-05 0.0 -5.890274482984e-05 7.213505791685687e-21
 0.9984659827894 0.0 0.00153401720212 0.0 -5.890274483017e-05 7.2135057917261e-21 5.890274491814e-05 0.0
 5.890274491947e-05 0.0 -5.890274483017e-05 7.2135057917261e-21 0.001534017197864 0.0 0.9984659827851 0.0
 -5.890274482984e-05 7.213505791685687e-21 5.890274491814e-05 0.0 0.9984659827851 0.0 0.00153401719785 0.0
0.005 0.001650385313375496 0.0012597159569017102 0.9983187815273153 -0.003213091764999099 8.181318947565635e-05 0.0006206839206958879 -7.96042222284173e-05 -0.0003945496532907429
 0.9983187815273153 -0.003213091764999099 0.0016504070096004643 0.0012597033523961047 -7.960334003895645e-05 -0.00039454905227955244 8.168002697743373e-05 0.0006207346094496728
 8.181318947565635e-05 0.0006206839206958879 -7.960334003895645e-05 -0.00039454905227955244 0.0016503850126665363 0.0012596489210755474 0.9983187811703724 -0.003213158827187774
 -7.96042222284173e-05 -0.0003945496532907429 8.168002697743373e-05 0.0006207346094496728 0.9983187811703724 -0.003213158827187774 0.001650406602970704 0.001259636269908407
0.006252605252188 0.001680892395966812 0.0015795797297214903 0.9982799501412872 -0.004017149928398706 8.835576564770087e-05 0.0007761690022986882 -8.54369975903336e-05 -0.0004936911647964616
 0.9982799501412872 -0.004017149928398706 0.001680926310424256 0.0015795637237179833 -8.543562422221072e-05 -0.0004936904253949205 8.814771121257148e-05 0.0007762348198995981
 8.835576564770087e-05 0.0007761690022986882 -8.543562422221072e-05 -0.0004936904253949205 0.0016808920019196585 0.0015794959544259536 0.9982799496595927 -0.0040172337464278104
 -8.54369975903336e-05 -0.0004936911647964616 8.814771121257148e-05 0.0007762348198995981 0.9982799496595927 -0.0040172337464278104 0.001680925751739425 0.0015794798764603992
0.01250521050438 0.0018414143009756283 0.003192087892085621 0.9980742898591214 -0.008035086327403195 0.00012586065451658543 0.0015527789577241074 -0.00011846668871607348 -0.0009897545316604555
 0.9980742898591214 -0.008035086327403195 0.0018415497111287863 0.0031920533456680626 -0.00011846126890893558 -0.0009897531838819254 0.00012503096995537352 0.0015529370881242456
 0.00012586065451658543 0.0015527789577241074 -0.00011846126890893558 -0.0009897531838819254 0.0018414132710611096 0.003191920685969054 0.9980742884845528 -0.00803525373795937
 -0.00011846668871607348 -0.0009897545316604555 0.00012503096995537352 0.0015529370881242456 0.9980742884845528 -0.00803525373795937 0.0018415480400919497 0.0031918858564185084
0.01875781575657 0.002015931847369348 0.00482743557591443 0.9978487473902078 -0.012063584515787996 0.00017150393100064397 0.0023303159917969075 -0.00015809228979558052 -0.0014875158255565864
 0.9978487473902078 -0.012063584515787996 0.0020162360985763587 0.004827379742500116 -0.00015808019296617887 -0.0014875140283799218 0.0001696401084715218 0.0023305980968939817
 0.00017150393100064397 0.0023303159917969075 -0.00015808019296617887 -0.0014875140283799218 0.0020159299431084703 0.00482718518993079 0.9978487447208292 -0.012063835440183565
 -0.00015809228979558052 -0.0014875158255565864 0.0001696401084715218 0.0023305980968939817 0.9978487447208292 -0.012063835440183565 0.002016232786321766 0.00482712871553178
0.02501042100875 0.0022047837146274315 0.006483346078145267 0.9976030581398133 -0.016104597190784494 0.0002253736166438672 0.0031088030814536574 -0.00020441122472625265 -0.001986758524096915
 0.9976030581398133 -0.016104597190784494 0.0022053240045610332 0.006483266022809667 -0.0002043898483007151 -0.001986756466928133 0.00022206297771897303 0.0031092458103802443
 0.0002253736166438672 0.0031088030814536574 -0.0002043898483007151 -0.001986756466928133 0.002204780692364054 0.006483012757353587 0.9976030537717606 -0.016104931610251668
 -0.00020441122472625265 -0.001986758524096915 0.00022206297771897303 0.0031092458103802443 0.9976030537717606 -0.016104931610251668 0.0022053185361273512 0.006482931547937382
0.03126302626094 0.002408294593604982 0.008158648424060356 0.9973369439422897 -0.02015896088500565 0.00028755822821895885 0.0038881951361715377 -0.00025751829436511695 -0.002487328688785578
 0.9973369439422897 -0.02015896088500565 0.0024091380089678875 0.008158541028255997 -0.0002574850590623982 -0.0024873265918181663 0.00028238754176744475 0.0038888401538969115
 0.00028755822821895885 0.0038881951361715377 -0.0002574850590623982 -0.0024873265918181663 0.0024082902017918744 0.008158232440302818 0.9973369374654065 -0.02015937880843158
 -0.00025751829436511695 -0.002487328688785578 0.00028238754176744475 0.0038888401538969115 0.9973369374654065 -0.02015937880843158 0.0024091298790343773 0.008158123213182824
0.037515631513130004 0.002626782178429215 0.009852579596119408 0.9970501202660077 -0.024227093676109278 0.0003581458875195182 0.004668420043776951 -0.0003175063126235486 -0.0029890939113576855
 0.9970501202660077 -0.024227093676109278 0.0026279957193481485 0.009852441559966982 -0.00031745866006714895 -0.0029890920257296632 0.0003507011989574162 0.004669314081113974
 0.0003581458875195182 0.004668420043776951 -0.00031745866006714895 -0.0029890920257296632 0.0026267761652589107 0.009852081248710403 0.9970501112695728 -0.024227595139707292
 -0.0003175063126235486 -0.0029890939113576855 0.0003507011989574162 0.004669314081113974 0.9970501112695728 -0.024227595139707292 0.002627984439262913 0.009851940530700425
0.043768236765320004 0.002860559874284322 0.011564572191503052 0.9967422991380555 -0.028309207457999988 0.00043722390466055685 0.005449391144351238 -0.0003844663287305677 -0.0034919308378620253
 0.9967422991380555 -0.028309207457999988 0.002862210473370146 0.011564400035140431 -0.00038440172014453795 -0.0034919294457491324 0.00042709045568046925 0.005450586054630355
 0.00043722390466055685 0.005449391144351238 -0.00038440172014453795 -0.0034919294457491324 0.002860551985059257 0.011563991814516674 0.9967422872069448 -0.028309792518369174
 -0.0003844663287305677 -0.0034919308378620253 0.00042709045568046925 0.005450586054630355 0.9967422872069448 -0.028309792518369174 0.002862195567515758 0.011563815943123293
0.050020842017509996 0.0031099380496592073 0.013294166662367095 0.9964131906182605 -0.03240539562707006 0.0005248785243529352 0.006231012389063181 -0.0004584877061771289 -0.003995720011262939
 0.9964131906182605 -0.03240539562707006 0.003112092588774666 0.013293956726713364 -0.0004584036215929248 -0.0039957194259551175 0.0005116407207989194 0.006232565207492154
 0.0005248785243529352 0.006231012389063181 -0.0004584036215929248 -0.0039957194259551175 0.003109928030056703 0.013293504626322328 0.9964131753339943 -0.032406064359832364
 -0.0004584877061771289 -0.003995720011262939 0.0005116407207989194 0.006232565207492154 0.9964131753339943 -0.032406064359832364 0.003112073596946538 0.013293289750241428
0.055454545454549996 0.0033395639843342997 0.01481122379994739 0.9961096713615607 -0.03597655270593506 0.0006080843440750764 0.006910713149678344 -0.0005286173618636144 -0.004434209694147523
 0.9961096713615607 -0.03597655270593506 0.003342210750725194 0.014810977922325205 -0.0005285143197592717 -0.004434210088621253 0.000591810597071513 0.006912627390736216
 0.0006080843440750764 0.006910713149678344 -0.0005285143197592717 -0.004434210088621253 0.003339551906796789 0.014810491126039623 0.9961096528196176 -0.03597729423185279
 -0.0005286173618636144 -0.004434209694147523 0.000591810597071513 0.006912627390736216 0.9961096528196176 -0.03597729423185279 0.003342187845603888 0.014810239079354429
0.056273447269699996 0.0033752246841172676 0.015040968245479866 0.9960625036722737 -0.03651567608037266 0.0006211947469413122 0.007013180866884041 -0.0005396581348772758 -0.004500343349650897
 0.9960625036722737 -0.03651567608037266 0.0033779500092868866 0.015040716692477727 -0.0005395520726350806 -0.004500343915616499 0.0006044361554356945 0.007015153871072366
 0.0006211947469413122 0.007013180866884041 -0.0005395520726350806 -0.004500343915616499 0.003375212279681082 0.015040224953528103 0.9960624846113997 -0.036516428584316245
 -0.0005396581348772758 -0.004500343349650897 0.0006044361554356945 0.007015153871072366 0.9960624846113997 -0.036516428584316245 0.0033779264857788744 0.01503996703267086
0.06252605252188 0.003656725712256733 0.016804623268851133 0.9956899467454707 -0.040640014839066374 0.0007262561863949897 0.007795788199771273 -0.0006280636092778483 -0.0050056827597104595
 0.9956899467454707 -0.040640014839066374 0.00366008864814372 0.01680432608119719 -0.000627933085799846 -0.005005684852635341 0.000705559550279628 0.0077982489707143846
 0.0007262561863949897 0.007795788199771273 -0.000627933085799846 -0.005005684852635341 0.003656710669892263 0.016803799166755926 0.995689923478738 -0.04064085122629369
 -0.0006280636092778483 -0.0050056827597104595 0.000705559550279628 0.0077982489707143846 0.995689923478738 -0.04064085122629369 0.0036600601620021146 0.016803493971931694
0.06877865777407 0.003954745205043637 0.018584805050970536 0.9952952281773002 -0.044778340082741015 0.0008401449483472229 0.008578721372879718 -0.0007237883878012925 -0.00551161931915389
 0.9952952281773002 -0.044778340082741015 0.003958812568095785 0.018584458031553015 -0.0007236309373858207 -0.005511623345999902 0.0008150922170154165 0.008581742855923653
 0.0008401449483472229 0.008578721372879718 -0.0007236309373858207 -0.005511623345999902 0.0039547272737961445 0.018583900616011173 0.9952952002696818 -0.04477926049014797
 -0.0007237883878012925 -0.00551161931915389 0.0008150922170154165 0.008581742855923653 0.9952952002696818 -0.04477926049014797 0.003958778704047598 0.018583543728079136
0.07503126302626001 0.004269585455353183 0.020381204932952833 0.994878056525547 -0.048930551055089824 0.0009629415201727289 0.009361863267675309 -0.0008269149398879563 -0.006018032760441519
 0.994878056525547 -0.048930551055089824 0.004274424068151066 0.020380803703706093 -0.0008267281147626203 -0.006018039159473679 0.0009331138889629912 0.009365523833249853
 0.0009629415201727289 0.009361863267675309 -0.0008267281147626203 -0.006018039159473679 0.004269564387755527 0.020380220685559763 0.9948780235350554 -0.048931555632810014
 -0.0008269149398879563 -0.006018032760441519 0.0009331138889629912 0.009365523833249853 0.9948780235350554 -0.048931555632810014 0.004274384426429346 0.020379807494243025
0.08128386827845 0.004601547002122265 0.022193526330899473 0.9944381408305897 -0.05309652395367511 0.0010947246688328127 0.010145093020195619 -0.0009375238854704211 -0.006524801133714812
 0.9944381408305897 -0.05309652395367511 0.004607223705881233 0.022193066331315313 -0.0009373052558162716 -0.006524810374530542 0.001059702626330079 0.010149476524102401
 0.0010947246688328127 0.010145093020195619 -0.0009373052558162716 -0.006524810374530542 0.004601522555218376 0.022192462828698575 0.9944381023077893 -0.05309761287122405
 -0.0009375238854704211 -0.006524801133714812 0.001059702626330079 0.010149476524102401 0.9944381023077893 -0.05309761287122405 0.004607177902826573 0.022191988530957465
0.08753647353064001 0.004950928613276423 0.024021480617642036 0.9939751908439434 -0.057276115995286564 0.0012355713432881527 0.010928286272428702 -0.0010556939286954007 -0.007031800581161906
 0.9939751908439434 -0.057276115995286564 0.004957510281362988 0.02402095710284094 -0.0010554410827219487 -0.007031813164723504 0.0011949347254590242 0.010933482115489796
 0.0012355713432881527 0.010928286272428702 -0.0010554410827219487 -0.007031813164723504 0.004950900549746333 0.024020338456276255 0.9939751463316308 -0.0572772894407965
 -0.0010556939286954007 -0.007031800581161906 0.0011949347254590242 0.010933482115489796 0.9939751463316308 -0.0572772894407965 0.004957457950192342 0.024019798054214708
0.09378907878283 0.005318027242003221 0.025864784179255137 0.9934889172331789 -0.06146916831157974 0.0013855565801490584 0.011711315358788388 -0.0011815017878682849 -0.007538905180906926
 0.9934889172331789 -0.06146916831157974 0.0053255807933062635 0.02586419221752932 -0.0011812123320259888 -0.0075389216395481675 0.0013388846297212459 0.011717418545882817
 0.0013855565801490584 0.011711315358788388 -0.0011812123320259888 -0.0075389216395481675 0.0053179953311142895 0.025863563996354352 0.9934888662649685 -0.0614704264878982
 -0.0011815017878682849 -0.007538905180906926 0.0013388846297212459 0.011717418545882817 0.9934888662649685 -0.0614704264878982 0.005325521583900119 0.025862952294745948
0.100041684035 0.005703137962219611 0.027723156262648683 0.9929790317684629 -0.06567550805906906 0.0015447534115842492 0.012494049450410674 -0.001315022122484244 -0.008045986837946226
 0.9929790317684629 -0.06567550805906906 0.005711730373843641 0.027722490732626125 -0.001314693681607127 -0.008046007735387271 0.001491624841852909 0.012501160648576004
 0.0015447534115842492 0.012494049450410674 -0.001314693681607127 -0.008046007735387271 0.005703101981009469 0.027721858729937533 0.9929789738688727 -0.06567685119171203
 -0.001315022122484244 -0.008045986837946226 0.001491624841852909 0.012501160648576004 0.9929789738688727 -0.06567685119171203 0.005711663953648537 0.02772117033322922
0.1059090909091 0.006081166457431349 0.029480497009908624 0.9924788279893954 -0.06963463170364387 0.0017025838145104373 0.01322817486172366 -0.0014473958398991784 -0.008521692249317139
 0.9924788279893954 -0.06963463170364387 0.006090794708023431 0.029479757614107864 -0.001447028672144988 -0.008521717852753912 0.0016430128251029715 0.013236328621096364
 0.0017025838145104373 0.01322817486172366 -0.001447028672144988 -0.008521717852753912 0.0060811264619817645 0.029479127542123125 0.9924787631438431 -0.06963605477581149
 -0.0014473958398991784 -0.008521692249317139 0.0016430128251029715 0.013236328621096364 0.9924787631438431 -0.06963605477581149 0.006090721234579611 0.02947836208658634
0.1062942892872 0.0061065538889485856 0.029596317349674498 0.9924452474994909 -0.06989495000831802 0.001713232774583246 0.013276354666093433 -0.001456327457732131 -0.008552915213257262
 0.9924452474994909 -0.06989495000831802 0.006116252209901688 0.029595572936947128 -0.0014559576753280473 -0.008552941144601445 0.001653225837667028 0.013284580261861847
 0.001713232774583246 0.013276354666093433 -0.0014559576753280473 -0.008552941144601445 0.006106513623594515 0.0295949431824729 0.9924451821828852 -0.069896378335905
 -0.001456327457732131 -0.008552915213257262 0.001653225837667028 0.013284580261861847 0.9924451821828852 -0.069896378335905 0.006116178264055989 0.029594172491411594
0.11254689453939999 0.006528566087974404 0.031483987926694545 0.9918872789224488 -0.0741272977432569 0.0018910634213881597 0.01405809416869385 -0.0016054881076626533 -0.009059557672622313
 0.9918872789224488 -0.0741272977432569 0.006539437452083427 0.03148315911998217 -0.0016050746460716837 -0.009059589264353872 0.0018237559798151145 0.014067546324292635
 0.0018910634213881597 0.01405809416869385 -0.0016050746460716837 -0.009059589264353872 0.0065285213345484296 0.03148253787790516 0.9918872056922229 -0.07412881152346897
 -0.0016054881076626533 -0.009059557672622313 0.0018237559798151145 0.014067546324292635 0.9918872056922229 -0.07412881152346897 0.0065393556842831 0.03148167908558317
0.11879949979160001 0.006969463475779325 0.03338588752157116 0.9913048421422602 -0.07837234459940999 0.002078311830758801 0.014839128244727514 -0.0017625720965294307 -0.009565779257210492
 0.9913048421422602 -0.07837234459940999 0.006981575115414471 0.03338496860833831 -0.001762112637337338 -0.009565817167163761 0.002003281432435686 0.014849924953388806
 0.002078311830758801 0.014839128244727514 -0.001762112637337338 -0.009565817167163761 0.006969414041729077 0.03338436238322539 0.9913047604904002 -0.07837394410728539
 -0.0017625720965294307 -0.009565779257210492 0.002003281432435686 0.014849924953388806 0.9913047604904002 -0.07837394410728539 0.006981485247830922 0.03338340947075085
0.1250521050438 0.007429532713020841 0.03530173394072896 0.9906976550297587 -0.08262987440791529 0.002275042119689814 0.015619314377144224 -0.0019276450795764372 -0.010071442666363738
 0.9906976550297587 -0.08262987440791529 0.007442951972097683 0.03530071900232706 -0.001927137323763728 -0.010071487583725 0.002191866075822267 0.01563157951716604
 0.002275042119689814 0.015619314377144224 -0.001927137323763728 -0.010071487583725 0.007429478418240024 0.03530013454402443 0.9906975644361022 -0.0826315599356955
 -0.0019276450795764372 -0.010071442666363738 0.002191866075822267 0.01563157951716604 0.9906975644361022 -0.0826315599356955 0.007442853746369304 0.03529908127552223
0.131304710296 0.00790905809191945 0.03723124266865797 0.9900654373767168 -0.08689966208378694 0.0024813159556870373 0.016398507309282703 -0.002100770262522713 -0.0105764082544721
 0.9900654373767168 -0.08689966208378694 0.007923852439612867 0.03723012557491569 -0.0021002119308698454 -0.01057646089972381 0.002389571421722296 0.016412370696963174
 0.0024813159556870373 0.016398507309282703 -0.0021002119308698454 -0.01057646089972381 0.007908998769846614 0.03722956988547196 0.9900653373079585 -0.086901433939106
 -0.002100770262522713 -0.0105764082544721 0.002389571421722296 0.016412370696963174 0.9900653373079585 -0.086901433939106 0.007923745617045565 0.03722840980274341
0.1375573155481 0.008298058259657811 0.03892389674719447 0.9895182142739972 -0.09093114140944744 0.0026714137890935137 0.0171519701141417 -0.0022563387619352272 -0.011055881001792686
 0.9895182142739972 -0.09093114140944744 0.008314301301678985 0.038922694640196015 -0.0022557267000494546 -0.011055941447895398 0.0025708897053246483 0.017167412066363213
 0.0026714137890935137 0.0171519701141417 -0.0022557267000494546 -0.011055941447895398 0.008297994629506412 0.038922150837432126 0.9895181042917689 -0.09093299976996634
 -0.0022563387619352272 -0.011055881001792686 0.0025708897053246483 0.017167412066363213 0.9895181042917689 -0.09093299976996634 0.008314184591480903 0.03892090177581622
0.1438099208003 0.008700752547190226 0.04060770747799214 0.9889517387284682 -0.09495244404103152 0.00286919079899347 0.017902289263470383 -0.0024181181442529563 -0.011532509931972594
 0.9889517387284682 -0.09495244404103152 0.008718512883494758 0.040606415572304155 -0.0024174499434646383 -0.01153257888240974 0.00275950236869329 0.017919428549353696
 0.00286919079899347 0.017902289263470383 -0.0024174499434646383 -0.01153257888240974 0.008700684622518374 0.04060588928820981 0.9889516183005111 -0.09495438920956951
 -0.0024181181442529563 -0.011532509931972594 0.00275950236869329 0.017919428549353696 0.9889516183005111 -0.09495438920956951 0.008718385884355159 0.040604546240422416
0.1500625260525 0.009116999757236446 0.04228253556053183 0.9883661559030215 -0.09896347105953747 0.003074578861293492 0.018649385456424417 -0.002586043099570198 -0.012006221857561682
 0.9883661559030215 -0.09896347105953747 0.009136346148260631 0.042281148787544943 -0.0025853163596277736 -0.01200630004356094 0.0029553435903788682 0.018668345177126636
 0.003074578861293492 0.018649385456424417 -0.0025853163596277736 -0.01200630004356094 0.009116927575766837 0.042280645969684304 0.98836602448606 -0.09896550334884024
 -0.002586043099570198 -0.012006221857561682 0.0029553435903788682 0.018668345177126636 0.98836602448606 -0.09896550334884024 0.009136208464877924 0.042279203641106954
0.15631513130469998 0.009546657702859427 0.043948245902969085 0.9877616116820752 -0.10296412387538649 0.0032875090444941003 0.019393180735405836 -0.0027600475172915528 -0.012476945134660342
