! Created with skrf 1.8.0 (http://scikit-rf.org).
# GHz S RI R 50.0 
!freq ReS11 ImS11 ReS12 ImS12 ReS13 ImS13
! ReS14 ImS14
! ReS21 ImS21 ReS22 ImS22 ReS23 ImS23
! ReS24 ImS24
! ReS31 ImS31 ReS32 ImS32 ReS33 ImS33
! ReS34 ImS34
! ReS41 ImS41 ReS42 ImS42 ReS43 ImS43
! ReS44 ImS44
!
0.0 0.001585912322776 0.0 0.9984140876573 0.0 6.173453799822e-05 0.0 -6.173453746558e-05 7.56030037040649e-21
 0.9984140876573 0.0 0.001585912322753 0.0 -6.173453746488e-05 7.560300370320765e-21 6.173453799807e-05 0.0
 6.173453799822e-05 0.0 -6.173453746488e-05 7.560300370320765e-21 0.001585912328451 0.0 0.998414087663 0.0
 -6.173453746558e-05 7.56030037040649e-21 6.173453799807e-05 0.0 0.998414087663 0.0 0.001585912328468 0.0
0.005 0.001706543563179038 0.0012880879096919579 0.9982614121215523 -0.0033224811555339325 8.800074300199298e-05 0.0007354040204999326 -8.509850790702497e-05 -0.0004519398350448999
 0.9982614121215523 -0.0033224811555339325 0.0017065574302887634 0.0012880797593899217 -8.509279581003166e-05 -0.0004519354693065743 8.794118124839515e-05 0.0007354268591482022
 8.800074300199298e-05 0.0007354040204999326 -8.509279581003166e-05 -0.0004519354693065743 0.001706546739011923 0.0012881533029026797 0.9982614124883411 -0.0033224140965590412
 -8.509850790702497e-05 -0.0004519398350448999 8.794118124839515e-05 0.0007354268591482022 0.9982614124883411 -0.0033224140965590412 0.0017065549842426148 0.0012881484816862504
0.006252605252188 0.0017382212308261129 0.001615213992767297 0.9982210537817514 -0.004153911523191974 9.554018237178325e-05 0.0009195822123426324 -9.172506637151719e-05 -0.0005655190605526977
 0.9982210537817514 -0.004153911523191974 0.0017382429078516093 0.0016152036323281633 -9.171617771197198e-05 -0.0005655136783740107 9.544712469962946e-05 0.0009196118470436638
 9.554018237178325e-05 0.0009195822123426324 -9.171617771197198e-05 -0.0005655136783740107 0.0017382261184624448 0.0016152957238742317 0.9982210542780383 -0.00415382770609172
 -9.172506637151719e-05 -0.0005655190605526977 9.544712469962946e-05 0.0009196118470436638 0.9982210542780383 -0.00415382770609172 0.0017382390066247916 0.0016152895297129879
0.01250521050438 0.0019052110035968726 0.0032645414668059456 0.9980068319827532 -0.008308629813810073 0.00013896267341055748 0.00183933180089732 -0.00012948448472644097 -0.0011338023643614728
 0.9980068319827532 -0.008308629813810073 0.0019052975629858457 0.0032645189800218984 -0.00012944945301413666 -0.0011337924239414327 0.00013859164026242386 0.0018394028291439486
 0.00013896267341055748 0.00183933180089732 -0.00012944945301413666 -0.0011337924239414327 0.0019052299446997373 0.0032647046220104486 0.9980068333865553 -0.008308462416993092
 -0.00012948448472644097 -0.0011338023643614728 0.00013859164026242386 0.0018394028291439486 0.9980068333865553 -0.008308462416993092 0.0019052814020304976 0.003264690562551055
0.01875781575657 0.0020872559628121005 0.004937515898839564 0.9977711493707311 -0.01247426560341742 0.0001921027616328029 0.002759918383903204 -0.00017513241787061015 -0.0017039486611385812
 0.9977711493707311 -0.01247426560341742 0.002087450470490468 0.004937479330901811 -0.0001750542928024041 -0.0017039351496405913 0.00019126941639233003 0.0027600449437294346
 0.0001921027616328029 0.002759918383903204 -0.0001750542928024041 -0.0017039351496405913 0.0020872981073019716 0.00493776021985737 0.997771152104604 -0.012474014723321929
 -0.00017513241787061015 -0.0017039486611385812 0.00019126941639233003 0.0027600449437294346 0.997771152104604 -0.012474014723321929 0.00208741372443536 0.004937736574432808
0.02501042100875 0.002284718777759615 0.006631763413197806 0.9975137221017263 -0.01665282526355309 0.00025506295705828225 0.0036813860778669998 -0.00022878413539898719 -0.0022756754836198165
 0.9975137221017263 -0.01665282526355309 0.002285064214260607 0.006631710633457308 -0.00022864616839641356 -0.002275659568389665 0.00025358298174661805 0.0036815845977322546
 0.00025506295705828225 0.0036813860778669998 -0.00022864616839641356 -0.002275659568389665 0.0022847932532618362 0.006632088610463383 0.9975137265810325 -0.01665249093954489
 -0.00022878413539898719 -0.0022756754836198165 0.00025358298174661805 0.0036815845977322546 0.9975137265810325 -0.01665249093954489 0.0022849985598090276 0.006632053613820849
0.03126302626094 0.002497947046342161 0.008346055170908789 0.9972342522201194 -0.02084515839580701 0.0003279463095727783 0.004603687349496541 -0.0002905513501238272 -0.0028487852809612898
 0.9972342522201194 -0.02084515839580701 0.0024984863286597768 0.008345983874102235 -0.0002903369601528358 -0.0028487683116424044 0.00032563523383859314 0.004603976558865253
 0.0003279463095727783 0.004603687349496541 -0.0002903369601528358 -0.0028487683116424044 0.0024980629729403087 0.00834646087643452 0.9972342588644578 -0.020844740657006543
 -0.0002905513501238272 -0.0028487852809612898 0.00032563523383859314 0.004603976558865253 0.9972342588644578 -0.020844740657006543 0.0024983834510568276 0.00834641272016584
0.037515631513130004 0.002727280677515888 0.01007958447551854 0.9969324352969179 -0.02505168066729199 0.00041085528172365613 0.005526738493602127 -0.0003605431002008275 -0.00342310994830136
 0.9969324352969179 -0.02505168066729199 0.0027280566725624627 0.010079492181451525 -0.00036023585637607653 -0.0034230934574541803 0.00040752840849748935 0.005527139443826889
 0.00041085528172365613 0.005526738493602127 -0.00036023585637607653 -0.0034230934574541803 0.002727447164472235 0.010080070250181683 0.9969324445254333 -0.025051179524344547
 -0.0003605431002008275 -0.00342310994830136 0.00040752840849748935 0.005527139443826889 0.9969324445254333 -0.025051179524344547 0.0027279082583993946 0.010080007083909204
0.043768236765320004 0.0029730547331561154 0.01183174680710714 0.996607963531263 -0.029272593708052227 0.0005038912244874809 0.006450436511303938 -0.0004388660591182186 -0.00399849395751478
 0.996607963531263 -0.029272593708052227 0.0029741102682041263 0.011831630859886835 -0.00043844967055069276 -0.003998479660869701 0.0004993635969607721 0.006450972599621402
 0.0005038912244874809 0.006450436511303938 -0.00043844967055069276 -0.003998479660869701 0.0029732808814674095 0.01183231213830152 0.9966079757643037 -0.029272009154447488
 -0.0004388660591182186 -0.00399849395751478 0.0004993635969607721 0.006450972599621402 0.9966079757643037 -0.029272009154447488 0.002973908005093551 0.01183223207060761
0.050020842017509996 0.0032356007436156746 0.013602048918327989 0.9962605273291046 -0.03350797594538579 0.0006071540604773262 0.007374666084821223 -0.0005256246475027587 -0.004574787394441481
 0.9962605273291046 -0.03350797594538579 0.0032369786149013336 0.013601906484994562 -0.0005250829567432543 -0.004574777190960157 0.0006012404514272909 0.007375363079570145
 0.0006071540604773262 0.007374666084821223 -0.0005250829567432543 -0.004574777190960157 0.0032358956473030063 0.013602693206103505 0.9962605429897489 -0.03350730797004975
 -0.0005256246475027587 -0.004574787394441481 0.0006012404514272909 0.007375363079570145 0.9962605429897489 -0.03350730797004975 0.0032367141920139355 0.013602594305242898
0.055454545454549996 0.003477637389372147 0.015154894312860365 0.9959397037121944 -0.03720040351713444 0.0007052744480382571 0.008178184992309104 -0.0006079506745742253 -0.005076227685480139
 0.9959397037121944 -0.03720040351713444 0.003479330117939747 0.01515472642307088 -0.0006072870710246754 -0.005076222723592581 0.0006980057434732203 0.008179044607523658
 0.0007052744480382571 0.008178184992309104 -0.0006072870710246754 -0.005076222723592581 0.003477999422017586 0.015155606668852375 0.9959397226956915 -0.037199663024775925
 -0.0006079506745742253 -0.005076227685480139 0.0006980057434732203 0.008179044607523658 0.9959397226956915 -0.037199663024775925 0.003479004925650676 0.015155489801745048
0.056273447269699996 0.0035152473801855545 0.015390064203280155 0.9958898162437763 -0.037757827166876576 0.0007207420601121491 0.008299303000873302 -0.000620921055149977 -0.005151842551565337
 0.9958898162437763 -0.037757827166876576 0.003516990360513811 0.015389892272472108 -0.0006202380339709229 -0.005151838523452773 0.0007132569742011819 0.008300189067201867
 0.0007207420601121491 0.008299303000873302 -0.0006202380339709229 -0.005151838523452773 0.0035156201244613697 0.015390786770707529 0.9958898357559893 -0.03775707574266657
 -0.000620921055149977 -0.005151842551565337 0.0007132569742011819 0.008300189067201867 0.9958898357559893 -0.03775707574266657 0.003516655465495398 0.015390667065253844
0.06252605252188 0.00381232080432459 0.0171954081865856 0.9954955195968433 -0.04202209296724824 0.0008447516642739613 0.009224216036817523 -0.0007248552170393939 -0.005729512062747408
 0.9954955195968433 -0.04202209296724824 0.003814471649856509 0.017195203566648897 -0.0007240149635989329 -0.005729516475419439 0.000835509349247152 0.009225321762482702
 0.0008447516642739613 0.009224216036817523 -0.0007240149635989329 -0.005729516475419439 0.0038127804675303382 0.017196208267933964 0.9954955433880445 -0.04202125806147565
 -0.0007248552170393939 -0.005729512062747408 0.000835509349247152 0.009225321762482702 0.9954955433880445 -0.04202125806147565 0.0038140579704017343 0.017196065747126663
0.06877865777407 0.004127144850794125 0.01901772388150625 0.9950773269379843 -0.04630067933058319 0.0009792773310163937 0.010149268094669435 -0.0008375247648074478 -0.006307647795240263
 0.9950773269379843 -0.04630067933058319 0.004129746307750685 0.019017483198583526 -0.000836511501752777 -0.006307663097254841 0.0009680917953180208 0.010150626515760002
 0.0009792773310163937 0.010149268094669435 -0.000836511501752777 -0.006307663097254841 0.004127700502743305 0.01901860062640073 0.9950773554376164 -0.04629976089971921
 -0.0008375247648074478 -0.006307647795240263 0.0009680917953180208 0.010150626515760002 0.9950773554376164 -0.04629976089971921 0.0041292455301206 0.019018433240351195
0.07503126302626001 0.004460041101715408 0.020856672539051407 0.9946349283992905 -0.05059346182721541 0.0011244113984608302 0.011074316921280672 -0.0009590249612216727 -0.00688610016107552
 0.9946349283992905 -0.05059346182721541 0.004463135912986205 0.020856392234810967 -0.0009578230346313157 -0.006886128984043845 0.001111096433415259 0.011075963547688266
 0.0011244113984608302 0.011074316921280672 -0.0009578230346313157 -0.006886128984043845 0.00446070180425731 0.020857625010652643 0.9946349620402125 -0.05059245981731348
 -0.0009590249612216727 -0.00688610016107552 0.001111096433415259 0.011075963547688266 0.9946349620402125 -0.05059245981731348 0.004462539721809689 0.020857430670314845
0.08128386827845 0.0048113288999070145 0.02271192747350703 0.9941680149925914 -0.05490029173976733 0.001280243956953812 0.011999215597812155 -0.0010894486244051953 -0.007464717664902296
 0.9941680149925914 -0.05490029173976733 0.0048149598107234065 0.02271160380266746 -0.0010880425030219615 -0.00746476282338209 0.0012646131626987002 0.012001188438441961
 0.001280243956953812 0.011999215597812155 -0.0010880425030219615 -0.00746476282338209 0.004812103706174496 0.02271295464588492 0.9941680542114957 -0.05489920608802651
 -0.0010894486244051953 -0.007464717664902296 0.0012646131626987002 0.012001188438441961 0.9941680542114957 -0.05489920608802651 0.004814259889546419 0.02271273122282584
0.08753647353064001 0.0051813253178332784 0.02458316981478583 0.9936762788672068 -0.05922100026886151 0.0014468627266989273 0.01292381288507051 -0.0012288860453965092 -0.008043346601968655
 0.9936762788672068 -0.05922100026886151 0.005185535081850056 0.024582798842446525 -0.0012272603204641272 -0.008043411093324309 0.0014287295409796722 0.012926152472600306
 0.0014468627266989273 0.01292381288507051 -0.0012272603204641272 -0.008043411093324309 0.005182223271360513 0.024584270568328515 0.993676324104102 -0.05921983090684773
 -0.0012288860453965092 -0.008043346601968655 0.0014287295409796722 0.012926152472600306 0.993676324104102 -0.05921983090684773 0.0051847231120847 0.02458401589425842
0.09378907878283 0.005570345096519308 0.026470085452807247 0.9931594135405487 -0.06355540155329496 0.0016243529401452465 0.013847953480307812 -0.0013774248998718248 -0.008621830850850234
 0.9931594135405487 -0.06355540155329496 0.005575176481988274 0.026469663051407737 -0.0013755642851881115 -0.00862191785508453 0.001603530669880485 0.01385070289546003
 0.0016243529401452465 0.013847953480307812 -0.0013755642851881115 -0.00862191785508453 0.005571375231204382 0.02647125857966312 0.9931594652401986 -0.06355414840040657
 -0.0013774248998718248 -0.008621830850850234 0.001603530669880485 0.01385070289546003 0.9931594652401986 -0.06355414840040657 0.005574244143499528 0.026470970445718226
0.100041684035 0.005978700564106765 0.028372362825827866 0.9926171141120814 -0.06790329485314318 0.0018127972267672904 0.014771478211485636 -0.0015351501567961085 -0.009200011734904012
 0.9926171141120814 -0.06790329485314318 0.005984196359409365 0.02837188467200479 -0.0015330394890251669 -0.009200124614483789 0.001789099081455543 0.014774683106921753
 0.0018127972267672904 0.014771478211485636 -0.0015330394890251669 -0.009200124614483789 0.005979871902998967 0.0283736070215767 0.9926171727233566 -0.0679019578236445
 -0.0015351501567961085 -0.009200011734904012 0.001789099081455543 0.014774683106921753 0.9926171727233566 -0.0679019578236445 0.0059831353301704636 0.02837328317736913
0.1059090909091 0.006379760472066564 0.030171142941410344 0.9920848215423919 -0.07199541197515702 0.0019996660336504954 0.015637403055234464 -0.0016915867455034028 -0.009742153586801208
 0.9920848215423919 -0.07199541197515702 0.0063859186840715485 0.030170608360317427 -0.0016892277484688175 -0.009742293968116825 0.0019730992451924894 0.015641079202678425
 0.0019996660336504954 0.015637403055234464 -0.0016892277484688175 -0.009742293968116825 0.006381072512336979 0.03017245255932668 0.9920848870524649 -0.07199399614894185
 -0.0016915867455034028 -0.009742153586801208 0.0019730992451924894 0.015641079202678425 0.9920848870524649 -0.07199399614894185 0.006384729321794536 0.030172093120113205
0.1062942892872 0.006406701537393404 0.03028969124274118 0.9920490774634804 -0.07226446620599362 0.0020122754997893527 0.01569422419908083 -0.001702143984007161 -0.009777727922857568
 0.9920490774634804 -0.07226446620599362 0.006412904556914513 0.030289152813811393 -0.001699768223234065 -0.009777870222485703 0.0019855146270951907 0.01569793282262719
 0.0020122754997893527 0.01569422419908083 -0.001699768223234065 -0.009777870222485703 0.006408023092252984 0.030291005111139243 0.992049143440596 -0.07226304520316912
 -0.001702143984007161 -0.009777727922857568 0.0019855146270951907 0.01569793282262719 0.992049143440596 -0.07226304520316912 0.006411706513041281 0.030290643263593053
0.11254689453939999 0.006854655212739536 0.03222175961578483 0.9914550024518302 -0.07663868968021516 0.0022228648447868917 0.01661602498395836 -0.0018784856516286298 -0.010354815369807095
 0.9914550024518302 -0.07663868968021516 0.006861608302523206 0.03222115618606914 -0.001875829882025276 -0.010354990816181357 0.0021928543676259012 0.01662028820128922
 0.0022228648447868917 0.01661602498395836 -0.001875829882025276 -0.010354990816181357 0.006856135982985812 0.03222314166416731 0.991455076254001 -0.07663718459972217
 -0.0018784856516286298 -0.010354815369807095 0.0021928543676259012 0.01662028820128922 0.991455076254001 -0.07663718459972217 0.006860264918324199 0.03222273947607655
0.11879949979160001 0.00732286604588574 0.03416825547180414 0.9908345900943744 -0.08102572835723075 0.0024446394090522415 0.017536710640989668 -0.0020642514339756614 -0.010931107279280827
 0.9908345900943744 -0.08102572835723075 0.007330612089575145 0.03416758210850587 -0.002061300864735401 -0.010931319780824846 0.0024111924643426693 0.017541581957698803
 0.0024446394090522415 0.017536710640989668 -0.002061300864735401 -0.010931319780824846 0.0073245150181693855 0.034169704109448765 0.9908346721867283 -0.08102413908765746
 -0.0020642514339756614 -0.010931107279280827 0.0024111924643426693 0.017541581957698803 0.9908346721867283 -0.08102413908765746 0.007329115037775023 0.03416925919766063
0.1250521050438 0.007811635626232425 0.03612886417416235 0.9901875437499313 -0.08542533511082616 0.0026776702922247475 0.018456107879648593 -0.002259514510256303 -0.01150643408523593
 0.9901875437499313 -0.08542533511082616 0.007820217550380197 0.0361281157331781 -0.0022562544764450545 -0.011506687731758189 0.002640600070998986 0.018461643462572376
 0.0026776702922247475 0.018456107879648593 -0.0022562544764450545 -0.011506687731758189 0.007813461772943793 0.036130377714512336 0.9901876346033494 -0.08542366153027711
 -0.002259514510256303 -0.01150643408523593 0.002640600070998986 0.018461643462572376 0.9901876346033494 -0.08542366153027711 0.007818558501981274 0.03612988764800547
0.131304710296 0.008321262543329624 0.038103268313890847 0.9895135692961431 -0.08983725322529651 0.002922025437470724 0.01937404013648265 -0.002464344864462252 -0.012080623448984393
 0.9895135692961431 -0.08983725322529651 0.00833072332308556 0.0381024394351934 -0.0024607608281377483 -0.012080922511402378 0.0028811452262653445 0.01938029883445726
 0.002922025437470724 0.01937404013648265 -0.0024607608281377483 -0.012080922511402378 0.0083232748221486 0.038104844969925694 0.9895136693882478 -0.08983549520498893
 -0.002464344864462252 -0.012080623448984393 0.0028811452262653445 0.01938029883445726 0.9895136693882478 -0.08983549520498893 0.008328893947953268 0.03810430726748053
0.1375573155481 0.008736997743140597 0.03983156774191361 0.9889274669979372 -0.09400151616289489 0.0031478132800850968 0.020263975093100794 -0.002648905692643857 -0.01262713672137555
 0.9889274669979372 -0.09400151616289489 0.008747382738847542 0.03983066935167124 -0.002644976150575047 -0.012627481627685462 0.003103024225643764 0.02027094900559568
 0.0031478132800850968 0.020263975093100794 -0.002644976150575047 -0.012627481627685462 0.008739204705782109 0.03983320557438229 0.9889275767503509 -0.09399967365740558
 -0.002648905692643857 -0.01262713672137555 0.003103024225643764 0.02027094900559568 0.9889275767503509 -0.09399967365740558 0.008745375213729555 0.03983263448812432
0.1438099208003 0.009167389145947506 0.04155033610965186 0.9883206559934573 -0.09815483275316378 0.0033827353500062766 0.021150151502932375 -0.0028408577362255966 -0.013170229862408128
 0.9883206559934573 -0.09815483275316378 0.00917874175406368 0.041549363891262264 -0.002836567078745533 -0.013170624818529921 0.0033338667432295725 0.02115789461814943
 0.0033827353500062766 0.021150151502932375 -0.002836567078745533 -0.013170624818529921 0.00916979965920054 0.04155203325924282 0.9883207758808122 -0.09815290564316914
 -0.0028408577362255966 -0.013170229862408128 0.0033338667432295725 0.02115789461814943 0.9883207758808122 -0.09815290564316914 0.009176547836262707 0.041551427479082345
0.1500625260525 0.009612279247726644 0.04325941816070243 0.9876932982033172 -0.10229708838919237 0.0036267083009642914 0.02203247294399593 -0.003040120323046582 -0.013709812210854882
 0.9876932982033172 -0.10229708838919237 0.009624642924260355 0.04325836757410921 -0.003035452978442732 -0.013710261591398373 0.003573590539090429 0.02204104121255823
 0.0036267083009642914 0.02203247294399593 -0.003035452978442732 -0.013710261591398373 0.009614902160561906 0.04326117269267937 0.987693428705356 -0.10229507655034697
 -0.003040120323046582 -0.013709812210854882 0.003573590539090429 0.02204104121255823 0.987693428705356 -0.10229507655034697 0.009622254374802231 0.0432605308101595
0.15631513130469998 0.010071509347917626 0.044958663308055945 0.9870455564598652 -0.10642816911402828 0.0038796477605984774 0.022910844680238306 -0.0032466117471598634 -0.014245795084453288
 0.9870455564598652 -0.10642816911402828 0.010084927609814881 0.04495752958655241 -0.0032415521823520067 -0.014246303431880804 0.0038221123659737182 0.022920295992595624
