! Created with skrf 1.8.0 (http://scikit-rf.org).
# GHz S RI R 50.0 
!freq ReS11 ImS11 ReS12 ImS12 ReS13 ImS13
! ReS14 ImS14
! ReS21 ImS21 ReS22 ImS22 ReS23 ImS23
! ReS24 ImS24
! ReS31 ImS31 ReS32 ImS32 ReS33 ImS33
! ReS34 ImS34
! ReS41 ImS41 ReS42 ImS42 ReS43 ImS43
! ReS44 ImS44
!
0.0 0.001379957296852 0.0 0.9986200426832 0.0 5.295732892775e-05 0.0 -5.295732857345e-05 6.485402292887021e-21
 0.9986200426832 0.0 0.001379957296901 0.0 -5.295732857471e-05 6.485402293041327e-21 5.295732893103e-05 0.0
 5.295732892775e-05 0.0 -5.295732857471e-05 6.485402293041327e-21 0.001379957306833 0.0 0.9986200426932 0.0
 -5.295732857345e-05 6.485402292887021e-21 5.295732893103e-05 0.0 0.9986200426932 0.0 0.001379957306816 0.0
0.005 0.0014842984064777711 0.0011291344515915853 0.9984881172278688 -0.002891196675865259 7.390513265156012e-05 0.0005839909279305453 -7.186324706788453e-05 -0.0003665433617632504
 0.9984881172278688 -0.002891196675865259 0.0014842909023053761 0.0011291387664383449 -7.186312341829745e-05 -0.00036654321074642985 7.395985113073267e-05 0.000583970211154262
 7.390513265156012e-05 0.0005839909279305453 -7.186312341829745e-05 -0.00036654321074642985 0.0014842990921490288 0.0011292012733762876 0.9984881175630693 -0.0028911296072569957
 -7.186324706788453e-05 -0.0003665433617632504 7.395985113073267e-05 0.000583970211154262 0.9984881175630693 -0.0028911296072569957 0.001484290888408859 0.0011292060850151843
0.006252605252188 0.0015115392836243125 0.0014158779336902825 0.9984534805315527 -0.0036147227432814393 7.980440860039238e-05 0.0007302803103268116 -7.71417984269545e-05 -0.0004586605565424855
 0.9984534805315527 -0.0036147227432814393 0.0015115275536249303 0.0014158833889792294 -7.71416064645649e-05 -0.00045866036912717203 7.988990306094587e-05 0.0007302534068629245
 7.980440860039238e-05 0.0007302803103268116 -7.71416064645649e-05 -0.00045866036912717203 0.0015115402924961066 0.0014159614327808683 0.998453480992076 -0.0036146389314506864
 -7.71417984269545e-05 -0.0004586605565424855 7.988990306094587e-05 0.0007302534068629245 0.998453480992076 -0.0036146389314506864 0.0015115274681221584 0.0014159675200472513
0.01250521050438 0.0016542153185434606 0.0028616059678029278 0.998270981460772 -0.007230371953050742 0.00011318517548785566 0.001460973854569048 -0.00010677334849091985 -0.0009196253334228714
 0.998270981460772 -0.007230371953050742 0.0016541684889156889 0.002861617489337003 -0.0001067725973875563 -0.000919624972772286 0.00011352615945424818 0.001460909263356978
 0.00011318517548785566 0.001460973854569048 -0.0001067725973875563 -0.000919624972772286 0.001654218797060371 0.0028617726825455234 0.9982709827424575 -0.007230204575521595
 -0.00010677334849091985 -0.0009196253334228714 0.00011352615945424818 0.001460909263356978 0.9982709827424575 -0.007230204575521595 0.0016541675838813007 0.002861785584968467
0.01875781575657 0.0018082709075566816 0.00432812388771709 0.9980723371496049 -0.010855774413375607 0.00015317370567488346 0.0021925880930742927 -0.00014193761305533953 -0.0013822464887653053
 0.9980723371496049 -0.010855774413375607 0.0018081656977869498 0.004328142113647923 -0.00014193594554227776 -0.0013822459697040823 0.00015393981257387 0.002192473108758957
 0.00015317370567488346 0.0021925880930742927 -0.00014193594554227776 -0.0013822459697040823 0.001808278317137762 0.004328373677933598 0.9980723396072839 -0.010855523582131566
 -0.00014193761305533953 -0.0013822464887653053 0.00015393981257387 0.002192473108758957 0.9980723396072839 -0.010855523582131566 0.001808163230457764 0.004328394174038718
0.02501042100875 0.0019739845138822005 0.0058134066514335175 0.9978573317638606 -0.014492714053393543 0.00019984476753757082 0.0029251718891004624 -0.0001827178935461498 -0.0018463305493852866
 0.9978573317638606 -0.014492714053393543 0.0019737977016658454 0.005813432237309942 -0.0001827149590416175 -0.0018463298878923307 0.0002012057764530643 0.002924991955320719
 0.00019984476753757082 0.0029251718891004624 -0.0001827149590416175 -0.0018463298878923307 0.001973997323787791 0.005813739400966694 0.9978573357530016 -0.014492379865588944
 -0.0001827178935461498 -0.0018463305493852866 0.0002012057764530643 0.002924991955320719 0.9978573357530016 -0.014492379865588944 0.0019737929258504226 0.005813768309756681
0.03126302626094 0.002151622984580207 0.007316425682820469 0.9976257375686395 -0.018141970617352135 0.0002532736307951547 0.003658707256066206 -0.00022919541912684086 -0.002311746708289446
 0.9976257375686395 -0.018141970617352135 0.0021513313920532165 0.007316459299145913 -0.00022919087255035293 -0.0023117459215335583 0.0002553996260941703 0.003658445953943834
 0.0002532736307951547 0.003658707256066206 -0.00022919087255035293 -0.0023117459215335583 0.0021516426666609587 0.007316841302492932 0.9976257434392327 -0.018141553152209694
 -0.00022919541912684086 -0.002311746708289446 0.0002553996260941703 0.003658445953943834 0.9976257434392327 -0.018141553152209694 0.0021513235529005037 0.007316879481116365
0.037515631513130004 0.0023414475569594902 0.008836520597452956 0.9973773210848605 -0.021803947882674035 0.00031353541513142613 0.004393150049992635 -0.0002814499384433786 -0.0027783861301583
 0.9973773210848605 -0.021803947882674035 0.0023410280419231696 0.00883656292797967 -0.0002814434396070823 -0.002778385236467407 0.0003165968610538883 0.0043927890783460105
 0.00031353541513142613 0.004393150049992635 -0.0002814434396070823 -0.002778385236467407 0.0023414755926771504 0.008837019012819069 0.9973773291881266 -0.021803447213497553
 -0.0002814499384433786 -0.0027783861301583 0.0003165968610538883 0.0043927890783460105 0.9973773291881266 -0.021803447213497553 0.0023410163828439775 0.008837067355247264
0.043768236765320004 0.0025437162005744595 0.010373208017156167 0.9971118455802201 -0.02547886478230985 0.0003807047830918847 0.005128442349258615 -0.000339559942154773 -0.0032461495650566207
 0.9971118455802201 -0.02547886478230985 0.0025431456487006957 0.010373259757629967 -0.00033955115532927093 -0.0032461485838895195 0.0003848725613571474 0.0051279615021911805
 0.0003807047830918847 0.005128442349258615 -0.00033955115532927093 -0.0032461485838895195 0.0025437540760903372 0.010373789155626563 0.9971118562636391 -0.025478280989130297
 -0.000339559942154773 -0.0032461495650566207 0.0003848725613571474 0.0051279615021911805 0.9971118562636391 -0.025478280989130297 0.0025431294068306884 0.010373848591766691
0.050020842017509996 0.0027586847008239236 0.011926102530147543 0.9968290723039829 -0.029166834379549852 0.0004548557608925296 0.005864517554682154 -0.0004036027470495599 -0.003714942241643568
 0.9968290723039829 -0.029166834379549852 0.002757940019235923 0.01192616438733507 -0.00040359134064728297 -0.0037149411935406156 0.00046030118956299674 0.005863894698101951
 0.0004548557608925296 0.005864517554682154 -0.00040359134064728297 -0.0037149411935406156 0.002758733909881146 0.011926766321190977 0.9968290859137515 -0.02916616754860989
 -0.0004036027470495599 -0.003714942241643568 0.00046030118956299674 0.005863894698101951 0.9968290859137515 -0.02916616754860989 0.0027579184288547185 0.011926837816280737
0.055454545454549996 0.0029560101162462633 0.013288522638837482 0.996569099445716 -0.03238242900725876 0.0005250220481158665 0.006504768645889697 -0.00046413523234221775 -0.00412310104642423
 0.996569099445716 -0.03238242900725876 0.0029550953685102085 0.013288593869640758 -0.00046412128318793833 -0.004123099957659247 0.0005317172685713361 0.006504002887576937
 0.0005250220481158665 0.006504768645889697 -0.00046412128318793833 -0.004123099957659247 0.0029560703927624483 0.013289258207352573 0.9965691158778784 -0.032381690083189314
 -0.00046413523234221775 -0.00412310104642423 0.0005317172685713361 0.006504002887576937 0.9965691158778784 -0.032381690083189314 0.0029550685056380778 0.013289340992902682
0.056273447269699996 0.0029866072299783736 0.013494877911012339 0.9965287612114474 -0.032867902583213295 0.0005360616104594591 0.0066013029067897785 -0.00047365452447679674 -0.004184671344389166
 0.9965287612114474 -0.032867902583213295 0.0029856653411604807 0.013494950601828658 -0.00047364017082220686 -0.004184670250949728 0.0005429564500554246 0.006600513954418618
 0.0005360616104594591 0.0066013029067897785 -0.00047364017082220686 -0.004184670250949728 0.002986669273015025 0.013495624292078493 0.9965287780914145 -0.03286715280087753
 -0.00047365452447679674 -0.004184671344389166 0.0005429564500554246 0.006600513954418618 0.9965287780914145 -0.03286715280087753 0.0029856376330696568 0.013495708846095765
0.06252605252188 0.00322773665755391 0.015079245797890132 0.9962106714298884 -0.03658206940677556 0.0006243947304645856 0.007338720845345259 -0.0005497902951519068 -0.004655244650458495
 0.9962106714298884 -0.03658206940677556 0.0032265744933422887 0.015079330048699033 -0.0005497726702515901 -0.004655243534295462 0.0006329111837585917 0.007337739734424868
 0.0006243947304645856 0.007338720845345259 -0.0005497726702515901 -0.004655243534295462 0.003227813041404956 0.015080074711660719 0.9962106919210787 -0.036581236761993076
 -0.0005497902951519068 -0.004655244650458495 0.0006329111837585917 0.007337739734424868 0.9962106919210787 -0.036581236761993076 0.003226539895346891 0.015080173359050205
0.06877865777407 0.003482324723459195 0.01667894298404155 0.995874561591146 -0.04030930161507765 0.0007199265708462149 0.008076689838160072 -0.0006320839089539637 -0.005126569699410346
 0.995874561591146 -0.04030930161507765 0.0034809192197730824 0.016679039530128306 -0.0006320626924102999 -0.005126568584104886 0.0007302372763877465 0.008075488505136756
 0.0007199265708462149 0.008076689838160072 -0.0006320626924102999 -0.005126568584104886 0.0034824169627651943 0.01667985436948219 0.9958745860327824 -0.040308386208058225
 -0.0006320839089539637 -0.005126569699410346 0.0007302372763877465 0.008075488505136756 0.9958745860327824 -0.040308386208058225 0.0034808769578623558 0.016679968178983037
0.07503126302626001 0.0037506221295914217 0.018293723344595683 0.9955201900840007 -0.04404954073802686 0.0008227275565755205 0.008815124898359842 -0.0007206080129163776 -0.005598553276946814
 0.9955201900840007 -0.04404954073802686 0.003748950220508037 0.018293832929785227 -0.0007205828877117676 -0.005598552187026282 0.000835005578563023 0.008813673254503215
 0.0008227275565755205 0.008815124898359842 -0.0007205828877117676 -0.005598552187026282 0.0037507317451223746 0.018294717147409472 0.995520218811812 -0.04404854266950756
 -0.0007206080129163776 -0.005598553276946814 0.000835005578563023 0.008813673254503215 0.995520218811812 -0.04404854266950756 0.003748899518307527 0.018294847222016818
0.08128386827845 0.004032878579533832 0.01992335247967747 0.9951473152586672 -0.04780270837059566 0.0009328670168228928 0.00955393792938116 -0.0008154340121940347 -0.006071101073491783
 0.9951473152586672 -0.04780270837059566 0.0040309171918309645 0.01992347585608057 -0.0008154046645697846 -0.006071100034386383 0.0009472858317142299 0.00955220383651415
 0.0009328670168228928 0.00955393792938116 -0.0008154046645697846 -0.006071100034386383 0.004033007099730036 0.019924428644180495 0.9951473486059046 -0.047801627749695666
 -0.0008154340121940347 -0.006071101073491783 0.0009472858317142299 0.00955220383651415 0.9951473486059046 -0.047801627749695666 0.004030857272503016 0.019924576121163565
0.08753647353064001 0.004329342784318889 0.021567603998833312 0.9947556955989096 -0.05156870983428316 0.001050413116829671 0.01029303796670063 -0.0009166320265642501 -0.00654411744879906
 0.9947556955989096 -0.05156870983428316 0.004327068831990479 0.02156774192671292 -0.0009165981459081111 -0.006544116486815266 0.0010671465977317603 0.010290987213012154
 0.001050413116829671 0.01029303796670063 -0.0009165981459081111 -0.006544116486815266 0.004329491744505844 0.02156876247062167 0.994755733895969 -0.051567546775546175
 -0.0009166320265642501 -0.00654411744879906 0.0010671465977317603 0.010290987213012154 0.994755733895969 -0.051567546775546175 0.00432699891794485 0.021568928521881452
0.09378907878283 0.0046402624450013665 0.023226256870165562 0.9943450898745596 -0.05534743677682915 0.001175432792781081 0.011032331352846701 -0.0010242708428588145 -0.007017505266087443
 0.9943450898745596 -0.05534743677682915 0.004637652823417793 0.02322641011807544 -0.0010242321215720204 -0.007017504408377824 0.0011946551913981141 0.011029927628905574
 0.001175432792781081 0.011032331352846701 -0.0010242321215720204 -0.007017504408377824 0.004640433387305918 0.023227497595897203 0.9943451334481924 -0.05534619140019532
 -0.0010242708428588145 -0.007017505266087443 0.0011946551913981141 0.011029927628905574 0.9943451334481924 -0.05534619140019532 0.004637572136940575 0.0232276834282578
0.100041684035 0.004965884217587298 0.02489909347224933 0.9939152572786786 -0.059138769072621784 0.0013079916873882653 0.011771721865736424 -0.0011384178650591774 -0.00749116577589316
 0.9939152572786786 -0.059138769072621784 0.004962915798266788 0.024899262817178497 -0.0011383739984750245 -0.007491165050424443 0.0013298776144303002 0.011768926740625423
 0.0013079916873882653 0.011771721865736424 -0.0011383739984750245 -0.007491165050424443 0.004966078691695087 0.02490041639785351 0.9939153064527176 -0.05913744150483276
 -0.0011384178650591774 -0.00749116577589316 0.0013298776144303002 0.011768926740625423 0.9939153064527176 -0.05913744150483276 0.0049628235625756864 0.0249006232536242
0.1059090909091 0.005285035886097817 0.026481581005017525 0.9934942043251752 -0.06270788063999014 0.0014392982697952663 0.012465561899856996 -0.0012515106639853096 -0.00793580448226857
 0.9934942043251752 -0.06270788063999014 0.005281709711501253 0.026481766169843053 -0.0012514616944774954 -0.007935803907035677 0.001463842743647528 0.012462362623197859
 0.0014392982697952663 0.012465561899856996 -0.0012514616944774954 -0.007935803907035677 0.005285253857581806 0.02648298101678097 0.9934942590455449 -0.06270647606553359
 -0.0012515106639853096 -0.00793580448226857 0.001463842743647528 0.012462362623197859 0.9934942590455449 -0.06270647606553359 0.005281605932470163 0.02648320876291083
0.1062942892872 0.005306453667268012 0.026585898132652858 0.9934659575563257 -0.0629425762393553 0.001448154086588765 0.012511110819572483 -0.0012591390621826462 -0.007964998530300962
 0.9934659575563257 -0.0629425762393553 0.005303103291788356 0.026586084360462742 -0.0012590897484233746 -0.00796499796583131 0.0014728784907921478 0.012507883717251816
 0.001448154086588765 0.012511110819572483 -0.0012590897484233746 -0.00796499796583131 0.00530667322941548 0.02658730320328877 0.9934660126505761 -0.0629411666137946
 -0.0012591390621826462 -0.007964998530300962 0.0014728784907921478 0.012507883717251816 0.9934660126505761 -0.0629411666137946 0.005302998731011614 0.026587532360996886
0.11254689453939999 0.005662215211228341 0.028286456005164443 0.9929969511248887 -0.06675871852000173 0.0015959828571186464 0.013250397145552803 -0.0013864989144824732 -0.008438901320549329
 0.9929969511248887 -0.06675871852000173 0.0056584596859334335 0.028286659911058415 -0.001386443854402579 -0.008438900946601833 0.0016237210024320845 0.013246695321569045
 0.0015959828571186464 0.013250397145552803 -0.001386443854402579 -0.008438900946601833 0.00566246142509615 0.02828794316522901 0.9929970124558409 -0.06675722697625337
 -0.0013864989144824732 -0.008438901320549329 0.0016237210024320845 0.013246695321569045 0.9929970124558409 -0.06675722697625337 0.005658342026153508 0.028288195940403972
0.11879949979160001 0.0060334120553230475 0.030000552193464727 0.9925079991904224 -0.07058704772154156 0.001751539383944816 0.01398947745623486 -0.0015205603583815998 -0.0089127701342038
 0.9925079991904224 -0.07058704772154156 0.006029228145008894 0.030000774582805975 -0.0015204992554075085 -0.008912769981047215 0.001782466825985848 0.013985255974553515
 0.001751539383944816 0.01398947745623486 -0.0015204992554075085 -0.008912769981047215 0.0060336864912164286 0.03000212138819032 0.99250806706997 -0.07058547440351476
 -0.0015205603583815998 -0.0089127701342038 0.001782466825985848 0.013985255974553515 0.99250806706997 -0.07058547440351476 0.006029096614650286 0.030002399134410548
0.1250521050438 0.0064202861240062956 0.03172797106659531 0.991998863859645 -0.07442740786575999 0.001914883508239212 0.01472824610218305 -0.0016613847302791717 -0.009386499123341007
 0.991998863859645 -0.07442740786575999 0.006415650546739886 0.0317282127557412 -0.0016613172903989497 -0.009386499221966113 0.0019491760694218924 0.014723457812393467
 0.001914883508239212 0.01472824610218305 -0.0016613172903989497 -0.009386499221966113 0.006420590359684331 0.03172962223769167 0.9919989385961906 -0.07442575292580048
 -0.0016613847302791717 -0.009386499123341007 0.0019491760694218924 0.014723457812393467 0.9919989385961906 -0.07442575292580048 0.00641550437727307 0.031729926347795145
0.131304710296 0.006823077986364176 0.03346849569781279 0.9914693082502684 -0.07827963572072451 0.0020860734655300042 0.015466595221146608 -0.0018090317095008478 -0.009859980583522365
 0.9914693082502684 -0.07827963572072451 0.006817967407025825 0.03346875751521269 -0.001808957641085664 -0.009859980965633206 0.0021239072088781014 0.015461190735962395
 0.0020860734655300042 0.015466595221146608 -0.001808957641085664 -0.009859980965633206 0.006823413606066246 0.03347022878595195 0.9914693901471998 -0.07827789931666286
 -0.0018090317095008478 -0.009859980583522365 0.0021239072088781014 0.015461190735962395 0.9914693901471998 -0.07827789931666286 0.006817805833378657 0.03347056069332115
0.1375573155481 0.007145775999213429 0.03499466063050386 0.9910153799064457 -0.08191622729196141 0.002242220060460073 0.016181215248055787 -0.001940569867492772 -0.010309947685544755
 0.9910153799064457 -0.08191622729196141 0.007140163765723333 0.03499493763906954 -0.0019404885769116376 -0.01030994833953549 0.0022836793761073374 0.016175205582837335
 0.002242220060460073 0.016181215248055787 -0.0019404885769116376 -0.01030994833953549 0.007146143775861636 0.03499647591930782 0.9910154692826044 -0.08191440957178214
 -0.001940569867492772 -0.010309947685544755 0.0022836793761073374 0.016175205582837335 0.9910154692826044 -0.08191440957178214 0.0071399868148495456 0.034996830617002136
0.1438099208003 0.007479698458607052 0.03651345036252064 0.9905457381098921 -0.08554427437640343 0.0024046688777093405 0.016893374571212455 -0.002077382100649931 -0.010757634909876426
 0.9905457381098921 -0.08554427437640343 0.007473560614906572 0.03651374310458048 -0.002077293245443862 -0.010757635869886832 0.0024499135845531916 0.016886714918986318
 0.0024046688777093405 0.016893374571212455 -0.002077293245443862 -0.010757635869886832 0.007480099840711494 0.0365153478451718 0.9905458352650203 -0.08554237550589806
 -0.002077382100649931 -0.010757634909876426 0.0024499135845531916 0.016886714918986318 0.9905458352650203 -0.08554237550589806 0.00747336767188217 0.03651572642307614
0.1500625260525 0.0078247368612999 0.038024757731452107 0.9900604948984241 -0.08916370704481227 0.0025733689515967033 0.01760301480163389 -0.0022194183596627205 -0.011202985553984123
 0.9900604948984241 -0.08916370704481227 0.007818049372164834 0.03802506680215735 -0.0022193215960484482 -0.011202986855791915 0.002622558032272795 0.017595658728472203
 0.0025733689515967033 0.01760301480163389 -0.0022193215960484482 -0.011202986855791915 0.007825173294340034 0.03802673740338247 0.9900606001277403 -0.08916172719562922
 -0.0022194183596627205 -0.011202985553984123 0.002622558032272795 0.017595658728472203 0.9900606001277403 -0.08916172719562922 0.007817839835509176 0.038027141023320526
0.15631513130469998 0.008180782040171308 0.03952847890506453 0.9895597627632384 -0.09277445522287774 0.0027482687760174173 0.018310078448396664 -0.002366628035104278 -0.011645944042905546
