! Created with skrf 1.8.0 (http://scikit-rf.org).
# GHz S RI R 50.0 
!freq ReS11 ImS11 ReS12 ImS12 ReS13 ImS13
! ReS14 ImS14
! ReS21 ImS21 ReS22 ImS22 ReS23 ImS23
! ReS24 ImS24
! ReS31 ImS31 ReS32 ImS32 ReS33 ImS33
! ReS34 ImS34
! ReS41 ImS41 ReS42 ImS42 ReS43 ImS43
! ReS44 ImS44
!
0.0 0.001311027853405 0.0 0.9986889721466 0.0 5.028702750804e-05 0.0 -5.028702753087e-05 6.158384730431477e-21
 0.9986889721466 0.0 0.001311027853384 0.0 -5.028702753025e-05 6.158384730355549e-21 5.028702750869e-05 0.0
 5.028702750804e-05 0.0 -5.028702753025e-05 6.158384730355549e-21 0.001311027850188 0.0 0.9986889721434 0.0
 -5.028702753087e-05 6.158384730431477e-21 5.028702750869e-05 0.0 0.9986889721434 0.0 0.0013110278502 0.0
0.005 0.001409994215382061 0.0010708934396731328 0.9985638462151507 -0.002747116790301499 7.045166595213118e-05 0.0005663383955427109 -6.837593735816766e-05 -0.00035345102221635567
 0.9985638462151507 -0.002747116790301499 0.0014100098673795176 0.0010708842697101939 -6.83744691885217e-05 -0.00035344986130643116 7.035783129553408e-05 0.0005663740095226885
 7.045166595213118e-05 0.0005663383955427109 -6.83744691885217e-05 -0.00035344986130643116 0.0014099954672129472 0.0010709599250406225 0.9985638465531321 -0.002747049731565193
 -6.837593735816766e-05 -0.00035345102221635567 7.035783129553408e-05 0.0005663740095226885 0.9985638465531321 -0.002747049731565193 0.0014100092851605168 0.0010709518956662028
0.006252605252188 0.0014357784136742454 0.00134286294926185 0.9985310652569066 -0.003434595293512246 7.612514452943834e-05 0.0007082020156586649 -7.340532098439453e-05 -0.00044228359410208347
 0.9985310652569066 -0.003434595293512246 0.0014358028810928425 0.0013428513249120525 -7.340303662630236e-05 -0.00044228216158105263 7.597853387127452e-05 0.0007082482404835482
 7.612514452943834e-05 0.0007082020156586649 -7.340303662630236e-05 -0.00044228216158105263 0.0014357802987350053 0.0013429460382049217 0.9985310657131905 -0.0034345114807461034
 -7.340532098439453e-05 -0.00044228359410208347 7.597853387127452e-05 0.0007082482404835482 0.9985310657131905 -0.0034345114807461034 0.0014358018984537589 0.0013429358479086686
0.01250521050438 0.0015705127106361593 0.0027141848964493177 0.9983587500929694 -0.006870163738187922 0.00010819863782770387 0.001416780989786498 -0.00010152384241289236 -0.0008868322154012549
 0.9983587500929694 -0.006870163738187922 0.001570610415964807 0.0027141600185644835 -0.00010151484254483376 -0.0008868295518475307 0.0001076139212172089 0.0014168916696077353
 0.00010819863782770387 0.001416780989786498 -0.00010151484254483376 -0.0008868295518475307 0.0015705196794121537 0.0027143507602164375 0.9983587513533765 -0.006869996329111667
 -0.00010152384241289236 -0.0008868322154012549 0.0001076139212172089 0.0014168916696077353 0.9983587513533765 -0.006869996329111667 0.0015706059226405064 0.0027143288474673695
0.01875781575657 0.001715489905504045 0.004105363885035647 0.9981718376544068 -0.010315105033231632 0.0001465753569417447 0.0021262464390734755 -0.0001347216963943703 -0.0013330111490461793
 0.9981718376544068 -0.010315105033231632 0.0017157094655777226 0.004105324003169658 -0.00013470162946087043 -0.0013330074883628122 0.00014526169378308967 0.002126442941118613
 0.0001465753569417447 0.0021262464390734755 -0.00013470162946087043 -0.0013330074883628122 0.0017155051463026876 0.004105612275508106 0.9981718400637404 -0.010314854106615314
 -0.0001347216963943703 -0.0013330111490461793 0.00014526169378308967 0.002126442941118613 0.9981718400637404 -0.010314854106615314 0.0017156989283481868 0.004105577031720256
0.02501042100875 0.001870963328110956 0.005514485141786082 0.9979701325220511 -0.0137711250472766 0.00019132452924892942 0.002836653299155189 -0.00017307595858375785 -0.0017806366475808608
 0.9979701325220511 -0.0137711250472766 0.001871353268534538 0.005514428402634942 -0.00017304052553013843 -0.0017806322606209117 0.00018899085522315994 0.002836960001152904
 0.00019132452924892942 0.002836653299155189 -0.00017304052553013843 -0.0017806322606209117 0.0018709900295733129 0.005514815804562444 0.99797013642987 -0.013770790617468224
 -0.00017307595858375785 -0.0017806366475808608 0.00018899085522315994 0.002836960001152904 0.99797013642987 -0.013770790617468224 0.001871334152434171 0.005514765560792829
0.03126302626094 0.002037175616679988 0.006940581375809339 0.9977534281135725 -0.017238975494947326 0.0002425161933572034 0.0035479904109727263 -0.00021666184722064617 -0.0022295873755123325
 0.9977534281135725 -0.017238975494947326 0.002037784397105747 0.0069405058267907735 -0.00021660679232422077 -0.0022295825706639743 0.00023887094200076133 0.0035484347178580352
 0.0002425161933572034 0.0035479904109727263 -0.00021660679232422077 -0.0022295825706639743 0.0020372169661815286 0.0069409940053297625 0.9977534338725202 -0.017238557556491625
 -0.00021666184722064617 -0.0022295873755123325 0.00023887094200076133 0.0035484347178580352 0.9977534338725202 -0.017238557556491625 0.0020377541615811774 0.006940927035891838
0.037515631513130004 0.0022143643343113884 0.008383035596475727 0.9975215124176885 -0.020719051068285862 0.00030022046412494277 0.004260220878963359 -0.000265553296788988 -0.0026797640356569924
 0.9975215124176885 -0.020719051068285862 0.002215240364633957 0.008382939187527142 -0.0002654744029354455 -0.002679759159007717 0.00029497143664330684 0.0042608332540465645
 0.00030022046412494277 0.004260220878963359 -0.0002654744029354455 -0.002679759159007717 0.002214423514898513 0.008383529850498755 0.9975215203809917 -0.020718549580940326
 -0.000265553296788988 -0.0026797640356569924 0.00029497143664330684 0.0042608332540465645 0.9975215203809917 -0.020718549580940326 0.002215196459261173 0.008383444375291873
0.043768236765320004 0.0024027641401160346 0.009841399400765841 0.9972741702860266 -0.024211571091824428 0.00036450719991376076 0.004973294341754462 -0.0003198231725514563 -0.0031310770861104177
 0.9972741702860266 -0.024211571091824428 0.0024039557927389723 0.009841279985500277 -0.000319716258382541 -0.0031310725215151283 0.0003573614976500458 0.004974108342463633
 0.00036450719991376076 0.004973294341754462 -0.000319716258382541 -0.0031310725215151283 0.0024028443331458294 0.009841974879869804 0.9972741808106695 -0.024210986000554716
 -0.0003198231725514563 -0.0031310770861104177 0.0003573614976500458 0.004974108342463633 0.9972741808106695 -0.024210986000554716 0.0024038956593372468 0.009841869066048555
0.050020842017509996 0.0026026078121513655 0.011315317839369357 0.9970111845795817 -0.02771665459680031 0.00043544581072420084 0.005687152042588842 -0.00037954335788335526 -0.003583441659122499
 0.9970111845795817 -0.02771665459680031 0.002604163432214471 0.01131517317579074 -0.00037940427589414126 -0.0035834378282158285 0.0004261098013677678 0.005688204358061899
 0.00043544581072420084 0.005687152042588842 -0.00037940427589414126 -0.0035834378282158285 0.0026027121957561536 0.011315974099074855 0.9970111980257205 -0.027715985819024753
 -0.00037954335788335526 -0.003583441659122499 0.0004261098013677678 0.005688204358061899 0.9970111980257205 -0.027715985819024753 0.002604084503178837 0.011315846062440302
0.055454545454549996 0.0027857516055033293 0.01260859716984559 0.9967697678850722 -0.030772925762187125 0.0005025492236470275 0.006308102803283047 -0.0004359234396453616 -0.003977349905261553
 0.9967697678850722 -0.030772925762187125 0.0027876627722404003 0.01260842867002157 -0.0004357530598853302 -0.003977347083713944 0.0004910707251754307 0.0063093944787815
 0.0005025492236470275 0.006308102803283047 -0.0004357530598853302 -0.003977347083713944 0.0027858795900105246 0.012609323222094522 0.9967697841663014 -0.030772184181752458
 -0.0004359234396453616 -0.003977349905261553 0.0004910707251754307 0.0063093944787815 0.9967697841663014 -0.030772184181752458 0.00278756541667521 0.012609174303885135
0.056273447269699996 0.002814126779370401 0.012804492569147183 0.9967323368264251 -0.031234357108721286 0.0005131051288016684 0.006401729305747749 -0.00044478478497863064 -0.0040367750755067565
 0.9967323368264251 -0.031234357108721286 0.002816094694068161 0.012804320320104519 -0.0004446094202295879 -0.004036772437704514 0.0005012844324007568 0.006403059795344413
 0.0005131051288016684 0.006401729305747749 -0.0004446094202295879 -0.004036772437704514 0.0028142585283486387 0.012805229105749884 0.9967323535586907 -0.031233604548002638
 -0.00044478478497863064 -0.0040367750755067565 0.0005012844324007568 0.006403059795344413 0.9967323535586907 -0.031233604548002638 0.0028159943921746955 0.012805076911826974
0.06252605252188 0.0030375514174978474 0.014308661579387056 0.9964374076466236 -0.03476469086203277 0.0005975533096171991 0.007116956900775024 -0.000515617437263179 -0.004490995473000934
 0.9964374076466236 -0.03476469086203277 0.0030399799448204024 0.0143084593127793 -0.0005154017064895105 -0.004490994525484133 0.0005829527978525552 0.007118608633020668
 0.0005975533096171991 0.007116956900775024 -0.0005154017064895105 -0.004490994525484133 0.003037713703425155 0.014309477834907663 0.9964374280350473 -0.034763854402570925
 -0.000515617437263179 -0.004490995473000934 0.0005829527978525552 0.007118608633020668 0.9964374280350473 -0.034763854402570925 0.0030398556830826175 0.014309299499809339
0.06877865777407 0.0032731112182081954 0.015827587108505112 0.9961261770525228 -0.03830763682565745 0.0006888577501039285 0.00783276185332861 -0.000592110335389412 -0.004946020989871717
 0.9961261770525228 -0.03830763682565745 0.0032760486750764385 0.015827352297294348 -0.000591850186298153 -0.004946022267567759 0.0006711815548250971 0.00783478114505576
 0.0006888577501039285 0.00783276185332861 -0.000591850186298153 -0.004946022267567759 0.0032733072074550675 0.0158284824731996 0.9961262014715607 -0.038306716329215874
 -0.000592110335389412 -0.004946020989871717 0.0006711815548250971 0.00783478114505576 0.9961262014715607 -0.038306716329215874 0.0032758978550864225 0.015828275964339476
0.07503126302626001 0.0035210348796764906 0.017361047984383825 0.9957984246724363 -0.04186315230646885 0.0007870850173353415 0.00854906795925164 -0.0006743315128621038 -0.005401769247341165
 0.9957984246724363 -0.04186315230646885 0.0035245295898783213 0.01736077800632193 -0.000674022923662844 -0.0054017733229036234 0.0007660365456835145 0.008551504414715501
 0.0007870850173353415 0.00854906795925164 -0.000674022923662844 -0.0054017733229036234 0.0035212677336142295 0.017362021788553755 0.995798453502899 -0.04186214762007757
 -0.0006743315128621038 -0.005401769247341165 0.0007660365456835145 0.008551504414715501 0.995798453502899 -0.04186214762007757 0.003524349602176466 0.01736178502504366
0.08128386827845 0.0037815503510848516 0.018908834517283462 0.9954539299316079 -0.045431176002290755 0.0008923007829010094 0.009265796122792935 -0.0007623479852452712 -0.005858157009950575
 0.9954539299316079 -0.045431176002290755 0.0037856506531192278 0.018908526654528295 -0.0007619869642832202 -0.005858164493723562 0.0008675827381740353 0.009268702672746541
 0.0008923007829010094 0.009265796122792935 -0.0007619869642832202 -0.005858164493723562 0.0037818232251460413 0.01890988603419316 0.9954539635605579 -0.04543008695481546
 -0.0007623479852452712 -0.005858157009950575 0.0008675827381740353 0.009268702672746541 0.9954539635605579 -0.04543008695481546 0.0037854388764959174 0.018909616887148945
0.08753647353064001 0.004054884845796199 0.02047074497942565 0.9950924722037303 -0.049011631470294074 0.0010045697618741205 0.009982864596321625 -0.0008562257146101229 -0.006315099946664123
 0.9950924722037303 -0.049011631470294074 0.0040596391006782005 0.020470396417865966 -0.0008558083001391553 -0.006315111486657643 0.0009758841681364474 0.00998629753688021
 0.0010045697618741205 0.009982864596321625 -0.0008558083001391553 -0.006315111486657643 0.004055200888648608 0.020471873427943505 0.9950925110252268 -0.049010457869340524
 -0.0008562257146101229 -0.006315099946664123 0.0009758841681364474 0.00998629753688021 0.9950925110252268 -0.049010457869340524 0.0040593929014389706 0.020471569720479598
0.09378907878283 0.004341264832745375 0.022046583079197813 0.9947138309428794 -0.052604429603158705 0.0011239556538725438 0.01070018914786542 -0.0009560295707525306 -0.006772512466463068
 0.9947138309428794 -0.052604429603158705 0.00434672143159254 0.022046190907567455 -0.0009555518307431521 -0.006772528748310391 0.001091003884432122 0.010704208179156523
 0.0011239556538725438 0.01070018914786542 -0.0009555518307431521 -0.006772528748310391 0.004341627185715102 0.022047787616632945 0.9947138753586635 -0.052603171241770746
 -0.0009560295707525306 -0.006772512466463068 0.001091003884432122 0.010704208179156523 0.9947138753586635 -0.052603171241770746 0.004346438163522095 0.022047447123686642
0.100041684035 0.004640916012824062 0.023636156111322068 0.9943177858031865 -0.05620947043162968 0.0012505210862291895 0.01141768318758236 -0.0010618232897449652 -0.007230307597343128
 0.9943177858031865 -0.05620947043162968 0.004647123384683792 0.0236357173200906 -0.0010612813218106617 -0.0072303293442645715 0.0012130038949007616 0.01142235145206596
 0.0012505210862291895 0.01141768318758236 -0.0010612813218106617 -0.0072303293442645715 0.004641327808987396 0.02363743583775046 0.9943178362231918 -0.0562081270835676
 -0.0010618232897449652 -0.007230307597343128 0.0012130038949007616 0.01142235145206596 0.9943178362231918 -0.0562081270835676 0.0046468003881675 0.023637056285714053
0.1059090909091 0.004934377214783387 0.025140123845407664 0.9939301147987308 -0.059603456079358144 0.001375873830758203 0.012091050275137006 -0.0011666029314520837 -0.007660168989075201
 0.9939301147987308 -0.059603456079358144 0.004941333193631197 0.02513963848083012 -0.0011659971695721595 -0.007660196555598442 0.0013337997920907859 0.012096388303293541
 0.001375873830758203 0.012091050275137006 -0.0011659971695721595 -0.007660196555598442 0.004934838249129494 0.025141473258276936 0.9939301712334109 -0.059602032757994354
 -0.0011666029314520837 -0.007660168989075201 0.0013337997920907859 0.012096388303293541 0.9939301712334109 -0.059602032757994354 0.0049409704848307825 0.025141054941734152
0.1062942892872 0.00495406328281048 0.025239273563196808 0.9939041167476829 -0.05982664447359695 0.0013843275578513802 0.012135257865743999 -0.0011736694309099887 -0.007688396896305139
 0.9939041167476829 -0.05982664447359695 0.004961069902352269 0.025238785043281597 -0.0011730593622271464 -0.007688424869066759 0.0013419451128741761 0.012140641986246844
 0.0013843275578513802 0.012135257865743999 -0.0011730593622271464 -0.007688424869066759 0.004954527645749749 0.025240627520093397 0.9939041735903935 -0.05982521589427334
 -0.0011736694309099887 -0.007688396896305139 0.0013419451128741761 0.012140641986246844 0.9939041735903935 -0.05982521589427334 0.00496070450375945 0.025240206586103677
0.11254689453939999 0.0052809306918467054 0.02685574604901707 0.993472604152732 -0.06345583375803877 0.0015254353845411384 0.012852822145042091 -0.0012916293316062655 -0.008146690387488175
 0.993472604152732 -0.06345583375803877 0.005288785086870064 0.026855204590167388 -0.001290947318888126 -0.008146725384351712 0.0014778873046507376 0.012858992262384706
 0.0015254353845411384 0.012852822145042091 -0.001290947318888126 -0.008146725384351712 0.0052814507352058945 0.02685717321789207 0.9934726678460216 -0.06345431968556024
 -0.0012916293316062655 -0.008146690387488175 0.0014778873046507376 0.012858992262384706 0.9934726678460216 -0.06345431968556024 0.005288374598595186 0.02685670852898483
0.11879949979160001 0.005621741390061893 0.02848538447824613 0.9930230289061032 -0.06709691261746485 0.001673903644054946 0.013570282864926755 -0.0014157630612446088 -0.008605096510927123
 0.9930230289061032 -0.06709691261746485 0.005630492149733984 0.028484786767241237 -0.0014150052908145348 -0.008605139367598059 0.0016208890369087648 0.01357731267509194
 0.001673903644054946 0.013570282864926755 -0.0014150052908145348 -0.008605139367598059 0.0056223202165493 0.028486883780786544 0.9930230998877606 -0.0670953127721351
 -0.0014157630612446088 -0.008605096510927123 0.0016208890369087648 0.01357731267509194 0.9930230998877606 -0.0670953127721351 0.0056300338692216656 0.028486372912771875
0.1250521050438 0.0059767175728478355 0.030127999394974056 0.9925551725029601 -0.07074974831235004 0.0018297901220734227 0.014287544790094113 -0.0015461293740188138 -0.009063522089763782
 0.9925551725029601 -0.07074974831235004 0.005986413355190141 0.030127342013588562 -0.0015452920618520853 -0.0090635736793348 0.001771007624275309 0.014295511580998448
 0.0018297901220734227 0.014287544790094113 -0.0015452920618520853 -0.0090635736793348 0.005977358273294049 0.030129569691575767 0.9925552512214083 -0.07074806239784961
 -0.0015461293740188138 -0.009063522089763782 0.001771007624275309 0.014295511580998448 0.9925552512214083 -0.07074806239784961 0.00598590456458738 0.030129010167678043
0.131304710296 0.006346080419714476 0.03178340044807297 0.9920688171389762 -0.0744142015278586 0.0019931512580157393 0.015004510656588614 -0.0016827856608317654 -0.009521872302540731
 0.9920688171389762 -0.0744142015278586 0.006356769959675619 0.03178267987070469 -0.001681865052605146 -0.009521933535433885 0.0019282990770504286 0.015013495344337366
 0.0019931512580157393 0.015004510656588614 -0.001681865052605146 -0.009521933535433885 0.006346786072170373 0.03178504054006909 0.9920689040537476 -0.07441242922876258
 -0.0016827856608317654 -0.009521872302540731 0.0019282990770504286 0.015013495344337366 0.9920689040537476 -0.07441242922876258 0.006356207925577493 0.0317844298292046
0.1375573155481 0.0066398708907642896 0.033234572794013796 0.9916539500515905 -0.07787323844385155 0.0021421705087303136 0.01569869515214434 -0.001803996694831009 -0.009957622519919522
 0.9916539500515905 -0.07787323844385155 0.0066516056157019604 0.033233800212508297 -0.0018029871723345945 -0.00995769334865321 0.0020711011191296832 0.015708676802052544
 0.0021421705087303136 0.01569869515214434 -0.0018029871723345945 -0.00995769334865321 0.006640643995870996 0.03323628171936197 0.9916540455367845 -0.0778713795680028
 -0.001803996694831009 -0.009957622519919522 0.0020711011191296832 0.015708676802052544 0.9916540455367845 -0.0778713795680028 0.006650988330142231 0.033235631720483376
0.1438099208003 0.006943798339064725 0.03467897336007069 0.9912248452031394 -0.08132440311873027 0.002297225185807774 0.016390607411500967 -0.0019300751275965456 -0.010391322395824635
 0.9912248452031394 -0.08132440311873027 0.006956627486689282 0.034678146156472446 -0.0019289726433846291 -0.010391403705397493 0.002219664116004385 0.016401659187078973
 0.002297225185807774 0.016390607411500967 -0.0019289726433846291 -0.010391403705397493 0.006944641852021001 0.03468074988701283 0.9912249497171589 -0.08132245735627666
 -0.0019300751275965456 -0.010391322395824635 0.002219664116004385 0.016401659187078973 0.9912249497171589 -0.08132245735627666 0.006955952324629056 0.034680058974385725
0.1500625260525 0.007257766939543599 0.03611650779181317 0.9907816016057349 -0.08476763680369695 0.002458269361271113 0.017080194273690417 -0.0020609769025625056 -0.010822921916943484
 0.9907816016057349 -0.08476763680369695 0.007271739834712538 0.03611562319833714 -0.00205977741519615 -0.010823014627689292 0.002373943528386848 0.017092391982348697
 0.002458269361271113 0.017080194273690417 -0.00205977741519615 -0.010823014627689292 0.0072586837964104655 0.03611835064202697 0.9907817156166113 -0.08476560382988053
 -0.0020609769025625056 -0.010822921916943484 0.002373943528386848 0.017092391982348697 0.9907817156166113 -0.08476560382988053 0.007271004164390274 0.036117617079243755
0.15631513130469998 0.007581680318965814 0.03754708473709554 0.990324318628942 -0.08820288043859582 0.002625256645522975 0.017767403341515015 -0.0021966574943423386 -0.011252372041151454
