! Created with skrf 1.8.0 (http://scikit-rf.org).
# GHz S RI R 50.0 
!freq ReS11 ImS11 ReS12 ImS12 ReS13 ImS13
! ReS14 ImS14
! ReS21 ImS21 ReS22 ImS22 ReS23 ImS23
! ReS24 ImS24
! ReS31 ImS31 ReS32 ImS32 ReS33 ImS33
! ReS34 ImS34
! ReS41 ImS41 ReS42 ImS42 ReS43 ImS43
! ReS44 ImS44
!
0.0 0.001407043665623 0.0 0.998592956323 0.0 5.422390761027e-05 0.0 -5.422390747617e-05 6.640513472795383e-21
 0.998592956323 0.0 0.001407043665609 0.0 -5.422390747657e-05 6.640513472844369e-21 5.422390760899e-05 0.0
 5.422390761027e-05 0.0 -5.422390747657e-05 6.640513472844369e-21 0.001407043659949 0.0 0.9985929563173 0.0
 -5.422390747617e-05 6.640513472795383e-21 5.422390760899e-05 0.0 0.9985929563173 0.0 0.001407043659918 0.0
0.005 0.0015135416702061438 0.001147959744537948 0.998458275688317 -0.0029480417564625287 7.625083038116769e-05 0.0006177200606751619 -7.398059906620858e-05 -0.0003842573601512188
 0.998458275688317 -0.0029480417564625287 0.0015135396463799389 0.0011479609858463353 -7.398219608344513e-05 -0.0003842586224697269 7.624589011484883e-05 0.0006177217490569879
 7.625083038116769e-05 0.0006177200606751619 -7.398219608344513e-05 -0.0003842586224697269 0.0015135410112793314 0.0011480274247771863 0.9984582760263347 -0.0029479746902489486
 -7.398059906620858e-05 -0.0003842573601512188 7.624589011484883e-05 0.0006177217490569879 0.9984582760263347 -0.0029479746902489486 0.001513540974364911 0.0011480274308021366
0.006252605252188 0.0015413673432227268 0.001439496115839637 0.9984228814950005 -0.0036857914029153507 8.247996271250545e-05 0.000772447079772504 -7.951078847063903e-05 -0.0004808295331105161
 0.9984228814950005 -0.0036857914029153507 0.0015413641795430787 0.0014394977347203487 -7.951327330293804e-05 -0.0004808310905664299 8.247224163212278e-05 0.0007724493016767857
 8.247996271250545e-05 0.000772447079772504 -7.951327330293804e-05 -0.0004808310905664299 0.0015413662581434014 0.0014395806997135445 0.9984228819688118 -0.00368570758764107
 -7.951078847063903e-05 -0.0004808295331105161 8.247224163212278e-05 0.0007724493016767857 0.9984228819688118 -0.00368570758764107 0.0015413662011277724 0.0014395807654794283
0.01250521050438 0.0016872333719344533 0.0029094292240211747 0.9982361948025478 -0.0073725098375683395 0.00011786552973946339 0.0015452364466151814 -0.00011063156304101807 -0.000964079054565035
 0.9982361948025478 -0.0073725098375683395 0.0016872207357480457 0.0029094331587528614 -0.0001106413525335385 -0.0009640819472149375 0.00011783466813218911 0.0015452420640648472
 0.00011786552973946339 0.0015452364466151814 -0.0001106413525335385 -0.0009640819472149375 0.0016872284486625247 0.00290959817111445 0.9982361961133762 -0.007372342423810163
 -0.00011063156304101807 -0.000964079054565035 0.00011783466813218911 0.0015452420640648472 0.9982361961133762 -0.007372342423810163 0.001687228229689666 0.00290959889291569
0.01875781575657 0.0018449386929619749 0.004400551349825681 0.9980326795906213 -0.011069154516866752 0.00016045914150492285 0.0023189233218894843 -0.00014767790364531003 -0.0014490394154224552
 0.9980326795906213 -0.011069154516866752 0.0018449102911312024 0.004400558376900039 -0.00014769973074566173 -0.0014490433827915438 0.0001603896458353674 0.002318933685227289
 0.00016045914150492285 0.0023189233218894843 -0.00014769973074566173 -0.0014490433827915438 0.0018449271922370064 0.004400804551186162 0.9980326821176287 -0.011068903578137343
 -0.00014767790364531003 -0.0014490394154224552 0.0001603896458353674 0.002318933685227289 0.9980326821176287 -0.011068903578137343 0.001844926716115157 0.004400806547356558
0.02501042100875 0.0020147726452400994 0.005910791259662997 0.9978121112797762 -0.014777539727528415 0.00021034045624083366 0.003093560742665953 -0.0001907387850293756 -0.0019354990866524344
 0.9978121112797762 -0.014777539727528415 0.002014722195129195 0.005910802236308695 -0.00019077732522518483 -0.0019355038251309183 0.00021021672591985824 0.003093577382835534
 0.00021034045624083366 0.003093560742665953 -0.00019077732522518483 -0.0019355038251309183 0.0020147518167290606 0.005911128631594048 0.9978121153990916 -0.01477720527902659
 -0.0001907387850293756 -0.0019354990866524344 0.00021021672591985824 0.003093577382835534 0.9978121153990916 -0.01477720527902659 0.0020147510009235993 0.005911132552363852
0.03126302626094 0.0021970125072586846 0.007439094095071014 0.9975742530842386 -0.018498455163415403 0.00026758977043811705 0.003869128533861846 -0.00023990085552354294 -0.0024233151918265083
 0.9975742530842386 -0.018498455163415403 0.002196933736221883 0.007439109960397263 -0.0002399607367665334 -0.002423320354075852 0.0002673960869363087 0.003869153166429623
 0.00026758977043811705 0.003869128533861846 -0.0002399607367665334 -0.002423320354075852 0.002196979591802462 0.007439515563256795 0.9975742591733554 -0.018498037177790697
 -0.00023990085552354294 -0.0024233151918265083 0.0002673960869363087 0.003869153166429623 0.9975742591733554 -0.018498037177790697 0.002196978368427191 0.007439522091649593
0.037515631513130004 0.002391929689881223 0.00898478044965853 0.9973188623662937 -0.022232306791919995 0.00033228723972986894 0.004645577876139156 -0.00029524910317728397 -0.002912368934579994
 0.9973188623662937 -0.022232306791919995 0.0023918163352886455 0.008984802225771289 -0.00029533491099477047 -0.0029123741293543897 0.0003320077606228343 0.004645612405312799
 0.00033228723972986894 0.004645577876139156 -0.00029533491099477047 -0.0029123741293543897 0.0023918819209012877 0.00898528592340721 0.9973188708074542 -0.022231805225007933
 -0.00029524910317728397 -0.002912368934579994 0.0003320077606228343 0.004645612405312799 0.9973188708074542 -0.022231805225007933 0.0023918802380045994 0.008985295775844697
0.043768236765320004 0.002599792141475019 0.010547351285009561 0.9970456932033451 -0.025979311873798552 0.00040451251973240256 0.005422844864566101 -0.0003568671005350476 -0.0034025520335453077
 0.9970456932033451 -0.025979311873798552 0.0025996379514270055 0.010547380078232483 -0.0003569833810948584 -0.003402556825648823 0.00040413127539191545 0.005422891387235959
 0.00040451251973240256 0.005422844864566101 -0.0003569833810948584 -0.003402556825648823 0.002599726742104712 0.010547940670027919 0.9970457043821006 -0.025978726652033414
 -0.0003568671005350476 -0.0034025520335453077 0.00040413127539191545 0.005422891387235959 0.9970457043821006 -0.025978726652033414 0.0025997245649889557 0.010547954596788662
0.050020842017509996 0.002820865465315862 0.012126407344605194 0.9967544976692886 -0.02973957948326065 0.0004843445551484332 0.006200856094904594 -0.0004248371000396889 -0.0038937611303598487
 0.9967544976692886 -0.02973957948326065 0.0028206641994791472 0.012126444346410562 -0.00042498836212496863 -0.0038937650406297257 0.000483845446320091 0.006200916904685005
 0.0004843445551484332 0.006200856094904594 -0.00042498836212496863 -0.0038937650406297257 0.002820779647415329 0.01212708053586354 0.9967545119752874 -0.02973891051083102
 -0.0004248371000396889 -0.0038937611303598487 0.000483845446320091 0.006200916904685005 0.9967545119752874 -0.02973891051083102 0.0028207769600553526 0.012127099321299569
0.055454545454549996 0.0030239186764479667 0.013511778524818649 0.9964866068047027 -0.03301816943506354 0.0005599592972514211 0.006877513735196179 -0.0004891266039996897 -0.004321391339560735
 0.9964866068047027 -0.03301816943506354 0.003023671442431516 0.013511823694676609 -0.0004893118998086119 -0.0043213940602234765 0.000559344584273562 0.006877588979480395
 0.0005599592972514211 0.006877513735196179 -0.0004893118998086119 -0.0043213940602234765 0.003023812841248057 0.013512524452793658 0.9964866241492268 -0.033017427585722486
 -0.0004891266039996897 -0.004321391339560735 0.000559344584273562 0.006877588979480395 0.9964866241492268 -0.033017427585722486 0.0030238097127784705 0.013512548124223412
0.056273447269699996 0.0030554135011607777 0.013721609570998123 0.9964450265832347 -0.03351315002482802 0.0005718614317919254 0.006979531417498942 -0.0004992400646374424 -0.004385895031733776
 0.9964450265832347 -0.03351315002482802 0.0030551589321628912 0.01372165605906535 -0.0004994307810596123 -0.004385897537066698 0.0005712282281233813 0.006979609008840409
 0.0005718614317919254 0.006979531417498942 -0.0004994307810596123 -0.004385897537066698 0.0030553044655476282 0.013722366451523624 0.9964450444118572 -0.033512397185176734
 -0.0004992400646374424 -0.004385895031733776 0.0005712282281233813 0.006979609008840409 0.9964450444118572 -0.033512397185176734 0.0030553012717142265 0.01372239091432946
0.06252605252188 0.0033036986441691944 0.015332657361196891 0.996117029998017 -0.03730001691364504 0.000667140262346874 0.007758785435973154 -0.0005801556633774148 -0.00487885320898783
 0.996117029998017 -0.03730001691364504 0.0033033845584915468 0.015332714700402893 -0.0005803902718935372 -0.004878853742358687 0.0006663566012107022 0.007758882508289939
 0.000667140262346874 0.007758785435973154 -0.0005803902718935372 -0.004878853742358687 0.0033035635792926336 0.015333497806710726 0.9961170517503027 -0.03729918006490991
 -0.0005801556633774148 -0.00487885320898783 0.0006663566012107022 0.007758882508289939 0.9961170517503027 -0.03729918006490991 0.0033035599038787914 0.015333528800164236
0.06877865777407 0.00356598201894899 0.016959275593424004 0.995770257547201 -0.04110013948650144 0.0007702570887980143 0.008538528410039378 -0.0006676622486100983 -0.005372534896020154
 0.995770257547201 -0.04110013948650144 0.003565602218436139 0.016959345236804833 -0.0006679451526058834 -0.0053725328465241895 0.0007693064745447613 0.00853864787189534
 0.0007702570887980143 0.008538528410039378 -0.0006679451526058834 -0.0053725328465241895 0.0035658181001888044 0.016960199463178637 0.9957702836305828 -0.041099218471001335
 -0.0006676622486100983 -0.005372534896020154 0.0007693064745447613 0.00853864787189534 0.9957702836305828 -0.041099218471001335 0.003565813990552152 0.016960237875209398
0.07503126302626001 0.0038425235693259397 0.018601206402807127 0.9954044587104318 -0.04491345116657836 0.0008812867958355226 0.009318666825153643 -0.0007618368207753331 -0.005866838523268023
 0.9954044587104318 -0.04491345116657836 0.003842071872816483 0.018601289892493097 -0.0007621723897938413 -0.0058668332361451825 0.0008801525993295839 0.009318811798464582
 0.0008812867958355226 0.009318666825153643 -0.0007621723897938413 -0.0058668332361451825 0.0038423279589002916 0.018602213548491155 0.9954044895400062 -0.044912445802141904
 -0.0007618368207753331 -0.005866838523268023 0.0008801525993295839 0.009318811798464582 0.9954044895400062 -0.044912445802141904 0.0038423234860300464 0.018602260301877976
0.08128386827845 0.004133582096066868 0.02025820371039145 0.9950193830294987 -0.04873986487775144 0.0010003030307580813 0.010099103770925691 -0.0008627549854598967 -0.006361661345847146
 0.9950193830294987 -0.04873986487775144 0.004133052340510766 0.02025830267852277 -0.0008631475554680096 -0.006361652122545614 0.0009989684889312022 0.010099277595214323
 0.0010003030307580813 0.010099103770925691 -0.0008631475554680096 -0.006361652122545614 0.004133351941644741 0.02025929397036109 0.9950194190281414 -0.048738774963810155
 -0.0008627549854598967 -0.006361661345847146 0.0009989684889312022 0.010099277595214323 0.9950194190281414 -0.048738774963810155 0.004133347201727073 0.020259350022760234
0.08753647353064001 0.004439415257273176 0.021930029437075064 0.9946147802907815 -0.05257927677730593 0.0011273781269552834 0.010879739209194985 -0.0009704909052503244 -0.006856899185169793
 0.9946147802907815 -0.05257927677730593 0.00443880129953463 0.021930145606670497 -0.0009709447789231832 -0.006856885283381423 0.0011258263426816852 0.010879945445890535
 0.0011273781269552834 0.010879739209194985 -0.0009709447789231832 -0.006856885283381423 0.004439147691415174 0.021931202641285244 0.9946148218897152 -0.052578102090235876
 -0.0009704909052503244 -0.006856899185169793 0.0011258263426816852 0.010879945445890535 0.9946148218897152 -0.052578102090235876 0.004439142806836461 0.021931268985303166
0.09378907878283 0.004760279546635948 0.023616450799046868 0.9941904006872806 -0.05643156891038109 0.0012625830304600271 0.01166047016518711 -0.0010851172474556125 -0.007352446250765431
 0.9941904006872806 -0.05643156891038109 0.004759575265152573 0.023616585984880024 -0.001085636694284743 -0.0073524268844873475 0.0012607969725228908 0.011660712601934735
 0.0012625830304600271 0.01166047016518711 -0.001085636694284743 -0.0073524268844873475 0.004759971686541871 0.02361770676588972 0.9941904483272667 -0.05643030920712352
 -0.0010851172474556125 -0.007352446250765431 0.0012607969725228908 0.011660712601934735 0.9941904483272667 -0.05643030920712352 0.004759966807550617 0.023617784429097156
0.100041684035 0.005096430253084708 0.02531723832472679 0.9937459949655383 -0.06029661114670586 0.001405987228193816 0.012441190870332297 -0.0012067051288772055 -0.007848195013696263
 0.9937459949655383 -0.06029661114670586 0.005095629549499706 0.02531739443412102 -0.0012072943852513205 -0.007848169353282442 0.0014039497313389302 0.012441473525381072
 0.001405987228193816 0.012441190870332297 -0.0012072943852513205 -0.007848169353282442 0.005096079199514718 0.02531857686050524 0.9937460490972694 -0.060295266165610595
 -0.0012067051288772055 -0.007848195013696263 0.0014039497313389302 0.012441473525381072 0.9937460490972694 -0.060295266165610595 0.005096074505409973 0.025318666905469307
0.1059090909091 0.00542600117228674 0.026926110080956953 0.9933105323703468 -0.06393501409303119 0.0015480745813079393 0.013173708553448822 -0.001327195842307262 -0.008313488695592992
 0.9933105323703468 -0.06393501409303119 0.0054251044626296395 0.02692628764273867 -0.0013278544310041977 -0.008313456335428003 0.001545785404756569 0.01317403281292945
 0.0015480745813079393 0.013173708553448822 -0.0013278544310041977 -0.008313456335428003 0.005425606934451182 0.02692752591609203 0.9933105930136338 -0.06393358882951522
 -0.001327195842307262 -0.008313488695592992 0.001545785404756569 0.01317403281292945 0.9933105930136338 -0.06393358882951522 0.005425602604086001 0.02692762857751443
0.1062942892872 0.005448121407976881 0.02703216435739901 0.9932813145625832 -0.0641742626352597 0.0015576586772682198 0.013221792875544725 -0.0013353240584803318 -0.008344036113087708
 0.9932813145625832 -0.0641742626352597 0.0054472182089396635 0.027032343391036925 -0.0013359873276980374 -0.008344003285316632 0.0015553524422870363 0.013222120002128546
 0.0015576586772682198 0.013221792875544725 -0.0013359873276980374 -0.008344003285316632 0.005447724244890075 0.02703358526071359 0.9932813756477701 -0.06417283209217527
 -0.0013353240584803318 -0.008344036113087708 0.0015553524422870363 0.013222120002128546 0.9932813756477701 -0.06417283209217527 0.005447719945505384 0.027033688784909585
0.11254689453939999 0.005815605722297115 0.02876100192113435 0.9927961117356563 -0.06806437289961632 0.0017176637351026547 0.01400216513918769 -0.001471041878089461 -0.008839858291430134
 0.9927961117356563 -0.06806437289961632 0.005814593981223365 0.028761205973847462 -0.001471783330297327 -0.008839817379573197 0.0017150713292195198 0.014002541229981083
 0.0017176637351026547 0.01400216513918769 -0.001471783330297327 -0.008839817379573197 0.005815159515958705 0.02876250497935047 0.9927961802471494 -0.06806285649192434
 -0.001471041878089461 -0.008839858291430134 0.0017150713292195198 0.014002541229981083 0.9927961802471494 -0.06806285649192434 0.005815155853171505 0.028762623115119203
0.11879949979160001 0.006199134516376087 0.030503523824448032 0.9922901396862921 -0.07196678269966503 0.0018860670900515387 0.014782194101147061 -0.001613924701873355 -0.009335548347463219
 0.9922901396862921 -0.07196678269966503 0.006198008215269443 0.030503755085941813 -0.0016147484740186733 -0.009335498391359677 0.0018831709471145573 0.014782623892710659
 0.0018860670900515387 0.014782194101147061 -0.0016147484740186733 -0.009335498391359677 0.006198636314736163 0.030505108817374477 0.9922902161094521 -0.07196518010311224
 -0.001613924701873355 -0.009335548347463219 0.0018831709471145573 0.014782623892710659 0.9922902161094521 -0.07196518010311224 0.006198633563728886 0.030505242731825935
0.1250521050438 0.006598957642967592 0.03225950196116779 0.991763152681705 -0.07588132470029108 0.0020629316925489917 0.01556176374611749 -0.001764036854261541 -0.009830991103549985
 0.991763152681705 -0.07588132470029108 0.006597710794580079 0.03225976271667359 -0.0017649470499931676 -0.009830931099682761 0.002059714113538962 0.015562252223422668
 0.0020629316925489917 0.01556176374611749 -0.0017649470499931676 -0.009830931099682761 0.006598404474960344 0.03226116865912278 0.9917632375146114 -0.0758796355714165
 -0.001764036854261541 -0.009830991103549985 0.002059714113538962 0.015562252223422668 0.9917632375146114 -0.0758796355714165 0.006598402945900587 0.03226131955399331
0.131304710296 0.0070153234058273305 0.03402870674460906 0.9912149061721554 -0.07980782401099111 0.002248318686193045 0.01634075565783309 -0.001921440807423914 -0.010326069385916598
 0.9912149061721554 -0.07980782401099111 0.007013950055356596 0.03402899937562299 -0.0019224414969218897 -0.010325998287503755 0.002244761839621463 0.016341308058815465
 0.002248318686193045 0.01634075565783309 -0.0019224414969218897 -0.010325998287503755 0.007014712281087097 0.03403045490988266 0.991214999926732 -0.07980604798632249
 -0.001921440807423914 -0.010326069385916598 0.002244761839621463 0.016341308058815465 0.991214999926732 -0.07980604798632249 0.007014712320380934 0.03403062402139363
0.1375573155481 0.007349830705939364 0.03557912674382037 0.9907438375687178 -0.08351422535512709 0.0024179747329399286 0.01709524240983644 -0.002061894794929775 -0.010796867524746422
 0.9907438375687178 -0.08351422535512709 0.007348325452188715 0.035579446867534975 -0.002062992085467869 -0.010796785327153828 0.0024140765651651914 0.01709585762764205
 0.0024179747329399286 0.01709524240983644 -0.002062992085467869 -0.010796785327153828 0.007349159417393076 0.03558095607444588 0.9907439406555966 -0.0835123622098437
 -0.002061894794929775 -0.010796867524746422 0.0024140765651651914 0.01709585762764205 0.9907439406555966 -0.0835123622098437 0.0073491605354276115 0.03558113820813017
0.1438099208003 0.007695993403763281 0.037121891811224085 0.9902564104775767 -0.08721177109418543 0.002594494568949542 0.017847059909066213 -0.0022079866909977134 -0.011265216504589927
 0.9902564104775767 -0.08721177109418543 0.007694350441240727 0.037122241254906464 -0.0022091849715515336 -0.01126512218416967 0.002590239909919875 0.01784774262482362
 0.002594494568949542 0.017847059909066213 -0.0022091849715515336 -0.01126512218416967 0.007695259073710677 0.03712380202813118 0.9902565234081238 -0.0872098204704174
 -0.0022079866909977134 -0.011265216504589927 0.002590239909919875 0.01784774262482362 0.9902565234081238 -0.0872098204704174 0.0076952615217302 0.03712399786875217
0.1500625260525 0.008053696876684172 0.038656888657271446 0.9897527431215943 -0.09090038567757718 0.002777822377099487 0.018596143810472143 -0.0023596621102487795 -0.011731054590202537
 0.9897527431215943 -0.09090038567757718 0.008051910437262434 0.038657269320844366 -0.002360965762219727 -0.011730947082309732 0.0027731961133208648 0.018596898876855634
 0.002777822377099487 0.018596143810472143 -0.002360965762219727 -0.011730947082309732 0.008052896617291585 0.03865887947259791 0.989752866418662 -0.09089834720119726
 -0.0023596621102487795 -0.011731054590202537 0.0027731961133208648 0.018596898876855634 0.989752866418662 -0.09089834720119726 0.00805290067179958 0.03865908973195811
0.15631513130469998 0.008422825772225195 0.040184007489104945 0.9892329542323105 -0.0945799934981649 0.0029679017369572632 0.019342430767617255 -0.002516866045579741 -0.012194321289823144
