! Created with skrf 1.8.0 (http://scikit-rf.org).
# GHz S RI R 50.0 
!freq ReS11 ImS11 ReS12 ImS12 ReS13 ImS13
! ReS14 ImS14
! ReS21 ImS21 ReS22 ImS22 ReS23 ImS23
! ReS24 ImS24
! ReS31 ImS31 ReS32 ImS32 ReS33 ImS33
! ReS34 ImS34
! ReS41 ImS41 ReS42 ImS42 ReS43 ImS43
! ReS44 ImS44
!
0.0 0.001736007261852 0.0 0.9982639927078 0.0 6.705954052138e-05 0.0 -6.705954085421e-05 8.212425205939945e-21
 0.9982639927078 0.0 0.001736007261803 0.0 -6.705954085354e-05 8.212425205857893e-21 6.705954052026e-05 0.0
 6.705954052138e-05 0.0 -6.705954085354e-05 8.212425205857893e-21 0.001736007272141 0.0 0.9982639927181 0.0
 -6.705954085421e-05 8.212425205939945e-21 6.705954052026e-05 0.0 0.9982639927181 0.0 0.001736007272126 0.0
0.005 0.0018683763580498026 0.0014237719755579178 0.9980964493172177 -0.003635594014831326 9.362438232054588e-05 0.0007138062910447103 -9.106695528922675e-05 -0.00045230459614105893
 0.9980964493172177 -0.003635594014831326 0.0018683773165128162 0.001423771343516437 -9.106860652176489e-05 -0.0004523057651287704 9.362989312385605e-05 0.0007138044050809435
 9.362438232054588e-05 0.0007138062910447103 -9.106860652176489e-05 -0.0004523057651287704 0.0018683763928242251 0.001423839174987752 0.9980964496963105 -0.0036355269476461677
 -9.106695528922675e-05 -0.00045230459614105893 9.362989312385605e-05 0.0007138044050809435 0.9980964496963105 -0.0036355269476461677 0.0018683780340601796 0.001423838273663257
0.006252605252188 0.0019032776481374691 0.0017852706268549562 0.9980519711176279 -0.004545350112398402 0.0001012958089903621 0.0008926046778089441 -9.79204435116367e-05 -0.0005659488849928631
 0.9980519711176279 -0.004545350112398402 0.0019032791462898543 0.001785269753536989 -9.792301372538418e-05 -0.0005659503237543385 0.0001013044215646347 0.0008926021920092751
 0.0001012958089903621 0.0008926046778089441 -9.792301372538418e-05 -0.0005659503237543385 0.0019032776271284654 0.0017853546088024287 0.9980519716344936 -0.0045452662851727076
 -9.79204435116367e-05 -0.0005659488849928631 0.0001013044215646347 0.0008926021920092751 0.9980519716344936 -0.0045452662851727076 0.0019032801915401265 0.0017853534151779549
0.01250521050438 0.002088081398132916 0.0036075078742195963 0.9978147967034995 -0.009091264774335363 0.00014572342625198236 0.0017855707783226344 -0.00013721002651356104 -0.001134498580070558
 0.9978147967034995 -0.009091264774335363 0.0020880873842619237 0.0036075052701339825 -0.0001372201647123454 -0.0011345012074040616 0.00014575784754943658 0.0017855644390447252
 0.00014572342625198236 0.0017855707783226344 -0.0001372201647123454 -0.0011345012074040616 0.0020880807383755868 0.0036076754606730985 0.9978147981843808 -0.009091097375804814
 -0.00013721002651356104 -0.001134498580070558 0.00014575784754943658 0.0017855644390447252 0.9978147981843808 -0.009091097375804814 0.0020880909626730037 0.0036076723777792637
0.01875781575657 0.0022908601593360643 0.005455247606651125 0.9975521474596437 -0.013648758396532852 0.0002004521588036602 0.0026794398060255658 -0.00018505615459001823 -0.001704837864476306
 0.9975521474596437 -0.013648758396532852 0.0022908736209879504 0.005455242336468335 -0.00018507877554365228 -0.0017048413723767023 0.0002005296616459023 0.002679428002636632
 0.0002004521588036602 0.0026794398060255658 -0.00018507877554365228 -0.0017048413723767023 0.0022908582677369066 0.0054554985731150715 0.9975521503650127 -0.01364850749117634
 -0.00018505615459001823 -0.001704837864476306 0.0002005296616459023 0.002679428002636632 0.9975521503650127 -0.01364850749117634 0.002290881213516255 0.005455492822624226
0.02501042100875 0.002512040222170164 0.007325865101711908 0.9972636876354399 -0.018219991044089955 0.00026559268506717734 0.0035742130861253895 -0.00024158191993273176 -0.002276687792337787
 0.9972636876354399 -0.018219991044089955 0.002512064143480407 0.007325856148652397 -0.00024162188312325746 -0.0022766918103446767 0.0002657306534256085 0.0035741939599679656
 0.00026559268506717734 0.0035742130861253895 -0.00024162188312325746 -0.0022766918103446767 0.0025120365109426307 0.007326199215450309 0.9972636924236652 -0.018219656664932683
 -0.00024158191993273176 -0.002276687792337787 0.0002657306534256085 0.0035741939599679656 0.9972636924236652 -0.018219656664932683 0.002512077210520714 0.007326189934790999
0.03126302626094 0.002752030222605742 0.009217985352618861 0.9969490658139293 -0.02280585811433708 0.0003412555311591967 0.0044698119620395806 -0.0003069064853913008 -0.002849841540643122
 0.9969490658139293 -0.02280585811433708 0.00275206758249945 0.009217971616983166 -0.00030696860412591424 -0.0028498456352306005 0.00034147147028446554 0.00446978340129556
 0.0003412555311591967 0.0044698119620395806 -0.00030696860412591424 -0.0028498456352306005 0.002752024111500513 0.009218402367971256 0.9969490729456306 -0.022805440267255953
 -0.0003069064853913008 -0.002849841540643122 0.00034147147028446554 0.00446978340129556 0.9969490729456306 -0.022805440267255953 0.002752087567999974 0.009218388609158605
0.037515631513130004 0.0030112295053196033 0.011130693434767237 0.9966079236284813 -0.02740677990969437 0.00042755003971981116 0.0053661256125120335 -0.0003811458817378043 -0.0034241166211824475
 0.9966079236284813 -0.02740677990969437 0.003011283276103523 0.01113067373258322 -0.00038123492766713174 -0.0034241202955069905 0.00042786158066729124 0.005366085247131872
 0.00042755003971981116 0.0053661256125120335 -0.00038123492766713174 -0.0034241202955069905 0.0030112204173953984 0.011131193091741582 0.9966079335640537 -0.027406278574321045
 -0.0003811458817378043 -0.0034241166211824475 0.00042786158066729124 0.005366085247131872 0.9966079335640537 -0.027406278574321045 0.003011311604341566 0.011131173820483993
0.043768236765320004 0.0032900313310480784 0.013063294210343948 0.9962398993238742 -0.03202294186094153 0.000524583864242513 0.006263025605785308 -0.00046441327521112754 -0.003999340354519589
 0.9962398993238742 -0.03202294186094153 0.0032901044757040377 0.013063267272404823 -0.00046453398080918506 -0.003999343048299914 0.0005250087653922207 0.0062629708024127696
 0.000524583864242513 0.006263025605785308 -0.00046453398080918506 -0.003999343048299914 0.0032900186959960165 0.013063876225736543 0.9962399125283917 -0.032022356999350944
 -0.00046441327521112754 -0.003999340354519589 0.0005250087653922207 0.0062629708024127696 0.9962399125283917 -0.032022356999350944 0.0032901425559258503 0.013063850320563807
0.050020842017509996 0.0035888243574299515 0.015015212995604911 0.9958446295955307 -0.03665439378727751 0.0006324626520191378 0.007160371917352541 -0.0005568190426540109 -0.00457534388397661
 0.9958446295955307 -0.03665439378727751 0.0035889198276850315 0.015015177466662175 -0.0005569761026801766 -0.004575344973412516 0.0006330187996890881 0.0071602997742528755
 0.0006324626520191378 0.007160371917352541 -0.0005569761026801766 -0.004575344973412516 0.0035888076083131076 0.01501587705975807 0.9958446465373325 -0.036653725346975
 -0.0005568190426540109 -0.00457534388397661 0.0006330187996890881 0.0071602997742528755 0.9958446465373325 -0.036653725346975 0.0035889690517441207 0.015015843311276244
0.055454545454549996 0.003865018790225207 0.01672678627251958 0.9954787190964274 -0.040691655977417876 0.0007351003930756802 0.00794044024254114 -0.0006446275545652914 -0.0050764112640843875
 0.9954787190964274 -0.040691655977417876 0.003865136048675986 0.01672674210964331 -0.0006448199918037124 -0.005076410403309566 0.0007357852225630116 0.007940350461892126
 0.0007351003930756802 0.00794044024254114 -0.0006448199918037124 -0.005076410403309566 0.003864998008170548 0.016727521371545536 0.9954787396701571 -0.04069091484647809
 -0.0006446275545652914 -0.0050764112640843875 0.0007357852225630116 0.007940350461892126 0.9954787396701571 -0.04069091484647809 0.003865196074499935 0.016727479756017398
0.056273447269699996 0.003907993375929961 0.016985946836573555 0.9954217506900465 -0.0413010985516209 0.0007512898081147216 0.00805801588446192 -0.0006584707634252916 -0.005151959258321247
 0.9954217506900465 -0.0413010985516209 0.003908114109876269 0.016985901274487167 -0.0006586688358411406 -0.005151958056026991 0.0007519952156895772 0.008057923226460881
 0.0007512898081147216 0.00805801588446192 -0.0006586688358411406 -0.005151958056026991 0.003907971949190414 0.016986692619457323 0.9954217718421292 -0.04130034645917631
 -0.0006584707634252916 -0.005151959258321247 0.0007519952156895772 0.008057923226460881 0.9954217718421292 -0.04130034645917631 0.003908175852734431 0.016986649729652126
0.06252605252188 0.0042479196900467725 0.018975037717635864 0.9949708991522013 -0.045962958788611064 0.0008811662993946172 0.008955801852667554 -0.0007694731683275234 -0.005729017828901916
 0.9949708991522013 -0.045962958788611064 0.004248068609628833 0.018974980592702948 -0.0007697168747370704 -0.005729013583866208 0.0008820391064826463 0.008955685226045252
 0.0008811662993946172 0.008955801852667554 -0.0007697168747370704 -0.005729013583866208 0.004247893023971702 0.018975864859707568 0.9949709249922415 -0.04596212295869716
 -0.0007694731683275234 -0.005729017828901916 0.0008820391064826463 0.008955685226045252 0.9949709249922415 -0.04596212295869716 0.004248144228693234 0.018975811441311705
0.06877865777407 0.004608981293036565 0.020982056588550218 0.9944917123762795 -0.05063983282153947 0.0010221904825706038 0.009853568158197459 -0.0008899280628123261 -0.006306349318029738
 0.9944917123762795 -0.05063983282153947 0.00460916130177951 0.0209819862828057 -0.0008902219886790239 -0.006306341215580507 0.001023248953436157 0.009853423825611775
 0.0010221904825706038 0.009853568158197459 -0.0008902219886790239 -0.006306341215580507 0.004608948827212202 0.020982964702492654 0.9944917433877979 -0.05063891315500895
 -0.0008899280628123261 -0.006306349318029738 0.001023248953436157 0.009853423825611775 0.9944917433877979 -0.05063891315500895 0.00460925213683345 0.020982899278350235
0.07503126302626001 0.004991552928012998 0.023006593245158198 0.993983829045682 -0.055331544733508105 0.001174457945207815 0.01075114776815353 -0.0010199342352153159 -0.006883781237096459
 0.993983829045682 -0.055331544733508105 0.004991766908644802 0.023006508051823655 -0.0010202829298782252 -0.00688376839888418 0.0011757204669667265 0.010750971703535417
 0.001174457945207815 0.01075114776815353 -0.0010202829298782252 -0.00688376839888418 0.004991514102165982 0.023007581921533894 0.993983865718263 -0.05533054111165026
 -0.0010199342352153159 -0.006883781237096459 0.0011757204669667265 0.010750971703535417 0.993983865718263 -0.05533054111165026 0.004991874281206348 0.02300750292410566
0.08128386827845 0.005396006074895897 0.02504824960928092 0.9934468895030728 -0.06003789104820759 0.0013380613555416736 0.01164836871662954 -0.001159587354796356 -0.007461138516599469
 0.9934468895030728 -0.06003789104820759 0.005396256886383188 0.02504814773232359 -0.0011599953312917942 -0.007461120000597486 0.001339546435888828 0.011648156600117273
 0.0013380613555416736 0.01164836871662954 -0.0011599953312917942 -0.007461120000597486 0.005395960327590427 0.025049318408055615 0.9934469323329641 -0.06003680334121369
 -0.001159587354796356 -0.007461138516599469 0.001339546435888828 0.011648156600117273 0.9934469323329641 -0.06003680334121369 0.005396382099264535 0.025049224178890342
0.08753647353064001 0.005822708885412848 0.027106635074791354 0.992880536074979 -0.06475864535378993 0.0015130903170954993 0.01254505442132116 -0.0013089798633571146 -0.008038243263923769
 0.992880536074979 -0.06475864535378993 0.005822999360763869 0.027106514628350422 -0.001309451598203777 -0.00803821806441993 0.001514816582120407 0.012544801634139164
 0.0015130903170954993 0.01254505442132116 -0.001309451598203777 -0.00803821806441993 0.0058226556541112005 0.02710778353039926 0.9928805855662794 -0.06475747341557367
 -0.0013089798633571146 -0.008038243263923769 0.001514816582120407 0.012544801634139164 0.9928805855662794 -0.06475747341557367 0.005823143698295821 0.027107672319728052
0.09378907878283 0.0062720260862081465 0.029181363207052145 0.9922844133669043 -0.06949356158288003 0.0016996312279608798 0.013441023923578512 -0.0014682008614991533 -0.008614914605892338
 0.9922844133669043 -0.06949356158288003 0.006272359029459706 0.029181222215232484 -0.0014687407942940488 -0.008614881653529959 0.0017016174195974413 0.013440725543018258
 0.0016996312279608798 0.013441023923578512 -0.0014687407942940488 -0.008614881653529959 0.00627196480511432 0.029182590826261623 0.9922844700316543 -0.06949230525336529
 -0.0014682008614991533 -0.008614914605892338 0.0017016174195974413 0.013440725543018258 0.9922844700316543 -0.06949230525336529 0.0062725237564062305 0.029182460792576095
0.100041684035 0.006744318855760447 0.03127204931164371 0.9916581685382004 -0.07424237643370446 0.0018977671421690758 0.014336092079365828 -0.0016373359919654403 -0.009190968589215927
 0.9916581685382004 -0.07424237643370446 0.006744697039406073 0.03127188570807498 -0.0016379485249988104 -0.009190926751017812 0.0019000321153225736 0.014335742873670766
 0.0018977671421690758 0.014336092079365828 -0.0016379485249988104 -0.009190926751017812 0.006744248955616498 0.031273355574410196 0.9916582328974571 -0.07424103553795058
 -0.0016373359919654403 -0.009190968589215927 0.0019000321153225736 0.014335742873670766 0.9916582328974571 -0.07424103553795058 0.006744883400805463 0.03127320478418047
0.1059090909091 0.007208730053171947 0.03324810734361094 0.9910427966126792 -0.07871102804484846 0.002094313140451766 0.015175030384948338 -0.001805141318446323 -0.00973080605590139
 0.9910427966126792 -0.07871102804484846 0.007209153181161222 0.03324792056124294 -0.001805825949295281 -0.009730754792227073 0.002096856967103616 0.015174628447324376
 0.002094313140451766 0.015175030384948338 -0.001805825949295281 -0.009730754792227073 0.007208651542756507 0.03324948690669536 0.9910428686741805 -0.07870960762190869
 -0.001805141318446323 -0.00973080605590139 0.002096856967103616 0.015174628447324376 0.9910428686741805 -0.07870960762190869 0.007209360958191598 0.03324931479789859
0.1062942892872 0.007239944683245895 0.03337830862998859 0.9910014515619452 -0.07900481117435297 0.0021075776332842265 0.015230069716657265 -0.0018164673200956481 -0.00976621812308986
 0.9910014515619452 -0.07900481117435297 0.007240370845517768 0.03337812025765052 -0.0018171568178730279 -0.009766166202506999 0.00211014035315979 0.015229664140013683
 0.0021075776332842265 0.015230069716657265 -0.0018171568178730279 -0.009766166202506999 0.007239865589666743 0.03337969298820466 0.9910015241454996 -0.0790033855239452
 -0.0018164673200956481 -0.00976621812308986 0.00211014035315979 0.015229664140013683 0.9910015241454996 -0.0790033855239452 0.007240580065728516 0.033379519415599766
0.11254689453939999 0.0077592572135850735 0.0354997549608767 0.9903139154743196 -0.08378057303219763 0.0023291386596143862 0.01612276377452633 -0.0020056732129608763 -0.010340472949135615
 0.9903139154743196 -0.08378057303219763 0.007759734055438645 0.035499539571971675 -0.002006444001663846 -0.010340409686122171 0.0023320181984465608 0.016122295961986544
 0.0023291386596143862 0.01612276377452633 -0.002006444001663846 -0.010340409686122171 0.0077591683470113965 0.03550121683808834 0.9903139968229654 -0.08377906242574916
 -0.0020056732129608763 -0.010340472949135615 0.0023320181984465608 0.016122295961986544 0.9903139968229654 -0.08377906242574916 0.007759967338504218 0.03550101836475102
0.11879949979160001 0.008302606082189823 0.037635999593112576 0.9895952166183604 -0.08856935628299975 0.0025625224307864523 0.017013977426627948 -0.0022050282168786886 -0.010913539635955009
 0.9895952166183604 -0.08856935628299975 0.008303136264775595 0.03763575484889031 -0.0022058845837800837 -0.010913463707057465 0.0025657379648560516 0.017013441189176887
 0.0025625224307864523 0.017013977426627948 -0.0022058845837800837 -0.010913463707057465 0.008302506855973174 0.03763753838735005 0.9895953072830289 -0.08856776050346739
 -0.0022050282168786886 -0.010913539635955009 0.0025657379648560516 0.017013441189176887 0.9895953072830289 -0.08856776050346739 0.008303394793079014 0.037637312802258086
0.1250521050438 0.008870336740300586 0.0397866504807977 0.9888450148790676 -0.09337084310872548 0.0028077972756075384 0.01790351019348945 -0.0024146029344232277 -0.011485221594175754
 0.9888450148790676 -0.09337084310872548 0.008870922881601235 0.039786373951653964 -0.002415549127214696 -0.01148513161262916 0.002811368081824783 0.017902899012963405
 0.0028077972756075384 0.01790351019348945 -0.002415549127214696 -0.01148513161262916 0.008870226560058704 0.03978826556222819 0.9888451154225391 -0.09336916192606395
 -0.0024146029344232277 -0.011485221594175754 0.002811368081824783 0.017902899012963405 0.9888451154225391 -0.09336916192606395 0.008871207816037495 0.0397880105616052
0.131304710296 0.009462790274379131 0.04195131158420553 0.9880629739179287 -0.09818470430130714 0.003065027511181108 0.01879115805273263 -0.0026344639009155154 -0.012055319102831131
 0.9880629739179287 -0.09818470430130714 0.009463434946692583 0.04195100074968928 -0.0026355041271639663 -0.012055213618669595 0.0030689729635833443 0.018790465076943513
 0.003065027511181108 0.01879115805273263 -0.0026355041271639663 -0.012055213618669595 0.009462668536957635 0.041953002295375484 0.9880630849148302 -0.09818293747255705
 -0.0026344639009155154 -0.012055319102831131 0.0030689729635833443 0.018790465076943513 0.9880630849148302 -0.09818293747255705 0.009463747425432925 0.04195271548267898
0.1375573155481 0.009950822489970838 0.043849160141017945 0.9873783065873863 -0.10273001529527226 0.0033034255471033978 0.019649781963167117 -0.0028338217579677635 -0.012596723527829966
 0.9873783065873863 -0.10273001529527226 0.009951527206331658 0.04384882088166874 -0.002834962014837622 -0.012596602277860467 0.003307747588839261 0.01964900799668477
 0.0033034255471033978 0.019649781963167117 -0.002834962014837622 -0.012596602277860467 0.009950687531781847 0.04385092658383299 0.9873784285219126 -0.10272816269814106
 -0.0028338217579677635 -0.012596723527829966 0.003307747588839261 0.01964900799668477 0.9873784285219126 -0.10272816269814106 0.009951869589768405 0.04385061264178078
0.1438099208003 0.010456232405069736 0.045735874202487495 0.9866691675367952 -0.10726262478799597 0.0035514053998235763 0.02050419468868231 -0.003041096430049792 -0.01313423374356834
 0.9866691675367952 -0.10726262478799597 0.010456999479198552 0.045735504712514634 -0.00304234118995955 -0.013134095296110416 0.003556120405843553 0.020503333556657108
 0.0035514053998235763 0.02050419468868231 -0.00304234118995955 -0.013134095296110416 0.010456083419245497 0.045737715773145844 0.9866693009820057 -0.10726068618877144
 -0.003041096430049792 -0.01313423374356834 0.003556120405843553 0.020503333556657108 0.9866693009820057 -0.10726068618877144 0.01045737309547335 0.04573737287287724
0.1500625260525 0.010978824532651177 0.047611261457055645 0.9859357570638443 -0.11178238456765587 0.003808869798196798 0.021354285976840796 -0.0032561928737791903 -0.013667745590325568
 0.9859357570638443 -0.11178238456765587 0.010979656222606342 0.04761085986490744 -0.0032575465921786777 -0.013667588456734155 0.0038139940363814667 0.02135333128098662
 0.003808869798196798 0.021354285976840796 -0.0032575465921786777 -0.013667588456734155 0.010978660691254244 0.0476131775293487 0.9859359026028304 -0.11178035972662902
 -0.0032561928737791903 -0.013667745590325568 0.0038139940363814667 0.02135333128098662 0.9859359026028304 -0.11178035972662902 0.010980062392980603 0.04761280376969553
0.15631513130469998 0.011518401789351693 0.04947513530965773 0.9851782767135709 -0.11628914773566836 0.004075720202489135 0.022199947723735996 -0.003479014766811705 -0.014197157320086565
 0.9851782767135709 -0.11628914773566836 0.011519300296316917 0.04947469967939768 -0.00348048188191191 -0.014196979955051989 0.004081269832723273 0.022198892844453654
