! Created with skrf 1.8.0 (http://scikit-rf.org).
# GHz S RI R 50.0 
!freq ReS11 ImS11 ReS12 ImS12 ReS13 ImS13
! ReS14 ImS14
! ReS21 ImS21 ReS22 ImS22 ReS23 ImS23
! ReS24 ImS24
! ReS31 ImS31 ReS32 ImS32 ReS33 ImS33
! ReS34 ImS34
! ReS41 ImS41 ReS42 ImS42 ReS43 ImS43
! ReS44 ImS44
!
0.0 0.001509189847353 0.0 0.9984908101523 0.0 5.800467640375e-05 0.0 -5.800467445307e-05 7.103523890453643e-21
 0.9984908101523 0.0 0.001509189847368 0.0 -5.800467445298e-05 7.10352389044262e-21 5.800467641037e-05 0.0
 5.800467640375e-05 0.0 -5.800467445298e-05 7.10352389044262e-21 0.001509189841674 0.0 0.9984908101466 0.0
 -5.800467445307e-05 7.103523890453643e-21 5.800467641037e-05 0.0 0.9984908101466 0.0 0.001509189841687 0.0
0.005 0.0016236235346143272 0.0012375062212975213 0.9983460572063435 -0.0031613406641941063 8.081342345669606e-05 0.0006221589024009691 -7.856214469104208e-05 -0.0003935033747261389
 0.9983460572063435 -0.0031613406641941063 0.0016236474277673333 0.0012374922320009273 -7.856141965448055e-05 -0.0003935027673569754 8.067292673894126e-05 0.0006222124251533535
 8.081342345669606e-05 0.0006221589024009691 -7.856141965448055e-05 -0.0003935027673569754 0.0016236245289917544 0.0012375728601280401 0.9983460575653835 -0.003161273607099299
 -7.856214469104208e-05 -0.0003935033747261389 8.067292673894126e-05 0.0006222124251533535 0.9983460575653835 -0.003161273607099299 0.0016236471482645647 0.0012375597053486084
0.006252605252188 0.0016536027706998532 0.0015517421032137555 0.9983078995401 -0.003952452419199641 8.731986295169515e-05 0.0007780092367349396 -8.434757102620206e-05 -0.0004923857596473418
 0.9983078995401 -0.003952452419199641 0.0016536401200993869 0.0015517243223659497 -8.434644320407833e-05 -0.0004923850096656038 8.71003497544994e-05 0.000778078721528842
 8.731986295169515e-05 0.0007780092367349396 -8.434644320407833e-05 -0.0004923850096656038 0.0016536042416006966 0.0015518253907694385 0.9983079000174425 -0.003952368602050856
 -8.434757102620206e-05 -0.0004923857596473418 8.71003497544994e-05 0.000778078721528842 0.9983079000174425 -0.003952368602050856 0.001653639598851254 0.001551808664387954
0.01250521050438 0.001811226584516687 0.0031359316955719145 0.9981059669661938 -0.00790572274812623 0.00012457986039710224 0.0015564318155573173 -0.00011707278607107072 -0.0009871610776373552
 0.9981059669661938 -0.00790572274812623 0.0018113757243836694 0.0031358931515183784 -0.00011706834617721459 -0.000987159678231333 0.00012370449122766115 0.0015565986021486313
 0.00012457986039710224 0.0015564318155573173 -0.00011706834617721459 -0.000987159678231333 0.0018112319130256826 0.003136097956532167 0.9981059683218235 -0.007905555346421223
 -0.00011707278607107072 -0.0009871610776373552 0.00012370449122766115 0.0015565986021486313 0.9981059683218235 -0.007905555346421223 0.0018113730844978887 0.003136061647582735
0.01875781575657 0.0019823998349023284 0.004742644105305157 0.9978847654735171 -0.011869435477478013 0.0001698696857977787 0.0023357710324031877 -0.00015627934211317362 -0.0014836407540108798
 0.9978847654735171 -0.011869435477478013 0.0019827349653656766 0.004742581565485034 -0.0001562694475858613 -0.0014836388232405938 0.00016790325861372593 0.002336068306214364
 0.0001698696857977787 0.0023357710324031877 -0.0001562694475858613 -0.0014836388232405938 0.0019824113998107543 0.004742893112259702 0.9978847681006668 -0.0118691845982813
 -0.00015627934211317362 -0.0014836407540108798 0.00016790325861372593 0.002336068306214364 0.9978847681006668 -0.0118691845982813 0.001982728597529125 0.004742834154464093
0.02501042100875 0.002167451355688941 0.0063696430514712426 0.997644038471152 -0.015845516749643792 0.00022327596219172397 0.003116056203111394 -0.000202063277931539 -0.001981608356788948
 0.997644038471152 -0.015845516749643792 0.0021680465301621094 0.006369553057767214 -0.00020204581388340087 -0.0019816060325137733 0.0002197830995086812 0.003116522325869553
 0.00022327596219172397 0.003116056203111394 -0.00020204581388340087 -0.0019816060325137733 0.0021674715375038806 0.006369974604044314 0.9976440427633694 -0.015845182434772818
 -0.000202063277931539 -0.001981608356788948 0.0002197830995086812 0.003116522325869553 0.9976440427633694 -0.015845182434772818 0.002168034818939668 0.006369889744176858
0.03126302626094 0.002366696377577549 0.008015780610944784 0.9973835160600558 -0.019834794369161527 0.00028488590406396667 0.003897247112023688 -0.0002545180632903082 -0.0024809116776496123
 0.9973835160600558 -0.019834794369161527 0.0023676255414436264 0.00801565948412601 -0.00025449093778080815 -0.002480909117762543 0.00027943064285828413 0.0038979256511582944
 0.00028488590406396667 0.003897247112023688 -0.00025449093778080815 -0.002480909117762543 0.0023667275585444875 0.008016194479302175 0.9973835224111648 -0.019834376651312144
 -0.0002545180632903082 -0.0024809116776496123 0.00027943064285828413 0.0038979256511582944 0.9973835224111648 -0.019834376651312144 0.0023676068641661522 0.008016080282051787
0.037515631513130004 0.0025804433648289587 0.009680310481812993 0.9971029220704761 -0.02383768447884455 0.00035478641835194955 0.004679276022477781 -0.0003137352446750603 -0.002981420711322011
 0.9971029220704761 -0.02383768447884455 0.002581780381163563 0.009680154323562664 -0.0003136963862438797 -0.0029814180938048758 0.00034693202389999726 0.004680215803342395
 0.00035478641835194955 0.004679276022477781 -0.0003136963862438797 -0.0029814180938048758 0.002580487929850284 0.009680806420827722 0.9971029308758971 -0.023837183366975642
 -0.0003137352446750603 -0.002981420711322011 0.00034693202389999726 0.004680215803342395 0.9971029308758971 -0.023837183366975642 0.0025817531085329855 0.009680659271243088
0.043768236765320004 0.00280899666221673 0.011362679033813057 0.9968019769134676 -0.027854400439271253 0.00043306368384194317 0.005462060454909244 -0.0003798046761570354 -0.0034830148734413713
 0.9968019769134676 -0.027854400439271253 0.0028108153314852745 0.011362483727698106 -0.00037975203232837724 -0.003483012396351016 0.00042237255907390687 0.005463315620149011
 0.00043306368384194317 0.005462060454909244 -0.00037975203232837724 -0.003483012396351016 0.0028090569977699143 0.011363256759115382 0.9968019885695194 -0.02785381594223572
 -0.0003798046761570354 -0.0034830148734413713 0.00042237255907390687 0.005463315620149011 0.9968019885695194 -0.02785381594223572 0.002810777826603746 0.011363072864115373
0.050020842017509996 0.0030526577240510898 0.013062438922374946 0.9964803990184465 -0.03188503914271179 0.0005198029004412481 0.006245508467660888 -0.0004528146014785271 -0.003985577718948986
 0.9964803990184465 -0.03188503914271179 0.0030550318010228675 0.013062200134233279 -0.00045274613777781934 -0.003985575600387556 0.000505836545608784 0.006247138539626519
 0.0005198029004412481 0.006245508467660888 -0.00045274613777781934 -0.003985575600387556 0.003052736218519943 0.013063098126745101 0.9964804139232453 -0.03188437125226709
 -0.0004528146014785271 -0.003985577718948986 0.000505836545608784 0.006247138539626519 0.9964804139232453 -0.03188437125226709 0.0030549824198943566 0.013062873516103812
0.055454545454549996 0.003276908343775203 0.014553406727861599 0.996183962230445 -0.03539911232779887 0.0006021193509278088 0.006926810832336089 -0.0005219663056583645 -0.004423017513334402
 0.996183962230445 -0.03539911232779887 0.0032798249607144912 0.014553126463465254 -0.0005218824552174796 -0.004423015899011961 0.0005849498982369033 0.006928819275069884
 0.0006021193509278088 0.006926810832336089 -0.0005218824552174796 -0.004423015899011961 0.0032770045585808275 0.014554136465625254 0.9961839802823735 -0.035398371952859116
 -0.0005219663056583645 -0.004423017513334402 0.0005849498982369033 0.006928819275069884 0.9961839802823735 -0.035398371952859116 0.0032797639169853004 0.014553873110278379
0.056273447269699996 0.0033117257461614184 0.01477920670586071 0.9961379056781973 -0.035929623324428346 0.0006150881119326762 0.007029521239121195 -0.0005328516705931505 -0.004488994362533079
 0.9961379056781973 -0.035929623324428346 0.003314728955056833 0.014778919883685623 -0.0005327653698431083 -0.004488992840611569 0.0005974071153677967 0.007031591183538549
 0.0006150881119326762 0.007029521239121195 -0.0005327653698431083 -0.004488992840611569 0.0033118247879327643 0.01477994704903659 0.9961379242306203 -0.03592887202507442
 -0.0005328516705931505 -0.004488994362533079 0.0005974071153677967 0.007031591183538549 0.9961379242306203 -0.03592887202507442 0.003314666045138942 0.014779677575805802
0.06252605252188 0.003586498006721453 0.016512639537161162 0.9957742136070912 -0.039988124802108886 0.0007190020665060313 0.00781399449690093 -0.0006200009223191819 -0.004993150055420074
 0.9957742136070912 -0.039988124802108886 0.003590204056092706 0.016512299910516216 -0.0006198947841547166 -0.004993149388216557 0.0006971661151933577 0.007816574787180359
 0.0007190020665060313 0.00781399449690093 -0.0006198947841547166 -0.004993149388216557 0.0035866199854068725 0.016513460647806334 0.995774236208627 -0.03998729006862154
 -0.0006200009223191819 -0.004993150055420074 0.0006971661151933577 0.007816574787180359 0.995774236208627 -0.03998729006862154 0.0035901259577887576 0.0165131419883682
0.06877865777407 0.0038772700477102003 0.01826242127238529 0.9953890393426431 -0.04406047830123038 0.0008316260983581382 0.008598819367580923 -0.0007143457470373913 -0.005497929345352544
 0.9953890393426431 -0.04406047830123038 0.003881752643785435 0.018262023851485416 -0.0007142177875119998 -0.0054979298108753126 0.0008051940028468931 0.008601986049262931
 0.0008316260983581382 0.008598819367580923 -0.0007142177875119998 -0.0054979298108753126 0.0038774173523429168 0.018263322743798507 0.9953890663963029 -0.04405956010259473
 -0.0007143457470373913 -0.005497929345352544 0.0008051940028468931 0.008601986049262931 0.9953890663963029 -0.04405956010259473 0.0038816576894009805 0.018262950397454392
0.07503126302626001 0.004184335759481312 0.020028253656594653 0.9949820995548726 -0.048146590207250865 0.0009530400209996218 0.009383882918349143 -0.0008159678378310083 -0.006003215548604766
 0.9949820995548726 -0.048146590207250865 0.004189668620159332 0.020027793230813808 -0.0008158160891673046 -0.006003217444737059 0.0009215697510364096 0.00938771767339115
 0.0009530400209996218 0.009383882918349143 -0.0008158160891673046 -0.006003217444737059 0.004184510779052606 0.020029235049336475 0.9949821314666605 -0.048145588503522886
 -0.0008159678378310083 -0.006003215548604766 0.0009215697510364096 0.00938771767339115 0.9949821314666605 -0.048145588503522886 0.004189555134676331 0.02002880433751724
0.08128386827845 0.00450798740946438 0.021809850464021483 0.9945531113030539 -0.05224634436742681 0.0010833220284039162 0.010169068523723835 -0.0009249471336790233 -0.006508890400954674
 0.9945531113030539 -0.05224634436742681 0.004514244277267877 0.021809321600138223 -0.0009247696440477778 -0.0065088940454169466 0.0010463707566039865 0.010173658734485697
 0.0010833220284039162 0.010169068523723835 -0.0009247696440477778 -0.0065088940454169466 0.004508192532037641 0.02181091130442125 0.9945531484816748 -0.05224525911086628
 -0.0009249471336790233 -0.006508890400954674 0.0010463707566039865 0.010173658734485697 0.9945531484816748 -0.05224525911086628 0.004514110578189705 0.021810417369375106
0.08753647353064001 0.004848515629075392 0.02360693344253488 0.9941017922540265 -0.05635960609272235 0.0012225486011083115 0.010954256117979162 -0.001041361756702235 -0.007014833827228878
 0.9941017922540265 -0.05635960609272235 0.004855770284641955 0.02360633048247743 -0.001041156590037394 -0.007014839557544522 0.0011796727537507455 0.010959694930684756
 0.0012225486011083115 0.010954256117979162 -0.001041156590037394 -0.007014839557544522 0.00484875324077393 0.023608073222707436 0.9941018351111517 -0.05635843722748817
 -0.001041361756702235 -0.007014833827228878 0.0011796727537507455 0.010959694930684756 0.9941018351111517 -0.05635843722748817 0.004855614681774073 0.023607511025815545
0.09378907878283 0.005206209373977609 0.025419229425133357 0.9936278608775015 -0.060486224997825556 0.0013707944152414413 0.011739322389271398 -0.001165287946244294 -0.007520923773496217
 0.9936278608775015 -0.060486224997825556 0.005214535649149992 0.02541854648319395 -0.0011650531821882405 -0.007520931946928201 0.0013215497280060053 0.011745708776916837
 0.0013707944152414413 0.011739322389271398 -0.0011650531821882405 -0.007520931946928201 0.005206481858988918 0.02542044759970507 0.9936279098281554 -0.06048497246269425
 -0.001165287946244294 -0.007520923773496217 0.0013215497280060053 0.011745708776916837 0.9936279098281554 -0.06048497246269425 0.005214356444824071 0.02541981191941022
0.100041684035 0.005581355865175072 0.02724646819594536 0.9931310366257602 -0.06462603709123865 0.0015281322540860768 0.012524140917384033 -0.0012967999890675381 -0.008027036100130636
 0.9931310366257602 -0.06462603709123865 0.005590827656332405 0.027245699155697623 -0.0012965337228461281 -0.008027047093645316 0.001472073833212552 0.01253157974191665
 0.0015281322540860768 0.012524140917384033 -0.0012965337228461281 -0.008027047093645316 0.005581665605007612 0.027247764185712342 0.9931310920887797 -0.06462470081573807
 -0.0012967999890675381 -0.008027036100130636 0.001472073833212552 0.01253157974191665 0.9931310920887797 -0.06462470081573807 0.00559062314557141 0.027247049614835896
0.1059090909091 0.005949518406651319 0.028974488780963783 0.9926437500422881 -0.0685226540462431 0.0016841093214676674 0.013260269306314484 -0.001427173740915287 -0.008501876709877624
 0.9926437500422881 -0.0685226540462431 0.005960132419785635 0.028973633175047874 -0.0014268761947035177 -0.008501890710105335 0.0016212518047079678 0.01326879640178808
 0.0016841093214676674 0.013260269306314484 -0.0014268761947035177 -0.008501890710105335 0.00594986526874259 0.028975857232012073 0.9926438120007166 -0.06852123911973812
 -0.001427173740915287 -0.008501876709877624 0.0016212518047079678 0.01326879640178808 0.9926438120007166 -0.06852123911973812 0.005959902604244499 0.028975063544878756
0.1062942892872 0.00597424051524262 0.02908838090693597 0.992611040100869 -0.06877886632015441 0.0016946329208583956 0.013308582290303668 -0.001435970147999821 -0.008533044500696542
 0.992611040100869 -0.06877886632015441 0.005984931796265763 0.029087519417584272 -0.0014356704903612377 -0.008533058710923622 0.0016313153081466603 0.013317184363997137
 0.0016946329208583956 0.013308582290303668 -0.0014356704903612377 -0.008533058710923622 0.005974589887591593 0.029089754095492772 0.9926111024987667 -0.06877744622755773
 -0.001435970147999821 -0.008533044500696542 0.0016313153081466603 0.013317184363997137 0.9926111024987667 -0.06877744622755773 0.005984700266471015 0.029088955038182207
0.11254689453939999 0.006385146843167878 0.03094469885113263 0.9920675932147669 -0.0729445257641821 0.0018703651528325358 0.01409251419782251 -0.0015828685883533063 -0.009038820448423319
 0.9920675932147669 -0.0729445257641821 0.006397131679108532 0.030943738323375405 -0.0015825336655613657 -0.009038838291597793 0.001799342394349694 0.014102396343844562
 0.0018703651528325358 0.01409251419782251 -0.0015825336655613657 -0.009038838291597793 0.006385538221848209 0.030946148585018114 0.9920676629744888 -0.07294302177104799
 -0.0015828685883533063 -0.009038820448423319 0.001799342394349694 0.014102396343844562 0.9920676629744888 -0.07294302177104799 0.006396871410429795 0.030945259253138232
0.11879949979160001 0.0068143563810923145 0.032815152516577156 0.9915004193428335 -0.07712281855374781 0.0020553955358456224 0.014875801509532638 -0.0017375633033211838 -0.009544233163250463
 0.9915004193428335 -0.07712281855374781 0.006827708941078287 0.03281408611804326 -0.0017371912570589313 -0.009544255075180677 0.001976221254188049 0.01488708662147423
 0.0020553955358456224 0.014875801509532638 -0.0017371912570589313 -0.009544255075180677 0.006814792135049479 0.03281667810635671 0.9915004968959927 -0.07712123056858226
 -0.0017375633033211838 -0.009544233163250463 0.001976221254188049 0.01488708662147423 0.9915004968959927 -0.07712123056858226 0.006827418206776317 0.03281569251541042
0.1250521050438 0.0072621485739990934 0.03469947084250359 0.9909092434747623 -0.08131353859239882 0.00224978841987477 0.01565830634597977 -0.001900120037741361 -0.010049149590539323
 0.9909092434747623 -0.08131353859239882 0.007276943145304164 0.034698291492539696 -0.0018997090252662022 -0.010049176026530268 0.0021620158894134762 0.015671123446461033
 0.00224978841987477 0.01565830634597977 -0.0018997090252662022 -0.010049176026530268 0.007262631066711315 0.03470107155961761 0.9909093292575636 -0.08131186651845644
 -0.001900120037741361 -0.010049149590539323 0.0021620158894134762 0.015671123446461033 0.9909093292575636 -0.08131186651845644 0.0072766202108352895 0.03469998352416966
0.131304710296 0.0077288006735820305 0.03659738061387522 0.9902937923607541 -0.08551647114625865 0.0024536058346867956 0.016439888140934073 -0.002070602211648547 -0.010553434393644244
 0.9902937923607541 -0.08551647114625865 0.007745111674433264 0.036596080978019585 -0.002070150405641877 -0.01055346582849706 0.002356788059670967 0.01645437243909528
 0.0024536058346867956 0.016439888140934073 -0.002070150405641877 -0.01055346582849706 0.0077293322622267215 0.036599055695354765 0.9902938868147183 -0.08551471487671575
 -0.002070602211648547 -0.010553434393644244 0.002356788059670967 0.01645437243909528 0.9902938868147183 -0.08551471487671575 0.007744754798340941 0.03659785882386184
0.1375573155481 0.008106627591408908 0.0382619210988716 0.9897617933848278 -0.08948461245950914 0.002641326139332858 0.017195953624571114 -0.002223604465282227 -0.011032432917068914
 0.9897617933848278 -0.08948461245950914 0.008124534347372788 0.03826052117446573 -0.002223109014196334 -0.011032469378666036 0.0025352380247626264 0.01721208332051755
 0.002641326139332858 0.017195953624571114 -0.002223109014196334 -0.011032469378666036 0.00810720985683124 0.03826367015038372 0.989761896903901 -0.08948277196124525
 -0.002223604465282227 -0.011032432917068914 0.0025352380247626264 0.01721208332051755 0.989761896903901 -0.08948277196124525 0.00812414265095995 0.03826238476278143
0.1438099208003 0.00849772783353195 0.03991785877360531 0.9892111213626571 -0.0934428430988898 0.002836638514069777 0.017948955662525627 -0.00238272352483365 -0.011508662895404488
 0.9892111213626571 -0.0934428430988898 0.008517305670359729 0.03991635290078005 -0.002382182439285088 -0.011508704853948346 0.002720872790080889 0.01796685437488789
 0.002836638514069777 0.017948955662525627 -0.002382182439285088 -0.011508704853948346 0.008498362984431273 0.039919681044106946 0.9892112343858461 -0.09344091827510538
 -0.00238272352483365 -0.011508662895404488 0.002720872790080889 0.01796685437488789 0.9892112343858461 -0.09344091827510538 0.00851687755880745 0.039918302382536595
0.1500625260525 0.008901965659878195 0.041565059701145386 0.9886419159145762 -0.0973910689694551 0.003039477086636263 0.018698817475144174 -0.0025478962452392634 -0.01198205331129445
 0.9886419159145762 -0.0973910689694551 0.008923290053301313 0.04156344190295553 -0.002547307538421123 -0.01198210125613934 0.0029136287947891908 0.01871861334606196
 0.003039477086636263 0.018698817475144174 -0.002547307538421123 -0.01198210125613934 0.00890265588971539 0.04156695441166396 0.9886420388844921 -0.09738905971922501
 -0.0025478962452392634 -0.01198205331129445 0.0029136287947891908 0.01871861334606196 0.9886420388844921 -0.09738905971922501 0.00892282393527041 0.04156547743499833
0.15631513130469998 0.009319204394868668 0.043203394005740546 0.9880543173367912 -0.1013291962218273 0.003249775218443531 0.019445463557843892 -0.0027190587179238774 -0.012452534628849148
 0.9880543173367912 -0.1013291962218273 0.009342350975322999 0.04320165798152395 -0.0027184204055932916 -0.01245258906850022 0.003113441745544271 0.01946728920788737
