! Created with skrf 1.8.0 (http://scikit-rf.org).
# GHz S RI R 50.0 
!freq ReS11 ImS11 ReS12 ImS12 ReS13 ImS13
! ReS14 ImS14
! ReS21 ImS21 ReS22 ImS22 ReS23 ImS23
! ReS24 ImS24
! ReS31 ImS31 ReS32 ImS32 ReS33 ImS33
! ReS34 ImS34
! ReS41 ImS41 ReS42 ImS42 ReS43 ImS43
! ReS44 ImS44
!
0.0 0.001493128237795 0.0 0.9985068717508 0.0 5.736893421718e-05 0.0 -5.736893350674e-05 7.025668078952648e-21
 0.9985068717508 0.0 0.001493128237831 0.0 -5.736893350768e-05 7.025668079067766e-21 5.736893421833e-05 0.0
 5.736893421718e-05 0.0 -5.736893350768e-05 7.025668079067766e-21 0.001493128237821 0.0 0.9985068717508 0.0
 -5.736893350674e-05 7.025668078952648e-21 5.736893421833e-05 0.0 0.9985068717508 0.0 0.001493128237806 0.0
0.005 0.0016063194953782444 0.0012241905554181433 0.9983637206565323 -0.0031277589781264956 7.981951779464977e-05 0.0006164035485369673 -7.769714734499687e-05 -0.00038966020194640915
 0.9983637206565323 -0.0031277589781264956 0.0016063057243891213 0.0012241986480212767 -7.770025147701105e-05 -0.00038966259785636233 7.989802344739393e-05 0.0006163737371230357
 7.981951779464977e-05 0.0006164035485369673 -7.770025147701105e-05 -0.00038966259785636233 0.0016063181925875995 0.001224258612641669 0.9983637210177068 -0.0031276919230044924
 -7.769714734499687e-05 -0.00038966020194640915 7.989802344739393e-05 0.0006163737371230357 0.9983637210177068 -0.0031276919230044924 0.001606307745795037 0.0012242646987617493
0.006252605252188 0.0016359655511201617 0.0015350477221993152 0.9983260041978845 -0.003910469243339671 8.61866604427016e-05 0.0007708144314604921 -8.341172649837408e-05 -0.00048757786230535315
 0.9983260041978845 -0.003910469243339671 0.0016359440238229786 0.0015350579664830523 -8.341655672209667e-05 -0.0004875808168471384 8.630931952325963e-05 0.0007707757149805626
 8.61866604427016e-05 0.0007708144314604921 -8.341655672209667e-05 -0.0004875808168471384 0.0016359634193699698 0.0015351328111283472 0.9983260046675605 -0.003910385409714067
 -8.341172649837408e-05 -0.00048757786230535315 8.630931952325963e-05 0.0007707757149805626 0.9983260046675605 -0.003910385409714067 0.0016359470891527095 0.0015351405394678891
0.01250521050438 0.0017917920128999185 0.0031022182262092253 0.9981265150864593 -0.007821770729904337 0.00012245455744430635 0.001542064158930265 -0.00011570216058565875 -0.000977531307342082
 0.9981265150864593 -0.007821770729904337 0.0017917060461653698 0.0031022400236003604 -0.00011572119546709496 -0.0009775367750406065 0.00012294373111184324 0.0015419711002735838
 0.00012245455744430635 0.001542064158930265 -0.00011572119546709496 -0.0009775367750406065 0.0017917829657175975 0.0031023881620074545 0.9981265164335066 -0.007821603337823252
 -0.00011570216058565875 -0.000977531307342082 0.00012294373111184324 0.0015419711002735838 0.9981265164335066 -0.007821603337823252 0.00179171776156755 0.0031024048196838547
0.01875781575657 0.001960939178672123 0.004691694705873185 0.997908162454983 -0.011743429821620304 0.00016625681012260034 0.0023142540436859914 -0.00015433745614773265 -0.0014691818570776482
 0.997908162454983 -0.011743429821620304 0.0019607459941940863 0.004691729505613497 -0.00015437990411881707 -0.001469189313593401 0.00016735577372879894 0.0023140880492651364
 0.00016625681012260034 0.0023142540436859914 -0.00015437990411881707 -0.001469189313593401 0.0019609184194948836 0.004691949472578665 0.997908165065283 -0.01174317894266795
 -0.00015433745614773265 -0.0014691818570776482 0.00016735577372879894 0.0023140880492651364 0.997908165065283 -0.01174317894266795 0.0019607719092508574 0.004691976313831594
0.02501042100875 0.0021437292881260873 0.006301267428137472 0.997670694985284 -0.015677355175362128 0.00021767817072145595 0.0030874183899486686 -0.00019941189699375735 -0.001962316377014468
 0.997670694985284 -0.015677355175362128 0.0021433861852582447 0.006301316802964455 -0.00019948685658045681 -0.001962325205740826 0.00021963034503318172 0.00308715800077467
 0.00021767817072145595 0.0030874183899486686 -0.00019948685658045681 -0.001962325205740826 0.0021436920224593976 0.006301607059781198 0.9976706992455612 -0.01567702085120343
 -0.00019941189699375735 -0.001962316377014468 0.00021963034503318172 0.00308715800077467 0.9976706992455612 -0.01567702085120343 0.00214343184323053 0.00630164537966492
0.03126302626094 0.002340471258856035 0.007929803570196011 0.9974138482270287 -0.019624368865859096 0.0002768036744123391 0.0038615225540263366 -0.00025101724697241986 -0.0024567855337637654
 0.9974138482270287 -0.019624368865859096 0.002339935591759458 0.007929869213298659 -0.0002511337256508123 -0.002456795024643328 0.00027985284994020223 0.003861143428537543
 0.0002768036744123391 0.0038615225540263366 -0.0002511337256508123 -0.002456795024643328 0.0023404126977113813 0.007930228133418496 0.9974138545305189 -0.019623951125424623
 -0.00025101724697241986 -0.0024567855337637654 0.00027985284994020223 0.003861143428537543 0.9974138545305189 -0.019623951125424623 0.002340006537120272 0.007930279264812896
0.037515631513130004 0.0025514674180787105 0.009576567789651498 0.9971373515313918 -0.02358488575360324 0.00034371792642389414 0.004636504667698585 -0.0003092433936814872 -0.002952462077057569
 0.9971373515313918 -0.02358488575360324 0.0025506965805609347 0.009576651513557952 -0.0003094103174545839 -0.002952471426243762 0.00034810836415561785 0.004635979552360993
 0.00034371792642389414 0.004636504667698585 -0.0003094103174545839 -0.002952471426243762 0.002551382767620271 0.009577077385006355 0.997137360269494 -0.0235843846120087
 -0.0003092433936814872 -0.002952462077057569 0.00034810836415561785 0.004635979552360993 0.997137360269494 -0.0235843846120087 0.002550798351075717 0.009577142696565169
0.043768236765320004 0.0027770160964288295 0.011241015459969252 0.9968409308468542 -0.027559120179582036 0.0004185047634302881 0.0054122883210297465 -0.0003741785785001859 -0.0034492281572017047
 0.9968409308468542 -0.027559120179582036 0.0027759675108676956 0.011241119195894763 -0.00037440479764519794 -0.003449236466921093 0.00042448124261791067 0.005411587017109568
 0.0004185047634302881 0.0054122883210297465 -0.00037440479764519794 -0.003449236466921093 0.0027769005617314132 0.011241610225162856 0.9968409424134084 -0.027558535635239207
 -0.0003741785785001859 -0.0034492281572017047 0.00042448124261791067 0.005411587017109568 0.9968409424134084 -0.027558535635239207 0.002776105641990125 0.011241691119788698
0.050020842017509996 0.0030174128431340866 0.012922707221110684 0.9965243101364739 -0.03154717134303525 0.0005012470472964824 0.006188787803449306 -0.0004459094793058575 -0.0039469700844743565
 0.9965243101364739 -0.03154717134303525 0.003016043950517587 0.01292283301893455 -0.00044620377203739473 -0.0039469763629926624 0.0005090548850442686 0.00618787713228743
 0.0005012470472964824 0.006188787803449306 -0.00044620377203739473 -0.0039469763629926624 0.0030172616247471757 0.012923387327265806 0.9965243249255549 -0.031546503381672135
 -0.0004459094793058575 -0.0039469700844743565 0.0005090548850442686 0.00618787713228743 0.9965243249255549 -0.031546503381672135 0.0030162239725016102 0.012923485240894183
0.055454545454549996 0.003238611254379769 0.014397859464008329 0.9962325369871637 -0.03502415103116909 0.0005796769063287127 0.006864099068133186 -0.0005138309154406106 -0.004380228337907012
 0.9962325369871637 -0.03502415103116909 0.0032369294500039394 0.014398006191302607 -0.0005141914410593548 -0.0043802319728491745 0.0005892758977044865 0.006862977164357871
 0.0005796769063287127 0.006864099068133186 -0.0005141914410593548 -0.0043802319728491745 0.003238425126168831 0.014398613895280507 0.9962325548988085 -0.035023410560470425
 -0.0005138309154406106 -0.004380228337907012 0.0005892758977044865 0.006862977164357871 0.9962325548988085 -0.035023410560470425 0.003237150365307368 0.014398727790092394
0.056273447269699996 0.003272951044137643 0.014621267046253276 0.996187212202852 -0.03554906516390178 0.0005920265152219653 0.006965910672407906 -0.0005245212288490267 -0.004445575763072031
 0.996187212202852 -0.03554906516390178 0.0032712192953703143 0.014621417074654915 -0.0005248923037816134 -0.004445578924674296 0.0006019115693477336 0.00696475443999791
 0.0005920265152219653 0.006965910672407906 -0.0005248923037816134 -0.004445578924674296 0.0032727593402313623 0.014622032693164672 0.996187230611231 -0.03554831376372856
 -0.0005245212288490267 -0.004445575763072031 0.0006019115693477336 0.00696475443999791 0.996187230611231 -0.03554831376372856 0.00327144673545778 0.014622149093887921
0.06252605252188 0.0035439222628082983 0.016336359172902506 0.9958293592373678 -0.039564777283081824 0.0006909236589442982 0.007743559169571204 -0.0006100973994675184 -0.004944933280309887
 0.9958293592373678 -0.039564777283081824 0.003541785110318286 0.016336535719935246 -0.0006105538972814702 -0.004944932145334068 0.0007031323194695196 0.007742118130880099
 0.0006909236589442982 0.007743559169571204 -0.0006105538972814702 -0.004944932145334068 0.003543685268015808 0.016337210590667905 0.9958293816638106 -0.039563942413662845
 -0.0006100973994675184 -0.004944933280309887 0.0007031323194695196 0.007742118130880099 0.9958293816638106 -0.039563942413662845 0.0035420654916166238 0.016337346977972518
0.06877865777407 0.003830616417455186 0.018067674352676873 0.9954504732108361 -0.04359424674716682 0.0007980176207391342 0.00852163106105624 -0.0007027199674004703 -0.0054449300750766495
 0.9954504732108361 -0.04359424674716682 0.0038280313075519084 0.018067879826443478 -0.0007032704620035395 -0.005444923369937241 0.0008127967935730562 0.008519862884351815
 0.0007980176207391342 0.00852163106105624 -0.0007032704620035395 -0.005444923369937241 0.003830329322521898 0.018068611806263964 0.9954505000563553 -0.04359332836518617
 -0.0007027199674004703 -0.0054449300750766495 0.0008127967935730562 0.008519862884351815 0.9954505000563553 -0.04359332836518617 0.003828370148220044 0.018068769710613688
0.07503126302626001 0.0041333218688000255 0.019814921143318294 0.9950502761764229 -0.04763738465430874 0.0009133860972885864 0.009300020180324959 -0.0008024692667253733 -0.005945452407209733
 0.9950502761764229 -0.04763738465430874 0.004130246233622694 0.019815158072984042 -0.0008031222659820363 -0.005945438764439552 0.0009309831819179892 0.009297879411622589
 0.0009133860972885864 0.009300020180324959 -0.0008031222659820363 -0.005945438764439552 0.0041329798611470505 0.019815944923936853 0.9950503078452745 -0.04763638271272697
 -0.0008024692667253733 -0.005945452407209733 0.0009309831819179892 0.009297879411622589 0.9950503078452745 -0.04763638271272697 0.004130649047418327 0.019816125906557527
0.08128386827845 0.004452325448433019 0.021577820099099844 0.9946284905185176 -0.05169407990573649 0.0010371052505231786 0.010078616784511262 -0.0009094239339779408 -0.006446385017235522
 0.9946284905185176 -0.05169407990573649 0.004448716699166146 0.021578091136109583 -0.0009101878802687574 -0.00644636297553836 0.0010577681131046974 0.010076054812268465
 0.0010371052505231786 0.010078616784511262 -0.0009101878802687574 -0.00644636297553836 0.004451923711568613 0.02157893053341819 0.9946285274175354 -0.051692994345054886
 -0.0009094239339779408 -0.006446385017235522 0.0010577681131046974 0.010076054812268465 0.9946285274175354 -0.051692994345054886 0.004449188993592697 0.021579136186330637
0.08753647353064001 0.004787912449369921 0.02335609977140707 0.9941848391650396 -0.05576420315140589 0.001169249621074655 0.010857307810351782 -0.001023660848467422 -0.006947610890435341
 0.9941848391650396 -0.05576420315140589 0.004783727968128859 0.02335640769107081 -0.0010245441188979018 -0.006947578894751192 0.0011932265637453168 0.0108542728305079
 0.001169249621074655 0.010857307810351782 -0.0010245441188979018 -0.006947578894751192 0.004787446163341139 0.023357297214703435 0.994184881704951 -0.055763033906972174
 -0.001023660848467422 -0.006947610890435341 0.0011932265637453168 0.0108542728305079 0.994184881704951 -0.055763033906972174 0.004784275244798479 0.02335752916103744
0.09378907878283 0.005140366589249188 0.02514949382971012 0.9937190457773613 -0.05984760961965376 0.0013098920444500788 0.011635977059334257 -0.0011452550680727239 -0.0074490110959202225
 0.9937190457773613 -0.05984760961965376 0.005135563721902583 0.02514984153286619 -0.0011462659745624028 -0.007448967497501892 0.0013374317716141847 0.011632414040674879
 0.0013098920444500788 0.011635977059334257 -0.0011462659745624028 -0.007448967497501892 0.00513983093046394 0.025150778671812063 0.9937190943725157 -0.05984635661626103
 -0.0011452550680727239 -0.0074490110959202225 0.0013374317716141847 0.011632414040674879 0.9937190943725157 -0.05984635661626103 0.005136191475789815 0.02515103856633266
0.100041684035 0.005509969954956042 0.026957738971269164 0.993230834923897 -0.06394414116298994 0.0014591035686610913 0.012414505338414253 -0.001274279762262271 -0.00795046467422184
 0.993230834923897 -0.06394414116298994 0.005504506003876987 0.026958129486382588 -0.0012754265515341479 -0.007950407730715429 0.001490455150544646 0.012410355988500259
 0.0014591035686610913 0.012414505338414253 -0.0012754265515341479 -0.007950407730715429 0.00550936009595069 0.02695911163261364 0.9932308899924723 -0.06394280431933473
 -0.001274279762262271 -0.00795046467422184 0.001490455150544646 0.012410355988500259 0.9932308899924723 -0.06394280431933473 0.005505219721986773 0.026959401162542026
0.1059090909091 0.005872650332931037 0.028667858869387875 0.9927520679671986 -0.0678000873720177 0.0016069779101146539 0.013144834638453196 -0.0014021771488603068 -0.00842096461509128
 0.9927520679671986 -0.0678000873720177 0.005866527146527063 0.028668292428981584 -0.0014034588917875624 -0.00842089348068596 0.0016421333316755436 0.013140079127851388
 0.0016069779101146539 0.013144834638453196 -0.0014034588917875624 -0.00842089348068596 0.005871966451409065 0.028669314352432317 0.9927521294947761 -0.06779867177124332
 -0.0014021771488603068 -0.00842096461509128 0.0016421333316755436 0.013140079127851388 0.9927521294947761 -0.06779867177124332 0.005867326516210337 0.028669633256402642
0.1062942892872 0.005897002932011819 0.02878057333562847 0.9927199322419817 -0.06805362780394478 0.0016169533730175311 0.013192770571536646 -0.0014108061427665882 -0.00845184855859547
 0.9927199322419817 -0.06805362780394478 0.005890835148514419 0.028781009821021063 -0.001412096996178718 -0.008451776434140103 0.0016523662067617338 0.013187973303032747
 0.0016169533730175311 0.013192770571536646 -0.001412096996178718 -0.008451776434140103 0.0058963140419875685 0.028782034271961576 0.9927199942067898 -0.06805220702846107
 -0.0014108061427665882 -0.00845184855859547 0.0016523662067617338 0.013187973303032747 0.9927199942067898 -0.06805220702846107 0.005891640309861573 0.028782355158047297
0.11254689453939999 0.006301744124202239 0.030617735301597962 0.9921860645927529 -0.07217588890367414 0.001783508687292333 0.013970647890659344 -0.001554903392670629 -0.008953037521245363
 0.9921860645927529 -0.07217588890367414 0.006294829701240703 0.03061822104807891 -0.0015563464259672588 -0.008952948286583433 0.0018232324561002664 0.013965137788235493
 0.001783508687292333 0.013970647890659344 -0.0015563464259672588 -0.008952948286583433 0.006300971368925913 0.03061928499988905 0.9921861338811945 -0.07217438409912953
 -0.001554903392670629 -0.008953037521245363 0.0018232324561002664 0.013965137788235493 0.9921861338811945 -0.07217438409912953 0.006295731775809346 0.030619638997831662
0.11879949979160001 0.006724470264388767 0.03246896254481506 0.9916289602099313 -0.07631073407515762 0.0019588347117948605 0.01474800971265841 -0.0017066385938372451 -0.009453904138200504
 0.9916289602099313 -0.07631073407515762 0.0067167663289426915 0.032469500978521554 -0.0017082418568426178 -0.009453795770800947 0.0020031193419750774 0.014741718500519715
 0.0019588347117948605 0.01474800971265841 -0.0017082418568426178 -0.009453795770800947 0.006723608806346354 0.03247060152704379 0.9916290372546535 -0.07630914513550348
 -0.0017066385938372451 -0.009453904138200504 0.0020031193419750774 0.014741718500519715 0.9916290372546535 -0.07630914513550348 0.0067177707768477255 0.032470990429152934
0.1250521050438 0.00716545611808602 0.034333991299213495 0.991048348844821 -0.08045796389812031 0.0021429945372789102 0.015524725807039534 -0.0018660766535190756 -0.009954318768172609
 0.991048348844821 -0.08045796389812031 0.007156919724073223 0.03433458598474569 -0.0018678481297373932 -0.009954189152363433 0.0021920901538157395 0.01551758181700783
 0.0021429945372789102 0.015524725807039534 -0.0018678481297373932 -0.009954189152363433 0.0071645011162884695 0.034335720124294776 0.9910484340833954 -0.08045629070710283
 -0.0018660766535190756 -0.009954318768172609 0.0021920901538157395 0.01551758181700783 0.9910484340833954 -0.08045629070710283 0.0071580319945776325 0.034336145761403744
0.131304710296 0.007624974381713054 0.03621255576366536 0.9904439619076 -0.08461737049431411 0.002336049065607983 0.016300663356374548 -0.0020332802299313337 -0.010454149543328154
 0.9904439619076 -0.08461737049431411 0.007615562502185682 0.036213210407604765 -0.0020352278360850867 -0.010453996470459491 0.0023902059458053575 0.01629259149671852
 0.002336049065607983 0.016300663356374548 -0.0020352278360850867 -0.010453996470459491 0.007623920992275043 0.03621437502199493 0.9904440557835041 -0.08461561293150187
 -0.0020332802299313337 -0.010454149543328154 0.0023902059458053575 0.01629259149671852 0.9904440557835041 -0.08461561293150187 0.007616788033237167 0.03621483926582409
0.1375573155481 0.007996815813227694 0.037860137469844464 0.9899220527374704 -0.0885443760178069 0.002513002407260764 0.017051294407701173 -0.002183190977778084 -0.010928926078718874
 0.9899220527374704 -0.0885443760178069 0.007986483270214721 0.03786084450414892 -0.002185326459375925 -0.010928749405944776 0.0025723426736525236 0.017042307533508633
 0.002513002407260764 0.017051294407701173 -0.002185326459375925 -0.010928749405944776 0.00799565984608739 0.0378620478026504 0.989922155644237 -0.08854253403740701
 -0.002183190977778084 -0.010928926078718874 0.0025723426736525236 0.017042307533508633 0.989922155644237 -0.08854253403740701 0.007987826936325403 0.037862541285470015
0.1438099208003 0.008381719203158328 0.03949927433750523 0.9893818543740353 -0.092461647393195 0.0026970852480326696 0.017799011398314864 -0.002339094095942811 -0.01140099594788003
 0.9893818543740353 -0.092461647393195 0.008370422552770094 0.03950003687702297 -0.002341425963395204 -0.011400793505639295 0.002761836230337978 0.017789040990315388
 0.0026970852480326696 0.017799011398314864 -0.002341425963395204 -0.011400793505639295 0.008380455928324952 0.039501276354990116 0.989381966752475 -0.09245972088129518
 -0.002339094095942811 -0.01140099594788003 0.002761836230337978 0.017789040990315388 0.989381966752475 -0.09245972088129518 0.008371889674780234 0.03950180030427371
0.1500625260525 0.008779552505085319 0.04112983585472092 0.9888235028516653 -0.09636909372980952 0.00288823501612364 0.01854374245035882 -0.0025009280265966267 -0.01187028994950015
 0.9888235028516653 -0.09636909372980952 0.008767248218739115 0.04113065718887098 -0.00250346477241071 -0.011870059481084723 0.0029586227037328 0.018532717498947537
 0.00288823501612364 0.01854374245035882 -0.00250346477241071 -0.011870059481084723 0.008778177197408796 0.04113193019391693 0.9888236251473613 -0.09636708256670456
 -0.0025009280265966267 -0.01187028994950015 0.0029586227037328 0.018532717498947537 0.9888236251473613 -0.09636708256670456 0.00876884410016788 0.04113248593537828
0.15631513130469998 0.009190182777196037 0.04275169547357726 0.9882471348528423 -0.10026662432684633 0.0030863884175101144 0.019285416888761696 -0.002668630470268577 -0.012336740321895927
