! Created with skrf 1.8.0 (http://scikit-rf.org).
# GHz S RI R 50.0 
!freq ReS11 ImS11 ReS12 ImS12 ReS13 ImS13
! ReS14 ImS14
! ReS21 ImS21 ReS22 ImS22 ReS23 ImS23
! ReS24 ImS24
! ReS31 ImS31 ReS32 ImS32 ReS33 ImS33
! ReS34 ImS34
! ReS41 ImS41 ReS42 ImS42 ReS43 ImS43
! ReS44 ImS44
!
0.0 0.00137710210717 0.0 0.9986228978685 0.0 5.294168383053e-05 0.0 -5.294168285229e-05 6.4834862446531264e-21
 0.9986228978685 0.0 0.001377102107168 0.0 -5.29416828522e-05 6.483486244642105e-21 5.294168382796e-05 0.0
 5.294168383053e-05 0.0 -5.29416828522e-05 6.483486244642105e-21 0.001377102119335 0.0 0.9986228978806 0.0
 -5.294168285229e-05 6.4834862446531264e-21 5.294168382796e-05 0.0 0.9986228978806 0.0 0.001377102119336 0.0
0.005 0.0014812249534429357 0.0011249586977331778 0.9984912212285845 -0.0028853295967400426 7.427153153911023e-05 0.0005949343404486958 -7.204407675340283e-05 -0.000371493077397412
 0.9984912212285845 -0.0028853295967400426 0.001481250518848557 0.0011249437398323024 -7.204379884923828e-05 -0.00037149280948283315 7.410997560248253e-05 0.0005949956676907999
 7.427153153911023e-05 0.0005949343404486958 -7.204379884923828e-05 -0.00037149280948283315 0.0014812257071294599 0.0011250254717453927 0.9984912215691757 -0.0028852625331829834
 -7.204407675340283e-05 -0.000371493077397412 7.410997560248253e-05 0.0005949956676907999 0.9984912215691757 -0.0028852625331829834 0.0014812504399448114 0.001125011086657818
0.006252605252188 0.001508402276996923 0.0014106507695103927 0.998456651071859 -0.003607388526589876 8.031037411810021e-05 0.0007439578178616012 -7.737883351609672e-05 -0.0004648568578413992
 0.998456651071859 -0.003607388526589876 0.0015084422409381664 0.001410631801661666 -7.737840149947694e-05 -0.0004648565263010814 8.005795396585284e-05 0.00074403743350244
 8.031037411810021e-05 0.0007439578178616012 -7.737840149947694e-05 -0.0004648565263010814 0.001508403383978969 0.0014107342242714632 0.9984566515327133 -0.003607304701533354
 -7.737883351609672e-05 -0.0004648568578413992 8.005795396585284e-05 0.00074403743350244 0.9984566515327133 -0.003607304701533354 0.0015084420456645874 0.0014107159831420616
0.01250521050438 0.0016507077200763197 0.002851114292612833 0.9982745096266427 -0.007215715054085063 0.0001146500800727834 0.0014882750535618044 -0.00010733324459962992 -0.0009320606243073766
 0.9982745096266427 -0.007215715054085063 0.001650867304842494 0.002851073641141532 -0.00010733154727509223 -0.0009320599971601966 0.00011364338560825401 0.0014884659437970247
 0.0001146500800727834 0.0014882750535618044 -0.00010733154727509223 -0.0009320599971601966 0.0016507115966212698 0.00285128085836812 0.9982745109194316 -0.007215547639948189
 -0.00010733324459962992 -0.0009320606243073766 0.00011364338560825401 0.0014884659437970247 0.9982745109194316 -0.007215547639948189 0.0016508659678942325 0.002851241775622295
0.01875781575657 0.0018043032892296554 0.004312346326158758 0.9980762658177613 -0.010833790904543705 0.00015603485123492724 0.0022334775975621133 -0.00014289170139972885 -0.0014009395367505708
 0.9980762658177613 -0.010833790904543705 0.0018046618971961689 0.0043122810928782115 -0.0001428879235028444 -0.0014009386544522958 0.00015377317855003956 0.0022338170788823806
 0.00015603485123492724 0.0022334775975621133 -0.0001428879235028444 -0.0014009386544522958 0.0018043115883663694 0.0043125957596673176 0.9980762683044913 -0.010833539973399977
 -0.00014289170139972885 -0.0014009395367505708 0.00015377317855003956 0.0022338170788823806 0.9980762683044913 -0.010833539973399977 0.0018046584546929586 0.00431253307863637
0.02501042100875 0.001969466769258872 0.005792325484229854 0.9978617044722864 -0.014463396862482339 0.00020454049514514097 0.002979614677885102 -0.0001841385800755299 -0.0018712943618118363
 0.9978617044722864 -0.014463396862482339 0.0019701036510240315 0.005792232618111533 -0.00018413191834778543 -0.0018712932703127802 0.00020052278263700576 0.002980145509168463
 0.00020454049514514097 0.002979614677885102 -0.00018413191834778543 -0.0018712932703127802 0.001969481147909377 0.005792657530159913 0.997861708519765 -0.014463062435253702
 -0.0001841385800755299 -0.0018712943618118363 0.00020052278263700576 0.002980145509168463 0.997861708519765 -0.014463062435253702 0.001970097132819028 0.005792568366921736
0.03126302626094 0.0021464643157808345 0.007290025108634023 0.9976305985375069 -0.018105311283253996 0.0002602436799769713 0.0037266660454646347 -0.0002311561224899262 -0.002342991091074717
 0.9976305985375069 -0.018105311283253996 0.002147458612596165 0.007289901412076712 -0.00023114578365497103 -0.0023429898419157747 0.00025396803305084324 0.0037274364595040483
 0.0002602436799769713 0.0037266660454646347 -0.00023114578365497103 -0.0023429898419157747 0.002146486431255703 0.0072904394840977264 0.9976306045143309 -0.01810489334486517
 -0.0002311561224899262 -0.002342991091074717 0.00025396803305084324 0.0037274364595040483 0.9976306045143309 -0.01810489334486517 0.002147448037914538 0.007290320833924078
0.037515631513130004 0.002335556471793543 0.008804786106481466 0.997382715237678 -0.02175993720163623 0.0003232210835605146 0.004474584269499689 -0.0002840250566160031 -0.0028159186269663856
 0.997382715237678 -0.02175993720163623 0.0023369872434047083 0.008804628238636354 -0.00028401025624130325 -0.002815917277268132 0.0003141845537925741 0.004475648029726113
 0.0003232210835605146 0.004474584269499689 -0.00028401025624130325 -0.002815917277268132 0.0023355879814894714 0.008805282489619154 0.9973827235150372 -0.021759435711988313
 -0.0002840250566160031 -0.0028159186269663856 0.0003141845537925741 0.004475648029726113 0.9973827235150372 -0.021759435711988313 0.0023369716208084187 0.008805131230710212
0.043768236765320004 0.0025370004986973228 0.010336126065516286 0.997117818549892 -0.025427493154548855 0.00039354900719524 0.00522330760056065 -0.00034282482413089643 -0.0032899759079259203
 0.997117818549892 -0.025427493154548855 0.0025389467445715514 0.010335930544583533 -0.00034280478592529527 -0.0032899745203684985 0.00038124748020923975 0.005224724065544851
 0.00039354900719524 0.00522330760056065 -0.00034280478592529527 -0.0032899745203684985 0.0025370430594322366 0.010336704088849373 0.9971178295022558 -0.025426908054750202
 -0.00034282482413089643 -0.0032899759079259203 0.00038124748020923975 0.005224724065544851 0.9971178295022558 -0.025426908054750202 0.0025389250714899303 0.01033651698494301
0.050020842017509996 0.0027510514650608718 0.01188366038192054 0.996835670442134 -0.029108091989238735 0.00047130314757596963 0.005972765290544639 -0.0004076336739921208 -0.0037650665795524838
 0.996835670442134 -0.029108091989238735 0.002753592143640187 0.011883423586592124 -0.00040760762939237355 -0.003765065222330141 0.0004552312887477815 0.0059745994818302195
 0.00047130314757596963 0.005972765290544639 -0.00040760762939237355 -0.003765065222330141 0.0027511067327963155 0.011884319630702593 0.9968356844479498 -0.02910742320278874
 -0.0004076336739921208 -0.0037650665795524838 0.0004552312887477815 0.0059745994818302195 0.9968356844479498 -0.02910742320278874 0.0027535634058834906 0.011884093333033701
0.055454545454549996 0.0029475034902035117 0.013241412522915157 0.9965762790789647 -0.032317273157406755 0.0005449630720272086 0.00662460333277105 -0.0004688945335356306 -0.004178700787571686
 0.9965762790789647 -0.032317273157406755 0.002950624852984782 0.013241136810436337 -0.00046886265069470874 -0.004178699516356251 0.0005252033238486305 0.006626857796632493
 0.0005449630720272086 0.00662460333277105 -0.00046886265069470874 -0.004178699516356251 0.0029475711440909934 0.013242141991927392 0.9965762960492405 -0.03231653156220641
 -0.0004688945335356306 -0.004178700787571686 0.0005252033238486305 0.006626857796632493 0.9965762960492405 -0.03231653156220641 0.0029505891431266967 0.013241878827785422
0.056273447269699996 0.0029779628150054223 0.013447063532825092 0.9965360315931813 -0.03280177952664735 0.0005565584463366263 0.006722880186498614 -0.0004785286889263985 -0.0042410963942847
 0.9965360315931813 -0.03280177952664735 0.0029811768599293286 0.01344678170338615 -0.0004784958766664975 -0.004241095141076502 0.0005362096805970343 0.006725202857965257
 0.0005565584463366263 0.006722880186498614 -0.0004784958766664975 -0.004241095141076502 0.00297803244351384 0.013447803553250271 0.9965360490351648 -0.03280102695080593
 -0.0004785286889263985 -0.0042410963942847 0.0005362096805970343 0.006725202857965257 0.9965360490351648 -0.03280102695080593 0.002981140031245461 0.01344753460197826
0.06252605252188 0.003217986678844187 0.01502604780537505 0.9962186618587962 -0.03650855576948213 0.0006493889714288843 0.007473570164526121 -0.0005555857839349365 -0.0047179717734117345
 0.9962186618587962 -0.03650855576948213 0.0032219530152916543 0.015025717044230717 -0.0005555454498372189 -0.004717970703335748 0.000624255486290844 0.007476457872487011
 0.0006493889714288843 0.007473570164526121 -0.0005555454498372189 -0.004717970703335748 0.003218072319799392 0.015026868094989466 0.9962186831252225 -0.036507719284475895
 -0.0005555857839349365 -0.0047179717734117345 0.000624255486290844 0.007476457872487011 0.9962186831252225 -0.036507719284475895 0.0032219070573563362 0.01502655292018172
0.06877865777407 0.003471374047559759 0.016620350593512502 0.9958833206041425 -0.040228387544486925 0.0007498678202757323 0.008224748979698448 -0.0006388796854849514 -0.00519559895558942
 0.9958833206041425 -0.040228387544486925 0.0034761716072500806 0.01661996686536811 -0.0006388310822197183 -0.005195598153167645 0.000719440584524795 0.00822828415328464
 0.0007498678202757323 0.008224748979698448 -0.0006388310822197183 -0.005195598153167645 0.003471477349010173 0.016621250597593066 0.9958833460888058 -0.0402274670167617
 -0.0006388796854849514 -0.00519559895558942 0.000719440584524795 0.00822828415328464 0.9958833460888058 -0.0402274670167617 0.003476115468811642 0.016620885519786355
0.07503126302626001 0.0037383748624360853 0.018229726351848476 0.9955297669542852 -0.04396121648980114 0.0008580670338218024 0.008976326806690417 -0.0007284839002065692 -0.005673883457294325
 0.9955297669542852 -0.04396121648980114 0.003744082598662967 0.01822928548343653 -0.0007284262871198741 -0.005673883012406158 0.0008218358282037417 0.008980597818207352
 0.0008580670338218024 0.008976326806690417 -0.0007284262871198741 -0.005673883012406158 0.0037384974680667407 0.01823070547611844 0.9955297970570152 -0.043960211758931736
 -0.0007284839002065692 -0.005673883457294325 0.0008218358282037417 0.008980597818207352 0.9955297970570152 -0.043960211758931736 0.003744015215037524 0.01823028670648274
0.08128386827845 0.004019238056315901 0.019853941248130558 0.9951577599995357 -0.047706964346388506 0.0009740575184432747 0.009728210601110975 -0.0008244706757485958 -0.006152729715335996
 0.9951577599995357 -0.047706964346388506 0.004025934958761429 0.019853438927554135 -0.0008244033187233066 -0.0061527297231883235 0.0009315109756295982 0.009733311836166937
 0.0009740575184432747 0.009728210601110975 -0.0008244033187233066 -0.0061527297231883235 0.004019381604336802 0.01985499884346587 0.9951577951268178 -0.04770587524004946
 -0.0008244706757485958 -0.006152729715335996 0.0009315109756295982 0.009733311836166937 0.9951577951268178 -0.04770587524004946 0.004025855251190419 0.019854522483541377
0.08753647353064001 0.004314211557877179 0.02149276944669302 0.9947670589661337 -0.05146553662126436 0.0010979089722193117 0.010480304349078737 -0.0009269109570101447 -0.006632040843979149
 0.9947670589661337 -0.05146553662126436 0.004321976667171672 0.02149220122231746 -0.0009268331283173215 -0.0066320414050623335 0.001048534624106457 0.010486336276372417
 0.0010979089722193117 0.010480304349078737 -0.0009268331283173215 -0.0066320414050623335 0.004314377680792209 0.021493904819071687 0.994767099532253 -0.05146436294499359
 -0.0009269109570101447 -0.006632040843979149 0.001048534624106457 0.010486336276372417 0.994767099532253 -0.05146436294499359 0.0043218835432065755 0.021493366860047193
0.09378907878283 0.004623542275346149 0.02314599047318282 0.9943574233692435 -0.05523682517251616 0.0012296898145815016 0.01123250924889979 -0.0010358743383609354 -0.0071117184629410505
 0.9943574233692435 -0.05523682517251616 0.004632454697662685 0.023145351752094555 -0.001035785316567157 -0.007111719682994675 0.0011729741456667814 0.011239578489494114
 0.0012296898145815016 0.01123250924889979 -0.001035785316567157 -0.007111719682994675 0.004623732598639665 0.023147202876906955 0.9943574697964919 -0.055235566716229846
 -0.0010358743383609354 -0.0071117184629410505 0.0011729741456667814 0.011239578489494114 0.9943574697964919 -0.055235566716229846 0.004632347050156569 0.02314659919849129
0.100041684035 0.004947476061733673 0.024813387261949232 0.9939286131500803 -0.05902071011488471 0.0013694671175062244 0.011984723845429413 -0.0011514290135744975 -0.007591662575711415
 0.9939286131500803 -0.05902071011488471 0.004957614983550893 0.024812673308004882 -0.0011513280834366646 -0.007591664565688941 0.0013048956236159169 0.011992943241474178
 0.0013694671175062244 0.011984723845429413 -0.0011513280834366646 -0.007591664565688941 0.004947692202663163 0.02481467590268822 0.993928665869127 -0.05901936664955101
 -0.0011514290135744975 -0.007591662575711415 0.0013048956236159169 0.011992943241474178 0.993928665869127 -0.05901936664955101 0.004957491690061891 0.02481400227152122
0.1059090909091 0.005264952930243343 0.02639076335832146 0.9935085677762798 -0.06258282521611667 0.0015079644895998822 0.012690513671181203 -0.001265919000617207 -0.00804219102054604
 0.9935085677762798 -0.06258282521611667 0.0052763148954151195 0.026389974369122507 -0.0012658062506813647 -0.00804219383853758 0.0014355523761892112 0.012699920596291318
 0.0015079644895998822 0.012690513671181203 -0.0012658062506813647 -0.00804219383853758 0.00526519476125968 0.02639212277272717 0.9935086267998601 -0.06258140175448154
 -0.001265919000617207 -0.00804219102054604 0.0014355523761892112 0.012699920596291318 0.9935086267998601 -0.06258140175448154 0.005276175885258284 0.026391379545604506
0.1062942892872 0.005286257667703619 0.026494744701237992 0.9934803888032238 -0.06281706123075005 0.0015173065386390955 0.012736844137237623 -0.0012736417231828537 -0.008071771478262733
 0.9934803888032238 -0.06281706123075005 0.005297702370536363 0.026493950632607118 -0.0012735281755495646 -0.008071774354294415 0.0014443637901576723 0.01274633282001616
 0.0015173065386390955 0.012736844137237623 -0.0012735281755495646 -0.008071774354294415 0.005286501234601374 0.02649610873506993 0.9934804482542902 -0.06281563250924557
 -0.0012736417231828537 -0.008071771478262733 0.0014443637901576723 0.01274633282001616 0.9934804482542902 -0.06281563250924557 0.005297562293165454 0.02649536080267053
0.11254689453939999 0.005640130685441047 0.028189848512347068 0.9930125114976498 -0.06662573905081214 0.001673272255154363 0.013488763657299528 -0.0014025777003023405 -0.008551941697407105
 0.9930125114976498 -0.06662573905081214 0.005652960560656261 0.028188969298665656 -0.001402450832053655 -0.008551945580764806 0.0015914419642764977 0.013499647114499802
 0.001673272255154363 0.013488763657299528 -0.001402450832053655 -0.008551945580764806 0.005640403276796007 0.02819128704504973 0.993012578130894 -0.06662422480838133
 -0.0014025777003023405 -0.008551941697407105 0.0015914419642764977 0.013499647114499802 0.993012578130894 -0.06662422480838133 0.0056528025454963375 0.028190460345313185
0.11879949979160001 0.006009337485264483 0.029898484378029607 0.9925247431927806 -0.07044659568911178 0.0018374268983147252 0.01424037354330268 -0.0015383006150567788 -0.009032067942849449
 0.9925247431927806 -0.07044659568911178 0.006023632049016723 0.02989751483695704 -0.0015381597290202193 -0.009032072959918454 0.0017461919900162437 0.01425278368547905
 0.0018374268983147252 0.01424037354330268 -0.0015381597290202193 -0.009032072959918454 0.006009640688517906 0.029899996465553465 0.9925248174687514 -0.07044499564281054
 -0.0015383006150567788 -0.009032067942849449 0.0017461919900162437 0.01425278368547905 0.9925248174687514 -0.07044499564281054 0.0060234549256399095 0.02989908641172541
0.1250521050438 0.006394119145618905 0.03162043725348306 0.9920168467498055 -0.07427947549919024 0.0020098314883635034 0.014991562595123633 -0.0016808725180073613 -0.0095120430754212
 0.9920168467498055 -0.07427947549919024 0.006409958053951044 0.0316193720468201 -0.001680716922899943 -0.009512049357658913 0.0019086741746628417 0.015005637821285703
 0.0020098314883635034 0.014991562595123633 -0.001680716922899943 -0.009512049357658913 0.006394454536221753 0.03162202190233662 0.9920169291403048 -0.07427778934738528
 -0.0016808725180073613 -0.0095120430754212 0.0019086741746628417 0.015005637821285703 0.9920169291403048 -0.07427778934738528 0.0064097606349090884 0.03162102378347995
0.131304710296 0.006794715378871682 0.03335549081357343 0.9914885860420526 -0.07812421559781213 0.002190545369959209 0.01574221732482425 -0.0018303537824796111 -0.009991758086248538
 0.9914885860420526 -0.07812421559781213 0.0068121784427084145 0.03335432444293171 -0.0018301827928119906 -0.009991765770157993 0.0020789472272303923 0.015758102587058714
 0.002190545369959209 0.01574221732482425 -0.0018301827928119906 -0.009991765770157993 0.00679508451918409 0.03335714697807373 0.9914886770308605 -0.07812244302290644
 -0.0018303537824796111 -0.009991758086248538 0.0020789472272303923 0.015758102587058714 0.9914886770308605 -0.07812244302290644 0.006811959523230157 0.03335605595504937
0.1375573155481 0.007115374922684423 0.03487639539621502 0.9910357438792147 -0.08175354309259265 0.002356190788023186 0.016469016885742024 -0.0019635029700268637 -0.01044781648349011
 0.9910357438792147 -0.08175354309259265 0.007134547149752006 0.034875147091215426 -0.0019633154158816245 -0.010447825557786375 0.0022338982147202652 0.016486679673127273
 0.002356190788023186 0.016469016885742024 -0.0019633154158816245 -0.010447825557786375 0.007115778665238388 0.034878122442289404 0.9910358438606239 -0.08175168390298895
 -0.0019635029700268637 -0.01044781648349011 0.0022338982147202652 0.016486679673127273 0.9910358438606239 -0.08175168390298895 0.007134306391203849 0.03487695776905473
0.1438099208003 0.007447168082462962 0.03638993915496168 0.9905672310707072 -0.08537433877636148 0.002528552263445606 0.017193238733912118 -0.0021019950968597335 -0.010901571248602571
 0.9905672310707072 -0.08537433877636148 0.00746813027485018 0.03638860490852978 -0.0021017902139472016 -0.010901581849352696 0.002395093852624866 0.017212810593046076
 0.002528552263445606 0.017193238733912118 -0.0021017902139472016 -0.010901581849352696 0.007447607842120436 0.03639173603001772 0.9905673405273638 -0.08537239265833667
 -0.0021019950968597335 -0.010901571248602571 0.002395093852624866 0.017212810593046076 0.9905673405273638 -0.08537239265833667 0.007467866604327399 0.036390494307825566
0.1500625260525 0.007789986460931403 0.03789601530364414 0.9900831594252423 -0.08898653281324506 0.0027075765796900726 0.017914820562359237 -0.002245779542572338 -0.011352964940557313
 0.9900831594252423 -0.08898653281324506 0.007812819596755451 0.03789459086272271 -0.002245556566401085 -0.011352977209461903 0.002562483397867808 0.01793643781519173
 0.0027075765796900726 0.017914820562359237 -0.002245556566401085 -0.011352977209461903 0.007790463631308705 0.03789788091446317 0.990083278849946 -0.08898449944052961
 -0.002245779542572338 -0.011352964940557313 0.002562483397867808 0.01793643781519173 0.990083278849946 -0.08898449944052961 0.007812531934638075 0.037896558520652754
0.15631513130469998 0.00814372099227816 0.03939452038554219 0.9895836412065124 -0.09259005522367703 0.0028932099518690184 0.018633700999882718 -0.0023948051195476355 -0.01180194126120596
