! Created with skrf 1.8.0 (http://scikit-rf.org).
# GHz S RI R 50.0 
!freq ReS11 ImS11 ReS12 ImS12 ReS13 ImS13
! ReS14 ImS14
! ReS21 ImS21 ReS22 ImS22 ReS23 ImS23
! ReS24 ImS24
! ReS31 ImS31 ReS32 ImS32 ReS33 ImS33
! ReS34 ImS34
! ReS41 ImS41 ReS42 ImS42 ReS43 ImS43
! ReS44 ImS44
!
0.0 0.001616378350518 0.0 0.9983836216491 0.0 6.259117870698e-05 0.0 -6.259117835236e-05 7.665208622407878e-21
 0.9983836216491 0.0 0.001616378350539 0.0 -6.259117835303e-05 7.665208622489929e-21 6.259117870895e-05 0.0
 6.259117870698e-05 0.0 -6.259117835303e-05 7.665208622489929e-21 0.001616378350538 0.0 0.9983836216491 0.0
 -6.259117835236e-05 7.665208622407878e-21 6.259117870895e-05 0.0 0.9983836216491 0.0 0.001616378350532 0.0
0.005 0.0017393526018523202 0.0013198852436996868 0.9982280203570028 -0.003385735075677269 8.80689962608077e-05 0.000703380496945563 -8.5530816400479e-05 -0.00043904321500916815
 0.9982280203570028 -0.003385735075677269 0.0017393290890382457 0.0013198989432245283 -8.55262761411999e-05 -0.0004390397329129694 8.822791502944487e-05 0.0007033199615449508
 8.80689962608077e-05 0.000703380496945563 -8.55262761411999e-05 -0.0004390397329129694 0.0017393545522207004 0.0013198167991575554 0.9982280199948221 -0.003385802143749376
 -8.5530816400479e-05 -0.00043904321500916815 8.822791502944487e-05 0.0007033199615449508 0.9982280199948221 -0.003385802143749376 0.0017393264202548535 0.0013198332561249063
0.006252605252188 0.0017716755192508005 0.001655049600949132 0.9981868584018413 -0.004232987267599633 9.535662420029985e-05 0.0008795575130792571 -9.204013608088299e-05 -0.0005493706338429014
 0.9981868584018413 -0.004232987267599633 0.0017716387648962306 0.001655067028237382 -9.203307103082372e-05 -0.0005493663410085619 9.56049192445537e-05 0.000879478893876104
 9.535662420029985e-05 0.0008795575130792571 -9.203307103082372e-05 -0.0005493663410085619 0.001771678634643866 0.001654964061993555 0.9981868579016956 -0.004233071084649277
 -9.204013608088299e-05 -0.0005493706338429014 9.56049192445537e-05 0.000879478893876104 0.9981868579016956 -0.004233071084649277 0.0017716346589024452 0.0016549849433374689
0.01250521050438 0.0019422400476918676 0.003344749961013525 0.9979681980183049 -0.008466715048030257 0.00013719737082518082 0.0017594221817776256 -0.0001291479381891095 -0.0011013721764775999
 0.9979681980183049 -0.008466715048030257 0.0019420932913240194 0.0033447878503506103 -0.0001291200950298453 -0.0011013642489210926 0.00013818749955186375 0.0017592330198469637
 0.00013719737082518082 0.0017594221817776256 -0.0001291200950298453 -0.0011013642489210926 0.0019422530697753878 0.0033445791011085984 0.9979681965964944 -0.008466882446009752
 -0.0001291479381891095 -0.0011013721764775999 0.00013818749955186375 0.0017592330198469637 0.9979681965964944 -0.008466882446009752 0.0019420774686466251 0.0033446240118110574
0.01875781575657 0.002128458557122706 0.005058440611246027 0.9977273584431644 -0.012711473344314618 0.00018821430020889997 0.002640190763065378 -0.00017403202051035775 -0.0016551805397395716
 0.9977273584431644 -0.012711473344314618 0.002128128795459181 0.005058502161658979 -0.00017396992896216644 -0.001655169768676661 0.0001904384793322708 0.00263985266149066
 0.00018821430020889997 0.002640190763065378 -0.00017396992896216644 -0.001655169768676661 0.0021284882573480014 0.00505818446325791 0.9977273556726309 -0.012711724249255327
 -0.00017403202051035775 -0.0016551805397395716 0.0001904384793322708 0.00263985266149066 0.9977273556726309 -0.012711724249255327 0.0021280936624428408 0.005058256839201123
0.02501042100875 0.00233070542948292 0.006793700226978727 0.9974640461026534 -0.01696930078503373 0.0002485087645495297 0.003521895144898243 -0.0002268056735355083 -0.002210529626152788
 0.9974640461026534 -0.01696930078503373 0.002330119808305405 0.006793788777574867 -0.00022669602459702645 -0.002210516949379299 0.00025245936049359224 0.0035213634461315974
 0.0002485087645495297 0.003521895144898243 -0.00022669602459702645 -0.002210516949379299 0.0023307585743835395 0.006793358764552492 0.9974640415548811 -0.0169696351627046
 -0.0002268056735355083 -0.002210529626152788 0.00025245936049359224 0.0035213634461315974 0.9974640415548811 -0.0169696351627046 0.002330057783367891 0.0067934622987378904
0.03126302626094 0.0025493395769797377 0.008549273070690802 0.9971779529937086 -0.02124105814528467 0.00031818215545105434 0.004404484234931146 -0.0002875787636629961 -0.0027672295997248015
 0.9971779529937086 -0.02124105814528467 0.002548425349095666 0.00854939209504791 -0.00028740838244887683 -0.0027672161032521775 0.00032435213326147843 0.004403707984139915
 0.00031818215545105434 0.004404484234931146 -0.00028740838244887683 -0.0027672161032521775 0.002549422933337457 0.008548846219207195 0.997177946239619 -0.02124147599033474
 -0.0002875787636629961 -0.0027672295997248015 0.00032435213326147843 0.004403707984139915 0.997177946239619 -0.02124147599033474 0.0025483288611308783 0.008548984856461744
0.037515631513130004 0.0027847119889494176 0.010324333045396369 0.9968687645104367 -0.025527164230545997 0.00039733503447831204 0.005287874021117369 -0.00035645853073408844 -0.003325116852272579
 0.9968687645104367 -0.025527164230545997 0.0027833964846631786 0.010324486148452008 -0.00035621436260884853 -0.0033251037708070703 0.0004062181540012627 0.005286795903785636
 0.00039733503447831204 0.005287874021117369 -0.00035621436260884853 -0.0033251037708070703 0.0027848323238618103 0.010323820688399795 0.9968687551181298 -0.025527665559713798
 -0.00035645853073408844 -0.003325116852272579 0.0004062181540012627 0.005286795903785636 0.9968687551181298 -0.025527665559713798 0.0027832579705959854 0.010323998623372852
0.043768236765320004 0.0030371686408548542 0.012118259731423987 0.996536162630879 -0.029827819768040158 0.0004860667128109224 0.006171962803986046 -0.00043354986629086975 -0.003884038787440009
 0.996536162630879 -0.029827819768040158 0.003035379243724559 0.012118450647368053 -0.0004332189688148672 -0.0038840275045377392 0.0004981576167733624 0.006170519075527862
 0.0004860667128109224 0.006171962803986046 -0.0004332189688148672 -0.0038840275045377392 0.0030373327249762975 0.012117661714117453 0.996536150166882 -0.029828404616228436
 -0.00043354986629086975 -0.003884038787440009 0.0004981576167733624 0.006170519075527862 0.996536150166882 -0.029828404616228436 0.003035191149718415 0.012117883390685386
0.050020842017509996 0.0033070518389482113 0.013930545825882957 0.9961798275409526 -0.03414309989431427 0.0005844749899084986 0.007056637491652237 -0.0005189554070557405 -0.004443847541846673
 0.9961798275409526 -0.03414309989431427 0.0033047159646420227 0.013930778416809087 -0.000518524944883645 -0.004443839589944956 0.000600269234168506 0.0070547579038672216
 0.0005844749899084986 0.007056637491652237 -0.000518524944883645 -0.004443839589944956 0.0033072664455527597 0.013929861953839717 0.9961798115677195 -0.03414376831520038
 -0.0005189554070557405 -0.004443847541846673 0.000600269234168506 0.0070547579038672216 0.9961798115677195 -0.03414376831520038 0.0033044707441254127 0.013930132065493333
0.055454545454549996 0.003556004605678722 0.015520044821873155 0.9958506382652781 -0.037905083584954424 0.0006779280238359157 0.007825828321579676 -0.0006000055888492151 -0.0049309449625027394
 0.9958506382652781 -0.037905083584954424 0.0035531348882580555 0.01552031686491903 -0.000599478258670062 -0.004930941265480541 0.0006973437412657836 0.007823507801381278
 0.0006779280238359157 0.007825828321579676 -0.000599478258670062 -0.004930941265480541 0.00355626862170427 0.015519286154694112 0.9958506188841144 -0.037905824686810315
 -0.0006000055888492151 -0.0049309449625027394 0.0006973437412657836 0.007823507801381278 0.9958506188841144 -0.037905824686810315 0.0035528339010901908 0.015519602364197149
0.056273447269699996 0.0035947009047076583 0.01576075171659215 0.9957994386014777 -0.03847299951046787 0.0006926559608558499 0.00794177669046916 -0.0006127755465956991 -0.0050043969135698235
 0.9957994386014777 -0.03847299951046787 0.0035917459805112437 0.015761029971797298 -0.0006122327881003768 -0.005004393973960759 0.0007126500100733931 0.007939384416722038
 0.0006926559608558499 0.00794177669046916 -0.0006122327881003768 -0.005004393973960759 0.0035949728111973663 0.01575998176123296 0.9957994186777508 -0.038473751570346354
 -0.0006127755465956991 -0.0050043969135698235 0.0007126500100733931 0.007939384416722038 0.9957994186777508 -0.038473751570346354 0.003591436095511405 0.015760305252096755
0.06252605252188 0.003900452532244548 0.017608480503151138 0.9953946749932789 -0.04281745819415106 0.0008107038580005643 0.008827252409642165 -0.0007151084051679305 -0.0055655406809997495
 0.9953946749932789 -0.04281745819415106 0.003896805977780785 0.0176088085391224 -0.0007144407201889246 -0.005565544583782115 0.0008353950583128228 0.008824263969626723
 0.0008107038580005643 0.008827252409642165 -0.0007144407201889246 -0.005565544583782115 0.003900788520639428 0.01760762419639547 0.9953946506734259 -0.042818293976587624
 -0.0007151084051679305 -0.0055655406809997495 0.0008353950583128228 0.008824263969626723 0.9953946506734259 -0.042818293976587624 0.003896423899600692 0.017608006262910324
0.06877865777407 0.004224640968744749 0.019473363117747618 0.9949652161881849 -0.04717637501677869 0.0009387109119051578 0.009712931086511263 -0.0008260497752180259 -0.006127131605993182
 0.9949652161881849 -0.04717637501677869 0.004220230177352653 0.01947374517864038 -0.0008252446337314198 -0.0061271443299905515 0.0009685974470143423 0.009709256271180099
 0.0009387109119051578 0.009712931086511263 -0.0008252446337314198 -0.0061271443299905515 0.004225047826284207 0.019472420155900994 0.994965187021877 -0.04717729461800756
 -0.0008260497752180259 -0.006127131605993182 0.0009685974470143423 0.009709256271180099 0.994965187021877 -0.04717729461800756 0.004219768386470452 0.01947286624923129
0.07503126302626001 0.004567598090271753 0.021355048879317183 0.9945107423207191 -0.05154961793324003 0.001076767223572696 0.010598674236389521 -0.0009456930520385347 -0.0066890208179815214
 0.9945107423207191 -0.05154961793324003 0.004562350409977502 0.021355489338162597 -0.0009447380231757786 -0.006689044490642977 0.0011123480583889406 0.010594216033348666
 0.001076767223572696 0.010598674236389521 -0.0009447380231757786 -0.006689044490642977 0.004568082609086721 0.02135401891894845 0.9945107078515013 -0.05155062146545317
 -0.0009456930520385347 -0.0066890208179815214 0.0011123480583889406 0.010594216033348666 0.9945107078515013 -0.05155062146545317 0.00456180139693484 0.021354534747977362
0.08128386827845 0.004929653409676354 0.023253199227787708 0.9940309344949266 -0.05593702999760382 0.0012249606430118029 0.01148433889887102 -0.0010741291547195157 -0.0072510574073538225
 0.9940309344949266 -0.05593702999760382 0.004923496124768827 0.023253702588245214 -0.0010730119064032483 -0.007251094304634024 0.0012667354580835788 0.011478993418505988
 0.0012249606430118029 0.01148433889887102 -0.0010730119064032483 -0.007251094304634024 0.004930222387800857 0.023252081886064632 0.9940308942601708 -0.05593811758774535
 -0.0010741291547195157 -0.0072510574073538225 0.0012667354580835788 0.011478993418505988 0.9940308942601708 -0.05593811758774535 0.004922852390776802 0.02325267342102345
0.08753647353064001 0.005311134041051282 0.02516748337712656 0.9935254750528507 -0.06033843366662852 0.0013833766524433133 0.01236977795240079 -0.0012114464408126112 -0.007813088156687718
 0.9935254750528507 -0.06033843366662852 0.005303994353246933 0.02516805427597909 -0.0012101547394995666 -0.007813140702924602 0.001431845770071245 0.012363434354883778
 0.0013833766524433133 0.01236977795240079 -0.0012101547394995666 -0.007813140702924602 0.005311794283198861 0.02516627823098056 0.9935254285839529 -0.060339605456527404
 -0.0012114464408126112 -0.007813088156687718 0.001431845770071245 0.012363434354883778 0.9935254285839529 -0.060339605456527404 0.005303248412525249 0.025166951707723068
0.09378907878283 0.005712364634901696 0.02709757522681183 0.9929940478166018 -0.06475363385202633 0.0015520982524919555 0.013254840347329414 -0.0013577306156027289 -0.008374957359652057
 0.9929940478166018 -0.06475363385202633 0.005704169644897048 0.027098218437020778 -0.0013562523264770263 -0.00837502812739038 0.001607762556464997 0.01324738077077967
 0.0015520982524919555 0.013254840347329414 -0.0013562523264770263 -0.00837502812739038 0.0057131229513496685 0.027096281814559333 0.9929939946369575 -0.06475488999569257
 -0.0013577306156027289 -0.008374957359652057 0.001607762556464997 0.01324738077077967 0.9929939946369575 -0.06475488999569257 0.005703314023637553 0.027097043739583604
0.100041684035 0.006133667289046961 0.02904315109225929 0.9924363383101373 -0.0691824201607268 0.0017312058501863558 0.014139371287149793 -0.001513064638294158 -0.008936506698285674
 0.9924363383101373 -0.0691824201607268 0.006124343977583406 0.029043871526807777 -0.0015113877255436912 -0.00893659840810717 0.0017945666999100401 0.014130670776870788
 0.0017312058501863558 0.014139371287149793 -0.0015113877255436912 -0.00893659840810717 0.006134530496962291 0.02904176891002513 0.9924362779355922 -0.06918376082718915
 -0.001513064638294158 -0.008936506698285674 0.0017945666999100401 0.014130670776870788 0.9924362779355922 -0.06918376082718915 0.0061233712161586264 0.029042626066105505
0.1059090909091 0.00654755505538505 0.03088266253124945 0.9918888052019497 -0.07335052342646232 0.0019087945373325477 0.014968785354717027 -0.0016671312859684812 -0.0094630268878053
 0.9918888052019497 -0.07335052342646232 0.006537106400378689 0.030883460029630622 -0.001665257128183859 -0.009463140855585883 0.001979834103419667 0.014958800335661795
 0.0019087945373325477 0.014968785354717027 -0.001665257128183859 -0.009463140855585883 0.006548522898969898 0.030881196552990497 0.9918887376279254 -0.07335194357366412
 -0.0016671312859684812 -0.0094630268878053 0.001979834103419667 0.014958800335661795 0.9918887376279254 -0.07335194357366412 0.006536016944339514 0.030882149493905775
0.1062942892872 0.006575361444728741 0.031003888008522777 0.9918520339704586 -0.0736245685698344 0.0019207771484097656 0.015023212375530105 -0.0016775286256537718 -0.009497575160989513
 0.9918520339704586 -0.0736245685698344 0.0065648366537633465 0.031004690724914522 -0.0016756411529564692 -0.009497690681308464 0.0019923362877373686 0.015013138814658683
 0.0019207771484097656 0.015023212375530105 -0.0016756411529564692 -0.009497690681308464 0.006576336368112177 0.03100241651020525 0.9918519659085838 -0.07362599394203828
 -0.0016775286256537718 -0.009497575160989513 0.0019923362877373686 0.015013138814658683 0.9918519659085838 -0.07362599394203828 0.00656373930773978 0.031003375962802598
0.11254689453939999 0.007037763770318191 0.03297946242874928 0.9912408243484218 -0.07807984271416787 0.002120887036516122 0.015906201737796496 -0.0018511997534093657 -0.010057998992867986
 0.9912408243484218 -0.07807984271416787 0.00702596418399367 0.03298035263426682 -0.0018490898844920798 -0.01005814133970942 0.0022011464982892495 0.015894615779317854
 0.002120887036516122 0.015906201737796496 -0.0018490898844920798 -0.01005814133970942 0.007038857239981557 0.03297790102714478 0.9912407480974789 -0.07808135298699842
 -0.0018511997534093657 -0.010057998992867986 0.0022011464982892495 0.015894615779317854 0.9912407480974789 -0.07808135298699842 0.00702473482486279 0.03297897013151892
0.11879949979160001 0.007521188034492561 0.034969549228166745 0.9906024013033772 -0.08254799487668445 0.002331607481542008 0.01678817412833781 -0.0020341521563861835 -0.010617611666985886
 0.9906024013033772 -0.08254799487668445 0.007508040160135113 0.03497053228585131 -0.0020318081558298347 -0.010617784003740995 0.0024210694879741373 0.016774929128651098
 0.002331607481542008 0.01678817412833781 -0.0020318081558298347 -0.010617784003740995 0.007522406888209207 0.03496789728942582 0.9906023163519946 -0.08254959026138
 -0.0020341521563861835 -0.010617611666985886 0.0024210694879741373 0.016774929128651098 0.9906023163519946 -0.08254959026138 0.0075066713766741445 0.03496908369848842
0.1250521050438 0.008025944972687486 0.036973820908114144 0.9899364591931616 -0.08702876678683623 0.0025530074201895255 0.017668961025401282 -0.0022264568276600914 -0.011176243875320927
 0.9899364591931616 -0.08702876678683623 0.008011375121293237 0.0369749023435444 -0.0022238670616301923 -0.011176449512455668 0.002652174279661325 0.017653902979487282
 0.0025530074201895255 0.017668961025401282 -0.0022238670616301923 -0.011176449512455668 0.008027296055344725 0.036972077754635416 0.9899363650197327 -0.08703044750713766
 -0.0022264568276600914 -0.011176243875320927 0.002652174279661325 0.017653902979487282 0.9899363650197327 -0.08703044750713766 0.008009859521015376 0.03697338942751704
0.131304710296 0.008552342146424339 0.03899194697321279 0.989242695060028 -0.09152189025443022 0.0027851526516826336 0.0185483907199278 -0.002428181516672175 -0.011733723532687593
 0.989242695060028 -0.09152189025443022 0.00853627641372065 0.03899313248204985 -0.002425334453882132 -0.011733965927454753 0.0028945266517211763 0.01853135819820255
 0.0027851526516826336 0.0185483907199278 -0.002425334453882132 -0.011733965927454753 0.008553832310286854 0.038990111881968756 0.9892425911321915 -0.09152365654705923
 -0.002428181516672175 -0.011733723532687593 0.0028945266517211763 0.01853135819820255 0.9892425911321915 -0.09152365654705923 0.008534606623896244 0.03899155709355413
0.1375573155481 0.00898273886981173 0.04076023242396063 0.9886388080567644 -0.09576357666575265 0.0029990290790505277 0.019400028697626148 -0.0026101961138852623 -0.012263731334572108
 0.9886388080567644 -0.09576357666575265 0.008965096614571224 0.04076149921242049 -0.002607074640463357 -0.012264010901362107 0.0031188618401261593 0.019381041159711433
 0.0029990290790505277 0.019400028697626148 -0.002607074640463357 -0.012264010901362107 0.008984374334441953 0.04075830449324273 0.9886386939242257 -0.09576542865092856
 -0.0026101961138852623 -0.012263731334572108 0.0031188618401261593 0.019381041159711433 0.9886386939242257 -0.09576542865092856 0.008963265750860903 0.04075986319170481
0.1438099208003 0.009428366427277235 0.04251871458095853 0.9880135281300765 -0.0999940251753094 0.003221516405158352 0.020248028026599803 -0.0027994793085188104 -0.01279032518088037
 0.9880135281300765 -0.0999940251753094 0.009409072425858792 0.04252006664837235 -0.0027960710355003967 -0.01279064533304626 0.0033522649313588136 0.020226937323438523
 0.003221516405158352 0.020248028026599803 -0.0027960710355003967 -0.01279064533304626 0.009430153942339037 0.042516693060225326 0.9880134032621 -0.0999959630796916
 -0.0027994793085188104 -0.01279032518088037 0.0033522649313588136 0.020226937323438523 0.9880134032621 -0.0999959630796916 0.009407073229091333 0.042518371919381945
0.1500625260525 0.009889061360012831 0.044267231960733976 0.9873670233215167 -0.10421311612252354 0.003452533162320872 0.021092296102830192 -0.0029959502549214813 -0.013313414800918645
 0.9873670233215167 -0.10421311612252354 0.009868040146084694 0.04426867358851426 -0.00299224282461512 -0.013313779088925018 0.003594651545969943 0.02106894867659433
 0.003452533162320872 0.021092296102830192 -0.00299224282461512 -0.013313779088925018 0.009891007675190333 0.044265116065888635 0.987366887178221 -0.10421514018211181
 -0.0029959502549214813 -0.013313414800918645 0.003594651545969943 0.02106894867659433 0.987366887178221 -0.10421514018211181 0.009865865381115205 0.044266922151991926
0.15631513130469998 0.010364658964948247 0.046005627904046685 0.9866994626231811 -0.10842073058286814 0.0036919968759141814 0.0219327420071626 -0.0031995270638000596 -0.013832911909247412
 0.9866994626231811 -0.10842073058286814 0.010341834822826844 0.04600716366613274 -0.0031955081503052297 -0.013833324020003241 0.0038459362504410233 0.02190697895064185
