! Created with skrf 1.8.0 (http://scikit-rf.org).
# GHz S RI R 50.0 
!freq ReS11 ImS11 ReS12 ImS12 ReS13 ImS13
! ReS14 ImS14
! ReS21 ImS21 ReS22 ImS22 ReS23 ImS23
! ReS24 ImS24
! ReS31 ImS31 ReS32 ImS32 ReS33 ImS33
! ReS34 ImS34
! ReS41 ImS41 ReS42 ImS42 ReS43 ImS43
! ReS44 ImS44
!
0.0 0.001332474895332 0.0 0.9986675250819 0.0 5.131653857751e-05 0.0 -5.13165380447e-05 6.284463405976523e-21
 0.9986675250819 0.0 0.001332474895312 0.0 -5.131653804458e-05 6.2844634059618274e-21 5.131653857754e-05 0.0
 5.131653857751e-05 0.0 -5.131653804458e-05 6.2844634059618274e-21 0.001332474906694 0.0 0.9986675250933 0.0
 -5.13165380447e-05 6.284463405976523e-21 5.131653857754e-05 0.0 0.9986675250933 0.0 0.001332474906674 0.0
0.005 0.0014331623916884095 0.0010853717856311837 0.9985402168170753 -0.0027920912831477305 7.233179972341098e-05 0.0005963481166872144 -7.013765976013065e-05 -0.0003690123366619265
 0.9985402168170753 -0.0027920912831477305 0.00143315748534564 0.0010853746570404106 -7.013914831721333e-05 -0.0003690135153861115 7.23584058156741e-05 0.0005963380301420251
 7.233179972341098e-05 0.0005963481166872144 -7.013914831721333e-05 -0.0003690135153861115 0.001433161117348381 0.001085305314225667 0.9985402164697754 -0.0027921583380087433
 -7.013765976013065e-05 -0.0003690123366619265 7.23584058156741e-05 0.0005963380301420251 0.9985402164697754 -0.0027921583380087433 0.0014331580731858707 0.0010853070271536391
0.006252605252188 0.0014594153539188599 0.001361029921497675 0.9985068379107854 -0.003490823665125331 7.82407691164347e-05 0.0007457202944430701 -7.538160891889312e-05 -0.00046175906756686005
 0.9985068379107854 -0.003490823665125331 0.0014594076842385933 0.0013610335544367099 -7.53839249946822e-05 -0.00046176052206801574 7.828233946542851e-05 0.0007457072008878284
 7.82407691164347e-05 0.0007457202944430701 -7.53839249946822e-05 -0.00046176052206801574 0.0014594134445658235 0.001360946837394666 0.998506837450837 -0.0034909074867233375
 -7.538160891889312e-05 -0.00046175906756686005 7.828233946542851e-05 0.0007457072008878284 0.998506837450837 -0.0034909074867233375 0.0014594086864637053 0.0013609490138487554
0.01250521050438 0.0015967181290559116 0.0027509903024185833 0.9983312284389899 -0.0069826268462238284 0.00011162590136106223 0.0014917703952386186 -0.0001047596864260833 -0.0009258890490335442
 0.9983312284389899 -0.0069826268462238284 0.001596687500776122 0.002750998010141412 -0.00010476881102818885 -0.0009258917533392749 0.00011179169475484475 0.0014917390209174485
 0.00011162590136106223 0.0014917703952386186 -0.00010476881102818885 -0.0009258917533392749 0.0015967110650000882 0.002750824480027595 0.9983312271648372 -0.006982794259168456
 -0.0001047596864260833 -0.0009258890490335442 0.00011179169475484475 0.0014917390209174485 0.9983312271648372 -0.006982794259168456 0.001596692074383118 0.0027508291761454725
0.01875781575657 0.0017446509942438426 0.0041611302113417955 0.9981405013448322 -0.010483946681125265 0.00015154388578446834 0.0022387064074735467 -0.00013953486214955433 -0.0013917000735826782
 0.9981405013448322 -0.010483946681125265 0.0017445821649377559 0.004161142476801688 -0.00013955520684945022 -0.001391703789785672 0.00015191637213949211 0.0022386506612636853
 0.00015154388578446834 0.0022387064074735467 -0.00013955520684945022 -0.001391703789785672 0.0017446355378834418 0.00416088190823164 0.9981404989013487 -0.010484197632529934
 -0.00013953486214955433 -0.0013917000735826782 0.00015191637213949211 0.0022386506612636853 0.9981404989013487 -0.010484197632529934 0.0017445928818751418 0.004160889462696854
0.02501042100875 0.0019034755097256013 0.005589498532880725 0.9979344545487948 -0.013996513493139236 0.00019806762825718674 0.002986590115405616 -0.00017978887518924565 -0.0018589926021675817
 0.9979344545487948 -0.013996513493139236 0.0019033532639180775 0.005589515874244152 -0.0001798247982159278 -0.001858997054538742 0.0001987293443948617 0.0029865030375038986
 0.00019806762825718674 0.002986590115405616 -0.0001798247982159278 -0.001858997054538742 0.0019034484246579918 0.005589168048019549 0.9979344505758148 -0.013996847976761179
 -0.00017978887518924565 -0.0018589926021675817 0.0001987293443948617 0.0029865030375038986 0.9979344505758148 -0.013996847976761179 0.001903372699569147 0.00558917879161736
0.03126302626094 0.0020734422280965534 0.007035107488122387 0.9977128745694868 -0.01752108723602279 0.000251270709476045 0.003735411457049668 -0.00022560139208681847 -0.0023276349725487697
 0.9977128745694868 -0.01752108723602279 0.0020732513688712702 0.007035130457879267 -0.0002256572075303917 -0.0023276398469627277 0.0002523043389128611 0.003735285213812845
 0.000251270709476045 0.003735411457049668 -0.0002256572075303917 -0.0023276398469627277 0.002073400283366273 0.0070346951683274124 0.9977128687063417 -0.017521505286247248
 -0.00022560139208681847 -0.0023276349725487697 0.0002523043389128611 0.003735285213812845 0.9977128687063417 -0.017521505286247248 0.002073282109522243 0.007034709422756192
0.037515631513130004 0.0022547964479704597 0.008497325368431575 0.9974755424117253 -0.021058064707534015 0.0003112266765270172 0.004485132419593627 -0.00027705064464992766 -0.002797519497950131
 0.9974755424117253 -0.021058064707534015 0.002254521792298835 0.008497354552903026 -0.00027713062734163746 -0.0027975244417203227 0.0003127150874510284 0.0044849582942203935
 0.0003112266765270172 0.004485132419593627 -0.00027713062734163746 -0.0027975244417203227 0.0022547364156463873 0.008496831624561961 0.9974755342933846 -0.021058566383679624
 -0.00027705064464992766 -0.002797519497950131 0.0003127150874510284 0.0044849582942203935 0.9974755342933846 -0.021058566383679624 0.002254566433229398 0.008496849701470494
0.043768236765320004 0.0024477804320580665 0.00997569175754548 0.997222235916432 -0.02460766426813803 0.00037800872346139397 0.005235700387894749 -0.00033421366449807774 -0.0032685491098184043
 0.997222235916432 -0.02460766426813803 0.0024474068067079488 0.009975727776674641 -0.0003343220528793199 -0.003268553731631367 0.000380034988971791 0.005235468769788221
 0.00037800872346139397 0.005235700387894749 -0.0003343220528793199 -0.003268553731631367 0.0024476990878863304 0.009975117054170904 0.9972222251735026 -0.02460824966536208
 -0.00033421366449807774 -0.0032685491098184043 0.000380034988971791 0.005235468769788221 0.9972222251735026 -0.02460824966536208 0.0024474679537689887 0.009975139254392891
0.050020842017509996 0.0026526344519080453 0.011469841147148422 0.9969527309400026 -0.028170002164419942 0.00045168950292600555 0.005987053653641967 -0.0003971663806997014 -0.0037406318400302315
 0.9969527309400026 -0.028170002164419942 0.0026521466899217688 0.01146988465447525 -0.00039730737868206813 -0.0037406357099388733 0.0004543369115847628 0.005986754027240951
 0.00045168950292600555 0.005987053653641967 -0.00039730737868206813 -0.0037406357099388733 0.002652528576160258 0.011469186015680808 0.9969527171985128 -0.028170671401265016
 -0.0003971663806997014 -0.0037406318400302315 0.0004543369115847628 0.005986754027240951 0.9969527171985128 -0.028170671401265016 0.0026522269610946623 0.011469212628462335
0.055454545454549996 0.0028404842359899475 0.012780879669645102 0.9967051927312128 -0.03127616807296619 0.000521378871115892 0.006640587405388806 -0.00045663430718391473 -0.004151671700028415
 0.9967051927312128 -0.03127616807296619 0.0028398849712269066 0.012780930241270482 -0.0004568070322049413 -0.0041516745373375 0.0005246338837428178 0.006640219426334913
 0.000521378871115892 0.006640587405388806 -0.0004568070322049413 -0.0041516745373375 0.002840354429929271 0.01278015512943954 0.9967051760749212 -0.03127691028161106
 -0.00045663430718391473 -0.004151671700028415 0.0005246338837428178 0.006640219426334913 0.9967051760749212 -0.03127691028161106 0.002839983996816248 0.012780185802250422
0.056273447269699996 0.0028695973301861594 0.01297946545642388 0.9966668020336404 -0.03174512994862147 0.0005323409975529449 0.0067391241157098 -0.00046598365384211354 -0.004213678113122589
 0.9966668020336404 -0.03174512994862147 0.0028689802681705935 0.012979517139073488 -0.0004661614321723239 -0.004213680762551668 0.0005356930585438893 0.006738745049023188
 0.0005323409975529449 0.0067391241157098 -0.0004661614321723239 -0.004213680762551668 0.0028694637072252684 0.01297873049716687 0.9966667849128028 -0.03174588316553076
 -0.00046598365384211354 -0.004213678113122589 0.0005356930585438893 0.006738745049023188 0.9966667849128028 -0.03174588316553076 0.0028690822928539245 0.012978761799467376
0.06252605252188 0.003098906741973598 0.014504293421885289 0.996364222882973 -0.03533305502886629 0.0006200344198995241 0.007491838763778392 -0.0005407392794238848 -0.004687599256941773
 0.996364222882973 -0.03533305502886629 0.0030981452168721965 0.014504354000702616 -0.0005409579765420665 -0.0046876001787111736 0.0006241748643144386 0.007491367896767045
 0.0006200344198995241 0.007491838763778392 -0.0005409579765420665 -0.0046876001787111736 0.0030987421622410156 0.014503479301084523 0.9963642019960036 -0.035333892391714236
 -0.0005407392794238848 -0.004687599256941773 0.0006241748643144386 0.007491367896767045 0.9963642019960036 -0.035333892391714236 0.003098271638554442 0.014503515556963727
0.06877865777407 0.0033407993833147057 0.016044078312711308 0.996044766618944 -0.03893375289536117 0.0007148401298725066 0.008245120559046115 -0.0006215059715104836 -0.005162306618180857
 0.996044766618944 -0.03893375289536117 0.0033398782302226024 0.016044148542424443 -0.000621769694288328 -0.005162305266526755 0.0007198529095137851 0.008244544591937913
 0.0007148401298725066 0.008245120559046115 -0.000621769694288328 -0.005162305266526755 0.003340600643684316 0.01604318576169257 0.9960447415717965 -0.038934674596950755
 -0.0006215059715104836 -0.005162306618180857 0.0007198529095137851 0.008244544591937913 0.9960447415717965 -0.038934674596950755 0.003340031706331236 0.01604322722176503
0.07503126302626001 0.003595511063135853 0.017598590133466818 0.9957082060529636 -0.04254717486133044 0.000816827560137041 0.008998888996623405 -0.0007083553369444696 -0.005637710998424705
 0.9957082060529636 -0.04254717486133044 0.0035944151123618257 0.017598670802884017 -0.0007086681611114096 -0.005637706789030527 0.0008227968443247684 0.008998193678174383
 0.000816827560137041 0.008998888996623405 -0.0007086681611114096 -0.005637706789030527 0.00359527496771893 0.01759761995428375 0.9957081764435202 -0.04254818111623794
 -0.0007083553369444696 -0.005637710998424705 0.0008227968443247684 0.008998193678174383 0.9957081764435202 -0.04254818111623794 0.003594598315489259 0.017597666855147114
0.08128386827845 0.0038632767449877795 0.01916761044232656 0.9953543138653917 -0.04617325319047585 0.0009260651485072243 0.009753060473312642 -0.0008013578408739057 -0.006113722287115592
 0.9953543138653917 -0.04617325319047585 0.0038619908195952554 0.019167702374738374 -0.0008017238113806807 -0.006113714597155828 0.0009330753194756683 0.009752230589096019
 0.0009260651485072243 0.009753060473312642 -0.0008017238113806807 -0.006113714597155828 0.0038630001055617743 0.019166563505878052 0.9953542792825936 -0.04617434423750617
 -0.0008013578408739057 -0.006113722287115592 0.0009330753194756683 0.009752230589096019 0.9953542792825936 -0.04617434423750617 0.00386220643774517 0.01916661606974733
0.08753647353064001 0.004144330556582563 0.020750928763814132 0.9949828627641691 -0.049811904632524454 0.001042620273199506 0.010507548549846207 -0.0009005827681660241 -0.0065902492025596456
 0.9949828627641691 -0.049811904632524454 0.004142839470006171 0.020751032817259905 -0.0009010058994693378 -0.006590237370724001 0.0010507559201935843 0.010506567910542549
 0.001042620273199506 0.010507548549846207 -0.0009010058994693378 -0.006590237370724001 0.004144010194428578 0.020749806012117924 0.9949828227875145 -0.049813080732869976
 -0.0009005827681660241 -0.0065902492025596456 0.0010507559201935843 0.010506567910542549 0.9949828227875145 -0.049813080732869976 0.0041430902079545254 0.020749864446364806
0.09378907878283 0.004438905778770752 0.022348340027006745 0.9945936256245088 -0.05346303293569919 0.0011665591908439398 0.01126226413332583 -0.0010060981806893862 -0.007067199115216362
 0.9945936256245088 -0.05346303293569919 0.004437194332089892 0.022348457094798192 -0.0010065824568552633 -0.007067182441765578 0.0011759051033824529 0.011261115563051071
 0.0011665591908439398 0.01126226413332583 -0.0010065824568552633 -0.007067182441765578 0.004438538525111986 0.022347142468591073 0.9945935798235076 -0.05346429437806972
 -0.0010060981806893862 -0.007067199115216362 0.0011759051033824529 0.011261115563051071 0.9945935798235076 -0.05346429437806972 0.004437482912148228 0.022347206965479195
0.100041684035 0.004747234817572109 0.023959642677866044 0.9941863756154369 -0.05712653068798752 0.001297946975927041 0.012017115618214348 -0.0011179708720198626 -0.0075444779151772915
 0.9941863756154369 -0.05712653068798752 0.004745287797074418 0.023959773689075915 -0.0011185202468515058 -0.007544455661989681 0.0013085881361373994 0.012015780942915272
 0.001297946975927041 0.012017115618214348 -0.0011185202468515058 -0.007544455661989681 0.004746817514481727 0.02395837139497472 0.9941863235481523 -0.057127877781788496
 -0.0011179708720198626 -0.0075444779151772915 0.0013085881361373994 0.012015780942915272 0.9941863235481523 -0.057127877781788496 0.004745616959564206 0.023958442131366837
0.1059090909091 0.005049284085334668 0.02548413569211656 0.9937876304695061 -0.0605754803619515 0.001428072017729836 0.012725503560158419 -0.001228791746780925 -0.007992567354905666
 0.9937876304695061 -0.0605754803619515 0.00504710215183853 0.0254842806650709 -0.0012294057788309175 -0.007992539160260784 0.0014400060850525618 0.012723976816634588
 0.001428072017729836 0.012725503560158419 -0.0012294057788309175 -0.007992539160260784 0.005048816954983823 0.02548279627393224 0.993787572109798 -0.06057690813337156
 -0.001228791746780925 -0.007992567354905666 0.0014400060850525618 0.012723976816634588 0.993787572109798 -0.06057690813337156 0.005047471905988337 0.0254828730124268
0.1062942892872 0.005069549163516576 0.025584637269923736 0.9937608863142953 -0.0608022806829095 0.0014368474614194434 0.012772008989599733 -0.001236266319824733 -0.008021989919974996
 0.9937608863142953 -0.0608022806829095 0.005067351338256277 0.025584783189958202 -0.0012368847169113406 -0.00802196131059113 0.0014488690356898256 0.012770469025512158
 0.0014368474614194434 0.012772008989599733 -0.0012368847169113406 -0.00802196131059113 0.005069078665283937 0.025583293415420497 0.9937608275271774 -0.060803713761745176
 -0.001236266319824733 -0.008021989919974996 0.0014488690356898256 0.012770469025512158 0.9937608275271774 -0.060803713761745176 0.005067723842619765 0.025583370552606323
0.11254689453939999 0.005406079344068732 0.02722312537837161 0.9933169318181028 -0.064490156964796 0.001583323179792873 0.013526847908100643 -0.001361048636862453 -0.008499637803707901
 0.9933169318181028 -0.064490156964796 0.005403615463300476 0.027223287209641796 -0.001361739949567437 -0.008499602023396655 0.0015968105097919818 0.013525082450268578
 0.001583323179792873 0.013526847908100643 -0.001361739949567437 -0.008499602023396655 0.005405552518227416 0.02722171017748737 0.9933168658452719 -0.06449167638506027
 -0.001361048636862453 -0.008499637803707901 0.0015968105097919818 0.013525082450268578 0.9933168658452719 -0.06449167638506027 0.005404034089010405 0.027221793861078626
0.11879949979160001 0.005757054867917165 0.028874908755309542 0.9928542868480914 -0.06819002563612578 0.0017374353047320808 0.014281533777393204 -0.001492380520281226 -0.008977322546278687
 0.9928542868480914 -0.06819002563612578 0.005754309658397327 0.02887508753801948 -0.001493148611715068 -0.008977278742090155 0.0017524738978825375 0.014279521588306747
 0.0017374353047320808 0.014281533777393204 -0.001493148611715068 -0.008977278742090155 0.005756468595959435 0.02887342350434136 0.9928542132097326 -0.06819163177861862
 -0.001492380520281226 -0.008977322546278687 0.0017524738978825375 0.014279521588306747 0.9928542132097326 -0.06819163177861862 0.005754777205302479 0.028873513864238913
0.1250521050438 0.006122704163509714 0.030539788659990602 0.9923727268507757 -0.07190174549309117 0.0018992435930003956 0.015035965799991053 -0.0016303231999891888 -0.009454943397448162
 0.9923727268507757 -0.07190174549309117 0.006119662327165084 0.030539985472868268 -0.0016311719029421577 -0.009454890678286792 0.0019159191123446365 0.015033684598288185
 0.0018992435930003956 0.015035965799991053 -0.0016311719029421577 -0.009454890678286792 0.006122055342329036 0.03053823472739165 0.9923726450530787 -0.07190343876219381
 -0.0016303231999891888 -0.009454943397448162 0.0019159191123446365 0.015033684598288185 0.9923726450530787 -0.07190343876219381 0.006120181616666459 0.03053833187779716
0.131304710296 0.006503254513438283 0.03221756532248918 0.9918720280975891 -0.07562516853102189 0.0020688063264566853 0.015790041027763546 -0.0017749363859517813 -0.009932397849118656
 0.9918720280975891 -0.07562516853102189 0.0064999007247128985 0.03221778128371788 -0.0017758695028300623 -0.009932335285800875 0.0020872045801591924 0.015787467477084417
 0.0020688063264566853 0.015790041027763546 -0.0017758695028300623 -0.009932335285800875 0.006502540056508535 0.032215944149465096 0.9918719376318622 -0.07562694935431337
 -0.0017749363859517813 -0.009932397849118656 0.0020872045801591924 0.015787467477084417 0.9918719376318622 -0.07562694935431337 0.006500474600522298 0.03221604818904327
0.1375573155481 0.006806902891601273 0.033687549664331996 0.9914440249162335 -0.0791395740639451 0.0022232923895683585 0.016520634653787 -0.0019033694010988913 -0.010386587210697846
 0.9914440249162335 -0.0791395740639451 0.006803221102298946 0.03368778200432114 -0.001904392629620412 -0.010386514844507755 0.002243455299000731 0.016517774473114654
 0.0022232923895683585 0.016520634653787 -0.001904392629620412 -0.010386514844507755 0.006806120279948203 0.03368586242998214 0.9914439253844982 -0.07914144271212141
 -0.0019033694010988913 -0.010386587210697846 0.002243455299000731 0.016517774473114654 0.9914439253844982 -0.07914144271212141 0.006803851647647148 0.03368596987187962
0.1438099208003 0.007121055500724587 0.0351505477472413 0.9910012921602854 -0.08264586733870861 0.002384025196623032 0.017248842625168556 -0.0020369643720597364 -0.010838588320910919
 0.9910012921602854 -0.08264586733870861 0.007117030242092448 0.035150797357809495 -0.0020380818123553685 -0.010838505247849985 0.0024060308315082316 0.017245674680701224
 0.002384025196623032 0.017248842625168556 -0.0020380818123553685 -0.010838505247849985 0.007120201773874993 0.035148795937698735 0.9910011830541297 -0.08264782423609564
 -0.0020369643720597364 -0.010838588320910919 0.0024060308315082316 0.017245674680701224 0.9910011830541297 -0.08264782423609564 0.007117720196065904 0.0351489066575028
0.1500625260525 0.007445612033643136 0.03660646057178637 0.9905439335167473 -0.08614398536439657 0.0025509560149866634 0.01797460895939648 -0.0021756737251878784 -0.0112883470692658
 0.9905439335167473 -0.08614398536439657 0.0074412278071776475 0.036606728394250256 -0.0021768894710487313 -0.011288252349312808 0.0025748820729701635 0.01797111134728795
 0.0025509560149866634 0.01797460895939648 -0.0021768894710487313 -0.011288252349312808 0.0074446842536460365 0.036604645732664996 0.9905438143150461 -0.08614603095228571
 -0.0021756737251878784 -0.0112883470692658 0.0025748820729701635 0.01797111134728795 0.9905438143150461 -0.08614603095228571 0.007441979921771158 0.03660475961485146
0.15631513130469998 0.007780471588562985 0.038055192253610835 0.9900720530723526 -0.08963386491043483 0.002724035610243929 0.01869787849733658 -0.0023194493673042056 -0.01173581041000914
