! Created with skrf 1.8.0 (http://scikit-rf.org).
# GHz S RI R 50.0 
!freq ReS11 ImS11 ReS12 ImS12 ReS13 ImS13
! ReS14 ImS14
! ReS21 ImS21 ReS22 ImS22 ReS23 ImS23
! ReS24 ImS24
! ReS31 ImS31 ReS32 ImS32 ReS33 ImS33
! ReS34 ImS34
! ReS41 ImS41 ReS42 ImS42 ReS43 ImS43
! ReS44 ImS44
!
0.0 0.00172315903038 0.0 0.9982768409597 0.0 6.687997177729e-05 0.0 -6.687997188869e-05 8.190434350054917e-21
 0.9982768409597 0.0 0.001723159030416 0.0 -6.687997188887e-05 8.19043435007696e-21 6.687997177818e-05 0.0
 6.687997177729e-05 0.0 -6.687997188887e-05 8.19043435007696e-21 0.001723159022035 0.0 0.9982768409513 0.0
 -6.687997188869e-05 8.190434350054917e-21 6.687997177818e-05 0.0 0.9982768409513 0.0 0.001723159022065 0.0
0.005 0.0018545779226157091 0.0014070708613285327 0.9981104731060404 -0.003609020094810847 9.438396951659305e-05 0.0007497184539443357 -9.152280327580528e-05 -0.0004682383410094957
 0.9981104731060404 -0.003609020094810847 0.0018545893617449168 0.0014070642169706513 -9.152426123465949e-05 -0.0004682395105108376 9.431384045931335e-05 0.0007497452908035906
 9.438396951659305e-05 0.0007497184539443357 -9.152426123465949e-05 -0.0004682395105108376 0.0018545765567335635 0.0014070044324239427 0.998110472737542 -0.003609087159285842
 -9.152280327580528e-05 -0.0004682383410094957 9.431384045931335e-05 0.0007497452908035906 0.998110472737542 -0.003609087159285842 0.0018545899965178934 0.00140699652134124
0.006252605252188 0.0018892174268370849 0.0017643591555183585 0.998066316563781 -0.004512130816342523 0.00010234180450328246 0.0009374936395739954 -9.856204394783023e-05 -0.0005858955537480663
 0.998066316563781 -0.004512130816342523 0.001889235307573691 0.0017643506796507834 -9.856431224045932e-05 -0.0005858969964632944 0.0001022322367196648 0.0009375284863042825
 0.00010234180450328246 0.0009374936395739954 -9.856431224045932e-05 -0.0005858969964632944 0.0018892153534405879 0.0017642761324930202 0.9980663160498094 -0.004512214642337536
 -9.856204394783023e-05 -0.0005858955537480663 0.0001022322367196648 0.0009375284863042825 0.9980663160498094 -0.004512214642337536 0.0018892363625137144 0.0017642660607634988
0.01250521050438 0.002072570193393137 0.003565494514803054 0.9978309119531074 -0.009024874155445242 0.00014850608355928524 0.0018752222772022644 -0.00013893977378472887 -0.0011745262681860697
 0.9978309119531074 -0.009024874155445242 0.002072641582698442 0.0035654758431207106 -0.0001389487079184801 -0.0011745289422676365 0.000148069213989935 0.0018753061200618018
 0.00014850608355928524 0.0018752222772022644 -0.0001389487079184801 -0.0011745289422676365 0.0020725624866954435 0.0035653288349682143 0.9978309104780757 -0.00902504155226741
 -0.00013893977378472887 -0.0011745262681860697 0.000148069213989935 0.0018753061200618018 0.9978309104780757 -0.00902504155226741 0.0020726463818204633 0.0035653068255898715
0.01875781575657 0.0022736540495658887 0.005392017925803314 0.99757030885092 -0.013549172485137574 0.00020548468060134555 0.002813797741882504 -0.0001881452631600603 -0.001764999670898648
 0.99757030885092 -0.013549172485137574 0.002273814448484298 0.005391987223171135 -0.00018816517931451466 -0.0017650033216723411 0.00020450345262802109 0.0028139477616414004
 0.00020548468060134555 0.002813797741882504 -0.00018816517931451466 -0.0017650033216723411 0.002273637143233967 0.005391769835777705 0.9975703059555283 -0.013549423388095066
 -0.0001881452631600603 -0.001764999670898648 0.00020450345262802109 0.0028139477616414004 0.9975703059555283 -0.013549423388095066 0.0022738256717464954 0.005391733842629585
0.02501042100875 0.0024928905774454268 0.00724132270424586 0.9972841755002675 -0.01808717206322129 0.00027339096539583216 0.003753230862906585 -0.00024630544137078676 -0.002357016209289932
 0.9972841755002675 -0.01808717206322129 0.0024931754065694914 0.007241278030486049 -0.00024634060156578563 -0.002357020534362764 0.00027164835326826185 0.003753467171735866
 0.00027339096539583216 0.003753230862906585 -0.00024634060156578563 -0.002357020534362764 0.002492860911962241 0.0072409924952529575 0.9972841707285521 -0.018087506432928276
 -0.00024630544137078676 -0.002357016209289932 0.00027164835326826185 0.003753467171735866 0.9972841707285521 -0.018087506432928276 0.0024931957440889247 0.007240940304485442
0.03126302626094 0.002730683832416295 0.009112043782168327 0.9969721646342043 -0.02263976277571784 0.0003523383576351655 0.004693443737873255 -0.00031354304556344153 -0.0029503569705385748
 0.9969721646342043 -0.02263976277571784 0.002731128451199251 0.009111983094045793 -0.0003135976666785213 -0.0029503616193093584 0.00034961717706758866 0.004693789393846169
 0.0003523383576351655 0.004693443737873255 -0.0003135976666785213 -0.0029503616193093584 0.0027306378514144938 0.00911163178059889 0.9969721575299776 -0.022640180608033997
 -0.00031354304556344153 -0.0029503569705385748 0.00034961717706758866 0.004693789393846169 0.9969721575299776 -0.022640180608033997 0.002731160602033671 0.009111561012237767
0.037515631513130004 0.0029874286370126673 0.011003273193002363 0.9966339221165028 -0.027207362594415505 0.0004424391412115223 0.005634322961921227 -0.00038997750660023156 -0.003544830476363892
 0.9966339221165028 -0.027207362594415505 0.0029880683580702236 0.011003194344957964 -0.0003900557650497869 -0.0035448350499271727 0.00043852197315063076 0.005634803995200437
 0.0004424391412115223 0.005634322961921227 -0.0003900557650497869 -0.0035448350499271727 0.0029873627856885675 0.011002779778789303 0.9966339122209499 -0.027207863902553878
 -0.00038997750660023156 -0.003544830476363892 0.00043852197315063076 0.005634803995200437 0.9966339122209499 -0.027207863902553878 0.002988115028931063 0.011002687886743722
0.043768236765320004 0.0032635137661738995 0.01291432136593868 0.996269090476515 -0.03179015621392383 0.0005438038907110232 0.006575735832127827 -0.0004757252520670255 -0.004140256506333085
 0.996269090476515 -0.03179015621392383 0.0032643838663228785 0.01291422211055605 -0.0004758312865905214 -0.004140260557486754 0.0005384730535834449 0.006576381274681676
 0.0005438038907110232 0.006575735832127827 -0.0004758312865905214 -0.004140260557486754 0.0032634244925811005 0.012913746970457203 0.9962690773278893 -0.03179074103129147
 -0.0004757252520670255 -0.004140256506333085 0.0005384730535834449 0.006576381274681676 0.9962690773278893 -0.03179074103129147 0.0032644477725635567 0.01291363124212106
0.050020842017509996 0.003559323411237718 0.014844618449562341 0.9958773107267536 -0.036388193658944586 0.0006565411187707867 0.007517537042305832 -0.0005708997969615476 -0.004736459435877672
 0.9958773107267536 -0.036388193658944586 0.003560459141315074 0.01484449643754309 -0.0005710377104018932 -0.004736462469163692 0.0006495786666822884 0.007518378958825438
 0.0006565411187707867 0.007517537042305832 -0.0005710377104018932 -0.004736462469163692 0.003559207166394852 0.014843963559363758 0.9958772938596484 -0.03638886203605572
 -0.0005708997969615476 -0.004736459435877672 0.0006495786666822884 0.007518378958825438 0.9958772938596484 -0.03638886203605572 0.0035605430066661357 0.014843821114703074
0.055454545454549996 0.003832705158537833 0.01653734913514025 0.9955146779526199 -0.04039638080468463 0.0007638315647071928 0.008336186330404068 -0.0006613510478766589 -0.00525507342449459
 0.9955146779526199 -0.04039638080468463 0.0038341003436121396 0.016537205359599273 -0.0006615199700429387 -0.005255075133409106 0.0007552739961085707 0.008337227408092004
 0.0007638315647071928 0.008336186330404068 -0.0006615199700429387 -0.005255075133409106 0.0038325625957388565 0.016536624736337838 0.9955146574730384 -0.04039712184674882
 -0.0006613510478766589 -0.00525507342449459 0.0007552739961085707 0.008337227408092004 0.9955146574730384 -0.04039712184674882 0.003834203773269522 0.0165364566044817
0.056273447269699996 0.003875237913815152 0.01679366591140914 0.9954582234565732 -0.0410014386193809 0.0007807570166306768 0.0084595719833419 -0.0006756117437969122 -0.005333264974944348
 0.9954582234565732 -0.0410014386193809 0.0038766745076944885 0.01679351869121147 -0.0006757856042254535 -0.005333266446700113 0.0007719447533476502 0.008460645502494648
 0.0007807570166306768 0.0084595719833419 -0.0006757856042254535 -0.005333266446700113 0.0038750911528574023 0.016792931074271725 0.9954582024017742 -0.04100219061841476
 -0.0006756117437969122 -0.005333264974944348 0.0007719447533476502 0.008460645502494648 0.9954582024017742 -0.04100219061841476 0.0038767810653336393 0.01679275886457331
0.06252605252188 0.004211634138738795 0.01876100991251267 0.9950114695701959 -0.04562979501624647 0.0009165552436487245 0.00940167856335144 -0.0007899687340142595 -0.005930498393807246
 0.9950114695701959 -0.04562979501624647 0.0042134068225937295 0.01876083492965815 -0.0007901825756437349 -0.0059304977122262076 0.0009056747471022509 0.00940302190893552
 0.0009165552436487245 0.00940167856335144 -0.0007901825756437349 -0.0059304977122262076 0.004211453321997571 0.018760195731384623 0.9950114438536168 -0.045630630717641084
 -0.0007899687340142595 -0.005930498393807246 0.0009056747471022509 0.00940302190893552 0.9950114438536168 -0.045630630717641084 0.004213538814690748 0.018759990537691416
0.06877865777407 0.004568885652861344 0.020746225454137488 0.9945366908343946 -0.05027312280243212 0.0010640367430060982 0.010343688307887173 -0.0009140753728354761 -0.006527983476278229
 0.9945366908343946 -0.05027312280243212 0.004571029653125598 0.020746020050295917 -0.0009143331964933567 -0.006527980001479903 0.0010508693972972921 0.010345342829630382
 0.0010640367430060982 0.010343688307887173 -0.0009143331964933567 -0.006527980001479903 0.004568667247011992 0.020745332593359325 0.9945366599770759 -0.05027404229934386
 -0.0009140753728354761 -0.006527983476278229 0.0010508693972972921 0.010345342829630382 0.9945366599770759 -0.05027404229934386 0.00457118983191795 0.020745091024549793
0.07503126302626001 0.004947362784688232 0.022748906318867487 0.994033530313364 -0.05493124797744942 0.0012232995735460795 0.011285427067344032 -0.0010480331369616814 -0.007125541873605618
 0.994033530313364 -0.05493124797744942 0.004949913336780997 0.02274866773038205 -0.0010483389105379072 -0.0071255349176984764 0.0012076266066277767 0.011287437271139199
 0.0012232995735460795 0.011285427067344032 -0.0010483389105379072 -0.0071255349176984764 0.004947103263095703 0.022747935502356743 0.9940334938302691 -0.05493225137804955
 -0.0010480331369616814 -0.007125541873605618 0.0012076266066277767 0.011287437271139199 0.9940334938302691 -0.05493225137804955 0.00495010446337949 0.0227476539929309
0.08128386827845 0.0053474326111798455 0.024768658397120197 0.9935016327349837 -0.05960396922519165 0.001394438751242801 0.012226715503757351 -0.0011919402717751276 -0.007722992687154435
 0.9935016327349837 -0.05960396922519165 0.005350424967469777 0.02476838375348914 -0.0011922979303917328 -0.007722981514314362 0.0013760412772417328 0.012229129081290814
 0.001394438751242801 0.012226715503757351 -0.0011922979303917328 -0.007722981514314362 0.005347128455522566 0.024767610410059697 0.9935015901346486 -0.05960505665152472
 -0.0011919402717751276 -0.007722992687154435 0.0013760412772417328 0.012229129081290814 0.9935015901346486 -0.05960505665152472 0.005350649813077349 0.024767285217571204
0.08753647353064001 0.005769458894093248 0.02680509507374488 0.9929406448112494 -0.06429106250111866 0.0015775460974534873 0.013167369438618036 -0.0013458916808771078 -0.008320152198499573
 0.9929406448112494 -0.06429106250111866 0.005772928332562464 0.026804781395461903 -0.0013463051270702134 -0.00832013602503652 0.001556205162596844 0.013170237296172836
 0.0015775460974534873 0.013167369438618036 -0.0013463051270702134 -0.00832013602503652 0.0057691065957133055 0.026803970761836587 0.9929405955954093 -0.0642922340902674
 -0.0013458916808771078 -0.008320152198499573 0.001556205162596844 0.013170237296172836 0.9929405955954093 -0.0642922340902674 0.005773189678382978 0.026803597963994195
0.09378907878283 0.006213801985460378 0.028857833933253044 0.9923502155315688 -0.06899228431010894 0.0017727100915763897 0.014107200118601417 -0.001509978810633976 -0.008916833690251187
 0.9923502155315688 -0.06899228431010894 0.00621778381741903 0.028857478129513885 -0.0015104519143877852 -0.008916811684687468 0.0017482067231405244 0.014110576405071414
 0.0017727100915763897 0.014107200118601417 -0.0015104519143877852 -0.008916811684687468 0.006213398046202762 0.02885663420809346 0.9923501591943775 -0.0689935402092678
 -0.001509978810633976 -0.008916833690251187 0.0017482067231405244 0.014110576405071414 0.9923501591943775 -0.0689935402092678 0.006218084454597169 0.028856209699523492
0.100041684035 0.006680818705240477 0.030926494367086388 0.9917299964333537 -0.07370737409267382 0.0019800157266101005 0.015046014425832437 -0.0016842895310918127 -0.009512847331241917
 0.9917299964333537 -0.07370737409267382 0.006685348283951486 0.03092609323294914 -0.0016848261298490746 -0.009512818614399468 0.001952130984845306 0.015049956559767277
 0.0019800157266101005 0.015046014425832437 -0.0016848261298490746 -0.009512818614399468 0.006680359638958035 0.030925220200132584 0.9917299324606789 -0.07370871446554027
 -0.0016842895310918127 -0.009512847331241917 0.001952130984845306 0.015049956559767277 0.9917299324606789 -0.07370871446554027 0.006685691013693788 0.030924739688766235
0.1059090909091 0.007140000412043764 0.03288185423747339 0.9911205851341558 -0.07814435302552399 0.002185665294002837 0.01592589199218099 -0.001857234926729573 -0.010071363623116168
 0.9911205851341558 -0.07814435302552399 0.007145076190671009 0.03288140754635002 -0.0018578345698630234 -0.01007132776642526 0.002154408445605544 0.015930420271077012
 0.002185665294002837 0.01592589199218099 -0.0018578345698630234 -0.01007132776642526 0.007139486455736983 0.03288051115545489 0.9911205135206714 -0.07814577282804086
 -0.001857234926729573 -0.010071363623116168 0.002154408445605544 0.015930420271077012 0.9911205135206714 -0.07814577282804086 0.00714546097645624 0.032879974018062835
0.1062942892872 0.007170862202873567 0.03301069576890325 0.991079641858937 -0.07843605603323327 0.002199544367730803 0.015983615049951275 -0.0018689080138962729 -0.010108000108864276
 0.991079641858937 -0.07843605603323327 0.007175974931403735 0.03301024598223363 -0.0018695119124628064 -0.0101079637539441 0.0021680593999509785 0.015988183745733513
 0.002199544367730803 0.015983615049951275 -0.0018695119124628064 -0.0101079637539441 0.007170344536300687 0.033009348195482895 0.991079569727594 -0.07843748105633766
 -0.0018689080138962729 -0.010108000108864276 0.0021680593999509785 0.015988183745733513 0.991079569727594 -0.07843748105633766 0.007176362565052595 0.033008807198624986
0.11254689453939999 0.007684281804416706 0.03511005617168618 0.9903988092026041 -0.08317804043738193 0.0024313736121108994 0.016919800639337002 -0.002063914608816819 -0.01070209579157721
 0.9903988092026041 -0.08317804043738193 0.0076900131441543515 0.03510955428953344 -0.0020645895792670167 -0.010702050824239825 0.002396069709118977 0.016925059932180943
 0.0024313736121108994 0.016919800639337002 -0.0020645895792670167 -0.010702050824239825 0.007683702079054823 0.03510863629094393 0.9903987283803422 -0.08317955030041375
 -0.002063914608816819 -0.01070209579157721 0.002396069709118977 0.016925059932180943 0.9903987283803422 -0.08317955030041375 0.007690448503497839 0.035108030130894384
0.11879949979160001 0.008221422849734001 0.03722419119034891 0.9896871591496903 -0.08793302481448037 0.0026755771510313833 0.017854365933295188 -0.0022693857185002134 -0.011294934919673203
 0.9896871591496903 -0.08793302481448037 0.008227808328343973 0.03722363364504837 -0.0022701355000408776 -0.011294880318141055 0.002636235805330409 0.01786038320326292
 0.0026755771510313833 0.017854365933295188 -0.0022701355000408776 -0.011294880318141055 0.008220777622723984 0.03722270016641277 0.9896870690939726 -0.08793461971937731
 -0.0022693857185002134 -0.011294934919673203 0.002636235805330409 0.01786038320326292 0.9896870690939726 -0.08793461971937731 0.008228294245227094 0.0372220239657985
0.1250521050438 0.008782626520459505 0.03935271320245879 0.9889443559106362 -0.09270069473348752 0.00293222463285389 0.018787101884549535 -0.0024853936727627715 -0.0118863148152153
 0.9889443559106362 -0.09270069473348752 0.008789701739992134 0.03935209629732328 -0.0024862219715175867 -0.011886249510387904 0.002888627598863652 0.018793947879357845
 0.00293222463285389 0.018787101884549535 -0.0024862219715175867 -0.011886249510387904 0.008781912366174104 0.039351152262742446 0.9889442560680843 -0.09270237489627375
 -0.0024853936727627715 -0.0118863148152153 0.002888627598863652 0.018793947879357845 0.9889442560680843 -0.09270237489627375 0.008790241056979826 0.0393504009393763
0.131304710296 0.009368229661746913 0.041495230695689556 0.9881700674497673 -0.09748072452329559 0.003201381527671551 0.019717795777963405 -0.0027120066023049822 -0.012476029605483961
 0.9881700674497673 -0.09748072452329559 0.009376030307061583 0.0414945506001724 -0.0027129170911650057 -0.012475952480984884 0.003153310883582178 0.0197255446346313
 0.003201381527671551 0.019717795777963405 -0.0027129170911650057 -0.012475952480984884 0.009367443173286152 0.04149360113219579 0.9881699572560546 -0.09748249017290608
 -0.0027120066023049822 -0.012476029605483961 0.003153310883582178 0.0197255446346313 0.9881699572560546 -0.09748249017290608 0.00937662587712933 0.04149276939360459
0.1375573155481 0.009850354289980255 0.043372125659217727 0.9874922364848305 -0.10199339996628068 0.0034511531337721364 0.020619019020341516 -0.002917388757016878 -0.013036637646921005
 0.9874922364848305 -0.10199339996628068 0.0098589198143111 0.04337139490957526 -0.002918387048834858 -0.013036548522272262 0.003398496087621815 0.020627664496190797
 0.0034511531337721364 0.020619019020341516 -0.002918387048834858 -0.013036548522272262 0.009849492857406212 0.04337042835383503 0.9874921154612615 -0.10199525121209319
 -0.002917388757016878 -0.013036637646921005 0.003398496087621815 0.020627664496190797 0.9874921154612615 -0.10199525121209319 0.009859573540425291 0.04336952790114769
0.1438099208003 0.010349614150885544 0.04523797577441839 0.9867902063232454 -0.10649346283980339 0.0037109825654578843 0.021515848513414076 -0.0031309401587859827 -0.013593243576960653
 0.9867902063232454 -0.10649346283980339 0.010358980937513933 0.04523719154625466 -0.003132030227575221 -0.013593141339817844 0.0036535406117065446 0.02152545891521804
 0.0037109825654578843 0.021515848513414076 -0.003132030227575221 -0.013593141339817844 0.010348674536555726 0.04523621202414637 0.9867900739072734 -0.10649539989862003
 -0.0031309401587859827 -0.013593243576960653 0.0036535406117065446 0.02152545891521804 0.9867900739072734 -0.10649539989862003 0.010359695515497773 0.045235238600213626
0.1500625260525 0.010865815447024318 0.047092590857555225 0.9860641756232118 -0.11098076623739467 0.003980768533510164 0.02240816843319541 -0.0033525628895163836 -0.014145739790061016
 0.9860641756232118 -0.11098076623739467 0.010876019981139686 0.04709175014654718 -0.0033537487006341667 -0.014145623282755126 0.003918344685580772 0.022418814531181067
 0.003980768533510164 0.02240816843319541 -0.0033537487006341667 -0.014145623282755126 0.01086479444026582 0.04709076200673422 0.9860640312429145 -0.11098278933581164
 -0.0033525628895163836 -0.014145739790061016 0.003918344685580772 0.022418814531181067 0.9860640312429145 -0.11098278933581164 0.010876798105599852 0.04708971111975214
0.15631513130469998 0.011398762786976773 0.04893578640595838 0.9853143442951207 -0.11545516456045368 0.004260408414931863 0.023295865179488184 -0.0035821577063996613 -0.014694021178951615
 0.9853143442951207 -0.11545516456045368 0.011409841658353763 0.04893488602247972 -0.0035834432162443813 -0.014693889198634177 0.004192807234057185 0.0233076201744964
