! Created with skrf 1.8.0 (http://scikit-rf.org).
# GHz S RI R 50.0 
!freq ReS11 ImS11 ReS12 ImS12 ReS13 ImS13
! ReS14 ImS14
! ReS21 ImS21 ReS22 ImS22 ReS23 ImS23
! ReS24 ImS24
! ReS31 ImS31 ReS32 ImS32 ReS33 ImS33
! ReS34 ImS34
! ReS41 ImS41 ReS42 ImS42 ReS43 ImS43
! ReS44 ImS44
!
0.0 0.001536129804782 0.0 0.9984638701952 0.0 5.943323513999e-05 0.0 -5.943323513903e-05 7.278472117598509e-21
 0.9984638701952 0.0 0.001536129804754 0.0 -5.943323513835e-05 7.278472117515233e-21 5.943323513734e-05 0.0
 5.943323513999e-05 0.0 -5.943323513835e-05 7.278472117515233e-21 0.001536129804756 0.0 0.9984638701952 0.0
 -5.943323513903e-05 7.278472117598509e-21 5.943323513734e-05 0.0 0.9984638701952 0.0 0.001536129804765 0.0
0.005 0.0016527733804470755 0.0012530454215212384 0.9983162973996424 -0.0032180504479475073 8.378111917286024e-05 0.0006766065034969159 -8.12625224167987e-05 -0.0004208929140465611
 0.9983162973996424 -0.0032180504479475073 0.0016527728606685302 0.0012530456471722962 -8.12649682463491e-05 -0.00042089468630586484 8.379516028832744e-05 0.0006766014119422223
 8.378111917286024e-05 0.0006766065034969159 -8.12649682463491e-05 -0.00042089468630586484 0.0016527730099525474 0.001253112849010341 0.9983162977601407 -0.0032179833775888957
 -8.12625224167987e-05 -0.0004208929140465611 8.379516028832744e-05 0.0006766014119422223 0.9983162977601407 -0.0032179833775888957 0.00165277394316503 0.0012531123513929744
0.006252605252188 0.0016833608403545098 0.0015712536082314297 0.9982773558695065 -0.004023352463514365 9.072776096929547e-05 0.0008460765482195547 -8.742551848568476e-05 -0.0005266655464747376
 0.9982773558695065 -0.004023352463514365 0.0016833600276962624 0.001571253811080936 -8.742932524255878e-05 -0.0005266677294030722 9.074970200272774e-05 0.0008460698957352776
 9.072776096929547e-05 0.0008460765482195547 -8.742932524255878e-05 -0.0005266677294030722 0.0016833601914771118 0.0015713378601313291 0.9982773563630146 -0.004023268645744245
 -8.742551848568476e-05 -0.0005266655464747376 9.074970200272774e-05 0.0008460698957352776 0.9982773563630146 -0.004023268645744245 0.001683361649269894 0.0015713371748516732
0.01250521050438 0.0018443529499798733 0.0031755632193689563 0.998071042829381 -0.008047531981777345 0.0001305155690280442 0.0016924522684699172 -0.00012239240382386042 -0.0010559077075366575
 0.998071042829381 -0.008047531981777345 0.001844349708957499 0.003175562812608128 -0.00012240741649274182 -0.0010559117170748649 0.0001306031593144609 0.0016924358874302254
 0.0001305155690280442 0.0016924522684699172 -0.00012240741649274182 -0.0010559117170748649 0.0018443497755376453 0.0031757313585012593 0.9980710442112785 -0.008047364563183381
 -0.00012239240382386042 -0.0010559077075366575 0.0001306031593144609 0.0016924358874302254 0.9980710442112785 -0.008047364563183381 0.0018443555817240955 0.003175729327635452
0.01875781575657 0.0020194573371497804 0.004802810121705066 0.9978446748628671 -0.012082336672833345 0.00017888879205532355 0.0025397182994670903 -0.00016444205433794112 -0.001586934650805094
 0.9978446748628671 -0.012082336672833345 0.0020194500643637234 0.004802808233052879 -0.0001644755479289334 -0.0015869400582574458 0.0001790857759068824 0.002539688567374644
 0.00017888879205532355 0.0025397182994670903 -0.0001644755479289334 -0.0015869400582574458 0.002019449795068636 0.004803061875790456 0.9978446775502902 -0.012082085717147252
 -0.00016444205433794112 -0.001586934650805094 0.0001790857759068824 0.002539688567374644 0.9978446775502902 -0.012082085717147252 0.00201946281429017 0.0048030577573419594
0.02501042100875 0.0022090148530938803 0.006450708648151425 0.9975979856792496 -0.016129721036447622 0.00023594072201329563 0.0033879154973166536 -0.00021367898699875597 -0.0021194989177065176
 0.9975979856792496 -0.016129721036447622 0.002209001949745421 0.006450704339430563 -0.00021373815445402405 -0.0021195052149656766 0.00023629099220022975 0.003387868249654959
 0.00023594072201329563 0.0033879154973166536 -0.00021373815445402405 -0.0021195052149656766 0.0022090011045769378 0.006451043743245358 0.9975979900863822 -0.016129386546545884
 -0.00021367898699875597 -0.0021194989177065176 0.00023629099220022975 0.003387868249654959 0.9975979900863822 -0.016129386546545884 0.0022090241763377473 0.006451036710462495
0.03126302626094 0.0024133522396874796 0.008118081732662012 0.9973306954040789 -0.0201905203650744 0.0003017650773165485 0.004237004129857871 -0.00027020469641565075 -0.0026534277499303156
 0.9973306954040789 -0.0201905203650744 0.0024133321071460553 0.008118073997809894 -0.00027029666256396393 -0.002653434348504041 0.00030231271032649993 0.004236934652875333
 0.0003017650773165485 0.004237004129857871 -0.00027029666256396393 -0.002653434348504041 0.0024133304498037975 0.008118499878371438 0.9973307019461963 -0.020190102297258383
 -0.00027020469641565075 -0.0026534277499303156 0.00030231271032649993 0.004236934652875333 0.9973307019461963 -0.020190102297258383 0.0024133663873436247 0.008118489018178254
0.037515631513130004 0.0026327891458193223 0.009804161293953756 0.997042517822288 -0.024265150299085273 0.0003764550903731887 0.005086912668764125 -0.0003341184205134201 -0.0031885743024437615
 0.997042517822288 -0.024265150299085273 0.0026327601817885955 0.00980414905762669 -0.000334250249083072 -0.0031885805331077982 0.00037724436285137833 0.0050868156909165815
 0.0003764550903731887 0.005086912668764125 -0.000334250249083072 -0.0031885805331077982 0.002632757483896424 0.009804662162522236 0.997042526918851 -0.024264648583708758
 -0.0003341184205134201 -0.0031885743024437615 0.00037724436285137833 0.0050868156909165815 0.997042526918851 -0.024264648583708758 0.0026328090725228582 0.009804646474155767
0.043768236765320004 0.002867640843729097 0.011508375312593728 0.9967331633216028 -0.02835381967991904 0.00046010307677162444 0.0059375526378109686 -0.0004055174157756753 -0.003724802798624272
 0.9967331633216028 -0.02835381967991904 0.0028676014390270855 0.011508357429089055 -0.000405696113454619 -0.003724807911221588 0.0004611784737333384 0.005937422320948335
 0.00046010307677162444 0.0059375526378109686 -0.000405696113454619 -0.003724807911221588 0.0028675974834618404 0.011508958542138969 0.9967331753988706 -0.02835323421794823
 -0.0004055174157756753 -0.003724802798624272 0.0004611784737333384 0.005937422320948335 0.9967331753988706 -0.02835323421794823 0.0028676674787787484 0.011508936935996578
0.050020842017509996 0.003118219490855083 0.013230259836885925 0.9964023403843744 -0.032456618472916705 0.0005528001765956831 0.006788824740561825 -0.00048449705581883303 -0.004261982407738474
 0.9964023403843744 -0.032456618472916705 0.003118168025937611 0.013230235089320207 -0.0004847295747863745 -0.0042619855710639195 0.0005542063952883643 0.006788654670868301
 0.0005528001765956831 0.006788824740561825 -0.0004847295747863745 -0.0042619855710639195 0.00311816260675438 0.013230925030753097 0.9964023558742442 -0.03245594913633969
 -0.00048449705581883303 -0.004261982407738474 0.0005542063952883643 0.006788654670868301 0.9964023558742442 -0.03245594913633969 0.003118253732381745 0.013230896327368855
0.055454545454549996 0.003348992707048843 0.014740669191818724 0.9960971830397274 -0.03603356220470312 0.0006407755158030808 0.007529036340870095 -0.0005593618402139185 -0.0047294800693303135
 0.9960971830397274 -0.03603356220470312 0.0033489294357988485 0.014740637434984206 -0.0005596467364167402 -0.004729480800621922 0.000642505694267996 0.007528826061991054
 0.0006407755158030808 0.007529036340870095 -0.0005596467364167402 -0.004729480800621922 0.00334892258777529 0.014741405262860113 0.9960972018515996 -0.03603281985516471
 -0.0005593618402139185 -0.0047294800693303135 0.000642505694267996 0.007528826061991054 0.9960972018515996 -0.03603281985516471 0.0033490342617251345 0.014741369363344563
0.056273447269699996 0.0033848347719542256 0.014969415801642209 0.9960497564635583 -0.03657356087854785 0.0006546361694408345 0.007640621871071257 -0.0005711508529956456 -0.00479998424239092
 0.9960497564635583 -0.03657356087854785 0.003384769613831992 0.014969382901108896 -0.000571444092534129 -0.004799984544099904 0.0006564181208990102 0.007640405049916516
 0.0006546361694408345 0.007640621871071257 -0.000571444092534129 -0.004799984544099904 0.003384762538347285 0.014970162524632574 0.9960497758049652 -0.03657280751406067
 -0.0005711508529956456 -0.00479998424239092 0.0006564181208990102 0.007640405049916516 0.9960497758049652 -0.03657280751406067 0.003384877483732711 0.014970125453682325
0.06252605252188 0.0036677942452720733 0.016725485283198407 0.9956751185657214 -0.040704609010215165 0.0007656993261510951 0.008492830772285017 -0.0006655704411495648 -0.005338679711987406
 0.9956751185657214 -0.040704609010215165 0.0036677137441933874 0.016725442868111184 -0.0006659312486576972 -0.005338676158529846 0.0007679021345907222 0.008492559607009046
 0.0007656993261510951 0.008492830772285017 -0.0006659312486576972 -0.005338676158529846 0.0036677048352382765 0.016726313063014805 0.9956751422056703 -0.040703771437747595
 -0.0006655704411495648 -0.005338679711987406 0.0007679021345907222 0.008492559607009046 0.9956751422056703 -0.040703771437747595 0.003667846253268084 0.01672626626235646
0.06877865777407 0.003967403521968443 0.018498137337732843 0.9952781336719709 -0.04484968699254588 0.0008860762820703985 0.009345333024861301 -0.0007678455343108647 -0.005877939549930149
 0.9952781336719709 -0.04484968699254588 0.00396730600824517 0.018498083973303766 -0.0007682807059274002 -0.005877931066501247 0.0008887452833893127 0.009344999319516458
 0.0008860762820703985 0.009345333024861301 -0.0007682807059274002 -0.005877931066501247 0.003967295105356645 0.01849904566464684 0.9952781620661163 -0.044848765005579015
 -0.0007678455343108647 -0.005877939549930149 0.0008887452833893127 0.009344999319516458 0.9952781620661163 -0.044848765005579015 0.003967465609848346 0.018498987679540727
0.07503126302626001 0.00428396634863311 0.02028705904074756 0.9948585090653754 -0.04900868986294725 0.0010158519220374942 0.01019800567977145 -0.0008780638719216193 -0.006417633201467486
 0.9948585090653754 -0.04900868986294725 0.004283850129220813 0.02028699321848027 -0.0008785801528374001 -0.006417618631959625 0.0010190326613734046 0.010197600625861291
 0.0010158519220374942 0.01019800567977145 -0.0008785801528374001 -0.006417618631959625 0.004283837091500633 0.020288047364919286 0.9948585426794814 -0.049007683231198536
 -0.0008780638719216193 -0.006417633201467486 0.0010190326613734046 0.010197600625861291 0.9948585426794814 -0.049007683231198536 0.004284039254539251 0.020287976647274022
0.08128386827845 0.004617784629415062 0.022091949504563866 0.9944159526015892 -0.05318148949978119 0.001155109272367938 0.01105072168470734 -0.0009963111554513466 -0.006957628422422192
 0.9944159526015892 -0.05318148949978119 0.004617647984871562 0.022091869641804002 -0.0009969152400286648 -0.006957606529404904 0.0011588475006711325 0.011050235851912156
 0.001155109272367938 0.01105072168470734 -0.0009969152400286648 -0.006957606529404904 0.004617632691656564 0.02209301723847382 0.9944159919116999 -0.0531803979668881
 -0.0009963111554513466 -0.006957628422422192 0.0011588475006711325 0.011050235851912156 0.9944159919116999 -0.0531803979668881 0.004617869041164757 0.022092932146063792
0.08753647353064001 0.004969158405824995 0.023912515760529024 0.9939501729405024 -0.05736793869106154 0.0013039293983707076 0.011903350183426682 -0.0011226709776430814 -0.007497791009856512
 0.9939501729405024 -0.05736793869106154 0.004968999586566292 0.02391242020022122 -0.0011233695093087791 -0.0074977604745762195 0.0013082710687618297 0.011902773510267474
 0.0013039293983707076 0.011903350183426682 -0.0011233695093087791 -0.0074977604745762195 0.004968981940649912 0.02391366227910706 0.9939502184347283 -0.05736676197469223
 -0.0011226709776430814 -0.007497791009856512 0.0013082710687618297 0.011902773510267474 0.9939502184347283 -0.05736676197469223 0.004969254957463572 0.023913561074906917
0.09378907878283 0.005338385810637354 0.025748469805457256 0.993460879756318 -0.06156787404439516 0.0014623913044595717 0.012755756736421636 -0.0012572247480624275 -0.0080379846164545
 0.993460879756318 -0.06156787404439516 0.00533820303373696 0.025748356815897353 -0.0012580243191301329 -0.008037944038825719 0.0014673825677825425 0.0127550785210248
 0.0014623913044595717 0.012755756736421636 -0.0012580243191301329 -0.008037944038825719 0.0053381829624204674 0.02574969444381779 0.9934609319349833 -0.06156661183859072
 -0.0012572247480624275 -0.0080379846164545 0.0014673825677825425 0.0127550785210248 0.9934609319349833 -0.06156661183859072 0.0053384950777072915 0.025749575295554505
0.100041684035 0.005725762999779301 0.027599526446997952 0.9929477839280176 -0.06578111810353311 0.0016305718366946894 0.013607803490032686 -0.0014000516147941017 -0.008578070621617294
 0.9929477839280176 -0.06578111810353311 0.005725554445536701 0.027599394221664353 -0.0014009587661842542 -0.00857801852024247 0.0016362590367641795 0.013607012380855942
 0.0016305718366946894 0.013607803490032686 -0.0014009587661842542 -0.00857801852024247 0.005725531903159454 0.0276008285038302 0.9929478433050182 -0.06577977007570063
 -0.0014000516147941017 -0.008578070621617294 0.0016362590367641795 0.013607012380855942 0.9929478433050182 -0.06577977007570063 0.005725885495253862 0.02760068948338312
0.1059090909091 0.006106044441550287 0.02935002942012655 0.9924443933399947 -0.06974673587857579 0.0017972968873072011 0.014406906085767054 -0.0015416722200117569 -0.009084660638289
 0.9924443933399947 -0.06974673587857579 0.006105810007004479 0.0293498774343844 -0.0015426862268728995 -0.00908459630338972 0.0018036794667542955 0.014405998126808588
 0.0017972968873072011 0.014406906085767054 -0.0015426862268728995 -0.00908459630338972 0.006105785130224829 0.02935140345359098 0.9924444599521883 -0.06974530699202777
 -0.0015416722200117569 -0.009084660638289 0.0018036794667542955 0.014405998126808588 0.9924444599521883 -0.06974530699202777 0.006106179757328671 0.029351243945890525
0.1062942892872 0.00613158406977868 0.02946540167813887 0.9924105977192287 -0.07000748094185774 0.001808545586747199 0.014459349309881615 -0.0015512283837400753 -0.00911790804356635
 0.9924105977192287 -0.07000748094185774 0.006131347878085261 0.029465248335658546 -0.001552249604574493 -0.00911784285577681 0.0018149752551798455 0.014458433296465916
 0.001808545586747199 0.014459349309881615 -0.001552249604574493 -0.00911784285577681 0.006131322848081974 0.029466780412801694 0.9924106648230224 -0.07000604673597824
 -0.0015512283837400753 -0.00911790804356635 0.0018149752551798455 0.014458433296465916 0.9924106648230224 -0.07000604673597824 0.006131720239545195 0.029466619495809282
0.11254689453939999 0.006556140964481621 0.031345811442321195 0.9918490349499549 -0.07424676137126522 0.001996384796761712 0.015310249891376545 -0.0017108294360727823 -0.009657353479840676
 0.9918490349499549 -0.07424676137126522 0.006555875231236869 0.03134563502655063 -0.0017119711631880482 -0.009657273561747297 0.002003603647516452 0.015309196295131807
 0.001996384796761712 0.015310249891376545 -0.0017119711631880482 -0.009657273561747297 0.006555847728386929 0.031347266079292405 0.9918491103245322 -0.07424524060382638
 -0.0017108294360727823 -0.009657353479840676 0.002003603647516452 0.015309196295131807 0.9918491103245322 -0.07424524060382638 0.00655629118313454 0.03134708114482972
0.11879949979160001 0.0069997233718568416 0.033240470673106724 0.991262811161834 -0.07849874788286679 0.0021941592652318692 0.016160357854360066 -0.001878926643957233 -0.01019626106916504
 0.991262811161834 -0.07849874788286679 0.00699942614537779 0.03324026915320876 -0.0018801952613764579 -0.010196164695725195 0.002202214188791163 0.016159153319393868
 0.0021941592652318692 0.016160357854360066 -0.0018801952613764579 -0.010196164695725195 0.006999396217662828 0.03324200039335942 0.9912628953675409 -0.07849714015198068
 -0.001878926643957233 -0.01019626106916504 0.002202214188791163 0.016159153319393868 0.9912628953675409 -0.07849714015198068 0.006999887937933739 0.033241789223603435
0.1250521050438 0.007462618614267859 0.03514909252919216 0.990651643779656 -0.08276321939874845 0.0024019362534660146 0.01700952282495041 -0.002055589285127032 -0.010734482471825095
 0.990651643779656 -0.08276321939874845 0.007462287891805504 0.03514886379991071 -0.002056991123516713 -0.010734367836926923 0.0024108743107431408 0.01700815330891957
 0.0024019362534660146 0.01700952282495041 -0.002056991123516713 -0.010734367836926923 0.007462255622866898 0.03515069648225571 0.9906517373942441 -0.08276152427265888
 -0.002055589285127032 -0.010734482471825095 0.0024108743107431408 0.01700815330891957 0.9906517373942441 -0.08276152427265888 0.0074627977457538824 0.035150456762334026
0.131304710296 0.007945111532950907 0.03707138779784523 0.9900152522686807 -0.08703994586215676 0.0026197803923641914 0.01785759151217039 -0.002240883956808914 -0.0112718668609893
 0.9900152522686807 -0.08703994586215676 0.007944745256605637 0.0370711296798435 -0.0022424252928159136 -0.01127173207755565 0.0026296488082444653 0.01785604227717876
 0.0026197803923641914 0.01785759151217039 -0.0022424252928159136 -0.01127173207755565 0.007944710768086507 0.03707306509502739 0.9900153558884665 -0.08703816288654323
 -0.002240883956808914 -0.0112718668609893 0.0026296488082444653 0.01785604227717876 0.9900153558884665 -0.08703816288654323 0.007945305362548248 0.03707279441295238
0.1375573155481 0.008337069301421479 0.038755596472901645 0.9894638172164564 -0.09107710828438388 0.002820290341088566 0.018679022551499547 -0.002407396803042766 -0.011782900043289355
 0.9894638172164564 -0.09107710828438388 0.008336664261614224 0.03875531509718769 -0.002409086629198712 -0.011782744940680285 0.002831103530129498 0.01867729597866823
 0.002820290341088566 0.018679022551499547 -0.002409086629198712 -0.011782744940680285 0.008336627836088044 0.03875734704349777 0.989463931309099 -0.09107523717864752
 -0.002407396803042766 -0.011782900043289355 0.002831103530129498 0.01867729597866823 0.989463931309099 -0.09107523717864752 0.00833727802457127 0.038757049912959196
0.1438099208003 0.008742818620418992 0.04043086351008054 0.9888929812895507 -0.09510398014904786 0.0030288987714034376 0.019497140874500503 -0.002580574557152087 -0.012290891661815144
 0.9888929812895507 -0.09510398014904786 0.008742372477385121 0.0404305574436464 -0.002582419562028341 -0.012290714391672194 0.00304069826953411 0.019495223614753646
 0.0030288987714034376 0.019497140874500503 -0.002582419562028341 -0.012290714391672194 0.008742334313385983 0.04043268649778278 0.9888931064516828 -0.09510202046550294
 -0.002580574557152087 -0.012290891661815144 0.00304069826953411 0.019495223614753646 0.9888931064516828 -0.09510202046550294 0.00874304226486547 0.04043236109219856
0.1500625260525 0.009162215930657648 0.04209704717422498 0.9883028922702092 -0.09912045978111132 0.00324553342608677 0.02031186308223866 -0.0027603467695067217 -0.012795762450264148
 0.9883028922702092 -0.09912045978111132 0.009161726280349216 0.042096714936689476 -0.002762353622587707 -0.012795561090625095 0.003258360546565088 0.020309741299027958
 0.00324553342608677 0.02031186308223866 -0.002762353622587707 -0.012795561090625095 0.009161686612041848 0.04209894169317346 0.9883030291142935 -0.09911841105436975
 -0.0027603467695067217 -0.012795762450264148 0.003258360546565088 0.020309741299027958 0.9883030291142935 -0.09911841105436975 0.00916245444561944 0.042098586116539854
0.15631513130469998 0.009595116642998962 0.04375401001249425 0.9876936987076572 -0.10312644589858212 0.0034701211856535833 0.021123107197285784 -0.002946642114467477 -0.013297434830517221
 0.9876936987076572 -0.10312644589858212 0.009594581015616839 0.043753650077801604 -0.00294881746600787 -0.013297207386273605 0.0034840170172593683 0.021120766570792822
