! Created with skrf 1.8.0 (http://scikit-rf.org).
# GHz S RI R 50.0 
!freq ReS11 ImS11 ReS12 ImS12 ReS13 ImS13
! ReS14 ImS14
! ReS21 ImS21 ReS22 ImS22 ReS23 ImS23
! ReS24 ImS24
! ReS31 ImS31 ReS32 ImS32 ReS33 ImS33
! ReS34 ImS34
! ReS41 ImS41 ReS42 ImS42 ReS43 ImS43
! ReS44 ImS44
!
0.0 0.001484192422362 0.0 0.9985158075748 0.0 5.730189608581e-05 0.0 -5.7301896085e-05 7.01745836255695e-21
 0.9985158075748 0.0 0.001484192422357 0.0 -5.730189608551e-05 7.017458362619407e-21 5.730189608464e-05 0.0
 5.730189608581e-05 0.0 -5.730189608551e-05 7.017458362619407e-21 0.001484192423786 0.0 0.9985158075762 0.0
 -5.7301896085e-05 7.01745836255695e-21 5.730189608464e-05 0.0 0.9985158075762 0.0 0.001484192423758 0.0
0.005 0.0015967309373810712 0.0012115099324440564 0.9983734453927846 -0.003109313017860976 8.065055136483262e-05 0.0006485092356207359 -7.820726312669814e-05 -0.00040410058166836935
 0.9983734453927846 -0.003109313017860976 0.0015967468270053464 0.0012115006916143443 -7.820774839508582e-05 -0.0004041010106258439 8.054433685996087e-05 0.0006485495704226255
 8.065055136483262e-05 0.0006485092356207359 -7.820774839508582e-05 -0.0004041010106258439 0.0015967300516366491 0.0012114432281936283 0.9983734450354339 -0.0031093800770152385
 -7.820726312669814e-05 -0.00040410058166836935 8.054433685996087e-05 0.0006485495704226255 0.9983734450354339 -0.0031093800770152385 0.001596746999418295 0.0012114332776525522
0.006252605252188 0.0016261961444830378 0.001519173099902717 0.9983359413341197 -0.00388741060769973 8.730320502170488e-05 0.0008109452218956252 -8.408856219560733e-05 -0.0005056549644065225
 0.9983359413341197 -0.00388741060769973 0.0016262209827766934 0.001519161385349845 -8.408931685930695e-05 -0.0005056554945333816 8.713725290432775e-05 0.0008109976026883671
 8.730320502170488e-05 0.0008109452218956252 -8.408931685930695e-05 -0.0005056554945333816 0.0016261948407484876 0.0015190897309801151 0.9983359408568351 -0.003887494426170252
 -8.408856219560733e-05 -0.0005056549644065225 8.713725290432775e-05 0.0008109976026883671 0.9983359408568351 -0.003887494426170252 0.0016262213340797742 0.0015190771178758404
0.01250521050438 0.0017810151751333533 0.0030703457584206587 0.9981376019118211 -0.007775689368270672 0.00012535910938864375 0.0016222094595800052 -0.00011734524166866908 -0.0010138087309936466
 0.9981376019118211 -0.007775689368270672 0.0017811143513297822 0.0030703206951198125 -0.00011734821036729531 -0.0010138097255005664 0.00012469727891096564 0.00162233532757505
 0.00012535910938864375 0.0016222094595800052 -0.00011734821036729531 -0.0010138097255005664 0.0017810105271052147 0.003070179335053017 0.9981376005701166 -0.007775856756756771
 -0.00011734524166866908 -0.0010138087309936466 0.00012469727891096564 0.00162233532757505 0.9981376005701166 -0.007775856756756771 0.001781116326010226 0.0030701523499367766
0.01875781575657 0.0019489783543000315 0.0046437517289075044 0.9979205494480317 -0.011674312708793202 0.00017155535556613488 0.0024343592899453213 -0.0001571726954042114 -0.0015237122849123999
 0.9979205494480317 -0.011674312708793202 0.0019492012001887584 0.004643711589227052 -0.00015717930832241607 -0.001523713667696285 0.00017006850232959974 0.0024345837426717584
 0.00017155535556613488 0.0024343592899453213 -0.00015717930832241607 -0.001523713667696285 0.001948968316300191 0.004643502437580435 0.9979205468522147 -0.011674563567761625
 -0.0001571726954042114 -0.0015237122849123999 0.00017006850232959974 0.0024345837426717584 0.9979205468522147 -0.011674563567761625 0.0019492060713181287 0.004643459194174604
0.02501042100875 0.0021304053052625506 0.006237192837678079 0.9976845348895828 -0.015585179417733255 0.0002259793283983431 0.003247437322248165 -0.00020366849277932462 -0.002035135330619807
 0.9976845348895828 -0.015585179417733255 0.0021308010509101696 0.0062371358194990715 -0.00020368016075972408 -0.002035137013612103 0.0002233381046955803 0.003247789309645492
 0.0002259793283983431 0.003247437322248165 -0.00020368016075972408 -0.002035137013612103 0.0021303878334766233 0.006236860847837633 0.9976845306551391 -0.015585513685148546
 -0.00020366849277932462 -0.002035135330619807 0.0002233381046955803 0.003247789309645492 0.9976845306551391 -0.015585513685148546 0.0021308101022303413 0.006236799352652189
0.03126302626094 0.00232560238188459 0.007849542301599474 0.997429296147483 -0.019509107302401872 0.0002887190803456816 0.004061409533386393 -0.00025692750600168755 -0.002547918886907865
 0.997429296147483 -0.019509107302401872 0.0023262201837514398 0.007849466532771392 -0.0002569456238172011 -0.0025479207699166903 0.00028459362843540645 0.00406192188130575
 0.0002887190803456816 0.004061409533386393 -0.0002569456238172011 -0.0025479207699166903 0.002325575425713413 0.007849127795070793 0.997429289887024 -0.019509524924674105
 -0.00025692750600168755 -0.002547918886907865 0.00028459362843540645 0.00406192188130575 0.997429289887024 -0.019509524924674105 0.0023262347022434643 0.007849045951408767
0.037515631513130004 0.0025348693574831454 0.009480068803283025 0.9971545649788154 -0.023446509055067604 0.00035986239544153316 0.004876211738305986 -0.0003170426242811671 -0.0030619288082488123
 0.9971545649788154 -0.023446509055067604 0.0025357583179704763 0.009479972344054283 -0.00031706857246833786 -0.00306193077894982 0.0003539222080788305 0.004876921188613181
 0.00035986239544153316 0.004876211738305986 -0.00031706857246833786 -0.00306193077894982 0.0025348308666376836 0.009479571965046745 0.9971545563091028 -0.023447009996592362
 -0.0003170426242811671 -0.0030619288082488123 0.0003539222080788305 0.004876921188613181 0.9971545563091028 -0.023447009996592362 0.0025357796004725213 0.009479467575077479
0.043768236765320004 0.0027585020180819902 0.011128230774539023 0.9968600697770661 -0.027397597901942346 0.000439496356776987 0.005691763727075443 -0.00038410501047420205 -0.0035770416437530556
 0.9968600697770661 -0.027397597901942346 0.002759711201451445 0.011128111619229003 -0.00038414015642027944 -0.003577043577693336 0.00043141020954180504 0.005692710982959045
 0.000439496356776987 0.005691763727075443 -0.00038414015642027944 -0.003577043577693336 0.0027584499362426503 0.01112765180813395 0.9968600583122634 -0.027398182130072824
 -0.00038410501047420205 -0.0035770416437530556 0.00043141020954180504 0.005692710982959045 0.9968600583122634 -0.027398182130072824 0.0027597405480752966 0.011127522574164859
0.050020842017509996 0.002996793359923307 0.012793591399908386 0.9965455369695156 -0.03136247253004955 0.0005277070891841503 0.0065079750979729 -0.0004582041976961198 -0.004093138802935164
 0.9965455369695156 -0.03136247253004955 0.002998371805801644 0.012793447478183161 -0.0004582498964032779 -0.004093140563571969 0.0005171430103516085 0.006509204871422372
 0.0005277070891841503 0.0065079750979729 -0.0004582498964032779 -0.004093140563571969 0.002996725628573959 0.012792930526711132 0.9965455223242591 -0.0313631400161463
 -0.0004582041976961198 -0.004093138802935164 0.0005171430103516085 0.006509204871422372 0.9965455223242591 -0.0313631400161463 0.0029984105232284124 0.012792774051930559
0.055454545454549996 0.003216006319944637 0.014254516228174745 0.9962557121057973 -0.03481928587575349 0.0006113963111909195 0.007217747263214047 -0.000528381709348556 -0.004542351691741698
 0.9962557121057973 -0.03481928587575349 0.0032179454829184 0.014254349052724486 -0.0005284376698911203 -0.004542353181524097 0.0005984086474395249 0.007219262014421351
 0.0006113963111909195 0.007217747263214047 -0.0005284376698911203 -0.004542353181524097 0.0032159233149303876 0.0142537843680046 0.9962556943841283 -0.03482002569687006
 -0.000528381709348556 -0.004542351691741698 0.0005984086474395249 0.007219262014421351 0.9962556943841283 -0.03482002569687006 0.0032179934098168503 0.014253602196842418
0.056273447269699996 0.003250034212728989 0.014475776884114557 0.9962106918440364 -0.03534115875104854 0.0006245795792885184 0.0073247481243668665 -0.0005394281138109717 -0.004610103690813338
 0.9962106918440364 -0.03534115875104854 0.0032520309489631454 0.014475606061806855 -0.0005394857083701896 -0.00461010512955265 0.0006112048431449805 0.007326309184562623
 0.0006245795792885184 0.0073247481243668665 -0.0005394857083701896 -0.00461010512955265 0.003249948770539299 0.014475034341726667 0.9962106736333624 -0.03534190947254817
 -0.0005394281138109717 -0.004610103690813338 0.0006112048431449805 0.007326309184562623 0.9962106736333624 -0.03534190947254817 0.003252080349780573 0.014474848130469802
0.06252605252188 0.0035185135739842026 0.016174453509223693 0.995855259091787 -0.039333632377617576 0.0007301975353203726 0.008141979330061347 -0.0006278630686966293 -0.005127820137838676
 0.995855259091787 -0.039333632377617576 0.0035209776291699278 0.016174253588679296 -0.0006279338907836288 -0.005127821094057933 0.0007136786699975236 0.008143924552245912
 0.0007301975353203726 0.008141979330061347 -0.0006279338907836288 -0.005127821094057933 0.00351840835724992 0.01617362955481059 0.9958552369301304 -0.03933446631491097
 -0.0006278630686966293 -0.005127820137838676 0.0007136786699975236 0.008143924552245912 0.9958552369301304 -0.03933446631491097 0.003521039031012034 0.016173411012646553
0.06877865777407 0.00380251878771037 0.0178893139650125 0.9954789631959927 -0.04333983282936021 0.0008446432676148696 0.008959560428168803 -0.0007235937210606649 -0.005646171469945669
 0.9954789631959927 -0.04333983282936021 0.00380549920252699 0.01788908268534666 -0.0007236790911709924 -0.005646171771046316 0.000824646073861482 0.008961946842569445
 0.0008446432676148696 0.008959560428168803 -0.0007236790911709924 -0.005646171771046316 0.0038023917304282756 0.017888408874777294 0.9954789366977732 -0.043340749966881774
 -0.0007235937210606649 -0.005646171469945669 0.000824646073861482 0.008961946842569445 0.9954789366977732 -0.043340749966881774 0.0038055739282108992 0.017888155308039014
0.07503126302626001 0.004102335630822615 0.019620068671257044 0.9950815287337177 -0.04735967175076655 0.0009679975820525579 0.009777378920657526 -0.0008267030319962036 -0.006165039921765876
 0.9950815287337177 -0.04735967175076655 0.004105881470157521 0.019619803708005337 -0.0008268042597803219 -0.006165039383192891 0.0009441871599749481 0.009780267761317085
 0.0009679975820525579 0.009777378920657526 -0.0008268042597803219 -0.006165039383192891 0.004102184665161719 0.019619082744151216 0.9950814975124247 -0.04736067207348118
 -0.0008267030319962036 -0.006165039921765876 0.0009441871599749481 0.009780267761317085 0.9950814975124247 -0.04736067207348118 0.004105970846720379 0.01961879135931083
0.08128386827845 0.004418248341711439 0.021366440012255666 0.9946626806222906 -0.05139303872058859 0.0011003396813599256 0.010595318500827232 -0.0009372722102082317 -0.006684306250886359
 0.9946626806222906 -0.05139303872058859 0.004422408706241373 0.021366138976830477 -0.000937390594590551 -0.006684304676170655 0.0010723804633496219 0.010598775254167886
 0.0011003396813599256 0.010595318500827232 -0.000937390594590551 -0.006684304676170655 0.004418071398459914 0.021365373565543605 0.9946626442909142 -0.05139412221881616
 -0.0009372722102082317 -0.006684306250886359 0.0010723804633496219 0.010598775254167886 0.9946626442909142 -0.05139412221881616 0.004422514065430885 0.021365041468143987
0.08753647353064001 0.00475053961058507 0.023128158346692806 0.9942221443306329 -0.05543980519026515 0.0012417470715112824 0.011413259335490365 -0.0010553806512040452 -0.007203849476547153
 0.9942221443306329 -0.05543980519026515 0.004755363648201566 0.02312781878545638 -0.0010555174806100968 -0.007203846657335788 0.0012093028600389077 0.011417353788523661
 0.0012417470715112824 0.011413259335490365 -0.0010555174806100968 -0.007203846657335788 0.004750334619779839 0.0231270117231229 0.9942221025018468 -0.05544097185287262
 -0.0010553806512040452 -0.007203849476547153 0.0012093028600389077 0.011417353788523661 0.9942221025018468 -0.05544097185287262 0.004755486325903462 0.02312663591637893
0.09378907878283 0.005099490543356494 0.024904959157602664 0.9937596460681862 -0.059499827286799756 0.0013922954712185002 0.012231078270371986 -0.001181105872414795 -0.0077235466994456485
 0.9937596460681862 -0.059499827286799756 0.005105027461112827 0.02490457855053586 -0.001181262424907235 -0.007723542415530473 0.0013550294810384998 0.012235884558468272
 0.0013922954712185002 0.012231078270371986 -0.001181262424907235 -0.007723542415530473 0.005099255434208593 0.024903732718980602 0.9937595983534585 -0.05950107710796282
 -0.001181105872414795 -0.0077235466994456485 0.0013550294810384998 0.012235884558468272 0.9937595983534585 -0.05950107710796282 0.0051051687964698425 0.024903310102063033
0.100041684035 0.00546538060591825 0.026696580963894385 0.993274912956721 -0.06357294785875288 0.001552058724044558 0.013048648986981175 -0.0013145234449752597 -0.00824327297441977
 0.993274912956721 -0.06357294785875288 0.005471679681559569 0.026696156722909006 -0.001314700988365987 -0.008243266993768485 0.0015096336277577336 0.013054245641093242
 0.001552058724044558 0.013048648986981175 -0.001314700988365987 -0.008243266993768485 0.005465113307953752 0.026695275094901584 0.9932748589668509 -0.06357428083438194
 -0.0013145234449752597 -0.00824327297441977 0.0015096336277577336 0.013054245641093242 0.9932748589668509 -0.06357428083438194 0.005471841017467009 0.026694802460846753
0.1059090909091 0.005824383021249803 0.02839107590145443 0.9927995778589371 -0.06740690212543045 0.0017104244567997134 0.013815511446281799 -0.0014467833434908314 -0.008730894209184182
 0.9927995778589371 -0.06740690212543045 0.0058314421921482704 0.02839060829839448 -0.0014469817286134157 -0.008730886414786261 0.0016628508510810026 0.013821925154653707
 0.0017104244567997134 0.013815511446281799 -0.0014469817286134157 -0.008730886414786261 0.005824083634507824 0.028389695865433513 0.9927995176254989 -0.06740831313116388
 -0.0014467833434908314 -0.008730894209184182 0.0016628508510810026 0.013821925154653707 0.9927995176254989 -0.06740831313116388 0.0058316235203775095 0.02838917328212396
0.1062942892872 0.00584848755505684 0.028502763748859707 0.9927676731920186 -0.06765899801030738 0.0017211087118304707 0.0138658421257887 -0.0014557069231403363 -0.008762901221379935
 0.9927676731920186 -0.06765899801030738 0.005855598148841681 0.0285022932157594 -0.0014559067150632333 -0.00876289330016302 0.00167318668876952 0.013872312119124375
 0.0017211087118304707 0.0138658421257887 -0.0014559067150632333 -0.00876289330016302 0.005848185997807013 0.028501378856693838 0.992767612536451 -0.06766041413880552
 -0.0014557069231403363 -0.008762901221379935 0.00167318668876952 0.013872312119124375 0.992767612536451 -0.06766041413880552 0.0058557808310426155 0.028500852889847206
0.11254689453939999 0.0062490873575142885 0.030323247762619757 0.9922376561965878 -0.0717577982664181 0.0018995152691612747 0.014682525386780434 -0.0016047277719816308 -0.009282302163500004
 0.9922376561965878 -0.0717577982664181 0.006257058924130998 0.030322728206569807 -0.0016049510600446703 -0.009282292046114905 0.001845758056916765 0.014689956180784156
 0.0018995152691612747 0.014682525386780434 -0.0016049510600446703 -0.009282292046114905 0.006248749471868018 0.030321784279146807 0.9922375884842078 -0.07175929754676472
 -0.0016047277719816308 -0.009282302163500004 0.001845758056916765 0.014689956180784156 0.9922375884842078 -0.07175929754676472 0.006257264301155717 0.030321201552394587
0.11879949979160001 0.0066674541021831705 0.032157772587347595 0.9916845927682542 -0.075869159480611 0.002087346098877902 0.015498563613638846 -0.0017616552933148533 -0.009801344286482163
 0.9916845927682542 -0.075869159480611 0.006676336202530809 0.032157201202087225 -0.0017619033151240972 -0.009801331705579445 0.0020274150474732123 0.015507047203313922
 0.002087346098877902 0.015498563613638846 -0.0017619033151240972 -0.009801331705579445 0.006667077820094779 0.032156230966406546 0.9916845176063439 -0.07587074191538724
 -0.0017616552933148533 -0.009801344286482163 0.0020274150474732123 0.015507047203313922 0.9916845176063439 -0.07587074191538724 0.006676565625162343 0.03215558793785986
0.1250521050438 0.007103859903804811 0.0340060764030538 0.9911082152235735 -0.07999288354762121 0.0022846666879344298 0.016313818868314543 -0.0019265565506977097 -0.010319893812254803
 0.9911082152235735 -0.07999288354762121 0.007113702217341208 0.03400545030347856 -0.0019268305339152116 -0.01031987848876453 0.0022182228162499055 0.01632345182675871
 0.0022846666879344298 0.016313818868314543 -0.0019268305339152116 -0.01031987848876453 0.007103443159508602 0.03400445712294348 0.9911081322182309 -0.07999454914077031
 -0.0019265565506977097 -0.010319893812254803 0.0022182228162499055 0.01632345182675871 0.9911081322182309 -0.07999454914077031 0.007113957038442197 0.034003750132282025
0.131304710296 0.00755857480298626 0.035867895396098796 0.9905082575385955 -0.08412876397899446 0.0024915402238704443 0.017128150496317534 -0.0020994962932726364 -0.010837814686931237
 0.9905082575385955 -0.08412876397899446 0.0075694271395889455 0.035867211614626984 -0.0020997974557202055 -0.010837796330083931 0.0024182442783872177 0.017139034018475916
 0.0024915402238704443 0.017128150496317534 -0.0020997974557202055 -0.010837796330083931 0.007558115532808951 0.03586619895877965 0.9905081662943197 -0.08413051273688059
 -0.0020994962932726364 -0.010837814686931237 0.0024182442783872177 0.017139034018475916 0.9905081662943197 -0.08413051273688059 0.007569708713481247 0.0358654242231652
0.1375573155481 0.00792623108982054 0.03749944701503365 0.98999012772629 -0.08803297248716824 0.0026818946643657453 0.01791677264694101 -0.0022544932947438936 -0.011330278332651612
 0.98999012772629 -0.08803297248716824 0.007938147787917413 0.03749871763025854 -0.0022548235976608023 -0.011330256935137548 0.002601580741953739 0.017928889040831557
 0.0026818946643657453 0.01791677264694101 -0.0022548235976608023 -0.011330256935137548 0.007925728034955693 0.03749767355310939 0.9899900278719285 -0.08803480437433202
 -0.0022544932947438936 -0.011330278332651612 0.002601580741953739 0.017928889040831557 0.9899900278719285 -0.08803480437433202 0.007938456616613536 0.037496842994687585
0.1438099208003 0.008306770927203421 0.03912259798549441 0.9894538585394341 -0.09192749125017512 0.002879954039315294 0.01870231263049417 -0.002415700299486935 -0.011819959935862715
 0.9894538585394341 -0.09192749125017512 0.008319802681986354 0.03912182087453665 -0.002416061080341729 -0.011819935208568036 0.0027923138354035183 0.01871575420358348
 0.002879954039315294 0.01870231263049417 -0.002416061080341729 -0.011819935208568036 0.00830622217275643 0.03912074797029943 0.9894537496829352 -0.09192940626536068
 -0.002415700299486935 -0.011819959935862715 0.0027923138354035183 0.01871575420358348 0.9894537496829352 -0.09192940626536068 0.00832013996654664 0.039119858701941526
0.1500625260525 0.008700062982710508 0.0407372187484781 0.9888995851965452 -0.09581222978329901 0.003085652381788195 0.019484693447307137 -0.0025830539428638565 -0.01230678791933372
 0.9888995851965452 -0.09581222978329901 0.008714260643174614 0.04073639163506478 -0.0025834465386500634 -0.012306759561098475 0.0029903793407226233 0.0194995558717421
 0.003085652381788195 0.019484693447307137 -0.0025834465386500634 -0.012306759561098475 0.008699466625612114 0.04073529266924731 0.9888994669452831 -0.09581422792410375
 -0.0025830539428638565 -0.01230678791933372 0.0029903793407226233 0.0194995558717421 0.9888994669452831 -0.09581422792410375 0.008714627575716411 0.040734341622966665
0.15631513130469998 0.00910597502259618 0.04234318369238844 0.9883274435697709 -0.09968709779589752 0.003298922961292188 0.02026383935209102 -0.002756490095876378 -0.012790692195663231
 0.9883274435697709 -0.09968709779589752 0.009121389596512748 0.042342304140812616 -0.002756915843055114 -0.012790659893325184 0.0031957123014993783 0.020280221630769864
