! Created with skrf 1.8.0 (http://scikit-rf.org).
# GHz S RI R 50.0 
!freq ReS11 ImS11 ReS12 ImS12 ReS13 ImS13
! ReS14 ImS14
! ReS21 ImS21 ReS22 ImS22 ReS23 ImS23
! ReS24 ImS24
! ReS31 ImS31 ReS32 ImS32 ReS33 ImS33
! ReS34 ImS34
! ReS41 ImS41 ReS42 ImS42 ReS43 ImS43
! ReS44 ImS44
!
0.0 0.001824520883941 0.0 0.9981754790873 0.0 7.08056833298e-05 0.0 -7.080568218639e-05 8.671195205100729e-21
 0.9981754790873 0.0 0.00182452088398 0.0 -7.080568218661e-05 8.67119520512767e-21 7.080568333029e-05 0.0
 7.08056833298e-05 0.0 -7.080568218661e-05 8.67119520512767e-21 0.001824520892388 0.0 0.9981754790957 0.0
 -7.080568218639e-05 8.671195205100729e-21 7.080568333029e-05 0.0 0.9981754790957 0.0 0.001824520892406 0.0
0.005 0.001964000775214075 0.0014923923816143282 0.9979988906599119 -0.0038208634379743025 9.950108750436779e-05 0.0007759553089218411 -9.672301768227517e-05 -0.0004875838457632244
 0.9979988906599119 -0.0038208634379743025 0.0019639619947126557 0.0014924150955406834 -9.67237668837943e-05 -0.000487584485528566 9.974276380218115e-05 0.0007758632491310245
 9.950108750436779e-05 0.0007759553089218411 -9.67237668837943e-05 -0.000487584485528566 0.001964000431119656 0.0014924599131025589 0.9979988910357597 -0.0038207963757802884
 -9.672301768227517e-05 -0.0004875838457632244 9.974276380218115e-05 0.0007758632491310245 0.9979988910357597 -0.0038207963757802884 0.0019639630810230476 0.0014924816794684573
0.006252605252188 0.002000874043248038 0.0018713178514956775 0.9979518783912291 -0.004776967308332914 0.00010781181273545256 0.0009703063756944549 -0.00010416885195368984 -0.0006100918792643018
 0.9979518783912291 -0.004776967308332914 0.0020008134214428356 0.0018713466733698606 -0.00010417001725333652 -0.0006100926692077376 0.0001081894053463639 0.0009701867276354915
 0.00010781181273545256 0.0009703063756944549 -0.00010417001725333652 -0.0006100926692077376 0.002000873439124803 0.0018714022642055503 0.99795187891337 -0.004776883485037867
 -0.00010416885195368984 -0.0006100918792643018 0.0001081894053463639 0.0009701867276354915 0.99795187891337 -0.004776883485037867 0.0020008150543056164 0.0018714298873024335
0.01250521050438 0.0021966807607102846 0.0037813776528106114 0.9977004353524426 -0.009554390487950492 0.0001560689931078974 0.001940878977028385 -0.0001471041118924446 -0.0012229467918631405
 0.9977004353524426 -0.009554390487950492 0.0021964386827594672 0.0037814396487880968 -0.0001471086978125789 -0.0012229482640850125 0.00015757467384942155 0.0019405897850680442
 0.0001560689931078974 0.001940878977028385 -0.0001471086978125789 -0.0012229482640850125 0.0021966777850345063 0.00378154625419569 0.9977004368863541 -0.009554223073604744
 -0.0001471041118924446 -0.0012229467918631405 0.00015757467384942155 0.0019405897850680442 0.9977004368863541 -0.009554223073604744 0.002196444655792202 0.0037816056907450917
0.01875781575657 0.0024124268376375553 0.00571810081685532 0.9974207959756947 -0.014343824708174848 0.00021570057027125455 0.002912321310554311 -0.00019975520215791113 -0.0018376434384903978
 0.9974207959756947 -0.014343824708174848 0.0024118828462075413 0.005718200721209101 -0.00019976541976569513 -0.0018376454635022118 0.0002190827328446105 0.0029118016277291728
 0.00021570057027125455 0.002912321310554311 -0.00019976541976569513 -0.0018376454635022118 0.002412419707089401 0.005718353514864525 0.997420799005307 -0.014343573757269393
 -0.00019975520215791113 -0.0018376434384903978 0.0002190827328446105 0.0029118016277291728 0.997420799005307 -0.014343573757269393 0.002411895855982471 0.005718449282939471
0.02501042100875 0.002648580081110543 0.007678702041793314 0.9971125907928662 -0.019147514547278602 0.00028682977977275944 0.003884629190721664 -0.00026225988789578525 -0.002453858674325018
 0.9971125907928662 -0.019147514547278602 0.0026476139323342836 0.007678844927702359 -0.000262277918673655 -0.0024538610985032246 0.0002928369157638678 0.0038838073286931334
 0.00028682977977275944 0.003884629190721664 -0.000262277918673655 -0.0024538610985032246 0.002648567000536115 0.007679038745117141 0.9971125958046617 -0.019147180067002594
 -0.00026225988789578525 -0.002453858674325018 0.0002928369157638678 0.0038838073286931334 0.9971125958046617 -0.019147180067002594 0.0026476366725677134 0.007679175648545953
0.03126302626094 0.0029055887860076693 0.009661709215812856 0.9967754338491986 -0.02396637406613639 0.00036957909530482174 0.00485770830776388 -0.0003347510880748989 -0.0030713501981124492
 0.9967754338491986 -0.02396637406613639 0.0029040803759477142 0.009661900487437562 -0.0003347790888432928 -0.0030713528434902163 0.00037896044371800886 0.00485650176983596
 0.00036957909530482174 0.00485770830776388 -0.0003347790888432928 -0.0030713528434902163 0.0029055679494079884 0.009662129836673328 0.9967754413357853 -0.02396595601359584
 -0.0003347510880748989 -0.0030713501981124492 0.00037896044371800886 0.00485650176983596 0.9967754413357853 -0.02396595601359584 0.002904115539591885 0.009662312956668834
0.037515631513130004 0.003183890709680413 0.011666133161464984 0.9964089321204493 -0.02880081701006391 0.00046406919775910874 0.005831428016452138 -0.0004173578006035003 -0.003689902832984348
 0.9964089321204493 -0.02880081701006391 0.0031817200228183703 0.011666378550871251 -0.00041739790610357673 -0.003689905497233179 0.00047757501109148607 0.0058297433913902415
 0.00046406919775910874 0.005831428016452138 -0.00041739790610357673 -0.003689905497233179 0.0031838602963371416 0.01166663758955183 0.9964089425784416 -0.028800315318332874
 -0.0004173578006035003 -0.003689902832984348 0.00047757501109148607 0.0058297433913902415 0.9964089425784416 -0.028800315318332874 0.0031817702979684125 0.011666872281016693
0.043768236765320004 0.0034839165184631397 0.013691214962249997 0.9960126893965547 -0.03365100941792387 0.0005704184585286595 0.006805637706802258 -0.000510205401520158 -0.004309312211882714
 0.9960126893965547 -0.03365100941792387 0.0034809635846659985 0.01369152052857771 -0.0005102597259615778 -0.004309314668370383 0.0005888001039594797 0.006803370550733661
 0.0005704184585286595 0.006805637706802258 -0.0005102597259615778 -0.004309314668370383 0.0034838746929210787 0.013691803073321704 0.9960127033285353 -0.03365042398760392
 -0.000510205401520158 -0.004309312211882714 0.0005888001039594797 0.006803370550733661 0.9960127033285353 -0.03365042398760392 0.003481031654029951 0.01369209496326802
0.050020842017509996 0.0038060913590337135 0.015736321562430374 0.9955863082922635 -0.03851697395872343 0.0006887426029968448 0.007780173583821319 -0.0006134157229974616 -0.004929378055647533
 0.9955863082922635 -0.03851697395872343 0.003802236215132904 0.01573669369275035 -0.000613486361051642 -0.004929380053497711 0.0007127525755339707 0.007777208297657887
 0.0006887426029968448 0.007780173583821319 -0.000613486361051642 -0.004929380053497711 0.0038060362700586465 0.015736993216445234 0.9955863262078184 -0.03851630466011349
 -0.0006134157229974616 -0.004929378055647533 0.0007127525755339707 0.007777208297657887 0.9955863262078184 -0.03851630466011349 0.0038023247545069306 0.015737348204043933
0.055454545454549996 0.0041043853981004635 0.017529408740362833 0.9951909855300216 -0.04275840124096148 0.0008013826375863697 0.008627205047617399 -0.0007116163616809598 -0.005468612289361601
 0.9951909855300216 -0.04275840124096148 0.004099648759894402 0.017529844160230984 -0.0007117028632464207 -0.005468613666128103 0.0008308957613256279 0.00862353042762165
 0.0008013826375863697 0.008627205047617399 -0.0007117028632464207 -0.005468613666128103 0.004104317267491793 0.01753015286069598 0.9951910073281798 -0.04275765893852396
 -0.0007116163616809598 -0.005468612289361601 0.0008308957613256279 0.00862353042762165 0.9951910073281798 -0.04275765893852396 0.004099757255895094 0.01753056768534364
0.056273447269699996 0.004150835632679621 0.017800894528387522 0.9951293914662601 -0.043398641112386005 0.0008191544501340126 0.008754862009817573 -0.0007271070353097118 -0.005549900894629656
 0.9951293914662601 -0.043398641112386005 0.004145958286531381 0.01780133993991366 -0.0007271960628201478 -0.005549902158796149 0.0008495463326640278 0.008751071715220458
 0.0008191544501340126 0.008754862009817573 -0.0007271960628201478 -0.005549902158796149 0.004150765413686233 0.017801649558532782 0.9951294138839606 -0.043397887796604556
 -0.0007271070353097118 -0.005549900894629656 0.0008495463326640278 0.008751071715220458 0.9951294138839606 -0.043397887796604556 0.004146069964509566 0.01780207381655818
0.06252605252188 0.00451856538337834 0.01988442187515643 0.9946415424581123 -0.04829587729332144 0.0009617636944322852 0.009729521354727775 -0.0008513939758871881 -0.006170680290335356
 0.9946415424581123 -0.04829587729332144 0.004512545779068122 0.019884947618753535 -0.0008515034503934759 -0.006170680521665571 0.0009992920815081045 0.00972476777005896
 0.0009617636944322852 0.009729521354727775 -0.0008515034503934759 -0.006170680521665571 0.004518478150550472 0.01988526010076313 0.994641569905666 -0.04829503977975145
 -0.0008513939758871881 -0.006170680290335356 0.0009992920815081045 0.00972476777005896 0.994641569905666 -0.04829503977975145 0.004512683254007314 0.01988576007838566
0.06877865777407 0.004909692465268493 0.021986421297347458 0.9941223663111889 -0.05320850157929992 0.0011166767074591282 0.010703963120977067 -0.0009863874513782553 -0.006791513791585188
 0.9941223663111889 -0.05320850157929992 0.004902410449096095 0.021987034762391593 -0.0009865194124671572 -0.006791512666894883 0.0011620971038420567 0.010698096438145299
 0.0011166767074591282 0.010703963120977067 -0.0009865194124671572 -0.006791512666894883 0.004909586316931755 0.021987342516593122 0.9941223993266233 -0.05320757966318866
 -0.0009863874513782553 -0.006791513791585188 0.0011620971038420567 0.010698096438145299 0.9941223993266233 -0.05320757966318866 0.004902576367750551 0.02198792494351165
0.07503126302626001 0.0053246245842986616 0.024106429541132963 0.9935714700743017 -0.05813629631005686 0.0012839963535679684 0.011677992669108312 -0.0011321945211320921 -0.0074121962996219395
 0.9935714700743017 -0.05813629631005686 0.005315959871410447 0.024107138461754277 -0.0011323509907133261 -0.007412193471765717 0.001338065053196428 0.011670851431919035
 0.0012839963535679684 0.011677992669108312 -0.0011323509907133261 -0.007412193471765717 0.0053244976005735745 0.02410743353094267 0.993571509207273 -0.05813528976308293
 -0.0011321945211320921 -0.0074121962996219395 0.001338065053196428 0.011670851431919035 0.993571509207273 -0.05813528976308293 0.005316156867425474 0.02410810542276545
0.08128386827845 0.00576376526039616 0.026243995337596353 0.9929884632289855 -0.06307901413582483 0.001463821813160063 0.01265140972601526 -0.0012889182698761722 -0.008032519660829239
 0.9929884632289855 -0.06307901413582483 0.005753597401116006 0.02624480780014493 -0.0012891012523566592 -0.00803251475876884 0.0015272957626791225 0.012642820710376533
 0.001463821813160063 0.01265140972601526 -0.0012891012523566592 -0.00803251475876884 0.005763615502090052 0.026245081857835795 0.992988509041848 -0.06307792270238124
 -0.0012889182698761722 -0.008032519660829239 0.0015272957626791225 0.012642820710376533 0.992988509041848 -0.06307792270238124 0.005753828093144856 0.02624585052294088
0.08753647353064001 0.006227513733648999 0.028398674535000737 0.9923729580664371 -0.0680363828793357 0.0016562484117340621 0.013624008750969053 -0.0014566576722185468 -0.008652272412207574
 0.9923729580664371 -0.0680363828793357 0.0062157220805127995 0.02839959898697984 -0.0014568691546946616 -0.0086522650410755 0.0017298850615421512 0.01361378684737816
 0.0016562484117340621 0.013624008750969053 -0.0014568691546946616 -0.0086522650410755 0.00622733924163409 0.028399843326524392 0.9923730111349902 -0.06803520627895665
 -0.0014566576722185468 -0.008652272412207574 0.0017298850615421512 0.01361378684737816 0.9923730111349902 -0.06803520627895665 0.00621598907005009 0.028400716374273677
0.09378907878283 0.006716264835106743 0.030570026629746568 0.9917245700322513 -0.07300810901150184 0.001861367452232511 0.014595579220719879 -0.0016355074526095109 -0.009271239618641163
 0.9917245700322513 -0.07300810901150184 0.006702728509167747 0.030571071890147242 -0.0016357494049084262 -0.009271229359812812 0.0019459245967467249 0.014583527319240012
 0.001861367452232511 0.014595579220719879 -0.0016357494049084262 -0.009271229359812812 0.0067160636296671 0.030571277413804852 0.9917246309474199 -0.07300684694010355
 -0.0016355074526095109 -0.009271239618641163 0.0019459245967467249 0.014583527319240012 0.9917246309474199 -0.07300684694010355 0.006703034379183971 0.030572262764164134
0.100041684035 0.007230408829315852 0.032757612240710894 0.9910429180481723 -0.07799388019677865 0.002079266050703536 0.015565905857070636 -0.0018255579410729232 -0.00988920277873188
 0.9910429180481723 -0.07799388019677865 0.007215006687247124 0.032758787511813915 -0.001825832315868331 -0.009889189189891462 0.0021755016593314126 0.015551814735138402
 0.002079266050703536 0.015565905857070636 -0.001825832315868331 -0.009889189189891462 0.0072301789095387085 0.03275894472063801 0.9910429874171393 -0.07799253232565187
 -0.0018255579410729232 -0.00988920277873188 0.0021755016593314126 0.015551814735138402 0.9910429874171393 -0.07799253232565187 0.0072153540000783264 0.03276005061530457
0.1059090909091 0.007736316478719594 0.03482480144967129 0.9903726706220884 -0.08268497842320936 0.0022954374278075446 0.016475127467250474 -0.0020141635694679253 -0.01046798467748149
 0.9903726706220884 -0.08268497842320936 0.007719053022490291 0.03482610744445177 -0.002014470129980375 -0.010467967540447319 0.002403321401292125 0.016458921581752477
 0.0022954374278075446 0.016475127467250474 -0.002014470129980375 -0.010467967540447319 0.007736057773825728 0.034826210306711576 0.9903727484912112 -0.08268354971783044
 -0.0020141635694679253 -0.01046798467748149 0.002403321401292125 0.016458921581752477 0.9903727484912112 -0.08268354971783044 0.007719441535256982 0.03482743711285346
0.1062942892872 0.007770331239409927 0.0349609912145852 0.9903276248197949 -0.0829933672212391 0.0023100269739463985 0.016534768823492366 -0.0020268949268306183 -0.010505939773035385
 0.9903276248197949 -0.0829933672212391 0.007752941839836663 0.03496230609520682 -0.0020272036596622515 -0.010505922388230443 0.002418699013761515 0.0165184170366732
 0.0023100269739463985 0.016534768823492366 -0.0020272036596622515 -0.010505922388230443 0.007770070582067562 0.03496240507596405 0.9903277032665397 -0.08299193319753174
 -0.0020268949268306183 -0.010505939773035385 0.002418699013761515 0.0165184170366732 0.9903277032665397 -0.08299193319753174 0.007753333135068702 0.03496364009103737
0.11254689453939999 0.0083364126545432 0.0371797211984156 0.9895783171293473 -0.0880062254668929 0.002553728479259939 0.01750194389232704 -0.0022395995100947183 -0.011121224853119739
 0.9895783171293473 -0.0880062254668929 0.008316914224471832 0.03718118569878353 -0.0022399445193385164 -0.011121203182855754 0.002675594730347775 0.017483097668247065
 0.002553728479259939 0.01750194389232704 -0.0022399445193385164 -0.011121203182855754 0.008336119213472902 0.03718121611009051 0.9895784052964375 -0.08800470491350147
 -0.0022395995100947183 -0.011121224853119739 0.002675594730347775 0.017483097668247065 0.9895784052964375 -0.08800470491350147 0.00831735201709002 0.037182589170196866
0.11879949979160001 0.008929028527849438 0.03941335654548924 0.9887946261233721 -0.0930320960670876 0.0028104441558251415 0.01846720260259163 -0.002463747953110688 -0.011734828651719908
 0.9887946261233721 -0.0930320960670876 0.008907298929511902 0.039414981103495055 -0.0024641311400457728 -0.011734802182987395 0.002946262019709724 0.01844561573833296
 0.0028104441558251415 0.01846720260259163 -0.0024641311400457728 -0.011734802182987395 0.008928700233597509 0.03941493215680234 0.9887947246728213 -0.09303048858619518
 -0.002463747953110688 -0.011734828651719908 0.002946262019709724 0.01844561573833296 0.9887947246728213 -0.09303048858619518 0.008907785707822562 0.03941645255096396
0.1250521050438 0.009548548964897114 0.041661447450825936 0.987976187591894 -0.09807060684657837 0.003080242767783122 0.019430312405004816 -0.002699411530892342 -0.012346518217438493
 0.987976187591894 -0.09807060684657837 0.009524465662073371 0.04166324295014699 -0.002699834779704424 -0.012346486413810887 0.003230769069657566 0.019405726168014288
 0.003080242767783122 0.019430312405004816 -0.002699834779704424 -0.012346486413810887 0.009548183723399509 0.041663103398247116 0.9879762972062472 -0.09806891201400844
 -0.002699411530892342 -0.012346518217438493 0.003230769069657566 0.019405726168014288 0.9879762972062472 -0.09806891201400844 0.00952500388566523 0.041664780797214016
0.131304710296 0.010195338504800446 0.043923539295746605 0.9871226422428893 -0.10312137306724345 0.003363188099355069 0.020391036802331307 -0.002946656381831102 -0.012956057066154247
 0.9871226422428893 -0.10312137306724345 0.01016877852923789 0.043925517085387424 -0.0029471215594429716 -0.012956019367840707 0.0035291788843967824 0.02036317983506119
 0.003363188099355069 0.020391036802331307 -0.0029471215594429716 -0.012956019367840707 0.010194934197190064 0.043925275199539635 0.9871227636270273 -0.10311959043680269
 -0.002946656381831102 -0.012956057066154247 0.0035291788843967824 0.02036317983506119 0.9871227636270273 -0.10311959043680269 0.010169370627077814 0.043927119674902794
0.1375573155481 0.01073155026112243 0.04590544276198743 0.9863719202044083 -0.10789005520288333 0.0036255893052413884 0.021320973160837055 -0.0031716101776282685 -0.013535217093128075
 0.9863719202044083 -0.10789005520288333 0.010702382591181064 0.04590757562228984 -0.0031721202555506076 -0.013535173387331826 0.0038074210144362504 0.021289858802939158
 0.0036255893052413884 0.021320973160837055 -0.0031721202555506076 -0.013535173387331826 0.010731105880545872 0.045907257949121615 0.9863720539166427 -0.10788818451282864
 -0.0031716101776282685 -0.013535217093128075 0.0038074210144362504 0.021289858802939158 0.9863720539166427 -0.10788818451282864 0.010703030135735531 0.0459092418671747
0.1438099208003 0.011286922122529618 0.04787504789432915 0.985594226367058 -0.11264475798931164 0.003898490690457925 0.02224610918883384 -0.0034054710379965835 -0.014109842744727862
 0.985594226367058 -0.11264475798931164 0.011255022066673469 0.047877345275213846 -0.0034060280567858978 -0.014109792467099803 0.004096849891777476 0.022211486640271935
 0.003898490690457925 0.02224610918883384 -0.0034060280567858978 -0.014109792467099803 0.011286435715056395 0.04787694191009155 0.9855943731131452 -0.11264279880568363
 -0.0034054710379965835 -0.014109842744727862 0.004096849891777476 0.022211486640271935 0.9855943731131452 -0.11264279880568363 0.011255727288893794 0.047879073504439276
0.1500625260525 0.01186122948235101 0.049832134584218896 0.9847897907535675 -0.1173853067433784 0.004181777942495974 0.023166318074398378 -0.0036481250185601225 -0.014679810915204788
 0.9847897907535675 -0.1173853067433784 0.011826471917765114 0.04983460655483107 -0.0036487310154251574 -0.014679753477989584 0.004397346116361251 0.023127927365827868
 0.004181777942495974 0.023166318074398378 -0.0036487310154251574 -0.014679753477989584 0.011860699082931988 0.04983410695647583 0.9847899512577815 -0.11738325861673671
 -0.0036481250185601225 -0.014679810915204788 0.004397346116361251 0.023127927365827868 0.9847899512577815 -0.11738325861673671 0.011827237008860538 0.04983639503511721
0.15631513130469998 0.012454245785988647 0.05177648928586945 0.9839588449511251 -0.1221115287063165 0.004475335204726752 0.02408147565295753 -0.003899456583887205 -0.015245001492334546
 0.9839588449511251 -0.1221115287063165 0.012416505148447571 0.05177914655507802 -0.0039001135925798036 -0.015244936284407581 0.004708788653732475 0.02403904775680049
