! Created with skrf 1.8.0 (http://scikit-rf.org).
# GHz S RI R 50.0 
!freq ReS11 ImS11 ReS12 ImS12 ReS13 ImS13
! ReS14 ImS14
! ReS21 ImS21 ReS22 ImS22 ReS23 ImS23
! ReS24 ImS24
! ReS31 ImS31 ReS32 ImS32 ReS33 ImS33
! ReS34 ImS34
! ReS41 ImS41 ReS42 ImS42 ReS43 ImS43
! ReS44 ImS44
!
0.0 0.001432855902975 0.0 0.998567144097 0.0 5.506720362468e-05 0.0 -5.506720225347e-05 6.743787297771195e-21
 0.998567144097 0.0 0.001432855902946 0.0 -5.506720225305e-05 6.74378729771976e-21 5.506720362412e-05 0.0
 5.506720362468e-05 0.0 -5.506720225305e-05 6.74378729771976e-21 0.001432855878451 0.0 0.9985671440725 0.0
 -5.506720225347e-05 6.743787297771195e-21 5.506720362412e-05 0.0 0.9985671440725 0.0 0.001432855878445 0.0
0.005 0.0015413320493592928 0.001172754242931412 0.9984299631391373 -0.0030017582801918972 7.691244732658682e-05 0.0006050078172227255 -7.475378264257509e-05 -0.0003801081965761981
 0.9984299631391373 -0.0030017582801918972 0.0015413355363152095 0.0011727521936118544 -7.475190815869523e-05 -0.0003801067264536852 7.689602265183386e-05 0.0006050140446558679
 7.691244732658682e-05 0.0006050078172227255 -7.475190815869523e-05 -0.0003801067264536852 0.0015413328306977372 0.0011726864930313907 0.998429962801419 -0.0030018253405121116
 -7.475378264257509e-05 -0.0003801081965761981 7.689602265183386e-05 0.0006050140446558679 0.998429962801419 -0.0030018253405121116 0.0015413340813309902 0.0011726858233319266
0.006252605252188 0.0015696931740171681 0.0014705670287817356 0.9983938862769737 -0.003752945832510748 8.309780426018465e-05 0.0007565597121116115 -8.026964368562578e-05 -0.00047563142933638704
 0.9983938862769737 -0.003752945832510748 0.0015696986249799333 0.0014705644401143865 -8.026672705893108e-05 -0.00047562961578766374 8.307214182283048e-05 0.0007565677987322028
 8.309780426018465e-05 0.0007565597121116115 -8.026672705893108e-05 -0.00047562961578766374 0.0015696944538787971 0.0014704823521338776 0.9983938858070267 -0.0037530296430614367
 -8.026964368562578e-05 -0.00047563142933638704 8.307214182283048e-05 0.0007565677987322028 0.9983938858070267 -0.0037530296430614367 0.001569696408229792 0.0014704814970073813
0.01250521050438 0.0017184747235166223 0.002972058894495749 0.998203451561179 -0.007506782312241058 0.00011827548362345896 0.0015135205605017025 -0.00011133827443375511 -0.0009536235315879273
 0.998203451561179 -0.007506782312241058 0.0017184964924583242 0.002972053438415329 -0.00011132678270608748 -0.00095362016718531 0.00011817313707766618 0.001513539979081865
 0.00011827548362345896 0.0015135205605017025 -0.00011132678270608748 -0.00095362016718531 0.0017184804003993952 0.002971889724633199 0.9982034502447409 -0.007506949702310003
 -0.00011133827443375511 -0.0009536235315879273 0.00011817313707766618 0.001513539979081865 0.9982034502447409 -0.007506949702310003 0.001718488195573196 0.0029718878438936684
0.01875781575657 0.0018795073898478746 0.004495060848654858 0.9979956160446276 -0.011270664339808865 0.0001606793052473604 0.0022713995231811264 -0.00014836480816027807 -0.0014333023803308372
 0.9979956160446276 -0.011270664339808865 0.0018795563114487176 0.004495052204952357 -0.00014833918423779152 -0.0014332977743381592 0.00016044936794322 0.002271434117904358
 0.0001606793052473604 0.0022713995231811264 -0.00014833918423779152 -0.0014332977743381592 0.0018795205834658377 0.004494807222707936 0.9979956135110527 -0.011270915202031353
 -0.00014836480816027807 -0.0014333023803308372 0.00016044936794322 0.002271434117904358 0.9979956135110527 -0.011270915202031353 0.0018795380827116767 0.004494804163298573
0.02501042100875 0.0020530899450295595 0.006037461586098456 0.9977701474797336 -0.015046434791993251 0.00021038941321704585 0.00303024021502027 -0.00019143833751263345 -0.0019144627652973075
 0.9977701474797336 -0.015046434791993251 0.0020531768356977474 0.006037449397380295 -0.0001913930913727211 -0.0019144572792837923 0.00020998093876021664 0.00303029440775628
 0.00021038941321704585 0.00303024021502027 -0.0001913930913727211 -0.0019144572792837923 0.002053113772542897 0.006037123467226008 0.9977701433547177 -0.015046769072081941
 -0.00019143833751263345 -0.0019144627652973075 0.00020998093876021664 0.00303029440775628 0.9977701433547177 -0.015046769072081941 0.0020531448208164177 0.006037119094616298
0.03126302626094 0.0022395087410352816 0.007598184014138751 0.9975268011258737 -0.018834893721293596 0.000267486514207717 0.0037900171014565148 -0.00024064566960031614 -0.002396963977142005
 0.9975268011258737 -0.018834893721293596 0.0022396444042638605 0.007598167886375138 -0.0002405753667176985 -0.002396958025676257 0.00026684846659612955 0.003790095895608588
 0.000267486514207717 0.0037900171014565148 -0.0002405753667176985 -0.002396958025676257 0.0022395463251591494 0.007597761342957813 0.9975267950380982 -0.018835311366622177
 -0.00024064566960031614 -0.002396963977142005 0.00026684846659612955 0.003790095895608588 0.9975267950380982 -0.018835311366622177 0.0022395947517442343 0.007597755541988769
0.037515631513130004 0.0024390440713502022 0.009176532987411761 0.9972653262806022 -0.022636450562834896 0.0003320511200483443 0.004550677491761108 -0.0002960719509481583 -0.0028806878096976065
 0.9972653262806022 -0.022636450562834896 0.002439239301326861 0.009176512490090627 -0.00029597120633942267 -0.0028806818605720407 0.00033113234940816135 0.0045507864787253
 0.0003320511200483443 0.004550677491761108 -0.00029597120633942267 -0.0028806818605720407 0.0024390985367326898 0.009176025660487037 0.9972653178570072 -0.022636951543799858
 -0.0002960719509481583 -0.0028806878096976065 0.00033113234940816135 0.0045507864787253 0.9972653178570072 -0.022636951543799858 0.0024391681577684353 0.009176018335986363
0.043768236765320004 0.0026519726261138334 0.010771996795933683 0.9969854689052955 -0.026451322579977156 0.00040416319335809145 0.005312154301056421 -0.00035780089703147376 -0.0033655257922779822
 0.9969854689052955 -0.026451322579977156 0.0026522382103500055 0.01077197146203915 -0.0003576643717054347 -0.003365520366565839 0.00040291242283544017 0.005312299667527859
 0.00040416319335809145 0.005312154301056421 -0.0003576643717054347 -0.003365520366565839 0.0026520471023245874 0.010771404686572061 0.9969854577738118 -0.026451906869047307
 -0.00035780089703147376 -0.0033655257922779822 0.00040291242283544017 0.005312299667527859 0.9969854577738118 -0.026451906869047307 0.002652141722721532 0.01077139576414056
0.050020842017509996 0.0028785686395279343 0.012384165143797511 0.9966869729461876 -0.030279616817404462 0.00048390193985341933 0.006074371319854337 -0.0004259148768544048 -0.003851373915338873
 0.9966869729461876 -0.030279616817404462 0.002878915360969086 0.012384134469686874 -0.0004257372754879647 -0.00385136958741041 0.00048226775832920535 0.006074559855513873
 0.00048390193985341933 0.006074371319854337 -0.0004257372754879647 -0.00385136958741041 0.0028786662596517834 0.012383488091849556 0.996686958734054 -0.030280284399049298
 -0.0004259148768544048 -0.003851373915338873 0.00048226775832920535 0.006074559855513873 0.996686958734054 -0.030280284399049298 0.002878789675102158 0.012383477518449232
0.055454545454549996 0.0030867986685091504 0.013798482150357578 0.9964122342945934 -0.03361745107430526 0.0005594519534928397 0.006737298025612915 -0.0004903563975289706 -0.004274331659882553
 0.9964122342945934 -0.03361745107430526 0.0030872246559333514 0.013798446397805185 -0.0004901388321444939 -0.004274328793803486 0.0005574427168569475 0.006737530064901275
 0.0005594519534928397 0.006737298025612915 -0.0004901388321444939 -0.004274328793803486 0.0030869189494643324 0.013797731138360737 0.9964122171027008 -0.03361819102244571
 -0.0004903563975289706 -0.004274331659882553 0.0005574427168569475 0.006737530064901275 0.9964122171027008 -0.03361819102244571 0.0030870704655798593 0.013797719104318719
0.056273447269699996 0.0031191044842169193 0.014012688867456557 0.9963695811051513 -0.03412137031483531 0.0005713456584901277 0.006837245813812269 -0.0005004949395124141 -0.004338130027778754
 0.9963695811051513 -0.03412137031483531 0.0031195431235268617 0.014012652312640414 -0.0005002710089037334 -0.004338127425288223 0.0005692765167033901 0.006837484919222547
 0.0005713456584901277 0.006837245813812269 -0.0005002710089037334 -0.004338127425288223 0.003119228385633385 0.014011926696173667 0.9963695634394839 -0.03412212116828818
 -0.0005004949395124141 -0.004338130027778754 0.0005692765167033901 0.006837484919222547 0.9963695634394839 -0.03412212116828818 0.0031193843846203267 0.01401191444089016
0.06252605252188 0.0033738509956110804 0.01565725781452218 0.9960330353435957 -0.03797657216183144 0.0006665716276222883 0.007600689926457377 -0.0005816208038782901 -0.004825692433679707
 0.9960330353435957 -0.03797657216183144 0.003374392332643417 0.01565721480147273 -0.0005813453318334968 -0.004825692237557044 0.0006640158365739593 0.0076009876210694025
 0.0006665716276222883 0.007600689926457377 -0.0005813453318334968 -0.004825692237557044 0.0033740043202549795 0.01565641031094404 0.9960330138512009 -0.037977406280557804
 -0.0005816208038782901 -0.004825692433679707 0.0006640158365739593 0.0076009876210694025 0.9960330138512009 -0.037977406280557804 0.003374196685816854 0.015656396365436063
0.06877865777407 0.003643077648933907 0.017317587631193607 0.9956770772420422 -0.041845176646465906 0.0007696560062420768 0.00836461153672707 -0.0006693708320127783 -0.005313959036955061
 0.9956770772420422 -0.041845176646465906 0.0036437324647328336 0.017317537544975514 -0.0006690386465566443 -0.005313961981362817 0.0007665617372637521 0.008364976466966234
 0.0007696560062420768 0.00836461153672707 -0.0006690386465566443 -0.005313961981362817 0.0036432635421614463 0.017316654561342425 0.9956770515487288 -0.04184609402259359
 -0.0006693708320127783 -0.005313959036955061 0.0007665617372637521 0.008364976466966234 0.9956770515487288 -0.04184609402259359 0.003643496054178675 0.017316638940463685
0.07503126302626001 0.003927052648097826 0.01899341139882555 0.9953014482753206 -0.045727111557475 0.0008806737450372522 0.009128914792573833 -0.0007638219915448248 -0.005802826812887231
 0.9953014482753206 -0.045727111557475 0.003927831726537218 0.01899335358680146 -0.0007634279604368801 -0.005802833685189017 0.0008769890309683978 0.009129356239983228
 0.0008806737450372522 0.009128914792573833 -0.0007634279604368801 -0.005802833685189017 0.003927274259444085 0.018992392500448856 0.9953014180059838 -0.045728112188759475
 -0.0007638219915448248 -0.005802826812887231 0.0008769890309683978 0.009129356239983228 0.9953014180059838 -0.045728112188759475 0.003927550696215182 0.018992375242814424
0.08128386827845 0.004226042961365163 0.02068447406285833 0.9949058900367584 -0.04962228369731847 0.0009996985050957263 0.009893500471958592 -0.0008650498091745933 -0.006292191455414089
 0.9949058900367584 -0.04962228369731847 0.004226957090688419 0.020684407834323276 -0.0008645888394654274 -0.006292203096139634 0.000995371242452061 0.009894028361353432
 0.0009996985050957263 0.009893500471958592 -0.0008645888394654274 -0.006292203096139634 0.004226303444113415 0.020683369046112534 0.9949058548154256 -0.049623367586204
 -0.0008650498091745933 -0.006292191455414089 0.000995371242452061 0.009894028361353432 0.9949058548154256 -0.049623367586204 0.004226627584767424 0.020683350214452032
0.08753647353064001 0.0045403143202152035 0.022390528579939385 0.9944901444291336 -0.053530582680557035 0.0011268025791246997 0.010658266234158654 -0.0009731283203772334 -0.00678194713740804
 0.9944901444291336 -0.053530582680557035 0.004541374294617961 0.022390453205649506 -0.000972595358200228 -0.006781964440198624 0.0011217805309082004 0.010658891141793117
 0.0011268025791246997 0.010658266234158654 -0.000972595358200228 -0.006781964440198624 0.0045406168315122826 0.022389337130018613 0.9944901038788412 -0.05353174983117639
 -0.0009731283203772334 -0.00678194713740804 0.0011217805309082004 0.010658891141793117 0.9944901038788412 -0.05353174983117639 0.004540992457841482 0.022389316811705706
0.09378907878283 0.004870131193329756 0.024111333166825236 0.9940539538338017 -0.05745188363398529 0.0012620568162204453 0.011423106802572608 -0.0010881300143293815 -0.007271986342817483
 0.9940539538338017 -0.05745188363398529 0.004871347814880954 0.024111247878510548 -0.0010875200447942191 -0.007272010254379308 0.0012562876153982725 0.01142383996432743
 0.0012620568162204453 0.011423106802572608 -0.0010875200447942191 -0.007272010254379308 0.004870478893864105 0.024110054941372337 0.9940539075762267 -0.057453134054435515
 -0.0010881300143293815 -0.007271986342817483 0.0012562876153982725 0.01142383996432743 0.9940539075762267 -0.057453134054435515 0.004870909792433257 0.02411003324876427
0.100041684035 0.005215756743041265 0.025846649279794475 0.9935970612648708 -0.06138604917017078 0.001405530548264567 0.012187914098565565 -0.0012101257762305198 -0.007762199751374283
 0.9935970612648708 -0.06138604917017078 0.005217140822758615 0.025846553269695788 -0.0012094338232976638 -0.0077622312714187135 0.0013989617016572358 0.01218876741811194
 0.001405530548264567 0.012187914098565565 -0.0012094338232976638 -0.0077622312714187135 0.005216152796797622 0.025845283908625057 0.9935970089205588 -0.06138738287255573
 -0.0012101257762305198 -0.007762199751374283 0.0013989617016572358 0.01218876741811194 0.9935970089205588 -0.06138738287255573 0.0052166427612249855 0.02584526097939414
0.1059090909091 0.005554700707071435 0.027488046495106656 0.993149259592028 -0.06508941437588908 0.0015477013331325804 0.012905475730614693 -0.0013310285716175243 -0.008222272434674008
 0.993149259592028 -0.06508941437588908 0.005556251770886623 0.02748793965338156 -0.0013302551949975969 -0.00822231205086116 0.0015403342533935013 0.012906453233764175
 0.0015477013331325804 0.012905475730614693 -0.0013302551949975969 -0.00822231205086116 0.005555145015792087 0.027486598987119342 0.9931492011892349 -0.06509082624206594
 -0.0013310285716175243 -0.008222272434674008 0.0015403342533935013 0.012906453233764175 0.9931492011892349 -0.06509082624206594 0.005555693865539048 0.027486575045487932
0.1062942892872 0.005577452767509747 0.027596240096260362 0.993119210512428 -0.06533293086293904 0.0015572915168467509 0.012952577353029269 -0.0013391848277567793 -0.008252476149158125
 0.993119210512428 -0.06533293086293904 0.005579015127508642 0.027596132516504307 -0.0013384059543334718 -0.008252516330336683 0.0015498704096365535 0.012953563409963795
 0.0015572915168467509 0.012952577353029269 -0.0013384059543334718 -0.008252516330336683 0.005577900341841149 0.027594787183039367 0.9931191517000604 -0.06533434786124755
 -0.0013391848277567793 -0.008252476149158125 0.0015498704096365535 0.012953563409963795 0.9931191517000604 -0.06533434786124755 0.0055784531747021205 0.027594763180507235
0.11254689453939999 0.005955479633735567 0.02935986935412536 0.9926201462785778 -0.06929237036918086 0.001717405801807695 0.013716983189666456 -0.0014753746652759118 -0.008742702371149061
 0.9926201462785778 -0.06929237036918086 0.005957231108665627 0.029359749316090172 -0.0014745039732401732 -0.00874275231898443 0.0017090797022056273 0.013718115247658046
 0.001717405801807695 0.013716983189666456 -0.0014745039732401732 -0.00874275231898443 0.005955981899142791 0.029358328475406828 0.9926200806153908 -0.06929387067994655
 -0.0014753746652759118 -0.008742702371149061 0.0017090797022056273 0.013718115247658046 0.9926200806153908 -0.06929387067994655 0.00595660141443332 0.029358303588713646
0.11879949979160001 0.006350096202439289 0.031137300447850205 0.992099614308615 -0.07326420029829586 0.0018859377494772366 0.014481015695823692 -0.0016187609972179123 -0.009232763260112305
 0.992099614308615 -0.07326420029829586 0.00635204764081246 0.031137167021566946 -0.001617793627520809 -0.009232824132926871 0.0018766538139068929 0.01448230771071376
 0.0018859377494772366 0.014481015695823692 -0.001617793627520809 -0.009232824132926871 0.006350656332096009 0.031135671148828866 0.9920995414100575 -0.07326578394460444
 -0.0016187609972179123 -0.009232763260112305 0.0018766538139068929 0.01448230771071376 0.9920995414100575 -0.07326578394460444 0.006351346357349319 0.031135645593120667
0.1250521050438 0.0067615597461390875 0.03292829570909724 0.9915573615180708 -0.07724824490177681 0.0020629499018112387 0.015244556486741957 -0.0017694076798610325 -0.009722541635950148
 0.9915573615180708 -0.07724824490177681 0.006763722012353377 0.03292814792246412 -0.0017683388127121532 -0.00972261464477692 0.0020526551803558687 0.015246023114605545
 0.0020629499018112387 0.015244556486741957 -0.0017683388127121532 -0.00972261464477692 0.006762180916074933 0.03292657751021427 0.9915572809977415 -0.07724991190623383
 -0.0017694076798610325 -0.009722541635950148 0.0020526551803558687 0.015246023114605545 0.9915572809977415 -0.07724991190623383 0.006762945294632068 0.03292655152681862
0.131304710296 0.007190125862447596 0.03473261583902451 0.9909931361169032 -0.08124432061553849 0.0022485029256371115 0.016007484758016943 -0.001927376652356668 -0.010211918280789354
 0.9909931361169032 -0.08124432061553849 0.007192509838276916 0.03473245267704364 -0.0019262015073960707 -0.010212004689292176 0.0022371443678343836 0.016009141363154306
 0.0022485029256371115 0.016007484758016943 -0.0019262015073960707 -0.010212004689292176 0.0071908112510124505 0.03473080823015598 0.9909930475862019 -0.08124607100578234
 -0.001927376652356668 -0.010211918280789354 0.0022371443678343836 0.016009141363154306 0.9909930475862019 -0.08124607100578234 0.007191653844560101 0.03473078208655808
0.1375573155481 0.007535059516257836 0.036314690450995564 0.9905077114483665 -0.08501681428997532 0.002418475821663148 0.016745871876662564 -0.002068566306095374 -0.010676971517552874
 0.9905077114483665 -0.08501681428997532 0.007537676472471319 0.03631451320493331 -0.0020672777375866733 -0.010677071358756195 0.0024060273597698596 0.016747715523364987
 0.002418475821663148 0.016745871876662564 -0.0020672777375866733 -0.010677071358756195 0.00753581159381536 0.03631279301974937 0.9905076145458296 -0.08501864804735379
 -0.002068566306095374 -0.010676971517552874 0.0024060273597698596 0.016747715523364987 0.9905076145458296 -0.08501864804735379 0.007536738018053209 0.03631276900690145
0.1438099208003 0.007892043069608003 0.03788889529857689 0.990005381126623 -0.08878021414058775 0.0025953196766806325 0.01748155669555241 -0.002215414372207323 -0.011139539941115238
 0.990005381126623 -0.08878021414058775 0.00789490396523031 0.0378887030686523 -0.0022140072304387788 -0.011139654452975736 0.0025817329981003977 0.01748360138662979
 0.0025953196766806325 0.01748155669555241 -0.0022140072304387788 -0.011139654452975736 0.007892864889511454 0.037886907529453916 0.9900052754666602 -0.0887821312845355
 -0.002215414372207323 -0.011139539941115238 0.0025817329981003977 0.01748360138662979 0.9900052754666602 -0.0887821312845355 0.007893879330672786 0.03788688603725865
0.1500625260525 0.008260957252142863 0.03945511251360641 0.9894862680832122 -0.0925344406928113 0.002778977618317443 0.018214473657786962 -0.0023678654502321075 -0.011599560839509615
 0.9894862680832122 -0.0925344406928113 0.008264073064468101 0.03945490435429313 -0.00236633459477903 -0.01159969130967463 0.00276420462695087 0.018216733915347727
 0.002778977618317443 0.018214473657786962 -0.00236633459477903 -0.01159969130967463 0.008261851861707623 0.03945303386968795 0.9894861532789412 -0.09253644124404689
 -0.0023678654502321075 -0.011599560839509615 0.00276420462695087 0.018216733915347727 0.9894861532789412 -0.09253644124404689 0.008262958540923895 0.03945301529359194
0.15631513130469998 0.008641682024501907 0.04101322784488204 0.9889504957886871 -0.09627941447417221 0.002969392150897335 0.018944558247116657 -0.002525863499894164 -0.012056972769149337
