! Created with skrf 1.8.0 (http://scikit-rf.org).
# GHz S RI R 50.0 
!freq ReS11 ImS11 ReS12 ImS12 ReS13 ImS13
! ReS14 ImS14
! ReS21 ImS21 ReS22 ImS22 ReS23 ImS23
! ReS24 ImS24
! ReS31 ImS31 ReS32 ImS32 ReS33 ImS33
! ReS34 ImS34
! ReS41 ImS41 ReS42 ImS42 ReS43 ImS43
! ReS44 ImS44
!
0.0 0.001755539138033 0.0 0.9982444608494 0.0 6.802067771486e-05 0.0 -6.802067756892e-05 8.330130506061205e-21
 0.9982444608494 0.0 0.001755539138021 0.0 -6.802067757001e-05 8.330130506194691e-21 6.802067771274e-05 0.0
 6.802067771486e-05 0.0 -6.802067757001e-05 8.330130506194691e-21 0.001755539137269 0.0 0.9982444608486 0.0
 -6.802067756892e-05 8.330130506061205e-21 6.802067771274e-05 0.0 0.9982444608486 0.0 0.001755539137193 0.0
0.005 0.0018895049869445302 0.0014364727395802391 0.9980748759405198 -0.003676553999824483 9.551217664211373e-05 0.0007441063485327467 -9.27857840809288e-05 -0.00046786228209623443
 0.9980748759405198 -0.003676553999824483 0.0018894979795344537 0.0014364767906606543 -9.278528441709555e-05 -0.00046786183273564723 9.555926448266031e-05 0.0007440884141851446
 9.551217664211373e-05 0.0007441063485327467 -9.278528441709555e-05 -0.00046786183273564723 0.0018895052084749115 0.0014364052836342643 0.9980748755647942 -0.003676621059034062
 -9.27857840809288e-05 -0.00046786228209623443 9.555926448266031e-05 0.0007440884141851446 0.9980748755647942 -0.003676621059034062 0.0018894970157668062 0.0014364101368236788
0.006252605252188 0.0019248488747230083 0.0018012082773547443 0.9980298244040937 -0.004596557924418377 0.00010346222468504197 0.0009304836319229187 -9.986991596536114e-05 -0.0005854189791019899
 0.9980298244040937 -0.004596557924418377 0.0019248379212004276 0.0018012134206110315 -9.986913895771624e-05 -0.0005854184237729428 0.00010353579443473912 0.0009304603281670621
 0.00010346222468504197 0.0009304836319229187 -9.986913895771624e-05 -0.0005854184237729428 0.001924849290537231 0.001801123947014752 0.9980298238856908 -0.004596641756112895
 -9.986991596536114e-05 -0.0005854189791019899 0.00010353579443473912 0.0009304603281670621 0.9980298238856908 -0.004596641756112895 0.0019248364832672859 0.0018011301067326496
0.01250521050438 0.0021121210443909274 0.003639801064640692 0.9977894142538946 -0.009193670416280688 0.00014956102437075676 0.0018612571570568723 -0.0001405577913865311 -0.0011735334971212335
 0.9977894142538946 -0.009193670416280688 0.0021120773123493564 0.003639812148039315 -0.0001405547357357175 -0.001173532456080529 0.00014985439218550477 0.0018612009123931748
 0.00014956102437075676 0.0018612571570568723 -0.0001405547357357175 -0.001173532456080529 0.002112123289370078 0.0036396326450137116 0.997789412756319 -0.009193837830752595
 -0.0001405577913865311 -0.0011735334971212335 0.00014985439218550477 0.0018612009123931748 0.997789412756319 -0.009193837830752595 0.0021120721385867276 0.0036396459164672987
0.01875781575657 0.0023178073477676184 0.005504174213310711 0.9975229011247515 -0.013802473937951608 0.0002064313746627313 0.0027929054275255905 -0.0001902180023448096 -0.001763472401795597
 0.9975229011247515 -0.013802473937951608 0.0023177090895903237 0.005504192086805588 -0.0001902111971551987 -0.0017634709573814637 0.00020709035860738795 0.00279280453348697
 0.0002064313746627313 0.0027929054275255905 -0.0001902111971551987 -0.0017634709573814637 0.0023178128382324442 0.005503921797608767 0.9975228981792285 -0.013802724881432723
 -0.0001902180023448096 -0.001763472401795597 0.00020709035860738795 0.00279280453348697 0.9975228981792285 -0.013802724881432723 0.002317697877623731 0.005503943231013705
0.02501042100875 0.002542343528650509 0.007391666012505481 0.9972299416421323 -0.01842514702528668 0.0002741884146360359 0.003725432152284767 -0.00024897901960648834 -0.0023549372702018137
 0.9972299416421323 -0.01842514702528668 0.0025421690438198756 0.007391691570569363 -0.0002489670146036352 -0.002354935519037313 0.0002753588452530642 0.003725272891240176
 0.0002741884146360359 0.003725432152284767 -0.0002489670146036352 -0.002354935519037313 0.0025423536969520584 0.00739132968284608 0.9972299367809857 -0.018425481502771575
 -0.00024897901960648834 -0.0023549372702018137 0.0002753588452530642 0.003725272891240176 0.9972299367809857 -0.018425481502771575 0.0025421494959805458 0.007391360417730887
0.03126302626094 0.0027861472313328054 0.009300878877816433 0.9969101765932225 -0.023062588580742442 0.0003529470419641444 0.004658755051245253 -0.00031696505609061804 -0.0029477073448439736
 0.9969101765932225 -0.023062588580742442 0.002785874853451774 0.009300913057796267 -0.00031694641816557505 -0.002947705397994833 0.00035477488312374745 0.00465852168551593
 0.0003529470419641444 0.004658755051245253 -0.00031694641816557505 -0.002947705397994833 0.002786163520048945 0.009300458741904665 0.996910169341645 -0.023063006619486702
 -0.00031696505609061804 -0.0029477073448439736 0.00035477488312374745 0.00465852168551593 0.996910169341645 -0.023063006619486702 0.002785844670079108 0.009300500005639102
0.037515631513130004 0.003049626499337956 0.011230880484178881 0.9965632397995323 -0.027715216682508093 0.0004428208329072717 0.005592757312042083 -0.00039429692677261154 -0.003541588115394171
 0.9965632397995323 -0.027715216682508093 0.0030492345864240196 0.011230924265345124 -0.0003942702381004741 -0.0035415860983424316 0.00044545222762941753 0.0055924320655730934
 0.0004428208329072717 0.005592757312042083 -0.0003942702381004741 -0.0035415860983424316 0.0030496503680452675 0.01123037665846874 0.9965632296811501 -0.027715718348760122
 -0.00039429692677261154 -0.003541588115394171 0.00044545222762941753 0.0055924320655730934 0.9965632296811501 -0.027715718348760122 0.003049191473060308 0.011230429765954722
0.043768236765320004 0.003333183046452291 0.013180960656609017 0.9961887617620594 -0.03238321162457379 0.0005439215115721255 0.006527303245194978 -0.0004810923365347534 -0.004136395698660056
 0.9961887617620594 -0.03238321162457379 0.0033326499731915612 0.01318101505964252 -0.0004810561934924497 -0.004136393751252308 0.0005475027957162896 0.006526866283156504
 0.0005439215115721255 0.006527303245194978 -0.0004810561934924497 -0.004136393751252308 0.0033332159692856423 0.013180373277491794 0.996188748293963 -0.0323837970123279
 -0.0004810923365347534 -0.004136395698660056 0.0005475027957162896 0.006526866283156504 0.996188748293963 -0.0323837970123279 0.0033325916381369463 0.013180439631384796
0.050020842017509996 0.0036372137511601235 0.015150530906711847 0.9957863715343602 -0.037066616310955675 0.0006563586157054183 0.0074622447628750425 -0.0005774659618581462 -0.004731950398392326
 0.9957863715343602 -0.037066616310955675 0.003636517902416419 0.015150596993460611 -0.0005774189743122985 -0.004731948674779836 0.0006610363146372167 0.007461674170527566
 0.0006563586157054183 0.0074622447628750425 -0.0005774189743122985 -0.004731948674779836 0.003637257218478153 0.015149860131225655 0.9957863542271386 -0.03706728554100182
 -0.0005774659618581462 -0.004731950398392326 0.0006610363146372167 0.007461674170527566 0.9957863542271386 -0.03706728554100182 0.0036364420584999195 0.015149941222405422
0.055454545454549996 0.003918358324886844 0.01687757334807593 0.9954137257741151 -0.04114911802478781 0.0007633596750273757 0.008274936565484491 -0.0006690830277129051 -0.005249973484346892
 0.9954137257741151 -0.04114911802478781 0.003917503467918597 0.016877650482727352 -0.0006690254970240369 -0.005249972091466295 0.0007691093247751677 0.008274230415581877
 0.0007633596750273757 0.008274936565484491 -0.0006690254970240369 -0.005249972091466295 0.003918412179194269 0.01687683024197363 0.9954137047272333 -0.041149860235376666
 -0.0006690830277129051 -0.005249973484346892 0.0007691093247751677 0.008274230415581877 0.9954137047272333 -0.041149860235376666 0.003917410555642152 0.016876925420103175
0.056273447269699996 0.0039621114061179925 0.01713907511774633 0.9953556978541144 -0.041765385505169006 0.0007802392466387207 0.00839742456905842 -0.0006835294430806043 -0.005328073559471378
 0.9953556978541144 -0.041765385505169006 0.00396123117007205 0.01713915399131649 -0.0006834702337802528 -0.005328072228038393 0.0007861600611088694 0.008396696330551724
 0.0007802392466387207 0.00839742456905842 -0.0006834702337802528 -0.005328072228038393 0.003962166925027282 0.01713832112377591 0.9953556762105952 -0.041766138724789854
 -0.0006835294430806043 -0.005328073559471378 0.0007861600611088694 0.008396696330551724 0.9953556762105952 -0.041766138724789854 0.003961135536204826 0.017138418532038
0.06252605252188 0.004308265095039076 0.019146122448667504 0.9948963699089947 -0.046479412867426025 0.0009156678624044129 0.009332677923237314 -0.000799391329234757 -0.005924585855525744
 0.9948963699089947 -0.046479412867426025 0.004307178857626058 0.01914621525364817 -0.0007993185334898616 -0.005924585098822637 0.0009229786476423079 0.009331765900597071
 0.0009156678624044129 0.009332677923237314 -0.0007993185334898616 -0.005924585098822637 0.004308334190620702 0.01914528543955232 0.9948963434236127 -0.046480250245451264
 -0.000799391329234757 -0.005924585855525744 0.0009229786476423079 0.009331765900597071 0.9948963434236127 -0.046480250245451264 0.004307061160053384 0.01914540083468655
0.06877865777407 0.004676060370416125 0.021171231186603662 0.9944080179074551 -0.051208547050923106 0.001062746095551885 0.010267833704027427 -0.0009251569956386519 -0.006521306284384327
 0.9944080179074551 -0.051208547050923106 0.004674746509029867 0.021171339109651795 -0.0009250692609923398 -0.006521306299060184 0.0010715938350618934 0.010266709616500919
 0.001062746095551885 0.010267833704027427 -0.0009250692609923398 -0.006521306299060184 0.004676144585522567 0.021170311384161793 0.9944079860642381 -0.05120946878444819
 -0.0009251569956386519 -0.006521306284384327 0.0010715938350618934 0.010266709616500919 0.9944079860642381 -0.05120946878444819 0.00467460448193442 0.021170446527117675
0.07503126302626001 0.005065879306700628 0.023213978502522388 0.9938902735304813 -0.055952601903882106 0.00122157258379613 0.011202715101044876 -0.001060928545999251 -0.007118051543459247
 0.9938902735304813 -0.055952601903882106 0.005064316184482285 0.023214102773056734 -0.0010608245320160277 -0.007118052540187795 0.0012321043596110967 0.011201348504877385
 0.00122157258379613 0.011202715101044876 -0.0010608245320160277 -0.007118052540187795 0.005065980204470813 0.023212976152050094 0.9938902358036574 -0.0559536082128731
 -0.001060928545999251 -0.007118051543459247 0.0012321043596110967 0.011201348504877385 0.9938902358036574 -0.0559536082128731 0.005064147572990335 0.023213132896493745
0.08128386827845 0.00547810048287292 0.02527395366190655 0.9933427703178975 -0.06071136322580898 0.001392242810496082 0.01213714008387949 -0.0012068047032496203 -0.0077146356365181195
 0.9933427703178975 -0.06071136322580898 0.005476266442647392 0.025274095553281764 -0.001206683081243936 -0.007714637839943501 0.0014046057700564075 0.012135498352761042
 0.001392242810496082 0.01213714008387949 -0.001206683081243936 -0.007714637839943501 0.0054782196457863475 0.025272869031076818 0.993342726169349 -0.06071245435388442
 -0.0012068047032496203 -0.0077146356365181195 0.0014046057700564075 0.012135498352761042 0.993342726169349 -0.06071245435388442 0.005476069003266558 0.025273049325045007
0.08753647353064001 0.005913098909587983 0.027350753319450645 0.9927651440035774 -0.06548459344997144 0.001574848950400568 0.013070921745926709 -0.001362880693311165 -0.008310869614604149
 0.9927651440035774 -0.06548459344997144 0.0059109722683410556 0.027350914150096533 -0.0013627401463170514 -0.008310873263263406 0.0015891902710224992 0.013068970051945406
 0.001574848950400568 0.013070921745926709 -0.0013627401463170514 -0.008310873263263406 0.005913237941705182 0.027349586695878867 0.9927650928827036 -0.06548576966624181
 -0.001362880693311165 -0.008310869614604149 0.0015891902710224992 0.013068970051945406 0.9927650928827036 -0.06548576966624181 0.0059107437710024515 0.027349792583797206
0.09378907878283 0.00637124592469699 0.029443978179974684 0.9921570328235408 -0.07027203496969238 0.0017694797194857251 0.014003868565616117 -0.0015292481239171899 -0.008906561408480805
 0.9921570328235408 -0.07027203496969238 0.0063688049677984 0.029444159315073184 -0.0015290873464762996 -0.008906566754755329 0.0017859465707797924 0.014001569860964116
 0.0017694797194857251 0.014003868565616117 -0.0015290873464762996 -0.008906566754755329 0.006371406451418455 0.029442729872562405 0.9921569741658207 -0.07027329656706154
 -0.0015292481239171899 -0.008906561408480805 0.0017859465707797924 0.014001569860964116 0.9921569741658207 -0.07027329656706154 0.006368543197082128 0.029442963497431
0.100041684035 0.006852909061687379 0.03155323054761962 0.9915180778007979 -0.07507341258759022 0.001976220227965378 0.01493578461219125 -0.001705994859605442 -0.009501515726025221
 0.9915180778007979 -0.07507341258759022 0.006850132036841617 0.03155343340085203 -0.001705812557703303 -0.009501523036060864 0.0019949597321034882 0.014933099611631714
 0.001976220227965378 0.01493578461219125 -0.001705812557703303 -0.009501523036060864 0.006853092731268356 0.03155190088730119 0.9915180110269747 -0.0750747598812279
 -0.001705994859605442 -0.009501515726025221 0.0019949597321034882 0.014933099611631714 0.9915180110269747 -0.0750747598812279 0.006849834794016075 0.03155216449324541
0.1059090909091 0.007326610411635345 0.033546762567207906 0.9908901170571824 -0.07959141198087516 0.002181310466353056 0.015809173252802837 -0.001881367661771935 -0.010058969676070097
 0.9908901170571824 -0.07959141198087516 0.007323498200967427 0.033546987131397484 -0.001881163994728817 -0.010058979083153126 0.0022023163418338665 0.015806088017180673
 0.002181310466353056 0.015809173252802837 -0.001881163994728817 -0.010058979083153126 0.007326817318455312 0.03354535688557777 0.9908900421263909 -0.07959283999823002
 -0.001881367661771935 -0.010058969676070097 0.0022023163418338665 0.015806088017180673 0.9908900421263909 -0.07959283999823002 0.00732316568762077 0.03354565075907161
0.1062942892872 0.007358451900676953 0.033678112502666696 0.990847923017634 -0.07988843534805286 0.002195151835028304 0.015866469720317952 -0.00189320489433085 -0.010095533990158565
 0.990847923017634 -0.07988843534805286 0.0073553170126359315 0.0336783385383425 -0.001892999785376905 -0.010095543543804543 0.0022163110256824435 0.015863356884407695
 0.002195151835028304 0.015866469720317952 -0.001892999785376905 -0.010095543543804543 0.007358660385006231 0.033676701841540306 0.990847847532579 -0.07988986867573836
 -0.00189320489433085 -0.010095533990158565 0.0022163110256824435 0.015863356884407695 0.990847847532579 -0.07988986867573836 0.007354982116864262 0.03367699777655418
0.11254689453939999 0.007888233904655819 0.035818224513969134 0.9901462158751312 -0.08471679794569932 0.0024263520056128965 0.016795719639523213 -0.0020909582225215545 -0.010688414311709015
 0.9901462158751312 -0.08471679794569932 0.007884719309001479 0.035818475249442684 -0.0020907290351350936 -0.01068842640248746 0.0024500777852287823 0.016792135158647876
 0.0024263520056128965 0.016795719639523213 -0.0020907290351350936 -0.01068842640248746 0.007888468899703098 0.035816733220357194 0.9901461310666638 -0.08471831767203478
 -0.0020909582225215545 -0.010688414311709015 0.0024500777852287823 0.016792135158647876 0.9901461310666638 -0.08471831767203478 0.007884344599706525 0.03581706393923712
0.11879949979160001 0.008442610245031165 0.03797316436228703 0.9894126073465137 -0.08955818183480166 0.0026698941689298184 0.017723326169946162 -0.0022993307082786046 -0.011279951485812156
 0.9894126073465137 -0.08955818183480166 0.008438694042764308 0.037973441370606834 -0.0022990761823739408 -0.011279966420824017 0.0026963332646193403 0.017719223949287273
 0.0026698941689298184 0.017723326169946162 -0.0022990761823739408 -0.011279966420824017 0.008442873472186169 0.03797159282815423 0.9894125125843297 -0.08955978834298048
 -0.0022993307082786046 -0.011279951485812156 0.0026963332646193403 0.017719223949287273 0.9894125125843297 -0.08955978834298048 0.008438277380742789 0.03797196089595745
0.1250521050438 0.009021931618747052 0.040142526312711355 0.988646752223679 -0.09441225610145075 0.002925847578071404 0.0186490772861669 -0.002518393954692455 -0.011869937010134913
 0.988646752223679 -0.09441225610145075 0.009017591850346349 0.04014283122562604 -0.0025181128413684457 -0.011869955110007732 0.0029551464961499593 0.01864440893153734
 0.002925847578071404 0.0186490772861669 -0.0025181128413684457 -0.011869955110007732 0.009022224825113525 0.04014087494724001 0.9886466468582553 -0.09441394979890662
 -0.002518393954692455 -0.011869937010134913 0.0029551464961499593 0.01864440893153734 0.9886466468582553 -0.09441394979890662 0.009017131119676598 0.04014128304275747
0.131304710296 0.009626544058129679 0.042325900454954046 0.9878483093601902 -0.09927867818050135 0.003194277171057439 0.019572757258570543 -0.0027482151723535286 -0.012458159115680382
 0.9878483093601902 -0.09927867818050135 0.009621758698002763 0.042326234966173805 -0.0027479062338647228 -0.01245818071452895 0.003226582150660249 0.019567472063169965
 0.003194277171057439 0.019572757258570543 -0.0027479062338647228 -0.01245818071452895 0.009626869017701373 0.04232416968439426 0.9878481927217915 -0.09928045949805016
 -0.0027482151723535286 -0.012458159115680382 0.003226582150660249 0.019567472063169965 0.9878481927217915 -0.09928045949805016 0.009621251807991064 0.042324620604028536
0.1375573155481 0.010125406713829627 0.044239228010942995 0.9871483912181654 -0.10387327375497077 0.0034431975044169616 0.020466763613759032 -0.0029567802980711424 -0.013017071675282758
 0.9871483912181654 -0.10387327375497077 0.010120151477454578 0.0442395865538702 -0.0029564415026444397 -0.013017096827215843 0.0034785806674929227 0.020460865482325976
 0.0034431975044169616 0.020466763613759032 -0.0029564415026444397 -0.013017096827215843 0.01012576411003315 0.044237418563522625 0.9871482627743793 -0.10387514294682734
 -0.0029567802980711424 -0.013017071675282758 0.0034785806674929227 0.020460865482325976 0.9871482627743793 -0.10387514294682734 0.01011959718708318 0.04423790697983442
0.1438099208003 0.010642039758658977 0.04614114286695855 0.9864234291813018 -0.10845485946700435 0.0037021184257669346 0.02135633776698818 -0.0031736273204560636 -0.01357187969137058
 0.9864234291813018 -0.10845485946700435 0.010636292182583853 0.046141526772218826 -0.0031732573039883003 -0.013571908734237215 0.003740712275439414 0.02134978001558909
 0.0037021184257669346 0.02135633776698818 -0.0031732573039883003 -0.013571908734237215 0.010642431207497817 0.046139255244564824 0.9864232882616711 -0.10845681695323975
 -0.0031736273204560636 -0.01357187969137058 0.003740712275439414 0.02134978001558909 0.9864232882616711 -0.10845681695323975 0.01063568858961728 0.04613978352690881
0.1500625260525 0.011176240643691437 0.048031446084029365 0.9856736307753966 -0.11302328059472837 0.00397093688322004 0.02224136308820074 -0.0033986551823782037 -0.014122472665331948
 0.9856736307753966 -0.11302328059472837 0.011169978189172714 0.04803185678094895 -0.003398252582069301 -0.014122505951022959 0.004012872814394749 0.022234097367245412
 0.00397093688322004 0.02224136308820074 -0.003398252582069301 -0.014122505951022959 0.011176667774442836 0.04802948080948602 0.985673476692178 -0.1130253268090486
 -0.0033986551823782037 -0.014122472665331948 0.004012872814394749 0.022234097367245412 0.985673476692178 -0.1130253268090486 0.011169323425545268 0.04803005146483885
0.15631513130469998 0.011727805132325346 0.049909944649973635 0.9848992048575994 -0.11757838388160553 0.0042495484655257175 0.023121725248958613 -0.003631761449472458 -0.014668742691704519
 0.9848992048575994 -0.11757838388160553 0.011721005183687322 0.049910383670613276 -0.0036313249038335002 -0.014668780586188911 0.0042949567430083215 0.023113701567612947
