! Created with skrf 1.8.0 (http://scikit-rf.org).
# GHz S RI R 50.0 
!freq ReS11 ImS11 ReS12 ImS12 ReS13 ImS13
! ReS14 ImS14
! ReS21 ImS21 ReS22 ImS22 ReS23 ImS23
! ReS24 ImS24
! ReS31 ImS31 ReS32 ImS32 ReS33 ImS33
! ReS34 ImS34
! ReS41 ImS41 ReS42 ImS42 ReS43 ImS43
! ReS44 ImS44
!
0.0 0.001611184672529 0.0 0.9983888153218 0.0 6.280611964628e-05 0.0 -6.280611937939e-05 7.69153130648365e-21
 0.9983888153218 0.0 0.001611184672504 0.0 -6.280611937933e-05 7.691531306476303e-21 6.280611964537e-05 0.0
 6.280611964628e-05 0.0 -6.280611937933e-05 7.691531306476303e-21 0.001611184669675 0.0 0.998388815319 0.0
 -6.280611937939e-05 7.69153130648365e-21 6.280611964537e-05 0.0 0.998388815319 0.0 0.001611184669649 0.0
0.005 0.001733835914516781 0.001307736325490217 0.9982335796868902 -0.003375324152310002 8.966120183367565e-05 0.0007533594933847451 -8.671145157040094e-05 -0.00046211111705621256
 0.9982335796868902 -0.003375324152310002 0.0017338298688449499 0.001307739862461961 -8.670713083404848e-05 -0.00046210779594652046 8.970192453438377e-05 0.0007533437968535638
 8.966120183367565e-05 0.0007533594933847451 -8.670713083404848e-05 -0.00046210779594652046 0.0017338377705599546 0.001307667942470556 0.9982335793278477 -0.003375391209252385
 -8.671145157040094e-05 -0.00046211111705621256 8.970192453438377e-05 0.0007533437968535638 0.9982335793278477 -0.003375391209252385 0.0017338272946088504 0.001307674128716081
0.006252605252188 0.0017660703467663953 0.0016398528036508852 0.9981925107677166 -0.0042199748444552345 9.737073875655215e-05 0.0009420315960796657 -9.35037656535998e-05 -0.0005782461876447212
 0.9981925107677166 -0.0042199748444552345 0.001766060897097417 0.001639857366118525 -9.349704227613832e-05 -0.0005782420930313868 9.743436179855477e-05 0.000942011239496082
 9.737073875655215e-05 0.0009420315960796657 -9.349704227613832e-05 -0.0005782420930313868 0.0017660733148263353 0.0016397673186318406 0.9981925102727416 -0.0042200586671834435
 -9.35037656535998e-05 -0.0005782461876447212 9.743436179855477e-05 0.000942011239496082 0.9981925102727416 -0.0042200586671834435 0.0017660569388711152 0.0016397751999363576
0.01250521050438 0.0019361476266377643 0.003314333563824171 0.997974323712803 -0.008440735216377969 0.00014177938327824012 0.0018842098959352 -0.00013227298631898515 -0.0011593073820444677
 0.997974323712803 -0.008440735216377969 0.001936109900765349 0.003314344103309381 -0.00013224649031451374 -0.001159299817126641 0.00014203302649486597 0.0018841611998203153
 0.00014177938327824012 0.0018842098959352 -0.00013224649031451374 -0.001159299817126641 0.0019361600478556386 0.003314162789265511 0.9979743223018274 -0.00844090259446711
 -0.00013227298631898515 -0.0011593073820444677 0.00014203302649486597 0.0018841611998203153 0.9979743223018274 -0.00844090259446711 0.0019360946552348696 0.0033141800750570802
0.01875781575657 0.002121802338626755 0.005012802136794152 0.9977339728570841 -0.012672547977274986 0.00019613683667699076 0.002827224786050638 -0.00017923786763931934 -0.0017422517766500093
 0.9977339728570841 -0.012672547977274986 0.002121717580938046 0.0050128201184955635 -0.00017917878119770833 -0.001742241490360093 0.00019670645294162962 0.0028271381165872363
 0.00019613683667699076 0.002827224786050638 -0.00017917878119770833 -0.001742241490360093 0.0021218306819985318 0.0050125460336015535 0.9977339701106578 -0.012672798803806182
 -0.00017923786763931934 -0.0017422517766500093 0.00019670645294162962 0.0028271381165872363 0.9977339701106578 -0.012672798803806182 0.002121683736431471 0.005012574411760998
0.02501042100875 0.0023234080375640325 0.00673284058225683 0.9974711654778478 -0.01691744551191823 0.00026054922627661295 0.003771121053872737 -0.00023451783470447818 -0.002326785512932078
 0.9974711654778478 -0.01691744551191823 0.002323257542725772 0.006732867519870097 -0.00023441349365218813 -0.0023267733916954793 0.0002615607151110351 0.0037709851911463038
 0.00026054922627661295 0.003771121053872737 -0.00023441349365218813 -0.0023267733916954793 0.002323458764272321 0.006732499023793831 0.9974711609775712 -0.016917779696851896
 -0.00023451783470447818 -0.002326785512932078 0.0002615607151110351 0.0037709851911463038 0.9974711609775712 -0.016917779696851896 0.0023231977946557595 0.006732540338201592
0.03126302626094 0.0025413227614432712 0.008473194138289768 0.9971855944863985 -0.02117628472798443 0.00033512303763952214 0.0047158489296369585 -0.0002982285427718745 -0.0029127022122160877
 0.9971855944863985 -0.02117628472798443 0.002541087865729865 0.008473231593184244 -0.00029806641067245024 -0.0029126892815167457 0.0003367023646785601 0.004715651061283644
 0.00033512303763952214 0.0047158489296369585 -0.00029806641067245024 -0.0029126892815167457 0.0025414023308937177 0.008472766907575072 0.9971855878180301 -0.021176702200892617
 -0.0002982285427718745 -0.0029127022122160877 0.0003367023646785601 0.004715651061283644 0.9971855878180301 -0.021176702200892617 0.0025409949156999377 0.008472823157751856
0.037515631513130004 0.002775896574509438 0.010233036758700803 0.9968769462489978 -0.025449481459539177 0.00041996402408874374 0.00566132129916953 -0.0003704827939163553 -0.0034998257827227597
 0.9968769462489978 -0.025449481459539177 0.00277555864881182 0.010233086339451922 -0.0003702504488444312 -0.0034998132075508806 0.0004222372729950308 0.005661047006609358
 0.00041996402408874374 0.00566132129916953 -0.0003702504488444312 -0.0034998132075508806 0.0027760114412809477 0.01023252357427941 0.9968769369981617 -0.025449982143279055
 -0.0003704827939163553 -0.0034998257827227597 0.0004222372729950308 0.005661047006609358 0.9968769369981617 -0.025449982143279055 0.002775425198838574 0.01023259691612332
0.043768236765320004 0.0030274744715184402 0.01201174762874175 0.9965449037698891 -0.029737233882994523 0.0005151766917019762 0.006607431104846913 -0.00045139086061432213 -0.004087993033840389
 0.9965449037698891 -0.029737233882994523 0.0030270149164506673 0.01201181099054115 -0.00045107598742577586 -0.0040879821188427425 0.0005182700876524092 0.006607064347252904
 0.0005151766917019762 0.006607431104846913 -0.00045107598742577586 -0.0040879821188427425 0.0030276310887224623 0.012011148133730758 0.996544891525307 -0.029737817703999716
 -0.00045139086061432213 -0.004087993033840389 0.0005182700876524092 0.006607064347252904 0.996544891525307 -0.029737817703999716 0.0030268336703163576 0.012011240880507647
0.050020842017509996 0.003296397720943825 0.013808818790971318 0.9961891483165648 -0.03403961482151452 0.0006208639849381546 0.0075540585437028265 -0.0005410606014030526 -0.004677046494908675
 0.9961891483165648 -0.03403961482151452 0.00329579796209697 0.01380889763518881 -0.0005406509868263148 -0.004677038684414471 0.0006249039026841716 0.007553581641076506
 0.0006208639849381546 0.0075540585437028265 -0.0005406509868263148 -0.004677038684414471 0.003296602539393796 0.013808132559268037 0.996189132668779 -0.034040281702975544
 -0.0005410606014030526 -0.004677046494908675 0.0006249039026841716 0.007553581641076506 0.996189132668779 -0.034040281702975544 0.0032955616234237478 0.013808247182840476
0.055454545454549996 0.0035444494732624885 0.01538509563240389 0.9958604800786871 -0.03779039023178685 0.0007212947355647756 0.00837702684544558 -0.0006261838436839747 -0.0051895509107519186
 0.9958604800786871 -0.03779039023178685 0.0035437128042138627 0.015385189348714051 -0.0006256820539746164 -0.005189547079604349 0.0007262599565234362 0.008376438579062336
 0.0007212947355647756 0.00837702684544558 -0.0006256820539746164 -0.005189547079604349 0.0035447014170974104 0.015384333624918374 0.9958604611421863 -0.03779112922896152
 -0.0006261838436839747 -0.0051895509107519186 0.0007262599565234362 0.008376438579062336 0.9958604611421863 -0.03779112922896152 0.003543422662350826 0.015384469391859125
0.056273447269699996 0.003583004546932298 0.01562380981312066 0.9958093603870384 -0.038356617009863724 0.0007371270634214026 0.008501074599266873 -0.0006395974807102228 -0.0052668309040641145
 0.9958093603870384 -0.038356617009863724 0.0035822460301811157 0.015623905887074636 -0.0006390810101104608 -0.005266827782060701 0.0007422400260534303 0.008500468215162284
 0.0007371270634214026 0.008501074599266873 -0.0006390810101104608 -0.005266827782060701 0.0035832640149907236 0.015623036350615366 0.9958093409281141 -0.03835736686970191
 -0.0006395974807102228 -0.0052668309040641145 0.0007422400260534303 0.008500468215162284 0.9958093409281141 -0.03835736686970191 0.0035819473017645767 0.015623175482957403
0.06252605252188 0.003887630484581478 0.017456322872115328 0.9954052203553594 -0.042688177947165916 0.0008640651212446784 0.009448342990101635 -0.0007471045426585969 -0.005857191285245266
 0.9954052203553594 -0.042688177947165916 0.0038866946719775812 0.01745643796879884 -0.0007464691979233558 -0.005857194575326357 0.0008703777929865674 0.009447586114239067
 0.0008640651212446784 0.009448342990101635 -0.0007464691979233558 -0.005857194575326357 0.00388795104887272 0.01745546160669385 0.9954051966803553 -0.04268901070739087
 -0.0007471045426585969 -0.005857191285245266 0.0008703777929865674 0.009447586114239067 0.9954051966803553 -0.04268901070739087 0.0038863262559645975 0.017455628041432702
0.06877865777407 0.004210608560730362 0.01930598789096329 0.9949764089463461 -0.047034194701899824 0.0010017752308309192 0.010395721337972681 -0.0008636823577952774 -0.006447971810997761
 0.9949764089463461 -0.047034194701899824 0.004209476926090412 0.01930612384907613 -0.0008629162158610361 -0.006447983376291369 0.0010094144054609703 0.01039479126893257
 0.0010017752308309192 0.010395721337972681 -0.0008629162158610361 -0.006447983376291369 0.0042109966643621285 0.019305038186117444 0.9949763806517093 -0.04703511027423405
 -0.0008636823577952774 -0.006447971810997761 0.0010094144054609703 0.01039479126893257 0.9949763806517093 -0.04703511027423405 0.004209031522644287 0.019305234880383382
0.07503126302626001 0.004552269365189009 0.0211724531302016 0.9945226076057164 -0.051394533268440866 0.001150352201796303 0.011343061911273575 -0.0009894289524745275 -0.007039015095943677
 0.9945226076057164 -0.051394533268440866 0.004550923390198025 0.021172611834141836 -0.0009885201845447737 -0.0070390369390028774 0.0011594447876186412 0.011341934239288505
 0.001150352201796303 0.011343061911273575 -0.0009885201845447737 -0.0070390369390028774 0.004552731448979023 0.021171414277647578 0.9945225742908208 -0.05139553156085507
 -0.0009894289524745275 -0.007039015095943677 0.0011594447876186412 0.011341934239288505 0.9945225742908208 -0.05139553156085507 0.0045503936981455455 0.021171644354009766
0.08128386827845 0.004912941059575682 0.023055378929909026 0.9940434988108805 -0.05576903477909824 0.0013098884478131808 0.012290212138955134 -0.0011244397281993473 -0.007630161725851519
 0.9940434988108805 -0.05576903477909824 0.004911362229330993 0.023055562310076154 -0.0011233765992089968 -0.007630195988551314 0.00132056145042261 0.012288860728973523
 0.0013098884478131808 0.012290212138955134 -0.0011233765992089968 -0.007630195988551314 0.004913483561048017 0.023054250146685152 0.9940434600777627 -0.05577011569811882
 -0.0011244397281993473 -0.007630161725851519 0.00132056145042261 0.012288860728973523 0.9940434600777627 -0.05577011569811882 0.00491074094589902 0.02305451689519605
0.08753647353064001 0.0052929493395678495 0.024954433373797814 0.9935387663396928 -0.06015751980116153 0.0014804738602517333 0.013237014960787122 -0.0012688073727399518 -0.008221249956852224
 0.9935387663396928 -0.06015751980116153 0.005291119138428695 0.024954643406918553 -0.001267578241179901 -0.008221298920260392 0.001492854362902352 0.013235411935772873
 0.0014804738602517333 0.013237014960787122 -0.001267578241179901 -0.008221298920260392 0.005293578692159275 0.024953213806602998 0.9935387217928943 -0.06015868324671273
 -0.0012688073727399518 -0.008221249956852224 0.001492854362902352 0.013235411935772873 0.9935387217928943 -0.06015868324671273 0.005290398958753133 0.024953520687097695
0.09378907878283 0.005692617367671316 0.026869289213200448 0.9930080955137758 -0.06455979138112139 0.0016621956847276298 0.01418330909905759 -0.001422621766600453 -0.008812115499842108
 0.9930080955137758 -0.06455979138112139 0.005690517275385881 0.026869527922853256 -0.001421215084625542 -0.008812181584053416 0.0016764108272757342 0.014181424823558024
 0.0016621956847276298 0.01418330909905759 -0.001421215084625542 -0.008812181584053416 0.005693340000628915 0.026867977934446906 0.9930080447605584 -0.06456103724974224
 -0.001422621766600453 -0.008812115499842108 0.0016764108272757342 0.014181424823558024 0.9930080447605584 -0.06456103724974224 0.005689690892556907 0.026868328578998187
0.100041684035 0.00611226568401287 0.02879962160019731 0.9924511734223359 -0.068975637287213 0.0018551384011939842 0.015128929261151818 -0.0015859698851476399 -0.009402591380777819
 0.9924511734223359 -0.068975637287213 0.0061098771709609135 0.028799891057538447 -0.0015843741987769957 -0.009402677144752226 0.0018713153572543575 0.015126732325307217
 0.0018551384011939842 0.015128929261151818 -0.0015843741987769957 -0.009402677144752226 0.0061130880215304745 0.028798217609631166 0.9924511160730155 -0.06897696546973547
 -0.0015859698851476399 -0.009402591380777819 0.0018713153572543575 0.015126732325307217 0.9924511160730155 -0.06897696546973547 0.006108937276086561 0.028798615825129076
0.1059090909091 0.0065245161135137454 0.030624820818315624 0.9919044088707881 -0.07313158500881471 0.002046472676942866 0.01601552989514623 -0.0017480004269488764 -0.009956184794105203
 0.9919044088707881 -0.07313158500881471 0.0065218400839000415 0.03062512105594851 -0.0017462170467139235 -0.009956291476328281 0.0020646062590091094 0.01601300939938355
 0.002046472676942866 0.01601552989514623 -0.0017462170467139235 -0.009956291476328281 0.006525437851191669 0.030623328850385042 0.9919043449799088 -0.0731329903319027
 -0.0017480004269488764 -0.009956184794105203 0.0020646062590091094 0.01601300939938355 0.9919043449799088 -0.0731329903319027 0.006520787021232537 0.030623775326663633
0.1062942892872 0.006552212100250507 0.030745106400182798 0.9918676891341756 -0.07340483168021354 0.0020593836050997257 0.01607370630601243 -0.001758935698355125 -0.00999250784412037
 0.9918676891341756 -0.07340483168021354 0.00654951662351052 0.030745408724832682 -0.001757139647898764 -0.009992615985490866 0.002077649558162332 0.016071163509861108
 0.0020593836050997257 0.01607370630601243 -0.001757139647898764 -0.009992615985490866 0.006553140561373905 0.03074360862194847 0.9918676248021759 -0.07340624206397015
 -0.001758935698355125 -0.00999250784412037 0.002077649558162332 0.016071163509861108 0.9918676248021759 -0.07340624206397015 0.006548455906181801 0.03074405839289058
0.11254689453939999 0.007012771582272916 0.032705418898419755 0.9912573338998673 -0.07784713639836682 0.0022750098907607153 0.01701746738202636 -0.0019416000678541912 -0.010581692291958837
 0.9912573338998673 -0.07784713639836682 0.00700975058145541 0.03270575625940733 -0.001939592388458809 -0.010581825646812773 0.0022954920090421916 0.01701454372021009
 0.0022750098907607153 0.01701746738202636 -0.001939592388458809 -0.010581825646812773 0.007013812579597863 0.032703826181532995 0.9912572622016926 -0.07784862886601669
 -0.0019416000678541912 -0.010581692291958837 0.0022954920090421916 0.01701454372021009 0.9912572622016926 -0.07784862886601669 0.007008561729049324 0.03270433167294849
0.11879949979160001 0.007494256122129373 0.03468023279854471 0.990619801347278 -0.08230230195834995 0.002502092735454332 0.017960036044704555 -0.0021340406428299297 -0.01116996925063626
 0.990619801347278 -0.08230230195834995 0.007490891014483362 0.03468060741567677 -0.0021318101651038673 -0.011170130793267834 0.0025249181455249954 0.01795669469164179
 0.002502092735454332 0.017960036044704555 -0.0021318101651038673 -0.011170130793267834 0.007495416061791557 0.03467854391788452 0.9906197219031567 -0.0823038763862202
 -0.0021340406428299297 -0.01116996925063626 0.0025249181455249954 0.01795669469164179 0.9906197219031567 -0.0823038763862202 0.007489566713176828 0.0346791094785398
0.1250521050438 0.00799697460313214 0.036669219445399616 0.9899547876730719 -0.08677006834057924 0.0027407043844460926 0.018901232365318377 -0.0023363317545038982 -0.011757160353683464
 0.9899547876730719 -0.08677006834057924 0.00799324677993556 0.036669633590539756 -0.0023338674053237454 -0.011757353196347043 0.0027660001442258836 0.018897434660841338
 0.0027407043844460926 0.018901232365318377 -0.0023338674053237454 -0.011757353196347043 0.007998259883900502 0.03666743309711783 0.9899547001067586 -0.0867717246025005
 -0.0023363317545038982 -0.011757160353683464 0.0027660001442258836 0.018897434660841338 0.9899547001067586 -0.0867717246025005 0.007991779714177048 0.036668063262813966
0.131304710296 0.008521232658551686 0.038672047197073685 0.9892619918297588 -0.09125016563368228 0.002990913737005719 0.019840873027508806 -0.002548544310028947 -0.012343084344495511
 0.9892619918297588 -0.09125016563368228 0.00851712348007828 0.038672503195849625 -0.002545835113202147 -0.012343311737115384 0.0030188068075824893 0.019836578462927506
 0.002990913737005719 0.019840873027508806 -0.002545835113202147 -0.012343311737115384 0.008522649670756473 0.038670162000769046 0.9892618957685604 -0.09125190359822556
 -0.002548544310028947 -0.012343084344495511 0.0030188068075824893 0.019836578462927506 0.9892618957685604 -0.09125190359822556 0.008515506333389069 0.03867086149781383
0.1375573155481 0.008949908459231966 0.0404249199433798 0.9886585921783846 -0.09547871029261162 0.003222037697763211 0.020752007111053784 -0.0027399777827275956 -0.012900842044899146
 0.9886585921783846 -0.09547871029261162 0.00894539644672591 0.04042540577444103 -0.002737007436016352 -0.012901104344147415 0.00325259825013445 0.020747220665189282
 0.003222037697763211 0.020752007111053784 -0.002737007436016352 -0.012901104344147415 0.008951463007854092 0.040422934439053974 0.988658487245266 -0.09548052981710822
 -0.0027399777827275956 -0.012900842044899146 0.00325259825013445 0.020747220665189282 0.988658487245266 -0.09548052981710822 0.008943622489361506 0.040423693747716045
0.1438099208003 0.009393724801827041 0.04216796718728135 0.988033828832419 -0.09969598670571016 0.0034624999156914033 0.021659260975478285 -0.002939074202451246 -0.013455023845445767
 0.988033828832419 -0.09969598670571016 0.009388790822008797 0.04216848414223668 -0.0029358309103333165 -0.013455324256509776 0.0034958445166867777 0.021653945397338573
 0.0034624999156914033 0.021659260975478285 -0.0029358309103333165 -0.013455324256509776 0.009395423160840613 0.04216587993336392 0.988033714660645 -0.09969788764636307
 -0.002939074202451246 -0.013455023845445767 0.0034958445166867777 0.021653945397338573 0.988033714660645 -0.09969788764636307 0.009386852837204062 0.042166702822824184
0.1500625260525 0.009852517332576999 0.04390102678014849 0.987387870716276 -0.10390187395522939 0.003712213566440565 0.02256253500718192 -0.0031457485597359163 -0.014005534443501588
 0.987387870716276 -0.10390187395522939 0.009847142202069453 0.043901576235580574 -0.0031422205557107004 -0.01400587630016193 0.003748458035341706 0.022556651685064977
 0.003712213566440565 0.02256253500718192 -0.0031422205557107004 -0.01400587630016193 0.009854365761565575 0.04389883627252267 0.9873877469426253 -0.10390385616547813
 -0.0031457485597359163 -0.014005534443501588 0.003748458035341706 0.022556651685064977 0.9873877469426253 -0.10390385616547813 0.009845032977129974 0.04389972669948895
0.15631513130469998 0.01032612042358588 0.04562394143178429 0.9867208877357038 -0.1080962518998565 0.003971090748430077 0.02346173137363543 -0.003359914742686287 -0.014552280641122716
 0.9867208877357038 -0.1080962518998565 0.010320284907404059 0.045624524851805376 -0.003356090289839234 -0.014552667405104917 0.004010350144172705 0.023455240350557197
