! Created with skrf 1.8.0 (http://scikit-rf.org).
# GHz S RI R 50.0 
!freq ReS11 ImS11 ReS12 ImS12 ReS13 ImS13
! ReS14 ImS14
! ReS21 ImS21 ReS22 ImS22 ReS23 ImS23
! ReS24 ImS24
! ReS31 ImS31 ReS32 ImS32 ReS33 ImS33
! ReS34 ImS34
! ReS41 ImS41 ReS42 ImS42 ReS43 ImS43
! ReS44 ImS44
!
0.0 0.001883926769619 0.0 0.9981160732303 0.0 7.310395380812e-05 0.0 -7.310395314103e-05 8.952652221918049e-21
 0.9981160732303 0.0 0.001883926769645 0.0 -7.310395314187e-05 8.952652222020919e-21 7.310395380701e-05 0.0
 7.310395380812e-05 0.0 -7.310395314187e-05 8.952652222020919e-21 0.001883926762182 0.0 0.9981160732229 0.0
 -7.310395314103e-05 8.952652221918049e-21 7.310395380701e-05 0.0 0.9981160732229 0.0 0.001883926762164 0.0
0.005 0.0020281055954234363 0.0015424781923212695 0.99793347171623 -0.003944967524029471 0.0001027481493863952 0.0007909700595893923 -9.97699840922158e-05 -0.0004987957009099423
 0.99793347171623 -0.003944967524029471 0.0020281204320116977 0.0015424694635167403 -9.976744473653815e-05 -0.0004987937155817053 0.00010266995347617843 0.0007909999535777935
 0.0001027481493863952 0.0007909700595893923 -9.976744473653815e-05 -0.0004987937155817053 0.0020281074761501123 0.0015425443225579104 0.9979334720969061 -0.003944900469041825
 -9.97699840922158e-05 -0.0004987957009099423 0.00010266995347617843 0.0007909999535777935 0.9979334720969061 -0.003944900469041825 0.0020281193119497305 0.0015425374453796315
0.006252605252188 0.002066274140478694 0.0019341045328759247 0.9978847723413156 -0.00493211543364409 0.00011140854229113707 0.0009890795333402083 -0.00010745655190324585 -0.0006241146710319091
 0.9978847723413156 -0.00493211543364409 0.002066297333238255 0.0019340934391023539 -0.00010745260078607288 -0.0006241122235217373 0.00011128637135745682 0.000989118376187733
 0.00011140854229113707 0.0009890795333402083 -0.00010745260078607288 -0.0006241122235217373 0.002066277011028554 0.0019341871990648566 0.9978847728665386 -0.00493203160574735
 -0.00010745655190324585 -0.0006241146710319091 0.00011128637135745682 0.000989118376187733 0.9978847728665386 -0.00493203160574735 0.002066295512030861 0.0019341784327126827
0.01250521050438 0.002269266206804365 0.00390809852905888 0.9976238163151173 -0.00986458489002476 0.00016208311623725665 0.0019783890565989366 -0.00015191490817001888 -0.0012510044924145141
 0.9976238163151173 -0.00986458489002476 0.0022693588225626993 0.003908074464146451 -0.00015189934161281818 -0.001250999977588877 0.00016159599313818863 0.001978482889517604
 0.00016208311623725665 0.0019783890565989366 -0.00015189934161281818 -0.001250999977588877 0.0022692771309339456 0.003908263514059108 0.9976238178668598 -0.009864417510572964
 -0.00015191490817001888 -0.0012510044924145141 0.00016159599313818863 0.001978482889517604 0.9976238178668598 -0.009864417510572964 0.0022693509979463695 0.003908244267946046
0.01875781575657 0.002493418973864308 0.005909497297300562 0.9973328294976953 -0.014809320445132583 0.000225255508911381 0.002968513665562805 -0.00020662955710611444 -0.0018797306229655687
 0.9973328294976953 -0.014809320445132583 0.0024936271011995153 0.00590945816493012 -0.0002065948504416519 -0.0018797245077285271 0.00022416140392963273 0.0029686823204861292
 0.000225255508911381 0.002968513665562805 -0.0002065948504416519 -0.0018797245077285271 0.0024934431099227004 0.005909744388254117 0.9973328325595393 -0.014809069615618868
 -0.00020662955710611444 -0.0018797306229655687 0.00022416140392963273 0.0029686823204861292 0.9973328325595393 -0.014809069615618868 0.002493609080317365 0.005909712831466087
0.02501042100875 0.0027392284877096377 0.007935409230319768 0.9970114195876848 -0.01976862211332474 0.00030105475602622967 0.003959427549694288 -0.00027174455474321353 -0.0025099550030871524
 0.9970114195876848 -0.01976862211332474 0.002739598133847765 0.007935352730369096 -0.0002716832768039671 -0.0025099478485310174 0.000299111676053146 0.003959694437946706
 0.00030105475602622967 0.003959427549694288 -0.0002716832768039671 -0.0025099478485310174 0.002739270997097416 0.007935738196121202 0.9970114246469668 -0.0197682879149108
 -0.00027174455474321353 -0.0025099550030871524 0.000299111676053146 0.003959694437946706 0.9970114246469668 -0.0197682879149108 0.0027395657298759247 0.007935692391418841
0.03126302626094 0.003007169950618889 0.009984297800386307 0.9966591772523504 -0.02474341586502786 0.00038960926836822664 0.004951013928043915 -0.0003473986979734223 -0.0031414204441297324
 0.9966591772523504 -0.02474341586502786 0.0030077470679896884 0.00998422143054584 -0.0003473034959032381 -0.003141412906304565 0.00038657504877385676 0.004951406060822759
 0.00038960926836822664 0.004951013928043915 -0.0003473034959032381 -0.003141412906304565 0.0030072359938458706 0.009984708378945339 0.9966591847942589 -0.024742998370597628
 -0.0003473986979734223 -0.0031414204441297324 0.00038657504877385676 0.004951406060822759 0.9966591847942589 -0.024742998370597628 0.0030076960920973387 0.009984646285285814
0.037515631513130004 0.0032977071367767657 0.012055124462909555 0.9962756860256048 -0.029734110678938663 0.0004910455024785509 0.0059431190761130796 -0.0004337264533041472 -0.003773896659792675
 0.9962756860256048 -0.029734110678938663 0.003298537640144125 0.012055025518627195 -0.0004335900448303123 -0.0037738894898720027 0.000486677724467857 0.0059436670980858395
 0.0004910455024785509 0.0059431190761130796 -0.0004335900448303123 -0.0037738894898720027 0.003297801874697876 0.012055616359202772 0.9962756965333596 -0.02973360995442829
 -0.0004337264533041472 -0.003773896659792675 0.000486677724467857 0.0059436670980858395 0.9962756965333596 -0.02973360995442829 0.003298463902009812 0.01205553583252757
0.043768236765320004 0.0036112959966521116 0.014147087839702375 0.9958605263965712 -0.03474085930228318 0.0006054872993582677 0.006935568788814372 -0.0005308582539390677 -0.004407163866689369
 0.9958605263965712 -0.03474085930228318 0.0036124257768900894 0.014146963413404958 -0.0005306734229253354 -0.004407157910946535 0.0005995432609077325 0.006936307015722012
 0.0006054872993582677 0.006935568788814372 -0.0005306734229253354 -0.004407157910946535 0.003611424591032139 0.014147660718373168 0.9958605403522272 -0.034740275413196464
 -0.0005308582539390677 -0.004407163866689369 0.0005995432609077325 0.006936307015722012 0.9958605403522272 -0.034740275413196464 0.0036123250848679837 0.014147559512229416
0.050020842017509996 0.00394838629693234 0.016259515947210923 0.9954132779416502 -0.039763665967043456 0.000733055464085176 0.007928175181987707 -0.0006389205664338757 -0.005041006054220147
 0.9954132779416502 -0.039763665967043456 0.003949861233789098 0.01625936292677272 -0.0006386801601916124 -0.005041002253942908 0.0007252921803490158 0.007929141639573267
 0.000733055464085176 0.007928175181987707 -0.0006386801601916124 -0.005041002253942908 0.003948553911272384 0.016260169436872515 0.9954132958257786 -0.039762998973139695
 -0.0006389205664338757 -0.005041006054220147 0.0007252921803490158 0.007929141639573267 0.9954132958257786 -0.039762998973139695 0.003949729395545515 0.016260045202334556
0.055454545454549996 0.004260759288588349 0.018111436029467763 0.9949982191842843 -0.044141609046349686 0.0008546675874272403 0.008790753762420556 -0.0007418021207987404 -0.005592133699797097
 0.9949982191842843 -0.044141609046349686 0.0042625714364699484 0.018111255472212977 -0.0007415076570611561 -0.005592132610841056 0.0008451257840939229 0.00879195235195694
 0.0008546675874272403 0.008790753762420556 -0.0007415076570611561 -0.005592132610841056 0.004260965006793625 0.01811215923077109 0.9949982408716779 -0.04414086988746748
 -0.0007418021207987404 -0.005592133699797097 0.0008451257840939229 0.00879195235195694 0.9949982408716779 -0.04414086988746748 0.0042624091261319235 0.018112012996297038
0.056273447269699996 0.004309422425224084 0.018391813302135223 0.9949335206259299 -0.04480243923547534 0.0008738674471265487 0.008920740075735878 -0.0007580358601523408 -0.005675207681986894
 0.9949335206259299 -0.04480243923547534 0.004311288398154212 0.018391628369068637 -0.000757732787653446 -0.005675207073369849 0.0008640416676813164 0.008921976539138583
 0.0008738674471265487 0.008920740075735878 -0.000757732787653446 -0.005675207073369849 0.0043096342239426705 0.018392546981656432 0.9949335429173949 -0.044801689203654044
 -0.0007580358601523408 -0.005675207681986894 0.0008640416676813164 0.008921976539138583 0.9949335429173949 -0.044801689203654044 0.004311121220541917 0.018392397266854696
0.06252605252188 0.004694843777345362 0.02054343185873546 0.9944208356944807 -0.0498570210237671 0.0010280370825075417 0.00991305685164854 -0.0008883225202010012 -0.006309551913862534
 0.9944208356944807 -0.0498570210237671 0.004697146676136421 0.02054321148578951 -0.0008879497509964107 -0.006309555627889123 0.0010159053209483617 0.00991460888466216
 0.0010280370825075417 0.00991305685164854 -0.0008879497509964107 -0.006309555627889123 0.004695104926891833 0.020544245262319967 0.9944208628715248 -0.04985618802206021
 -0.0008883225202010012 -0.006309551913862534 0.0010159053209483617 0.00991460888466216 0.9944208628715248 -0.04985618802206021 0.004696939966921204 0.0205440675114898
0.06877865777407 0.005105084923634642 0.02271385369314668 0.9938748063487031 -0.054927203889972125 0.0011956743522286574 0.010904911598252787 -0.0010298947346865895 -0.006943819574986891
 0.9938748063487031 -0.054927203889972125 0.0051078706587216645 0.02271359414152472 -0.0010294452982557154 -0.006943828837283298 0.0011809929238852093 0.010906828592194797
 0.0011956743522286574 0.010904911598252787 -0.0010294452982557154 -0.006943828837283298 0.005105400590287698 0.02271474631003689 0.9938748388868801 -0.05492628798678439
 -0.0010298947346865895 -0.006943819574986891 0.0011809929238852093 0.010906828592194797 0.9938748388868801 -0.05492628798678439 0.005107620225152886 0.022714537862197064
0.07503126302626001 0.0055405756358252005 0.024902580035504208 0.9932950182891895 -0.06001274198664935 0.0013768851704749334 0.011896083854030131 -0.0011828623618499897 -0.00757778852286132
 0.9932950182891895 -0.06001274198664935 0.005543890148275839 0.024902277351605755 -0.0011823293472514535 -0.0075778046535547134 0.0013594102364433 0.011898419065996996
 0.0013768851704749334 0.011896083854030131 -0.0011823293472514535 -0.0075778046535547134 0.0055409509877261155 0.024903551309436018 0.9932950566633865 -0.060011743250505026
 -0.0011828623618499897 -0.00757778852286132 0.0013594102364433 0.011898419065996996 0.9932950566633865 -0.060011743250505026 0.00554359180009239 0.024903309396578095
0.08128386827845 0.006001740832314633 0.027109124000340015 0.992681060181832 -0.0651133583288674 0.0015717711787434526 0.012886347125468645 -0.0013473307857931826 -0.008211233255556746
 0.992681060181832 -0.0651133583288674 0.006005630103630627 0.02710877401207783 -0.001346707341607383 -0.008211257669111346 0.0015512587954305966 0.012889157715800919
 0.0015717711787434526 0.012886347125468645 -0.001346707341607383 -0.008211257669111346 0.006002181037369869 0.02711017332427283 0.9926811048644991 -0.0651122768325183
 -0.0013473307857931826 -0.008211233255556746 0.0015512587954305966 0.012889157715800919 0.9926811048644991 -0.0651122768325183 0.006005279651815479 0.027109895069147794
0.08753647353064001 0.006489000463589247 0.02933300556281777 0.9920325240696041 -0.07022874983026631 0.0017804295476257315 0.013875469273491257 -0.0015234007660535171 -0.008843924663839839
 0.9920325240696041 -0.07022874983026631 0.006493510525523414 0.029332603875426744 -0.0015226801004246033 -0.008843958868888354 0.001756635720054669 0.013878816342424731
 0.0017804295476257315 0.013875469273491257 -0.0015226801004246033 -0.008843958868888354 0.006489510690072151 0.02933413227959212 0.9920325755320716 -0.07022758564924762
 -0.0015234007660535171 -0.008843924663839839 0.001756635720054669 0.013878816342424731 0.9920325755320716 -0.07022758564924762 0.0064931037842472705 0.029333814692907648
0.09378907878283 0.007002769361516889 0.03157374798469091 0.99134900575279 -0.07535859090420712 0.0020029527859050963 0.014863212813503909 -0.0017111682797919757 -0.009475629882477245
 0.99134900575279 -0.07535859090420712 0.007007946305535211 0.031573289976108795 -0.0017103436606035682 -0.009475675481644909 0.0019756335248416112 0.014867161436795001
 0.0020029527859050963 0.014863212813503909 -0.0017103436606035682 -0.009475675481644909 0.007003354777225039 0.03157495138847831 0.9913490644647939 -0.07535734411435127
 -0.0017111682797919757 -0.009475629882477245 0.0019756335248416112 0.014867161436795001 0.9913490644647939 -0.07535734411435127 0.007007479092966402 0.03157459136568623
0.100041684035 0.007543457058562728 0.03383087522350723 0.9906301051436734 -0.0805025360969184 0.00223942855225909 0.01584933515974276 -0.0019107243622153076 -0.01010611221010594
 0.9906301051436734 -0.0805025360969184 0.007549347045977303 0.033830356039174836 -0.0019097891176208788 -0.010106170899784016 0.0022083399341799926 0.015853954423243253
 0.00223942855225909 0.01584933515974276 -0.0019097891176208788 -0.010106170899784016 0.007544122830879474 0.033832154555407376 0.9906301715728681 -0.0805012067777188
 -0.0019107243622153076 -0.01010611221010594 0.0022083399341799926 0.015853954423243253 0.9906301715728681 -0.0805012067777188 0.007548815184262214 0.03383174887309965
0.1059090909091 0.008075677451196552 0.03596342640576371 0.9899229608745121 -0.08534208720400975 0.002474099316716806 0.0167730115482232 -0.002108784768856638 -0.010696426547386888
 0.9899229608745121 -0.08534208720400975 0.008082278607235132 0.035962845187397674 -0.0021077396999102825 -0.010696499147338407 0.002439251825048264 0.016778326570817622
 0.002474099316716806 0.0167730115482232 -0.0021077396999102825 -0.010696499147338407 0.008076423327595781 0.03596477624988346 0.9899230349693725 -0.08534068051539175
 -0.002108784768856638 -0.010696426547386888 0.002439251825048264 0.016778326570817622 0.9899230349693725 -0.08534068051539175 0.00808168228458597 0.03596432467957116
0.1062942892872 0.008111467587187605 0.036103909989224005 0.9898754266033547 -0.08566022208866633 0.0024899394710578954 0.016833588838667184 -0.0021221549440765884 -0.010735131073158898
 0.9898754266033547 -0.08566022208866633 0.008118116857932648 0.03610332453658791 -0.0021211024626716173 -0.010735204643327301 0.0024548377012010105 0.016838951871775573
 0.0024899394710578954 0.016833588838667184 -0.0021211024626716173 -0.010735204643327301 0.008112218881631673 0.03610526443641526 0.9898755012158246 -0.08565881032328701
 -0.0021221549440765884 -0.010735131073158898 0.0024548377012010105 0.016838951871775573 0.9898755012158246 -0.08565881032328701 0.008117516174940049 0.036104809747931454
0.11254689453939999 0.008707199263317426 0.03839237228094392 0.9890845792685795 -0.09083126923093801 0.002754562950953057 0.01781572167771748 -0.002345540687813244 -0.011362442027827444
 0.9890845792685795 -0.09083126923093801 0.008714654146005998 0.03839171522323218 -0.002344364419271117 -0.01136253236180325 0.0027152044286185588 0.017821905685614634
 0.002754562950953057 0.01781572167771748 -0.002344364419271117 -0.01136253236180325 0.008708041243612298 0.03839380097989192 0.9890846625283333 -0.09082977510198277
 -0.002345540687813244 -0.011362442027827444 0.0027152044286185588 0.017821905685614634 0.9890846625283333 -0.09082977510198277 0.008713980475744005 0.03839329381066032
0.11879949979160001 0.009331044458002397 0.040695778271578775 0.9882571773668544 -0.0960152827520651 0.0030333710059560186 0.018795476979966058 -0.0025809568233828807 -0.011987796789452412
 0.9882571773668544 -0.0960152827520651 0.00933935137935691 0.04069504402117345 -0.002579650279128894 -0.011987905863664149 0.0029895123919887173 0.01880256327454895
 0.0030333710059560186 0.018795476979966058 -0.002579650279128894 -0.011987905863664149 0.009331982285756388 0.04069728030228103 0.98825726973626 -0.09601370634633534
 -0.0025809568233828807 -0.011987796789452412 0.0029895123919887173 0.01880256327454895 0.98825726973626 -0.09601370634633534 0.009338600563083405 0.04069671704452639
0.1250521050438 0.009983389360903637 0.04301363943775355 0.9873928405267317 -0.10121185373408748 0.003326430079262035 0.01977259369055928 -0.002828472983986289 -0.01261094328381308
 0.9873928405267317 -0.10121185373408748 0.009992594854780103 0.04301282214901997 -0.0028270297376131806 -0.01261107316751657 0.003277828365784406 0.019780667720108194
 0.003326430079262035 0.01977259369055928 -0.0028270297376131806 -0.01261107316751657 0.00998442819403945 0.04301521382571401 0.9873929424657975 -0.10121019513971359
 -0.002828472983986289 -0.01261094328381308 0.003277828365784406 0.019780667720108194 0.9873929424657975 -0.10121019513971359 0.009991762741644745 0.04301459073257045
0.131304710296 0.0106646137347021 0.04534546188863156 0.9864911940807323 -0.10642055990788049 0.003633800869342237 0.0207468065577712 -0.0030881530422324182 -0.013231625717445983
 0.9864911940807323 -0.10642055990788049 0.01067476445191119 0.04534455545013772 -0.003086566730384128 -0.013231778572468976 0.003580213451590187 0.020755957935063834
 0.003633800869342237 0.0207468065577712 -0.003086566730384128 -0.013231778572468976 0.010665758727617833 0.045347107602437986 0.9864913060475052 -0.10641881921573221
 -0.0030881530422324182 -0.013231625717445983 0.003580213451590187 0.020755957935063834 0.9864913060475052 -0.10641881921573221 0.010673846900122767 0.04534642078156353
0.1375573155481 0.01123090787087399 0.04738856801110498 0.985696133705313 -0.11133858400840575 0.003920339414640338 0.021689474308814814 -0.003324922977845535 -0.013821191911507935
 0.985696133705313 -0.11133858400840575 0.011242052543511292 0.047387582834858125 -0.0033231839599341794 -0.013821368230365385 0.003861641999115425 0.021699700359375275
 0.003920339414640338 0.021689474308814814 -0.0033231839599341794 -0.013821368230365385 0.011232163332451467 0.04739028433932753 0.9856962561438632 -0.11133676134530222
 -0.003324922977845535 -0.013821191911507935 0.003861641999115425 0.021699700359375275 0.9856962561438632 -0.11133676134530222 0.01124104629227675 0.04738954587697462
0.1438099208003 0.011817455280321033 0.04941860799669385 0.9848724167749086 -0.11624178005586616 0.0042183534264214305 0.02262681164537985 -0.0035710395053232557 -0.014405887626956434
 0.9848724167749086 -0.11624178005586616 0.011829640983696313 0.04941753885633208 -0.003569140919387143 -0.014406089572790487 0.004154325276273458 0.022638195403334248
 0.0042183534264214305 0.02262681164537985 -0.003569140919387143 -0.014406089572790487 0.01181882621133644 0.0494203939244661 0.9848725501360699 -0.11623987552687247
 -0.0035710395053232557 -0.014405887626956434 0.004154325276273458 0.022638195403334248 0.9848725501360699 -0.11623987552687247 0.011828542063354883 0.049419600820622044
0.1500625260525 0.012424011225487431 0.051435343649535684 0.9840202933689909 -0.12112995570817715 0.004527714479032084 0.02355867485663565 -0.003826378264475712 -0.014985580036393498
 0.9840202933689909 -0.12112995570817715 0.012437285144802244 0.05143418502550684 -0.003824313269954718 -0.014985809859876261 0.004458136592449707 0.023571302386044737
 0.004527714479032084 0.02355867485663565 -0.003824313269954718 -0.014985809859876261 0.012425502614397442 0.051437198123459454 0.9840204381009827 -0.1211279694208137
 -0.003826378264475712 -0.014985580036393498 0.004458136592449707 0.023571302386044737 0.9840204381009827 -0.1211279694208137 0.012436089605221561 0.05143634717380302
0.15631513130469998 0.013050328777686018 0.05343854392713892 0.9831400153386816 -0.1260029209728954 0.004848292360435963 0.024484923285376416 -0.004090813129442406 -0.015560139641542757
 0.9831400153386816 -0.1260029209728954 0.013064738210854023 0.0534372900001659 -0.004088574907517389 -0.015560399680510468 0.004772947503306511 0.024498883641486974
