! Created with skrf 1.8.0 (http://scikit-rf.org).
# GHz S RI R 50.0 
!freq ReS11 ImS11 ReS12 ImS12 ReS13 ImS13
! ReS14 ImS14
! ReS21 ImS21 ReS22 ImS22 ReS23 ImS23
! ReS24 ImS24
! ReS31 ImS31 ReS32 ImS32 ReS33 ImS33
! ReS34 ImS34
! ReS41 ImS41 ReS42 ImS42 ReS43 ImS43
! ReS44 ImS44
!
0.0 0.001458715377288 0.0 0.9985412846199 0.0 5.59577382648e-05 0.0 -5.595773870942e-05 6.852846559801515e-21
 0.9985412846199 0.0 0.001458715377314 0.0 -5.595773870985e-05 6.852846559854175e-21 5.595773826629e-05 0.0
 5.59577382648e-05 0.0 -5.595773870985e-05 6.852846559854175e-21 0.001458715374374 0.0 0.9985412846169 0.0
 -5.595773870942e-05 6.852846559801515e-21 5.595773826629e-05 0.0 0.9985412846169 0.0 0.001458715374381 0.0
0.005 0.0015691819583458296 0.001196604493771873 0.9984015784200367 -0.003055754351533925 7.780187265582202e-05 0.0005979030884620912 -7.568333464801506e-05 -0.0003785959731757755
 0.9984015784200367 -0.003055754351533925 0.001569197481013266 0.0011965953754487096 -7.568080857749024e-05 -0.000378594013460948 7.770927592560207e-05 0.000597938228860484
 7.780187265582202e-05 0.0005979030884620912 -7.568080857749024e-05 -0.000378594013460948 0.0015691837013132113 0.0011966706929109033 0.9984015787601674 -0.0030556872963388567
 -7.568333464801506e-05 -0.0003785959731757755 7.770927592560207e-05 0.000597938228860484 0.9984015787601674 -0.0030556872963388567 0.0015691964142919804 0.0011966632840382488
0.006252605252188 0.001598081816636065 0.0015004582874771815 0.9983648102061878 -0.0038204499067716045 8.400456458418965e-05 0.000747681379919208 -8.121593734626507e-05 -0.00047373411584734757
 0.9983648102061878 -0.0038204499067716045 0.001598106082061663 0.0015004467444926558 -8.121200668852259e-05 -0.000473731698885205 8.385988883585031e-05 0.0007477270153361503
 8.400456458418965e-05 0.000747681379919208 -8.121200668852259e-05 -0.000473731698885205 0.0015980844797036725 0.0015005410370198527 0.9983648106760596 -0.0038203660816225095
 -8.121593734626507e-05 -0.00047373411584734757 8.385988883585031e-05 0.0007477270153361503 0.9983648106760596 -0.0038203660816225095 0.001598104352384135 0.0015005316390960589
0.01250521050438 0.0017497968849903016 0.0030323384620201555 0.998170569607263 -0.007641756555447523 0.00011937435852892424 0.0014957997210147465 -0.00011241021687132819 -0.0009497904893795528
 0.998170569607263 -0.007641756555447523 0.0017498937854808566 0.0030323139032257204 -0.0001123947278257582 -0.000949786012281073 0.00011879736977209776 0.0014959093620396647
 0.00011937435852892424 0.0014957997210147465 -0.0001123947278257582 -0.000949786012281073 0.0017498069773696642 0.003032503633395037 0.9981705709378248 -0.007641589155473928
 -0.00011241021687132819 -0.0009497904893795528 0.00011879736977209776 0.0014959093620396647 0.9981705709378248 -0.007641589155473928 0.0017498863264682298 0.0030324834723111224
0.01875781575657 0.001914177702755869 0.004586056749274434 0.9979583314607549 -0.011473231734178291 0.00016214683882638504 0.002244841708587205 -0.00014963298357981457 -0.0014275181874123333
 0.9979583314607549 -0.011473231734178291 0.0019143954555950978 0.0045860175567571165 -0.00014959844387880678 -0.0014275120723416645 0.00016085056598349212 0.0022450371502809605
 0.00016214683882638504 0.002244841708587205 -0.00014959844387880678 -0.0014275120723416645 0.0019141999656057582 0.004586304118841829 0.9979583340288012 -0.011472980844982023
 -0.00014963298357981457 -0.0014275181874123333 0.00016085056598349212 0.0022450371502809605 0.9979583340288012 -0.011472980844982023 0.0019143782589674107 0.004586271757877944
0.02501042100875 0.0020915327696797424 0.0061594609477490965 0.9977278556428081 -0.015316746651578752 0.0002124030451281731 0.002994840720488978 -0.00019297401452274954 -0.0019067148379916267
 0.9977278556428081 -0.015316746651578752 0.002091919502964779 0.006159405377459862 -0.0001929130215668178 -0.001906707580082966 0.00021010032638504766 0.002995147062144226
 0.0002124030451281731 0.002994840720488978 -0.0001929130215668178 -0.001906707580082966 0.0020915719467141615 0.006159790273513294 0.9977278598328037 -0.015316412318126572
 -0.00019297401452274954 -0.0019067148379916267 0.00021010032638504766 0.002995147062144226 0.9977278598328037 -0.015316412318126572 0.0020918885673473463 0.0061597442197267455
0.03126302626094 0.002282157795163436 0.007751451099567553 0.997478889274432 -0.019173111240041573 0.0002702245781177996 0.0037457637712639495 -0.0002425207823795959 -0.0023872396271717978
 0.997478889274432 -0.019173111240041573 0.0022827615732057675 0.007751377285106384 -0.0002424260077422345 -0.0023872317954856505 0.00026662779470157887 0.003746209436319596
 0.0002702245781177996 0.0037457637712639495 -0.0002424260077422345 -0.0023872317954856505 0.002282218623288346 0.007751862103522797 0.9974788954683299 -0.019172693484150603
 -0.0002425207823795959 -0.0023872396271717978 0.00026662779470157887 0.003746209436319596 0.9974788954683299 -0.019172693484150603 0.0022827128919897318 0.007751800811514933
0.037515631513130004 0.0024863422027601566 0.009361315765169185 0.9972111734030762 -0.02304273782238101 0.0003356928038194394 0.004497551683609255 -0.0002983590513812458 -0.00286897311807585
 0.9972111734030762 -0.02304273782238101 0.002487211043247097 0.00936122171935227 -0.0002982232329641451 -0.0028689653558910365 0.00033051375928930184 0.004498168453807481
 0.0003356928038194394 0.004497551683609255 -0.0002982232329641451 -0.0028689653558910365 0.002486429416086054 0.009361808129904519 0.9972111819840338 -0.023042236645510132
 -0.0002983590513812458 -0.00286897311807585 0.00033051375928930184 0.004498168453807481 0.9972111819840338 -0.023042236645510132 0.0024871406064482238 0.00936173000410071
0.043768236765320004 0.002704371653787415 0.010988530042454576 0.9969244457064158 -0.026925843024940357 0.0004088884751360971 0.0052501313235496306 -0.0003605730985188546 -0.0033518050095235757
 0.9969244457064158 -0.026925843024940357 0.0027055535406057918 0.010988413658303362 -0.00036038903584644834 -0.0033517980344342706 0.0004018383370977352 0.005250954377625568
 0.0004088884751360971 0.0052501313235496306 -0.00036038903584644834 -0.0033517980344342706 0.0027044899846949927 0.010989103395608548 0.9969244570599843 -0.026925258423165926
 -0.0003605730985188546 -0.0033518050095235757 0.0004018383370977352 0.005250954377625568 0.9969244570599843 -0.026925258423165926 0.0027054573352076603 0.010989006792131927
0.050020842017509996 0.0029365292236212693 0.012632672069743146 0.9966184418518566 -0.030822531205106297 0.0004898915130452503 0.006003420629357658 -0.00042924578905728037 -0.0038356291033605377
 0.9966184418518566 -0.030822531205106297 0.002938072117784826 0.01263253112089808 -0.0004290063401906767 -0.0038356237073172953 0.0004806807876348788 0.006004488583482617
 0.0004898915130452503 0.006003420629357658 -0.0004290063401906767 -0.0038356237073172953 0.0029366834007570415 0.012633325993195154 0.9966184563644234 -0.030821863159279532
 -0.00042924578905728037 -0.0038356291033605377 0.0004806807876348788 0.006004488583482617 0.9966184563644234 -0.030821863159279532 0.0029379461257882586 0.012633209221134676
0.055454545454549996 0.0031499733014177782 0.014074948189698152 0.9963366544117086 -0.034219929293195 0.0005666874704663306 0.006658559599325518 -0.0004942329596386677 -0.00425681144980685
 0.9963366544117086 -0.034219929293195 0.003151868861840028 0.014074783992670628 -0.0004939396222862898 -0.004256808126915644 0.0005553635068437275 0.00665987444083907
 0.0005666874704663306 0.006658559599325518 -0.0004939396222862898 -0.004256808126915644 0.0031501624687753807 0.014075671752387608 0.9963366719860631 -0.03421918870774446
 -0.0004942329596386677 -0.00425681144980685 0.0005553635068437275 0.00665987444083907 0.9963366719860631 -0.03421918870774446 0.00315171371874306 0.014075536044298578
0.056273447269699996 0.003183096005171778 0.014293382070061231 0.9962928962872076 -0.034732835337662755 0.0005787808459256628 0.0067573311027114445 -0.0005044585988237798 -0.0043203408120844645
 0.9962928962872076 -0.034732835337662755 0.003185047854821642 0.014293214210880712 -0.0005041566783340953 -0.004320337861396676 0.0005671193725175427 0.006758686051815809
 0.0005787808459256628 0.0067573311027114445 -0.0005041566783340953 -0.004320337861396676 0.0031832907550107033 0.01429411609508377 0.9962929143482313 -0.03473208381756608
 -0.0005044585988237798 -0.0043203408120844645 0.0005671193725175427 0.006758686051815809 0.9962929143482313 -0.03473208381756608 0.0031848880545977845 0.014293977417608076
0.06252605252188 0.003444351442508213 0.015970339812659506 0.9959475427646817 -0.038656739485889706 0.0006756342890751582 0.007511769158927945 -0.0005862915986063139 -0.004805835810354115
 0.9959475427646817 -0.038656739485889706 0.003446760192262482 0.015970142578031664 -0.0005859201761430771 -0.004805836245668025 0.0006612312477875662 0.007513456718311639
 0.0006756342890751582 0.007511769158927945 -0.0005859201761430771 -0.004805836245668025 0.0034445914872412455 0.015971153419268736 0.9959475647654988 -0.03865590445024464
 -0.0005862915986063139 -0.004805835810354115 0.0006612312477875662 0.007513456718311639 0.9959475647654988 -0.03865590445024464 0.00344656255673312 0.015970991054391034
0.06877865777407 0.003720573507212215 0.01766325118812326 0.9955821147116658 -0.042594192161568 0.0007805284382608582 0.008266636942538756 -0.000674823424581131 -0.005292009224239855
 0.9955821147116658 -0.042594192161568 0.0037234871073822465 0.017663021992939107 -0.0006743755239343418 -0.005292014060523499 0.0007630923670762143 0.008268706289539237
 0.0007805284382608582 0.008266636942538756 -0.0006743755239343418 -0.005292014060523499 0.003720863565513196 0.017664143801342163 0.9955821410463596 -0.042593273561170215
 -0.000674823424581131 -0.005292009224239855 0.0007630923670762143 0.008268706289539237 0.9955821410463596 -0.042593273561170215 0.003723247604708017 0.01766395592240887
0.07503126302626001 0.004012038788058564 0.019371839688580066 0.9951963455168004 -0.04654511478304151 0.0008935385763879746 0.009021832842224593 -0.0007701312357595653 -0.00577875512443017
 0.9951963455168004 -0.04654511478304151 0.004015505202947343 0.01937157582698943 -0.000769599934125153 -0.0057787654509313426 0.0008727773948736954 0.009024336757808544
 0.0008935385763879746 0.009021832842224593 -0.000769599934125153 -0.0057787654509313426 0.004012383574073381 0.019372810681383534 0.9951963765829251 -0.04654411255704601
 -0.0007701312357595653 -0.00577875512443017 0.0008727773948736954 0.009024336757808544 0.9951963765829251 -0.04654411255704601 0.004015219796485611 0.019372595417365666
0.08128386827845 0.004319022524061872 0.021095840746628576 0.9947899687644512 -0.05050940727787207 0.0010147385859182393 0.009777251839927172 -0.000872290664615884 -0.006265966188746253
 0.9947899687644512 -0.05050940727787207 0.004323089740908787 0.021095539390999597 -0.0008716690922092803 -0.006265983168948843 0.0009903596246477223 0.009780246749992456
 0.0010147385859182393 0.009777251839927172 -0.0008716690922092803 -0.006265983168948843 0.0043194267468875565 0.021096889435800688 0.994790004962457 -0.050508321357389606
 -0.000872290664615884 -0.006265966188746253 0.0009903596246477223 0.009780246749992456 0.994790004962457 -0.050508321357389606 0.0043227543887375455 0.021096644871260995
0.08753647353064001 0.004641798600385087 0.022834997806472933 0.9943627184334657 -0.05448695195720177 0.001144200866045967 0.010532785749830279 -0.0009813757625215004 -0.006753533478359008
 0.9943627184334657 -0.05448695195720177 0.004646514637605927 0.022834656006093298 -0.0009806571022609423 -0.006753558349941808 0.0011159109001926866 0.010536331766198065
 0.001144200866045967 0.010532785749830279 -0.0009806571022609423 -0.006753558349941808 0.004642266963237144 0.022836123454439305 0.9943627601678817 -0.05448578226286882
 -0.0009813757625215004 -0.006753533478359008 0.0011159109001926866 0.010536331766198065 0.9943627601678817 -0.05448578226286882 0.004646125292705815 0.022835847629205142
0.09378907878283 0.004980639518412342 0.024589059532816183 0.9939143290749544 -0.05847761625633214 0.0012819962525005846 0.011288323395992606 -0.001097458941460889 -0.0072413462790773975
 0.9939143290749544 -0.05847761625633214 0.004986052434271269 0.02458867421224278 -0.0010966364288826297 -0.007241380353846692 0.0012495015390491877 0.011292484357018724
 0.0012819962525005846 0.011288323395992606 -0.0010966364288826297 -0.007241380353846692 0.004981176718628078 0.024590261342500856 0.9939143767546162 -0.05847636270277559
 -0.001097458941460889 -0.0072413462790773975 0.0012495015390491877 0.011292484357018724 0.9939143767546162 -0.05847636270277559 0.004985605044813027 0.02458995225108863
0.100041684035 0.005335816347384781 0.02635777774970555 0.9934445359732962 -0.06248125474933309 0.0014281939392370155 0.012043750748140911 -0.0012206109129529181 -0.007729291988361483
 0.9934445359732962 -0.06248125474933309 0.0053419742484890455 0.02635734570691379 -0.001219677836204162 -0.007729336652188333 0.0013912002574762536 0.012048594258790289
 0.0014281939392370155 0.012043750748140911 -0.001219677836204162 -0.007729336652188333 0.005336427074967533 0.026359054871985765 0.9934445900110622 -0.06247991723719539
 -0.0012206109129529181 -0.007729291988361483 0.0013912002574762536 0.012048594258790289 0.9934445900110622 -0.06247991723719539 0.005341464757006005 0.026358710462734563
0.1059090909091 0.005684209617245 0.028030642473037607 0.992983983476358 -0.06624990519905985 0.0015730868905394772 0.01275243489165254 -0.0013426664071629973 -0.008187196133830385
 0.992983983476358 -0.06624990519905985 0.005691110410638148 0.028030163559527973 -0.0013416235201880369 -0.00818725206071391 0.0015316034260163503 0.01275798377876783
 0.0015730868905394772 0.01275243489165254 -0.0013416235201880369 -0.00818725206071391 0.005684893601130597 0.02803198944168367 0.9929840438605368 -0.06624848880523371
 -0.0013426664071629973 -0.008187196133830385 0.0015316034260163503 0.01275798377876783 0.9929840438605368 -0.06624848880523371 0.005690538948605187 0.028031609982217334
0.1062942892872 0.00570759866241851 0.028140905902790128 0.9929530752969418 -0.06649771064495764 0.0015828614014395056 0.01279895102419566 -0.0013509006249637315 -0.008217256039414771
 0.9929530752969418 -0.06649771064495764 0.0057145497119127815 0.028140423806992835 -0.0013498503248134054 -0.008217312752163974 0.0015410740960392052 0.012804548495663239
 0.0015828614014395056 0.01279895102419566 -0.0013498503248134054 -0.008217312752163974 0.005708287599706324 0.028142257427890366 0.9929531361108059 -0.06649628906890143
 -0.0013509006249637315 -0.008217256039414771 0.0015410740960392052 0.012804548495663239 0.9929531361108059 -0.06649628906890143 0.005713974056290201 0.028141875601729233
0.11254689453939999 0.00609625447183722 0.02993819787421366 0.9924396842419763 -0.07052681693418246 0.0017460643194287112 0.013553804777692158 -0.001488395196883925 -0.00870512184457457
 0.9924396842419763 -0.07052681693418246 0.006104046898317339 0.029937662263330028 -0.001487221066941854 -0.008705192140011933 0.0016991883460372049 0.01356023146636364
 0.0017460643194287112 0.013553804777692158 -0.001487221066941854 -0.008705192140011933 0.006097026292636225 0.02993962283429869 0.9924397522549083 -0.07052531117975584
 -0.001488395196883925 -0.00870512184457457 0.0016991883460372049 0.01356023146636364 0.9924397522549083 -0.07052531117975584 0.006103401011107162 0.029939201443300294
0.11879949979160001 0.0065020501368288405 0.0317494070632532 0.9919041011697679 -0.07456839727695395 0.0019178665030876016 0.014308189968255789 -0.0016331598534690542 -0.009192770759599773
 0.9919041011697679 -0.07456839727695395 0.006510732242666516 0.031748814341133885 -0.0016318553403871046 -0.009192856245305416 0.0018656064760178774 0.01431552501414399
 0.0019178665030876016 0.014308189968255789 -0.0016318553403871046 -0.009192856245305416 0.0065029095056895105 0.03175090443233112 0.9919041768103147 -0.07456680722017227
 -0.0016331598534690542 -0.009192770759599773 0.0018656064760178774 0.01431552501414399 0.9919041768103147 -0.07456680722017227 0.006510012051276721 0.03175044127789694
0.1250521050438 0.0069252502841435125 0.033574285661512444 0.9913460657409271 -0.0786222666990467 0.002098329816844003 0.015061982025097278 -0.0017852578573791479 -0.009680082059299832
 0.9913460657409271 -0.0786222666990467 0.006934870454196239 0.03357363209476218 -0.0017838164610931176 -0.009680184416560907 0.0020403900590492004 0.015070308489495511
 0.002098329816844003 0.015061982025097278 -0.0017838164610931176 -0.009680184416560907 0.0069262018553641995 0.0335758543544485 0.9913461494435513 -0.07862059220690498
 -0.0017852578573791479 -0.009680082059299832 0.0020403900590492004 0.015070308489495511 0.9913461494435513 -0.07862059220690498 0.006934071881131977 0.03357534718511685
0.131304710296 0.007366117713423872 0.03541258407127569 0.9907653190463693 -0.08268823215092141 0.0022875141049096127 0.015815053902284073 -0.0019447504411211171 -0.010166932925576204
 0.9907653190463693 -0.08268823215092141 0.00737672442348035 0.035411865785892414 -0.001943165715148594 -0.010167053909277636 0.002223598699503145 0.01582445880478617
 0.0022875141049096127 0.015815053902284073 -0.001943165715148594 -0.010167053909277636 0.007367166130383984 0.03541422294334701 0.9907654112517238 -0.08268647308135099
 -0.0019447504411211171 -0.010166932925576204 0.002223598699503145 0.01582445880478617 0.9907654112517238 -0.08268647308135099 0.007375843386368217 0.03541366945231183
0.1375573155481 0.007721567794472104 0.03702508129631738 0.9902649845029742 -0.08652703140685757 0.0024612075461471336 0.01654344568276907 -0.002087506618140727 -0.010629325912165193
 0.9902649845029742 -0.08652703140685757 0.0077332122328104096 0.03702430721330913 -0.0020857689798720867 -0.0106294656037914 0.0023911727073592727 0.016553912813088795
 0.0024612075461471336 0.01654344568276907 -0.0020857689798720867 -0.0106294656037914 0.007722717109393463 0.03702678934157909 0.9902650855985219 -0.08652518769959476
 -0.002087506618140727 -0.010629325912165193 0.0023911727073592727 0.016553912813088795 0.9902650855985219 -0.08652518769959476 0.00773224533496937 0.03702619987473404
0.1438099208003 0.008089460878445396 0.038629483250118675 0.9897471775956257 -0.09035648179242596 0.0026419196655938174 0.017269025873129087 -0.002235972444047944 -0.011089171657865816
 0.9897471775956257 -0.09035648179242596 0.008102192041387426 0.038628650173793515 -0.0022340749591871537 -0.011089331778749805 0.0025654966427797695 0.017280634505511337
 0.0026419196655938174 0.017269025873129087 -0.0022340749591871537 -0.011089331778749805 0.008090715613083194 0.03863125929652396 0.989747288019671 -0.09035455331370237
 -0.002235972444047944 -0.011089171657865816 0.0025654966427797695 0.017280634505511337 0.989747288019671 -0.09035455331370237 0.00810113531762247 0.03863063225768638
0.1500625260525 0.008469672592997763 0.04022566727942945 0.9892120264458305 -0.09417649944194696 0.002829590909287917 0.01799172507441128 -0.002390090680897141 -0.011546405651498554
 0.9892120264458305 -0.09417649944194696 0.008483539575487923 0.04022477183091018 -0.0023880264287107667 -0.011546587992118832 0.002746512488700759 0.01800455736271043
 0.002829590909287917 0.01799172507441128 -0.0023880264287107667 -0.011546587992118832 0.00847103725163167 0.04022751010928887 0.9892121466418895 -0.09417448605194656
 -0.002390090680897141 -0.011546405651498554 0.002746512488700759 0.01800455736271043 0.9892121466418895 -0.09417448605194656 0.008482389064031723 0.040226843783173025
0.15631513130469998 0.008862077748235681 0.04181351448506924 0.9886596597546273 -0.09798700056342037 0.0030241610476166845 0.018711475005567472 -0.0025498034162612293 -0.012000964703705052
