! Created with skrf 1.8.0 (http://scikit-rf.org).
# GHz S RI R 50.0 
!freq ReS11 ImS11 ReS12 ImS12 ReS13 ImS13
! ReS14 ImS14
! ReS21 ImS21 ReS22 ImS22 ReS23 ImS23
! ReS24 ImS24
! ReS31 ImS31 ReS32 ImS32 ReS33 ImS33
! ReS34 ImS34
! ReS41 ImS41 ReS42 ImS42 ReS43 ImS43
! ReS44 ImS44
!
0.0 0.001787333039776 0.0 0.9982126669602 0.0 6.939925257767e-05 0.0 -6.939925213876e-05 8.498957199495254e-21
 0.9982126669602 0.0 0.001787333039775 0.0 -6.939925213865e-05 8.498957199481783e-21 6.939925257687e-05 0.0
 6.939925257767e-05 0.0 -6.939925213865e-05 8.498957199481783e-21 0.001787333032762 0.0 0.9982126669532 0.0
 -6.939925213876e-05 8.498957199495254e-21 6.939925257687e-05 0.0 0.9982126669532 0.0 0.001787333032768 0.0
0.005 0.0019238621648268615 0.0014604379018088255 0.9980398215168719 -0.0037432051076713066 9.775270590970152e-05 0.0007705012712718672 -9.493290102531185e-05 -0.00048243852142261127
 0.9980398215168719 -0.0037432051076713066 0.001923835274958501 0.0014604536712055868 -9.493288346494677e-05 -0.00048243858461418 9.791477912570568e-05 0.0007704394488197735
 9.775270590970152e-05 0.0007705012712718672 -9.493288346494677e-05 -0.00048243858461418 0.0019238621672996096 0.0014605052350144623 0.9980398218963618 -0.0037431380532860106
 -9.493290102531185e-05 -0.00048243852142261127 9.791477912570568e-05 0.0007704394488197735 0.9980398218963618 -0.0037431380532860106 0.0019238360302849412 0.0014605204475111975
0.006252605252188 0.0019599176131600148 0.0018312627392689056 0.9979938561550491 -0.004679883016931649 0.00010595753955841642 0.0009634832046357474 -0.00010225435658388837 -0.0006036582927455195
 0.9979938561550491 -0.004679883016931649 0.0019598755787942276 0.0018312827802051334 -0.00010225432864026625 -0.0006036583723307235 0.00010621076045993305 0.0009634028800451152
 0.00010595753955841642 0.0009634832046357474 -0.00010225432864026625 -0.0006036583723307235 0.001959917537984189 0.001831346917531274 0.9979938566699134 -0.004679799194764208
 -0.00010225435658388837 -0.0006036582927455195 0.00010621076045993305 0.0009634028800451152 0.9979938566699134 -0.004679799194764208 0.001959876681595782 0.0018313662473858742
0.01250521050438 0.00215116374665712 0.0037005542604985455 0.9977482985452686 -0.009360284718137718 0.00015356333039339985 0.0019272125065829429 -0.00014439786112514517 -0.0012100845315072837
 0.9977482985452686 -0.009360284718137718 0.002150995893199507 0.0037005976788059528 -0.0001443977436527475 -0.0012100846982701261 0.00015457304342933104 0.0019270186556517943
 0.00015356333039339985 0.0019272125065829429 -0.0001443977436527475 -0.0012100846982701261 0.0021511628842807913 0.003700722438966832 0.997748300047956 -0.00936011733342687
 -0.00014439786112514517 -0.0012100845315072837 0.00015457304342933104 0.0019270186556517943 0.997748300047956 -0.00936011733342687 0.0021509997517124963 0.003700764274530007
0.01875781575657 0.0023615390344958317 0.0055960484097461755 0.9974756533485767 -0.014052536639598543 0.000212336295437576 0.0028918027140049348 -0.0001959697934978574 -0.00181835915008017
 0.9974756533485767 -0.014052536639598543 0.002361161838092068 0.005596118825319908 -0.00019596952137982597 -0.0018183594162064344 0.00021460432363460752 0.002891454870731884
 0.000212336295437576 0.0028918027140049348 -0.00019596952137982597 -0.0018183594162064344 0.002361536656530177 0.005596300583986634 0.9974756563028879 -0.014052285796667233
 -0.0001959697934978574 -0.00181835915008017 0.00021460432363460752 0.002891454870731884 0.9974756563028879 -0.014052285796667233 0.00236117010206875 0.005596368349628498
0.02501042100875 0.0025914941745096773 0.007515025379059268 0.9971755650585515 -0.018758847626707025 0.0002823964589096587 0.0038572568312521555 -0.00025710445393351894 -0.002428165323748016
 0.9971755650585515 -0.018758847626707025 0.002590824261764287 0.007515126667202438 -0.0002571039597340757 -0.002428165705887327 0.00028642466289619537 0.0038567074796580195
 0.0002823964589096587 0.0038572568312521555 -0.0002571039597340757 -0.002428165705887327 0.0025914895439504435 0.007515361599023842 0.9971755699271346 -0.018758513393421005
 -0.00025710445393351894 -0.002428165323748016 0.00028642466289619537 0.0038567074796580195 0.9971755699271346 -0.018758513393421005 0.002590838586048683 0.007515458939983064
0.03126302626094 0.002841461091510348 0.009456052407358239 0.996847662038743 -0.023480123112592226 0.0003638633392126111 0.004823487310170289 -0.0003279315139147002 -0.0030392679069433217
 0.996847662038743 -0.023480123112592226 0.0028404151905994097 0.009456188694066291 -0.0003279307283408143 -0.003039268426267928 0.0003701540588903839 0.004822681842309434
 0.0003638633392126111 0.004823487310170289 -0.0003279307283408143 -0.003039268426267928 0.0028414534652650525 0.009456472749307087 0.9968476692853997 -0.0234797055484559
 -0.0003279315139147002 -0.0030392679069433217 0.0003701540588903839 0.004822681842309434 0.9968476692853997 -0.0234797055484559 0.002840437237746413 0.009456603526445154
0.037515631513130004 0.003111861661081251 0.011418170239870752 0.9964915656541571 -0.028216778603155437 0.00045685488469714706 0.005790370215897937 -0.0004085769299335867 -0.0036514593233428904
 0.9964915656541571 -0.028216778603155437 0.0031103565677857415 0.011418345900005128 -0.00040857578219322886 -0.003651460005594936 0.00046591112220692487 0.005789246863048828
 0.00045685488469714706 0.005790370215897937 -0.00040857578219322886 -0.003651460005594936 0.0031118502864624907 0.011418674808704862 0.996491575740609 -0.02821627775710674
 -0.0004085769299335867 -0.0036514593233428904 0.00046591112220692487 0.005789246863048828 0.996491575740609 -0.02821627775710674 0.003110388003941138 0.011418843096288742
0.043768236765320004 0.0034031110571849455 0.013400645555841355 0.9961068940246193 -0.03296898718339022 0.0005614869406857432 0.006757761718593794 -0.0004991632503154919 -0.004264543120592012
 0.9961068940246193 -0.03296898718339022 0.003401063607372813 0.013400865212849632 -0.0004991616684300962 -0.004264543996151213 0.0005738124324096362 0.006756251474418589
 0.0005614869406857432 0.006757761718593794 -0.0004991616684300962 -0.004264543996151213 0.0034030951746312765 0.013401234480463467 0.9961069074122467 -0.03296840309840117
 -0.0004991632503154919 -0.004264543120592012 0.0005738124324096362 0.006756251474418589 0.9961069074122467 -0.03296840309840117 0.0034011061039332297 0.0134014445653743
0.050020842017509996 0.0037156192871904614 0.015402868671937133 0.9956932639671765 -0.03773678174823584 0.000677872912085071 0.007725504911026849 -0.0005998096980605416 -0.0048783272015942404
 0.9956932639671765 -0.03773678174823584 0.0037129463320722867 0.015403137198595157 -0.0005998076091473742 -0.004878328305543374 0.0006939721417696618 0.007723531451664145
 0.000677872912085071 0.007725504911026849 -0.0005998076091473742 -0.004878328305543374 0.003715598131528923 0.015403542094332512 0.9956932811179731 -0.03773611447238889
 -0.0005998096980605416 -0.0048783272015942404 0.0006939721417696618 0.007723531451664145 0.9956932811179731 -0.03773611447238889 0.0037130015658683973 0.015403798476244367
0.055454545454549996 0.004004778294574995 0.017158481075509217 0.9953099914156951 -0.04189275475245573 0.0007886475163070447 0.008566659487446907 -0.0006955346536632639 -0.005412144508972461
 0.9953099914156951 -0.04189275475245573 0.004001494223981991 0.01715879622338105 -0.0006955320643838331 -0.005412145843573643 0.0008084365044568999 0.008564215751581217
 0.0007886475163070447 0.008566659487446907 -0.0006955320643838331 -0.005412145843573643 0.004004751929153643 0.017159228070931655 0.9953100122106285 -0.041892015207869254
 -0.0006955346536632639 -0.005412144508972461 0.0008084365044568999 0.008564215751581217 0.9953100122106285 -0.041892015207869254 0.004001561890956299 0.017159528506676243
0.056273447269699996 0.004049791950056841 0.017424303316044172 0.9952502921671593 -0.042520105167924635 0.0008061235054440901 0.008693433176168289 -0.0007106321606873208 -0.005492620511799511
 0.9952502921671593 -0.042520105167924635 0.0040464103330899405 0.017424625835930695 -0.0007106294911544195 -0.0054926218839647335 0.0008265016809695942 0.008690912779173878
 0.0008061235054440901 0.008693433176168289 -0.0007106294911544195 -0.0054926218839647335 0.004049764748723477 0.017425061410969927 0.9952503135415127 -0.04251935473477846
 -0.0007106321606873208 -0.005492620511799511 0.0008265016809695942 0.008690912779173878 0.9952503135415127 -0.04251935473477846 0.004046479984080371 0.017425368803410907
0.06252605252188 0.0044060306178372675 0.019464459046239897 0.9947775959774017 -0.047318837815462485 0.0009463465153165598 0.009661372043433487 -0.0008317431272848982 -0.006107231245277011
 0.9947775959774017 -0.047318837815462485 0.0044018571529164 0.0194648409361945 -0.0008317398031107346 -0.006107232930287427 0.0009715095216035078 0.009658213506734358
 0.0009463465153165598 0.009661372043433487 -0.0008317398031107346 -0.006107232930287427 0.0044059965932114085 0.01946530200117477 0.9947776220361487 -0.04731800426415977
 -0.0008317431272848982 -0.006107231245277011 0.0009715095216035078 0.009658213506734358 0.9947776220361487 -0.04731800426415977 0.004401942905172109 0.01946566533351373
0.06877865777407 0.0047847330099029285 0.02152287480007809 0.9942747940154 -0.052132813972490165 0.0010986466314788317 0.010629140314492368 -0.0009632515993676708 -0.0067219657897331355
 0.9942747940154 -0.052132813972490165 0.00477968445953762 0.021523321693409647 -0.000963247546267464 -0.006721967837057569 0.0011291009666043914 0.01062524487584449
 0.0010986466314788317 0.010629140314492368 -0.000963247546267464 -0.006721967837057569 0.0047846913786398475 0.021523802822548368 0.9942748252184217 -0.0521318973404608
 -0.0009632515993676708 -0.0067219657897331355 0.0011291009666043914 0.01062524487584449 0.9942748252184217 -0.0521318973404608 0.00477978799985816 0.021524227242712964
0.07503126302626001 0.005186293038588529 0.02359910847739713 0.9937415066373203 -0.05696183221130853 0.0012631252616457378 0.011596550795527384 -0.0011052629829092755 -0.0073366280740851
 0.9937415066373203 -0.05696183221130853 0.005180286093051876 0.02359962626792385 -0.0011052581266192169 -0.007336630538072588 0.0012993779593087808 0.011591812052845776
 0.0012631252616457378 0.011596550795527384 -0.0011052581266192169 -0.007336630538072588 0.005186243013851957 0.023600121795378938 0.9937415434455112 -0.05696083253395372
 -0.0011052629829092755 -0.0073366280740851 0.0012993779593087808 0.011591812052845776 0.9937415434455112 -0.05696083253395372 0.005180409111771537 0.023600612673508256
0.08128386827845 0.0056111007833108545 0.025692730017936708 0.9931773563449844 -0.061805662292627385 0.0014398803615844507 0.012563410794969932 -0.0012578789698452647 -0.007951019159985563
 0.9931773563449844 -0.061805662292627385 0.0056040520393727524 0.02569332486484468 -0.001257873236319712 -0.007951022099885463 0.0014824389037422913 0.012557714627914248
 0.0014398803615844507 0.012563410794969932 -0.001257873236319712 -0.007951022099885463 0.005611041573582177 0.02569382888069497 0.9931773992182533 -0.06180457960245596
 -0.0012578789698452647 -0.007951019159985563 0.0014824389037422913 0.012557714627914248 0.9931773992182533 -0.06180457960245596 0.00560419622820357 0.02569439181359394
0.08753647353064001 0.006059542406802318 0.027803316629195756 0.992581968140162 -0.06666404992388489 0.0016290062713585393 0.01352952249163494 -0.001421197411697981 -0.00856493697270452
 0.992581968140162 -0.06666404992388489 0.006051368346729118 0.027803994962911152 -0.001421190727306724 -0.008564940452702037 0.0016783784923830134 0.013522746984577368
 0.0016290062713585393 0.01352952249163494 -0.001421190727306724 -0.008564940452702037 0.006059473217557063 0.027804501301183237 0.9925820175388825 -0.06666288425672237
 -0.001421197411697981 -0.00856493697270452 0.0016783784923830134 0.013522746984577368 0.9925820175388825 -0.06666288425672237 0.006051535399486453 0.027805142117756053
0.09378907878283 0.006532000039348282 0.029930449377484777 0.991954969850705 -0.07153672016618078 0.0018305935554074543 0.0144946832121002 -0.001595312187910567 -0.009178176132896322
 0.991954969850705 -0.07153672016618078 0.006522617010117932 0.02993121790620289 -0.0015953044796937293 -0.009178180222125276 0.0018872875393372384 0.014486698578648092
 0.0018305935554074543 0.0144946832121002 -0.0015953044796937293 -0.009178180222125276 0.006531920073282735 0.029931720144939482 0.9919550262354314 -0.0715354715545333
 -0.001595312187910567 -0.009178176132896322 0.0018872875393372384 0.014486698578648092 0.9919550262354314 -0.0715354715545333 0.0065228086215345805 0.02993244491244258
0.100041684035 0.007028851634687072 0.032073710707357934 0.9912959924330733 -0.07642337992442279 0.002044728845715711 0.015458685656016508 -0.0017803130707326118 -0.009790527850604063
 0.9912959924330733 -0.07642337992442279 0.007018175827133528 0.03207457642464633 -0.0017803042666305168 -0.009790532623147991 0.0021092528166818075 0.015449354165400421
 0.002044728845715711 0.015458685656016508 -0.0017803042666305168 -0.009790532623147991 0.007028760092458881 0.032075067875762996 0.9912960562646109 -0.07642204840003106
 -0.0017803130707326118 -0.009790527850604063 0.0021092528166818075 0.015449354165400421 0.9912960562646109 -0.07642204840003106 0.00701839369231829 0.03207588290702824
0.1059090909091 0.00751761307306881 0.03409923054613483 0.9906482016122544 -0.08102143974157769 0.0022571579620277154 0.016362057704333074 -0.001963893815615331 -0.010364158840397814
 0.9906482016122544 -0.08102143974157769 0.007505647748850881 0.03410019408686386 -0.001963883918548037 -0.010364164325966442 0.0023294917940758822 0.016351329926601762
 0.0022571579620277154 0.016362057704333074 -0.001963883918548037 -0.010364164325966442 0.007517509939492276 0.03410066908586603 0.9906482728512039 -0.08102003044241013
 -0.001963893815615331 -0.010364158840397814 0.0023294917940758822 0.016351329926601762 0.9906482728512039 -0.08102003044241013 0.007505891792241462 0.034101574787504266
0.1062942892872 0.00755047080813656 0.03423268258778872 0.9906046702603817 -0.08132371982317589 0.002271494686973329 0.016421318081113988 -0.0019762855871582334 -0.010401779870132464
 0.9906046702603817 -0.08132371982317589 0.0075384182355068 0.03423365278114768 -0.001976275616173282 -0.010401785405043676 0.002344356894916741 0.016410493986380077
 0.002271494686973329 0.016421318081113988 -0.001976275616173282 -0.010401785405043676 0.007550366888857649 0.034234126479580455 0.9906047419998089 -0.08132230541937548
 -0.0019762855871582334 -0.010401779870132464 0.002344356894916741 0.016410493986380077 0.9906047419998089 -0.08132230541937548 0.007538664049808169 0.03423503834120489
0.11254689453939999 0.008097226660156297 0.03640694510215935 0.9898806413992866 -0.08623741565135269 0.0025109693835701137 0.01738236446980498 -0.00218331087964377 -0.011011716443976131
 0.9898806413992866 -0.08623741565135269 0.008083713137719939 0.036408027362347474 -0.0021832996721055727 -0.011011722825263753 0.0025926779846105136 0.01736989393812461
 0.0025109693835701137 0.01738236446980498 -0.0021832996721055727 -0.011011722825263753 0.008097109561967863 0.03640847606210786 0.9898807215080961 -0.08623591839759508
 -0.00218331087964377 -0.011011716443976131 0.0025926779846105136 0.01736989393812461 0.9898807215080961 -0.08623591839759508 0.008083988595402049 0.03640949158366561
0.11879949979160001 0.008669483588247132 0.038596075368445684 0.9891235478784063 -0.09116412948948244 0.002763226848771302 0.018341604674286836 -0.002401465565182469 -0.01162011833903215
 0.9891235478784063 -0.09116412948948244 0.008654424711690431 0.03859727760008692 -0.002401453052947096 -0.011620125655649906 0.00285428978109191 0.018327325719361458
 0.002763226848771302 0.018341604674286836 -0.002401453052947096 -0.011620125655649906 0.008669352508916876 0.038597693756386005 0.9891236368183121 -0.09116254941858658
 -0.002401465565182469 -0.01162011833903215 0.00285428978109191 0.018327325719361458 0.9891236368183121 -0.09116254941858658 0.00865473150577771 0.03859882004060145
0.1250521050438 0.009267601090410556 0.04079964669289196 0.9883330359507239 -0.09610351061685275 0.003028336454650212 0.019298814556684363 -0.00263082159439076 -0.012226762858789448
 0.9883330359507239 -0.09610351061685275 0.009250912215146867 0.04080097712580283 -0.002630807711114456 -0.012226771204599201 0.0031292613104973916 0.019282556973465172
 0.003028336454650212 0.019298814556684363 -0.002630807711114456 -0.012226771204599201 0.009267455227907905 0.04080135289001173 0.9883331341841955 -0.09610184775874489
 -0.00263082159439076 -0.012226762858789448 0.0031292613104973916 0.019282556973465172 0.9883331341841955 -0.09610184775874489 0.009251252036584258 0.0408025973239542
0.131304710296 0.009891933561518776 0.043017227910372505 0.9875087563514288 -0.1010551962452202 0.0033063628845021397 0.020253766119852815 -0.002871446110056837 -0.012831423885873515
 0.9875087563514288 -0.1010551962452202 0.009873529781655148 0.043018695112137906 -0.0028714307913300908 -0.012831433359655154 0.0034176567780487103 0.020235351421627155
 0.0033063628845021397 0.020253766119852815 -0.0028714307913300908 -0.012831433359655154 0.009891772114818596 0.04301902231684704 0.9875088643415049 -0.10105345062926377
 -0.002871446110056837 -0.012831423885873515 0.0034176567780487103 0.020235351421627155 0.9875088643415049 -0.10105345062926377 0.009873904318775852 0.04302039258424984
0.1375573155481 0.010408322019404457 0.04495989024908464 0.9867849450585267 -0.10573012159519966 0.0035641652849605927 0.021178343072621626 -0.0030900806993817897 -0.013406110379476
 0.9867849450585267 -0.10573012159519966 0.010388113156525318 0.04496147268800359 -0.003090064059467036 -0.013406121004262687 0.003686084085495555 0.02115778205242205
 0.0035641652849605927 0.021178343072621626 -0.003090064059467036 -0.013406121004262687 0.010408145244389929 0.04496177281756778 0.9867850632417461 -0.10572829329675915
 -0.0030900806993817897 -0.013406110379476 0.003686084085495555 0.02115778205242205 0.9867850632417461 -0.10572829329675915 0.010388523095445466 0.04496324749857556
0.1438099208003 0.010943129057261467 0.04689071671030679 0.986035187093526 -0.11039157093926989 0.0038323046482177598 0.02209826406467888 -0.0033173878375793507 -0.013976442557985252
 0.986035187093526 -0.11039157093926989 0.010921029113262141 0.046892421303730954 -0.003317369846782928 -0.01397645442438767 0.003965309518171024 0.0220753918973822
 0.0038323046482177598 0.02209826406467888 -0.003317369846782928 -0.01397645442438767 0.010942936347141836 0.0468926878054616 0.9860353159272462 -0.11038966000227378
 -0.0033173878375793507 -0.013976442557985252 0.003965309518171024 0.0220753918973822 0.9860353159272462 -0.11038966000227378 0.010921475958695031 0.046894273022897746
0.1500625260525 0.011496141527801838 0.048809498254053 0.9852597008616861 -0.11503937986551757 0.004110671358278836 0.023013406250978835 -0.0035532590949061923 -0.014542302508384739
 0.9852597008616861 -0.11503937986551757 0.011472064243285238 0.048811332350871324 -0.0035532397274404626 -0.014542315709824283 0.004255220124516181 0.02298805208632181
 0.004110671358278836 0.023013406250978835 -0.0035532397274404626 -0.014542315709824283 0.011495932290082896 0.04881155825684287 0.9852598408031309 -0.11503738633203278
 -0.0035532590949061923 -0.014542302508384739 0.004255220124516181 0.02298805208632181 0.9852598408031309 -0.11503738633203278 0.011472549485937284 0.04881326053872836
0.15631513130469998 0.012067144467633942 0.05071603207353998 0.9844587062186385 -0.11967338565643261 0.0043991543311571665 0.023923649278631692 -0.0037975845420410983 -0.015103575138049065
 0.9844587062186385 -0.11967338565643261 0.012041003315250681 0.05071800346698012 -0.003797563776182035 -0.015103589770587294 0.004555701426385058 0.02389563631324913
