! Created with skrf 1.8.0 (http://scikit-rf.org).
# GHz S RI R 50.0 
!freq ReS11 ImS11 ReS12 ImS12 ReS13 ImS13
! ReS14 ImS14
! ReS21 ImS21 ReS22 ImS22 ReS23 ImS23
! ReS24 ImS24
! ReS31 ImS31 ReS32 ImS32 ReS33 ImS33
! ReS34 ImS34
! ReS41 ImS41 ReS42 ImS42 ReS43 ImS43
! ReS44 ImS44
!
0.0 0.001657483492272 0.0 0.998342516502 0.0 6.366910416903e-05 0.0 -6.366910381391e-05 7.797216419028542e-21
 0.998342516502 0.0 0.001657483492273 0.0 -6.366910381372e-05 7.797216419005273e-21 6.366910416912e-05 0.0
 6.366910416903e-05 0.0 -6.366910381372e-05 7.797216419005273e-21 0.001657483495108 0.0 0.9983425165049 0.0
 -6.366910381391e-05 7.797216419028542e-21 6.366910416912e-05 0.0 0.9983425165049 0.0 0.001657483495113 0.0
0.005 0.001783577285997316 0.0013641608400782464 0.9981829854953685 -0.003471081987735884 8.800126347859009e-05 0.0006505078780487744 -8.583501567874611e-05 -0.00041714808284462303
 0.9981829854953685 -0.003471081987735884 0.0017835667502924763 0.0013641670543256723 -8.583595745947349e-05 -0.00041714885633073446 8.808309283143213e-05 0.0006504770365322413
 8.800126347859009e-05 0.0006505078780487744 -8.583595745947349e-05 -0.00041714885633073446 0.0017835761502271068 0.001364094272393582 0.9981829851196661 -0.0034711490491390203
 -8.583501567874611e-05 -0.00041714808284462303 8.808309283143213e-05 0.0006504770365322413 0.9981829851196661 -0.0034711490491390203 0.0017835671366264053 0.0013640994994221379
0.006252605252188 0.0018167520977664384 0.0017105133520248371 0.9981407425798348 -0.004339681231009953 9.497199863596683e-05 0.0008134695046379616 -9.212455116889571e-05 -0.000521956907557432
 0.9981407425798348 -0.004339681231009953 0.0018167356271543767 0.0017105211492666641 -9.212601625921909e-05 -0.0005219578621930182 9.509985271982176e-05 0.0008134293882757328
 9.497199863596683e-05 0.0008134695046379616 -9.212601625921909e-05 -0.0005219578621930182 0.0018167504098760843 0.0017104301552059976 0.9981407420803979 -0.0043397650515515935
 -9.212455116889571e-05 -0.000521956907557432 9.509985271982176e-05 0.0008134293882757328 0.9981407420803979 -0.0043397650515515935 0.0018167363194841353 0.001710436705920791
0.01250521050438 0.001991997681635656 0.0034563894601154503 0.9979161034584679 -0.008680002713596703 0.00013505065639684763 0.0016274284033499277 -0.00012797811983226792 -0.001046332661476643
 0.9979161034584679 -0.008680002713596703 0.0019919318989344904 0.003456405343021131 -0.00012798388870766033 -0.0010463344364375975 0.00013556062004273963 0.0016273312539140704
 0.00013505065639684763 0.0016274284033499277 -0.00012798388870766033 -0.0010463344364375975 0.00199199149864234 0.003456223394942879 0.9979161020280805 -0.008680170102974881
 -0.00012797811983226792 -0.001046332661476643 0.00013556062004273963 0.0016273312539140704 0.9979161020280805 -0.008680170102974881 0.0019919352354644403 0.0034562366424004793
0.01875781575657 0.002183623817078293 0.005226708504584223 0.9976683046498336 -0.013031494338705946 0.00018400352645040635 0.0024423509179778303 -0.00017134288629290934 -0.001572428423657141
 0.9976683046498336 -0.013031494338705946 0.0021834759763766773 0.0052267328010845516 -0.0001713557441852637 -0.0015724308584283285 0.00018514936469168298 0.002442176397182104
 0.00018400352645040635 0.0024423509179778303 -0.0001713557441852637 -0.0015724308584283285 0.002183610332450169 0.005226459778305962 0.9976683018573282 -0.013031745198253702
 -0.00017134288629290934 -0.001572428423657141 0.00018514936469168298 0.002442176397182104 0.9976683018573282 -0.013031745198253702 0.00218348391137862 0.005226479856266516
0.02501042100875 0.002392020957295211 0.0070189857414192786 0.9973970394050583 -0.017396237955354412 0.0002419294442901672 0.0032582436101289075 -0.00022232819359530937 -0.002100006299444919
 0.9973970394050583 -0.017396237955354412 0.002391758361465955 0.0070190188013863454 -0.00022235089003973894 -0.0021000092043979798 0.00024396516455247295 0.0032579680474018728
 0.0002419294442901672 0.0032582436101289075 -0.00022235089003973894 -0.0021000092043979798 0.0023919973639833386 0.007018654560835238 0.9973970348214019 -0.017396572218117908
 -0.00022232819359530937 -0.002100006299444919 0.00024396516455247295 0.0032579680474018728 0.9973970348214019 -0.017396572218117908 0.0023917728563422544 0.007018681574705033
0.03126302626094 0.0026175634851774454 0.008831929573069547 0.9971019860978076 -0.021775109266054325 0.0003089271318620594 0.004075043890878698 -0.0002810402164389161 -0.002628890914613118
 0.9971019860978076 -0.021775109266054325 0.0026171534641937417 0.00883197176390084 -0.00028107547132841883 -0.0026288940706898456 0.00031210720780872644 0.004074640257714155
 0.0003089271318620594 0.004075043890878698 -0.00028107547132841883 -0.0026288940706898456 0.002617526972966147 0.008831516155740673 0.9971019792932255 -0.021775526885831113
 -0.0002810402164389161 -0.002628890914613118 0.00031210720780872644 0.004074640257714155 0.9971019792932255 -0.021775526885831113 0.0026171764855971295 0.008831550178029212
0.037515631513130004 0.0028606175112541265 0.01066468805555286 0.9967828163169402 -0.026168531254090636 0.00038509440039869466 0.004892661419484653 -0.000347582630087399 -0.0031589280375632998
 0.9967828163169402 -0.026168531254090636 0.0028600274068662493 0.010664739759682688 -0.0003476331367457651 -0.0031589311962342695 0.000389673870141188 0.004892099291911368
 0.00038509440039869466 0.004892661419484653 -0.0003476331367457651 -0.0031589311962342695 0.002860565269532514 0.010664192635986915 0.9967828068645656 -0.026169032199771
 -0.000347582630087399 -0.0031589280375632998 0.000389673870141188 0.004892099291911368 0.9967828068645656 -0.026169032199771 0.0028600609299678226 0.010664233703126665
0.043768236765320004 0.0031215438859696627 0.012516619581484704 0.996439198173405 -0.030576703424741208 0.0004705277564745567 0.00571099069638103 -0.0004220568377952763 -0.00368997200191423
 0.996439198173405 -0.030576703424741208 0.0031207410384957797 0.012516681194826709 -0.0004221252648367642 -0.0036899748852002047 0.0004767622668043956 0.0057102362137743095
 0.0004705277564745567 0.00571099069638103 -0.0004221252648367642 -0.0036899748852002047 0.0031214730987190434 0.012516042432575697 0.996439185643067 -0.030577287659361286
 -0.0004220568377952763 -0.00368997200191423 0.0004767622668043956 0.0057102362137743095 0.996439185643067 -0.030577287659361286 0.0031207870418693577 0.012516090542651466
0.050020842017509996 0.003400699582807386 0.014387198143628212 0.9960707979799451 -0.03499969646473865 0.0005653221528362581 0.0065299162677836375 -0.0005045620385119081 -0.004221880518927512
 0.9960707979799451 -0.03499969646473865 0.0033996513191975777 0.014387270074435236 -0.0005046510310200057 -0.004221882819438696 0.0005734679747718318 0.006528932090126108
 0.0005653221528362581 0.0065299162677836375 -0.0005046510310200057 -0.004221882819438696 0.0034006074332550676 0.014386539555482806 0.9960707819432539 -0.0350003639672419
 -0.0005045620385119081 -0.004221880518927512 0.0005734679747718318 0.006528932090126108 0.9960707819432539 -0.0350003639672419 0.003399711789386584 0.01438659466635563
0.055454545454549996 0.00365837363491433 0.016027575164739714 0.9957302612282721 -0.03885544028453987 0.0006553761046623432 0.0072419764096339585 -0.0005828590913701334 -0.004684717414584489
 0.9957302612282721 -0.03885544028453987 0.00365708554388704 0.016027656402364913 -0.0005829680863749546 -0.004684718936204563 0.0006653915215293767 0.007240759560425759
 0.0006553761046623432 0.0072419764096339585 -0.0005829680863749546 -0.004684718936204563 0.0036582606309187114 0.016026846063533596 0.9957302417954347 -0.03885618013384861
 -0.0005828590913701334 -0.004684717414584489 0.0006653915215293767 0.007240759560425759 0.9957302417954347 -0.03885618013384861 0.0036571602034385165 0.016026907191836498
0.056273447269699996 0.0036984384035673857 0.016275966800118474 0.9956772812582071 -0.039437498702286036 0.000669570801514134 0.007349315279121871 -0.0005951952242359894 -0.004754512144711182
 0.9956772812582071 -0.039437498702286036 0.0036971120262067557 0.016276049468314242 -0.0005953074045991453 -0.004754513525697141 0.0006798848287725233 0.007348060543586022
 0.000669570801514134 0.007349315279121871 -0.0005953074045991453 -0.004754513525697141 0.003698322071997253 0.016275227094345163 0.9956772612855727 -0.039438249453744176
 -0.0005951952242359894 -0.004754512144711182 0.0006798848287725233 0.007348060543586022 0.9956772612855727 -0.039438249453744176 0.003697188954885974 0.016275289122316336
0.06252605252188 0.004015111344014569 0.018182512116101408 0.9952583134104893 -0.043890041594973256 0.0007833650194944199 0.008169058893007378 -0.0006940511401104779 -0.005287724887528921
 0.9952583134104893 -0.043890041594973256 0.004013474119908526 0.018182605952901273 -0.000694189108614204 -0.00528772498293457 0.0007961047551716597 0.008167489170343595
 0.0007833650194944199 0.008169058893007378 -0.000694189108614204 -0.00528772498293457 0.004014968009653444 0.018181691644860398 0.9952582890723924 -0.043890875579971636
 -0.0006940511401104779 -0.005287724887528921 0.0007961047551716597 0.008167489170343595 0.9952582890723924 -0.043890875579971636 0.004013569505203978 0.01818176046353455
0.06877865777407 0.004351066777099083 0.020106448916798112 0.9948135602130064 -0.048357214911325525 0.0009067940908410483 0.008989013135071926 -0.0008012222243483088 -0.005821375392526208
 0.9948135602130064 -0.048357214911325525 0.004349085926739157 0.020106554364849514 -0.0008013885595453859 -0.005821373807058922 0.0009222176259143157 0.008987080385991181
 0.0009067940908410483 0.008989013135071926 -0.0008013885595453859 -0.005821373807058922 0.004350893616943117 0.020105548066341516 0.9948135310788512 -0.048358132115065705
 -0.0008012222243483088 -0.005821375392526208 0.0009222176259143157 0.008987080385991181 0.9948135310788512 -0.048358132115065705 0.00434920177170636 0.020105623506004762
0.07503126302626001 0.004706650525429997 0.02204741063074715 0.9943426882041438 -0.05283887632864986 0.0010399451400333588 0.009809039436435442 -0.000916798534068652 -0.006355318435528204
 0.9943426882041438 -0.05283887632864986 0.004704293212256436 0.0220475281444665 -0.0009169957930795895 -0.00635531474470743 0.0010583111258416576 0.009806691968164114
 0.0010399451400333588 0.009809039436435442 -0.0009169957930795895 -0.00635531474470743 0.004706444715767848 0.02204642981221029 0.9943426538427148 -0.0528398767466258
 -0.000916798534068652 -0.006355318435528204 0.0010583111258416576 0.009806691968164114 0.9943426538427148 -0.0528398767466258 0.004704431525578072 0.02204651165948361
0.08128386827845 0.005082205866533256 0.024005042852625846 0.9938453650090536 -0.05733485781777414 0.0011829030108250229 0.010628995009854567 -0.0010408676635632363 -0.006889406589077418
 0.9938453650090536 -0.05733485781777414 0.005079439186238842 0.0240051728989828 -0.0010410983822813828 -0.00688940033930472 0.0012044706264384274 0.01062617743300783
 0.0011829030108250229 0.010628995009854567 -0.0010410983822813828 -0.00688940033930472 0.005081964582527189 0.024003982514541465 0.9938453249876049 -0.05733594144376514
 -0.0010408676635632363 -0.006889406589077418 0.0012044706264384274 0.01062617743300783 0.9938453249876049 -0.05733594144376514 0.005079601981101142 0.024004070512385123
0.08753647353064001 0.005478073489656904 0.025978998913641024 0.9933212596203023 -0.061844970027348393 0.0013357501497611676 0.011448733110572559 -0.0011735146558341522 -0.007423490010067639
 0.9933212596203023 -0.061844970027348393 0.0054748644592377054 0.02597914197326092 -0.001173781349053471 -0.007423480718682028 0.001360779065614598 0.011445386296356636
 0.0013357501497611676 0.011448733110572559 -0.001173781349053471 -0.007423480718682028 0.005477793906757472 0.025977859535788513 0.9933212135054656 -0.061846136860040465
 -0.0011735146558341522 -0.007423490010067639 0.001360779065614598 0.011445386296356636 0.9933212135054656 -0.061846136860040465 0.005475053753975177 0.02597795338395473
0.09378907878283 0.005894591424940746 0.027968936706671096 0.9927700426556924 -0.06636900542101283 0.0014985664917895772 0.012268103237873328 -0.0013148219106741401 -0.007957416293015667
 0.9927700426556924 -0.06636900542101283 0.0058909069719004495 0.027969093275347183 -0.0013151270721520406 -0.007957403448372364 0.001527316829874698 0.012264164275836589
 0.0014985664917895772 0.012268103237873328 -0.0013151270721520406 -0.007957403448372364 0.005894270718619416 0.027967718803751283 0.9927699900123861 -0.06637025546084879
 -0.0013148219106741401 -0.007957416293015667 0.001527316829874698 0.012264164275836589 0.9927699900123861 -0.06637025546084879 0.005891124789070583 0.027967818159504013
0.100041684035 0.006332094945517124 0.02997451636850794 0.9921913865917503 -0.0709067405651403 0.001671429348180074 0.013086951291749194 -0.00146486908913203 -0.008491030374883857
 0.9921913865917503 -0.0709067405651403 0.006327901897066564 0.02997468695904706 -0.0014652151916554567 -0.008491013436407516 0.0017041616393092581 0.013082353447974846
 0.001671429348180074 0.013086951291749194 -0.0014652151916554567 -0.008491013436407516 0.006331730292049587 0.02997322048882945 0.9921913269834115 -0.07090807381611312
 -0.00146486908913203 -0.008491030374883857 0.0017041616393092581 0.013082353447974846 0.9921913269834115 -0.07090807381611312 0.0063281502631265165 0.029973324968174935
0.1059090909091 0.006762027897476139 0.03187046396962987 0.991623133764359 -0.07517717200292295 0.0018428464674937277 0.013854738201895351 -0.0016136897887849854 -0.008991346138152004
 0.991623133764359 -0.07517717200292295 0.006757327316726412 0.03187064820173772 -0.0016140765403994226 -0.008991324840694155 0.0018795526734925992 0.01384945793167041
 0.0018428464674937277 0.013854738201895351 -0.0016140765403994226 -0.008991324840694155 0.0067616194375149105 0.031869095446424474 0.991623067221699 -0.07517858334510882
 -0.0016136897887849854 -0.008991346138152004 0.0018795526734925992 0.01384945793167041 0.991623067221699 -0.07517858334510882 0.006757606196369468 0.03186920434906752
0.1062942892872 0.006790916455229868 0.031995398538032335 0.9915849659881737 -0.07545793784890312 0.001854413295746884 0.013905119699513043 -0.001623733015750628 -0.009024174476689358
 0.9915849659881737 -0.07545793784890312 0.0067861815270383475 0.031995583682526405 -0.0016241225111203717 -0.00902415287494645 0.0018913884342420218 0.013899792375473214
 0.001854413295746884 0.013905119699513043 -0.0016241225111203717 -0.00902415287494645 0.006790505032447359 0.031994025264332746 0.9915848989767159 -0.0754593543181589
 -0.001623733015750628 -0.009024174476689358 0.0018913884342420218 0.013899792375473214 0.9915848989767159 -0.0754593543181589 0.006786462472485696 0.0319941344435563
0.11254689453939999 0.007271385362625204 0.0340312430314212 0.9909504577006926 -0.08002234679564359 0.00204759006664116 0.014722447525286227 -0.0017914875793985014 -0.009556688069200764
 0.9909504577006926 -0.08002234679564359 0.007266075147863201 0.03403144328389969 -0.001791922898386165 -0.009556661205974586 0.0020890692629122283 0.01471631621723778
 0.00204759006664116 0.014722447525286227 -0.001791922898386165 -0.009556661205974586 0.007270924350208037 0.03402979298226456 0.9909503828462147 -0.08002384649255931
 -0.0017914875793985014 -0.009556688069200764 0.0020890692629122283 0.01471631621723778 0.9909503828462147 -0.08002384649255931 0.007266390706553857 0.0340299063999237
0.11879949979160001 0.007773827944743617 0.03608170781555293 0.9902875410881943 -0.0845997050846649 0.0022510284395082783 0.015538770568423019 -0.001968203632552744 -0.010088407856637935
 0.9902875410881943 -0.0845997050846649 0.007767908902619967 0.03608192375507758 -0.001968687184824268 -0.010088375105009846 0.0022972731701922646 0.015531756827613225
 0.0022510284395082783 0.015538770568423019 -0.001968687184824268 -0.010088375105009846 0.00777331452485694 0.03608018164366727 0.9902874579486559 -0.08460128802294595
 -0.001968203632552744 -0.010088407856637935 0.0022972731701922646 0.015531756827613225 0.9902874579486559 -0.08460128802294595 0.007768261111676803 0.03608029880302607
0.1250521050438 0.008298567203193623 0.038146448199059636 0.9895958982145593 -0.08918973936429213 0.002464794131010343 0.016353921449259266 -0.0021539488895765658 -0.010619167780338232
 0.9895958982145593 -0.08918973936429213 0.008292005647995702 0.03814668043319854 -0.002154483063747841 -0.010619128484724844 0.002516066087523984 0.01634594284276921
 0.002464794131010343 0.016353921449259266 -0.002154483063747841 -0.010619128484724844 0.008297998561370304 0.038144846594433686 0.9895958063462382 -0.08919140555927657
 -0.0021539488895765658 -0.010619167780338232 0.002516066087523984 0.01634594284276921 0.9895958063462382 -0.08919140555927657 0.008292396547349727 0.03814496696627774
0.131304710296 0.008845922713469862 0.04022511619326278 0.9888752140474864 -0.09379216590414485 0.0026889496880864562 0.017167729694371726 -0.0023487878248617485 -0.011148799030060615
 0.9888752140474864 -0.09379216590414485 0.008838684802846913 0.04022536536203013 -0.002349374988265828 -0.011148752506350564 0.0027455107230719 0.017158699766784215
 0.0026889496880864562 0.017167729694371726 -0.002349374988265828 -0.011148752506350564 0.008845296038644477 0.040223439882086244 0.9888751130036004 -0.0937939153742794
 -0.0023487878248617485 -0.011148799030060615 0.0027455107230719 0.017158699766784215 0.9888751130036004 -0.0937939153742794 0.008839116434631674 0.040223562908031224
0.1375573155481 0.009294305926493336 0.04204904369067503 0.9882471372201198 -0.09813823008946378 0.002895710140545962 0.017954195915439845 -0.0025248691173631772 -0.011651370408600592
 0.9882471372201198 -0.09813823008946378 0.009286355623738592 0.04204930922735977 -0.002525512937363454 -0.01165131656157029 0.0029576793759143495 0.017944123952359135
 0.002895710140545962 0.017954195915439845 -0.002525512937363454 -0.01165131656157029 0.009293619253601613 0.04204729300366167 0.9882470265871451 -0.09814006280018153
 -0.0025248691173631772 -0.011651370408600592 0.0029576793759143495 0.017944123952359135 0.9882470265871451 -0.09814006280018153 0.009286829121499402 0.04204741760250147
0.1438099208003 0.009758613040601005 0.043862808817292896 0.9875967314823292 -0.10247266702771611 0.003110775333695174 0.01873707732746429 -0.0027079507808994256 -0.012150587409540864
 0.9875967314823292 -0.10247266702771611 0.009749915972769509 0.04386309163233299 -0.0027086538281077596 -0.01215052555732263 0.0031783891009406805 0.018725884024345447
 0.003110775333695174 0.01873707732746429 -0.0027086538281077596 -0.01215052555732263 0.009757863715577 0.04386098445709079 0.9875966108183193 -0.10247458298581098
 -0.0027079507808994256 -0.012150587409540864 0.0031783891009406805 0.018725884024345447 0.9875966108183193 -0.10247458298581098 0.00975043321712496 0.04386111038024198
0.1500625260525 0.01023867240093492 0.045666242004207776 0.9869241730103188 -0.10679535023246986 0.0033340643555603787 0.019516282206955726 -0.0028979530753219266 -0.012646361947304879
 0.9869241730103188 -0.10679535023246986 0.010229194039569636 0.04566654310505319 -0.002898717915510055 -0.012646291380202858 0.003407557496562925 0.019503885352427697
 0.0033340643555603787 0.019516282206955726 -0.002898717915510055 -0.012646291380202858 0.010237857782681442 0.04566434469853206 0.9869240418716638 -0.1067973494462655
 -0.0028979530753219266 -0.012646361947304879 0.003407557496562925 0.019503885352427697 0.9869240418716638 -0.1067973494462655 0.010229756902548527 0.04566447175013484
0.15631513130469998 0.010734311039669112 0.04745917872267537 0.9862296389791478 -0.11110615406455675 0.0035654952807856748 0.020291720548615184 -0.003094795227173383 -0.013138607893846225
 0.9862296389791478 -0.11110615406455675 0.010724016697016659 0.047459499219641335 -0.0030956244211883094 -0.013138527874460194 0.003645101125608566 0.020278035054694908
