! Created with skrf 1.8.0 (http://scikit-rf.org).
# GHz S RI R 50.0 
!freq ReS11 ImS11 ReS12 ImS12 ReS13 ImS13
! ReS14 ImS14
! ReS21 ImS21 ReS22 ImS22 ReS23 ImS23
! ReS24 ImS24
! ReS31 ImS31 ReS32 ImS32 ReS33 ImS33
! ReS34 ImS34
! ReS41 ImS41 ReS42 ImS42 ReS43 ImS43
! ReS44 ImS44
!
0.0 0.001399486500871 0.0 0.9986005134977 0.0 5.389473530947e-05 0.0 -5.38947348203e-05 6.60020144885758e-21
 0.9986005134977 0.0 0.001399486500871 0.0 -5.389473481998e-05 6.600201448818391e-21 5.389473530779e-05 0.0
 5.389473530947e-05 0.0 -5.389473481998e-05 6.600201448818391e-21 0.001399486501475 0.0 0.9986005134983 0.0
 -5.38947348203e-05 6.60020144885758e-21 5.389473530779e-05 0.0 0.9986005134983 0.0 0.001399486501487 0.0
0.005 0.0015053795183464047 0.001142327959616331 0.9984665938392494 -0.002932140589806615 7.575200651757015e-05 0.0006112750387108812 -7.347287445042658e-05 -0.0003807151397538848
 0.9984665938392494 -0.002932140589806615 0.0015053930653082795 0.0011423200911310199 -7.34733317421131e-05 -0.0003807155440911968 7.565802775429505e-05 0.0006113106510037865
 7.575200651757015e-05 0.0006112750387108812 -7.34733317421131e-05 -0.0003807155440911968 0.0015053786741680282 0.001142261224403966 0.9984665934926846 -0.002932207660222963
 -7.347287445042658e-05 -0.0003807151397538848 7.565802775429505e-05 0.0006113106510037865 0.9984665934926846 -0.002932207660222963 0.0015053932188702137 0.0011422526869837774
0.006252605252188 0.0015330387078039739 0.0014324326233325928 0.9984314086522049 -0.0036659117392243996 8.194156803427446e-05 0.0007643885164773536 -7.894986993627013e-05 -0.00047639682413830743
 0.9984314086522049 -0.0036659117392243996 0.0015330598841459936 0.0014324226640359179 -7.89505810982945e-05 -0.0004763973238856324 8.179473193927575e-05 0.0007644347627978442
 8.194156803427446e-05 0.0007643885164773536 -7.89505810982945e-05 -0.0004763973238856324 0.001533037464891063 0.001432349225825614 0.9984314081874309 -0.0036659955619103277
 -7.894986993627013e-05 -0.00047639682413830743 8.179473193927575e-05 0.0007644347627978442 0.9984314081874309 -0.0036659955619103277 0.0015330602017120244 0.0014323384196844949
0.01250521050438 0.0016779831171000483 0.0028951440397488484 0.9982458762471953 -0.007332753118956864 0.00011714635978886541 0.0015291205812916035 -0.00010975388301416858 -0.0009551926030581334
 0.9982458762471953 -0.007332753118956864 0.0016780676720642405 0.0028951228906015656 -0.00010975668062996246 -0.0009551935413093746 0.00011656073033141182 0.0015292316180797393
 0.00011714635978886541 0.0015291205812916035 -0.00010975668062996246 -0.0009551935413093746 0.0016779787050105624 0.002894977567288833 0.9982458749480577 -0.0073329205137664215
 -0.00010975388301416858 -0.0009551926030581334 0.00011656073033141182 0.0015292316180797393 0.9982458749480577 -0.0073329205137664215 0.0016780695043346863 0.002894954608498667
0.01875781575657 0.0018346136029963739 0.0043789380739954606 0.9980437019024322 -0.011009475654120608 0.00015958622373933218 0.0022947416705180915 -0.00014639708531019214 -0.0014356889900327707
 0.9980437019024322 -0.011009475654120608 0.001834803595568997 0.0043789044416526575 -0.0001464033172185392 -0.0014356902964595673 0.00015827047909023476 0.0022949393816329433
 0.00015958622373933218 0.0022947416705180915 -0.0001464033172185392 -0.0014356902964595673 0.001834604096562778 0.004378688719295022 0.9980436994017945 -0.011009726529694454
 -0.00014639708531019214 -0.0014356889900327707 0.00015827047909023476 0.0022949393816329433 0.9980436994017945 -0.011009726529694454 0.0018348081468716148 0.004378652168340064
0.02501042100875 0.0020032165761150185 0.005881756223113106 0.9978246634488122 -0.014697885128773168 0.00020933977923138277 0.0030613026177890323 -0.00018896717650958774 -0.0019176778613457252
 0.9978246634488122 -0.014697885128773168 0.002003553978954107 0.005881708768791861 -0.00018897817234346314 -0.0019176794550256494 0.00020700236374759752 0.003061612105723787
 0.00020933977923138277 0.0030613026177890323 -0.00018897817234346314 -0.0019176794550256494 0.0020032000510147273 0.005881424167412545 0.9978246593828536 -0.014698219434258383
 -0.00018896717650958774 -0.0019176778613457252 0.00020700236374759752 0.003061612105723787 0.9978246593828536 -0.014698219434258383 0.0020035624633622366 0.005881372510092235
0.03126302626094 0.002184066489539249 0.007402550850553269 0.9975885265945095 -0.018398768375722928 0.0002664864088772578 0.003828782135093504 -0.0002375495804033151 -0.002401018730298531
 0.9975885265945095 -0.018398768375722928 0.0021845932129282357 0.0074024881942902606 -0.00023756665475456253 -0.0024010205195568505 0.0002628352606513419 0.003829231740633737
 0.0002664864088772578 0.003828782135093504 -0.00023756665475456253 -0.0024010205195568505 0.0021840410156695176 0.007402136289685249 0.9975885205961826 -0.018399186074988964
 -0.0002375495804033151 -0.002401018730298531 0.0002628352606513419 0.003829231740633737 0.9975885205961826 -0.018399186074988964 0.0021846068483017942 0.007402067941113244
0.037515631513130004 0.002377431987830735 0.00894064777050861 0.9973350512276932 -0.022112530636785106 0.0003311054211500477 0.004597130712171934 -0.0002922280989780004 -0.0028855948356018117
 0.9973350512276932 -0.022112530636785106 0.002378189896219689 0.008940568493549551 -0.0002922525530472033 -0.0028855967179872567 0.00032584784689366743 0.004597752048364015
 0.0003311054211500477 0.004597130712171934 -0.0002922525530472033 -0.0028855967179872567 0.0023773956332730087 0.00894015091590672 0.9973350429304049 -0.022113031707745718
 -0.0002922280989780004 -0.0028855948356018117 0.00032584784689366743 0.004597752048364015 0.9973350429304049 -0.022113031707745718 0.002378209908358092 0.008940064222565398
0.043768236765320004 0.0025835782941865137 0.010495552239799054 0.9970639939607471 -0.02583938950742903 0.0004032756675447444 0.005366283962363222 -0.0003530851525293657 -0.0033712997865442923
 0.9970639939607471 -0.02583938950742903 0.002584609219197008 0.010495454886438736 -0.00035311827519251545 -0.0033713016488419677 0.0003961182803663836 0.00536711195293285
 0.0004032756675447444 0.005366283962363222 -0.00035311827519251545 -0.0033713016488419677 0.002583529125392321 0.010494973318874164 0.9970639829978781 -0.025839973942027347
 -0.0003530851525293657 -0.0033712997865442923 0.0003961182803663836 0.00536711195293285 0.9970639829978781 -0.025839973942027347 0.002584636841600461 0.01049486656003932
0.050020842017509996 0.002802768325532849 0.012066868783231937 0.9967751094042736 -0.029579455045894654 0.0004830753194251661 0.0061361681380411905 -0.0004202018733012113 -0.003858032040577904
 0.9967751094042736 -0.029579455045894654 0.0028041140772927923 0.012066751862201285 -0.00042024494179072376 -0.0038580337588359197 0.0004737240098798871 0.006137241057647569
 0.0004830753194251661 0.0061361681380411905 -0.00042024494179072376 -0.0038580337588359197 0.0028027044055827003 0.012066208049423379 0.996775095407204 -0.029580122840463678
 -0.0004202018733012113 -0.003858032040577904 0.0004737240098798871 0.006137241057647569 0.996775095407204 -0.029580122840463678 0.0028041505492896416 0.012066079438082139
0.055454545454549996 0.003004047090890763 0.013445457410090646 0.996509390490114 -0.03284044449677487 0.0005586797322981445 0.006805752098627721 -0.0004836740177713304 -0.004281774196860807
 0.996509390490114 -0.03284044449677487 0.0030057003828459104 0.013445322246250753 -0.00048372675810239425 -0.004281775680969505 0.0005471824168618473 0.006807071586094794
 0.0005586797322981445 0.006805752098627721 -0.00048372675810239425 -0.004281775680969505 0.0030039687781088635 0.01344472580315019 0.9965093735569609 -0.03284118473565128
 -0.0004836740177713304 -0.004281774196860807 0.0005471824168618473 0.006807071586094794 0.9965093735569609 -0.03284118473565128 0.0030057455580760925 0.013444576699037585
0.056273447269699996 0.0030352632657434596 0.013654261850474188 0.996468150903598 -0.03333276905116444 0.000570581714653808 0.006906702822792762 -0.0004936581342724992 -0.00434569220634066
 0.996468150903598 -0.03333276905116444 0.003036965643491636 0.01365412383601029 -0.0004937124146903105 -0.004345693645909844 0.0005587416418894867 0.006908062338113966
 0.000570581714653808 0.006906702822792762 -0.0004937124146903105 -0.004345693645909844 0.003035182656758603 0.013653519580946866 0.9964681335035176 -0.033333520209045515
 -0.0004936581342724992 -0.00434569220634066 0.0005587416418894867 0.006908062338113966 0.9964681335035176 -0.033333520209045515 0.0030370122122112203 0.01365336726442346
0.06252605252188 0.0032813228865005576 0.015257434181325172 0.996142871025275 -0.03709932663375734 0.0006658712379669713 0.007677802426544148 -0.0005735325461231558 -0.004834181546141445
 0.996142871025275 -0.03709932663375734 0.003283423688411419 0.015257273513917875 -0.0005735992938275329 -0.004834182561694825 0.0006512468339820752 0.007679493637782126
 0.0006658712379669713 0.007677802426544148 -0.0005735992938275329 -0.004834182561694825 0.00328122364896601 0.015256610673880707 0.9961428498519194 -0.0371001611687958
 -0.0005735325461231558 -0.004834181546141445 0.0006512468339820752 0.007679493637782126 0.9961428498519194 -0.0371001611687958 0.0032834816076551055 0.015256432734155154
0.06877865777407 0.003541205719489191 0.016876113903312773 0.9957990218982606 -0.04087908905634431 0.000769019221411864 0.008449377064842944 -0.0006599024344843106 -0.005323401096960009
 0.9957990218982606 -0.04087908905634431 0.003543746752485451 0.016875928990230157 -0.0006599828943604232 -0.005323401532536657 0.0007513142047187626 0.008451448547305446
 0.000769019221411864 0.008449377064842944 -0.0006599828943604232 -0.005323401532536657 0.003541085912607075 0.01687520948297307 0.9957989965794852 -0.040880006986629115
 -0.0006599024344843106 -0.005323401096960009 0.0007513142047187626 0.008451448547305446 0.9957989965794852 -0.040880006986629115 0.003543817282728307 0.016875003936772708
0.07503126302626001 0.003815169146655851 0.018510046354746356 0.9954363554759146 -0.04467199185148615 0.0008800998562207202 0.009221333120549187 -0.000752843805474977 -0.0058132511118489045
 0.9954363554759146 -0.04467199185148615 0.003818192236099764 0.018509835570256646 -0.0007529392122305142 -0.005813250800880245 0.0008590172524222296 0.009223836966176636
 0.0008800998562207202 0.009221333120549187 -0.0007529392122305142 -0.005813250800880245 0.0038150268291837724 0.01850906136965641 0.9954363256379116 -0.04467299320380138
 -0.000752843805474977 -0.0058132511118489045 0.0008590172524222296 0.009223836966176636 0.9954363256379116 -0.04467299320380138 0.0038182766443550743 0.018508826168258295
0.08128386827845 0.0041034694389357265 0.02015898863852379 0.9950546237492184 -0.048477950211413406 0.00099918611178607 0.009993573618357997 -0.000852431303629071 -0.0063036306914660166
 0.9950546237492184 -0.048477950211413406 0.0041070164378651415 0.0201587503238691 -0.0008525428819311401 -0.0063036294568165185 0.0009744282794789468 0.00999656547707282
 0.00099918611178607 0.009993573618357997 -0.0008525428819311401 -0.0063036294568165185 0.004103302669537141 0.02015792346469996 0.9950545890164825 -0.04847903501682099
 -0.000852431303629071 -0.0063036306914660166 0.0009744282794789468 0.00999656547707282 0.9950545890164825 -0.04847903501682099 0.004107115997954727 0.02015765649344689
0.08753647353064001 0.004406361758206999 0.021822705863536226 0.9946535789268225 -0.05229686269334284 0.0011263496583260517 0.010765998488505228 -0.0009587381651820939 -0.0067944375294909844
 0.9946535789268225 -0.05229686269334284 0.004410474556891535 0.021822438326652857 -0.0009588671298405639 -0.006794435183479105 0.001097618319384468 0.010769537609335257
 0.0011263496583260517 0.010765998488505228 -0.0009588671298405639 -0.006794435183479105 0.0044061685960295515 0.021821560904508916 0.9946535389217351 -0.05229803098784628
 -0.0009587381651820939 -0.0067944375294909844 0.001097618319384468 0.010769537609335257 0.9946535389217351 -0.05229803098784628 0.004410590549182456 0.02182125998210971
0.09378907878283 0.004724100136473451 0.02350096844957171 0.9942329735942803 -0.05612861386460072 0.0012616607936492322 0.011538504754361143 -0.0010718361664523626 -0.007285567737428501
 0.9942329735942803 -0.05612861386460072 0.00472882067195156 0.02350066996446386 -0.0010719837225674797 -0.007285564081861891 0.001228657067082674 0.01154265402613568
 0.0012616607936492322 0.011538504754361143 -0.0010719837225674797 -0.007285564081861891 0.004723878641101636 0.023499744133787265 0.9942329279361539 -0.056129865692085994
 -0.0010718361664523626 -0.007285567737428501 0.001228657067082674 0.01154265402613568 0.9942329279361539 -0.056129865692085994 0.004728954382678845 0.023499407011303326
0.100041684035 0.005056937436701735 0.02519355015564111 0.9937925608578763 -0.05997307622786103 0.0014051883712513581 0.01231098667204554 -0.0011917955699495997 -0.007776915720556144
 0.9937925608578763 -0.05997307622786103 0.00506230770219427 0.02519321896157792 -0.001191962912998879 -0.00777691054676514 0.0013676128101885424 0.0123158126638094
 0.0014051883712513581 0.01231098667204554 -0.001191962912998879 -0.00777691054676514 0.005056685669443206 0.02519224693886667 0.9937925091641489 -0.05997441163797928
 -0.0011917955699495997 -0.007776915720556144 0.0013676128101885424 0.0123158126638094 0.9937925091641489 -0.05997441163797928 0.005062460424173507 0.02519187129845077
0.1059090909091 0.0053832264228319635 0.026794681747293575 0.9933610462460272 -0.06359213418824097 0.0015474065479442096 0.013035760351204333 -0.0013106663284592611 -0.008238096110320333
 0.9933610462460272 -0.06359213418824097 0.005389244641934813 0.02679431822595106 -0.0013108533182401572 -0.008238089312737933 0.0015052679922578512 0.013041285230063704
 0.0015474065479442096 0.013035760351204333 -0.0013108533182401572 -0.008238089312737933 0.005382944487088582 0.026793304929411208 0.9933609885378997 -0.06359354808202321
 -0.0013106663284592611 -0.008238096110320333 0.0015052679922578512 0.013041285230063704 0.9933609885378997 -0.06359354808202321 0.005389416385263567 0.02679289097320737
0.1062942892872 0.005405125301930407 0.02690022659476227 0.993332094479935 -0.06383011166355716 0.0015569997295826138 0.013083335844245307 -0.0013186850684262941 -0.008268374083196257
 0.993332094479935 -0.06383011166355716 0.005411187356478028 0.026899860895037254 -0.001318873384360595 -0.008268367172052773 0.001514552360920251 0.013088908845149325
 0.0015569997295826138 0.013083335844245307 -0.001318873384360595 -0.008268367172052773 0.005404841326028308 0.026898844959878185 0.99333203636494 -0.06383153071213868
 -0.0013186850684262941 -0.008268374083196257 0.001514552360920251 0.013088908845149325 0.99333203636494 -0.06383153071213868 0.005411360388794911 0.02689842841323313
0.11254689453939999 0.005768914094413916 0.02862077409834402 0.9928513290060946 -0.0676995725264864 0.0017171606227478992 0.013855441304057272 -0.001452571726611572 -0.008759833567358355
 0.9928513290060946 -0.0676995725264864 0.005775710072516567 0.028620372058876322 -0.0014527821919669373 -0.008759824689313205 0.001669540989189265 0.013861835362780085
 0.0017171606227478992 0.013855441304057272 -0.0014527821919669373 -0.008759824689313205 0.005768595975297529 0.028619314559334766 0.9928512640811015 -0.06770107527190945
 -0.001452571726611572 -0.008759833567358355 0.001669540989189265 0.013861835362780085 0.9928512640811015 -0.06770107527190945 0.005775904719796025 0.02861885464583703
0.11879949979160001 0.006148552826323962 0.030354968833740573 0.9923500198870435 -0.07158130249325564 0.0018857351512697855 0.014627189591037594 -0.0015935209220955917 -0.00925118300280905
 0.9923500198870435 -0.07158130249325564 0.006156124947810712 0.03035452858121847 -0.001593754704053773 -0.009251171917913137 0.0018326423555966743 0.01463448255462993
 0.0018857351512697855 0.014627189591037594 -0.001593754704053773 -0.009251171917913137 0.006148198632674564 0.030353431928650178 0.9923499477598836 -0.07158288900368454
 -0.0015935209220955917 -0.00925118300280905 0.0018326423555966743 0.01463448255462993 0.9923499477598836 -0.07158288900368454 0.0061563425207468835 0.0303529261131884
0.1250521050438 0.006544289085456988 0.03210258609938015 0.9918279235972157 -0.07547513723621185 0.002062785693940382 0.015398464811111874 -0.0017415962845304504 -0.009742309276844182
 0.9918279235972157 -0.07547513723621185 0.006552679664950694 0.03210210571925443 -0.001741854540940118 -0.009742295734776623 0.0020039184450317982 0.015406738363341766
 0.002062785693940382 0.015398464811111874 -0.001741854540940118 -0.009742295734776623 0.00654389688954386 0.032100972397919474 0.9918278438725759 -0.0754768075822551
 -0.0017415962845304504 -0.009742309276844182 0.0020039184450317982 0.015406738363341766 0.9918278438725759 -0.0754768075822551 0.006552921480059513 0.03210041806843877
0.131304710296 0.0069563689551062095 0.033863399771156474 0.9912847977507839 -0.07938090495030022 0.002248372839297051 0.01616914868993957 -0.0018968596341611607 -0.010233097314436156
 0.9912847977507839 -0.07938090495030022 0.0069656204123712 0.03386287730512433 -0.001897143513677186 -0.010233081054527008 0.002183429500436432 0.01617848838893676
 0.002248372839297051 0.01616914868993957 -0.001897143513677186 -0.010233081054527008 0.006955936833547608 0.03386170986912374 0.9912847100295975 -0.07938265921074733
 -0.0018968596341611607 -0.010233097314436156 0.002183429500436432 0.01617848838893676 0.9912847100295975 -0.07938265921074733 0.00696588779187921 0.03386110433385042
0.1375573155481 0.007287060872010703 0.035406605517418636 0.9908184079049357 -0.08306776773481911 0.002418448525346522 0.01691550393125852 -0.0020353451034965755 -0.010699772144560523
 0.9908184079049357 -0.08306776773481911 0.00729721939989925 0.035406050163419446 -0.0020356564533832383 -0.010699753174507562 0.0023472841953512346 0.016925891421561135
 0.002418448525346522 0.01691550393125852 -0.0020356564533832383 -0.010699753174507562 0.007286587652353469 0.03540483965836866 0.9908183118248691 -0.08306960592748651
 -0.0020353451034965755 -0.010699772144560523 0.0023472841953512346 0.016925891421561135 0.9908183118248691 -0.08306960592748651 0.007297512846691922 0.035404191986952445
0.1438099208003 0.007629261768449683 0.03694223264770496 0.9903358364377948 -0.08674585763350866 0.0025954133557392813 0.017659191207387574 -0.0021793884465611626 -0.011164035272238429
 0.9903358364377948 -0.08674585763350866 0.007640370522414845 0.036941643048765044 -0.00217972852800463 -0.011164013334438784 0.0025177542596201033 0.017670704173153393
 0.0025954133557392813 0.017659191207387574 -0.00217972852800463 -0.011164013334438784 0.007628745669036729 0.03694039140858147 0.9903357316024558 -0.08674777982975927
 -0.0021793884465611626 -0.011164035272238429 0.0025177542596201033 0.017670704173153393 0.9903357316024558 -0.08674777982975927 0.007640691217350273 0.03693969955709388
0.1500625260525 0.007982858586414406 0.038470169599560025 0.989837199939633 -0.09041510056186045 0.0027792117412672773 0.018400145859642947 -0.0023289362372397814 -0.01162582606461152
 0.989837199939633 -0.09041510056186045 0.007994960847148973 0.038469544291929544 -0.002329306310960386 -0.011625800890860244 0.0026947855962866757 0.018412864799906375
 0.0027792117412672773 0.018400145859642947 -0.002329306310960386 -0.011625800890860244 0.007982297838438632 0.03846825357987884 0.9898370859496047 -0.09041710683459539
 -0.0023289362372397814 -0.01162582606461152 0.0026947855962866757 0.018412864799906375 0.9898370859496047 -0.09041710683459539 0.007995309966530808 0.03846751537271915
0.15631513130469998 0.008347737552764791 0.03999030826632511 0.989322615495941 -0.09407542235601682 0.002969787490217693 0.01913830422340555 -0.002483934441000879 -0.012085085104810222
