! Created with skrf 1.8.0 (http://scikit-rf.org).
# GHz S RI R 50.0 
!freq ReS11 ImS11 ReS12 ImS12 ReS13 ImS13
! ReS14 ImS14
! ReS21 ImS21 ReS22 ImS22 ReS23 ImS23
! ReS24 ImS24
! ReS31 ImS31 ReS32 ImS32 ReS33 ImS33
! ReS34 ImS34
! ReS41 ImS41 ReS42 ImS42 ReS43 ImS43
! ReS44 ImS44
!
0.0 0.001830939273642 0.0 0.9981690607065 0.0 7.088227461443e-05 0.0 -7.088227532511e-05 8.680575159317738e-21
 0.9981690607065 0.0 0.001830939273639 0.0 -7.088227532514e-05 8.680575159321411e-21 7.08822746147e-05 0.0
 7.088227461443e-05 0.0 -7.088227532514e-05 8.680575159321411e-21 0.001830939283582 0.0 0.9981690607164 0.0
 -7.088227532511e-05 8.680575159317738e-21 7.08822746147e-05 0.0 0.9981690607164 0.0 0.001830939283583 0.0
0.005 0.0019708493311720323 0.0015010361588294941 0.9979918875756492 -0.003834089554790531 9.933845134695207e-05 0.0007562965123368428 -9.644704243858636e-05 -0.0004788702169074661
 0.9979918875756492 -0.003834089554790531 0.001970892790173774 0.0015010107121343026 -9.644715797077641e-05 -0.00047887022799669135 9.906178242285579e-05 0.0007564018546616786
 9.933845134695207e-05 0.0007562965123368428 -9.644715797077641e-05 -0.00047887022799669135 0.001970850052887207 0.001501102957520279 0.9979918879581855 -0.0038340224931554157
 -9.644704243858636e-05 -0.0004788702169074661 9.906178242285579e-05 0.0007564018546616786 0.9979918879581855 -0.0038340224931554157 0.0019708928270805036 0.0015010780315255652
0.006252605252188 0.0020078291018893997 0.0018821403210945355 0.9979447148731532 -0.0047935007061747055 0.00010764699308631418 0.0009457282527261628 -0.00010378896878005915 -0.0005991838995574406
 0.9979447148731532 -0.0047935007061747055 0.002007897037240493 0.001882108038370539 -0.00010378914916771307 -0.0005991839114901203 0.0001072147279201527 0.0009458651745417856
 0.00010764699308631418 0.0009457282527261628 -0.00010378914916771307 -0.0005991839114901203 0.002007830163841492 0.0018822237991204906 0.9979447154045559 -0.004793416889112309
 -0.00010378896878005915 -0.0005991838995574406 0.0001072147279201527 0.0009458651745417856 0.9979447154045559 -0.004793416889112309 0.0020078970276742976 0.0018821921827051687
0.01250521050438 0.0022041611120970847 0.0038031189891310625 0.9976923866073197 -0.00958743118229721 0.00015623659832646522 0.0018917338386472 -0.00014611113892217296 -0.0012010587685432554
 0.9976923866073197 -0.00958743118229721 0.0022044323932828673 0.0038030496117306845 -0.00014611185724201664 -0.0012010587699790693 0.0001545128904351264 0.0018920649043100107
 0.00015623659832646522 0.0018917338386472 -0.00014611185724201664 -0.0012010587699790693 0.002204164767586602 0.00380328558722928 0.9976923881379788 -0.009587263779319172
 -0.00014611113892217296 -0.0012010587685432554 0.0001545128904351264 0.0018920649043100107 0.9976923881379788 -0.009587263779319172 0.002204431752105186 0.0038032177080527937
0.01875781575657 0.00242042404609371 0.005750820303800525 0.997411719983266 -0.014393381995902451 0.00021677069344676008 0.0028385691331949906 -0.00019798998671329503 -0.0018047473551855563
 0.997411719983266 -0.014393381995902451 0.0024210336587489616 0.005750708580852005 -0.00019799159875809216 -0.0018047473156944938 0.00021289874674943748 0.0028391642638197967
 0.00021677069344676008 0.0028385691331949906 -0.00019799159875809216 -0.0018047473156944938 0.002420431850826499 0.005751069752816785 0.9974117230031575 -0.014393131087960415
 -0.00019798998671329503 -0.0018047473551855563 0.00021289874674943748 0.0028391642638197967 0.9974117230031575 -0.014393131087960415 0.0024210317739840263 0.005750960559777404
0.02501042100875 0.002657088372979536 0.007722450366975638 0.9971023434882573 -0.019213604456419033 0.00028937097618661787 0.0037862121048894757 -0.0002595609702767947 -0.002409937735525656
 0.9971023434882573 -0.019213604456419033 0.0026581710611288836 0.007722290658133172 -0.00025956383070581136 -0.0024099376165394168 0.00028249386167335266 0.003787153569327288
 0.00028937097618661787 0.0037862121048894757 -0.00025956383070581136 -0.0024099376165394168 0.0026571018783970984 0.007722782388805213 0.9971023484817338 -0.01921327007194983
 -0.0002595609702767947 -0.002409937735525656 0.00028249386167335266 0.003787153569327288 0.9971023484817338 -0.01921327007194983 0.0026581673014823334 0.007722626475252832
0.03126302626094 0.0029146048980491506 0.009716532474781351 0.9967638690446101 -0.024049015238576187 0.00037415900582189895 0.0047345552577165795 -0.00033095485283335683 -0.0030163942248598646
 0.9967638690446101 -0.024049015238576187 0.0029162952466682936 0.00971631875939267 -0.00033095931525389214 -0.0030163939795710562 0.0003634189196131134 0.004735937750500772
 0.00037415900582189895 0.0047345552577165795 -0.00033095931525389214 -0.0030163939795710562 0.0029146256553156833 0.009716946758334455 0.9967638764961426 -0.024048597377002486
 -0.00033095485283335683 -0.0030163942248598646 0.0003634189196131134 0.004735937750500772 0.9967638764961426 -0.024048597377002486 0.002916288965933383 0.009716738371752399
0.037515631513130004 0.0031934137963319487 0.011732074307338095 0.9963959014652548 -0.028900029142539415 0.0004712548222471953 0.00568345644622102 -0.0004122985693105037 -0.003623906589572873
 0.9963959014652548 -0.028900029142539415 0.0031958462891480497 0.011731800188217898 -0.00041230498621222154 -0.003623906162867894 0.0004557927819087193 0.005685387210183381
 0.0004712548222471953 0.00568345644622102 -0.00041230498621222154 -0.003623906162867894 0.00319344335799678 0.011732570502635521 0.9963959118622939 -0.02889952777981322
 -0.0004122985693105037 -0.003623906589572873 0.0004557927819087193 0.005685387210183381 0.9963959118622939 -0.02889952777981322 0.00319583682851955 0.011732303548898964
0.043768236765320004 0.0034939480834635926 0.013768314499279665 0.9959980423537715 -0.03376681246006334 0.0005807762734535342 0.006632754338797714 -0.0005037155076514187 -0.0042322746264954695
 0.9959980423537715 -0.03376681246006334 0.0034972571512327773 0.013767973203917311 -0.0005037242302713315 -0.004232273954882268 0.0005597320028651712 0.00663535330130776
 0.0005807762734535342 0.006632754338797714 -0.0005037242302713315 -0.004232273954882268 0.0034939880021400307 0.013768892211816255 0.9959980561875383 -0.033766227553698916
 -0.0005037155076514187 -0.0042322746264954695 0.0005597320028651712 0.00663535330130776 0.9959980561875383 -0.033766227553698916 0.0034972438390271404 0.013768560256911009
0.050020842017509996 0.003816635199108966 0.015824617898481486 0.9955698921246231 -0.03864938765217044 0.0007028385974536148 0.007582274827492112 -0.000605325577486269 -0.004841301805343607
 0.9955698921246231 -0.03864938765217044 0.003820955262359468 0.015824202278521684 -0.0006053369556346292 -0.004841300816894723 0.0006753505119272601 0.0075856747418154135
 0.0007028385974536148 0.007582274827492112 -0.0006053369556346292 -0.004841300816894723 0.0038166870266463935 0.015825276689931007 0.9955699098911864 -0.038648719140239915
 -0.000605325577486269 -0.004841301805343607 0.0006753505119272601 0.0075856747418154135 0.9955699098911864 -0.038648719140239915 0.0038209374141515372 0.015824872959874902
0.055454545454549996 0.004115379247988559 0.01762746514980871 0.9951729061837377 -0.04290526573121125 0.0008191864884350736 0.008407475188230916 -0.0007019963739549141 -0.0053709480185626995
 0.9951729061837377 -0.04290526573121125 0.004120687085507836 0.017626978840569223 -0.0007020103427094234 -0.0053709466897583925 0.0007853978383283097 0.00841168903470928
 0.0008191864884350736 0.008407475188230916 -0.0007020103427094234 -0.0053709466897583925 0.0041154426829951305 0.017628194008415008 0.9951729277743957 -0.04290452450061303
 -0.0007019963739549141 -0.0053709480185626995 0.0007853978383283097 0.00841168903470928 0.9951729277743957 -0.04290452450061303 0.004120664728875314 0.01762772213696005
0.056273447269699996 0.0041618977882919685 0.017900424175607835 0.9951110512290674 -0.04354768468156929 0.0008375541135738411 0.008531834179098191 -0.0007172451865918474 -0.005450792179123924
 0.9951110512290674 -0.04354768468156929 0.004167363298008752 0.017899926704537814 -0.0007172595685086792 -0.005450790793410175 0.000802759366259491 0.008536180767445813
 0.0008375541135738411 0.008531834179098191 -0.0007172595685086792 -0.005450790793410175 0.004161963073681493 0.017901163559726038 0.9951110734288283 -0.043546932486315325
 -0.0007172451865918474 -0.005450792179123924 0.000802759366259491 0.008536180767445813 0.9951110734288283 -0.043546932486315325 0.004167340215371746 0.01790068093884127
0.06252605252188 0.004530154087729763 0.01999521957398006 0.9946211209909132 -0.04846156921258176 0.0009850319701644199 0.009481240795145437 -0.0008395871690651264 -0.006060548695165359
 0.9946211209909132 -0.04846156921258176 0.00453689956402685 0.01999463234357135 -0.0008396049011988573 -0.006060546823221953 0.0009420665393852917 0.00948669289169051
 0.0009850319701644199 0.009481240795145437 -0.0008396049011988573 -0.006060546823221953 0.00453023437687893 0.019996039017893378 0.994621148130546 -0.04846073323886057
 -0.0008395871690651264 -0.006060548695165359 0.0009420665393852917 0.00948669289169051 0.994621148130546 -0.04846073323886057 0.004536870535432722 0.019995470045591292
0.06877865777407 0.004921818098273736 0.02210852008370014 0.9940997042359115 -0.0533908593965284 0.001145377923847091 0.010430296269592045 -0.0009724606857788461 -0.006670372218358358
 0.9940997042359115 -0.0533908593965284 0.004929978168927772 0.022107834798747946 -0.0009724821126228383 -0.006670369762621809 0.001093376729910894 0.010437025962518233
 0.001145377923847091 0.010430296269592045 -0.0009724821126228383 -0.006670369762621809 0.004921914931785169 0.022109419003768872 0.9940997368277528 -0.0533899395356075
 -0.0009724606857788461 -0.006670372218358358 0.001093376729910894 0.010437025962518233 0.9940997368277528 -0.0533899395356075 0.004929942468381619 0.022108755869831843
0.07503126302626001 0.005337299625991835 0.02423986077140222 0.9935464057947517 -0.058335336512250535 0.0013186941377421964 0.01137879608528437 -0.0011159711082461463 -0.0072800609258683036
 0.9935464057947517 -0.058335336512250535 0.005347009063806208 0.024239068743112848 -0.001115996572100495 -0.00728005778014957 0.0012567911815352603 0.011386988857133247
 0.0013186941377421964 0.01137879608528437 -0.001115996572100495 -0.00728005778014957 0.005337414538566746 0.02424083854126377 0.9935464443587024 -0.058334332633503454
 -0.0011159711082461463 -0.0072800609258683036 0.0012567911815352603 0.011386988857133247 0.9935464443587024 -0.058334332633503454 0.005346965951457294 0.02424007307967912
0.08128386827845 0.00577700424332158 0.026388788712023274 0.9929608329317707 -0.06329475201606342 0.0015050789913822911 0.012326530091969913 -0.0012702198914157055 -0.007889409930862202
 0.9929608329317707 -0.06329475201606342 0.005788398003562651 0.026387880849831152 -0.0012702497321855578 -0.007889405980314367 0.0014324075110088506 0.012336384957832116
 0.0015050789913822911 0.012326530091969913 -0.0012702497321855578 -0.007889405980314367 0.00577713876217432 0.026389844651924906 0.9929608779953081 -0.06329366397750315
 -0.0012702198914157055 -0.007889409930862202 0.0014324075110088506 0.012336384957832116 0.9929608779953081 -0.06329366397750315 0.005788346725148622 0.02638896833301531
0.08753647353064001 0.006241333195362936 0.028554858091312422 0.9923425957241929 -0.06826883243325174 0.0017046268984811763 0.013273282861946267 -0.0014353044397238822 -0.008498211039417204
 0.9923425957241929 -0.06826883243325174 0.006254546453276097 0.028553824893187123 -0.0014353389946746198 -0.00849820616050855 0.0016203195401109569 0.013285012505057488
 0.0017046268984811763 0.013273282861946267 -0.0014353389946746198 -0.00849820616050855 0.0062414888388907415 0.028555991472784367 0.9923426478230787 -0.06826766007664102
 -0.0014353044397238822 -0.008498211039417204 0.0016203195401109569 0.013285012505057488 0.9923426478230787 -0.06826766007664102 0.006254486240051655 0.02855499539394536
0.09378907878283 0.006730683269656368 0.03073762673598182 0.9916913074084944 -0.07325728283442447 0.001917428130841269 0.014218833961661997 -0.0016113179674297196 -0.009106252602478
 0.9916913074084944 -0.07325728283442447 0.006745851457747346 0.03073645827707465 -0.0016113575709729544 -0.00910624666297368 0.0018206171319161872 0.014232664866200208
 0.001917428130841269 0.014218833961661997 -0.0016113575709729544 -0.00910624666297368 0.006730861546194652 0.030738836779975784 0.9916913670882141 -0.07325602598712024
 -0.0016113179674297196 -0.009106252602478 0.0018206171319161872 0.014232664866200208 0.9916913670882141 -0.07325602598712024 0.006745781526354573 0.03073771165466872
0.100041684035 0.007245446638215138 0.03293665356996573 0.9910065847047087 -0.0782597893991063 0.002143568646159233 0.015162958175487252 -0.001798349355859179 -0.009713319426993652
 0.9910065847047087 -0.0782597893991063 0.007262705483750412 0.03293533948966324 -0.0017983943393200938 -0.00971331228594972 0.0020333860292306694 0.015179130756079632
 0.002143568646159233 0.015162958175487252 -0.0017983943393200938 -0.00971331228594972 0.007245649044418195 0.032937939449801175 0.9910066525203456 -0.07825844787106412
 -0.001798349355859179 -0.009713319426993652 0.0020333860292306694 0.015179130756079632 0.9910066525203456 -0.07825844787106412 0.007262625035547477 0.032936675594994344
0.1059090909091 0.007751955713250216 0.0350146000691958 0.9903332987669982 -0.08296660070369084 0.0023679821022209186 0.016047416223544622 -0.0019839543460896344 -0.01028190590076577
 0.9903332987669982 -0.08296660070369084 0.007771300156991159 0.03501313951483044 -0.001984004676397806 -0.010281897496254331 0.0022444622113217522 0.016066017393273752
 0.0023679821022209186 0.016047416223544622 -0.001984004676397806 -0.010281897496254331 0.007752182112226114 0.035015956313659155 0.9903333747317422 -0.0829651795284471
 -0.0019839543460896344 -0.01028190590076577 0.0022444622113217522 0.016066017393273752 0.9903333747317422 -0.0829651795284471 0.007771209100084755 0.03501455310352426
0.1062942892872 0.007786010679676008 0.0351514967276298 0.9902880481235684 -0.08327602133575376 0.0023831299189713486 0.016105425693853426 -0.00199648300834402 -0.010319192734025201
 0.9902880481235684 -0.08327602133575376 0.00780549624216668 0.035150026214964866 -0.0019965336997257053 -0.010319184241780747 0.0022587076950677416 0.016124194421806317
 0.0023831299189713486 0.016105425693853426 -0.0019965336997257053 -0.010319184241780747 0.0077862386992570455 0.03515285756421817 0.9902881246410014 -0.08327459492438263
 -0.00199648300834402 -0.010319192734025201 0.0022587076950677416 0.016124194421806317 0.9902881246410014 -0.08327459492438263 0.007805404463464708 0.035151444886014814
0.11254689453939999 0.00835275778739776 0.037381712116452206 0.9895353222639304 -0.08830563236631545 0.0026361887744536547 0.017046002282724366 -0.002205798703720694 -0.010923650147229047
 0.9895353222639304 -0.08830563236631545 0.00837460649631383 0.03738007389369056 -0.0022058554274171573 -0.010923640145420644 0.002496659154877493 0.017067635808449107
 0.0026361887744536547 0.017046002282724366 -0.0022058554274171573 -0.010923640145420644 0.008353012889402529 0.037383146982056234 0.9895354080603747 -0.08830412085275766
 -0.002205798703720694 -0.010923650147229047 0.002496659154877493 0.017067635808449107 0.9895354080603747 -0.08830412085275766 0.008374502557723007 0.03738157495962252
0.11879949979160001 0.00894606516470587 0.03962685231581706 0.9887480360995358 -0.09334826188878226 0.0029028172249124387 0.017984449436552995 -0.0024263714483689722 -0.011526465709497563
 0.9887480360995358 -0.09334826188878226 0.008970413856999876 0.03962503462038559 -0.002426434525004377 -0.01152645403105734 0.0027473128407740632 0.018009230708276185
 0.0029028172249124387 0.017984449436552995 -0.002426434525004377 -0.01152645403105734 0.00894634880274472 0.039628360231584316 0.9887481317645845 -0.09334666504057074
 -0.0024263714483689722 -0.011526465709497563 0.0027473128407740632 0.018009230708276185 0.9887481317645845 -0.09334666504057074 0.00897029691361047 0.03962661789937357
0.1250521050438 0.00956630461271869 0.041886465722659125 0.9879258232615055 -0.09840353590751608 0.0031830823077698754 0.01892052452372688 -0.0026582713288175047 -0.012127409919128269
 0.9879258232615055 -0.09840353590751608 0.009593290570605983 0.041884456287217674 -0.002658341074957832 -0.012127396388319963 0.0030107364370633156 0.018948750901985743
 0.0031830823077698754 0.01892052452372688 -0.002658341074957832 -0.012127396388319963 0.00956661822261572 0.041888045660431125 0.98792592939752 -0.09840185347706666
 -0.0026582713288175047 -0.012127409919128269 0.0030107364370633156 0.018948750901985743 0.98792592939752 -0.09840185347706666 0.00959315976137103 0.04188612158836374
0.131304710296 0.010213842309603993 0.04416009588209747 0.9870683223141156 -0.10347106779333348 0.0034770459264608236 0.01985398092779175 -0.0029015633638913053 -0.01272624978207145
 0.9870683223141156 -0.10347106779333348 0.010243603298042326 0.044157881912781714 -0.002901640091755419 -0.01272623421450946 0.003286992727402703 0.019885964295733513
 0.0034770459264608236 0.01985398092779175 -0.002901640091755419 -0.01272623421450946 0.010214187308333948 0.04416174676324823 0.9870684395371562 -0.10346929951935764
 -0.0029015633638913053 -0.01272624978207145 0.003286992727402703 0.019885964295733513 0.9870684395371562 -0.10346929951935764 0.010243457745696955 0.04415962903527659
0.1375573155481 0.010750176447357667 0.04615294546548865 0.9863141102876112 -0.10825594965786299 0.003751199764518255 0.020756901661790495 -0.003122965715570825 -0.013294935671217452
 0.9863141102876112 -0.10825594965786299 0.01078285948386665 0.046150556481982706 -0.003123049677777222 -0.013294918026065668 0.003543009827576469 0.020792627459803606
 0.003751199764518255 0.020756901661790495 -0.003123049677777222 -0.013294918026065668 0.01075055328308853 0.04615466684305151 0.986314239113343 -0.10825409540949914
 -0.003122965715570825 -0.013294935671217452 0.003543009827576469 0.020792627459803606 0.986314239113343 -0.10825409540949914 0.010782699459688665 0.04615238480673135
0.1438099208003 0.01130565614937668 0.048133461894812546 0.9855327870495523 -0.11302680639054118 0.0040363704441501265 0.021654825782735518 -0.0033531253611156103 -0.013859148007203411
 0.9855327870495523 -0.11302680639054118 0.011341400964445608 0.04813088711022781 -0.003353216853379622 -0.013859128108697024 0.003809257778068115 0.021694582334418403
 0.0040363704441501265 0.021654825782735518 -0.003353216853379622 -0.013859128108697024 0.011306066037709471 0.04813525271527961 0.985532928092545 -0.1130248659194053
 -0.0033531253611156103 -0.013859148007203411 0.003809257778068115 0.021694582334418403 0.985532928092545 -0.1130248659194053 0.011341225776726164 0.048132796365914235
0.1500625260525 0.011880055410587332 0.05010142468142318 0.9847245835153307 -0.11778346260268108 0.004332439828452778 0.022547618661537257 -0.0035919299223954155 -0.014418765637649386
 0.9847245835153307 -0.11778346260268108 0.011919002218028047 0.050098652604700145 -0.003592029235730569 -0.014418743303763538 0.004085624274780186 0.022591704837700222
 0.004332439828452778 0.022547618661537257 -0.003592029235730569 -0.014418743303763538 0.011880499537487557 0.05010328385494289 0.9847247374013564 -0.11778143565061205
 -0.0035919299223954155 -0.014418765637649386 0.004085624274780186 0.022591704837700222 0.9847247374013564 -0.11778143565061205 0.01191881117314273 0.050100642509500574
0.15631513130469998 0.01247314626446195 0.05205661994094909 0.9838897321629833 -0.12252574483682722 0.004639288161356333 0.023435148406990097 -0.0038392654535510987 -0.014973670358952676
 0.9838897321629833 -0.12252574483682722 0.012515435772699616 0.05205363835387245 -0.0038393728740498856 -0.014973645401555043 0.004371995497828983 0.023483873498475277
