! Created with skrf 1.8.0 (http://scikit-rf.org).
# GHz S RI R 50.0 
!freq ReS11 ImS11 ReS12 ImS12 ReS13 ImS13
! ReS14 ImS14
! ReS21 ImS21 ReS22 ImS22 ReS23 ImS23
! ReS24 ImS24
! ReS31 ImS31 ReS32 ImS32 ReS33 ImS33
! ReS34 ImS34
! ReS41 ImS41 ReS42 ImS42 ReS43 ImS43
! ReS44 ImS44
!
0.0 0.001521624131881 0.0 0.9984783758651 0.0 5.814461174635e-05 0.0 -5.814461165709e-05 7.120661255352114e-21
 0.9984783758651 0.0 0.001521624131892 0.0 -5.814461165794e-05 7.12066125545621e-21 5.81446117464e-05 0.0
 5.814461174635e-05 0.0 -5.814461165794e-05 7.12066125545621e-21 0.001521624133404 0.0 0.9984783758666 0.0
 -5.814461165709e-05 7.120661255352114e-21 5.81446117464e-05 0.0 0.9984783758666 0.0 0.00152162413337 0.0
0.005 0.0016369677121588757 0.0012543785181357012 0.9983325057921467 -0.003186963639113587 7.992523428493476e-05 0.0005832144459049781 -7.801131270374417e-05 -0.0003761101599933648
 0.9983325057921467 -0.003186963639113587 0.0016369738291406907 0.0012543749095952827 -7.801262513981624e-05 -0.00037611108759974955 7.989899295762106e-05 0.000583224631643485
 7.992523428493476e-05 0.0005832144459049781 -7.801262513981624e-05 -0.00037611108759974955 0.0016369678234587379 0.0012544456554092198 0.9983325061469928 -0.003186896587601054
 -7.801131270374417e-05 -0.0003761101599933648 7.989899295762106e-05 0.000583224631643485 0.9983325061469928 -0.003186896587601054 0.001636974425916635 0.0012544418750879032
0.006252605252188 0.0016671966077722313 0.0015728662737316862 0.9982940455291736 -0.0039844830772472 8.61176099167846e-05 0.000729329621593572 -8.359694677079263e-05 -0.0004706119708894171
 0.9982940455291736 -0.0039844830772472 0.0016672061695059627 0.0015728616241790106 -8.359898966725544e-05 -0.00047061311289533126 8.607661251117894e-05 0.000729342813364912
 8.61176099167846e-05 0.000729329621593572 -8.359898966725544e-05 -0.00047061311289533126 0.0016671967138874185 0.0015729501976518977 0.9982940460156375 -0.003984399253217758
 -8.359694677079263e-05 -0.0004706119708894171 8.607661251117894e-05 0.000729342813364912 0.9982940460156375 -0.003984399253217758 0.0016672070335844815 0.0015729453473865029
0.01250521050438 0.001826198528683277 0.00317836050655576 0.998090465199924 -0.00796973814305339 0.00012147076802017827 0.0014592059650682233 -0.00011516296736953114 -0.0009434644653968146
 0.998090465199924 -0.00796973814305339 0.0018262367107829834 0.0031783497893258655 -0.00011517102617918405 -0.0009434665565440655 0.00012130734882701055 0.001459237328754638
 0.00012147076802017827 0.0014592059650682233 -0.00011517102617918405 -0.0009434665565440655 0.0018261983764979272 0.0031785280209669247 0.9980904665585151 -0.007969570753353028
 -0.00011516296736953114 -0.0009434644653968146 0.00012130734882701055 0.001459237328754638 0.9980904665585151 -0.007969570753353028 0.0018262395680632973 0.003178517042065094
0.01875781575657 0.0019989724971147473 0.004806486178203237 0.9978673847821322 -0.01196545849973951 0.00016428696004056395 0.0021900555412925414 -0.00015293746336692398 -0.0014179587906972336
 0.9978673847821322 -0.01196545849973951 0.0019990583022343996 0.004806467854746239 -0.00015295544592692283 -0.0014179615981703302 0.00016392001726082923 0.002190111068984921
 0.00016428696004056395 0.0021900555412925414 -0.00015295544592692283 -0.0014179615981703302 0.001998971747561533 0.004806737105610312 0.9978673874115085 -0.011965207642660876
 -0.00015293746336692398 -0.0014179587906972336 0.00016392001726082923 0.002190111068984921 0.9978673874115085 -0.011965207642660876 0.001999064280993459 0.004806718596549857
0.02501042100875 0.0021858512774884046 0.006454990289015467 0.9976245443810162 -0.015973583842608826 0.00021464988224025586 0.002921896257601959 -0.00019701258126402638 -0.0018938997696629689
 0.9976245443810162 -0.015973583842608826 0.002186003673650082 0.006454962702550165 -0.00019704435239748796 -0.0018939030169543615 0.0002139983746921219 0.0029219829069598194
 0.00021464988224025586 0.002921896257601959 -0.00019704435239748796 -0.0018939030169543615 0.0021858495966002142 0.006455324490881426 0.9976245486753327 -0.015973249572337943
 -0.00019701258126402638 -0.0018938997696629689 0.0002139983746921219 0.0029219829069598194 0.9976245486753327 -0.015973249572337943 0.002186013884943712 0.006455296930895538
0.03126302626094 0.002387153913567919 0.008122715968792396 0.9973616706451479 -0.01999494761886713 0.00027264352707725504 0.003654685884370514 -0.00024747813062070564 -0.0023711472619626856
 0.9973616706451479 -0.01999494761886713 0.002387391841431009 0.008122677343935288 -0.0002475275194420489 -0.0023711506283479807 0.0002716263911771452 0.0036548115814260883
 0.00027264352707725504 0.003654685884370514 -0.0002475275194420489 -0.0023711506283479807 0.002387150975385096 0.008123133301114306 0.9973616769972196 -0.019994529989589296
 -0.00024747813062070564 -0.0023711472619626856 0.0002716263911771452 0.0036548115814260883 0.9973616769972196 -0.019994529989589296 0.0023874073839265666 0.008123095050157857
0.037515631513130004 0.002603192637757092 0.009808910823310221 0.9970784838826254 -0.024029968617725144 0.0003383514687144427 0.004388358247588083 -0.0003044221426844547 -0.0028495799697307073
 0.9970784838826254 -0.024029968617725144 0.0026035350151537026 0.00980885926543795 -0.00030449294628306553 -0.002849583090067849 0.0003368875799882922 0.00438853189470404
 0.0003383514687144427 0.004388358247588083 -0.00030449294628306553 -0.002849583090067849 0.0026031881246575098 0.009809411158507936 0.9970784926854851 -0.02402946766148352
 -0.0003044221426844547 -0.0028495799697307073 0.0003368875799882922 0.00438853189470404 0.9970784926854851 -0.02402946766148352 0.0026035569763060385 0.009809360456847249
0.043768236765320004 0.0028342755400535273 0.01151301647418181 0.9967747009391846 -0.028078861357887886 0.00041185652277145963 0.005122834230058013 -0.00036793106542115986 -0.003329084434616713
 0.9967747009391846 -0.028078861357887886 0.002834741264804173 0.011512949968852163 -0.00036802705096368823 -0.003329086899212666 0.000409864676038609 0.0051230657155731715
 0.00041185652277145963 0.005122834230058013 -0.00036802705096368823 -0.003329086899212666 0.002834269141878752 0.011513599679875341 0.9967747125855291 -0.02807827710552917
 -0.00036793106542115986 -0.003329084434616713 0.000409864676038609 0.0051230657155731715 0.9967747125855291 -0.02807827710552917 0.0028347707208909224 0.011513534647703034
0.050020842017509996 0.003080707806908377 0.013234581554942199 0.9964500366490833 -0.03214172301684626 0.0004932405355200207 0.005858026317096472 -0.00043808983140292194 -0.003809550491972036
 0.9964500366490833 -0.03214172301684626 0.003081315758887517 0.013234497967139519 -0.0004382147373830561 -0.0038095518465080633 0.0004906394350639679 0.0058583265256197566
 0.0004932405355200207 0.005858026317096472 -0.0004382147373830561 -0.0038095518465080633 0.003080699220976837 0.0132352474979575 0.9964500515320801 -0.03214105549383762
 -0.00043808983140292194 -0.003809550491972036 0.0004906394350639679 0.0058583265256197566 0.9964500515320801 -0.03214105549383762 0.003081353776202139 0.013235166134767842
0.055454545454549996 0.0033075657893207157 0.014744551232639168 0.9961507129811414 -0.03568383621351297 0.0005704271126516311 0.006497439454203005 -0.0005045252411471705 -0.004227786251524017
 0.9961507129811414 -0.03568383621351297 0.003308312661472619 0.014744450971606031 -0.000504678294357568 -0.004227786237708489 0.000567230457075402 0.006497809006510803
 0.0005704271126516311 0.006497439454203005 -0.000504678294357568 -0.004227786237708489 0.0033075550613226464 0.01474528897050471 0.9961507309958789 -0.035683096339764964
 -0.0005045252411471705 -0.004227786251524017 0.000567230457075402 0.006497809006510803 0.9961507309958789 -0.035683096339764964 0.00330835897614776 0.014745191696347566
0.056273447269699996 0.00334279235853857 0.014973219026131678 0.9961042046883484 -0.03621857604174761 0.0005825842330773259 0.00659384082679275 -0.0005149818656377534 -0.004290869042951046
 0.9961042046883484 -0.03621857604174761 0.0033435614017748643 0.014973116099574883 -0.0005151394027446627 -0.004290868788410473 0.0005792924889577383 0.006594221649867344
 0.0005825842330773259 0.00659384082679275 -0.0005151394027446627 -0.004290868788410473 0.003342781288951893 0.014973967574360616 0.9961042232011367 -0.03621782526612005
 -0.0005149818656377534 -0.004290869042951046 0.0005792924889577383 0.006594221649867344 0.9961042232011367 -0.03621782526612005 0.0033436090358836723 0.014973867758392106
0.06252605252188 0.003620830193463343 0.01672858269762511 0.9957369181385043 -0.04030939155546351 0.0006799670989374432 0.007330179132454537 -0.000598689064477107 -0.004772930837503594
 0.9957369181385043 -0.04030939155546351 0.0036217791771736745 0.0167284580540629 -0.0005988829160047526 -0.004772928430125515 0.000675903227218892 0.007330653479372661
 0.0006799670989374432 0.007330179132454537 -0.0005988829160047526 -0.004772928430125515 0.0036208163506327505 0.01672941371570944 0.9957369406744782 -0.04030855754192125
 -0.000598689064477107 -0.004772930837503594 0.000675903227218892 0.007330653479372661 0.9957369406744782 -0.04030855754192125 0.0036218374738372448 0.01672929320322318
0.06877865777407 0.003915120569360126 0.01850035322838017 0.9953478898910819 -0.044414103288363656 0.0007854672678679386 0.008066938400024436 -0.0006892917569348883 -0.005255625745804851
 0.9953478898910819 -0.044414103288363656 0.003916268329719776 0.018500204366692558 -0.0006895255791544458 -0.0052556205970308665 0.0007805496934947233 0.008067520208711695
 0.0007854672678679386 0.008066938400024436 -0.0006895255791544458 -0.0052556205970308665 0.0039151036703449545 0.018501266576999385 0.995347916844742 -0.04441318604887126
 -0.0006892917569348883 -0.005255625745804851 0.0007805496934947233 0.008067520208711695 0.995347916844742 -0.04441318604887126 0.00391633832499627 0.018501123001606362
0.07503126302626001 0.004225961090557003 0.02028822925913032 0.9949368329622063 -0.04853261638079515 0.0008991614291289137 0.008804012053958771 -0.0007868686554816543 -0.005738842304865522
 0.9949368329622063 -0.04853261638079515 0.004227326451533199 0.020288053554599932 -0.0007871460776809797 -0.005738833781312465 0.0008933084909336688 0.00880471630187939
 0.0008991614291289137 0.008804012053958771 -0.0007871460776809797 -0.005738833781312465 0.004225940858237204 0.02028922479488383 0.9949368647284256 -0.04853161592449518
 -0.0007868686554816543 -0.005738842304865522 0.0008933084909336688 0.00880471630187939 0.9949368647284256 -0.04853161592449518 0.004227409172164776 0.02028905566674597
0.08128386827845 0.004553647734749199 0.022091921498489056 0.994503460749861 -0.052664813236397136 0.001021124735978831 0.009541290089495426 -0.0008914967991441128 -0.0062224674226600985
 0.994503460749861 -0.052664813236397136 0.004555249509356214 0.022091716201866247 -0.0008918214236821125 -0.006222454846083356 0.0010142546933513139 0.009542132804502506
 0.001021124735978831 0.009541290089495426 -0.0008918214236821125 -0.006222454846083356 0.004553623897637474 0.022092999075549284 0.9945034977245436 -0.052663729567775396
 -0.0008914967991441128 -0.0062224674226600985 0.0010142546933513139 0.009542132804502506 0.9945034977245436 -0.052663729567775396 0.00455534597273798 0.02209280178060274
0.08753647353064001 0.004898474840490321 0.023911148648373213 0.994047487256063 -0.05681055754057915 0.0011514307180707157 0.010278659297128373 -0.0010032514926325068 -0.006706386174022953
 0.994047487256063 -0.05681055754057915 0.004900331831938005 0.023910910884950426 -0.001003626894840853 -0.006706368821303463 0.0011434617587856373 0.010279657568279026
 0.0011514307180707157 0.010278659297128373 -0.001003626894840853 -0.006706368821303463 0.004898447132120774 0.023912308116674358 0.9940475298358296 -0.05680939066126021
 -0.0010032514926325068 -0.006706386174022953 0.0011434617587856373 0.010279657568279026 0.9940475298358296 -0.05680939066126021 0.004900443046166279 0.0239120799156156
0.09378907878283 0.005260735066526344 0.025745634479253886 0.9935686272835095 -0.06096969713393583 0.00129015119709737 0.01101600342376122 -0.0011222062409558748 -0.0071904816641039275
 0.9935686272835095 -0.06096969713393583 0.005262866068836992 0.025745361247919384 -0.0011226359689701128 -0.007190458767229484 0.001281001446195123 0.011017175412028084
 0.00129015119709737 0.01101600342376122 -0.0011226359689701128 -0.007190458767229484 0.0052607032252977685 0.025746875683147853 0.9935686758661897 -0.06096844704375486
 -0.0011222062409558748 -0.0071904816641039275 0.001281001446195123 0.011017175412028084 0.9935686758661897 -0.06096844704375486 0.005262993033221732 0.025746613710621865
0.100041684035 0.0056407193315390495 0.02759510569566809 0.9930665966173599 -0.06514206610040403 0.001437356203305971 0.011753203298142788 -0.0012484326819271908 -0.007674634931792308
 0.9930665966173599 -0.06514206610040403 0.005643143131168861 0.027594793867827188 -0.001248920256501723 -0.007674605677860908 0.0014269437331008493 0.01175456824702156
 0.001437356203305971 0.011753203298142788 -0.001248920256501723 -0.007674605677860908 0.005640683100746294 0.027596428476774883 0.9930666516021212 -0.06514073279449606
 -0.0012484326819271908 -0.007674634931792308 0.0014269437331008493 0.01175456824702156 0.9930666516021212 -0.06514073279449606 0.005643286836405025 0.02759612974027459
0.1059090909091 0.006013671637290172 0.029344025034120466 0.9925741684287989 -0.06906926531088459 0.0015832698111696755 0.012444747362183836 -0.0013735584479938386 -0.008128906132301895
 0.9925741684287989 -0.06906926531088459 0.006016387275433737 0.029343674027694767 -0.001374103482851884 -0.008128870133641244 0.0015715978625954286 0.012446311859405462
 0.0015832698111696755 0.012444747362183836 -0.001374103482851884 -0.008128870133641244 0.00601363105730145 0.029345424215474435 0.9925742297854864 -0.06906785391200419
 -0.0013735584479938386 -0.008128906132301895 0.0015715978625954286 0.012446311859405462 0.9925742297854864 -0.06906785391200419 0.00601654758365637 0.029345088144092243
0.1062942892872 0.006038716740204934 0.02945929032778282 0.9925411121949097 -0.06932748633455897 0.0015931138937926184 0.012490136927941431 -0.0013820005162861328 -0.0081587248859439
 0.9925411121949097 -0.06932748633455897 0.006041452116078463 0.02945893664634832 -0.0013825494304838069 -0.008158688417174329 0.0015813567342036973 0.01249171517393267
 0.0015931138937926184 0.012490136927941431 -0.0013825494304838069 -0.008158688417174329 0.006038675866840393 0.029460694519609764 0.9925411739821737 -0.06932606980865144
 -0.0013820005162861328 -0.0081587248859439 0.0015813567342036973 0.01249171517393267 0.9925411739821737 -0.06932606980865144 0.0060416135442328866 0.029460355898467742
0.11254689453939999 0.006455014496088487 0.0313379164986534 0.9919918922671964 -0.07352576873881138 0.0017574904709119021 0.013226679584487632 -0.0015229774362404028 -0.008642628258485607
 0.9919918922671964 -0.07352576873881138 0.006458080221314479 0.03133751757687651 -0.0015235911552153552 -0.008642583672221163 0.001744306620978133 0.013228492567500019
 0.0017574904709119021 0.013226679584487632 -0.0015235911552153552 -0.008642583672221163 0.0064549687314218625 0.031339401932241356 0.9919919612590622 -0.07352426898344655
 -0.0015229774362404028 -0.008642628258485607 0.001744306620978133 0.013228492567500019 0.9919919612590622 -0.07352426898344655 0.006458260346032193 0.031339020176447616
0.11879949979160001 0.006889897807790989 0.03323071147369191 0.991418656555275 -0.07773671414382316 0.0019305501015416387 0.01396270387073708 -0.0016714290529603203 -0.009126219578929675
 0.991418656555275 -0.07773671414382316 0.006893312650094974 0.03323026379397797 -0.0016721110135538592 -0.009126165927680785 0.0019158575411815262 0.013964774144258542
 0.0019305501015416387 0.01396270387073708 -0.0016721110135538592 -0.009126165927680785 0.006889846906155087 0.03323227797408567 0.9914187331552428 -0.07773513114779473
 -0.0016714290529603203 -0.009126219578929675 0.0019158575411815262 0.013964774144258542 0.9914187331552428 -0.07773513114779473 0.006893512436578063 0.03323184970310011
0.1250521050438 0.007343649786250236 0.03513740090142658 0.9908211264017268 -0.08196011404357091 0.0021123548366479682 0.014698079784139107 -0.001827418822705116 -0.009609371158734524
 0.9908211264017268 -0.08196011404357091 0.007347432509022844 0.03513690081408859 -0.0018281724331122976 -0.009609307450206942 0.0020960715392504205 0.014700431025251181
 0.0021123548366479682 0.014698079784139107 -0.0018281724331122976 -0.009609307450206942 0.007343593505283649 0.035139048290400585 0.9908212110150614 -0.08195844779114009
 -0.001827418822705116 -0.009609371158734524 0.0020960715392504205 0.014700431025251181 0.9908212110150614 -0.08195844779114009 0.007347652914435782 0.03513856999188386
0.131304710296 0.007816551337762136 0.03705770821502934 0.9901990249197543 -0.08619575117547122 0.0023029645312637563 0.015432674773150074 -0.0019910079723039096 -0.010091953086754752
 0.9901990249197543 -0.08619575117547122 0.007820720700838122 0.03705715193700067 -0.001991836611696144 -0.010091878283907564 0.002285008476569367 0.015435331792465585
 0.0023029645312637563 0.015432674773150074 -0.001991836611696144 -0.010091878283907564 0.007816489437673324 0.03705943630578269 0.9901991179538078 -0.08619400165166528
 -0.0019910079723039096 -0.010091953086754752 0.002285008476569367 0.015435331792465585 0.9901991179538078 -0.08619400165166528 0.007820962674337757 0.03705890433422726
0.1375573155481 0.008199741543319443 0.03874354754750602 0.98966125869504 -0.09019548881692697 0.0024780606861757805 0.016142244444811653 -0.0021378986136877842 -0.010549721845728952
 0.98966125869504 -0.09019548881692697 0.008204316424070079 0.03874294476934316 -0.002138807050820245 -0.010549635848990801 0.0024583833938251593 0.016145203729942666
 0.0024780606861757805 0.016142244444811653 -0.002138807050820245 -0.010549635848990801 0.008199672812545022 0.03874535676242279 0.9896613605294907 -0.09019365604874766
 -0.0021378986136877842 -0.010549721845728952 0.0024583833938251593 0.016145203729942666 0.9896613605294907 -0.09019365604874766 0.008204581940463317 0.03874477982444682
0.1438099208003 0.008596427568332798 0.0404207118307185 0.9891045910720716 -0.09418524244984522 0.002660212725474934 0.016848923570377882 -0.002290645982379113 -0.011004818938398353
 0.9891045910720716 -0.09418524244984522 0.008601426702221767 0.040420059769930676 -0.0022916378051969985 -0.011004720733009095 0.002638738252976878 0.016852207960134175
 0.002660212725474934 0.016848923570377882 -0.0022916378051969985 -0.011004720733009095 0.008596351595605744 0.04042260204893728 0.9891047021105491 -0.0941833264305452
 -0.002290645982379113 -0.011004818938398353 0.002638738252976878 0.016852207960134175 0.9891047021105491 -0.0941833264305452 0.008601716886095274 0.04042197737582482
0.1500625260525 0.009006472352882907 0.0420890655195782 0.9885291630182325 -0.09816491707329866 0.002849358301584265 0.017552640524950064 -0.0024491893255144895 -0.011457176435857048
 0.9885291630182325 -0.09816491707329866 0.0090119144663062 0.04208836126679953 -0.0024502681109127263 -0.011457064966717978 0.0028260111003917472 0.017556273707102707
 0.002849358301584265 0.017552640524950064 -0.0024502681109127263 -0.011457064966717978 0.009006388718564975 0.04209103662100135 0.9885292836657443 -0.09816291779311391
 -0.0024491893255144895 -0.011457176435857048 0.0028260111003917472 0.017556273707102707 0.9885292836657443 -0.09816291779311391 0.00901223044715532 0.042090361313127524
0.15631513130469998 0.009429737902540439 0.043748477161098615 0.9879351161738058 -0.1021344179325179 0.003045434347605807 0.01825332490453025 -0.0026134671605808238 -0.011906727822105253
 0.9879351161738058 -0.1021344179325179 0.009435641712670485 0.04374771767982101 -0.0026146364741768064 -0.011906601994060274 0.0030201392687862877 0.018257331408130087
