! Created with skrf 1.8.0 (http://scikit-rf.org).
# GHz S RI R 50.0 
!freq ReS11 ImS11 ReS12 ImS12 ReS13 ImS13
! ReS14 ImS14
! ReS21 ImS21 ReS22 ImS22 ReS23 ImS23
! ReS24 ImS24
! ReS31 ImS31 ReS32 ImS32 ReS33 ImS33
! ReS34 ImS34
! ReS41 ImS41 ReS42 ImS42 ReS43 ImS43
! ReS44 ImS44
!
0.0 0.001550265465143 0.0 0.9984497345292 0.0 5.992322861709e-05 0.0 -5.992322843989e-05 7.338478990348693e-21
 0.9984497345292 0.0 0.001550265465138 0.0 -5.992322843945e-05 7.338478990294809e-21 5.992322861752e-05 0.0
 5.992322861709e-05 0.0 -5.992322843945e-05 7.338478990294809e-21 0.001550265459461 0.0 0.9984497345235 0.0
 -5.992322843989e-05 7.338478990348693e-21 5.992322861752e-05 0.0 0.9984497345235 0.0 0.001550265459477 0.0
0.005 0.0016680094320773375 0.0012661143773759196 0.9983007742271789 -0.003247463228783668 8.424027390459705e-05 0.0006731458680371533 -8.178654125839809e-05 -0.00042025825431077867
 0.9983007742271789 -0.003247463228783668 0.0016680020972646517 0.0012661186387545877 -8.178295182576089e-05 -0.0004202554890933265 8.429878079055088e-05 0.0006731236298997006
 8.424027390459705e-05 0.0006731458680371533 -8.178295182576089e-05 -0.0004202554890933265 0.0016680109629221209 0.0012660461881750418 0.9983007738710373 -0.003247530286610746
 -8.178654125839809e-05 -0.00042025825431077867 8.429878079055088e-05 0.0006731236298997006 0.9983007738710373 -0.003247530286610746 0.00166799985847392 0.00126605271561327
0.006252605252188 0.0016988981390763836 0.001587632366895375 0.9982614508777662 -0.004060123145792181 9.11764819799862e-05 0.0008417529609066343 -8.79636423899475e-05 -0.0005258686220353342
 0.9982614508777662 -0.004060123145792181 0.0016988866736194343 0.0015876377885419256 -8.795805699478027e-05 -0.0005258652124240849 9.126789408351684e-05 0.0008417240779735604
 9.11764819799862e-05 0.0008417529609066343 -8.795805699478027e-05 -0.0005258652124240849 0.0016989006062494583 0.0015875471217386935 0.9982614503946134 -0.004060206974587035
 -8.79636423899475e-05 -0.0005258686220353342 9.126789408351684e-05 0.0008417240779735604 0.9982614503946134 -0.004060206974587035 0.0016988832473138966 0.0015875553836851412
0.01250521050438 0.0018615495457074724 0.0032085890309404485 0.9980530251013762 -0.00812105300919212 0.00013089646217730408 0.0016838322261475112 -0.00012303453342406962 -0.0010542935615599838
 0.9980530251013762 -0.00812105300919212 0.0018615037663600063 0.0032086008129129776 -0.00012301252235611464 -0.0010542872568604777 0.00013126100920304084 0.0016837627540502457
 0.00013089646217730408 0.0016838322261475112 -0.00012301252235611464 -0.0010542872568604777 0.0018615599507849701 0.003208418774811736 0.9980530237188685 -0.008121220406314423
 -0.00012303453342406962 -0.0010542935615599838 0.00013126100920304084 0.0016837627540502457 0.9980530237188685 -0.008121220406314423 0.0018614906283340644 0.0032084363473017857
0.01875781575657 0.0020385767715168884 0.004852658404980599 0.9978241966424897 -0.012192673006953404 0.00017917625925293387 0.0025268155841449663 -0.00016524447203819674 -0.001584494787957953
 0.9978241966424897 -0.012192673006953404 0.002038473907104111 0.0048526775074102645 -0.00016519538714315158 -0.001584486202446397 0.00017999521084481048 0.0025266915275639497
 0.00017917625925293387 0.0025268155841449663 -0.00016519538714315158 -0.001584486202446397 0.0020386005871984073 0.004852403161240087 0.9978241939567322 -0.012192923902216735
 -0.00016524447203819674 -0.001584494787957953 0.00017999521084481048 0.0025266915275639497 0.9978241939567322 -0.012192923902216735 0.0020384448006855642 0.004852431213294674
0.02501042100875 0.0022303262634640365 0.00651753187125087 0.9975746946325147 -0.016276952751722546 0.000236109867703843 0.0033707408151512673 -0.0002146984296035666 -0.0021162262455793517
 0.9975746946325147 -0.016276952751722546 0.0022301435900500257 0.006517559267601589 -0.0002146117500938873 -0.002116216104022056 0.0002375645778635402 0.0033705459666805225
 0.000236109867703843 0.0033707408151512673 -0.0002146117500938873 -0.002116216104022056 0.002230368956805077 0.006517191623642073 0.997574690235548 -0.016277287096901086
 -0.0002146984296035666 -0.0021162262455793517 0.0002375645778635402 0.0033705459666805225 0.997574690235548 -0.016277287096901086 0.0022300922639444816 0.006517231431166885
0.03126302626094 0.002437130138311901 0.008202019265294258 0.9973042344585914 -0.02037473253482429 0.00030179160193095927 0.004215566534681727 -0.00027149836353373784 -0.002649315079845495
 0.9973042344585914 -0.02037473253482429 0.002436844965599799 0.00820205593998605 -0.0002713636743565421 -0.002649304218817153 0.0003040636721604079 0.004215282461952701
 0.00030179160193095927 0.004215566534681727 -0.0002713636743565421 -0.002649304218817153 0.002437197176889386 0.008201593944314368 0.9973042279414093 -0.02037515031732776
 -0.00027149836353373784 -0.002649315079845495 0.0003040636721604079 0.004215282461952701 0.9973042279414093 -0.02037515031732776 0.002436765174519524 0.008201646888059261
0.037515631513130004 0.0026593132975682495 0.009905342955555048 0.9970125251138373 -0.024486429184898618 0.0003763152266945328 0.005061220086594792 -0.0003357439647591043 -0.00318361375512016
 0.9970125251138373 -0.024486429184898618 0.002658902959309334 0.009905389902385441 -0.0003355509455142535 -0.0031836031234072615 0.0003795865769624179 0.005060826110247596
 0.0003763152266945328 0.005061220086594792 -0.0003355509455142535 -0.0031836031234072615 0.00265941015131922 0.009904832459796833 0.9970125160661986 -0.024486930406225873
 -0.0003357439647591043 -0.00318361375512016 0.0003795865769624179 0.005060826110247596 0.9970125160661986 -0.024486930406225873 0.002658788463737033 0.009904900024581938
0.043768236765320004 0.002897196173987285 0.011626923053141185 0.9966992721781307 -0.028612250787388226 0.00045977354633484246 0.00590761209911515 -0.0004075329217990992 -0.003718985504553724
 0.9966992721781307 -0.028612250787388226 0.002896638019695568 0.011626981274048334 -0.0004072713402397223 -0.003718976163272481 0.00046422644613959964 0.005907085268004138
 0.00045977354633484246 0.00590761209911515 -0.0004072713402397223 -0.003718976163272481 0.002897328315809227 0.011626327248140104 0.9966992601876242 -0.028612835463815715
 -0.0004075329217990992 -0.003718985504553724 0.00046422644613959964 0.005907085268004138 0.9966992601876242 -0.028612835463815715 0.0028964825849834438 0.011626411022978289
0.050020842017509996 0.003151096005136749 0.013366288612689462 0.9963641793295142 -0.032752285411534125 0.0005522581536960888 0.0067546425038538865 -0.00048696101485471956 -0.004255298317712483
 0.9963641793295142 -0.032752285411534125 0.003150367393003979 0.01336635911672597 -0.0004866207227403584 -0.004255291440358788 0.0005580752322205247 0.0067539575691413995
 0.0005522581536960888 0.0067546425038538865 -0.0004866207227403584 -0.004255291440358788 0.003151268912077375 0.013365607335010101 0.9963641639819025 -0.032752953569597655
 -0.00048696101485471956 -0.004255298317712483 0.0005580752322205247 0.0067539575691413995 0.9963641639819025 -0.032752953569597655 0.0031501647897183354 0.013365709013320595
0.055454545454549996 0.0033849948441050893 0.014891977822089803 0.9960550059027309 -0.03636165405985105 0.0006400306208649389 0.0074911724740574495 -0.0005622633147959909 -0.004722033530482561
 0.9960550059027309 -0.03636165405985105 0.0033840997125907167 0.014892059824940913 -0.0005618464423008438 -0.004722029834650262 0.0006471818069087415 0.00749032783307553
 0.0006400306208649389 0.0074911724740574495 -0.0005618464423008438 -0.004722029834650262 0.0033852076279169206 0.014891222104565153 0.9960549872986072 -0.036362394801372995
 -0.0005622633147959909 -0.004722033530482561 0.0006471818069087415 0.00749032783307553 0.9960549872986072 -0.036362394801372995 0.0033838510631546475 0.014891340798310056
0.056273447269699996 0.0034213274863999937 0.015123034073694159 0.9960069492377803 -0.03690654459809033 0.0006538592492016216 0.007602203489320213 -0.0005741221341465729 -0.004792421996462825
 0.9960069492377803 -0.03690654459809033 0.0034204057764257827 0.015123117876239508 -0.0005736930644133149 -0.004792418868897813 0.0006612234928600133 0.007601332878157975
 0.0006538592492016216 0.007602203489320213 -0.0005736930644133149 -0.004792418868897813 0.0034215466390483816 0.015122267122355893 0.9960069301153858 -0.03690729628263432
 -0.0005741221341465729 -0.004792421996462825 0.0006612234928600133 0.007601332878157975 0.9960069301153858 -0.03690729628263432 0.003420149779963058 0.015122388502556903
0.06252605252188 0.0037082031164717075 0.016896795295937794 0.9956272841547466 -0.04107498725604009 0.0007646654960289686 0.008450181126067144 -0.0006691082584170314 -0.005330226542826608
 0.9956272841547466 -0.04107498725604009 0.0037070656639329644 0.01689689341806402 -0.0006685804233820597 -0.005330228563244147 0.0007737602373639617 0.008449094915185555
 0.0007646654960289686 0.008450181126067144 -0.0006685804233820597 -0.005330228563244147 0.003708474000813297 0.016895942442988438 0.9956272608375684 -0.04107582251905852
 -0.0006691082584170314 -0.005330226542826608 0.0007737602373639617 0.008449094915185555 0.9956272608375684 -0.04107582251905852 0.0037067500558590843 0.01689608542935264
0.06877865777407 0.004012033379627126 0.018687235280775354 0.9952248863452408 -0.045257533877245994 0.000884763893456321 0.009298456339345052 -0.00077200941229243 -0.0058685812035058375
 0.9952248863452408 -0.045257533877245994 0.004010657528530715 0.01868734874888537 -0.0007713729023811668 -0.005868589882383691 0.000895772794148199 0.009297122228735692
 0.000884763893456321 0.009298456339345052 -0.0007713729023811668 -0.005868589882383691 0.004012361486164178 0.018686296265558545 0.9952248584090657 -0.045258452783098084
 -0.00077200941229243 -0.0058685812035058375 0.000895772794148199 0.009297122228735692 0.9952248584090657 -0.045258452783098084 0.004010276095999703 0.018686462869253895
0.07503126302626001 0.004333126826169583 0.020494035116272374 0.9947994584195703 -0.04945407553187345 0.0010142396623624543 0.010146905531446525 -0.000882913609126701 -0.006407353869211793
 0.9947994584195703 -0.04945407553187345 0.004331489902964265 0.020494164961932567 -0.0008821585921093648 -0.006407370829240474 0.001027346691700647 0.0101452888182496
 0.0010142396623624543 0.010146905531446525 -0.0008821585921093648 -0.006407370829240474 0.004333517650901714 0.020493009644591657 0.994799425436628 -0.04945507815745169
 -0.000882913609126701 -0.006407353869211793 0.001027346691700647 0.0101452888182496 0.994799425436628 -0.04945507815745169 0.00433103643966543 0.020493201985027954
0.08128386827845 0.004671790092846308 0.022316887957506058 0.9943507036103374 -0.05366447983357821 0.001153176137986285 0.01099540099726234 -0.0010019067846236236 -0.006946410685533043
 0.9943507036103374 -0.05366447983357821 0.004669869399768977 0.02231703521745794 -0.001001023505056869 -0.006946437661545479 0.001168565547791242 0.010993464549950474
 0.001153176137986285 0.01099540099726234 -0.001001023505056869 -0.006946437661545479 0.004672249136964158 0.022315775701324748 0.994350665148077 -0.05366556626800726
 -0.0010019067846236236 -0.006946410685533043 0.001168565547791242 0.010993464549950474 0.994350665148077 -0.05366556626800726 0.004669337706696641 0.022315996007566848
0.08753647353064001 0.005028327881079293 0.024155494856377278 0.9938783260102891 -0.05788859506050844 0.0013016546660460948 0.011843811222630441 -0.0011290727251996905 -0.007485615786004682
 0.9938783260102891 -0.05788859506050844 0.005026100689893227 0.024155660572785488 -0.0011280515042817927 -0.007485654624878062 0.0013195109627373695 0.011841515455567454
 0.0013016546660460948 0.011843811222630441 -0.0011280515042817927 -0.007485654624878062 0.005028860651958993 0.024154295457428494 0.9938782816319938 -0.057889765400906096
 -0.0011290727251996905 -0.007485615786004682 0.0013195109627373695 0.011841515455567454 0.9938782816319938 -0.057889765400906096 0.005025484576201157 0.02415454606998696
0.09378907878283 0.005403042907660158 0.02600956179383519 0.9933820307862355 -0.06212625307958495 0.0014597545030314261 0.012692001099687152 -0.0012644929908326487 -0.008024831113297378
 0.9933820307862355 -0.06212625307958495 0.00540048645294547 0.02600974701478342 -0.00126332422628522 -0.008024883773854357 0.0014802624172469317 0.012689303948060355
 0.0014597545030314261 0.012692001099687152 -0.00126332422628522 -0.008024883773854357 0.005403654917935284 0.026008274859972983 0.9933819800494742 -0.06212750743401214
 -0.0012644929908326487 -0.008024831113297378 0.0014802624172469317 0.012689303948060355 0.9933819800494742 -0.06212750743401214 0.005399779736270709 0.026008558232728813
0.100041684035 0.005796235833523707 0.027878797502747774 0.9928615243752114 -0.06637727148593998 0.001627552717547844 0.013539832094517807 -0.0014082468352784355 -0.008563916293390449
 0.9928615243752114 -0.06637727148593998 0.00579332730643704 0.02787900328292297 -0.0014069210015742574 -0.008563984846266144 0.0016508971717880852 0.013536688989828452
 0.001627552717547844 0.013539832094517807 -0.0014069210015742574 -0.008563984846266144 0.005796932601838482 0.027877422606333573 0.9928614668317682 -0.0663786099742767
 -0.0014082468352784355 -0.008563916293390449 0.0016508971717880852 0.013536688989828452 0.9928614668317682 -0.0663786099742767 0.005792523813626498 0.027877741308784183
0.1059090909091 0.006182277085405385 0.029646414309937526 0.9923508042798022 -0.07037837890764732 0.0017939007594876763 0.014334978863419738 -0.0015507923721604971 -0.009069545040327748
 0.9923508042798022 -0.07037837890764732 0.006179017386657433 0.02964664034871668 -0.001549310550883781 -0.009069630489167696 0.0018200753313382992 0.014331374493064944
 0.0017939007594876763 0.014334978863419738 -0.001549310550883781 -0.009069630489167696 0.006183058414828766 0.02964495645054542 0.9923507399363948 -0.07037979646463965
 -0.0015507923721604971 -0.009069545040327748 0.0018200753313382992 0.014331374493064944 0.9923507399363948 -0.07037979646463965 0.0061781174747843875 0.02964531074817841
0.1062942892872 0.006208205178304884 0.029762911825891556 0.9923165146680866 -0.07064145521341207 0.0018051240937033246 0.014387162378231969 -0.001560411123478485 -0.009102728551800814
 0.9923165146680866 -0.07064145521341207 0.006204921719666649 0.029763139227564253 -0.0015589187720262945 -0.009102815179314003 0.001831490167891972 0.014383526224182805
 0.0018051240937033246 0.014387162378231969 -0.0015589187720262945 -0.009102815179314003 0.006208992229439498 0.029761448505112108 0.9923164498640702 -0.07064287796542587
 -0.001560411123478485 -0.009102728551800814 0.001831490167891972 0.014383526224182805 0.9923164498640702 -0.07064287796542587 0.00620401528815116 0.02976180522475767
0.11254689453939999 0.006639247223343921 0.031661614472102965 0.9917467111867961 -0.07491859775333766 0.001992541034933107 0.01523384693884045 -0.0017210602471656757 -0.00964112265454205
 0.9917467111867961 -0.07491859775333766 0.006635565917464699 0.031661864566242766 -0.0017193920067053907 -0.009641229650536742 0.0020221139306554827 0.015229668087843994
 0.001992541034933107 0.01523384693884045 -0.0017193920067053907 -0.009641229650536742 0.006640130088146316 0.03166006222884818 0.9917466386616495 -0.07492010490989251
 -0.0017210602471656757 -0.00964112265454205 0.0020221139306554827 0.015229668087843994 0.9917466386616495 -0.07492010490989251 0.006634550395800563 0.03166045977388661
0.11879949979160001 0.007089655905385572 0.033574614046285464 0.9911518252536692 -0.0792084821057317 0.0021898734689939844 0.016079737672149364 -0.001890266038929635 -0.01017895087576166
 0.9911518252536692 -0.0792084821057317 0.007085553772852334 0.03357488791414627 -0.001888412615989035 -0.010179080645441346 0.0022228384719099 0.01607496390240052
 0.0021898734689939844 0.016079737672149364 -0.001888412615989035 -0.010179080645441346 0.007090640120821849 0.0335729723469886 0.9911517445397603 -0.07921007381739428
 -0.001890266038929635 -0.01017895087576166 0.0022228384719099 0.01607496390240052 0.9911517445397603 -0.07921007381739428 0.007084423021599955 0.0335734136492453
0.1250521050438 0.007559722702710232 0.03550161728507896 0.9905315701568326 -0.08351088153194355 0.0023971887532415023 0.016924683467678725 -0.002068097685083515 -0.01071606297613818
 0.9905315701568326 -0.08351088153194355 0.007555176694095439 0.035501916019790775 -0.002066049864493075 -0.010716218035880385 0.002433731194417794 0.01691925996081061
 0.0023971887532415023 0.016924683467678725 -0.002066049864493075 -0.010716218035880385 0.0075608138117898615 0.035499885558820415 0.9905314807789805 -0.0835125579598737
 -0.002068097685083515 -0.01071606297613818 0.002433731194417794 0.01691925996081061 0.9905314807789805 -0.0835125579598737 0.007553924586683543 0.03550037367694811
0.131304710296 0.008049736516108918 0.03744232844649214 0.989885661312756 -0.08782556015991004 0.0026145515805683878 0.017768530281254007 -0.002254621637820501 -0.01125230620052242
 0.989885661312756 -0.08782556015991004 0.008044723504853496 0.03744265315509678 -0.0022523702833468122 -0.011252489177650302 0.002654856796289933 0.017762399600711253
 0.0026145515805683878 0.017768530281254007 -0.0022523702833468122 -0.011252489177650302 0.008050940068094547 0.03744050608430502 0.9898855627882113 -0.0878273214759117
 -0.002254621637820501 -0.01125230620052242 0.002654856796289933 0.017762399600711253 0.9898855627882113 -0.0878273214759117 0.008043343928971535 0.037441044207198966
0.1375573155481 0.008448248047007802 0.03914301990139688 0.9893255978512262 -0.09189872033915306 0.0028145512759615667 0.018585666614712018 -0.0024223879001840447 -0.011762123434951022
 0.9893255978512262 -0.09189872033915306 0.008442742514866496 0.03914336278120532 -0.002419919448459683 -0.011762334561642742 0.0028587100908470907 0.018578837333150227
 0.0028145512759615667 0.018585666614712018 -0.002419919448459683 -0.011762334561642742 0.008449568929490453 0.039141106210834914 0.9893254897612694 -0.09190056662143548
 -0.0024223879001840447 -0.011762123434951022 0.0028587100908470907 0.018578837333150227 0.9893254897612694 -0.09190056662143548 0.008441229904888438 0.0391416886324371
0.1438099208003 0.008860800715240529 0.040834631941154845 0.9887458040372521 -0.09596144162586309 0.0030226215395836 0.019399483449976742 -0.002596865886770087 -0.012268864941483219
 0.9887458040372521 -0.09596144162586309 0.008854779064153726 0.04083499357094932 -0.0025941705177272736 -0.012269106804171724 0.0030708022253502464 0.01939190305145393
 0.0030226215395836 0.019399483449976742 -0.0025941705177272736 -0.012269106804171724 0.008862244367531294 0.04083262629548289 0.98874568590126 -0.09596337303773009
 -0.002596865886770087 -0.012268864941483219 0.0030708022253502464 0.01939190305145393 0.98874568590126 -0.09596337303773009 0.008853127424530257 0.04083325573986636
0.1500625260525 0.009287247904672896 0.04251701968010035 0.988146430727697 -0.10001361967445124 0.0032386896932037 0.020209897305853056 -0.0027779842172549513 -0.012772450466224626
 0.988146430727697 -0.10001361967445124 0.009280686449741837 0.04251740070176305 -0.0027750521333222066 -0.012772725755201537 0.003291059432367113 0.020201511375055083
 0.0032386896932037 0.020209897305853056 -0.0027750521333222066 -0.012772725755201537 0.009288819764501044 0.04251492142583693 0.9881463020585637 -0.10001563638541544
 -0.0027779842172549513 -0.012772450466224626 0.003291059432367113 0.020201511375055083 0.9881463020585637 -0.10001563638541544 0.009278889804106983 0.042515600767956976
0.15631513130469998 0.009727441939193058 0.044190042591759106 0.9875276295696788 -0.10405515058175434 0.0034626821914964545 0.021016826142583045 -0.0029656706205204073 -0.013272801469116335
 0.9875276295696788 -0.10405515058175434 0.009720316906324668 0.04419044371402312 -0.0029624920468862585 -0.013273112978029316 0.0035194070592613194 0.02100757838673707
