! Created with skrf 1.8.0 (http://scikit-rf.org).
# GHz S RI R 50.0 
!freq ReS11 ImS11 ReS12 ImS12 ReS13 ImS13
! ReS14 ImS14
! ReS21 ImS21 ReS22 ImS22 ReS23 ImS23
! ReS24 ImS24
! ReS31 ImS31 ReS32 ImS32 ReS33 ImS33
! ReS34 ImS34
! ReS41 ImS41 ReS42 ImS42 ReS43 ImS43
! ReS44 ImS44
!
0.0 0.001277865255649 0.0 0.9987221347355 0.0 4.924426252179e-05 0.0 -4.924426238875e-05 6.030682831075508e-21
 0.9987221347355 0.0 0.001277865255663 0.0 -4.924426238879e-05 6.030682831080407e-21 4.924426252228e-05 0.0
 4.924426252179e-05 0.0 -4.924426238879e-05 6.030682831080407e-21 0.001277865254759 0.0 0.9987221347346 0.0
 -4.924426238875e-05 6.030682831075508e-21 4.924426252228e-05 0.0 0.9987221347346 0.0 0.001277865254773 0.0
0.005 0.0013743197016196594 0.001038404129479129 0.9986001873866913 -0.002677984346630353 6.972672646229495e-05 0.0005877409642730397 -6.752202025223872e-05 -0.0003611518493731554
 0.9986001873866913 -0.002677984346630353 0.0013743172446245694 0.0010384055685615044 -6.752398129055163e-05 -0.0003611533828249457 6.974032986856716e-05 0.0005877358837898864
 6.972672646229495e-05 0.0005877409642730397 -6.752398129055163e-05 -0.0003611533828249457 0.001374318242574022 0.001038337759174214 0.9986001870490482 -0.002678051407753962
 -6.752202025223872e-05 -0.0003611518493731554 6.974032986856716e-05 0.0005877358837898864 0.9986001870490482 -0.002678051407753962 0.0013743180342759567 0.0010383378227642086
0.006252605252188 0.0013994303191590314 0.0013021511736021044 0.9985682676546267 -0.003348168072071666 7.546760982530858e-05 0.000734952639007343 -7.259819423271095e-05 -0.00045192873721937744
 0.9985682676546267 -0.003348168072071666 0.001399426478075471 0.0013021529684928335 -7.260124559947562e-05 -0.00045193062919704415 7.548886527805992e-05 0.0007349460332234302
 7.546760982530858e-05 0.000734952639007343 -7.260124559947562e-05 -0.00045193062919704415 0.001399428110392655 0.001302068223419294 0.9985682671990758 -0.0033482518922422727
 -7.259819423271095e-05 -0.00045192873721937744 7.548886527805992e-05 0.0007349460332234302 0.9985682671990758 -0.0033482518922422727 0.0013994277851175298 0.0013020682918384208
0.01250521050438 0.0015305323815253341 0.002632134739449845 0.9984006440198845 -0.00669735281553394 0.00010780466100881439 0.001470202212310173 -0.00010094728502449556 -0.0009062177243833253
 0.9984006440198845 -0.00669735281553394 0.0015305170395700897 0.0026321382904656624 -0.00010095930851138562 -0.0009062212399836206 0.00010788946214732868 0.0014701862881223997
 0.00010780466100881439 0.001470202212310173 -0.00010095930851138562 -0.0009062212399836206 0.0015305241369921805 0.0026319691677024084 0.998400642778611 -0.006697520219110765
 -0.00010094728502449556 -0.0009062177243833253 0.00010788946214732868 0.0014701862881223997 0.998400642778611 -0.006697520219110765 0.001530522844187566 0.0026319691790401495
0.01875781575657 0.0016714189356574567 0.003981560708007315 0.9982190833658797 -0.01005575341333237 0.00014632320795679741 0.002206318252380349 -0.00013437110446425261 -0.0013621762416291168
 0.9982190833658797 -0.01005575341333237 0.0016713844531555998 0.003981565988706621 -0.00013439791570526392 -0.0013621810702500986 0.000146513797657316 0.0022062898530916322
 0.00014632320795679741 0.002206318252380349 -0.00013439791570526392 -0.0013621810702500986 0.0016714008211876146 0.003981312742158269 0.9982190809920136 -0.010056004338398115
 -0.00013437110446425261 -0.0013621762416291168 0.000146513797657316 0.0022062898530916322 0.9982190809920136 -0.010056004338398115 0.0016713979283003908 0.003981312532983558
0.02501042100875 0.0018223321759681585 0.005348564177405538 0.9980233992749091 -0.013425037739690612 0.00019109207315838006 0.002943370676341452 -0.00017294705731367468 -0.0018196095811439889
 0.9980233992749091 -0.013425037739690612 0.0018222709220966705 0.005348571169276227 -0.0001729944027340005 -0.001819615363919812 0.00019143076987167612 0.002943326215234254
 0.00019109207315838006 0.002943370676341452 -0.0001729944027340005 -0.001819615363919812 0.0018223003711612352 0.0053482340756212925 0.9980233954293343 -0.013425372166002297
 -0.00017294705731367468 -0.0018196095811439889 0.00019143076987167612 0.002943326215234254 0.9980233954293343 -0.013425372166002297 0.0018222952535414559 0.005348233443112951
0.03126302626094 0.0019835040243758348 0.006732204885440315 0.9978133945293155 -0.016805942775522054 0.0002421808515952034 0.0036813569518862562 -0.0002167506123375861 -0.002278391886914735
 0.9978133945293155 -0.016805942775522054 0.001983408372279695 0.006732213577020694 -0.0002168241812765429 -0.002278398215905894 0.00024271008931709307 0.0036812924085540297
 0.0002421808515952034 0.0036813569518862562 -0.0002168241812765429 -0.002278398215905894 0.0019834547094063786 0.006731792949370483 0.9978133888683158 -0.01680636071193883
 -0.0002167506123375861 -0.002278391886914735 0.00024271008931709307 0.0036812924085540297 0.9978133888683158 -0.01680636071193883 0.0019834467486037725 0.00673179165047088
0.037515631513130004 0.0021551615436623426 0.008131884511546035 0.9975888666385755 -0.0201988572572287 0.00029965921203971524 0.004420246490405608 -0.0002658559325304949 -0.002738421752976916
 0.9975888666385755 -0.0201988572572287 0.0021550238678941427 0.008131894897961251 -0.00026596136355153366 -0.0027384281709301986 0.0003004215599461207 0.004420157405298622
 0.00029965921203971524 0.004420246490405608 -0.00026596136355153366 -0.0027384281709301986 0.002155090902237411 0.008131391092778427 0.997588858816252 -0.020199358735747543
 -0.0002658559325304949 -0.002738421752976916 0.0003004215599461207 0.004420157405298622 0.997588858816252 -0.020199358735747543 0.0021550794847690195 0.008131388843220975
0.043768236765320004 0.0023375290430863623 0.00954716934265905 0.9973496100584971 -0.023603998955735596 0.0003635965846311251 0.00515999413545181 -0.00032033611071362946 -0.003199608724374747
 0.9973496100584971 -0.023603998955735596 0.002337341716811366 0.009547181425481383 -0.0003204789953478451 -0.0031996147246206247 0.00036463475792868473 0.005159875603818748
 0.0003635965846311251 0.00515999413545181 -0.0003204789953478451 -0.0031996147246206247 0.0023374332622342225 0.009546594837871214 0.9973495997266537 -0.02360458403693369
 -0.00032033611071362946 -0.003199608724374747 0.00036463475792868473 0.005159875603818748 0.9973495997266537 -0.02360458403693369 0.00233741777803682 0.009546591311316317
0.050020842017509996 0.002530829062692589 0.010977716993978339 0.9970954172918908 -0.027021487898946733 0.0004340619793522855 0.005900545737331385 -0.0003802632701835105 -0.003661867712086229
 0.9970954172918908 -0.027021487898946733 0.0025305844559559833 0.010977730781108476 -0.00038044915541760775 -0.0036618727384993394 0.0004354188457246398 0.005900392402949826
 0.0004340619793522855 0.005900545737331385 -0.00038044915541760775 -0.0036618727384993394 0.0025307043318807225 0.010977061857369363 0.9970954040977126 -0.027022156660110402
 -0.0003802632701835105 -0.003661867712086229 0.0004354188457246398 0.005900392402949826 0.9970954040977126 -0.027022156660110402 0.002530684173136123 0.010977056684582312
0.055454545454549996 0.0027078630683215715 0.012233077620632317 0.9968622239117467 -0.03000146316574774 0.0005006532855013487 0.006544713639475228 -0.000436820717345862 -0.004064391306038819
 0.9968622239117467 -0.03000146316574774 0.002707562482867211 0.012233092900170068 -0.00043704844295811457 -0.004064394996096091 0.0005023220406705892 0.006544525355046855
 0.0005006532855013487 0.006544713639475228 -0.00043704844295811457 -0.004064394996096091 0.002707710087633114 0.012232352826834398 0.9968622079410182 -0.03000220472280701
 -0.000436820717345862 -0.004064391306038819 0.0005023220406705892 0.006544525355046855 0.9968622079410182 -0.03000220472280701 0.0027076853733542946 0.012232345889658588
0.056273447269699996 0.0027352828881457123 0.01242324044341869 0.9968260795200318 -0.03045138228025704 0.0005111238641348802 0.006641840885438518 -0.0004457086035009922 -0.004125116251233017
 0.9968260795200318 -0.03045138228025704 0.002734973365955357 0.012423255949066701 -0.00044594299350864743 -0.004125119698215486 0.0005128424472011336 0.006641646934150904
 0.0005111238641348802 0.006641840885438518 -0.00044594299350864743 -0.004125119698215486 0.002735125401014094 0.012422505187535479 0.9968260631075204 -0.0304521348152057
 -0.0004457086035009922 -0.004125116251233017 0.0005128424472011336 0.006641646934150904 0.9968260631075204 -0.0304521348152057 0.0027350999603894493 0.0124224979556048
0.06252605252188 0.0029511108411825167 0.013883488254974754 0.9965413870131722 -0.033893698178996026 0.0005948500726580736 0.007383814402926338 -0.0005167423795071262 -0.0045892729983070734
 0.9965413870131722 -0.033893698178996026 0.0029507287619673166 0.013883505499675701 -0.0005170307368614323 -0.004589274210791183 0.0005969735538844388 0.007383573556125688
 0.0005948500726580736 0.007383814402926338 -0.0005170307368614323 -0.004589274210791183 0.00295091679497397 0.013882673445021499 0.9965413670212697 -0.033894534604325136
 -0.0005167423795071262 -0.0045892729983070734 0.0005969735538844388 0.007383573556125688 0.9965413670212697 -0.033894534604325136 0.002950885464426872 0.013882663696557508
0.06877865777407 0.0031785324412029444 0.01535823278516952 0.9962411294134772 -0.03734842129891162 0.00068530772718762 0.00812639723945472 -0.0005934339338881986 -0.005054256831984838
 0.9962411294134772 -0.03734842129891162 0.0031780701550164193 0.015358251795846446 -0.0005937816804394043 -0.005054255105437425 0.0006878794463942664 0.008126102747485788
 0.00068530772718762 0.00812639723945472 -0.0005937816804394043 -0.005054255105437425 0.0031782980377194057 0.015357339047279955 0.9962411054761067 -0.03734934174632744
 -0.0005934339338881986 -0.005054256831984838 0.0006878794463942664 0.008126102747485788 0.9962411054761067 -0.03734934174632744 0.003178260206734161 0.015357326279732401
0.07503126302626001 0.0034177664973138893 0.016847262711908145 0.9959250959511233 -0.04081551438585277 0.000782563171463869 0.008869517035031532 -0.0006758516481718944 -0.005519986284639194
 0.9959250959511233 -0.04081551438585277 0.00341721634419257 0.01684728352199171 -0.0006762641656475206 -0.005519980865084292 0.00078562662647132 0.00886916167056162
 0.000782563171463869 0.008869517035031532 -0.0006762641656475206 -0.005519980865084292 0.0034174879431684763 0.016846290728577584 0.9959250676965395 -0.04081651900726282
 -0.0006758516481718944 -0.005519986284639194 0.00078562662647132 0.00886916167056162 0.9959250676965395 -0.04081651900726282 0.0034174429975813987 0.01684627439344598
0.08128386827845 0.003669031152702294 0.018350378051765873 0.995593075614824 -0.04429492215866491 0.0008866819091323874 0.009613098495257504 -0.0007640629218423923 -0.005986379164397467
 0.995593075614824 -0.04429492215866491 0.003668385461286626 0.018350400701312594 -0.0007645455523830087 -0.005986369248435801 0.0008902807546965024 0.009612674546618304
 0.0008866819091323874 0.009613098495257504 -0.0007645455523830087 -0.005986369248435801 0.0036687046606155146 0.018349328566376468 0.9955930426655755 -0.04429601112230038
 -0.0007640629218423923 -0.005986379164397467 0.0008902807546965024 0.009612674546618304 0.9955930426655755 -0.04429601112230038 0.003668651980561232 0.018349308068582777
0.08753647353064001 0.003932543900228948 0.019867386727708318 0.9952448572960036 -0.04778657469184713 0.0009977285457960737 0.010357063649173876 -0.0008581341396853738 -0.006453352296634523
 0.9952448572960036 -0.04778657469184713 0.003931794986206989 0.01986741126360845 -0.0008586921861035126 -0.00645333703147289 0.0010019065920330136 0.010356562913679616
 0.0009977285457960737 0.010357063649173876 -0.0008586921861035126 -0.00645333703147289 0.0039321656884891785 0.019866260541338977 0.9952448192669974 -0.04778774818592108
 -0.0008581341396853738 -0.006453352296634523 0.0010019065920330136 0.010356562913679616 0.9952448192669974 -0.04778774818592108 0.003932104647308813 0.01986623523852359
0.09378907878283 0.004208521576435613 0.021398102098145147 0.9948802299123096 -0.0512903898386817 0.0011157667337003538 0.011101332037403587 -0.0009581306353242372 -0.006920821337289298
 0.9948802299123096 -0.0512903898386817 0.004207661740811182 0.0213981285743176 -0.0009587693613688919 -0.006920799820769729 0.0011205679438973722 0.011100745814669006
 0.0011157667337003538 0.011101332037403587 -0.0009587693613688919 -0.006920799820769729 0.004208087870748711 0.021396900075397268 0.9948801864119732 -0.05129164806610285
 -0.0009581306353242372 -0.006920821337289298 0.0011205679438973722 0.011100745814669006 0.9948801864119732 -0.05129164806610285 0.004208017832774097 0.021396869277378043
0.100041684035 0.004497180340772509 0.022942341161509176 0.9944989825203101 -0.054806274981386544 0.0012408591176845743 0.011845820846215705 -0.001064116652281853 -0.007388700642495704
 0.9944989825203101 -0.054806274981386544 0.004496201868491086 0.02294236963916217 -0.00106484128275565 -0.007388671923138948 0.00124632760595477 0.011845139931468776
 0.0012408591176845743 0.011845820846215705 -0.00106484128275565 -0.007388671923138948 0.004496687374348332 0.02294106422587518 0.9944989331489728 -0.054807618164839894
 -0.001064116652281853 -0.007388700642495704 0.00124632760595477 0.011845139931468776 0.9944989331489728 -0.054807618164839894 0.004496607693530896 0.022941027193965815
0.1059090909091 0.004779781217023078 0.02440358436741111 0.9941259188711541 -0.05811644727637378 0.0013647156387153374 0.012544569358915037 -0.0011690769266730209 -0.007828051357309735
 0.9941259188711541 -0.05811644727637378 0.004778684384437366 0.02440361478566444 -0.0011698868865994668 -0.007828014969593905 0.0013708505498243974 0.012543790758918276
 0.0013647156387153374 0.012544569358915037 -0.0011698868865994668 -0.007828014969593905 0.004779229222474123 0.024402238029946306 0.9941258636197319 -0.05811787039906917
 -0.0011690769266730209 -0.007828051357309735 0.0013708505498243974 0.012543790758918276 0.9941258636197319 -0.05811787039906917 0.004779139894542982 0.02440219443272678
0.1062942892872 0.004798735644426418 0.024499923187455714 0.9941009044186715 -0.05833412835671648 0.0013730672823356526 0.012590445014720947 -0.001176155302986353 -0.007856903167366208
 0.9941009044186715 -0.05833412835671648 0.004797630802812972 0.024499953735383516 -0.0011769710238042112 -0.007856866244413372 0.0013792473107537098 0.012589659692078049
 0.0013730672823356526 0.012590445014720947 -0.0011769710238042112 -0.007856866244413372 0.004798179659061285 0.024498572325973987 0.994100848768393 -0.058335556734538725
 -0.001176155302986353 -0.007856903167366208 0.0013792473107537098 0.012589659692078049 0.994100848768393 -0.058335556734538725 0.004798089677209733 0.024498528272491344
0.11254689453939999 0.005113402190720722 0.026070668685856196 0.993685785244764 -0.06187384004641862 0.0015124516997873409 0.01333511731438794 -0.0012943085260126725 -0.008325340394742656
 0.993685785244764 -0.06187384004641862 0.0051121632277874775 0.026070701380766018 -0.001295220484209202 -0.008325294218202257 0.0015193876752998194 0.01333421735018472
 0.0015124516997873409 0.01333511731438794 -0.001295220484209202 -0.008325294218202257 0.0051127794370327785 0.026069244944493 0.9936857228985634 -0.06187535387764397
 -0.0012943085260126725 -0.008325340394742656 0.0015193876752998194 0.01333421735018472 0.9936857228985634 -0.06187535387764397 0.005112678481963289 0.02606919303221925
0.11879949979160001 0.005441393888406267 0.02765439858554757 0.9932534150674145 -0.0654252927604855 0.0016590716779245178 0.01407974841600235 -0.0014186370420630182 -0.00879392227903978
 0.9932534150674145 -0.0654252927604855 0.0054400130313980635 0.02765443351245494 -0.0014196503457706918 -0.008793865749751703 0.0016668081489926495 0.014078723052118719
 0.0016590716779245178 0.01407974841600235 -0.0014196503457706918 -0.008793865749751703 0.0054407006271553855 0.027652903076955532 0.9932533455988234 -0.0654268923174691
 -0.0014186370420630182 -0.00879392227903978 0.0016668081489926495 0.014078723052118719 0.9932533455988234 -0.0654268923174691 0.0054405880108674655 0.027652842418646115
0.1250521050438 0.0057829238004391175 0.02925093359800623 0.992803584475624 -0.06898836243798175 0.0018129853088767038 0.01482424694244765 -0.0015492003087863903 -0.009262557206636617
 0.992803584475624 -0.06898836243798175 0.00578139325417188 0.029250970850590995 -0.001550320027146919 -0.00926248917632607 0.0018215669618805218 0.014823084889600643
 0.0018129853088767038 0.01482424694244765 -0.001550320027146919 -0.00926248917632607 0.005782156303216691 0.029249367494213512 0.992803507448019 -0.06899004801414732
 -0.0015492003087863903 -0.009262557206636617 0.0018215669618805218 0.014823084889600643 0.992803507448019 -0.06899004801414732 0.005782031319925722 0.02924929715217508
0.131304710296 0.006138204088345508 0.030860093696321866 0.9923360846656333 -0.07256291873552258 0.001974249417568603 0.01556851951532701 -0.0016860564747926629 -0.009731151965043074
 0.9923360846656333 -0.07256291873552258 0.0061365160335841665 0.030860133377450864 -0.0016872876378204694 -0.009731071236396006 0.0019837210729617984 0.015567208946440685
 0.001974249417568603 0.01556851951532701 -0.0016872876378204694 -0.009731071236396006 0.0061373586383275365 0.030858458235420765 0.9923359996319588 -0.0725646906389725
 -0.0016860564747926629 -0.009731151965043074 0.0019837210729617984 0.015567208946440685 0.9923359996319588 -0.0725646906389725 0.006137220562782878 0.030858377221106008
0.1375573155481 0.0064201813100817585 0.032269419412266076 0.9919379965049296 -0.07593647974169469 0.0021208077035846044 0.016289964062087083 -0.0018071384963772705 -0.010177122585681776
 0.9919379965049296 -0.07593647974169469 0.006418327947055008 0.032269462524173 -0.0018084885696379965 -0.010177029253419421 0.0021311885904894082 0.016288508190882196
 0.0021208077035846044 0.016289964062087083 -0.0018084885696379965 -0.010177029253419421 0.006419254712958608 0.03226771567324437 0.9919379031009259 -0.07593833816404057
 -0.0018071384963772705 -0.010177122585681776 0.0021311885904894082 0.016288508190882196 0.9919379031009259 -0.07593833816404057 0.006419101648041306 0.0322676240375703
0.1438099208003 0.006711852035105556 0.03367221496354392 0.9915263072334638 -0.07930243873265828 0.0022732965947070403 0.017009194933512748 -0.0019330940830787349 -0.010621070655004426
 0.9915263072334638 -0.07930243873265828 0.006709825523461656 0.03367226173432218 -0.0019345684793326083 -0.010620963560105983 0.0022846270909270875 0.017007583108123826
 0.0022732965947070403 0.017009194933512748 -0.0019345684793326083 -0.010620963560105983 0.006710840685026133 0.03367044422487575 0.9915262050132703 -0.07930438397922611
 -0.0019330940830787349 -0.010621070655004426 0.0022846270909270875 0.017007583108123826 0.9915262050132703 -0.07930438397922611 0.006710671676067908 0.033670341089643244
0.1500625260525 0.0070131254766192235 0.035068390817043604 0.9911011108081857 -0.08266074091822508 0.0024316716610923673 0.01772616131466486 -0.002063879955467775 -0.011062946889554816
 0.9911011108081857 -0.08266074091822508 0.007010917955017305 0.03506844148942255 -0.002065484079359774 -0.011062824826901511 0.002443991974303024 0.01772438249507414
 0.0024316716610923673 0.01772616131466486 -0.002065484079359774 -0.011062824826901511 0.007012025784808402 0.03506655440738052 0.9911009993166843 -0.08266277330779324
 -0.002063879955467775 -0.011062946889554816 0.002443991974303024 0.01772438249507414 0.9911009993166843 -0.08266277330779324 0.007011839846998521 0.03506643886448732
0.15631513130469998 0.007323910337181996 0.03645786030280378 0.9906625015170277 -0.08601133115861648 0.002595888036892257 0.018440813102166043 -0.002199452380358238 -0.01150270296126127
