! Created with skrf 1.8.0 (http://scikit-rf.org).
# GHz S RI R 50.0 
!freq ReS11 ImS11 ReS12 ImS12 ReS13 ImS13
! ReS14 ImS14
! ReS21 ImS21 ReS22 ImS22 ReS23 ImS23
! ReS24 ImS24
! ReS31 ImS31 ReS32 ImS32 ReS33 ImS33
! ReS34 ImS34
! ReS41 ImS41 ReS42 ImS42 ReS43 ImS43
! ReS44 ImS44
!
0.0 0.001357623219689 0.0 0.9986423767803 0.0 5.210668931059e-05 0.0 -5.210668925504e-05 6.381229021035051e-21
 0.9986423767803 0.0 0.001357623219683 0.0 -5.210668925525e-05 6.381229021060769e-21 5.210668931076e-05 0.0
 5.210668931059e-05 0.0 -5.210668925525e-05 6.381229021060769e-21 0.001357623213387 0.0 0.998642376774 0.0
 -5.210668925504e-05 6.381229021035051e-21 5.210668931076e-05 0.0 0.998642376774 0.0 0.001357623213377 0.0
0.005 0.001460224318550264 0.0011099945638003226 0.9985126520001307 -0.0028445294168193075 7.28446471651454e-05 0.0005800657673710051 -7.07832733127324e-05 -0.0003631429617339606
 0.9985126520001307 -0.0028445294168193075 0.0014602240829996605 0.0011099946496545578 -7.078114789889095e-05 -0.00036314130498999494 7.285665606960173e-05 0.0005800612434914685
 7.28446471651454e-05 0.0005800657673710051 -7.078114789889095e-05 -0.00036314130498999494 0.0014602258687442995 0.001110060888786231 0.9985126523411862 -0.0028444623501738416
 -7.07832733127324e-05 -0.0003631429617339606 7.285665606960173e-05 0.0005800612434914685 0.9985126523411862 -0.0028444623501738416 0.001460223211248605 0.0011100624548912954
0.006252605252188 0.0014869931482090614 0.0013918840840646542 0.9984786164807383 -0.003556379952384863 7.868256208603045e-05 0.0007253699746819165 -7.599134077651681e-05 -0.00045440781731468646
 0.9984786164807383 -0.003556379952384863 0.0014869927805164316 0.0013918841931353202 -7.598803361974485e-05 -0.00045440577356384044 7.870132554786691e-05 0.0007253640969900706
 7.868256208603045e-05 0.0007253699746819165 -7.598803361974485e-05 -0.00045440577356384044 0.001486995498704151 0.0013919669701342805 0.9984786169407809 -0.0035562961338081373
 -7.599134077651681e-05 -0.00045440781731468646 7.870132554786691e-05 0.0007253640969900706 0.9984786169407809 -0.0035562961338081373 0.0014869913442045674 0.001391968937289527
0.01250521050438 0.00162709296600932 0.002813171221225172 0.9982994196497159 -0.007113704023947171 0.0001117035682544401 0.0014511377846711565 -0.00010519214631164015 -0.0009111142860457979
 0.9982994196497159 -0.007113704023947171 0.0016270915048661625 0.0028131714440234558 -0.00010517911464765308 -0.0009111104935691697 0.00011177841116550672 0.001451123648198858
 0.0001117035682544401 0.0014511377846711565 -0.00010517911464765308 -0.0009111104935691697 0.0016271017977421863 0.0028133366792440118 0.9982994209290464 -0.007113536626793208
 -0.00010519214631164015 -0.0009111142860457979 0.00011177841116550672 0.001451123648198858 0.9982994209290464 -0.007113536626793208 0.001627085205061288 0.0028133407148519694
0.01875781575657 0.00177819955191372 0.004254949375144928 0.9981045842752263 -0.010680661161562032 0.00015124195797955656 0.0021778154861137795 -0.00013979281147795454 -0.0013694722830210329
 0.9981045842752263 -0.010680661161562032 0.0017781962831962682 0.004254949685551907 -0.00013976375192852053 -0.0013694670867631243 0.00015141012865239407 0.002177790294181951
 0.00015124195797955656 0.0021778154861137795 -0.00013976375192852053 -0.0013694670867631243 0.001778218982148474 0.004255197190361544 0.9981045867282484 -0.010680410270908948
 -0.00013979281147795454 -0.0013694722830210329 0.00015141012865239407 0.002177790294181951 0.9981045867282484 -0.010680410270908948 0.0017781816913813753 0.004255203424069518
0.02501042100875 0.001940583154533205 0.0057152292296430394 0.9978939011953956 -0.014259010251982647 0.00019737089276867134 0.002905455020696456 -0.0001798748109206975 -0.0018292907651173051
 0.9978939011953956 -0.014259010251982647 0.001940577374925652 0.005715229570360387 -0.00017982349535336433 -0.0018292845664376184 0.00019766968207915274 0.002905415575400511
 0.00019737089276867134 0.002905455020696456 -0.00017982349535336433 -0.0018292845664376184 0.0019406172995475323 0.005715559180210174 0.9978939051796638 -0.014258675905958645
 -0.0001798748109206975 -0.0018292907651173051 0.00019766968207915274 0.002905415575400511 0.9978939051796638 -0.014258675905958645 0.001940551063429483 0.00571556776630069
0.03126302626094 0.0021145027098595365 0.007193002140747311 0.9976671495823868 -0.01784952213728108 0.00025016414119214656 0.0036340413279164485 -0.00022551761991216002 -0.0022904416717334877
 0.9976671495823868 -0.01784952213728108 0.00211449372556606 0.0071930024226523805 -0.00022543788231843323 -0.0022904349292365424 0.00025063091763550237 0.003633984027328554
 0.00025016414119214656 0.0036340413279164485 -0.00022543788231843323 -0.0022904349292365424 0.002114555682457148 0.007193413969048613 0.9976671554550842 -0.017849104355564797
 -0.00022551761991216002 -0.0022904416717334877 0.00025063091763550237 0.003633984027328554 0.9976671554550842 -0.017849104355564797 0.0021144522621460394 0.007193425085783124
0.037515631513130004 0.00230021172546566 0.008687621870866748 0.9974241029661004 -0.021452597826303637 0.00030969540163822005 0.004363533181965742 -0.00027679930160770554 -0.002752819082208499
 0.9974241029661004 -0.021452597826303637 0.002300198851037817 0.008687621972230244 -0.0002766850313859968 -0.002752812312002373 0.0003103676278561611 0.004363454015588335
 0.00030969540163822005 0.004363533181965742 -0.0002766850313859968 -0.002752812312002373 0.0023002876373377553 0.008688115278463871 0.9974241110863197 -0.021452096614661086
 -0.00027679930160770554 -0.002752819082208499 0.0003103676278561611 0.004363454015588335 0.9974241110863197 -0.021452096614661086 0.0023001387995736752 0.008688129127916009
0.043768236765320004 0.002497960559838214 0.010198616462212276 0.997164531653297 -0.02506845655975857 0.00037603798896652176 0.005093875608085099 -0.0003337967259787691 -0.003216326791119323
 0.997164531653297 -0.02506845655975857 0.0024979431167296453 0.010198616228069668 -0.00033364186385929966 -0.0032163205669147334 0.0003769532303034366 0.0050937701517816715
 0.00037603798896652176 0.005093875608085099 -0.00033364186385929966 -0.0032163205669147334 0.0024980635201408198 0.010199191114522775 0.9971645423807421 -0.025067871904906964
 -0.0003337967259787691 -0.003216326791119323 0.0003769532303034366 0.0050937701517816715 0.9971645423807421 -0.025067871904906964 0.0024978610352933395 0.010199207922650845
0.050020842017509996 0.0027079974924075034 0.011725610477835264 0.9968882039393603 -0.02869721350586161 0.00044926464983944246 0.005825005008829514 -0.00039658565728939796 -0.0036808731738909605
 0.9968882039393603 -0.02869721350586161 0.0027079748083547696 0.011725609719199195 -0.0003963841927575092 -0.0036808681270344397 0.00045046057891319957 0.005824868419503563
 0.00044926464983944246 0.005825005008829514 -0.0003963841927575092 -0.0036808681270344397 0.0027081316090853975 0.011726265998509197 0.9968882176360325 -0.028696545380408646
 -0.00039658565728939796 -0.0036808731738909605 0.00045046057891319957 0.005824868419503563 0.9968882176360325 -0.028696545380408646 0.0027078672495273967 0.011726286015208249
0.055454545454549996 0.002900697064791387 0.013065360738468855 0.9966342775873172 -0.031861227610303126 0.0005185475241950844 0.006460963720796496 -0.000455912585691798 -0.00408535200230644
 0.9966342775873172 -0.031861227610303126 0.0029006692836255617 0.013065359343654825 -0.0004556657774535206 -0.004085348536103118 0.0005200180588214515 0.006460795813257275
 0.0005185475241950844 0.006460963720796496 -0.0004556657774535206 -0.004085348536103118 0.002900861592563285 0.01306608619231834 0.9966342941602588 -0.03186048691856001
 -0.000455912585691798 -0.00408535200230644 0.0005200180588214515 0.006460795813257275 0.9966342941602588 -0.03186048691856001 0.002900536780348038 0.013066109219066509
0.056273447269699996 0.002930569277996749 0.013268286843066916 0.9965948868068095 -0.032338917855431144 0.0005294474355855528 0.006556851678151982 -0.0004652407824337556 -0.004146368665800462
 0.9965948868068095 -0.032338917855431144 0.0029305406850518552 0.013268285336302008 -0.00046498675188340436 -0.00414636548528631 0.0005309618340402895 0.006556678688295928
 0.0005294474355855528 0.006556851678151982 -0.00046498675188340436 -0.00414636548528631 0.0029307386575854366 0.013269022805005729 0.9965949038370772 -0.03233816622631125
 -0.0004652407824337556 -0.004146368665800462 0.0005309618340402895 0.006556678688295928 0.9965949038370772 -0.03233816622631125 0.0029304041959568785 0.013269046304306122
0.06252605252188 0.0031659214560433475 0.014826365847118406 0.9962843463808723 -0.03599357375784027 0.0006166576031981514 0.007289341177844514 -0.0005398357090735374 -0.004612724380368936
 0.9962843463808723 -0.03599357375784027 0.003165886289576766 0.014826363333321123 -0.0005395231945583134 -0.004612723812831826 0.0006185283620816201 0.007289126090051405
 0.0006166576031981514 0.007289341177844514 -0.0005395231945583134 -0.004612723812831826 0.0031661302022376997 0.014827181782048964 0.9962843671110495 -0.0359927385762397
 -0.0005398357090735374 -0.004612724380368936 0.0006185283620816201 0.007289126090051405 0.9962843671110495 -0.0359927385762397 0.003165717410247645 0.014827209062265558
0.06877865777407 0.0034142985196854003 0.016399592646221105 0.995956348249099 -0.03966115275738041 0.0007109655315007192 0.008022395159811858 -0.0006204429473226654 -0.0050798512839795055
 0.995956348249099 -0.03966115275738041 0.003414256117044377 0.01639958883052063 -0.0006200660756772834 -0.005079854133678926 0.0007132306502999069 0.00802213184125164
 0.0007109655315007192 0.008022395159811858 -0.0006200660756772834 -0.005079854133678926 0.0034145507344547172 0.016400488037171784 0.995956373048834 -0.0396602339655122
 -0.0006204429473226654 -0.0050798512839795055 0.0007132306502999069 0.00802213184125164 0.995956373048834 -0.0396602339655122 0.003414051381386667 0.01640051942120904
0.07503126302626001 0.0036759440085425326 0.017987729328014686 0.9956106577051216 -0.04334160167008438 0.0008124406465961342 0.008755931886860786 -0.0007071338805922365 -0.005547659674246279
 0.9956106577051216 -0.04334160167008438 0.0036758937074931816 0.017987723879058545 -0.0007066868227481495 -0.0055476668030429895 0.0008151382315466166 0.008755613763731091
 0.0008124406465961342 0.008755931886860786 -0.0007066868227481495 -0.0055476668030429895 0.003676243790487985 0.017988703611341663 0.9956106869467573 -0.04334059919877513
 -0.0007071338805922365 -0.005547659674246279 0.0008151382315466166 0.008755613763731091 0.9956106869467573 -0.04334059919877513 0.0036756496422237573 0.01798873944691118
0.08128386827845 0.003951100549909146 0.01959054962762519 0.9952470399450278 -0.04703484781153878 0.0009211513531069965 0.00948986657918846 -0.0007999787293227393 -0.006016058835077947
 0.9952470399450278 -0.04703484781153878 0.003951041687251958 0.019590542176977782 -0.0007994556998950848 -0.0060160711624030385 0.0009243196147364361 0.009489486631186251
 0.0009211513531069965 0.00948986657918846 -0.0007994556998950848 -0.0060160711624030385 0.003951451994807738 0.019591602187794713 0.9952470740049804 -0.047033761584722854
 -0.0007999787293227393 -0.006016058835077947 0.0009243196147364361 0.009489486631186251 0.9952470740049804 -0.047033761584722854 0.00395075481239096 0.019591642847796204
0.08753647353064001 0.004240009867379434 0.021207835275283204 0.994865260233499 -0.050740802595510025 0.0010371649683763732 0.010224111654565268 -0.0008990465104612157 -0.0064849568006059835
 0.994865260233499 -0.050740802595510025 0.004239941777413807 0.021207825416886015 -0.0008984417674247743 -0.006484975303426672 0.0010408422185950498 0.010223662409372407
 0.0010371649683763732 0.010224111654565268 -0.0008984417674247743 -0.006484975303426672 0.0042404170667613575 0.021208965451864657 0.9948652994913598 -0.05073963252277667
 -0.0008990465104612157 -0.0064849568006059835 0.0010408422185950498 0.010223662409372407 0.9948652994913598 -0.05073963252277667 0.0042396086053388795 0.021209011334699407
0.09378907878283 0.004542912765633218 0.02283937339209371 0.9944650840483097 -0.0544593640873169 0.0011605476598521656 0.010958576902604742 -0.0010044049925378642 -0.006954260187666332
 0.9944650840483097 -0.0544593640873169 0.004542834778916768 0.022839360681767 -0.001003712837102117 -0.006954285900439292 0.0011647723085207256 0.010958050430374507
 0.0011605476598521656 0.010958576902604742 -0.001003712837102117 -0.006954285900439292 0.0045433798071400164 0.02284058047207026 0.9944651288880919 -0.0544581100710242
 -0.0010044049925378642 -0.006954260187666332 0.0011647723085207256 0.010958050430374507 0.9944651288880919 -0.0544581100710242 0.00454245181459855 0.022840632002070694
0.100041684035 0.0048600491002969886 0.024484954569105582 0.9940462772125883 -0.05819041887689269 0.0012913643830270772 0.011693169613380487 -0.001116120649114936 -0.007423874076667006
 0.9940462772125883 -0.05819041887689269 0.00485996054170076 0.024484938524076728 -0.0011153354255677484 -0.007423908091295137 0.0012961749341544974 0.011692557521275721
 0.0012913643830270772 0.011693169613380487 -0.0011153354255677484 -0.007423908091295137 0.0048605800665534 0.024486237790105038 0.9940463280227747 -0.05818908080838824
 -0.001116120649114936 -0.007423874076667006 0.0012961749341544974 0.011692557521275721 0.9940463280227747 -0.05818908080838824 0.004859524282494401 0.024486295417898405
0.1059090909091 0.005170805858515838 0.026041745222530464 0.9936361188530566 -0.061702870711336365 0.0014209399177822454 0.012382538193829605 -0.001226793758507805 -0.007864753323232858
 0.9936361188530566 -0.061702870711336365 0.005170706759101413 0.026041725574431636 -0.0012259160950032907 -0.007864796172470236 0.0014263353755780814 0.012381837706178204
 0.0014209399177822454 0.012382538193829605 -0.0012259160950032907 -0.007864796172470236 0.005171400519786708 0.026043099154255095 0.993636175623527 -0.06170145366193878
 -0.001226793758507805 -0.007864753323232858 0.0014263353755780814 0.012381837706178204 0.993636175623527 -0.06170145366193878 0.005170217295789327 0.026043162937893414
0.1062942892872 0.005191657734366171 0.02614437142576174 0.9936086060160552 -0.06193384347531713 0.0014296788209880347 0.012427794676873324 -0.0012342586093641685 -0.00789370192448007
 0.9936086060160552 -0.06193384347531713 0.005191557921779195 0.02614435152426603 -0.0012333747051062082 -0.007893745390254742 0.0014351138687451039 0.012427088103653757
 0.0014296788209880347 0.012427794676873324 -0.0012333747051062082 -0.007893745390254742 0.0051922567027623805 0.026145729973086354 0.9936086631900288 -0.06193242123744984
 -0.0012342586093641685 -0.00789370192448007 0.0014351138687451039 0.012427088103653757 0.9936086631900288 -0.06193242123744984 0.005191064857273103 0.026145794176117176
0.11254689453939999 0.005537976486545619 0.027817417509330963 0.993151837331052 -0.06568950537383884 0.001575553324388885 0.013162354661540645 -0.0013588826074816302 -0.008363645501101852
 0.993151837331052 -0.06568950537383884 0.005537864729136774 0.027817393190187417 -0.0013578944530473023 -0.008363699624644524 0.0015816515486234447 0.01316154427212601
 0.001575553324388885 0.013162354661540645 -0.0013578944530473023 -0.008363699624644524 0.005538647528374644 0.02781885051774888 0.9931519012673962 -0.06568799883866494
 -0.0013588826074816302 -0.008363645501101852 0.0015816515486234447 0.01316154427212601 0.9931519012673962 -0.06568799883866494 0.005537311340916102 0.027818921800738628
0.11879949979160001 0.005899242071333374 0.029503886433220192 0.9926757387219112 -0.06945726386725777 0.0017290488517660027 0.013896749878995081 -0.0014900549306084766 -0.008833604843223219
 0.9926757387219112 -0.06945726386725777 0.005899117667937566 0.029503857095494378 -0.001488956999786811 -0.008833670888409582 0.0017358490134141747 0.01389582585913621
 0.0017290488517660027 0.013896749878995081 -0.001488956999786811 -0.008833670888409582 0.005899989251332365 0.029505392985054855 0.9926758098245007 -0.06945567289737553
 -0.0014900549306084766 -0.008833604843223219 0.0017358490134141747 0.01389582585913621 0.9926758098245007 -0.06945567289737553 0.005898500429485439 0.029505471880570122
0.1250521050438 0.006275690034251826 0.031203571193154797 0.9921800785520595 -0.0732369707028224 0.0018902249102315588 0.014630878438322014 -0.0016278363656952986 -0.00930347822113728
 0.9921800785520595 -0.0732369707028224 0.006275552271636065 0.031203536195825613 -0.0016266231756560726 -0.009303557509026788 0.001897765846362828 0.014629830489337746
 0.0018902249102315588 0.014630878438322014 -0.0016266231756560726 -0.009303557509026788 0.0062765174097104285 0.03120515031779542 0.9921801572310159 -0.07323529515153601
 -0.0016278363656952986 -0.00930347822113728 0.001897765846362828 0.014629830489337746 0.9921801572310159 -0.07323529515153601 0.006274867648073298 0.031205237386783265
0.131304710296 0.0066675546817693224 0.03291626362491208 0.991664626088862 -0.07702847059124132 0.002059139496168766 0.015364636291973863 -0.00177228614544162 -0.00977316211738183
 0.991664626088862 -0.07702847059124132 0.006667402832979839 0.03291622228662557 -0.0017709522569467851 -0.009773256026128592 0.002067460114948255 0.015363453625416443
 0.002059139496168766 0.015364636291973863 -0.0017709522569467851 -0.009773256026128592 0.00666846630211026 0.032917914298965706 0.9916647127600684 -0.0770267103018993
 -0.00177228614544162 -0.00977316211738183 0.002067460114948255 0.015363453625416443 0.9916647127600684 -0.0770267103018993 0.006666647280975065 0.032918010131400846
0.1375573155481 0.006980800280281052 0.03441784523578289 0.9912234505813777 -0.08060761223770235 0.002213201213955699 0.016074947437792916 -0.0019008076411310534 -0.01021960076787181
 0.9912234505813777 -0.08060761223770235 0.006980632176261921 0.03441779645557275 -0.0018993449733805893 -0.010219709272944357 0.0022223195315434086 0.016073632577103928
 0.002213201213955699 0.016074947437792916 -0.0018993449733805893 -0.010219709272944357 0.0069817996215080945 0.034419566578599695 0.9912235456082286 -0.0806057671327429
 -0.0019008076411310534 -0.01021960076787181 0.0022223195315434086 0.016073632577103928 0.9912235456082286 -0.0806057671327429 0.006979802821206705 0.034419671186336036
0.1438099208003 0.007304914463257682 0.035912248825155736 0.9907670437160347 -0.08417842985295361 0.002373489332740679 0.01678286501615796 -0.0020344867905467833 -0.010663833431333371
 0.9907670437160347 -0.08417842985295361 0.007304729107936698 0.03591219191043883 -0.002032889491004257 -0.010663957875617575 0.0023834405784029728 0.016781408191409827
 0.002373489332740679 0.01678286501615796 -0.002032889491004257 -0.010663957875617575 0.007306005460327131 0.0359140397891959 0.9907671475125522 -0.08417649978128046
 -0.0020344867905467833 -0.010663833431333371 0.0023834405784029728 0.016781408191409827 0.9907671475125522 -0.08417649978128046 0.007303822515215949 0.03591415377138007
0.1500625260525 0.00763979293978395 0.03739937143548812 0.9902955131927511 -0.08774085722569883 0.002539954649456998 0.017488332626494907 -0.0021732755301061006 -0.011105805563486256
 0.9902955131927511 -0.08774085722569883 0.007639589309244789 0.037399305672530754 -0.0021715377561205757 -0.011105947343549841 0.0025507738773746275 0.017486723712497463
 0.002539954649456998 0.017488332626494907 -0.0021715377561205757 -0.011105947343549841 0.0076409795135309105 0.03740123093077808 0.9902956261783085 -0.08773884203089775
 -0.0021732755301061006 -0.011105805563486256 0.0025507738773746275 0.017486723712497463 0.9902956261783085 -0.08773884203089775 0.007638602044172149 0.03740135491731236
0.15631513130469998 0.00798533079444533 0.03887911332533394 0.9898089671316666 -0.0912948279464179 0.002712547451038886 0.01819129471772406 -0.002317125268225914 -0.01154546369382494
