! Created with skrf 1.8.0 (http://scikit-rf.org).
# GHz S RI R 50.0 
!freq ReS11 ImS11 ReS12 ImS12 ReS13 ImS13
! ReS14 ImS14
! ReS21 ImS21 ReS22 ImS22 ReS23 ImS23
! ReS24 ImS24
! ReS31 ImS31 ReS32 ImS32 ReS33 ImS33
! ReS34 ImS34
! ReS41 ImS41 ReS42 ImS42 ReS43 ImS43
! ReS44 ImS44
!
0.0 0.001784807389902 0.0 0.9982151926101 0.0 6.960586847341e-05 0.0 -6.96058679072e-05 8.524260333442596e-21
 0.9982151926101 0.0 0.001784807389938 0.0 -6.96058679078e-05 8.524260333516074e-21 6.9605868474e-05 0.0
 6.960586847341e-05 0.0 -6.96058679078e-05 8.524260333516074e-21 0.001784807374457 0.0 0.9982151925946 0.0
 -6.96058679072e-05 8.524260333442596e-21 6.9605868474e-05 0.0 0.9982151925946 0.0 0.001784807374465 0.0
0.005 0.0019211885149646706 0.0014526317117689949 0.9980424871653784 -0.0037382522089850043 9.905976069884348e-05 0.0008073705679913252 -9.587327642933927e-05 -0.00049955304406891
 0.9980424871653784 -0.0037382522089850043 0.0019211965443111723 0.0014526269436684143 -9.587179077462631e-05 -0.0004995518489515825 9.901322145184247e-05 0.0008073882504992017
 9.905976069884348e-05 0.0008073705679913252 -9.587179077462631e-05 -0.0004995518489515825 0.0019211899126481294 0.0014526981270635963 0.9980424875440075 -0.003738185135235785
 -9.587327642933927e-05 -0.00049955304406891 9.901322145184247e-05 0.0008073882504992017 0.9980424875440075 -0.003738185135235785 0.0019211958894174521 0.0014526946603460771
0.006252605252188 0.001957199931601119 0.0018215012580740833 0.9979965545307953 -0.0046736932379768115 0.00010762150850611732 0.0010095686524894917 -0.00010341326474423507 -0.0006250809925716451
 0.9979965545307953 -0.0046736932379768115 0.0019572124839773255 0.0018214952269004687 -0.00010341095340493212 -0.0006250795182827924 0.0001075487954446557 0.0010095916392582188
 0.00010762150850611732 0.0010095686524894917 -0.00010341095340493212 -0.0006250795182827924 0.0019572020494478697 0.0018215842439542613 0.9979965550555419 -0.004673609415174317
 -0.00010341326474423507 -0.0006250809925716451 0.0001075487954446557 0.0010095916392582188 0.9979965550555419 -0.004673609415174317 0.001957211392233777 0.0018215798525989299
0.01250521050438 0.0021481848045312654 0.0036810411951749273 0.9977511464161803 -0.009347936388475874 0.00015749615286290162 0.0020192484280901657 -0.00014685777531772172 -0.0012530606396365753
 0.9977511464161803 -0.009347936388475874 0.002148234940629606 0.0036810284111984796 -0.00014684867216355007 -0.001253057907869543 0.000157206185569225 0.0020193040185454056
 0.00015749615286290162 0.0020192484280901657 -0.00014684867216355007 -0.001253057907869543 0.002148192692615524 0.003681206755853688 0.9977511479415392 -0.009347768956116474
 -0.00014685777531772172 -0.0012530606396365753 0.000157206185569225 0.0020193040185454056 0.9977511479415392 -0.009347768956116474 0.002148229997243097 0.003681197404095505
0.01875781575657 0.0023582296626690202 0.0055667998668524595 0.9974786276710841 -0.014034051482770335 0.0002193520574748392 0.003029717804965946 -0.00020008477778467635 -0.0018829390612744236
 0.9974786276710841 -0.014034051482770335 0.0023583423491133396 0.005566779532824939 -0.00020006448566839386 -0.0018829353343119799 0.00021870067511145654 0.0030298176950896223
 0.0002193520574748392 0.003029717804965946 -0.00020006448566839386 -0.0018829353343119799 0.0023582469669316502 0.005567047623529408 0.9974786306803847 -0.014033800466214068
 -0.00020008477778467635 -0.0018829390612744236 0.00021870067511145654 0.0030298176950896223 0.9974786306803847 -0.014033800466214068 0.002358330790229971 0.0055670327349356665
0.02501042100875 0.002587785138223871 0.007476057698741907 0.9971786430405062 -0.018734243761449904 0.00029331302844290647 0.004040984708366453 -0.0002632334820170157 -0.0025143776742317164
 0.9971786430405062 -0.018734243761449904 0.002587985311317707 0.007476028951949397 -0.0002631976594332145 -0.0025143732643132816 0.00029215603626822097 0.004041142615001778
 0.00029331302844290647 0.004040984708366453 -0.0002631976594332145 -0.0025143732643132816 0.002587815498499496 0.007476387189498956 0.9971786480240142 -0.01873390911457906
 -0.0002632334820170157 -0.0025143776742317164 0.00029215603626822097 0.004041142615001778 0.9971786480240142 -0.01873390911457906 0.0025879643621611634 0.0074763661880446215
0.03126302626094 0.002837283004186213 0.009407381297005121 0.9968508211935088 -0.02344941586176232 0.00037950273677004177 0.005052957984535818 -0.0003364381634932984 -0.0031471277497232223
 0.9968508211935088 -0.02344941586176232 0.0028375955847319972 0.009407343210803958 -0.00033638251537243026 -0.0031471230194974917 0.00037769578821518257 0.005053189657376578
 0.00037950273677004177 0.005052957984535818 -0.00033638251537243026 -0.0031471230194974917 0.002837330047958088 0.009407791960112323 0.9968508286444895 -0.023448997483056552
 -0.0003364381634932984 -0.0031471277497232223 0.00037769578821518257 0.005053189657376578 0.9968508286444895 -0.023448997483056552 0.0028375624508400286 0.009407764272354718
0.037515631513130004 0.003107144900200121 0.011359810426305045 0.9964947838524711 -0.028179980789249798 0.00047804337926837543 0.006065506785596342 -0.00041982917323194505 -0.003780971070621428
 0.9964947838524711 -0.028179980789249798 0.003107594804193928 0.01135976201061038 -0.00041974944620792973 -0.0037809664332313256 0.0004754419311814405 0.0060658300264477315
 0.00047804337926837543 0.006065506785596342 -0.00041974944620792973 -0.0037809664332313256 0.003107212247803618 0.01136030158598884 0.9964947942754245 -0.028179478535359
 -0.00041982917323194505 -0.003780971070621428 0.0004754419311814405 0.0060658300264477315 0.9964947942754245 -0.028179478535359 0.003107546676028354 0.011360266642367781
0.043768236765320004 0.0033977856884628323 0.013332610603181432 0.9961101495536433 -0.03292610926270049 0.0005890550316312175 0.007078478654721083 -0.000513533275736597 -0.0044157018908642445
 0.9961101495536433 -0.03292610926270049 0.0033983978354607453 0.01333255080424805 -0.0005134252554098265 -0.0044156978099201835 0.0005855143311862428 0.007078913338675595
 0.0005890550316312175 0.007078478654721083 -0.0005134252554098265 -0.0044156978099201835 0.0033978769485682797 0.01333318148035536 0.9961101634627976 -0.03292552293696993
 -0.000513533275736597 -0.0044157018908642445 0.0005855143311862428 0.007078913338675595 0.9961101634627976 -0.03292552293696993 0.003398331883261127 0.013333138715936775
0.050020842017509996 0.0037096149839159387 0.015325170873159618 0.9956965355877512 -0.03768783187566397 0.0007126552469865947 0.008091707005242744 -0.0006176737470934422 -0.005051119506577458
 0.9956965355877512 -0.03768783187566397 0.0037104143044923025 0.01532509857309943 -0.0006175332562593035 -0.005051116496091539 0.0007080303352798375 0.00809227510258204
 0.0007126552469865947 0.008091707005242744 -0.0006175332562593035 -0.005051116496091539 0.0037097337515351815 0.01532582057014959 0.9956965535089268 -0.03768716124269169
 -0.0006176737470934422 -0.005051119506577458 0.0007080303352798375 0.00809227510258204 0.9956965535089268 -0.03768716124269169 0.003710327676412021 0.015325769425247758
0.055454545454549996 0.003998126500563921 0.017072394914218657 0.9953132601875848 -0.041838533028036626 0.0008303802145572767 0.008972304167802463 -0.0007167436981652395 -0.005603719656027992
 0.9953132601875848 -0.041838533028036626 0.003999108740876919 0.017072310792027794 -0.0007165716250191507 -0.005603718032321655 0.0008246952165780051 0.008973007691752433
 0.0008303802145572767 0.008972304167802463 -0.0007165716250191507 -0.005603718032321655 0.003998272081223922 0.017073112290063457 0.9953132820333149 -0.04183778890460964
 -0.0007167436981652395 -0.005603719656027992 0.0008246952165780051 0.008973007691752433 0.9953132820333149 -0.04183778890460964 0.00399900181140443 0.017073053412010777
0.056273447269699996 0.004043037916507467 0.01733695362193463 0.9952535591779066 -0.04246508922877987 0.0008489587585637112 0.009105014806269542 -0.000732370369865099 -0.005687024628226958
 0.9952535591779066 -0.04246508922877987 0.004044049358975637 0.017336867637911663 -0.0007321932672856086 -0.005687023252522126 0.000843104484786206 0.009105740404448547
 0.0008489587585637112 0.009105014806269542 -0.0007321932672856086 -0.005687023252522126 0.00404318777195513 0.017337681127133853 0.9952535816510732 -0.04246433400912788
 -0.000732370369865099 -0.005687024628226958 0.000843104484786206 0.009105740404448547 0.9952535816510732 -0.04246433400912788 0.004043939180657316 0.017337621047575708
0.06252605252188 0.004398455510204903 0.019367467008824437 0.9947808382797002 -0.04725775944743496 0.000998077237943363 0.010118216624525769 -0.0008577393722501973 -0.006323217405056388
 0.9947808382797002 -0.04725775944743496 0.004399704047307764 0.019367366091938898 -0.0008575215519373123 -0.006323218278696064 0.0009908482801176256 0.010119125949926646
 0.000998077237943363 0.010118216624525769 -0.0008575215519373123 -0.006323218278696064 0.004398640015973369 0.019368271194575282 0.994780865859536 -0.04725691931915886
 -0.0008577393722501973 -0.006323217405056388 0.0009908482801176256 0.010119125949926646 0.994780865859536 -0.04725691931915886 0.0043995674186784175 0.019368201631596117
0.06877865777407 0.004776264854324611 0.021416248531915344 0.9942779921791627 -0.05206567457660454 0.0011601190815665645 0.011131119855334192 -0.00099389333784704 -0.006959496269521535
 0.9942779921791627 -0.05206567457660454 0.004777775489645686 0.02141613136579607 -0.0009936307285009546 -0.006959500057195868 0.0011513699726210735 0.011132241294715338
 0.0011601190815665645 0.011131119855334192 -0.0009936307285009546 -0.006959500057195868 0.004776487553126489 0.021417128149685476 0.9942780254374318 -0.05206474917965245
 -0.00099389333784704 -0.006959496269521535 0.0011513699726210735 0.011132241294715338 0.9942780254374318 -0.05206474917965245 0.004777609483688617 0.02141704855974476
0.07503126302626001 0.005176859150232888 0.023482854622334653 0.9937446419716147 -0.056888630956517215 0.0013351892161097688 0.012143525523418679 -0.001140941095759717 -0.007595657221544901
 0.9937446419716147 -0.056888630956517215 0.00517865692449132 0.02348271982150229 -0.0011406296604756316 -0.007595664637980279 0.0013247743735194937 0.012144889644839564
 0.0013351892161097688 0.012143525523418679 -0.0011406296604756316 -0.007595664637980279 0.005177123563978629 0.023483808310459098 0.9937446814995636 -0.05688761988458373
 -0.001140941095759717 -0.007595657221544901 0.0013247743735194937 0.012144889644839564 0.9937446814995636 -0.05688761988458373 0.005178458586453983 0.02348371815458576
0.08128386827845 0.005600627682470776 0.025566853729975702 0.9931804109688821 -0.06172639611762301 0.0015233889148372297 0.013155228833208226 -0.0012989875987484032 -0.008231493373288016
 0.9931804109688821 -0.06172639611762301 0.005602737679668074 0.025566699837877432 -0.0012986233347820582 -0.00823150518313683 0.0015111626733403014 0.013156868406455292
 0.0015233889148372297 0.013155228833208226 -0.0012986233347820582 -0.00823150518313683 0.005600937308235337 0.02556788000606679 0.9931804573778827 -0.06172529892543442
 -0.0012989875987484032 -0.008231493373288016 0.0015111626733403014 0.013156868406455292 0.9931804573778827 -0.06172529892543442 0.005602504023934886 0.025567778749078934
0.08753647353064001 0.006047955734193078 0.027667821553722556 0.992584925056695 -0.06657871354216185 0.0017248156209417138 0.014166019567072587 -0.001468133793613748 -0.008866794656264687
 0.992584925056695 -0.06657871354216185 0.006050403087538866 0.027667647040496606 -0.0014677127322609753 -0.008866811674003355 0.001710632267881187 0.014167969583377177
 0.0017248156209417138 0.014166019567072587 -0.0014677127322609753 -0.008866811674003355 0.006048314041803268 0.027668918815210976 0.9925849789800503 -0.06657752974488076
 -0.001468133793613748 -0.008866794656264687 0.001710632267881187 0.014167969583377177 0.9925849789800503 -0.06657752974488076 0.006050131096163149 0.027668805924495773
0.09378907878283 0.006519224468342046 0.029785337641581304 0.9919578130213829 -0.07144530606772949 0.0019395627769703296 0.015175682389386071 -0.0016484764852173598 -0.009501347633214256
 0.9919578130213829 -0.07144530606772949 0.006522034366853622 0.02978514090155792 -0.0016479946919029846 -0.009501370723017795 0.001923276589463305 0.015177980080553386
 0.0019395627769703296 0.015175682389386071 -0.0016479946919029846 -0.009501370723017795 0.006519634898970013 0.029786504166943367 0.9919578751166175 -0.0714440351395294
 -0.0016484764852173598 -0.009501347633214256 0.001923276589463305 0.015177980080553386 0.9919578751166175 -0.0714440351395294 0.006521720988090759 0.029786379111084612
0.100041684035 0.007014810783679999 0.03191898291376983 0.9912987068550779 -0.07632587837985799 0.0021677196571572178 0.016183997093058566 -0.0018401081973582391 -0.010134935378275856
 0.9912987068550779 -0.07632587837985799 0.007018008477578311 0.0319187622626009 -0.001839561771561034 -0.010134965453904965 0.0021491849413991567 0.016186681949787746
 0.0021677196571572178 0.016183997093058566 -0.001839561771561034 -0.010134965453904965 0.007015276746515944 0.031920216861807404 0.9912987778056965 -0.07632451975485827
 -0.0018401081973582391 -0.010134935378275856 0.0021491849413991567 0.016186681949787746 0.9912987778056965 -0.07632451975485827 0.007017650624413296 0.0319200791088062
0.1059090909091 0.007502314403932214 0.033935478290371045 0.9906507825638657 -0.08091821495470133 0.0023940924100166396 0.01712876714063981 -0.002030280012570049 -0.010728416055219792
 0.9906507825638657 -0.08091821495470133 0.007505899027768023 0.03393523359644061 -0.0020296694191085417 -0.010728453561432824 0.0023733152437905177 0.01713185325523838
 0.0023940924100166396 0.01712876714063981 -0.0020296694191085417 -0.010728453561432824 0.007502835547762898 0.03393677372627826 0.9906508624703543 -0.08091677348529863
 -0.002030280012570049 -0.010728416055219792 0.0023733152437905177 0.01713185325523838 0.9906508624703543 -0.08091677348529863 0.0075054965986783 0.03393662357221033
0.1062942892872 0.007535087150510188 0.03406833781247066 0.9906072420452969 -0.08122011889061756 0.002409371203425776 0.017190738801454882 -0.002043117030179985 -0.010767337412755132
 0.9906072420452969 -0.08122011889061756 0.007538697957702215 0.03406809148406229 -0.002042502105667918 -0.010767375437441285 0.0023884423355256704 0.017193852590958243
 0.002409371203425776 0.017190738801454882 -0.002042502105667918 -0.010767375437441285 0.007535612020060371 0.03406963722266315 0.9906073225621268 -0.0812186719626407
 -0.002043117030179985 -0.010767337412755132 0.0023884423355256704 0.017193852590958243 0.9906073225621268 -0.0812186719626407 0.007538292505132213 0.03406948623789826
0.11254689453939999 0.008080421432491882 0.03623298090041415 0.9898830578526535 -0.08612770118113759 0.0026645978634885817 0.0181956781464506 -0.0022575865163254366 -0.011398329676002671
 0.9898830578526535 -0.08612770118113759 0.008084470744541288 0.03623270704340926 -0.002256899261211207 -0.011398376662287917 0.002641129331685791 0.018199264929124832
 0.0026645978634885817 0.0181956781464506 -0.002256899261211207 -0.011398376662287917 0.00808100854661144 0.03623434368963215 0.9898831486763743 -0.0861261653073419
 -0.0022575865163254366 -0.011398329676002671 0.002641129331685791 0.018199264929124832 0.9898831486763743 -0.0861261653073419 0.008084014528824807 0.03623417893346304
0.11879949979160001 0.00865117669802308 0.03841248777703501 0.9891257975818283 -0.0910482851396694 0.002933475430954598 0.019198581430041592 -0.002483595475602606 -0.012027684523851728
 0.9891257975818283 -0.0910482851396694 0.008655689985808438 0.038412184451128525 -0.0024828320926037744 -0.01202774153346495 0.0029073218794998844 0.019202687575399308
 0.002933475430954598 0.019198581430041592 -0.0024828320926037744 -0.01202774153346495 0.008651829354304077 0.03841391174409472 0.9891258994839287 -0.09104665963649072
 -0.002483595475602606 -0.012027684523851728 0.0029073218794998844 0.019202687575399308 0.9891258994839287 -0.09104665963649072 0.008655179802028713 0.038413732669202866
0.1250521050438 0.009247711021706144 0.04060643024753445 0.9883351088441964 -0.09598151786026435 0.00321607488792179 0.020199210770986065 -0.0027212178691200565 -0.012655170753674366
 0.9883351088441964 -0.09598151786026435 0.009252713841673428 0.040606095419341896 -0.002720374595761564 -0.012655238897398502 0.0031870911619001417 0.020203884972607666
 0.00321607488792179 0.020199210770986065 -0.002720374595761564 -0.012655238897398502 0.009248432475657539 0.040607913070311766 0.9883352226299276 -0.09597980200686573
 -0.0027212178691200565 -0.012655170753674366 0.0031870911619001417 0.020203884972607666 0.9883352226299276 -0.09597980200686573 0.009252146442428572 0.040607719118587675
0.131304710296 0.009870377280330854 0.04281437565891281 0.9875106438180451 -0.10092703438816694 0.0035124622488676848 0.021197324249176495 -0.0029705226535940476 -0.01328055364314764
 0.9875106438180451 -0.10092703438816694 0.009875895280241579 0.042814007197576505 -0.002969595762387524 -0.013280634080640041 0.003480503440315432 0.021202617538758305
 0.0035124622488676848 0.021197324249176495 -0.002969595762387524 -0.013280634080640041 0.009871170741790546 0.042815914897056835 0.9875107703272477 -0.10092522742446798
 -0.0029705226535940476 -0.01328055364314764 0.003480503440315432 0.021202617538758305 0.9875107703272477 -0.10092522742446798 0.009875267373652703 0.04281570549622196
0.1375573155481 0.010385275883158955 0.04474712163018768 0.9867863764015041 -0.10559551322505836 0.003788117751643836 0.022164531427253584 -0.0031970379781101226 -0.013875449858386096
 0.9867863764015041 -0.10559551322505836 0.010391334890717883 0.04474672326153697 -0.0031960217512911854 -0.013875542798710554 0.0037531141101129185 0.022170440229340237
 0.003788117751643836 0.022164531427253584 -0.0031960217512911854 -0.013875542798710554 0.010386143846478872 0.04474871537027617 0.9867865162529784 -0.10559361466072126
 -0.0031970379781101226 -0.013875449858386096 0.0037531141101129185 0.022170440229340237 0.9867865162529784 -0.10559361466072126 0.010390644284455365 0.04474849512293927
0.1438099208003 0.010918507520475044 0.04666800153143707 0.9860361558251998 -0.11025047198442947 0.004074861934453135 0.023126802348221294 -0.0034325510034008085 -0.014465841401389536
 0.9860361558251998 -0.11025047198442947 0.010925133284615673 0.04666757136849647 -0.0034314414062282155 -0.014465948002143477 0.004036682440371659 0.023133373648176896
 0.004074861934453135 0.023126802348221294 -0.0034314414062282155 -0.014465948002143477 0.010919453002396157 0.04666964726265171 0.9860363098641362 -0.1102484810711676
 -0.0034325510034008085 -0.014465841401389536 0.004036682440371659 0.023133373648176896 0.9860363098641362 -0.1102484810711676 0.010924376818991346 0.04666941580975599
0.1500625260525 0.01146985768364546 0.04857680569078525 0.9852602018009587 -0.11489174487709213 0.004372578752136731 0.024084005407531195 -0.003676949238556879 -0.015051605680654707
 0.9852602018009587 -0.11489174487709213 0.011477076028332122 0.048576341725084876 -0.0036757422462179675 -0.015051727146322535 0.004331093484879435 0.024091287869495187
 0.004372578752136731 0.024084005407531195 -0.0036757422462179675 -0.015051727146322535 0.011470883648767988 0.048578500807430466 0.9852603709030321 -0.1148896608378801
 -0.003676949238556879 -0.015051605680654707 0.004331093484879435 0.024091287869495187 0.9852603709030321 -0.1148896608378801 0.011476250513026583 0.04857825772867597
0.15631513130469998 0.012039110013791232 0.05047333072388541 0.9844587355235446 -0.11951916785609125 0.004681150591743084 0.02503601163082578 -0.003930118630874937 -0.01563262304562582
 0.9844587355235446 -0.11951916785609125 0.012046946840149304 0.05047283082113997 -0.003928810228580341 -0.0156327606274404 0.004636230751096075 0.0250440555733202
