! Created with skrf 1.8.0 (http://scikit-rf.org).
# GHz S RI R 50.0 
!freq ReS11 ImS11 ReS12 ImS12 ReS13 ImS13
! ReS14 ImS14
! ReS21 ImS21 ReS22 ImS22 ReS23 ImS23
! ReS24 ImS24
! ReS31 ImS31 ReS32 ImS32 ReS33 ImS33
! ReS34 ImS34
! ReS41 ImS41 ReS42 ImS42 ReS43 ImS43
! ReS44 ImS44
!
0.0 0.001486853864496 0.0 0.998513146127 0.0 5.732250688241e-05 0.0 -5.732250723774e-05 7.019982500779929e-21
 0.998513146127 0.0 0.001486853864498 0.0 -5.732250723805e-05 7.019982500817892e-21 5.732250688283e-05 0.0
 5.732250688241e-05 0.0 -5.732250723805e-05 7.019982500817892e-21 0.001486853861664 0.0 0.9985131461242 0.0
 -5.732250723774e-05 7.019982500779929e-21 5.732250688283e-05 0.0 0.9985131461242 0.0 0.001486853861648 0.0
0.005 0.0015996019047387346 0.0012152187061791823 0.9983705486730294 -0.0031148547845238814 8.031088061021768e-05 0.0006390624482868149 -7.805652360924564e-05 -0.0003998359461119253
 0.9983705486730294 -0.0031148547845238814 0.0015995782499428973 0.0012152325483021902 -7.806015557274296e-05 -0.0003998387407715818 8.044988386201235e-05 0.0006390096312928643
 8.031088061021768e-05 0.0006390624482868149 -7.806015557274296e-05 -0.0003998387407715818 0.0015996003768101884 0.001215286890841602 0.998370549037832 -0.003114787730657762
 -7.805652360924564e-05 -0.0003998359461119253 8.044988386201235e-05 0.0006390096312928643 0.998370549037832 -0.003114787730657762 0.0015995805015098237 0.0012152984663127524
0.006252605252188 0.0016291294949715154 0.0015238160374165246 0.9983329812924104 -0.003894338167651345 8.682573704188124e-05 0.0007991388967615622 -8.388805491170033e-05 -0.0005003163241017153
 0.9983329812924104 -0.003894338167651345 0.0016290925175042998 0.0015238335774439935 -8.389370653184382e-05 -0.0005003197702361013 8.704291861323073e-05 0.0007990703108673631
 8.682573704188124e-05 0.0007991388967615622 -8.389370653184382e-05 -0.0005003197702361013 0.001629127008398312 0.0015239012654134907 0.9983329817651513 -0.00389425435412195
 -8.388805491170033e-05 -0.0005003163241017153 8.704291861323073e-05 0.0007990703108673631 0.9983329817651513 -0.00389425435412195 0.0016290959397826145 0.0015239159651335517
0.01250521050438 0.001784319374349055 0.0030796670833965335 0.9981342992152052 -0.007789533794058809 0.00012390963534935379 0.0015986503029745396 -0.00011685495933120253 -0.0010030952577917609
 0.9981342992152052 -0.007789533794058809 0.0017841717159716411 0.0030797045640809113 -0.00011687723205700944 -0.0010031016339756395 0.00012477575937115828 0.0015984855382256634
 0.00012390963534935379 0.0015986503029745396 -0.00011687723205700944 -0.0010031016339756395 0.001784308901397102 0.003079837321774327 0.9981343005660056 -0.007789366393071798
 -0.00011685495933120253 -0.0010030952577917609 0.00012477575937115828 0.0015984855382256634 0.9981343005660056 -0.007789366393071798 0.0017841848468420607 0.0030798690207687585
0.01875781575657 0.0019527530042079376 0.004657771645931732 0.9979168593959615 -0.011695078021548518 0.00016866023665637356 0.002399086363359791 -0.0001563230168359461 -0.0015076087530481634
 0.9979168593959615 -0.011695078021548518 0.001952421196637179 0.004657831677795364 -0.00015637268646529918 -0.0015076174467011743 0.00017060601747330683 0.0023987925942179885
 0.00016866023665637356 0.002399086363359791 -0.00015637268646529918 -0.0015076174467011743 0.0019527290357736942 0.00465802683735524 0.9979168620114286 -0.011694827104430257
 -0.0001563230168359461 -0.0015076087530481634 0.00017060601747330683 0.0023987925942179885 0.9979168620114286 -0.011694827104430257 0.0019524502856247724 0.004658077949366452
0.02501042100875 0.002134750700994718 0.006255927991100092 0.9976804121000705 -0.015612872667186898 0.0002211640125244531 0.0032004909308918352 -0.00020238889497284414 -0.0020136316970852555
 0.9976804121000705 -0.015612872667186898 0.002134161414744531 0.006256013366522043 -0.000202476609162041 -0.0020136419882035884 0.00022462040787473383 0.0032000302829053085
 0.0002211640125244531 0.0032004909308918352 -0.000202476609162041 -0.0020136419882035884 0.0021347077358542183 0.006256268118012156 0.9976804163738685 -0.01561253826794332
 -0.00020238889497284414 -0.0020136316970852555 0.00022462040787473383 0.0032000302829053085 0.9976804163738685 -0.01561253826794332 0.00213421270747798 0.006256341148693432
0.03126302626094 0.002330619522288706 0.007873007447802385 0.9974246945243531 -0.019543736874152052 0.00028150772172849724 0.004002833510409244 -0.0002551466092940582 -0.0025210080829491683
 0.9974246945243531 -0.019543736874152052 0.0023296995263434603 0.00787312113597576 -0.0002552829094685473 -0.0025210191427587746 0.0002869063328771591 0.004002163030260347
 0.00028150772172849724 0.004002833510409244 -0.0002552829094685473 -0.0025210191427587746 0.00233055205859415 0.007873432527753063 0.997424700852633 -0.019543318994100792
 -0.0002551466092940582 -0.0025210080829491683 0.0002869063328771591 0.004002163030260347 0.997424700852633 -0.019543318994100792 0.002329779261760326 0.007873530069178769
0.037515631513130004 0.00254065996287092 0.009508277414166964 0.9971494376982588 -0.02348808404388516 0.00034977768623660997 0.0048060543544780334 -0.0003146882246208093 -0.0030296059241787868
 0.9971494376982588 -0.02348808404388516 0.0025393360984665393 0.009508422558598625 -0.00031488355725039916 -0.0030296168146986286 0.0003575509387825526 0.004805125958222187
 0.00034977768623660997 0.0048060543544780334 -0.00031488355725039916 -0.0030296168146986286 0.00254056249569635 0.009508787492800931 0.9971494464790339 -0.023487582658787125
 -0.0003146882246208093 -0.0030296059241787868 0.0003575509387825526 0.004805125958222187 0.9971494464790339 -0.023487582658787125 0.002539450508390473 0.009508912220292922
0.043768236765320004 0.0027651685414880806 0.011161195334416778 0.9968543692715146 -0.027446127790123783 0.00042605945168635955 0.005610078168993644 -0.00038110410483219506 -0.0035393035510485967
 0.9968543692715146 -0.027446127790123783 0.0027633677012886973 0.011161375251728741 -0.0003813688280575448 -0.0035393132249367572 0.0004366406822768929 0.005608838583430118
 0.00042605945168635955 0.005610078168993644 -0.0003813688280575448 -0.0035393132249367572 0.0027650355614056202 0.011161790482811523 0.9968543809055626 -0.027445542853218922
 -0.00038110410483219506 -0.0035393035510485967 0.0004366406822768929 0.005608838583430118 0.9968543809055626 -0.027445542853218922 0.002763523010737741 0.011161945152496928
0.050020842017509996 0.0030044390042732595 0.012831323563261355 0.9965392149209912 -0.031417967003773285 0.0005104375799089234 0.006414819777151396 -0.00045448300548325344 -0.004049983947727379
 0.9965392149209912 -0.031417967003773285 0.0030020881145340567 0.012831541742700266 -0.0004548273933698219 -0.004049991248226745 0.0005242610733706318 0.006413210478445686
 0.0005104375799089234 0.006414819777151396 -0.0004548273933698219 -0.004049991248226745 0.003004264996661815 0.012832003867280098 0.9965392298121271 -0.03141729845675582
 -0.00045448300548325344 -0.004049983947727379 0.0005242610733706318 0.006413210478445686 0.9965392298121271 -0.03141729845675582 0.0030022905418992654 0.012832191314368144
0.055454545454549996 0.0032245872559293442 0.014296400466679375 0.9962488100880598 -0.03488084072686013 0.000590404791230711 0.007114676033003088 -0.0005239740589563069 -0.004494489377838865
 0.9962488100880598 -0.03488084072686013 0.0032216990256359085 0.014296654864784162 -0.0005243959585540744 -0.004494493591368027 0.0006073993437045748 0.007112693788842831
 0.000590404791230711 0.007114676033003088 -0.0005243959585540744 -0.004494493591368027 0.0032243731119969334 0.01429715486467431 0.996248828141314 -0.03488009945427419
 -0.0005239740589563069 -0.004494489377838865 0.0006073993437045748 0.007112693788842831 0.996248828141314 -0.03488009945427419 0.003221947445173813 0.014297373159265655
0.056273447269699996 0.0032587629443450333 0.01451828755971337 0.9962036991754283 -0.03540362758919454 0.0006029954983264912 0.007220186898728302 -0.0005349120975261878 -0.004561531975853583
 0.9962036991754283 -0.03540362758919454 0.00325578894872686 0.014518547663114872 -0.0005353463429552392 -0.004561535636774866 0.0006204964947026808 0.007218144049779341
 0.0006029954983264912 0.007220186898728302 -0.0005353463429552392 -0.004561535636774866 0.003258542389608629 0.014519053130797604 0.9962037177320997 -0.03540287535198303
 -0.0005349120975261878 -0.004561531975853583 0.0006204964947026808 0.007218144049779341 0.9962037177320997 -0.03540287535198303 0.0032560447060647705 0.014519276268241158
0.06252605252188 0.0035284301378036846 0.016221752924338476 0.9958475459602403 -0.03940308535946021 0.0007038153787394929 0.008026081675283582 -0.0006224769545293347 -0.005073832854826637
 0.9958475459602403 -0.03940308535946021 0.003524759982394797 0.016222058786672048 -0.0006230111711654524 -0.005073831500561699 0.0007254300604766553 0.008023536062638023
 0.0007038153787394929 0.008026081675283582 -0.0006230111711654524 -0.005073831500561699 0.0035281575101845366 0.016222603893268482 0.9958475685951579 -0.03940224933673951
 -0.0006224769545293347 -0.005073832854826637 0.0007254300604766553 0.008023536062638023 0.9958475685951579 -0.03940224933673951 0.00352507527419322 0.01622286571099297
0.06877865777407 0.003813728721691609 0.017941411696227004 0.995470478986843 -0.04341627967466372 0.0008129780327042454 0.008832401584132208 -0.0007172615186046295 -0.005586771256579635
 0.995470478986843 -0.04341627967466372 0.003809289339908653 0.017941767326577634 -0.0007179057421546738 -0.0055867634021430634 0.0008391434978339435 0.00882927855478257
 0.0008129780327042454 0.008832401584132208 -0.0007179057421546738 -0.0055867634021430634 0.0038133984882867426 0.01794234821190682 0.9954705061176767 -0.0434153597578319
 -0.0007172615186046295 -0.005586771256579635 0.0008391434978339435 0.00882927855478257 0.9954705061176767 -0.0434153597578319 0.003809670362625528 0.01794265177632137
0.07503126302626001 0.0041149452804533 0.01967697366467654 0.9950722220546445 -0.0474431220693386 0.0009305628150734046 0.009639040019703322 -0.0008193480545264854 -0.006100230736502178
 0.9950722220546445 -0.0474431220693386 0.004109663579139982 0.019677383247610397 -0.0008201122436495668 -0.006100214787569056 0.0009617170400596047 0.009635259418093471
 0.0009305628150734046 0.009639040019703322 -0.0008201122436495668 -0.006100214787569056 0.004114551901455551 0.019677995899862306 0.9950722541050255 -0.04744211813118719
 -0.0008193480545264854 -0.006100230736502178 0.0009617170400596047 0.009635259418093471 0.9950722541050255 -0.04744211813118719 0.00411011652090307 0.019678344353892978
0.08128386827845 0.004432364875000719 0.021428160590146236 0.9946524992987169 -0.051483501974351864 0.0010566475339315758 0.01044588667936483 -0.0009288170949779934 -0.006614093363675545
 0.9946524992987169 -0.051483501974351864 0.004426167720051725 0.021428628487603307 -0.000929711131887059 -0.006614067616641271 0.0010932293281004544 0.010441362784801808
 0.0010566475339315758 0.01044588667936483 -0.000929711131887059 -0.006614067616641271 0.004431902802856901 0.021429268740503906 0.9946525366980908 -0.05148241387063401
 -0.0009288170949779934 -0.006614093363675545 0.0010932293281004544 0.010441362784801808 0.9946525366980908 -0.05148241387063401 0.004426698759190086 0.021429665304079554
0.08753647353064001 0.00476627103219219 0.023194702217729284 0.9942110354005681 -0.055537290650622406 0.0011913083634832555 0.011252827841741276 -0.001045747380428282 -0.007128239462626073
 0.9942110354005681 -0.055537290650622406 0.004759085234546319 0.023195232971314497 -0.0010467810710998722 -0.007128202104676906 0.001233757317084175 0.01124746930630427
 0.0011913083634832555 0.011252827841741276 -0.0010467810710998722 -0.007128202104676906 0.004765734711373656 0.023195896498157315 0.9942110785852671 -0.05553611822433004
 -0.001045747380428282 -0.007128239462626073 0.001233757317084175 0.01124746930630427 0.9942110785852671 -0.05553611822433004 0.004759700539471539 0.023196344469109918
0.09378907878283 0.005116945709143213 0.024976333408941332 0.9937475557778866 -0.05960434400902557 0.0013346197597769074 0.012059746561389348 -0.0011702157943332154 -0.007642547442806079
 0.9937475557778866 -0.05960434400902557 0.0051086980109450635 0.02497693174277226 -0.0011713988686722111 -0.007642496552013874 0.0013833761863921068 0.01205345634855282
 0.0013346197597769074 0.012059746561389348 -0.0011713988686722111 -0.007642496552013874 0.005116329575879262 0.024977614057319675 0.9937476051916532 -0.0596030870873609
 -0.0011702157943332154 -0.007642547442806079 0.0013833761863921068 0.01205345634855282 0.9937476051916532 -0.0596030870873609 0.005109403738944282 0.024978116812705214
0.100041684035 0.005484669237398183 0.026772792056851707 0.9932617867568101 -0.06368450465176617 0.0014866543775500626 0.01286652282321962 -0.0013022972956518153 -0.008156893672703473
 0.9932617867568101 -0.06368450465176617 0.005475286297876811 0.02677346288077746 -0.0013036394073961627 -0.008156827218112185 0.0015421592517968145 0.01285919814714404
 0.0014866543775500626 0.01286652282321962 -0.0013036394073961627 -0.008156827218112185 0.0054839677191316095 0.026774159335331532 0.9932618428511372 -0.06368316304539136
 -0.0013022972956518153 -0.008156893672703473 0.0015421592517968145 0.01285919814714404 0.9932618428511372 -0.06368316304539136 0.0054760885942497575 0.026774720333370822
0.1059090909091 0.005845492739826497 0.028471831169449985 0.992785429243238 -0.06752507304573103 0.0016373194823704523 0.013623357713083695 -0.0014332308175509744 -0.008639475848841827
 0.992785429243238 -0.06752507304573103 0.0058349777079562785 0.028472574651828834 -0.0014347308809882328 -0.008639392845134831 0.001699558651034383 0.013614963646373381
 0.0016373194823704523 0.013623357713083695 -0.0014347308809882328 -0.008639392845134831 0.005844706020750014 0.028473279999653243 0.9927854920249264 -0.06752365178703688
 -0.0014332308175509744 -0.008639475848841827 0.001699558651034383 0.013614963646373381 0.9927854920249264 -0.06752365178703688 0.005835876201212618 0.028473898871711093
0.1062942892872 0.0058697202535592805 0.02858381751012889 0.9927534557333253 -0.0677776034096134 0.0016474829882473078 0.01367303366046784 -0.0014420648487008822 -0.00867115239471358
 0.9927534557333253 -0.0677776034096134 0.005859128635013021 0.02858456592349659 -0.0014435755752409457 -0.008671068236470285 0.0017101778794181243 0.013664565926154558
 0.0016474829882473078 0.01367303366046784 -0.0014435755752409457 -0.008671068236470285 0.005868927768811397 0.028585271703849512 0.9927535189682214 -0.06777617691477211
 -0.0014420648487008822 -0.00867115239471358 0.0017101778794181243 0.013664565926154558 0.9927535189682214 -0.06777617691477211 0.005860033632174267 0.02858589448616209
0.11254689453939999 0.006272375618868821 0.030409149373669633 0.992222291327191 -0.07188346050777378 0.0018171743984599972 0.01447915325121352 -0.0015895893515337398 -0.009185195666014667
 0.992222291327191 -0.07188346050777378 0.006260501772522386 0.030409980669629195 -0.001591278193615722 -0.009185091555479483 0.0018875014003027896 0.014469427995632514
 0.0018171743984599972 0.01447915325121352 -0.001591278193615722 -0.009185091555479483 0.006271486576791127 0.030410690792285488 0.9922223621718205 -0.07188194890540717
 -0.0015895893515337398 -0.009185195666014667 0.0018875014003027896 0.014469427995632514 0.9922223621718205 -0.07188194890540717 0.006261515588796383 0.030411378986862945
0.11879949979160001 0.0066929103304037806 0.0322485265690316 0.9916680235300795 -0.0760018864773242 0.0019957953692034407 0.01528475300119676 -0.0017449395622969573 -0.009698893317804196
 0.9916680235300795 -0.0760018864773242 0.0066796805823762 0.032249446239298464 -0.0017468159436108226 -0.00969876689771396 0.0020741970266052677 0.015273649835277516
 0.0019957953692034407 0.01528475300119676 -0.0017468159436108226 -0.00969876689771396 0.006691919130413192 0.03225015554780329 0.9916681024631765 -0.07600028953280856
 -0.0017449395622969573 -0.009698893317804196 0.0020741970266052677 0.015273649835277516 0.9916681024631765 -0.07600028953280856 0.006680809320997725 0.03225091287229691
0.1250521050438 0.007131597425286922 0.03410168659831922 0.9910903838495784 -0.08013268286859293 0.0021834105353410152 0.016089701613181427 -0.0019081820248068526 -0.01021211293266329
 0.9910903838495784 -0.08013268286859293 0.0071169379624080814 0.034102700338486495 -0.0019102552915839534 -0.010211961737290267 0.002270329767617056 0.01607709416496109
 0.0021834105353410152 0.016089701613181427 -0.0019102552915839534 -0.010211961737290267 0.007130498457109598 0.034103403497484024 0.9910904713600382 -0.08013100033310079
 -0.0019081820248068526 -0.01021211293266329 0.002270329767617056 0.01607709416496109 0.9910904713600382 -0.08013100033310079 0.007118187710497581 0.034104233763108775
0.131304710296 0.007588707879968287 0.03596836495639314 0.990489105450012 -0.08427564282163696 0.0023800823251247235 0.01689386515241642 -0.0020793809931796666 -0.010724719830649631
 0.990489105450012 -0.08427564282163696 0.007572544735468704 0.035969478671853614 -0.002081660413575759 -0.010724541285956686 0.0024759623467344337 0.016879621011310075
 0.0023800823251247235 0.01689386515241642 -0.002081660413575759 -0.010724541285956686 0.007587495523192455 0.03597017016310518 0.9904892020377583 -0.08427387443116563
 -0.0020793809931796666 -0.010724719830649631 0.0024759623467344337 0.016879621011310075 0.9904892020377583 -0.08427387443116563 0.007573921562930743 0.03597107727918101
0.1375573155481 0.007958626996291027 0.03760457231144454 0.9899698480781093 -0.08818671288143855 0.0025602096022187253 0.0176724256793073 -0.002232824951979955 -0.011211989235212962
 0.9899698480781093 -0.08818671288143855 0.007940881660876644 0.037605770532629784 -0.002235324246953398 -0.011211783192041632 0.0026652682787031753 0.01765656783875151
 0.0025602096022187253 0.0176724256793073 -0.002235324246953398 -0.011211783192041632 0.00795729626684663 0.03760646635288697 0.9899699541611028 -0.08818485849008253
 -0.002232824951979955 -0.011211989235212962 0.0026652682787031753 0.01765656783875151 0.9899699541611028 -0.08818485849008253 0.007942391144014748 0.037607432762925136
0.1438099208003 0.008341531248625716 0.03923236351402857 0.9894324063216421 -0.09208808095100725 0.0027475974741404774 0.01844804139990532 -0.002392412902207143 -0.011696501371273284
 0.9894324063216421 -0.09208808095100725 0.008322128872218403 0.03923365094695933 -0.0023951420297585 -0.011696265304107353 0.002862237704500627 0.01843044905226396
 0.0027475974741404774 0.01844804139990532 -0.0023951420297585 -0.011696265304107353 0.008340076626082236 0.03923434678728177 0.9894325223984832 -0.09208614030278661
 -0.002392412902207143 -0.011696501371273284 0.002862237704500627 0.01843044905226396 0.9894325223984832 -0.09208614030278661 0.008323776968612737 0.03923537513152751
0.1500625260525 0.008737289245975539 0.040851608556780945 0.9888769156014443 -0.09597965645858178 0.002942182664204243 0.01922064003312205 -0.0025580820866242604 -0.012178185449454766
 0.9888769156014443 -0.09597965645858178 0.00871615480971137 0.04085299018523294 -0.00256105098355003 -0.0121779167315349 0.0030668050168794914 0.019201187974132786
 0.002942182664204243 0.01922064003312205 -0.00256105098355003 -0.0121779167315349 0.00873570520703721 0.04085368147835955 0.9888770421796349 -0.09597762928557402
 -0.0025580820866242604 -0.012178185449454766 0.0030668050168794914 0.019201187974132786 0.9888770421796349 -0.09597762928557402 0.00871794745492031 0.040854774590269725
0.15631513130469998 0.009145768702209983 0.04246218137864167 0.9883035119884648 -0.09986134902347062 0.00314390117061107 0.0199901505034689 -0.002729768992147458 -0.012656972152358347
 0.9883035119884648 -0.09986134902347062 0.009122827013232955 0.04246366247132142 -0.0027329875737895975 -0.012656668056104622 0.003278903849003051 0.019968709177485697
