! Created with skrf 1.8.0 (http://scikit-rf.org).
# GHz S RI R 50.0 
!freq ReS11 ImS11 ReS12 ImS12 ReS13 ImS13
! ReS14 ImS14
! ReS21 ImS21 ReS22 ImS22 ReS23 ImS23
! ReS24 ImS24
! ReS31 ImS31 ReS32 ImS32 ReS33 ImS33
! ReS34 ImS34
! ReS41 ImS41 ReS42 ImS42 ReS43 ImS43
! ReS44 ImS44
!
0.0 0.001105271491479 0.0 0.9988947284915 0.0 4.189218379729e-05 0.0 -4.189218379748e-05 5.13031287968765e-21
 0.9988947284915 0.0 0.00110527149146 0.0 -4.189218379704e-05 5.1303128796337644e-21 4.189218379722e-05 0.0
 4.189218379729e-05 0.0 -4.189218379704e-05 5.1303128796337644e-21 0.001105271490043 0.0 0.9988947284901 0.0
 -4.189218379748e-05 5.13031287968765e-21 4.189218379722e-05 0.0 0.9988947284901 0.0 0.001105271490048 0.0
0.005 0.0011882444090580817 0.0009048221959763243 0.9987898999195776 -0.002316456569907761 5.814671027392726e-05 0.0004617037510237686 -5.657375032360008e-05 -0.0002899407389915707
 0.9987898999195776 -0.002316456569907761 0.0011882424647907438 0.0009048233265100419 -5.657573603796043e-05 -0.0002899422805965546 5.815057478946715e-05 0.0004617022595467468
 5.814671027392726e-05 0.0004617037510237686 -5.657573603796043e-05 -0.0002899422805965546 0.001188242994259018 0.000904755802439036 0.9987898996006461 -0.002316523629505761
 -5.657375032360008e-05 -0.0002899407389915707 5.815057478946715e-05 0.0004617022595467468 0.9987898996006461 -0.002316523629505761 0.001188243243688801 0.0009047556023345526
0.006252605252188 0.0012097358589940245 0.0011346253486147928 0.9987626209024122 -0.0028961788995939754 6.263617998268609e-05 0.0005773704456379078 -6.0595010647067556e-05 -0.00036281630168362965
 0.9987626209024122 -0.0028961788995939754 0.0012097328197528921 0.0011346267821330796 -6.059810052637279e-05 -0.0003628182039178176 6.264221775999953e-05 0.0005773685163252678
 6.263617998268609e-05 0.0005773704456379078 -6.059810052637279e-05 -0.0003628182039178176 0.0012097337187388514 0.0011345423697523608 0.9987626204754639 -0.0028962627145641077
 -6.0595010647067556e-05 -0.00036281630168362965 6.264221775999953e-05 0.0005773685163252678 0.9987626204754639 -0.0028962627145641077 0.0012097341092544625 0.0011345421344554384
0.01250521050438 0.0013213001602242213 0.00229341965980946 0.9986202909865871 -0.005793371733580468 8.756704810660447e-05 0.0011551763354366743 -8.274599226822303e-05 -0.0007275594700179323
 0.9986202909865871 -0.005793371733580468 0.0013212880235994393 0.0022934227381155806 -8.275816912807317e-05 -0.0007275630089667365 8.759111820885443e-05 0.0011551717854477958
 8.756704810660447e-05 0.0011551763354366743 -8.275816912807317e-05 -0.0007275630089667365 0.0013212921738413976 0.0022932539868630725 0.998620289844865 -0.005793539125821236
 -8.274599226822303e-05 -0.0007275594700179323 8.759111820885443e-05 0.0011551717854477958 0.998620289844865 -0.005793539125821236 0.0013212937408870412 0.002293253659294021
0.01875781575657 0.0014401505648422041 0.003469153472567915 0.9984676031963947 -0.008698684620879095 0.00011673332809126348 0.001733837860711365 -0.00010840081223035613 -0.0010937366208278734
 0.9984676031963947 -0.008698684620879095 0.0014401232901936683 0.003469158438647382 -0.00010842796815699436 -0.0010937414942330255 0.00011678738348660019 0.0017338298869268322
 0.00011673332809126348 0.001733837860711365 -0.00010842796815699436 -0.0010937414942330255 0.0014401330319208608 0.0034689052766208057 0.9984676010502821 -0.008698935501706497
 -0.00010840081223035613 -0.0010937366208278734 0.00011678738348660019 0.0017338298869268322 0.9984676010502821 -0.008698935501706497 0.0014401365669548575 0.0034689049870642503
0.02501042100875 0.0015664705358681933 0.0046602362979587955 0.9983044183720982 -0.011613580710019283 0.00015018412936368 0.002313413674366762 -0.00013761412082707354 -0.0014612142348389443
 0.9983044183720982 -0.011613580710019283 0.0015664220925457161 0.00466024342462119 -0.00013766207911166406 -0.0014612200975440933 0.00015028012213656435 0.002313401368763594
 0.00015018412936368 0.002313413674366762 -0.00013766207911166406 -0.0014612200975440933 0.0015664397605273709 0.004659905748978982 0.9983044149333767 -0.011613915025642236
 -0.00013761412082707354 -0.0014612142348389443 0.00015028012213656435 0.002313401368763594 0.9983044149333767 -0.011613915025642236 0.001566446062100859 0.004659905616396579
0.03126302626094 0.0017004354450055373 0.005865877329758537 0.9981305884278447 -0.014538719442348077 0.00018796920509333117 0.002893910193645284 -0.0001704394427309934 -0.0018299088509358115
 0.9981305884278447 -0.014538719442348077 0.0017003598094331332 0.005865886919685838 -0.00017051397016054214 -0.0018299153140401618 0.000188119100812772 0.0028938925429743993
 0.00018796920509333117 0.002893910193645284 -0.00017051397016054214 -0.0018299153140401618 0.001700387732200304 0.005865464614341127 0.9981305834076718 -0.014539137156174487
 -0.0001704394427309934 -0.0018299088509358115 0.000188119100812772 0.0028938925429743993 0.9981305834076718 -0.014539137156174487 0.0017003976061387214 0.0058654647465626025
0.037515631513130004 0.0018422169918280832 0.007085581938013724 0.9979459608347977 -0.017474460021013875 0.00023013850144612351 0.003475313728019233 -0.00020692959130324366 -0.0021997549280198796
 0.9979459608347977 -0.017474460021013875 0.0018421081462095265 0.007085594323894192 -0.0002070364045471135 -0.0021997615585913587 0.00023035428714080947 0.003475289612670412
 0.00023013850144612351 0.003475313728019233 -0.0002070364045471135 -0.0021997615585913587 0.0018421486490474964 0.007085087255862471 0.9979459539454475 -0.017474961117491358
 -0.00020692959130324366 -0.0021997549280198796 0.00023035428714080947 0.003475289612670412 0.9979459539454475 -0.017474961117491358 0.001842162908625081 0.007085087749308166
0.043768236765320004 0.001991984921733222 0.008318998435249842 0.9977503804015149 -0.020421014602973814 0.00027674195659323144 0.004057600250188042 -0.00024713682908859277 -0.0025706950624309727
 0.9977503804015149 -0.020421014602973814 0.001991836853088829 0.008319013980029724 -0.0002472815985777675 -0.0025707013833686505 0.0002770356459561614 0.004057568442813471
 0.00027674195659323144 0.004057600250188042 -0.0002472815985777675 -0.0025707013833686505 0.0019918922545530526 0.008318422023205766 0.9977503713525574 -0.020421599063936594
 -0.00024713682908859277 -0.0025706950624309727 0.0002770356459561614 0.004057568442813471 0.9977503713525574 -0.020421599063936594 0.0019919117204489946 0.008318422962683685
0.050020842017509996 0.002149907830917181 0.009565854779168966 0.9975436901430966 -0.02337851155306847 0.00032782938801040963 0.004640739429123773 -0.00029111293807877216 -0.0029426759431335483
 0.9975436901430966 -0.02337851155306847 0.0021497145301178303 0.009565873876348979 -0.0002913012905692841 -0.002942681433094735 0.0003282130250943505 0.004640698593153561
 0.00032782938801040963 0.004640739429123773 -0.0002913012905692841 -0.002942681433094735 0.0021497871466715245 0.009565196888463258 0.9975436786451499 -0.02337917938082489
 -0.00029111293807877216 -0.0029426759431335483 0.0003282130250943505 0.004640698593153561 0.9975436786451499 -0.02337917938082489 0.0021498126466232754 0.009565198346929238
0.055454545454549996 0.0022939008605120763 0.010660151067849318 0.9973549246054867 -0.025957612277069837 0.0003759059959439308 0.005148170670696241 -0.0003324301715904686 -0.003266744019150838
 0.9973549246054867 -0.025957612277069837 0.0022936633742662903 0.010660173595706701 -0.0003326609360840911 -0.0032667483291831307 0.00037637760743543643 0.005148120817123444
 0.0003759059959439308 0.005148170670696241 -0.0003326609360840911 -0.0032667483291831307 0.002293752829352293 0.010659422599967206 0.9973549107429004 -0.025958352556201783
 -0.0003324301715904686 -0.003266744019150838 0.00037637760743543643 0.005148120817123444 0.9973549107429004 -0.025958352556201783 0.002293784250818502 0.010659424559245931
0.056273447269699996 0.002316153596810311 0.010825927471167274 0.9973257317770228 -0.026347026501501666 0.00038345041816882506 0.0052246965985488425 -0.000338909250154372 -0.003315646371791174
 0.9973257317770228 -0.026347026501501666 0.0023159090583636556 0.010825950545101048 -0.0003391467705324688 -0.003315650465152301 0.00038393608039594243 0.005224645286605755
 0.00038345041816882506 0.0052246965985488425 -0.0003391467705324688 -0.003315650465152301 0.002316001202547014 0.010825188386486188 0.9973257175389713 -0.026347777700256314
 -0.000338909250154372 -0.003315646371791174 0.00038393608039594243 0.005224645286605755 0.9973257175389713 -0.026347777700256314 0.002316033571365848 0.01082519042472198
0.06252605252188 0.0024908896196878362 0.01209902448606892 0.9970963460302548 -0.029326599370411145 0.00044365441873074325 0.005809433843768291 -0.0003905766581169728 -0.003689556164998828
 0.9970963460302548 -0.029326599370411145 0.002490587840971331 0.012099051992252918 -0.0003908688906927893 -0.003689558251820704 0.00044425421923657035 0.005809370496019343
 0.00044365441873074325 0.005809433843768291 -0.0003908688906927893 -0.003689558251820704 0.0024907018230288713 0.012098204519556293 0.9970963287607176 -0.029327433952624264
 -0.0003905766581169728 -0.003689556164998828 0.00044425421923657035 0.005809370496019343 0.9970963287607176 -0.029327433952624264 0.0024907419020920797 0.012098207185902429
0.06877865777407 0.0026742829696625053 0.013384975072742873 0.9968553728547556 -0.032317244529645274 0.0005084904660952723 0.00639491064181485 -0.00044616561433212754 -0.0040643555038466575
 0.9968553728547556 -0.032317244529645274 0.0026739179508236785 0.01338500749812797 -0.00044651806380478944 -0.004064354929861045 0.0005092165558229245 0.006394833584293482
 0.0005084904660952723 0.00639491064181485 -0.00044651806380478944 -0.004064354929861045 0.0026740560779007177 0.013384074569570378 0.9968553522605369 -0.03231816251088926
 -0.00044616561433212754 -0.0040643555038466575 0.0005092165558229245 0.006394833584293482 0.9968553522605369 -0.03231816251088926 0.0026741047151047415 0.013384077899599639
0.07503126302626001 0.002866500470402307 0.014683623309702513 0.9966026515796569 -0.03531895719817672 0.0005780073027586083 0.006981084267270567 -0.0005057261228188241 -0.004439994518576773
 0.9966026515796569 -0.03531895719817672 0.0028660662138518893 0.014683661173043388 -0.0005061442549908425 -0.004439990585174506 0.0005788718721685585 0.006980991710161921
 0.0005780073027586083 0.006981084267270567 -0.0005061442549908425 -0.004439990585174506 0.002866230791839272 0.014682642639379899 0.9966026273667681 -0.035319958606308606
 -0.0005057261228188241 -0.004439994518576773 0.0005788718721685585 0.006980991710161921 0.9966026273667681 -0.035319958606308606 0.0028662888411334912 0.014682646655605423
0.08128386827845 0.0030677087510274366 0.01599482379374544 0.9963380210336489 -0.038331717713138196 0.0006522533023949298 0.007567910060503645 -0.0005693077266734535 -0.004816423011663184
 0.9963380210336489 -0.038331717713138196 0.0030671992612673264 0.015994867645907723 -0.000569796968995796 -0.004816414975887289 0.0006532685831459946 0.007567800096357071
 0.0006522533023949298 0.007567910060503645 -0.000569796968995796 -0.004816414975887289 0.0030673925942020265 0.015993763361241854 0.9963379929064603 -0.038332802577577874
 -0.0005693077266734535 -0.004816423011663184 0.0006532685831459946 0.007567800096357071 0.9963379929064603 -0.038332802577577874 0.003067460915302215 0.015993768072772856
0.08753647353064001 0.0032780742716417245 0.017318438671267544 0.9960613196421634 -0.04135549445701225 0.0007312764378752897 0.008155341611118791 -0.0006369594919542975 -0.005193590266520887
 0.9960613196421634 -0.04135549445701225 0.003277483554867932 0.01731848909553853 -0.0006375252339110974 -0.005193577341063139 0.0007324547041930411 0.008155212213070336
 0.0007312764378752897 0.008155341611118791 -0.0006375252339110974 -0.005193577341063139 0.0032777079457948412 0.017317298914202053 0.9960612873035434 -0.04135666281187881
 -0.0006369594919542975 -0.005193590266520887 0.0007324547041930411 0.008155212213070336 0.9960612873035434 -0.04135666281187881 0.0032777874039365607 0.017317304316485142
0.09378907878283 0.003497763333420127 0.01865433551804448 0.9957723855107387 -0.044390245937010214 0.0008151242500757292 0.00874333088877318 -0.0007087299898410629 -0.0055714449098158755
 0.9957723855107387 -0.044390245937010214 0.0034970853974140067 0.018654393130505112 -0.0007093775832692173 -0.005571426263024194 0.0008164778201641461 0.008743179908700435
 0.0008151242500757292 0.00874333088877318 -0.0007093775832692173 -0.005571426263024194 0.003497343148933428 0.01865311690358808 0.9957723486619221 -0.04439149782480513
 -0.0007087299898410629 -0.0055714449098158755 0.0008164778201641461 0.008743179908700435 0.9957723486619221 -0.04439149782480513 0.0034974346143318443 0.018653122978032694
0.100041684035 0.0037269420777017092 0.020002385768286116 0.9954710564983401 -0.0474359223163758 0.000903843818431472 0.009331828337751771 -0.0007846672764385168 -0.00594993481096623
 0.9954710564983401 -0.0474359223163758 0.003726170931596916 0.020002451218132336 -0.0007854020357331749 -0.005949909566847828 0.0009053850557757497 0.00933165350440577
 0.000903843818431472 0.009331828337751771 -0.0007854020357331749 -0.005949909566847828 0.0037264643459029947 0.020001088797098394 0.995471014838589 -0.047437257784357756
 -0.0007846672764385168 -0.00594993481096623 0.0009053850557757497 0.00933165350440577 0.995471014838589 -0.047437257784357756 0.0037265686935211446 0.020001095510818072
0.1059090909091 0.0039507806317469404 0.02127832917609218 0.9951768735804105 -0.05030385191064181 0.0009915700390836723 0.009884487533377475 -0.0008597583515496278 -0.006305638030232851
 0.9951768735804105 -0.05030385191064181 0.003949916570166251 0.021278402600689 -0.0008605797069133917 -0.006305605759029956 0.000993298667989443 0.009884288139253064
 0.0009915700390836723 0.009884487533377475 -0.0008605797069133917 -0.006305605759029956 0.003950245544315995 0.021276959161028123 0.9951768271306501 -0.05030526585693194
 -0.0008597583515496278 -0.006305638030232851 0.000993298667989443 0.009884288139253064 0.9951768271306501 -0.05030526585693194 0.00395036278007491 0.021276966431671106
0.1062942892872 0.003965776475713966 0.02136246354608686 0.9951571702829908 -0.050492466544122996 0.0009974817317608795 0.009920782949314599 -0.0008648188716584862 -0.006329007004877572
 0.9951571702829908 -0.050492466544122996 0.003964906129735348 0.021362537515936284 -0.0008656460739076822 -0.0063289742431125815 0.000999223046236879 0.009920581866431384
 0.0009974817317608795 0.009920782949314599 -0.0008656460739076822 -0.0063289742431125815 0.003965237509342545 0.02136108875287157 0.9951571235094334 -0.05049388564417002
 -0.0008648188716584862 -0.006329007004877572 0.000999223046236879 0.009920581866431384 0.9951571235094334 -0.05049388564417002 0.003965355618404891 0.02136109605832333
0.11254689453939999 0.004214432312464021 0.022734444762754238 0.9948305644224484 -0.053559815220014406 0.0010960840594924437 0.010510142314372393 -0.0009492317368615658 -0.006708607635410157
 0.9948305644224484 -0.053559815220014406 0.004213456777667435 0.022734527969020948 -0.0009501566219307583 -0.006708566391368144 0.0010980379085619143 0.010509912458732864
 0.0010960840594924437 0.010510142314372393 -0.0009501566219307583 -0.006708566391368144 0.004213828425913741 0.022732992714609712 0.9948305122301022 -0.05356131801070504
 -0.0009492317368615658 -0.006708607635410157 0.0010980379085619143 0.010509912458732864 0.9948305122301022 -0.05356131801070504 0.00421396117951123 0.022733000549320585
0.11879949979160001 0.0044730751651705855 0.02411820641359252 0.9944910764116169 -0.0566378992611481 0.0011996963233615822 0.011099852666003584 -0.0010379522514838528 -0.007088681910084641
 0.9944910764116169 -0.0566378992611481 0.0044719884534445324 0.024118299606818563 -0.0010389800220574142 -0.0070886311748455735 0.001201875213171321 0.011099591385476998
 0.0011996963233615822 0.011099852666003584 -0.0010389800220574142 -0.0070886311748455735 0.004472402674917043 0.024116677712189342 0.994491018493197 -0.05663948580600014
 -0.0010379522514838528 -0.007088681910084641 0.001201875213171321 0.011099591385476998 0.994491018493197 -0.05663948580600014 0.004472550959641768 0.024116685998409687
0.1250521050438 0.004741870378738506 0.025513626018227646 0.9941385437373319 -0.059726644426264026 0.0013083634690773283 0.011689858913191613 -0.001131026189008522 -0.007469174064655342
 0.9941385437373319 -0.059726644426264026 0.0047406665024557395 0.02551372998344242 -0.001132162010591798 -0.007469112785035878 0.0013107799555264826 0.011689563424732057
 0.0013083634690773283 0.011689858913191613 -0.001132162010591798 -0.007469112785035878 0.004741125603367564 0.02551202130128197 0.9941384797829493 -0.05972831479259063
 -0.001131026189008522 -0.007469174064655342 0.0013107799555264826 0.011689563424732057 0.9941384797829493 -0.05972831479259063 0.004741290308752741 0.02551202994572927
0.131304710296 0.005020983036812277 0.0269205811733855 0.9937728039305131 -0.06282597172866018 0.0014221298379818747 0.012280104668236176 -0.0012284986923730393 -0.007850027335199097
 0.9937728039305131 -0.06282597172866018 0.005019656008714095 0.026920696730434707 -0.0012297476932466047 -0.007849954413778606 0.0014247965277154498 0.012279772055863156
 0.0014221298379818747 0.012280104668236176 -0.0012297476932466047 -0.007849954413778606 0.005020162297501782 0.026918901111759885 0.9937727336277073 -0.06282772599093546
 -0.0012284986923730393 -0.007850027335199097 0.0014247965277154498 0.012279772055863156 0.9937727336277073 -0.06282772599093546 0.005020344315607544 0.026918910005278626
0.1375573155481 0.005237738780201466 0.02815467300222606 0.9934665491694314 -0.06575147729826263 0.0015241700124210172 0.012851225402668698 -0.0013135422617601348 -0.008211883881645572
 0.9934665491694314 -0.06575147729826263 0.005236282659567706 0.028154799137057217 -0.0013149119824860346 -0.008211799533307036 0.0015270944170960102 0.012850856677717723
 0.0015241700124210172 0.012851225402668698 -0.0013149119824860346 -0.008211799533307036 0.0052368388625579545 0.028152918235296517 0.9934664722333351 -0.06575331548474445
 -0.0013135422617601348 -0.008211883881645572 0.0015270944170960102 0.012850856677717723 0.9934664722333351 -0.06575331548474445 0.0052370381531003365 0.028152925423108096
0.1438099208003 0.0054617817082577855 0.029383638328908567 0.9931501255002243 -0.06867096559241498 0.00163031610562089 0.013420868592839552 -0.0014019921866108209 -0.008572386218914107
 0.9931501255002243 -0.06867096559241498 0.005460190522223771 0.02938377573257273 -0.0014034881370048645 -0.0085722893951434 0.0016335099782072856 0.013420461124093591
 0.00163031610562089 0.013420868592839552 -0.0014034881370048645 -0.0085722893951434 0.005460799021123528 0.029381809546770197 0.9931500416201151 -0.06867288777490448
 -0.0014019921866108209 -0.008572386218914107 0.0016335099782072856 0.013420461124093591 0.9931500416201151 -0.06867288777490448 0.005461016316176713 0.02938181476214084
0.1500625260525 0.0056930488636282054 0.030607415560740724 0.9928235982893493 -0.07158440603163489 0.0017405404749526777 0.01398900381098556 -0.0014938215571116444 -0.008931504426193757
 0.9928235982893493 -0.07158440603163489 0.005691316641049123 0.030607564953722046 -0.001495449240599974 -0.008931394037040142 0.0017440155579700638 0.013988554865893272
 0.0017405404749526777 0.01398900381098556 -0.001495449240599974 -0.008931394037040142 0.005691979823772178 0.030605513483730307 0.99282350715254 -0.07158641228222812
 -0.0014938215571116444 -0.008931504426193757 0.0017440155579700638 0.013988554865893272 0.99282350715254 -0.07158641228222812 0.005692215847526675 0.03060551645104284
0.15631513130469998 0.005931477019790156 0.03182594524432493 0.9924870330381925 -0.07449176739881731 0.001854815258101645 0.014555601001801883 -0.0015890032308894238 -0.009289209130476999
