! Created with skrf 1.8.0 (http://scikit-rf.org).
# GHz S RI R 50.0 
!freq ReS11 ImS11 ReS12 ImS12 ReS13 ImS13
! ReS14 ImS14
! ReS21 ImS21 ReS22 ImS22 ReS23 ImS23
! ReS24 ImS24
! ReS31 ImS31 ReS32 ImS32 ReS33 ImS33
! ReS34 ImS34
! ReS41 ImS41 ReS42 ImS42 ReS43 ImS43
! ReS44 ImS44
!
0.0 0.00169420420723 0.0 0.9983057957643 0.0 6.546280780597e-05 0.0 -6.546280798399e-05 8.016881826079115e-21
 0.9983057957643 0.0 0.001694204207211 0.0 -6.546280798265e-05 8.016881825915013e-21 6.54628078054e-05 0.0
 6.546280780597e-05 0.0 -6.546280798265e-05 8.016881825915013e-21 0.00169420422142 0.0 0.9983057957786 0.0
 -6.546280798399e-05 8.016881826079115e-21 6.54628078054e-05 0.0 0.9983057957786 0.0 0.001694204221474 0.0
0.005 0.001823263314893586 0.0013881238595188233 0.9981424463792651 -0.0035482729247910748 9.160932379422655e-05 0.0007057613508206249 -8.900845253796256e-05 -0.0004456235983499662
 0.9981424463792651 -0.0035482729247910748 0.0018232825384931761 0.0013881125884007296 -8.900650534686149e-05 -0.00044562206485890596 9.150580199733998e-05 0.0007058009218448219
 9.160932379422655e-05 0.0007057613508206249 -8.900650534686149e-05 -0.00044562206485890596 0.0018232648887253316 0.0013881901713812886 0.9981424467534734 -0.003548205859283661
 -8.900845253796256e-05 -0.0004456235983499662 9.150580199733998e-05 0.0007058009218448219 0.9981424467534734 -0.003548205859283661 0.0018232817033233875 0.0013881803983556793
0.006252605252188 0.0018572504079089858 0.0017405837701482297 0.9980991358721147 -0.004436185094699989 9.915639028091579e-05 0.0008825416426234021 -9.571529843227534e-05 -0.0005575936314649332
 0.9980991358721147 -0.004436185094699989 0.0018572804580126018 0.0017405694269886 -9.571226876467682e-05 -0.0005575917402664084 9.899464974931088e-05 0.0008825930258055336
 9.915639028091579e-05 0.0008825416426234021 -9.571226876467682e-05 -0.0005575917402664084 0.0018572527916663891 0.0017406666414173416 0.9980991363803777 -0.004436101271115053
 -9.571529843227534e-05 -0.0005575936314649332 9.899464974931088e-05 0.0008825930258055336 0.9980991363803777 -0.004436101271115053 0.0018572790750755813 0.001740654182491104
0.01250521050438 0.0020369737322978843 0.003517322778480455 0.997868497010459 -0.008872996064577813 0.00014284409716369166 0.0017654224658139957 -0.00013408554447307303 -0.0011177833722389196
 0.997868497010459 -0.008872996064577813 0.002037093725319161 0.003517291496341376 -0.00013407360875873853 -0.001117779873018996 0.0001421991805204207 0.0017655460865063563
 0.00014284409716369166 0.0017654224658139957 -0.00013407360875873853 -0.001117779873018996 0.0020369826876090033 0.003517488144677083 0.9978684984740941 -0.008872828649081026
 -0.00013408554447307303 -0.0011177833722389196 0.0001421991805204207 0.0017655460865063563 0.9978684984740941 -0.008872828649081026 0.0020370876261968573 0.003517460772154834
0.01875781575657 0.0022337962336241514 0.005319035708152361 0.997613571497845 -0.013321194050105437 0.0001966314242453176 0.002649191790227961 -0.0001806970538571247 -0.0016797629263611317
 0.997613571497845 -0.013321194050105437 0.0022340658703394354 0.005318984634453433 -0.0001806704426052596 -0.0016797581608125973 0.00019518285033027745 0.00264941291405306
 0.0001966314242453176 0.002649191790227961 -0.0001806704426052596 -0.0016797581608125973 0.002233815942775219 0.005319283260969703 0.997613574369998 -0.013320943094361996
 -0.0001806970538571247 -0.0016797629263611317 0.00019518285033027745 0.00264941291405306 0.997613574369998 -0.013320943094361996 0.002234051724573248 0.00531923833881537
0.02501042100875 0.002448125696159596 0.00714317012084908 0.9973340386803069 -0.017782897363068623 0.0002606253511143714 0.00353385710120018 -0.00023566884567530343 -0.0022432604373469585
 0.9973340386803069 -0.017782897363068623 0.0024486045616632164 0.007143096164552843 -0.0002356218606188043 -0.002243254811506433 0.0002580526285180557 0.003534205260917208
 0.0002606253511143714 0.00353385710120018 -0.0002356218606188043 -0.002243254811506433 0.0024481603333097166 0.00714349949068787 0.9973340434154235 -0.01778256286932812
 -0.00023566884567530343 -0.0022432604373469585 0.0002580526285180557 0.003534205260917208 0.9973340434154235 -0.01778256286932812 0.0024485790298934625 0.007143434216863225
0.03126302626094 0.002680353031233481 0.008988393814023525 0.9970295626739688 -0.022258990115057564 0.0003349329887070158 0.0044193458383648765 -0.0002991162307709095 -0.0028080766568499534
 0.9970295626739688 -0.022258990115057564 0.002681100626816904 0.008988293648233673 -0.0002990432330445563 -0.002808070641755549 0.0003309153238267263 0.004419854857433952
 0.0003349329887070158 0.0044193458383648765 -0.0002990432330445563 -0.002808070641755549 0.0026804067635866117 0.008988804561497296 0.9970295697283746 -0.022258572044131557
 -0.0002991162307709095 -0.0028080766568499534 0.0003309153238267263 0.004419854857433952 0.9970295697283746 -0.022258572044131557 0.0026810603583818315 0.008988715970989073
0.037515631513130004 0.0029308603411654314 0.010853824011838261 0.9966998007452991 -0.026749892965893113 0.00041966049250592637 0.005305553356071863 -0.00037115159167969906 -0.003374036998637658
 0.9966998007452991 -0.026749892965893113 0.002931936105177911 0.010853694074343296 -0.0003710469957125314 -0.0033740311304773438 0.0004138766640121439 0.005306261389652859
 0.00041966049250592637 0.005305553356071863 -0.0003710469957125314 -0.0033740311304773438 0.002930937329626415 0.010854315625984075 0.9966998105802645 -0.026749391238296585
 -0.00037115159167969906 -0.003374036998637658 0.0004138766640121439 0.005306261389652859 0.9966998105802645 -0.026749391238296585 0.002931877738165528 0.010854200592112045
0.043768236765320004 0.003200024034841546 0.012738792805306608 0.9963444067496768 -0.031255797611610396 0.0005149125330125285 0.006192357533307409 -0.0004518846528421756 -0.0039409769478789755
 0.9963444067496768 -0.031255797611610396 0.003201487359219299 0.012738629298253042 -0.0004517429228085588 -0.003940971827999023 0.0005070408374873553 0.00619330711464657
 0.0005149125330125285 0.006192357533307409 -0.0004517429228085588 -0.003940971827999023 0.003200128435105136 0.012739364682221043 0.9963444198338022 -0.03125521212813634
 -0.0004518846528421756 -0.0039409769478789755 0.0005070408374873553 0.00619330711464657 0.9963444198338022 -0.03125521212813634 0.00320140752103986 0.012739219917345126
0.050020842017509996 0.0034882162586018037 0.014642750185395445 0.9959630328886891 -0.03577676367831175 0.0006207919737205686 0.007079624800549713 -0.0005414225583839453 -0.004508736058251125
 0.9959630328886891 -0.03577676367831175 0.003490126503094407 0.014642549074365385 -0.0005412382060165713 -0.004508732353108723 0.0006105102091686929 0.007080862889492248
 0.0006207919737205686 0.007079624800549713 -0.0005412382060165713 -0.004508732353108723 0.0034883522185804117 0.014643401643635975 0.9959630496971221 -0.035776094303817126
 -0.0005414225583839453 -0.004508736058251125 0.0006105102091686929 0.007080862889492248 0.9959630496971221 -0.035776094303817126 0.0034900218072094276 0.014643223699346179
0.055454545454549996 0.0037544038878556465 0.016312394123761415 0.9956102380377525 -0.03971783410862869 0.0007215135191570808 0.007850952891149914 -0.0006264655971833181 -0.0050026774506178985
 0.9956102380377525 -0.03971783410862869 0.0037567507110993032 0.016312156872679343 -0.0006262397833044264 -0.005002675566705447 0.0007088752816146693 0.007852483314135307
 0.0007215135191570808 0.007850952891149914 -0.0006262397833044264 -0.005002675566705447 0.0037545706352810322 0.016313114114728106 0.9956102584744768 -0.03971709170442933
 -0.0006264655971833181 -0.0050026774506178985 0.0007088752816146693 0.007852483314135307 0.9956102584744768 -0.03971709170442933 0.0037566216513712047 0.016312904410972544
0.056273447269699996 0.0037958056180900945 0.01656521648318697 0.9955553307639945 -0.040312766211755134 0.0007373996321984296 0.007967213118082232 -0.0006398698723702352 -0.005077155003102114
 0.9955553307639945 -0.040312766211755134 0.0037982221226369153 0.01656497349598478 -0.0006396374553798593 -0.0050771534442167875 0.0007243851045870945 0.007968791150431162
 0.0007373996321984296 0.007967213118082232 -0.0006396374553798593 -0.0050771534442167875 0.0037959772763373604 0.016565946748286937 0.9955553517796477 -0.04031201279006139
 -0.0006398698723702352 -0.005077155003102114 0.0007243851045870945 0.007968791150431162 0.9955553517796477 -0.04031201279006139 0.0037980891679832837 0.016565732015172512
0.06252605252188 0.0041231575472534835 0.018505756210376284 0.9951209520843023 -0.044863721771924533 0.0008648340892139207 0.008854973605214242 -0.0007473285327024562 -0.005646073981886458
 0.9951209520843023 -0.044863721771924533 0.00412613964492525 0.01850546683513703 -0.0007470426539077695 -0.00564607536574658 0.0008487636343613965 0.008856947542285078
 0.0008648340892139207 0.008854973605214242 -0.0007470426539077695 -0.00564607536574658 0.004123369032519811 0.01850656442409464 0.9951209777990541 -0.04486288411569318
 -0.0007473285327024562 -0.005646073981886458 0.0008487636343613965 0.008856947542285078 0.9951209777990541 -0.04486288411569318 0.004125975014801966 0.01850630913107145
0.06877865777407 0.004470634490594876 0.020463962468802468 0.9946595491894412 -0.04942950396457956 0.0010031915199855545 0.009742751533795927 -0.0008638977834942376 -0.006215331768862171
 0.9946595491894412 -0.04942950396457956 0.004474241518410897 0.020463621951841173 -0.0008635530900905187 -0.006215336956853869 0.0009837415362443937 0.00974518191181764
 0.0010031915199855545 0.009742751533795927 -0.0008635530900905187 -0.006215336956853869 0.0044708899200599775 0.02046484768158867 0.9946595801051178 -0.04942858186229294
 -0.0008638977834942376 -0.006215331768862171 0.0009837415362443937 0.00974518191181764 0.9946595801051178 -0.04942858186229294 0.00447404177986008 0.020464547894783813
0.07503126302626001 0.004838595968737971 0.02243944706748067 0.9941707754637209 -0.0540099532726755 0.0011525655408927472 0.010630386964502712 -0.0009896740914831772 -0.006784765125965839
 0.9941707754637209 -0.0540099532726755 0.004842887279561728 0.0224390504105976 -0.0009892652746690024 -0.006784775044271013 0.0011294120298905213 0.01063333894362967
 0.0011525655408927472 0.010630386964502712 -0.0009892652746690024 -0.006784775044271013 0.004838899447028589 0.022440408240000157 0.9941708120935182 -0.05400894648647086
 -0.0009896740914831772 -0.006784765125965839 0.0011294120298905213 0.01063333894362967 0.9941708120935182 -0.05400894648647086 0.004842648982567844 0.022440059861278654
0.08128386827845 0.005227398573649752 0.0244318339642772 0.9936542856829474 -0.058604883570667496 0.001313047065869601 0.011517715176091336 -0.0011247510519881358 -0.007354208429916706
 0.9936542856829474 -0.058604883570667496 0.005232433547118947 0.02443137592176496 -0.0011242728467869784 -0.00735422406941083 0.0012858656798868245 0.01152125858885641
 0.001313047065869601 0.011517715176091336 -0.0011242728467869784 -0.00735422406941083 0.005227754190885198 0.024432869967969197 0.9936543285519376 -0.05860379183529597
 -0.0011247510519881358 -0.007354208429916706 0.0012858656798868245 0.01152125858885641 0.9936543285519376 -0.05860379183529597 0.005232153222985933 0.024432468733028265
0.08753647353064001 0.005637395915956512 0.026440754719399936 0.9931097363183055 -0.0632140866355364 0.0014847241675235896 0.01240456698239339 -0.001269219289642344 -0.007923493419039746
 0.9931097363183055 -0.0632140866355364 0.005643233969485743 0.02644022979450744 -0.0012686664747400466 -0.007923515835195667 0.001453190261986917 0.0124087763814581
 0.0014847241675235896 0.01240456698239339 -0.0012686664747400466 -0.007923515835195667 0.005637807746385137 0.0264418643333849 0.9931097859647461 -0.06321290966091442
 -0.001269219289642344 -0.007923493419039746 0.001453190261986917 0.0124087763814581 0.9931097859647461 -0.06321290966091442 0.005642908130731799 0.026441405809287825
0.09378907878283 0.006068938538887218 0.028465845263913703 0.9925367858111913 -0.06783733535119828 0.0016676819434770752 0.013290768963963397 -0.001423166352993215 -0.008492449033067001
 0.9925367858111913 -0.06783733535119828 0.006075639138965767 0.02846524770481719 -0.0014225337508510215 -0.008492479345820142 0.0016314706339409751 0.013295723669082346
 0.0016676819434770752 0.013290768963963397 -0.0014225337508510215 -0.008492479345820142 0.006069410639450207 0.02846702717547655 0.9925368427876183 -0.06783607282145673
 -0.001423166352993215 -0.008492449033067001 0.0016314706339409751 0.013295723669082346 0.9925368427876183 -0.06783607282145673 0.006075264277806414 0.02846650675790908
0.100041684035 0.006522373809170755 0.030506743528728373 0.9919350948289475 -0.072474386061507 0.0018620023848359827 0.01417614365611406 -0.0015866766066450157 -0.0090609013044296
 0.9919350948289475 -0.072474386061507 0.006529996482176031 0.030506067324187515 -0.0015859590835520768 -0.00906094069806674 0.0018207886077032302 0.014181927800159394
 0.0018620023848359827 0.01417614365611406 -0.0015859590835520768 -0.00906094069806674 0.006522910217354222 0.030507996333040327 0.9919351597029253 -0.07247303763501291
 -0.0015866766066450157 -0.0090609013044296 0.0018207886077032302 0.014181927800159394 0.9919351597029253 -0.07247303763501291 0.006529569069699461 0.030507409242960304
0.1059090909091 0.006968092373020638 0.03243596471808862 0.9913440324039627 -0.0768380890671702 0.0020547559257258177 0.015006059986796353 -0.0017488835141835446 -0.009593718108052228
 0.9913440324039627 -0.0768380890671702 0.006976634515000818 0.03243520901050272 -0.0017480816719259225 -0.009593767157437087 0.0020085521183359828 0.015012703316345398
 0.0020547559257258177 0.015006059986796353 -0.0017480816719259225 -0.009593767157437087 0.006968692780729343 0.03243728268551054 0.9913441052200808 -0.07683665970423453
 -0.0017488835141835446 -0.009593718108052228 0.0020085521183359828 0.015012703316345398 0.9913441052200808 -0.07683665970423453 0.006976154560077235 0.032436628524849756
0.1062942892872 0.006998045789528183 0.03256308767977052 0.9913043265058349 -0.07712498032648006 0.002067764247175041 0.015060509700346792 -0.0017598311203320806 -0.00962867329410591
 0.9913043265058349 -0.07712498032648006 0.007006650132421411 0.032562326554135664 -0.001759023586587358 -0.00962872301712673 0.002021222823832809 0.015067212274405722
 0.002067764247175041 0.015060509700346792 -0.001759023586587358 -0.00962872301712673 0.006998650522215197 0.03256440987768874 0.9913043998616744 -0.07712354563768911
 -0.0017598311203320806 -0.00962867329410591 0.002021222823832809 0.015067212274405722 0.9913043998616744 -0.07712354563768911 0.007006166618235805 0.03256375115751178
0.11254689453939999 0.007496295098399882 0.03463451475989875 0.9906441466751309 -0.08178884628127137 0.002285042923001609 0.01594368197743583 -0.0019427075564869157 -0.010195585053987165
 0.9906441466751309 -0.08178884628127137 0.00750594079000298 0.034633662167758296 -0.0019418049666394008 -0.010195646418959021 0.002232848626902893 0.015951396874839208
 0.002285042923001609 0.01594368197743583 -0.0019418049666394008 -0.010195646418959021 0.007496972149764415 0.034635904758478296 0.9906442291146688 -0.08178732494012264
 -0.0019427075564869157 -0.010195585053987165 0.002232848626902893 0.015951396874839208 0.9906442291146688 -0.08178732494012264 0.007505397600876463 0.03463516926777699
0.11879949979160001 0.0080174587589165 0.03672065965103126 0.9899542240938519 -0.08646569968493914 0.002513910315477328 0.016825471721453374 -0.002135380056384694 -0.01076145361663293
 0.9899542240938519 -0.08646569968493914 0.008028205570776055 0.03671970877125979 -0.002134377409591231 -0.010761528000046518 0.002455737942095357 0.016834297780627297
 0.002513910315477328 0.016825471721453374 -0.002134377409591231 -0.010761528000046518 0.008018212098978345 0.0367221157663697 0.9899543162373783 -0.08646409127368465
 -0.002135380056384694 -0.01076145361663293 0.002455737942095357 0.016834297780627297 0.9899543162373783 -0.08646409127368465 0.008027599109884848 0.036721298177130914
0.1250521050438 0.008561870039858852 0.03882115425868522 0.989234230661616 -0.09115524475675758 0.0027544347136738557 0.017705686630692816 -0.002337919125524296 -0.011326092996464658
 0.989234230661616 -0.09115524475675758 0.008573777847082287 0.038820097988056225 -0.002336811465797998 -0.011326181838552237 0.002689959152779432 0.01771572767690788
 0.0027544347136738557 0.017705686630692816 -0.002336811465797998 -0.011326181838552237 0.008562703612505215 0.03882267470976377 0.9892343331494223 -0.09115354883620011
 -0.002337919125524296 -0.011326092996464658 0.002689959152779432 0.01771572767690788 0.9892343331494223 -0.09115354883620011 0.008573104493153566 0.03882176950102556
0.131304710296 0.009129858290050585 0.04093562686165946 0.9884838416364413 -0.09585717485787902 0.0030066806685481377 0.018584130965237915 -0.0025503915182694395 -0.011889314212964363
 0.9884838416364413 -0.09585717485787902 0.009142987082173322 0.04093445780785187 -0.0025491739348617276 -0.011889419017545257 0.002935576979207096 0.018595495851015147
 0.0030066806685481377 0.018584130965237915 -0.0025491739348617276 -0.011889419017545257 0.009130776010890036 0.04093720977408756 0.9884839551294903 -0.09585539096363763
 -0.0025503915182694395 -0.011889314212964363 0.002935576979207096 0.018595495851015147 0.9884839551294903 -0.09585539096363763 0.009142243188598135 0.04093621122601706
0.1375573155481 0.009596332035367205 0.04278926930474952 0.9878282099982431 -0.10029659760248802 0.0032405023784601006 0.019434052482714747 -0.002742738236600109 -0.012424331193178284
 0.9878282099982431 -0.10029659760248802 0.009610745327753755 0.04278800368532631 -0.002741403304845978 -0.01242445219213336 0.0031626029689716616 0.01944673149265294
 0.0032405023784601006 0.019434052482714747 -0.002741403304845978 -0.01242445219213336 0.009597337127543662 0.042790913189490756 0.9878283350168705 -0.10029472545383449
 -0.002742738236600109 -0.012424331193178284 0.0031626029689716616 0.01944673149265294 0.9878283350168705 -0.10029472545383449 0.009609928185966888 0.04278983869902883
0.1438099208003 0.010079373370302656 0.04463226664717006 0.987149212876392 -0.10472385182081032 0.0034837439496237244 0.02027990299524467 -0.002942736624002132 -0.012955640569481525
 0.987149212876392 -0.10472385182081032 0.010095131811376229 0.0446308984851814 -0.0029412790460520244 -0.012955779256799459 0.003398752507357893 0.020293996431169067
 0.0034837439496237244 0.02027990299524467 -0.0029412790460520244 -0.012955779256799459 0.010080469585688102 0.04463396958482226 0.9871493500826755 -0.10472189096239645
 -0.002942736624002132 -0.012955640569481525 0.003398752507357893 0.020293996431169067 0.9871493500826755 -0.10472189096239645 0.010094237906662216 0.044632814844917726
0.1500625260525 0.010578798517691673 0.0464644381586501 0.986447038673143 -0.10913879989504882 0.0037363126204417673 0.02112157599856442 -0.0031502971434360476 -0.013483143591190887
 0.986447038673143 -0.10913879989504882 0.010595962877858934 0.04646296114977691 -0.0031487116348647044 -0.013483301521097297 0.003643934804103791 0.021137187837581152
 0.0037363126204417673 0.02112157599856442 -0.0031487116348647044 -0.013483301521097297 0.010579989573716005 0.046466198154412046 0.9864471887470067 -0.10913674985501366
 -0.0031502971434360476 -0.013483143591190887 0.003643934804103791 0.021137187837581152 0.9864471887470067 -0.10913674985501366 0.010594988681691555 0.04646495859759657
0.15631513130469998 0.01109442223478361 0.048285608498948175 0.9857218769249189 -0.11354130529941667 0.003998114432482861 0.021958966992964943 -0.003365329068782475 -0.014006743753805853
 0.9857218769249189 -0.11354130529941667 0.011113053409462802 0.048284016005280796 -0.003363610358680897 -0.014006922540581935 0.0038980579055873884 0.021976204846219854
