! Created with skrf 1.8.0 (http://scikit-rf.org).
# GHz S RI R 50.0 
!freq ReS11 ImS11 ReS12 ImS12 ReS13 ImS13
! ReS14 ImS14
! ReS21 ImS21 ReS22 ImS22 ReS23 ImS23
! ReS24 ImS24
! ReS31 ImS31 ReS32 ImS32 ReS33 ImS33
! ReS34 ImS34
! ReS41 ImS41 ReS42 ImS42 ReS43 ImS43
! ReS44 ImS44
!
0.0 0.001489901553328 0.0 0.9985100984467 0.0 5.766657275616e-05 0.0 -5.766657273453e-05 7.06211837171402e-21
 0.9985100984467 0.0 0.001489901553315 0.0 -5.766657273391e-05 7.062118371638091e-21 5.76665727567e-05 0.0
 5.766657275616e-05 0.0 -5.766657273391e-05 7.062118371638091e-21 0.00148990154186 0.0 0.9985100984352 0.0
 -5.766657273453e-05 7.06211837171402e-21 5.76665727567e-05 0.0 0.9985100984352 0.0 0.001489901541876 0.0
0.005 0.0016029215256085244 0.0012136476552090276 0.9983671172304258 -0.0031213971556062615 8.154707303418551e-05 0.000667685921460626 -7.89919404118348e-05 -0.0004134856384858553
 0.9983671172304258 -0.0031213971556062615 0.0016029325373208053 0.0012136412466093064 -7.89939022166766e-05 -0.0004134871794034352 8.14681746524758e-05 0.0006677158836544105
 8.154707303418551e-05 0.000667685921460626 -7.89939022166766e-05 -0.0004134871794034352 0.0016029200180403878 0.0012135813156583673 0.998367116889751 -0.0031214642184135112
 -7.89919404118348e-05 -0.0004134856384858553 8.14681746524758e-05 0.0006677158836544105 0.998367116889751 -0.0031214642184135112 0.001602933368144341 0.0012135734644107574
0.006252605252188 0.0016325193253112617 0.0015218646075664897 0.9983294403144479 -0.0039025190019165573 8.835378185127681e-05 0.0008349180991419296 -8.499680602593019e-05 -0.0005174016274766978
 0.9983294403144479 -0.0039025190019165573 0.0016325365386572622 0.0015218564771012576 -8.499985850389497e-05 -0.0005174035282680682 8.823050913392952e-05 0.0008349570106985798
 8.835378185127681e-05 0.0008349180991419296 -8.499985850389497e-05 -0.0005174035282680682 0.0016325170199578108 0.0015217816896264235 0.9983294398334532 -0.0039026028305053596
 -8.499680602593019e-05 -0.0005174016274766978 8.823050913392952e-05 0.0008349570106985798 0.9983294398334532 -0.0039026028305053596 0.0016325378894182041 0.00152177174658409
0.01250521050438 0.001788073069364925 0.0030758699566825133 0.9981301306417351 -0.0078059144134404205 0.0001273043642994829 0.0016701093991141715 -0.00011898138904582171 -0.0010373703488340924
 0.9981301306417351 -0.0078059144134404205 0.0017881418007796926 0.0030758525085444223 -0.00011899341561754348 -0.0010373738735643375 0.00012681274252992277 0.0016702029159911319
 0.0001273043642994829 0.0016701093991141715 -0.00011899341561754348 -0.0010373738735643375 0.0017880644291783255 0.003075704463053129 0.998130129290331 -0.007806081817361074
 -0.00011898138904582171 -0.0010373703488340924 0.00012681274252992277 0.0016702029159911319 0.998130129290331 -0.007806081817361074 0.001788147771738604 0.0030756832766379847
0.01875781575657 0.0019568944708158267 0.004652206613526424 0.9979119275120818 -0.011719700856320063 0.00017460620308995336 0.0025061732473116933 -0.00015972402095417823 -0.001559118542871795
 0.9979119275120818 -0.011719700856320063 0.0019570489096875725 0.004652178616714927 -0.00015975083681561534 -0.0015591233641303551 0.00017350173630197493 0.0025063400377501937
 0.00017460620308995336 0.0025061732473116933 -0.00015975083681561534 -0.0015591233641303551 0.0019568754683538863 0.004651958773660816 0.9979119248945203 -0.011719951758625759
 -0.00015972402095417823 -0.001559118542871795 0.00017350173630197493 0.0025063400377501937 0.9979119248945203 -0.011719951758625759 0.0019570627622461172 0.004651924938017403
0.02501042100875 0.002139305838220607 0.006248665245025207 0.9976745797159773 -0.015645783141612746 0.00023034880209712316 0.0033431568785189224 -0.00020732498551891728 -0.002082405260491295
 0.9976745797159773 -0.015645783141612746 0.002139580103914635 0.0062486254379549135 -0.0002073723353957949 -0.00208241099435053 0.00022838684324111332 0.0033434184824406568
 0.00023034880209712316 0.0033431568785189224 -0.0002073723353957949 -0.00208241099435053 0.0021392724528911445 0.006248335311144591 0.9976745754388718 -0.015646117504853268
 -0.00020732498551891728 -0.002082405260491295 0.00022838684324111332 0.0033434184824406568 0.9976745754388718 -0.015646117504853268 0.0021396051055239274 0.006248287330937433
0.03126302626094 0.0023356160949777084 0.007864112407261698 0.9974178229541347 -0.019584980454584674 0.00029462232604750104 0.004181026818420734 -0.0002618817252837754 -0.0026070647715288157
 0.9974178229541347 -0.019584980454584674 0.0023360442572193858 0.007864059501050489 -0.00026195529553072004 -0.002607070976813709 0.0002915578492392934 0.004181407665087321
 0.00029462232604750104 0.004181026818420734 -0.00026195529553072004 -0.002607070976813709 0.0023355643082451764 0.007863700668632337 0.997417816622279 -0.019585398266833826
 -0.0002618817252837754 -0.0026070647715288157 0.0002915578492392934 0.004181407665087321 0.997417816622279 -0.019585398266833826 0.002336083679441543 0.007863636962178712
0.037515631513130004 0.0025461275061906606 0.009497811733331469 0.9971413867634489 -0.023537705108229716 0.0003675166411273118 0.005019717871909764 -0.00032348959721009853 -0.003132957571007463
 0.9971413867634489 -0.023537705108229716 0.0025467435993699323 0.00949774441380625 -0.0003235950220962374 -0.0031329637490860227 0.0003631041384905862 0.005020245309880311
 0.0003675166411273118 0.005019717871909764 -0.0003235950220962374 -0.0031329637490860227 0.0025460533032105274 0.009497318520664268 0.9971413779811803 -0.023538206379153728
 -0.00032348959721009853 -0.003132957571007463 0.0003631041384905862 0.005020245309880311 0.9971413779811803 -0.023538206379153728 0.002546800720110261 0.009497237421302752
0.043768236765320004 0.00277113828263778 0.011149217364184257 0.996844997323305 -0.02750416904508609 0.0004491208708085762 0.00585914801460237 -0.0003922421459404316 -0.0036599554851803173
 0.996844997323305 -0.02750416904508609 0.002771976317528984 0.0111491342933161 -0.0003923850113783019 -0.0036599610798883986 0.0004431143021144117 0.005859852345572123
 0.0004491208708085762 0.00585914801460237 -0.0003923850113783019 -0.0036599610798883986 0.0027710376511578933 0.01114864305733795 0.9968449856923767 -0.02750475379886464
 -0.0003922421459404316 -0.0036599554851803173 0.0004431143021144117 0.005859852345572123 0.9968449856923767 -0.02750475379886464 0.002772054420322858 0.011148542814199922
0.050020842017509996 0.003010943792189433 0.012817888576951644 0.9965283788714739 -0.03148446913984911 0.0005395231314787079 0.006699224549532597 -0.0004682312069709539 -0.00418793551501637
 0.9965283788714739 -0.03148446913984911 0.0030120377658186814 0.012817788394115168 -0.0004684170528887619 -0.004187939912644865 0.0005316759023653425 0.006700139063743781
 0.0005395231314787079 0.006699224549532597 -0.0004684170528887619 -0.004187939912644865 0.003010812722090064 0.012817233606064488 0.9965283639901827 -0.031485137414636995
 -0.0004682312069709539 -0.00418793551501637 0.0005316759023653425 0.006700139063743781 0.9965283639901827 -0.031485137414636995 0.0030121401397511347 0.012817112384380566
0.055454545454549996 0.0032315849010378234 0.014281741887713062 0.9962365843954675 -0.03495472691630721 0.0006252980554284845 0.007429723680463705 -0.0005402149960289637 -0.004647469890240925
 0.9962365843954675 -0.03495472691630721 0.003232928899966407 0.014281625712061721 -0.0005404426579532071 -0.004647472704479464 0.0006156505373177912 0.007430850234262914
 0.0006252980554284845 0.007429723680463705 -0.0005404426579532071 -0.004647472704479464 0.003231424125944282 0.014281017206146713 0.9962365663622359 -0.03495546781524814
 -0.0005402149960289637 -0.004647469890240925 0.0006156505373177912 0.007430850234262914 0.9962365663622359 -0.03495546781524814 0.003233055043412825 0.014280876198225118
0.056273447269699996 0.0032658371810279224 0.01450344788346208 0.9961912545348272 -0.035478629032677796 0.0006388103487783211 0.007539847120215146 -0.0005515469330108982 -0.004716776826387157
 0.9961912545348272 -0.035478629032677796 0.00326722108694876 0.014503329206169443 -0.00055178125505448 -0.004716779355694469 0.0006288753054171723 0.007541008132594595
 0.0006388103487783211 0.007539847120215146 -0.00055178125505448 -0.004716779355694469 0.003265671666820986 0.014502712730146831 0.9961912359996671 -0.0354793808800261
 -0.0005515469330108982 -0.004716776826387157 0.0006288753054171723 0.007541008132594595 0.9961912359996671 -0.0354793808800261 0.003267351028527457 0.01450256861120843
0.06252605252188 0.0035361097099487963 0.016205557996032554 0.9958333468778321 -0.039486622097514024 0.000747068111057155 0.008380909379241996 -0.0006422777836789491 -0.005246359088168599
 0.9958333468778321 -0.039486622097514024 0.0035378175470903634 0.016205419420632115 -0.0006425660343289135 -0.005246359020395672 0.0007347975466228781 0.00838235626585985
 0.000747068111057155 0.008380909379241996 -0.0006425660343289135 -0.005246359020395672 0.003535905749761539 0.016204743191456292 0.9958333242812416 -0.03948745758489211
 -0.0006422777836789491 -0.005246359088168599 0.0007347975466228781 0.00838235626585985 0.9958333242812416 -0.03948745758489211 0.0035379783590538372 0.016204574172384897
0.06877865777407 0.0038220509330883635 0.017923908086607782 0.995454378297523 -0.0435083851204166 0.0008643805484966934 0.009222299972822166 -0.0007405104898396724 -0.005776561498172001
 0.995454378297523 -0.0435083851204166 0.0038241167154268152 0.01792374818852246 -0.0007408580792678859 -0.005776558047072358 0.000849526217088048 0.00922407520739284
 0.0008643805484966934 0.009222299972822166 -0.0007408580792678859 -0.005776558047072358 0.0038218045305570014 0.017923014218744295 0.9954543512283888 -0.043509304324549476
 -0.0007405104898396724 -0.005776561498172001 0.000849526217088048 0.00922407520739284 0.9954543512283888 -0.043509304324549476 0.0038243117077602085 0.01792281821191484
0.07503126302626001 0.00412394878333406 0.01965820508663032 0.995054071327996 -0.04754382694063816 0.0009908302217803094 0.010063903177607069 -0.0008463300073567069 -0.006307262160739655
 0.995054071327996 -0.04754382694063816 0.004126406548414979 0.01965802242047378 -0.000846742303925791 -0.006307254482617878 0.0009731433586223617 0.010066052367919775
 0.0009908302217803094 0.010063903177607069 -0.000846742303925791 -0.006307254482617878 0.004123655947060438 0.019657232798285754 0.9950540393704512 -0.047544829950035734
 -0.0008463300073567069 -0.006307262160739655 0.0009731433586223617 0.010066052367919775 0.9950540393704512 -0.047544829950035734 0.004126639037799205 0.01965700763049544
0.08128386827845 0.004442089599167337 0.02140816789340739 0.9946321488908073 -0.05159283418949475 0.0011264980215251973 0.010905599320881467 -0.0009598194593862234 -0.006838337685198199
 0.9946321488908073 -0.05159283418949475 0.004444973417592886 0.021407960992731723 -0.0009603017901164455 -0.006838324878934891 0.0011057293674508297 0.010908171245007599
 0.0011264980215251973 0.010905599320881467 -0.0009603017901164455 -0.006838324878934891 0.004441746344728795 0.021407117877696013 0.9946321116245529 -0.051593921109507904
 -0.0009598194593862234 -0.006838337685198199 0.0011057293674508297 0.010908171245007599 0.9946321116245529 -0.051593921109507904 0.004445246728058313 0.02140686128912019
0.08753647353064001 0.004776758113787793 0.023173523358183665 0.9941883345099186 -0.05565527525188753 0.0012714630704108512 0.011747265082425592 -0.001081060074777033 -0.007369662906848011
 0.9941883345099186 -0.05565527525188753 0.004780102097931887 0.023173290735031018 -0.0010816177255295028 -0.0073696440139510416 0.0012473629003636013 0.011750311724736924
 0.0012714630704108512 0.011747265082425592 -0.0010816177255295028 -0.0073696440139510416 0.004776360463935796 0.023172396368036387 0.9941882915094197 -0.05565644619578395
 -0.001081060074777033 -0.007369662906848011 0.0012473629003636013 0.011750311724736924 0.9941882915094197 -0.05565644619578395 0.004780419560838691 0.02317210601088721
0.09378907878283 0.005128237416489401 0.024954003434510957 0.9937223525031066 -0.059731003072323 0.0014258026309876422 0.012588773708042594 -0.0012101311199199886 -0.007901110700921189
 0.9937223525031066 -0.059731003072323 0.0051320757298177295 0.02495374357862004 -0.001210769335584839 -0.007901084705568008 0.0013981207853623276 0.012592350294764474
 0.0014258026309876422 0.012588773708042594 -0.001210769335584839 -0.007901084705568008 0.005127781402201665 0.02495280027535963 0.993722303337072 -0.0597322581690227
 -0.0012101311199199886 -0.007901110700921189 0.0013981207853623276 0.012592350294764474 0.993722303337072 -0.0597322581690227 0.005132440683741721 0.024952473712250615
0.100041684035 0.005496808895761995 0.026749343069116478 0.993233928157023 -0.06381985722314062 0.0015895920141856307 0.01342999517841548 -0.0013471098287136524 -0.008432551845638845
 0.993233928157023 -0.06381985722314062 0.0055011757618118 0.02674905444691553 -0.0013478338132533602 -0.0084325176747321 0.001558077933083097 0.013434160212901022
 0.0015895920141856307 0.01342999517841548 -0.0013478338132533602 -0.0084325176747321 0.0054962905571490075 0.026748064607089853 0.9932338723881116 -0.06382119660956916
 -0.0013471098287136524 -0.008432551845638845 0.001558077933083097 0.013434160212901022 0.9932338723881116 -0.06382119660956916 0.0055015915528020985 0.026747699309136907
0.1059090909091 0.005858468387271775 0.028447358657363874 0.9927549389342601 -0.06766859810943734 0.0017519507830094487 0.014219012567672053 -0.001482908703574046 -0.008931129916944459
 0.9927549389342601 -0.06766859810943734 0.005863362431742098 0.02844704162425173 -0.001483717869575174 -0.008931087047202552 0.0017166123493376597 0.01422378595590535
 0.0017519507830094487 0.014219012567672053 -0.001483717869575174 -0.008931087047202552 0.005857887971315643 0.028446010366873893 0.9927548765655883 -0.06767001673133331
 -0.001482908703574046 -0.008931129916944459 0.0017166123493376597 0.01422378595590535 0.9927548765655883 -0.06767001673133331 0.005863828977642372 0.028445606336923612
0.1062942892872 0.0058827521672251545 0.028559278641153884 0.9927227878916727 -0.06792166542980528 0.0017629044899568713 0.01427079633673363 -0.001492071329659579 -0.008963854931329021
 0.9927227878916727 -0.06792166542980528 0.005887681878998565 0.028558959694340254 -0.001492886246075074 -0.00896381145454826 0.0017273072496252165 0.014275611634220748
 0.0017629044899568713 0.01427079633673363 -0.001492886246075074 -0.00896381145454826 0.005882167554427967 0.028557925796353835 0.9927227250759488 -0.06792308925798538
 -0.001492071329659579 -0.008963854931329021 0.0017273072496252165 0.014275611634220748 0.9927227250759488 -0.06792308925798538 0.005888151860548407 0.028557519140964244
0.11254689453939999 0.006286344991478541 0.030383546747159144 0.9921886594162951 -0.07203624475550585 0.0019458111994071052 0.015111040996135108 -0.001645088570562732 -0.009494886294502182
 0.9921886594162951 -0.07203624475550585 0.006291871920548802 0.03038319589112674 -0.001645999540843183 -0.009494832324372758 0.0019058795507069745 0.015116571718086894
 0.0019458111994071052 0.015111040996135108 -0.001645999540843183 -0.009494832324372758 0.006285690165774952 0.030382120498308053 0.9921885891027539 -0.0720377531883643
 -0.001645088570562732 -0.009494886294502182 0.0019058795507069745 0.015116571718086894 0.9921885891027539 -0.0720377531883643 0.006292399453778398 0.030381669766743395
0.11879949979160001 0.006707863183104999 0.032221883269489986 0.9916312718802037 -0.07616340250794083 0.002138381067050125 0.015950590028735202 -0.0018062322422806327 -0.010025509975294873
 0.9916312718802037 -0.07616340250794083 0.00671402178919273 0.03222149889125336 -0.0018072443472577527 -0.0100254442672659 0.0020938634760600512 0.01595690471654044
 0.002138381067050125 0.015950590028735202 -0.0018072443472577527 -0.0100254442672659 0.006707134217673551 0.03222038465475576 0.9916311936103936 -0.0761649957188561
 -0.0018062322422806327 -0.010025509975294873 0.0020938634760600512 0.01595690471654044 0.9916311936103936 -0.0761649957188561 0.0067146102427044635 0.03221988702930217
0.1250521050438 0.0071475805128398354 0.034074022637339975 0.9910503560187213 -0.0803029369590982 0.0023406807143489376 0.016789301443696388 -0.0019755707008084697 -0.010555587690870361
 0.9910503560187213 -0.0803029369590982 0.0071544053532421326 0.03407360309329009 -0.0019766889800177665 -0.010555508943334742 0.0022913254044022086 0.016796472051939952
 0.0023406807143489376 0.016789301443696388 -0.0019766889800177665 -0.010555508943334742 0.007146773494271224 0.034072452753141365 0.9910502693262123 -0.08030461513344771
 -0.0019755707008084697 -0.010555587690870361 0.0022913254044022086 0.016796472051939952 0.9910502693262123 -0.08030461513344771 0.007155058103327372 0.034071905314014224
0.131304710296 0.007605768604811497 0.035939697238286106 0.990445644297139 -0.08445463792046108 0.002552774373179811 0.017627030457898818 -0.0021531698888148554 -0.011084978821328355
 0.990445644297139 -0.08445463792046108 0.007613294343790904 0.035939240851553846 -0.002154399340292256 -0.011084885675798775 0.0024983293687360253 0.01763513238695385
 0.002552774373179811 0.017627030457898818 -0.002154399340292256 -0.011084885675798775 0.007604879633607386 0.03593805723885968 0.9904455487068281 -0.08445640125632643
 -0.0021531698888148554 -0.011084978821328355 0.0024983293687360253 0.01763513238695385 0.9904455487068281 -0.08445640125632643 0.007614014774310725 0.03593745696081463
0.1375573155481 0.007976552134578931 0.037573974750355066 0.9899230534181622 -0.08837352383589665 0.0027479482303159625 0.01843869141058265 -0.002312383896060659 -0.011588570661020788
 0.9899230534181622 -0.08837352383589665 0.007984816788389599 0.03757349097110938 -0.0023137320059450957 -0.011588463046784575 0.0026882904081271326 0.0184477116105872
 0.0027479482303159625 0.01843869141058265 -0.0023137320059450957 -0.011588463046784575 0.007975577960534596 0.037572265556677975 0.9899229485228392 -0.08837537243373744
 -0.002312383896060659 -0.011588570661020788 0.0026882904081271326 0.0184477116105872 0.9899229485228392 -0.08837537243373744 0.007985607513486547 0.037571620854214186
0.1438099208003 0.00836033127298133 0.03919977066263447 0.9893821573802887 -0.0922826286851786 0.002951022498867705 0.019247186930322385 -0.0024779806867333055 -0.012089299701894755
 0.9893821573802887 -0.0922826286851786 0.00836937017443457 0.039199258454481946 -0.0024794528416192782 -0.01208917628411739 0.002885922891457718 0.019257194187077976
 0.002951022498867705 0.019247186930322385 -0.0024794528416192782 -0.01208917628411739 0.008359268133959121 0.03919799344790188 0.9893820427070835 -0.09228456273550219
 -0.0024779806867333055 -0.012089299701894755 0.002885922891457718 0.019257194187077976 0.9893820427070835 -0.09228456273550219 0.008370234449230097 0.03919730193468961
0.1500625260525 0.008756972810505984 0.04081695353886122 0.9888230933617801 -0.09618186009850582 0.0031619292029929406 0.02005243776923089 -0.0026498947692600965 -0.012587091919228379
 0.9888230933617801 -0.09618186009850582 0.008766821415892257 0.0408164117727034 -0.00265149634590076 -0.012586951309230042 0.0030911601459543644 0.02006350337597247
 0.0031619292029929406 0.02005243776923089 -0.00265149634590076 -0.012586951309230042 0.008755816965557543 0.04081510952216398 0.9888229684303907 -0.09618387979895601
 -0.0026498947692600965 -0.012587091919228379 0.0030911601459543644 0.02006350337597247 0.9888229684303907 -0.09618387979895601 0.008767762493694578 0.0408143686666123
0.15631513130469998 0.009166342611417338 0.04242539594152121 0.9882459992173817 -0.10007112593935202 0.003380599574788269 0.020854365975155692 -0.0028280598558455138 -0.013081874838452865
 0.9882459992173817 -0.10007112593935202 0.009177036504338076 0.042424823390866485 -0.0028297962210855152 -0.013081715593892285 0.003303934725458689 0.020866563707262465
