! Created with skrf 1.8.0 (http://scikit-rf.org).
# GHz S RI R 50.0 
!freq ReS11 ImS11 ReS12 ImS12 ReS13 ImS13
! ReS14 ImS14
! ReS21 ImS21 ReS22 ImS22 ReS23 ImS23
! ReS24 ImS24
! ReS31 ImS31 ReS32 ImS32 ReS33 ImS33
! ReS34 ImS34
! ReS41 ImS41 ReS42 ImS42 ReS43 ImS43
! ReS44 ImS44
!
0.0 0.001573456608387 0.0 0.9984265433895 0.0 6.076514935038e-05 0.0 -6.076514872777e-05 7.44158448891764e-21
 0.9984265433895 0.0 0.00157345660837 0.0 -6.076514872742e-05 7.441584488874776e-21 6.07651493483e-05 0.0
 6.076514935038e-05 0.0 -6.076514872742e-05 7.441584488874776e-21 0.001573456605977 0.0 0.9984265433871 0.0
 -6.076514872777e-05 7.44158448891764e-21 6.07651493483e-05 0.0 0.9984265433871 0.0 0.001573456605976 0.0
0.005 0.0016929949104489775 0.0012867444161799915 0.9982752901955235 -0.003295867618303534 8.52961275508012e-05 0.000672111134390588 -8.277108987439017e-05 -0.0004214126294534664
 0.9982752901955235 -0.003295867618303534 0.0016930172769490082 0.00128673140564151 -8.277124299689554e-05 -0.0004214128112549824 8.515014900114036e-05 0.0006721666214866875
 8.52961275508012e-05 0.000672111134390588 -8.277124299689554e-05 -0.0004214128112549824 0.00169299413786409 0.001286677645459333 0.9982752898258249 -0.0032959346761291097
 -8.277108987439017e-05 -0.0004214126294534664 8.515014900114036e-05 0.0006721666214866875 0.9982752898258249 -0.0032959346761291097 0.0016930173127034107 0.0012866640618537674
0.006252605252188 0.0017243695418849602 0.0016134904723834817 0.9982353344741618 -0.004120636549350035 9.233023601660664e-05 0.000840460800763136 -8.899495481326247e-05 -0.00052730956461534
 0.9982353344741618 -0.004120636549350035 0.0017244045046217332 0.0016134739729075582 -8.899519257734613e-05 -0.0005273097901410162 9.210215706135159e-05 0.0008405328724647858
 9.233023601660664e-05 0.000840460800763136 -8.899519257734613e-05 -0.0005273097901410162 0.0017243684202828957 0.0016134070055723528 0.9982353339827019 -0.0041207203821131515
 -8.899495481326247e-05 -0.00052730956461534 9.210215706135159e-05 0.0008405328724647858 0.9982353339827019 -0.0041207203821131515 0.0017244046474869169 0.001613389777077729
0.01250521050438 0.001889668699737708 0.0032607555275552098 0.9980234018991987 -0.00824204875967625 0.00013280423876626228 0.0016812508873131318 -0.00012436601236518938 -0.0010571601008939656
 0.9980234018991987 -0.00824204875967625 0.001889808301768929 0.0032607201549613818 -0.0001243669431624922 -0.0010571605337133397 0.0001318946741070284 0.0016814243235228844
 0.00013280423876626228 0.0016812508873131318 -0.0001243669431624922 -0.0010571605337133397 0.001889664785770198 0.0032605889549449083 0.9980234005081553 -0.008242216144859116
 -0.00012436601236518938 -0.0010571601008939656 0.0001318946741070284 0.0016814243235228844 0.9980234005081553 -0.008242216144859116 0.001889809452292865 0.0032605519874719987
0.01875781575657 0.002069721283351619 0.004931429743741868 0.997790477862757 -0.012374260870521032 0.00018228097134606697 0.0025229287819578225 -0.00016698851063140266 -0.0015887809210897112
 0.997790477862757 -0.012374260870521032 0.0020700349662502696 0.00493137296106301 -0.00016699057770309117 -0.0015887815416017494 0.00018023764443446448 0.0025232386740539126
 0.00018228097134606697 0.0025229287819578225 -0.00016699057770309117 -0.0015887815416017494 0.0020697128975361583 0.004931180244274201 0.997790475158886 -0.012374511737744558
 -0.00016698851063140266 -0.0015887809210897112 0.00018023764443446448 0.0025232386740539126 0.997790475158886 -0.012374511737744558 0.002070037991085747 0.004931120833354317
0.02501042100875 0.0022648832503182545 0.00662316642686712 0.9975362838217942 -0.016519267091681503 0.00024085604800661595 0.0033655226190010255 -0.00021696893115174658 -0.002121925656276748
 0.9975362838217942 -0.016519267091681503 0.0022654403136113358 0.0066230855600818055 -0.0002169725696751133 -0.002121926442909348 0.00023722646360533147 0.0033660096669004156
 0.00024085604800661595 0.0033655226190010255 -0.0002169725696751133 -0.002121926442909348 0.0022648687119895664 0.006622834196491394 0.9975362793949306 -0.016519601381372203
 -0.00021696893115174658 -0.002121925656276748 0.00023722646360533147 0.0033660096669004156 0.9975362793949306 -0.016519601381372203 0.0022654460906351174 0.006622749470453444
0.03126302626094 0.0024754958344520993 0.008334753605377334 0.9972605272483284 -0.0206779155889136 0.00030862561197494444 0.00420898264744786 -0.0002744106812593776 -0.0026564196634398397
 0.9972605272483284 -0.0206779155889136 0.0024763654760761745 0.008334645849083454 -0.00027441631969254044 -0.0026564205926290978 0.00030295664162187825 0.004209693194036215
 0.00030862561197494444 0.00420898264744786 -0.00027441631969254044 -0.0026564205926290978 0.0024754734565599263 0.008334338848571135 0.9972605206861755 -0.020678333261168875
 -0.0002744106812593776 -0.0026564196634398397 0.00030295664162187825 0.004209693194036215 0.9972605206861755 -0.020678333261168875 0.0024763748897869893 0.008334225773786917
0.037515631513130004 0.0027018928076567744 0.010065397745858231 0.9969629091308032 -0.0248506247074456 0.0003856853183328066 0.005053228220718249 -0.00033941482647562845 -0.003192113032063879
 0.9969629091308032 -0.0248506247074456 0.0027031441515066347 0.01006526016634402 -0.0003394228873409008 -0.0031921140782848103 0.0003775230160531636 0.005054214309393025
 0.0003856853183328066 0.005053228220718249 -0.0003394228873409008 -0.0031921140782848103 0.0027018609019472785 0.010064900678557318 0.9969629000235384 -0.02485112573947907
 -0.00033941482647562845 -0.003192113032063879 0.0003775230160531636 0.005054214309393025 0.9969629000235384 -0.02485112573947907 0.002703158098054688 0.010064756062111881
0.043768236765320004 0.0029444032927964793 0.011814505800504992 0.9966431270300904 -0.02903760085361453 0.000472129846189241 0.005898162097868894 -0.0004120803576772835 -0.0037288662856222563
 0.9966431270300904 -0.02903760085361453 0.002946105411095395 0.01181433533768077 -0.0004120912580894474 -0.0037288674214395064 0.0004610193630247562 0.005899481537327734
 0.000472129846189241 0.005898162097868894 -0.0004120912580894474 -0.0037288674214395064 0.0029443601661697716 0.011813926665355152 0.9966431149662307 -0.02903818522487523
 -0.0004120803576772835 -0.0037288662856222563 0.0004610193630247562 0.005899481537327734 0.9966431149662307 -0.02903818522487523 0.0029461247940671858 0.011813747156529723
0.050020842017509996 0.003203353058830657 0.013581595124514848 0.9963008766228959 -0.03323892850452677 0.0005680526085038092 0.006743676353368732 -0.000492504281869487 -0.004266544478532702
 0.9963008766228959 -0.03323892850452677 0.00320557499198974 0.013581388593186198 -0.0004925184338454797 -0.004266545674662856 0.0005535381594290159 0.0067453927853282514
 0.0005680526085038092 0.006743676353368732 -0.0004925184338454797 -0.004266545674662856 0.0032032970146128686 0.013580934180212428 0.9963008611905316 -0.033239596207878454
 -0.000492504281869487 -0.004266544478532702 0.0005535381594290159 0.0067453927853282514 0.9963008611905316 -0.033239596207878454 0.0032056007238303805 0.013580716271142098
0.055454545454549996 0.00344198994233971 0.01513152767141115 0.9959849665472861 -0.036901671371699134 0.0006591813275523019 0.0074788354925064485 -0.00056876973290143 -0.004734450748548595
 0.9959849665472861 -0.036901671371699134 0.003444719668443235 0.01513128711193607 -0.0005687870414547553 -0.004734451971907764 0.0006413378473998308 0.007480953189885849
 0.0006591813275523019 0.0074788354925064485 -0.0005687870414547553 -0.004734451971907764 0.003441921291439534 0.01513079586195957 0.9959849478516529 -0.036902411491080624
 -0.00056876973290143 -0.004734450748548595 0.0006413378473998308 0.007480953189885849 0.9959849478516529 -0.036902411491080624 0.003444751664883064 0.015130541611168344
0.056273447269699996 0.003479065188047479 0.015366249263995468 0.9959358526216708 -0.0374546143489884 0.0006735455473364817 0.007589655272431615 -0.0005807816357581999 -0.004805014311737889
 0.9959358526216708 -0.0374546143489884 0.0034818759627290247 0.01536600335439171 -0.000580799446516582 -0.004805015537092795 0.0006551704098906404 0.007591838240538949
 0.0006735455473364817 0.007589655272431615 -0.000580799446516582 -0.004805015537092795 0.0034789945260228477 0.015365506793718318 0.9959358334073038 -0.03745536538257143
 -0.0005807816357581999 -0.004805014311737889 0.0006551704098906404 0.007591838240538949 0.9959358334073038 -0.03745536538257143 0.0034819089641421877 0.015365246819541718
0.06252605252188 0.00377186042629907 0.017168093645580664 0.9955477493818983 -0.041684611529699586 0.0007886989695487888 0.008435976952818123 -0.0006770054624126302 -0.005344142546168502
 0.9955477493818983 -0.041684611529699586 0.00377532907306554 0.017167804923446543 -0.0006770273346161417 -0.005344143767915155 0.0007660055032803334 0.008438701972085837
 0.0007886989695487888 0.008435976952818123 -0.0006770273346161417 -0.005344143767915155 0.0037717734436860497 0.01716726995512811 0.9955477259711238 -0.04168544589925852
 -0.0006770054624126302 -0.005344142546168502 0.0007660055032803334 0.008438701972085837 0.9955477259711238 -0.04168544589925852 0.003775370273471373 0.017166964093501998
0.06877865777407 0.004082057365339862 0.018986781089162397 0.995136261345352 -0.04592883406660677 0.0009136014065184285 0.009282514262962926 -0.0007812667648928954 -0.005883795064691284
 0.995136261345352 -0.04592883406660677 0.004086252935650527 0.018986445995269944 -0.0007812930967937519 -0.005883796248300922 0.0008861310876041301 0.009285862889152716
 0.0009136014065184285 0.009282514262962926 -0.0007812930967937519 -0.005883796248300922 0.004081952356637393 0.018985876510022606 0.9951362333223284 -0.04592975178279902
 -0.0007812667648928954 -0.005883795064691284 0.0008861310876041301 0.009285862889152716 0.9951362333223284 -0.04592975178279902 0.004086303272919148 0.018985520780187712
0.07503126302626001 0.004409972522710711 0.020821982620384503 0.9947010833855611 -0.05018716598535803 0.0010483394891596736 0.010129135446884038 -0.0008936544449636044 -0.006423836292220613
 0.9947010833855611 -0.05018716598535803 0.004414964105717776 0.020821597469491623 -0.0008936856306667405 -0.006423837401519754 0.001015632955732393 0.010133195345589164
 0.0010483394891596736 0.010129135446884038 -0.0008936856306667405 -0.006423837401519754 0.0044098477806392864 0.02082099751037461 0.99470105033262 -0.050188167063427075
 -0.0008936544449636044 -0.006423836292220613 0.001015632955732393 0.010133195345589164 0.99470105033262 -0.050188167063427075 0.004415024525852466 0.020820587771595865
0.08128386827845 0.004755920358763655 0.022673381362464665 0.9942419110942909 -0.05445946737168389 0.0011929978296327606 0.010975704545095723 -0.0010142552344643441 -0.006964128805024804
 0.9942419110942909 -0.05445946737168389 0.004761777098030423 0.022672942341736852 -0.0010142916639922037 -0.006964129802245854 0.0011545949362465194 0.010980569560305612
 0.0011929978296327606 0.010975704545095723 -0.0010142916639922037 -0.006964129802245854 0.0047557741740028485 0.022672316100699978 0.9942418725914427 -0.05446055183691495
 -0.0010142552344643441 -0.006964128805024804 0.0011545949362465194 0.010980569560305612 0.9942418725914427 -0.05446055183691495 0.00476184855511774 0.0226718480502412
0.08753647353064001 0.005120213250370663 0.02454066831070792 0.9937584410280235 -0.0587455785489345 0.0013476589099181092 0.011822081681896617 -0.0011431536193261072 -0.007504533079011992
 0.9937584410280235 -0.0587455785489345 0.00512700436060294 0.024540171477611027 -0.0011431956788030015 -0.00750453392483616 0.0013030987888711118 0.011827851903872661
 0.0013476589099181092 0.011822081681896617 -0.0011431956788030015 -0.00750453392483616 0.005120043912735845 0.024539523307316444 0.993758396653623 -0.058746746427270326
 -0.0011431536193261072 -0.007504533079011992 0.0013030987888711118 0.011827851903872661 0.993758396653623 -0.058746746427270326 0.005127087817039354 0.024538992477802706
0.09378907878283 0.005503161437307281 0.02642353931520532 0.9932503709316156 -0.06304532305330278 0.0015124029738387474 0.012668123285618924 -0.0012804317593504415 -0.008044907310564587
 0.9932503709316156 -0.06304532305330278 0.005510956220727793 0.02642298059483425 -0.0012804798310940826 -0.008044907964173231 0.001461224102523099 0.012674905117970288
 0.0015124029738387474 0.012668123285618924 -0.0012804798310940826 -0.008044907964173231 0.005502967235778089 0.026422315007466512 0.9932503202614689 -0.06304657437555597
 -0.0012804317593504415 -0.008044907310564587 0.001461224102523099 0.012674905117970288 0.9932503202614689 -0.06304657437555597 0.005511052646982191 0.02642171676373786
0.100041684035 0.005905072945505929 0.028321692877023193 0.992717399941988 -0.06735850980196895 0.001687307921772748 0.01351368225068026 -0.0014261694046325039 -0.00858510730130913
 0.992717399941988 -0.06735850980196895 0.0059139408089649344 0.028321068058785055 -0.0014262238673548428 -0.008585107720412799 0.001629048194895517 0.0135215884765053
 0.001687307921772748 0.01351368225068026 -0.0014262238673548428 -0.008585107720412799 0.005904852169098487 0.028320389727413034 0.9927173425492039 -0.06735984460604727
 -0.0014261694046325039 -0.00858510730130913 0.001629048194895517 0.0135215884765053 0.9927173425492039 -0.06735984460604727 0.005914051183280953 0.028319719262830695
0.1059090909091 0.00629974356546769 0.030116540291409827 0.9921943494934935 -0.07141802204900245 0.001860746121757336 0.014306576682247621 -0.0015706914054868983 -0.009091738599439306
 0.9921943494934935 -0.07141802204900245 0.006309681633224197 0.030115849493543873 -0.0015707522067143571 -0.00909173875875738 0.0017954210320246034 0.014315646347056591
 0.001860746121757336 0.014306576682247621 -0.0015707522067143571 -0.00909173875875738 0.006299496295206093 0.030115163601428567 0.9921942854013803 -0.07141943523170352
 -0.0015706914054868983 -0.009091738599439306 0.0017954210320246034 0.014315646347056591 0.9921942854013803 -0.07141943523170352 0.006309805992996347 0.03011442083701925
0.1062942892872 0.006326253496049239 0.03023482848838101 0.9921592287808975 -0.07168493472387602 0.0018724492066807485 0.014358608076285306 -0.001580443809764038 -0.009124986371989358
 0.9921592287808975 -0.07168493472387602 0.00633626396761034 0.03023413322208558 -0.0015805050386130254 -0.009124986512877421 0.0018066460134305404 0.014367757923260662
 0.0018724492066807485 0.014358608076285306 -0.0015805050386130254 -0.009124986512877421 0.006326004433825819 0.03023344698528422 0.9921591642355816 -0.07168635305436591
 -0.001580443809764038 -0.009124986371989358 0.0018066460134305404 0.014367757923260662 0.9921591642355816 -0.07168635305436591 0.006336389276058716 0.030232699317327676
0.11254689453939999 0.00676700640168765 0.032162645363588656 0.9915755599388598 -0.07602438200629394 0.002067899732168999 0.01520274697368337 -0.0017433296457444935 -0.009664395313721633
 0.9915755599388598 -0.07602438200629394 0.006778229147837518 0.032161875154972895 -0.0017433980124653614 -0.009664395131297191 0.0019940900369707845 0.015213266178065982
 0.002067899732168999 0.01520274697368337 -0.0017433980124653614 -0.009664395131297191 0.006766727343730139 0.032161186027503584 0.9915754878082315 -0.07602588390863897
 -0.0017433296457444935 -0.009664395313721633 0.0019940900369707845 0.015213266178065982 0.9915754878082315 -0.07602588390863897 0.006778370384136793 0.032160355992770714
0.11879949979160001 0.0072276324543196465 0.03410484146248758 0.9909660978525334 -0.08037662505614045 0.0022737297511362196 0.016045941963750653 -0.0019148989106390752 -0.010203182355029424
 0.9909660978525334 -0.08037662505614045 0.0072401372967723305 0.034103991668040484 -0.001914974783674141 -0.010203181802830879 0.0021914501782272894 0.01605796283313021
 0.0022737297511362196 0.016045941963750653 -0.001914974783674141 -0.010203181802830879 0.007227321692231352 0.03410330483859932 0.9909660177005869 -0.08037821058420694
 -0.0019148989106390752 -0.010203182355029424 0.0021914501782272894 0.01605796283313021 0.9909660177005869 -0.08037821058420694 0.007240295462493506 0.034102387087332146
0.1250521050438 0.0077084298052488365 0.036061112713686116 0.9903305490787115 -0.08474142726850073 0.002490006765195831 0.016888032963324074 -0.002095220839208269 -0.010741193146170006
 0.9903305490787115 -0.08474142726850073 0.007722286738144477 0.036060178534880985 -0.0020953045837890207 -0.01074119217643959 0.0023987936866606678 0.01690169443816383
 0.002490006765195831 0.016888032963324074 -0.0020953045837890207 -0.01074119217643959 0.007708085632511929 0.0360594993774048 0.9903304604653997 -0.08474309647935345
 -0.002095220839208269 -0.010741193146170006 0.0023987936866606678 0.01690169443816383 0.9903304604653997 -0.08474309647935345 0.007722462842172307 0.03605848836718903
0.131304710296 0.008209693838671098 0.03803115240354338 0.9896686224629095 -0.08911854263689989 0.0027167954251161234 0.017728856863608495 -0.0022843618113472844 -0.011278270757862065
 0.9896686224629095 -0.08911854263689989 0.008224973046023563 0.0380301288802759 -0.0022844537896460747 -0.011278269321530102 0.002616185051981987 0.01774430457731981
 0.0027167954251161234 0.017728856863608495 -0.0022844537896460747 -0.011278269321530102 0.008209314551592234 0.038029462957791964 0.9896685249451134 -0.08912029559376373
 -0.0022843618113472844 -0.011278270757862065 0.002616185051981987 0.01774430457731981 0.9896685249451134 -0.08912029559376373 0.008225168104778694 0.03802835294669007
0.1375573155481 0.008617803008101598 0.03975790376970624 0.98909398728975 -0.09325085534047466 0.002926306735141675 0.018542788531070786 -0.002454656303650917 -0.01178872792508561
 0.98909398728975 -0.09325085534047466 0.008634580825110472 0.03975680756564902 -0.0024547572373007785 -0.011788726026344782 0.002816070821725371 0.018560002528805474
 0.002926306735141675 0.018542788531070786 -0.0024547572373007785 -0.011788726026344782 0.008617387769632228 0.039756138360034284 0.9890938804636787 -0.09325269204237589
 -0.002454656303650917 -0.01178872792508561 0.002816070821725371 0.018560002528805474 0.9890938804636787 -0.09325269204237589 0.008634794913417008 0.039754946033857354
0.1438099208003 0.009040303940483232 0.041475345838954146 0.9884990664079781 -0.09737247373404326 0.0031442897403654523 0.019353232628529126 -0.0026317556619809062 -0.012296036937660064
 0.9884990664079781 -0.09737247373404326 0.009058651757608812 0.041474173167853005 -0.0026318659731397625 -0.012296034523490557 0.0030240068103630042 0.01937234629505161
 0.0031442897403654523 0.019353232628529126 -0.0026318659731397625 -0.012296034523490557 0.009039851206165293 0.04147350503640565 0.9884989498336146 -0.0973743942344263
 -0.0026317556619809062 -0.012296036937660064 0.0030240068103630042 0.01937234629505161 0.9884989498336146 -0.0973743942344263 0.009058885731472847 0.04147222589347681
0.1500625260525 0.009477044544194206 0.04318332865047218 0.9878840160568264 -0.10148328876723141 0.0033706678017632196 0.020160099984699646 -0.0028155864021713194 -0.01280011546522755
 0.9878840160568264 -0.10148328876723141 0.009497033969297065 0.04318207546911358 -0.0028157065143029655 -0.01280011248013005 0.0032399189466166076 0.02018125157674107
 0.0033706678017632196 0.020160099984699646 -0.0028157065143029655 -0.01280011248013005 0.009476552781899818 0.043181413047033795 0.9878838892912271 -0.10148529312133736
 -0.0028155864021713194 -0.01280011546522755 0.0032399189466166076 0.02018125157674107 0.9878838892912271 -0.10148529312133736 0.009497288680419956 0.04318004230276111
0.15631513130469998 0.009927871609586946 0.04488170675392559 0.9872489933099766 -0.10558319191594136 0.0036053633486402763 0.02096330297203895 -0.003006074114323457 -0.013300882950519125
 0.9872489933099766 -0.10558319191594136 0.0099495744741559 0.04488036875318768 -0.0030062044521783904 -0.013300879336502052 0.0034637322672162307 0.02098663556695495
