! Created with skrf 1.8.0 (http://scikit-rf.org).
# GHz S RI R 50.0 
!freq ReS11 ImS11 ReS12 ImS12 ReS13 ImS13
! ReS14 ImS14
! ReS21 ImS21 ReS22 ImS22 ReS23 ImS23
! ReS24 ImS24
! ReS31 ImS31 ReS32 ImS32 ReS33 ImS33
! ReS34 ImS34
! ReS41 ImS41 ReS42 ImS42 ReS43 ImS43
! ReS44 ImS44
!
0.0 0.001590432418895 0.0 0.9984095675783 0.0 6.16617678711e-05 0.0 -6.166176796025e-05 7.551388676228699e-21
 0.9984095675783 0.0 0.001590432418887 0.0 -6.166176795975e-05 7.551388676167465e-21 6.166176787125e-05 0.0
 6.16617678711e-05 0.0 -6.166176795975e-05 7.551388676167465e-21 0.001590432420298 0.0 0.9984095675797 0.0
 -6.166176796025e-05 7.551388676228699e-21 6.166176787125e-05 0.0 0.9984095675797 0.0 0.001590432420316 0.0
0.005 0.001711361854102767 0.0012965315650837386 0.9982565319160329 -0.0033316636135117313 8.718194422780086e-05 0.0007059808730793633 -8.446595199624481e-05 -0.0004384680078217036
 0.9982565319160329 -0.0033316636135117313 0.0017113775855845774 0.0012965223039364128 -8.446708253795778e-05 -0.00043846878814513457 8.70849848861174e-05 0.000706017816443672
 8.718194422780086e-05 0.0007059808730793633 -8.446708253795778e-05 -0.00043846878814513457 0.0017113620713696358 0.0012965986522834323 0.9982565322824517 -0.0033315965509285767
 -8.446595199624481e-05 -0.0004384680078217036 8.70849848861174e-05 0.000706017816443672 0.9982565322824517 -0.0033315965509285767 0.0017113780949888258 0.0012965893359715265
0.006252605252188 0.0017431193370167186 0.0016257793609043385 0.9982160788401788 -0.004165389360348587 9.45074323347736e-05 0.0008828022616791116 -9.092829086368495e-05 -0.0005486552768854239
 0.9982160788401788 -0.004165389360348587 0.0017431439287460616 0.001625767586067398 -9.093005077874767e-05 -0.000548656237069389 9.43559428294187e-05 0.0008828502360310885
 9.45074323347736e-05 0.0008828022616791116 -9.093005077874767e-05 -0.000548656237069389 0.0017431195950441043 0.0016258631972506175 0.9982160793309256 -0.004165305544598862
 -9.092829086368495e-05 -0.0005486552768854239 9.43559428294187e-05 0.0008828502360310885 0.9982160793309256 -0.004165305544598862 0.0017431446424793354 0.001625851368045088
0.01250521050438 0.0019105385475863936 0.0032857146304509847 0.9980013566699285 -0.008331557189509961 0.00013669878356713168 0.0017658567854285131 -0.00012772287778222907 -0.0010999659385957556
 0.9980013566699285 -0.008331557189509961 0.0019106367532346915 0.0032856890828340327 -0.00012772982200034082 -0.001099967690631983 0.0001360946873571494 0.0017659721405912125
 0.00013669878356713168 0.0017658567854285131 -0.00012772982200034082 -0.001099967690631983 0.0019105390332214344 0.0032858819506543387 0.9980013580792171 -0.008331389788749534
 -0.00012772287778222907 -0.0010999659385957556 0.0001360946873571494 0.0017659721405912125 0.9980013580792171 -0.008331389788749534 0.0019106390412864035 0.0032858564417944116
0.01875781575657 0.002093065534405561 0.004969317572310298 0.9977651272667506 -0.012508636816430996 0.00018833412951666187 0.0026497759122217916 -0.00017216162983817228 -0.0016530947865424723
 0.9977651272667506 -0.012508636816430996 0.0020932862278046425 0.004969276117878157 -0.00017217712747378877 -0.001653097125500731 0.00018697711535282864 0.00264998194281685
 0.00018833412951666187 0.0026497759122217916 -0.00017217712747378877 -0.001653097125500731 0.0020930662115040753 0.004969568136950863 0.997765130009471 -0.012508385897528396
 -0.00017216162983817228 -0.0016530947865424723 0.00018697711535282864 0.00264998194281685 0.997765130009471 -0.012508385897528396 0.0020932909210832347 0.004969526967174707
0.02501042100875 0.002291064080402634 0.006674209899228425 0.9975071057774695 -0.016698639895197542 0.0002495135185899598 0.003534594248253795 -0.0002243565362535227 -0.0022077758656547375
 0.9975071057774695 -0.016698639895197542 0.002291456049766351 0.006674150284263106 -0.00022438391987832413 -0.002207778546870811 0.0002471031809252924 0.0035349180062820484
 0.0002495135185899598 0.003534594248253795 -0.00022438391987832413 -0.002207778546870811 0.0022910649272755387 0.006674543457681764 0.9975071102786164 -0.016698305484662005
 -0.0002243565362535227 -0.0022077758656547375 0.0002471031809252924 0.0035349180062820484 0.9975071102786164 -0.016698305484662005 0.0022914639727474036 0.006674484532524426
0.03126302626094 0.0025048829008636492 0.008399160773565997 0.9972269931903042 -0.020902418883379795 0.00032033750932723855 0.004420261612825932 -0.0002844162133293633 -0.002763821465767962
 0.9972269931903042 -0.020902418883379795 0.0025054948752013797 0.008399080627725963 -0.00028445878503783993 -0.0027638242043757574 0.00031657307276365313 0.004420733929331741
 0.00032033750932723855 0.004420261612825932 -0.00028445878503783993 -0.0027638242043757574 0.0025048838960788603 0.008399577055360733 0.9972269998733345 -0.020902000975597915
 -0.0002844162133293633 -0.002763821465767962 0.00031657307276365313 0.004420733929331741 0.9972269998733345 -0.020902000975597915 0.002505506833975961 0.008399498170564207
0.037515631513130004 0.0027348630261528352 0.01014336243133329 0.9969244839735661 -0.025120391357654884 0.0004009060902249659 0.005306694261397884 -0.00035244672616966397 -0.0033210709015981626
 0.9969244839735661 -0.025120391357654884 0.0027357436937918375 0.010143259269097125 -0.0003525077606439811 -0.003321073372349431 0.00039548628838880184 0.0053073497838945815
 0.0004009060902249659 0.005306694261397884 -0.0003525077606439811 -0.003321073372349431 0.002734864153062901 0.01014386113762503 0.9969244932660708 -0.025119889923110428
 -0.00035244672616966397 -0.0033210709015981626 0.00039548628838880184 0.0053073497838945815 0.9969244932660708 -0.025119889923110428 0.0027357604814384406 0.010143759980816718
0.043768236765320004 0.002981340657510665 0.011906209710756302 0.9965992691880556 -0.029352760415016537 0.0004913181740577673 0.006193790466245032 -0.0004285518778580558 -0.0038793749389758802
 0.9965992691880556 -0.029352760415016537 0.0029825386804690763 0.01190608093216614 -0.00042863462401936727 -0.0038793767761243925 0.0004839411943648764 0.006194667701009332
 0.0004913181740577673 0.006193790466245032 -0.00042863462401936727 -0.0038793767761243925 0.0029813419007005083 0.011906790516475682 0.9965992815207275 -0.029352175397792318
 -0.0004285518778580558 -0.0038793749389758802 0.0004839411943648764 0.006194667701009332 0.9965992815207275 -0.029352175397792318 0.002982561075018012 0.011906664668095857
0.050020842017509996 0.0032446484843296403 0.013687208969800626 0.9962510380672905 -0.0335996056834096 0.0005916712921032557 0.007081436956530301 -0.0005128333115617314 -0.0044385893651771625
 0.9962510380672905 -0.0335996056834096 0.0032462125111910427 0.013687051860778442 -0.0005129409935776772 -0.004438590162405415 0.0005820347559105133 0.007082578312806307
 0.0005916712921032557 0.007081436956530301 -0.0005129409935776772 -0.004438590162405415 0.003244649829569524 0.013687871512813027 0.9962510538753806 -0.03359893701183767
 -0.0005128333115617314 -0.0044385893651771625 0.0005820347559105133 0.007082578312806307 0.9962510538753806 -0.03359893701183767 0.0032462412766346514 0.013687718446482589
0.055454545454549996 0.003487395385579027 0.015249360222669983 0.9959294805570844 -0.03730200147844991 0.0006870290785781874 0.007853181244309894 -0.000592793902945031 -0.004925192435900061
 0.9959294805570844 -0.03730200147844991 0.0034893169880695143 0.015249176200752688 -0.0005929258546589018 -0.004925191967867487 0.0006751829117481251 0.007854589636824857
 0.0006870290785781874 0.007853181244309894 -0.0005929258546589018 -0.004925191967867487 0.003487396807163719 0.01525009347591047 0.9959294997418766 -0.03730126003715455
 -0.000592793902945031 -0.004925192435900061 0.0006751829117481251 0.007854589636824857 0.9959294997418766 -0.03730126003715455 0.0034893518982581835 0.015249914621698404
0.056273447269699996 0.003525116357386018 0.015485933354739165 0.9958794789571898 -0.03786092798312469 0.0007020613789228355 0.007969512077049252 -0.000605390527154591 -0.0049985718447246846
 0.9958794789571898 -0.03786092798312469 0.0035270950352674427 0.015485745086952399 -0.0006055263450785581 -0.004998571155080996 0.0006898623424994371 0.007970963912116174
 0.0007020613789228355 0.007969512077049252 -0.0006055263450785581 -0.004998571155080996 0.003525117789590148 0.015486677237464174 0.9958794986800991 -0.03786017556792311
 -0.000605390527154591 -0.0049985718447246846 0.0006898623424994371 0.007970963912116174 0.9958794986800991 -0.03786017556792311 0.0035271309201087174 0.015486494320010348
0.06252605252188 0.0038230716427647294 0.01730199822702198 0.9954842799408138 -0.04213667383359334 0.0008225825982084694 0.008857887533711589 -0.0007063208579168623 -0.005559180193163433
 0.9954842799408138 -0.04213667383359334 0.003825513628487162 0.01730177585736748 -0.0007064879880013697 -0.005559177529013282 0.0008075175681788083 0.008859700198163518
 0.0008225825982084694 0.008857887533711589 -0.0007064879880013697 -0.005559177529013282 0.0038230731454854173 0.017302823018920496 0.9954843040233553 -0.042135837565158214
 -0.0007063208579168623 -0.005559180193163433 0.0008075175681788083 0.008859700198163518 0.9954843040233553 -0.042135837565158214 0.003825557366255305 0.017302607509914605
0.06877865777407 0.0041388394025091 0.01913504650361746 0.9950651292942513 -0.046426750051038954 0.000953327195657338 0.009746429435180025 -0.0008157194205700332 -0.006120271359748559
 0.9950651292942513 -0.046426750051038954 0.004141793373606067 0.019134786973415776 -0.0008159210154109597 -0.00612026619273655 0.0009350921541651625 0.009748657318145918
 0.000953327195657338 0.009746429435180025 -0.0008159210154109597 -0.00612026619273655 0.004138840956828328 0.019135951737786486 0.9950651581876861 -0.04642582980277347
 -0.0008157194205700332 -0.006120271359748559 0.0009350921541651625 0.009748657318145918 0.9950651581876861 -0.04642582980277347 0.004141845682775679 0.019135700788801304
0.07503126302626001 0.004472742471947552 0.020984739372526654 0.9946217158435766 -0.050731032976539005 0.0010943853653491795 0.010634998960961477 -0.0009336790511135678 -0.006681700789008561
 0.9946217158435766 -0.050731032976539005 0.004476257137471443 0.020984439506271272 -0.0009339182396653714 -0.006681692550023366 0.0010726758027581739 0.010637700535092267
 0.0010943853653491795 0.010634998960961477 -0.0009339182396653714 -0.006681692550023366 0.00447274405558809 0.020985724546653012 0.9946217500059049 -0.05073002860372605
 -0.0009336790511135678 -0.006681700789008561 0.0010726758027581739 0.010637700535092267 0.9946217500059049 -0.05073002860372605 0.004476318721315881 0.020985435200045074
0.08128386827845 0.00482510147335777 0.022850750114944997 0.9941537292613329 -0.055049374602904634 0.0012458451248822731 0.011523452814815057 -0.0010602902310478035 -0.007243322002613397
 0.9941537292613329 -0.055049374602904634 0.004829225584334258 0.02285040661879846 -0.0010605701185064115 -0.007243310081781232 0.0012203560784480422 0.01152669068084051
 0.0012458451248822731 0.011523452814815057 -0.0010605701185064115 -0.007243310081781232 0.004825103058250914 0.022851814689743167 0.9941537691577574 -0.05504828594430849
 -0.0010602902310478035 -0.007243322002613397 0.0012203560784480422 0.01152669068084051 0.9941537691577574 -0.05504828594430849 0.004829297129815372 0.022851483877084154
0.08753647353064001 0.0051962347843960525 0.02473275983198545 0.9936608603235803 -0.05938160680348141 0.0014077921970657198 0.012411643541751035 -0.0011956410061342766 -0.007804986323530513
 0.9936608603235803 -0.05938160680348141 0.005201017144928785 0.024732369291701764 -0.0011959646738388297 -0.007804970070190144 0.0013782182942547016 0.012415484472472815
 0.0014077921970657198 0.012411643541751035 -0.0011959646738388297 -0.007804970070190144 0.005196236336947088 0.02473390323047764 0.993660906427498 -0.05938043368194506
 -0.0011956410061342766 -0.007804986323530513 0.0013782182942547016 0.012415484472472815 0.993660906427498 -0.05938043368194506 0.005201099323218261 0.02473352777061914
0.09378907878283 0.005586458478933794 0.026630454398878955 0.9931428011405936 -0.06372754433971509 0.0015803098950169167 0.013299419766162245 -0.001339816900864095 -0.00836654268487823
 0.9931428011405936 -0.06372754433971509 0.005591947956415068 0.02663001327759802 -0.0013401874060208045 -0.008366521407594068 0.001546345400858641 0.0133039347499037
 0.0015803098950169167 0.013299419766162245 -0.0013401874060208045 -0.008366521407594068 0.005586459957823789 0.02663167600877555 0.9931428539339587 -0.06372628655990027
 -0.001339816900864095 -0.00836654268487823 0.001546345400858641 0.0133039347499037 0.9931428539339587 -0.06372628655990027 0.005592041422079847 0.026631252605446704
0.100041684035 0.0059960862446072054 0.028543522234154968 0.9925992453700981 -0.06808698706074849 0.0017634790099148759 0.014186626374815317 -0.001492900829257526 -0.008927837500235535
 0.9925992453700981 -0.06808698706074849 0.0060023317806944575 0.028543026869519622 -0.0014933212047102513 -0.008927810466795846 0.001724817877867187 0.014191890658111857
 0.0017634790099148759 0.014186626374815317 -0.0014933212047102513 -0.008927810466795846 0.0059960876003160015 0.02854482140594313 0.9925993053446528 -0.06808564441104914
 -0.001492900829257526 -0.008927837500235535 0.001724817877867187 0.014191890658111857 0.9925993053446528 -0.06808564441104914 0.00600243717176341 0.028544346644955015
0.1059090909091 0.006398403498337435 0.030352438522790223 0.992065715712837 -0.0721899545586018 0.0019451208016828048 0.015018516292602997 -0.0016447271060066695 -0.009454176177864902
 0.992065715712837 -0.0721899545586018 0.00640540310265977 0.030351888811181067 -0.0016451970157895695 -0.009454143040651479 0.001901773796841716 0.015024555980031901
 0.0019451208016828048 0.015018516292602997 -0.0016451970157895695 -0.009454143040651479 0.006398404684277022 0.030353809856526047 0.9920657828818898 -0.07218853205847496
 -0.0016447271060066695 -0.009454176177864902 0.001901773796841716 0.015024555980031901 0.9920657828818898 -0.07218853205847496 0.0064055202490266895 0.030353283688857754
0.1062942892872 0.0064254292863532 0.030471652623538348 0.9920298884184588 -0.07245972155509595 0.0019573777011202293 0.015073104663422477 -0.0016549730027508901 -0.009488714576539754
 0.9920298884184588 -0.07245972155509595 0.00643247990769533 0.030471099224654134 -0.0016554462566568226 -0.009488681013989314 0.0019137136268313013 0.015079197793004824
 0.0019573777011202293 0.015073104663422477 -0.0016554462566568226 -0.009488681013989314 0.0064254304589980585 0.030473028673212485 0.9920299560753492 -0.0724582938050732
 -0.0016549730027508901 -0.009488714576539754 0.0019137136268313013 0.015079197793004824 0.9920299560753492 -0.0724582938050732 0.006432597844436012 0.030472499019305137
0.11254689453939999 0.0068747962157053154 0.03241453444648191 0.9914344276316763 -0.07684552240726254 0.002162081387184204 0.015958692457585796 -0.0018261108364187827 -0.010049015059123815
 0.9914344276316763 -0.07684552240726254 0.006882701044426732 0.03241391909026184 -0.0018266399518827108 -0.010048974153791166 0.0021131078650820953 0.015965698321487348
 0.002162081387184204 0.015958692457585796 -0.0018266399518827108 -0.010048974153791166 0.006874797134862247 0.0324159866508661 0.9914345034835595 -0.07684400931250379
 -0.0018261108364187827 -0.010049015059123815 0.0021131078650820953 0.015965698321487348 0.9914345034835595 -0.07684400931250379 0.006882832130289558 0.03241539844393702
0.11879949979160001 0.00734449293273329 0.03437185518288389 0.990812562481887 -0.08124415318135571 0.002377662638426976 0.01684322422055957 -0.002006388853292222 -0.010608577396434529
 0.990812562481887 -0.08124415318135571 0.007353301197474102 0.0343711738100831 -0.0020069767880113703 -0.010608528293979454 0.0023230730207045793 0.016851231088363425
 0.002377662638426976 0.01684322422055957 -0.0020069767880113703 -0.010608528293979454 0.007344493515438678 0.03437338278312331 0.9908126470526897 -0.08124255448026704
 -0.002006388853292222 -0.010608577396434529 0.0023230730207045793 0.016851231088363425 0.9908126470526897 -0.08124255448026704 0.007353446017788072 0.034372732234180886
0.1250521050438 0.007834822498863612 0.03634330013665323 0.9901639947474569 -0.08565536719598202 0.0026041910699475396 0.0177265311455634 -0.002195878587867528 -0.011167237326913262
 0.9901639947474569 -0.08565536719598202 0.007844583545731176 0.03634254854733777 -0.0021965282737655394 -0.011167179132374071 0.0025436786279031684 0.01773563170766351
 0.0026041910699475396 0.0177265311455634 -0.0021965282737655394 -0.011167179132374071 0.007834822648673303 0.03634490233649662 0.9901640885732768 -0.08565368261161661
 -0.002195878587867528 -0.011167237326913262 0.0025436786279031684 0.01773563170766351 0.9901640885732768 -0.08565368261161661 0.007844742667469004 0.03634418552305129
0.131304710296 0.008346085004658426 0.03832855181480238 0.9894884286908379 -0.09007890815093922 0.002841733235918019 0.018608441243703214 -0.0023946484885086525 -0.01172482787698321
 0.9894884286908379 -0.09007890815093922 0.008356848308037955 0.038327725663522515 -0.0023953628312311653 -0.01172475965486267 0.002774991223345223 0.018618732649676596
 0.002841733235918019 0.018608441243703214 -0.0023953628312311653 -0.01172475965486267 0.008346084610108643 0.03833022778322754 0.9894885323205623 -0.09007713738893673
 -0.0023946484885086525 -0.01172482787698321 0.002774991223345223 0.018618732649676596 0.9894885323205623 -0.09007713738893673 0.00835702227946824 0.03832944064418731
0.1375573155481 0.008763087507437048 0.04006755393762045 0.9889011086745779 -0.09425465455847583 0.0030612653492251593 0.019462778482247315 -0.0025737577358482173 -0.012255141591356768
 0.9889011086745779 -0.09425465455847583 0.008774905248019159 0.04006666723228506 -0.0025745407992266585 -0.012255063230455894 0.0029881397920086465 0.019474247979186052
 0.0030612653492251593 0.019462778482247315 -0.0025745407992266585 -0.012255063230455894 0.008763085521361354 0.04006930349266307 0.9889012225622261 -0.094252797451451
 -0.0025737577358482173 -0.012255141591356768 0.0029881397920086465 0.019474247979186052 0.9889012225622261 -0.094252797451451 0.008775095723023806 0.04006845921314438
0.1438099208003 0.009194804723274295 0.04179702287460025 0.9882930266931438 -0.09841945761584367 0.0032896752486217353 0.02031345505907375 -0.002760029974723971 -0.012782130533111159
 0.9882930266931438 -0.09841945761584367 0.009207726923666535 0.04179607238850705 -0.00276088483547258 -0.012782041117877816 0.0032098869632336802 0.020326191706646922
 0.0032896752486217353 0.02031345505907375 -0.00276088483547258 -0.012782041117877816 0.009194800842937246 0.04179884521470103 0.98829315138652 -0.09841751387629145
 -0.002760029974723971 -0.012782130533111159 0.0032098869632336802 0.020326191706646922 0.98829315138652 -0.09841751387629145 0.009207934624944118 0.04179794073529825
0.1500625260525 0.009641079278000137 0.04351680342767285 0.9876643444226979 -0.10257320319844951 0.0035268818682096417 0.021160377125332204 -0.002953386987670589 -0.013305707030970478
 0.9876643444226979 -0.10257320319844951 0.009655156089730924 0.043515785734322514 -0.0029543167113846385 -0.013305605609764095 0.003440153418387453 0.02117447323242861
 0.0035268818682096417 0.021160377125332204 -0.0029543167113846385 -0.013305605609764095 0.009641073174843971 0.04351869772065363 0.9876644804809032 -0.10257117253047755
 -0.002953386987670589 -0.013305707030970478 0.003440153418387453 0.02117447323242861 0.9876644804809032 -0.10257117253047755 0.009655381735492378 0.04351772978305322
0.15631513130469998 0.010101752613275384 0.04522674506050184 0.9870152244349728 -0.10671577780962198 0.003772803147895519 0.02200345247720519 -0.00315374956001175 -0.013825785321839798
 0.9870152244349728 -0.10671577780962198 0.010117034320642593 0.04522565652776264 -0.003154757200877357 -0.013825670907237702 0.0036788588726625166 0.022019003566551478
