! Created with skrf 1.8.0 (http://scikit-rf.org).
# GHz S RI R 50.0 
!freq ReS11 ImS11 ReS12 ImS12 ReS13 ImS13
! ReS14 ImS14
! ReS21 ImS21 ReS22 ImS22 ReS23 ImS23
! ReS24 ImS24
! ReS31 ImS31 ReS32 ImS32 ReS33 ImS33
! ReS34 ImS34
! ReS41 ImS41 ReS42 ImS42 ReS43 ImS43
! ReS44 ImS44
!
0.0 0.001648573602466 0.0 0.9983514263521 0.0 6.359829433189e-05 0.0 -6.359829468773e-05 7.788544802055865e-21
 0.9983514263521 0.0 0.001648573602468 0.0 -6.359829468762e-05 7.788544802042396e-21 6.359829433293e-05 0.0
 6.359829433189e-05 0.0 -6.359829468762e-05 7.788544802042396e-21 0.001648573625194 0.0 0.9983514263748 0.0
 -6.359829468773e-05 7.788544802055865e-21 6.359829433293e-05 0.0 0.9983514263748 0.0 0.001648573625203 0.0
0.005 0.0017740296418713734 0.0013514532601505318 0.9981926891133278 -0.0034528229787623085 8.87160052809706e-05 0.0006820611701450382 -8.63358558193128e-05 -0.00043130609195581867
 0.9981926891133278 -0.0034528229787623085 0.0017740087099488567 0.0013514655158863816 -8.633855571304901e-05 -0.0004313081891100924 8.883046138847728e-05 0.0006820174880609443
 8.87160052809706e-05 0.0006820611701450382 -8.633855571304901e-05 -0.0004313081891100924 0.0017740284812228062 0.0013515212452635083 0.9981926894753896 -0.003452755919409117
 -8.63358558193128e-05 -0.00043130609195581867 8.883046138847728e-05 0.0006820174880609443 0.9981926894753896 -0.003452755919409117 0.0017740105892973057 0.0013515316451966194
0.006252605252188 0.0018070318019789808 0.0016946050042279221 0.9981506618879281 -0.004316856485351614 9.591321173092397e-05 0.000852911432247827 -9.279222866987695e-05 -0.0005396803014753119
 0.9981506618879281 -0.004316856485351614 0.0018069990814493805 0.0016946205825862743 -9.279642972923607e-05 -0.0005396828873502512 9.609203703230745e-05 0.0008528547087930366
 9.591321173092397e-05 0.000852911432247827 -9.279642972923607e-05 -0.0005396828873502512 0.0018070299120729503 0.001694689993910702 0.9981506623789765 -0.0043167726557595855
 -9.279222866987695e-05 -0.0005396803014753119 9.609203703230745e-05 0.0008528547087930366 0.9981506623789765 -0.0043167726557595855 0.0018070019444767001 0.0016947032423545263
0.01250521050438 0.001981337012436606 0.0034244492172145805 0.9979272011389488 -0.008634390454665982 0.00013730129592590316 0.0017062153663481145 -0.00012962171466716799 -0.001081897657819361
 0.9979272011389488 -0.008634390454665982 0.0019812063563344673 0.0034244830138789434 -0.00012963826821443442 -0.0010819024376093793 0.00013801436675799805 0.0017060789261979362
 0.00013730129592590316 0.0017062153663481145 -0.00012963826821443442 -0.0010819024376093793 0.001981328932041883 0.003424618970207059 0.9979272025741646 -0.008634223051053406
 -0.00012962171466716799 -0.001081897657819361 0.00013801436675799805 0.0017060789261979362 0.9979272025741646 -0.008634223051053406 0.001981217266912321 0.0034246479754746844
0.01875781575657 0.0021718896639609494 0.005178663139081503 0.9976807519989987 -0.012963083447559429 0.00018786358904264384 0.0025604498073540437 -0.00017420372350113568 -0.0016258832424054489
 0.9976807519989987 -0.012963083447559429 0.002171596067041478 0.005178718058477628 -0.00017424063480035943 -0.0016258897440069447 0.00018946532258410647 0.00256020590325286
 0.00018786358904264384 0.0025604498073540437 -0.00017424063480035943 -0.0016258897440069447 0.0021718710655033624 0.005178917616448869 0.9976807547998491 -0.012962832545856402
 -0.00017420372350113568 -0.0016258832424054489 0.00018946532258410647 0.00256020590325286 0.9976807547998491 -0.012962832545856402 0.0021716201656875995 0.0051789650620469255
0.02501042100875 0.0023790771863574788 0.006954773650044538 0.997411010215043 -0.017305007767572995 0.0002477015860113746 0.0034156324379320513 -0.0002266511458593519 -0.0021713816160609505
 0.997411010215043 -0.017305007767572995 0.0023785557688974683 0.006954852839716981 -0.00022671632290130158 -0.0021713892791786517 0.0002505464632510782 0.003415248725168145
 0.0002477015860113746 0.0034156324379320513 -0.00022671632290130158 -0.0021713892791786517 0.0023790437543615432 0.006955112863583318 0.9974110148179836 -0.017304673398607622
 -0.0002266511458593519 -0.0021713816160609505 0.0002505464632510782 0.003415248725168145 0.9974110148179836 -0.017304673398607622 0.0023785982037305463 0.006955181590757725
0.03126302626094 0.0026032710384335414 0.008751495307428959 0.9971176567661036 -0.021661035149846974 0.00031691672659383364 0.004271704239839738 -0.0002870734865582647 -0.0027182072253598044
 0.9971176567661036 -0.021661035149846974 0.0026024570115245993 0.008751602154875112 -0.0002871747564088253 -0.002718215400561044 0.0003213596188337974 0.004271143749854735
 0.00031691672659383364 0.004271704239839738 -0.0002871747564088253 -0.002718215400561044 0.0026032184519743525 0.008751919296433585 0.9971176636073245 -0.021660617322472313
 -0.0002870734865582647 -0.0027182072253598044 0.0003213596188337974 0.004271143749854735 0.9971176636073245 -0.021660617322472313 0.002602522924374497 0.00875201230070705
0.037515631513130004 0.00284483445095194 0.010567980322113006 0.9968003659019543 -0.026031586720477423 0.00039560954257637164 0.005128575580175401 -0.0003555776156775061 -0.0032661983414363433
 0.9968003659019543 -0.026031586720477423 0.002843663093250382 0.010568118453929146 -0.00035572273273559555 -0.003266206289910064 0.00040200585456714316 0.005127796675177027
 0.00039560954257637164 0.005128575580175401 -0.00035572273273559555 -0.003266206289910064 0.0028447583822051254 0.010568489153903475 0.9968003754182111 -0.026031085421283733
 -0.0003555776156775061 -0.0032661983414363433 0.00040200585456714316 0.005127796675177027 0.9968003754182111 -0.026031085421283733 0.002843757620173626 0.010568609583242324
0.043768236765320004 0.003104125413264619 0.012403590314593566 0.9964588084240272 -0.030416861166721185 0.00048387924187871117 0.005986140230405187 -0.000432268026160987 -0.003815203058379961
 0.9964588084240272 -0.030416861166721185 0.0031025320533433287 0.012403763596411776 -0.0004324646770762045 -0.0038152099518699084 0.0004925849769426177 0.005985096552047482
 0.00048387924187871117 0.005986140230405187 -0.0004324646770762045 -0.0038152099518699084 0.003104021529125322 0.012404184085320851 0.9964588210554391 -0.030416276359535022
 -0.000432268026160987 -0.003815203058379961 0.0004925849769426177 0.005985096552047482 0.9964588210554391 -0.030416276359535022 0.003102660326602075 0.012404335239119577
0.050020842017509996 0.003381498053718914 0.014257801986404148 0.9960926533619918 -0.03481692899046007 0.0005818234478890896 0.00684428116258962 -0.000517246915295009 -0.004365073515240053
 0.9960926533619918 -0.03481692899046007 0.003379418054477644 0.014258014523573425 -0.0005175027220162104 -0.004365078436073882 0.0005931952311753581 0.006842921578215357
 0.0005818234478890896 0.00684428116258962 -0.0005175027220162104 -0.004365078436073882 0.0033813620150848784 0.014258480804092913 0.9960926695524008 -0.03481626063373086
 -0.000517246915295009 -0.004365073515240053 0.0005931952311753581 0.006842921578215357 0.9960926695524008 -0.03481626063373086 0.0033795852023709356 0.014258666132504724
0.055454545454549996 0.0036375004677808836 0.015883920737703505 0.9957542196296824 -0.0386527279342758 0.0006748712979253513 0.007590402748400729 -0.0005979050537352064 -0.004843516802165039
 0.9957542196296824 -0.0386527279342758 0.003634945087012052 0.015884170910011174 -0.0005982184098817585 -0.004843519194016361 0.0006888500628920235 0.007588723357024726
 0.0006748712979253513 0.007590402748400729 -0.0005982184098817585 -0.004843519194016361 0.003637332956351271 0.01588467357523311 0.9957542392761604 -0.03865198691832763
 -0.0005979050537352064 -0.004843516802165039 0.0006888500628920235 0.007588723357024726 0.9957542392761604 -0.03865198691832763 0.0036351501788516143 0.015884891521443952
0.056273447269699996 0.0036773033377418486 0.016130160819530594 0.9957015689719905 -0.039231778736252776 0.0006895380047341036 0.007702873395600776 -0.0006106141893691096 -0.004915663071469912
 0.9957015689719905 -0.039231778736252776 0.003674672082205774 0.016130416958233675 -0.0006109367111612027 -0.004915665012593122 0.0007039330812928201 0.007701141943528649
 0.0006895380047341036 0.007702873395600776 -0.0006109367111612027 -0.004915665012593122 0.0036771307981090335 0.01613092482026794 0.9957015891687309 -0.03923102676725822
 -0.0006106141893691096 -0.004915663071469912 0.0007039330812928201 0.007701141943528649 0.9957015891687309 -0.03923102676725822 0.003674883227731159 0.016131147924198768
0.06252605252188 0.0039918894320088395 0.01802025562821206 0.9952852234055104 -0.04366134237100781 0.000807116816850532 0.008561785567831314 -0.0007124674274883094 -0.005466824760562098
 0.9952852234055104 -0.04366134237100781 0.003988642310405313 0.01802055995704836 -0.0007128641623060995 -0.0054668226256072774 0.0008248930331372299 0.008559621402277348
 0.000807116816850532 0.008561785567831314 -0.0007128641623060995 -0.0054668226256072774 0.003991676037449369 0.018021104969227816 0.995285248060105 -0.0436605067132108
 -0.0007124674274883094 -0.005466824760562098 0.0008248930331372299 0.008559621402277348 0.995285248060105 -0.0436605067132108 0.003988902570659042 0.018021369600651267
0.06877865777407 0.004325601885427477 0.01992770338662507 0.9948432851986384 -0.04810551039329885 0.0009346517073077716 0.009420880880245529 -0.0008229018223695698 -0.006018410378674357
 0.9948432851986384 -0.04810551039329885 0.004321674282269337 0.019928060738673894 -0.0008233802076628903 -0.006018402982045455 0.0009561674807143045 0.009418218216280498
 0.0009346517073077716 0.009420880880245529 -0.0008233802076628903 -0.006018402982045455 0.004325343273872491 0.019928638248153947 0.9948433147676433 -0.04810459095510792
 -0.0008229018223695698 -0.006018410378674357 0.0009561674807143045 0.009418218216280498 0.9948433147676433 -0.04810459095510792 0.004321988767963212 0.019928948310783182
0.07503126302626001 0.004678783701932666 0.021852139616258436 0.9943754236592411 -0.052564141389167464 0.001072232287187829 0.01028001770065682 -0.0009420101065786994 -0.006570269917770148
 0.9943754236592411 -0.052564141389167464 0.004674110983865364 0.021852555071486826 -0.0009425775199241269 -0.0065702559847243165 0.0010978465666911198 0.010276785759502532
 0.001072232287187829 0.01028001770065682 -0.0009425775199241269 -0.0065702559847243165 0.004678475503409508 0.021853160196757083 0.9943754586041813 -0.05256313806905346
 -0.0009420101065786994 -0.006570269917770148 0.0010978465666911198 0.010276785759502532 0.9943754586041813 -0.05256313806905346 0.004674484798296235 0.021853519747363114
0.08128386827845 0.00505177534494803 0.023793211979261257 0.9938813091881522 -0.05703706838844367 0.0012199458310877226 0.011139049976777147 -0.0010698824702255417 -0.007122251196108239
 0.9938813091881522 -0.05703706838844367 0.005046292848496944 0.023793690867511562 -0.0010705462295737766 -0.007122229362858931 0.001250018050834799 0.011135172931533667
 0.0012199458310877226 0.011139049976777147 -0.0010705462295737766 -0.007122229362858931 0.005051413181073383 0.02379431850407735 0.9938813499767878 -0.057035981067024386
 -0.0010698824702255417 -0.007122251196108239 0.001250018050834799 0.011135172931533667 0.9938813499767878 -0.057035981067024386 0.005046731086747964 0.02379473175401933
0.08753647353064001 0.005444914696517755 0.025750575870627544 0.9933606135606335 -0.06152410322954918 0.0013778771573673197 0.011997827528528718 -0.0012066064716548626 -0.007674199615794038
 0.9933606135606335 -0.06152410322954918 0.005438557715653439 0.025751123774980275 -0.0012073738353876391 -0.007674168429624553 0.0014127671847145552 0.011993224450583378
 0.0013778771573673197 0.011997827528528718 -0.0012073738353876391 -0.007674168429624553 0.005444494179991248 0.02575176858709861 0.9933606606670852 -0.061522931774944306
 -0.0012066064716548626 -0.007674199615794038 0.0014127671847145552 0.011993224450583378 0.9933606606670852 -0.061522931774944306 0.005439065463809707 0.02575223990440931
0.09378907878283 0.005858536983653474 0.027723891260574198 0.9928130101786896 -0.06602503968147706 0.0015461085112877325 0.012856196269723294 -0.0013522669435886722 -0.008225957997498864
 0.9928130101786896 -0.06602503968147706 0.005851240758182585 0.027724514021117204 -0.0013531451105389084 -0.008225915916881951 0.0015861765900096801 0.01285078107581758
 0.0015461085112877325 0.012856196269723294 -0.0013531451105389084 -0.008225915916881951 0.0058580537185609904 0.027725170437156076 0.992813064084196 -0.06602378395086017
 -0.0013522669435886722 -0.008225957997498864 0.0015861765900096801 0.01285078107581758 0.992813064084196 -0.06602378395086017 0.005851823092299332 0.027725704349170516
0.100041684035 0.006292974684077857 0.029712820383646595 0.9922381743068135 -0.07053965572700531 0.0017247194498896047 0.013713998375760914 -0.0015069458962047773 -0.008777366475991349
 0.9922381743068135 -0.07053965572700531 0.006284674387567314 0.029713524101874996 -0.0015079420054386647 -0.00877731187073197 0.0017703261393505428 0.013707679775924053
 0.0017247194498896047 0.013713998375760914 -0.0015079420054386647 -0.00877731187073197 0.0062924242653262545 0.029714186314926228 0.9922382355001772 -0.07053831556221478
 -0.0015069458962047773 -0.008777366475991349 0.0017703261393505428 0.013707679775924053 0.9922382355001772 -0.07053831556221478 0.006285336372654317 0.02971478751119823
0.1059090909091 0.00671987343558341 0.03159311953125996 0.991673696716665 -0.07478837535757792 0.001901835400048391 0.014518295578352812 -0.001660368386606567 -0.009294341788066226
 0.991673696716665 -0.07478837535757792 0.0067105718964115945 0.03159390500595408 -0.001661481611669235 -0.009294273868240933 0.0019529676372913743 0.014511041517595451
 0.001901835400048391 0.014518295578352812 -0.001661481611669235 -0.009294273868240933 0.0067192559856941265 0.031594567160985625 0.9916737652005564 -0.0747869558061629
 -0.001660368386606567 -0.009294341788066226 0.0019529676372913743 0.014511041517595451 0.9916737652005564 -0.0747869558061629 0.006711313220897371 0.031595235909178364
0.1062942892872 0.006748557413306191 0.03171702601086084 0.9916357832922397 -0.07506771527076231 0.00191378672856751 0.014571072426970196 -0.0016707224174983173 -0.009328262426786414
 0.9916357832922397 -0.07506771527076231 0.006739188141071002 0.031717817054426715 -0.0016718435481148102 -0.009328193578154842 0.0019652928390644798 0.014563753873352778
 0.00191378672856751 0.014571072426970196 -0.0016718435481148102 -0.009328193578154842 0.006747935426621082 0.03171847901610314 0.9916358522702845 -0.07506629050041341
 -0.0016707224174983173 -0.009328262426786414 0.0019652928390644798 0.014563753873352778 0.9916358522702845 -0.07506629050041341 0.006739934829613673 0.03171915235203095
0.11254689453939999 0.007225611800271568 0.03373617013108284 0.9910055167776524 -0.07960896944665606 0.002113384188487882 0.015427253524547567 -0.0018436725719913872 -0.0098784804274218
 0.9910055167776524 -0.07960896944665606 0.007215108557100481 0.03373705513911624 -0.0018449257426991707 -0.009878395528333814 0.002171150713465055 0.015418833161252659
 0.002113384188487882 0.015427253524547567 -0.0018449257426991707 -0.009878395528333814 0.007224913821727655 0.03373771055244578 0.9910055940461021 -0.07960745988866237
 -0.0018436725719913872 -0.0098784804274218 0.002171150713465055 0.015418833161252659 0.9910055940461021 -0.07960745988866237 0.00721594498856909 0.03373846105324747
0.11879949979160001 0.007724461351870744 0.03576991292544181 0.9903470569062719 -0.08416315764073001 0.002323582644796078 0.01628237339660621 -0.0020258692979182404 -0.010427852235646743
 0.9903470569062719 -0.08416315764073001 0.007712759040331584 0.03577089881440848 -0.0020272614666628232 -0.010427749390807617 0.0023879706903763274 0.016272744010568056
 0.002323582644796078 0.01628237339660621 -0.0020272614666628232 -0.010427749390807617 0.007723682948213886 0.03577154113345434 0.9903471429801903 -0.08416156309756505
 -0.0020258692979182404 -0.010427852235646743 0.0023879706903763274 0.016272744010568056 0.9903471429801903 -0.08416156309756505 0.007713690239589719 0.03577237399876341
0.1250521050438 0.008245426310082838 0.037817911970139416 0.98966008852211 -0.08873000829454938 0.0025444497760308345 0.01713626049081703 -0.002217382303427029 -0.010976206788478493
 0.98966008852211 -0.08873000829454938 0.008232459718350679 0.03781900594015118 -0.002218920366917116 -0.010976084014614014 0.002615820487380346 0.017125309463825126
 0.0025444497760308345 0.01713626049081703 -0.002218920366917116 -0.010976084014614014 0.00824456303824756 0.03781962836121983 0.9896601839265403 -0.08872832855647289
 -0.002217382303427029 -0.010976206788478493 0.002615820487380346 0.017125309463825126 0.9896601839265403 -0.08872832855647289 0.008233490694730254 0.03782054897018158
0.131304710296 0.008788823503016813 0.03987982159726257 0.9889442993672858 -0.09330923955963213 0.0027760500138607324 0.01798874006288765 -0.0024182779622429896 -0.011523370212756245
 0.9889442993672858 -0.09330923955963213 0.00877452729271045 0.03988103113901943 -0.002419968755399853 -0.011523225438786134 0.0028547644991990316 0.01797634932475587
 0.0027760500138607324 0.01798874006288765 -0.002419968755399853 -0.011523225438786134 0.008787870910118739 0.039881626593880455 0.9889444046377649 -0.09330747440532493
 -0.0024182779622429896 -0.011523370212756245 0.0028547644991990316 0.01797634932475587 0.9889444046377649 -0.09330747440532493 0.008775663038611659 0.039882640510802266
0.1375573155481 0.009233935240932231 0.04168771887017665 0.9883204674108234 -0.09763283137217191 0.0029896783633247864 0.018813471646636958 -0.002599767554384518 -0.012043089206018239
 0.9883204674108234 -0.09763283137217191 0.009218240227366847 0.04168902765769225 -0.002601621311248734 -0.012042922148015016 0.003075920703738908 0.018799653631975385
 0.0029896783633247864 0.018813471646636958 -0.002601621311248734 -0.012042922148015016 0.00923288967222742 0.041689612848255224 0.9883205830023086 -0.09763098069145747
 -0.002599767554384518 -0.012043089206018239 0.003075920703738908 0.018799653631975385 0.9883205830023086 -0.09763098069145747 0.00921948507985522 0.04169070210048125
0.1438099208003 0.009694837491624723 0.043485501179493014 0.9876744764934106 -0.10194484717832333 0.0032118975854512283 0.019634525158618646 -0.002788486331830236 -0.01255936466585626
 0.9876744764934106 -0.10194484717832333 0.009677677610718279 0.04348691530375697 -0.0027905104102329925 -0.012559173272610967 0.003305996883216336 0.01961917126824836
 0.0032118975854512283 0.019634525158618646 -0.0027905104102329925 -0.012559173272610967 0.009693694623920675 0.04348748455797091 0.9876746029396629 -0.10194291075916685
 -0.002788486331830236 -0.01255936466585626 0.003305996883216336 0.01961917126824836 0.9876746029396629 -0.10194291075916685 0.009679036421652798 0.04348865328083065
0.1500625260525 0.010171359581097921 0.0452729999278523 0.9870065018451958 -0.10624516113420643 0.003442624702505191 0.02045180648372781 -0.002984352304192776 -0.013072105669806836
 0.9870065018451958 -0.10624516113420643 0.010152668633014937 0.04527452581441789 -0.002986554043487304 -0.013071887807503825 0.0035449079852372016 0.020434804132464804
 0.003442624702505191 0.02045180648372781 -0.002986554043487304 -0.013071887807503825 0.01017011509063855 0.045275073144048716 0.9870066396884541 -0.1062431387565389
 -0.002984352304192776 -0.013072105669806836 0.0035449079852372016 0.020434804132464804 0.9870066396884541 -0.1062431387565389 0.010154146230848777 0.045276325728352516
0.15631513130469998 0.010663329521838606 0.04705005153682735 0.9863167196999811 -0.11053364824226522 0.003681775699139033 0.021265223255549033 -0.0031872824154914802 -0.013581223317327926
 0.9863167196999811 -0.11053364824226522 0.010643041167236158 0.04705169595229606 -0.0031896691361584933 -0.013580976769904435 0.0037925678866789904 0.021246455914691376
