! Created with skrf 1.8.0 (http://scikit-rf.org).
# GHz S RI R 50.0 
!freq ReS11 ImS11 ReS12 ImS12 ReS13 ImS13
! ReS14 ImS14
! ReS21 ImS21 ReS22 ImS22 ReS23 ImS23
! ReS24 ImS24
! ReS31 ImS31 ReS32 ImS32 ReS33 ImS33
! ReS34 ImS34
! ReS41 ImS41 ReS42 ImS42 ReS43 ImS43
! ReS44 ImS44
!
0.0 0.00137795023148 0.0 0.9986220497666 0.0 5.288110649459e-05 0.0 -5.288110659521e-05 6.476067792719392e-21
 0.9986220497666 0.0 0.001377950231502 0.0 -5.28811065954e-05 6.476067792742659e-21 5.288110649615e-05 0.0
 5.288110649459e-05 0.0 -5.28811065954e-05 6.476067792742659e-21 0.001377950232458 0.0 0.9986220497675 0.0
 -5.288110659521e-05 6.476067792719392e-21 5.288110649615e-05 0.0 0.9986220497675 0.0 0.001377950232465 0.0
0.005 0.0014821356582742746 0.001127409953100305 0.9984903220858768 -0.0028870031561272834 7.381412054051077e-05 0.0005836640827662694 -7.176677303651005e-05 -0.0003662503347250471
 0.9984903220858768 -0.0028870031561272834 0.0014821273778323175 0.0011274148359969348 -7.176675388261863e-05 -0.0003662503782600793 7.385822442320865e-05 0.0005836472293971023
 7.381412054051077e-05 0.0005836640827662694 -7.176675388261863e-05 -0.0003662503782600793 0.0014821357205949948 0.0011274772218320202 0.9984903224390672 -0.0028869360972224064
 -7.176677303651005e-05 -0.0003662503347250471 7.385822442320865e-05 0.0005836472293971023 0.9984903224390672 -0.0028869360972224064 0.0014821280154093423 0.001127481679130587
0.006252605252188 0.001509334490361918 0.001413716086652827 0.9984557394474123 -0.0036094800634326987 7.9709971024396e-05 0.0007298713248916871 -7.703905052483474e-05 -0.00045829408822511866
 0.9984557394474123 -0.0036094800634326987 0.001509321546309346 0.0014137223118200323 -7.703902026137701e-05 -0.00045829414312409606 7.97788789755728e-05 0.0007298494637086038
 7.9709971024396e-05 0.0007298713248916871 -7.703902026137701e-05 -0.00045829414312409606 0.0015093345064256265 0.0014138001578900593 0.9984557399184748 -0.0036093962571374814
 -7.703905052483474e-05 -0.00045829408822511866 7.97788789755728e-05 0.0007298494637086038 0.9984557399184748 -0.0036093962571374814 0.0015093224623884593 0.001413805839983785
0.01250521050438 0.0016517821167635 0.002857241852314104 0.9982735374793902 -0.007219888229660686 0.00011307527026495948 0.0014601534454896344 -0.00010663197582983121 -0.0009188919409116585
 0.9982735374793902 -0.007219888229660686 0.0016517304254166907 0.00285725553499197 -0.00010663185089348672 -0.0009188920565993886 0.00011335004604670946 0.001460101202973418
 0.00011307527026495948 0.0014601534454896344 -0.00010663185089348672 -0.0009188920565993886 0.0016517815819393135 0.0028574098013188064 0.9982735387711358 -0.007219720821637104
 -0.00010663197582983121 -0.0009188919409116585 0.00011335004604670946 0.001460101202973418 0.9982735387711358 -0.007219720821637104 0.0016517334982064506 0.002857422279788721
0.01875781575657 0.0018055778097204774 0.004321530414962704 0.9980752360805295 -0.010840038854108162 0.0001530509064553988 0.0021913539363922884 -0.0001417453438780159 -0.0013811456338244945
 0.9980752360805295 -0.010840038854108162 0.0018054616449299718 0.004321552883251011 -0.00014174505733142778 -0.001381145819082732 0.00015366813037158257 0.002191261246711878
 0.0001530509064553988 0.0021913539363922884 -0.00014174505733142778 -0.001381145819082732 0.0018055761715380983 0.004321782126357856 0.9980752385672225 -0.010839787933134774
 -0.0001417453438780159 -0.0013811456338244945 0.00015366813037158257 0.002191261246711878 0.9980752385672225 -0.010839787933134774 0.0018054681410014217 0.004321802590464795
0.02501042100875 0.0019709993068610177 0.0058045599090268025 0.9978606200376877 -0.014471713623957728 0.00019971152099864254 0.0029235215898472354 -0.00018246228020503167 -0.0018448618106150201
 0.9978606200376877 -0.014471713623957728 0.0019707929884077175 0.0058045925795407955 -0.00018246176329939006 -0.001844862077046823 0.00020080781329742404 0.002923376906450029
 0.00019971152099864254 0.0029235215898472354 -0.00018246176329939006 -0.001844862077046823 0.001970995990918 0.0058048953055337095 0.9978606240833711 -0.014471379202753924
 -0.00018246228020503167 -0.0018448618106150201 0.00020080781329742404 0.002923376906450029 0.9978606240833711 -0.014471379202753924 0.001970804164847832 0.0058049250124428
0.03126302626094 0.0021483127374058945 0.007305303553945932 0.9976294622400844 -0.018115691453525744 0.0002531322695375278 0.003656638323474167 -0.00022886384076614789 -0.002309909814196763
 0.9976294622400844 -0.018115691453525744 0.002147990618964342 0.007305347930724348 -0.00022886302323668777 -0.0023099101762531554 0.00025484442218296497 0.003656428612285051
 0.0002531322695375278 0.003656638323474167 -0.00022886302323668777 -0.0023099101762531554 0.002148307160792307 0.007305722539819803 0.9976294682133815 -0.01811527352518963
 -0.00022886384076614789 -0.002309909814196763 0.00025484442218296497 0.003656428612285051 0.9976294682133815 -0.01811527352518963 0.002148007737013452 0.007305762813279001
0.037515631513130004 0.002337778644839709 0.008823102232559716 0.9973815298515301 -0.021772375849838963 0.0003133881640874033 0.004390659893553155 -0.0002810296038430944 -0.0027761809707120264
 0.9973815298515301 -0.021772375849838963 0.002337315106016719 0.008823159906868272 -0.00028102841405472953 -0.002776181445741601 0.0003158532014896519 0.0043903706188452
 0.0003133881640874033 0.004390659893553155 -0.00028102841405472953 -0.002776181445741601 0.0023377702123672434 0.008823604698036497 0.9973815381228477 -0.021771874383334975
 -0.0002810296038430944 -0.0027761809707120264 0.0003158532014896519 0.0043903706188452 0.9973815381228477 -0.021771874383334975 0.0023373394275031183 0.008823656927804693
0.043768236765320004 0.0025396543099871416 0.010357473575489043 0.9971165867820593 -0.025441985765551657 0.0003805537640376974 0.005125528274056831 -0.000339037891459013 -0.0032435762037264235
 0.9971165867820593 -0.025441985765551657 0.0025390237510425438 0.010357546225720835 -0.0003390362566078079 -0.00324357681202247 0.00038390897352360713 0.005125143382013706
 0.0003805537640376974 0.005125528274056831 -0.0003390362566078079 -0.00324357681202247 0.0025396424146237767 0.010358059398462892 0.9971165977246625 -0.025441400704002165
 -0.000339037891459013 -0.0032435762037264235 0.00038390897352360713 0.005125143382013706 0.9971165977246625 -0.025441400704002165 0.00253905653829552 0.010358125039851921
0.050020842017509996 0.0027541948401278438 0.01190803306202305 0.9968343949269879 -0.029124634433212986 0.0004547029954081753 0.00586117676109872 -0.00040296585406384105 -0.003712000922969922
 0.9968343949269879 -0.029124634433212986 0.0027533716770392585 0.011908122453789506 -0.00040296370027594465 -0.0037120016878119237 0.00045908594172305314 0.005860678662455268
 0.0004547029954081753 0.00586117676109872 -0.00040296370027594465 -0.0037120016878119237 0.002754178863398023 0.011908702099934748 0.996834408918905 -0.029123965701856085
 -0.00040296585406384105 -0.003712000922969922 0.00045908594172305314 0.005860678662455268 0.996834408918905 -0.029123965701856085 0.0027534141930625872 0.011908782673609371
0.055454545454549996 0.002951119396289047 0.013268409206732308 0.9965749676242665 -0.032335593899652515 0.0005248693302516073 0.006501054663821475 -0.00046338775043128656 -0.004119840308652564
 0.9965749676242665 -0.032335593899652515 0.002950108086323517 0.013268514649262323 -0.0004633850849191948 -0.004119841230804458 0.0005302573494759389 0.006500442694698681
 0.0005248693302516073 0.006501054663821475 -0.0004633850849191948 -0.004119841230804458 0.0029510993604166488 0.01326915042981752 0.9965749845761837 -0.03233485238162035
 -0.00046338775043128656 -0.004119840308652564 0.0005302573494759389 0.006500442694698681 0.9965749845761837 -0.03233485238162035 0.002950160082090536 0.013269245265706357
0.056273447269699996 0.0029816537347380446 0.013474455280577608 0.9965347148858916 -0.032820368040137826 0.0005359090218146107 0.006597532487233402 -0.0004728894989251732 -0.0041813625044697525
 0.9965347148858916 -0.032820368040137826 0.002980612395331154 0.013474563267013115 -0.00047288675135559883 -0.004181363452178971 0.000541457551785782 0.006596902039497195
 0.0005359090218146107 0.006597532487233402 -0.00047288675135559883 -0.004181363452178971 0.002981633045163621 0.013475207371652514 0.9965347323089612 -0.03281961554517208
 -0.0004728894989251732 -0.0041813625044697525 0.000541457551785782 0.006596902039497195 0.9965347323089612 -0.03281961554517208 0.002980665902288118 0.01347530446348821
0.06252605252188 0.0032222831977347303 0.01505645263969302 0.9962173064295803 -0.036529186953998254 0.0006242441454384473 0.0073345177888381775 -0.0005488836851884657 -0.00465156891952156
 0.9962173064295803 -0.036529186953998254 0.0032209981177007303 0.015056581161770955 -0.0005488802681228969 -0.004651570079505125 0.0006310963865342396 0.007333734278294085
 0.0006242441454384473 0.0073345177888381775 -0.0005488802681228969 -0.004651570079505125 0.003222257150389874 0.015057287604614611 0.9962173276701378 -0.03652835058082434
 -0.0005488836851884657 -0.00465156891952156 0.0006310963865342396 0.007333734278294085 0.9962173276701378 -0.03652835058082434 0.0032210638760394694 0.015057402865645516
0.06877865777407 0.003476334309571429 0.01665376267419499 0.9958819288304485 -0.04025105835510721 0.0007197797209202507 0.0080720510301585 -0.0006310221038592842 -0.005122527909158357
 0.9958819288304485 -0.04025105835510721 0.0034747799293447126 0.016653913761140893 -0.0006310179408654409 -0.005122529313952459 0.0007280740751276242 0.008071092153842704
 0.0007197797209202507 0.0080720510301585 -0.0006310179408654409 -0.005122529313952459 0.003476302246379862 0.016654680309949633 0.9958819542806238 -0.04025013797445759
 -0.0006310221038592842 -0.005122527909158357 0.0007280740751276242 0.008071092153842704 0.9958819542806238 -0.04025013797445759 0.0034748591973610605 0.01665481545652519
0.07503126302626001 0.003744057118852777 0.018266139988481676 0.9955283411146124 -0.04398592423368679 0.0008225860792254244 0.008810047120902288 -0.0007193772457791719 -0.005594146467532816
 0.9955283411146124 -0.04398592423368679 0.003742207879751074 0.018266315758414742 -0.0007193722597327049 -0.0055941481528479055 0.0008324612137253828 0.008808888968592197
 0.0008225860792254244 0.008810047120902288 -0.0007193722597327049 -0.0055941481528479055 0.003744018367525999 0.018267140074304727 0.9955283711720381 -0.043984919695833444
 -0.0007193772457791719 -0.005594146467532816 0.0008324612137253828 0.008808888968592197 0.9955283711720381 -0.043984919695833444 0.003742301912908049 0.018267296888232067
0.08128386827845 0.004025700681787127 0.019893350905428396 0.9951563022646638 -0.04773370668440341 0.0009327324564752803 0.009548417863361571 -0.000814020362881119 -0.006066330498361581
 0.9951563022646638 -0.04773370668440341 0.004023531023016739 0.019893553565924493 -0.000814014476107257 -0.00606633250312449 0.0009443272917509908 0.009547034899656024
 0.0009327324564752803 0.009548417863361571 -0.000814014476107257 -0.00606633250312449 0.004025654555722314 0.01989443319976109 0.9951563373339765 -0.04773261782208053
 -0.000814020362881119 -0.006066330498361581 0.0009443272917509908 0.009547034899656024 0.9951563373339765 -0.04773261782208053 0.004023641072965545 0.019894613528623775
0.08753647353064001 0.004321513068659313 0.021535169756726584 0.9947655713925365 -0.05149431156186833 0.0010502869261073149 0.010287072193143555 -0.000915021424697669 -0.006538984580496348
 0.9947655713925365 -0.05149431156186833 0.004318997424040183 0.021535401605640925 -0.0009150145590588532 -0.00653898694688819 0.001063740621945256 0.010285437239677942
 0.0010502869261073149 0.010287072193143555 -0.0009150145590588532 -0.00653898694688819 0.004321458866549013 0.021536333995618034 0.9947656118855783 -0.051493138192109704
 -0.000915021424697669 -0.006538984580496348 0.001063740621945256 0.010285437239677942 0.9947656118855783 -0.051493138192109704 0.004319124737986954 0.021536539753181132
0.09378907878283 0.004631741346602934 0.023191376234909435 0.9943559078910351 -0.055267631077884224 0.0011753163333360081 0.011025916353643144 -0.0010224490711467232 -0.007012011802599454
 0.9943559078910351 -0.055267631077884224 0.004628854141319408 0.023191639661185162 -0.0010224411481227025 -0.007012014576098433 0.0011907682731304992 0.011024000571454839
 0.0011753163333360081 0.011025916353643144 -0.0010224411481227025 -0.007012014576098433 0.004631678351468415 0.02319262213610752 0.9943559542269566 -0.05526637299785187
 -0.0010224490711467232 -0.007012011802599454 0.0011907682731304992 0.011024000571454839 0.9943559542269566 -0.05526637299785187 0.004628999960861245 0.02319285530281028
0.100041684035 0.00495663154473934 0.024861753449364293 0.9939270715700005 -0.05905354569741655 0.001307886231105402 0.011764854024812442 -0.0011363705625332694 -0.007485313646487022
 0.9939270715700005 -0.05905354569741655 0.0049533471922596824 0.0248620509340576 -0.0011363615033387103 -0.007485316875906609 0.0013254760047271446 0.011762626896892813
 0.001307886231105402 0.011764854024812442 -0.0011363615033387103 -0.007485316875906609 0.004956559024058185 0.02486308070816836 0.9939271241765337 -0.05905220268886464
 -0.0011363705625332694 -0.007485313646487022 0.0013254760047271446 0.011762626896892813 0.9939271241765337 -0.05905220268886464 0.0049535127528311275 0.02486334333176646
0.1059090909091 0.005275059602148864 0.026441921945024285 0.9935070032180692 -0.06261756457900085 0.0014392042165787136 0.012458265741371932 -0.0012492385387777125 -0.00792961774730753
 0.9935070032180692 -0.06261756457900085 0.0052713792851992 0.026442253729383223 -0.0012492283415940519 -0.007929621451947684 0.0014589272436449582 0.012455717183739626
 0.0014392042165787136 0.012458265741371932 -0.0012492283415940519 -0.007929621451947684 0.00527497746165995 0.026443325253455763 0.9935070621057637 -0.06261614166052547
 -0.0012492385387777125 -0.00792961774730753 0.0014589272436449582 0.012455717183739626 0.9935070621057637 -0.06261614166052547 0.005271564487510496 0.02644361744228084
0.1062942892872 0.005296428608616497 0.026546086463894215 0.9934788227848147 -0.06285192555677734 0.001448060816693906 0.012503786425446063 -0.0012568517278443842 -0.007958789899934978
 0.9934788227848147 -0.06285192555677734 0.00529272150740247 0.026546420581214373 -0.001256841453515722 -0.007958793637448681 0.0014679282019938954 0.01250121573955463
 0.001448060816693906 0.012503786425446063 -0.001256841453515722 -0.007958793637448681 0.005296345813136029 0.02654749475604053 0.9934788820983287 -0.06285049738313335
 -0.0012568517278443842 -0.007958789899934978 0.0014679282019938954 0.01250121573955463 0.9934788820983287 -0.06285049738313335 0.005292908036853714 0.026547788952368
0.11254689453939999 0.005651376343057637 0.028244161180416068 0.993010922555898 -0.06666263153879498 0.0015959028691614969 0.013242612391800149 -0.0013839569109954308 -0.008432338596362518
 0.993010922555898 -0.06666263153879498 0.005647220873649826 0.028244534598954988 -0.0013839453424941129 -0.008432342897550087 0.0016181878125107105 0.01323966422349746
 0.0015959028691614969 0.013242612391800149 -0.0013839453424941129 -0.008432342897550087 0.005651282507043701 0.028245650160228584 0.9930109890226718 -0.06666111794735385
 -0.0013839569109954308 -0.008432338596362518 0.0016181878125107105 0.01323966422349746 0.9930109890226718 -0.06666111794735385 0.005647429591989668 0.02824597811405261
0.11879949979160001 0.006021717350137595 0.029955763461818895 0.9925231326850197 -0.07048551611261661 0.001751473687103366 0.013981228443154112 -0.0015177489159481118 -0.008905855970739372
 0.9925231326850197 -0.07048551611261661 0.0060170878716150275 0.029956178945886494 -0.0015177359742495808 -0.008905860894611515 0.0017763162828028471 0.01397786713903098
 0.001751473687103366 0.013981228443154112 -0.0015177359742495808 -0.008905860894611515 0.006021611690415402 0.029957332765383607 0.9925232067612505 -0.07048391683144564
 -0.0015177489159481118 -0.008905855970739372 0.0017763162828028471 0.01397786713903098 0.9925232067612505 -0.07048391683144564 0.006017319989709185 0.029957696731396238
0.1250521050438 0.00640769295869565 0.03168067844541119 0.9920152158667659 -0.07432042398658437 0.0019148330266052682 0.014719528838754615 -0.0016582889507432768 -0.009379236427368865
 0.9920152158667659 -0.07432042398658437 0.006402563805816113 0.03168113885644456 -0.001658274556943962 -0.009379242036396654 0.0019423734953147478 0.014715717000059558
 0.0019148330266052682 0.014719528838754615 -0.001658274556943962 -0.009379242036396654 0.006407574674278738 0.03168232768714758 0.9920152980195288 -0.07431873872827126
 -0.0016582889507432768 -0.009379236427368865 0.0019423734953147478 0.014715717000059558 0.9920152980195288 -0.07431873872827126 0.006402820524572163 0.03168272999106507
0.131304710296 0.00680954315107927 0.033418689986664016 0.9914869357980624 -0.07816719263457045 0.0020860390394230217 0.015457405625030202 -0.0018056365704515764 -0.009852372520774427
 0.9914869357980624 -0.07816719263457045 0.006803888631013672 0.03341919828483243 -0.001805620645858873 -0.009852378880920042 0.002116417705819591 0.015453104091499798
 0.0020860390394230217 0.015457405625030202 -0.001805620645858873 -0.009852378880920042 0.006809411422485092 0.03342041876162062 0.9914870265055543 -0.07816542109422223
 -0.0018056365704515764 -0.009852372520774427 0.002116417705819591 0.015453104091499798 0.9914870265055543 -0.07816542109422223 0.006804171140180476 0.03342086180147656
0.1375573155481 0.0071314333032940795 0.0349426357360688 0.9910341615882685 -0.08179861859109958 0.0022422209740412358 0.016171575752806738 -0.001936890316123202 -0.010302017269225399
 0.9910341615882685 -0.08179861859109958 0.007125226851151693 0.03494318340131299 -0.0019368729166984197 -0.010302024392861861 0.002275510468688175 0.016166793250720277
 0.0022422209740412358 0.016171575752806738 -0.0019368729166984197 -0.010302024392861861 0.007131288199470685 0.034944443378574705 0.9910342612427948 -0.08179676058675477
 -0.001936890316123202 -0.010302017269225399 0.002275510468688175 0.016166793250720277 0.9910342612427948 -0.08179676058675477 0.007125535602352396 0.03494491878285247
0.1438099208003 0.007464517601594983 0.036459223866194324 0.990565717777686 -0.0854215195459206 0.0024047073295810377 0.01688328309437753 -0.0020734065049052472 -0.010749386878872268
 0.990565717777686 -0.0854215195459206 0.007457733379040637 0.03645981306653397 -0.00207338757635955 -0.010749394827171719 0.0024410358728937415 0.016877984031887425
 0.0024047073295810377 0.01688328309437753 -0.00207338757635955 -0.010749394827171719 0.007464358437619904 0.03646110991000743 0.9905658268565579 -0.08541957477757973
 -0.0020734065049052472 -0.010749386878872268 0.0024410358728937415 0.016877984031887425 0.9905658268565579 -0.08541957477757973 0.0074580694127545245 0.03646161934598734
0.1500625260525 0.007808687892776208 0.03796834759756817 0.9900817160329528 -0.08903582589458581 0.0025734471547817868 0.017592469130192717 -0.002215135199077409 -0.011194424778506705
 0.9900817160329528 -0.08903582589458581 0.0078013000347155696 0.03796898061148503 -0.0022151146889111554 -0.011194433614895801 0.002612942278890854 0.01758661662404294
 0.0025734471547817868 0.017592469130192717 -0.0022151146889111554 -0.011194433614895801 0.007808513976576748 0.03797031155566518 0.9900818350230073 -0.08903379405166678
 -0.002215135199077409 -0.011194424778506705 0.002612942278890854 0.01758661662404294 0.9900818350230073 -0.08903379405166678 0.007801664371899137 0.03797085678332214
0.15631513130469998 0.008163835363085459 0.03946990347126781 0.9895822684713553 -0.0926414678838328 0.0027483889577412917 0.01829907623790121 -0.002362025901938722 -0.011637075522171424
