! Created with skrf 1.8.0 (http://scikit-rf.org).
# GHz S RI R 50.0 
!freq ReS11 ImS11 ReS12 ImS12 ReS13 ImS13
! ReS14 ImS14
! ReS21 ImS21 ReS22 ImS22 ReS23 ImS23
! ReS24 ImS24
! ReS31 ImS31 ReS32 ImS32 ReS33 ImS33
! ReS34 ImS34
! ReS41 ImS41 ReS42 ImS42 ReS43 ImS43
! ReS44 ImS44
!
0.0 0.001412497858604 0.0 0.9985875021328 0.0 5.440976950023e-05 0.0 -5.440977003419e-05 6.663275071471435e-21
 0.9985875021328 0.0 0.001412497858604 0.0 -5.440977003359e-05 6.663275071397957e-21 5.440976950184e-05 0.0
 5.440976950023e-05 0.0 -5.440977003359e-05 6.663275071397957e-21 0.001412497862855 0.0 0.9985875021371 0.0
 -5.440977003419e-05 6.663275071471435e-21 5.440976950184e-05 0.0 0.9985875021371 0.0 0.001412497862884 0.0
0.005 0.001519417234686262 0.0011531078968780506 0.9984522910264346 -0.002959347555476119 7.640340526013678e-05 0.0006159873073844901 -7.417126042549313e-05 -0.0003838247187026244
 0.9984522910264346 -0.002959347555476119 0.0015194131082076384 0.0011531103332299065 -7.417025677034945e-05 -0.0003838240244869838 7.643606395211884e-05 0.0006159749846382371
 7.640340526013678e-05 0.0006159873073844901 -7.417025677034945e-05 -0.0003838240244869838 0.0015194170183654664 0.0011530408037695998 0.99845229067493 -0.002959414629024052
 -7.417126042549313e-05 -0.0003838247187026244 7.643606395211884e-05 0.0006159749846382371 0.99845229067493 -0.002959414629024052 0.0015194126316563311 0.0011530432896720059
0.006252605252188 0.001547357436475316 0.0014459478409488454 0.9984167519789031 -0.0036999255808568107 8.261935282785979e-05 0.0007702821171579777 -7.97043574604675e-05 -0.00048028700469815075
 0.9984167519789031 -0.0036999255808568107 0.0015473509856126313 0.0014459509160722596 -7.970279507242985e-05 -0.0004802861501834741 8.267038060680443e-05 0.0007702661061396998
 8.261935282785979e-05 0.0007702821171579777 -7.970279507242985e-05 -0.0004802861501834741 0.0015473571752742167 0.001445864013997963 0.9984167515066018 -0.0037000093947005892
 -7.97043574604675e-05 -0.00048028700469815075 8.267038060680443e-05 0.0007702661061396998 0.9984167515066018 -0.0037000093947005892 0.0015473503184520714 0.0014458671382535971
0.01250521050438 0.0016938496837137081 0.0029224372326820095 0.9982292699281036 -0.007400771359333541 0.0001179102120840163 0.0015409191950021435 -0.00011084985404409023 -0.0009629844206227084
 0.9982292699281036 -0.007400771359333541 0.001693823918020091 0.0029224436744799674 -0.00011084368904209422 -0.00096298285693714 0.00011811374461942432 0.0015408806651073862
 0.0001179102120840163 0.0015409191950021435 -0.00011084368904209422 -0.00096298285693714 0.00169384920514393 0.0029222699369442716 0.9982292686099763 -0.007400938776108265
 -0.00011084985404409023 -0.0009629844206227084 0.00011811374461942432 0.0015408806651073862 0.9982292686099763 -0.007400938776108265 0.0016938218340903182 0.002922276346867083
0.01875781575657 0.0018522736146940498 0.0044201848529114044 0.9980248378059327 -0.011111569316019504 0.0001603610007595547 0.002312459649458156 -0.00014793792522769755 -0.0014473880687504005
 0.9980248378059327 -0.011111569316019504 0.0018522157045677086 0.004420194960695881 -0.00014792416603809984 -0.0014473859696863941 0.00016081832318118764 0.0023123909204216327
 0.0001603610007595547 0.002312459649458156 -0.00014792416603809984 -0.0014473859696863941 0.0018522729513757886 0.004419934365993724 0.9980248352608893 -0.01111182028941744
 -0.00014793792522769755 -0.0014473880687504005 0.00016081832318118764 0.0023123909204216327 0.9980248352608893 -0.01111182028941744 0.0018522114650657265 0.004419944227171497
0.02501042100875 0.0020229205524733575 0.005937110954360496 0.9978032294430463 -0.01483413959172081 0.00021005129309160882 0.003084954284939539 -0.0001910575446645158 -0.0019332867501616645
 0.9978032294430463 -0.01483413959172081 0.0020228176856191375 0.00593712502990339 -0.00019103323160213803 -0.0019332843208167143 0.00021086379914623236 0.0030848465431732182
 0.00021005129309160882 0.003084954284939539 -0.00019103323160213803 -0.0019332843208167143 0.0020229197360402407 0.005936777588273845 0.997803225289327 -0.014834474126016814
 -0.0001910575446645158 -0.0019332867501616645 0.00021086379914623236 0.0030848465431732182 0.997803225289327 -0.014834474126016814 0.002022810570483754 0.005936791063746499
0.03126302626094 0.0022060696745466435 0.0074721559756795895 0.9975642064040939 -0.01856927384177375 0.00026706120573267495 0.0038583813379476028 -0.00024029535320763462 -0.0024205372325483603
 0.9975642064040939 -0.01856927384177375 0.0022059090485429442 0.007472174321459209 -0.00024025755298745456 -0.002420534709740925 0.0002683304932787862 0.0038582246283919933
 0.00026706120573267495 0.0038583813379476028 -0.00024025755298745456 -0.002420534709740925 0.002206068734847213 0.007471740074278368 0.9975642002561323 -0.018569691994774193
 -0.00024029535320763462 -0.0024205372325483603 0.0002683304932787862 0.0038582246283919933 0.9975642002561323 -0.018569691994774193 0.0022058983540123346 0.007471757322587653
0.037515631513130004 0.0024019942511913244 0.009024637164048891 0.997307524391165 -0.022317378556066716 0.00033147065258498084 0.0046326906296771725 -0.00029573631295321695 -0.0029090200953512156
 0.997307524391165 -0.022317378556066716 0.0024017630681101407 0.009024660082445898 -0.0002956821158806249 -0.0029090177478110174 0.0003332985685235942 0.004632473842999257
 0.00033147065258498084 0.0046326906296771725 -0.0002956821158806249 -0.0029090177478110174 0.0024019932165910323 0.009024139131962067 0.9973075158573954 -0.02231788041074797
 -0.00029573631295321695 -0.0029090200953512156 0.0003332985685235942 0.004632473842999257 0.9973075158573954 -0.02231788041074797 0.002401748106470449 0.009024160306034474
0.043768236765320004 0.0026109640546198073 0.010594052800034469 0.9970329358167545 -0.02607867076996326 0.00040335899876661296 0.0054078169920437355 -0.00035746394709858947 -0.0033986262985708435
 0.9970329358167545 -0.02607867076996326 0.00261064951677645 0.010594080592526665 -0.0003573904654659552 -0.003398624427046318 0.0004058476624575202 0.005407527850186653
 0.00040335899876661296 0.0054078169920437355 -0.0003573904654659552 -0.003398624427046318 0.0026109629550418053 0.010593473084280259 0.9970329245011587 -0.02607925645316169
 -0.00035746394709858947 -0.0033986262985708435 0.0004058476624575202 0.005407527850186653 0.9970329245011587 -0.02607925645316169 0.0026106296186446153 0.0105934983304709
0.050020842017509996 0.0028332464855213963 0.012180001279122726 0.9967401910978282 -0.029853258916372086 0.00048280485343377003 0.00618368582028285 -0.0004255604345712182 -0.003889251625418154
 0.9967401910978282 -0.029853258916372086 0.0028328357915075033 0.012180034245745128 -0.00042546480162117647 -0.003889250562766512 0.00048605666889062194 0.006183310861404916
 0.00048280485343377003 0.00618368582028285 -0.00042546480162117647 -0.003889250562766512 0.0028332453521637815 0.012179340391009905 0.9967401765968489 -0.02985392857736067
 -0.0004255604345712182 -0.003889251625418154 0.00048605666889062194 0.006183310861404916 0.9967401765968489 -0.02985392857736067 0.002832810305338176 0.012179369848325038
0.055454545454549996 0.0030374344618472413 0.01357139919379137 0.9964708472737484 -0.033144320253026424 0.0005580437078825555 0.006858479286845627 -0.0004899734672349945 -0.004316368230871356
 0.9964708472737484 -0.033144320253026424 0.00303692980347908 0.01357143689903201 -0.0004898562718180364 -0.0043163681664660615 0.0005620421148207749 0.006858017886741326
 0.0005580437078825555 0.006858479286845627 -0.0004898562718180364 -0.0043163681664660615 0.003037433327523227 0.01357066821739386 0.9964708296715905 -0.03314506304438506
 -0.0004899734672349945 -0.004316368230871356 0.0005620421148207749 0.006858017886741326 0.9964708296715905 -0.03314506304438506 0.0030368989469799746 0.013570701441061745
0.056273447269699996 0.003069107155837672 0.0137821414110943 0.9964290394071537 -0.03364118246054232 0.0005698859272285704 0.006960215781915564 -0.0005001066364575533 -0.004380793970362398
 0.9964290394071537 -0.03364118246054232 0.003068587497088847 0.013782179849906925 -0.0004999860058235451 -0.004380794081620686 0.0005740035881255001 0.0069597403449827774
 0.0005698859272285704 0.006960215781915564 -0.0004999860058235451 -0.004380794081620686 0.0030691060235746403 0.013781399911979957 0.9964290213102068 -0.03364193628560572
 -0.0005001066364575533 -0.004380793970362398 0.0005740035881255001 0.0069597403449827774 0.9964290213102068 -0.03364193628560572 0.00306855579044405 0.013781433711519677
0.06252605252188 0.003318810209070999 0.015400170565457689 0.9960992291662824 -0.037442433690320055 0.0006646789178548433 0.007737320316831988 -0.0005811820914645695 -0.004873151838386662
 0.9960992291662824 -0.037442433690320055 0.0033181687659687236 0.015400214772245291 -0.0005810336367047061 -0.004873153520829479 0.0006697654082690782 0.007736728526030189
 0.0006646789178548433 0.007737320316831988 -0.0005810336367047061 -0.004873153520829479 0.003318809116958099 0.015399349076956965 0.9960992070538157 -0.03744327189281882
 -0.0005811820914645695 -0.004873151838386662 0.0006697654082690782 0.007736728526030189 0.9960992070538157 -0.03744327189281882 0.0033181302260456465 0.01539938734135594
0.06877865777407 0.0035826184949409863 0.017033811670576555 0.9957505083950096 -0.04125697065489912 0.0007672594143212808 0.008514908525070726 -0.0006688649905922916 -0.005366223459184036
 0.9957505083950096 -0.04125697065489912 0.003581842433519972 0.01703386193855549 -0.0006686859049668856 -0.00536622714239548 0.0007734180062215538 0.008514183274125562
 0.0007672594143212808 0.008514908525070726 -0.0006686859049668856 -0.00536622714239548 0.003582617487788407 0.01703291087237296 0.9957504818380333 -0.04125789347784574
 -0.0006688649905922916 -0.005366223459184036 0.0007734180062215538 0.008514183274125562 0.9957504818380333 -0.04125789347784574 0.00358179646823934 0.017032953715406727
0.07503126302626001 0.003860793658587767 0.018682804948795886 0.9953826249787927 -0.04508472537038915 0.0008777018103595317 0.00929288573226445 -0.0007632321407335419 -0.005859906226617352
 0.9953826249787927 -0.04508472537038915 0.003859870126968753 0.01868286156837377 -0.0007630196370718505 -0.005859912372526943 0.0008850360588640119 0.009292008668728159
 0.0008777018103595317 0.00929288573226445 -0.0007630196370718505 -0.005859912372526943 0.00386079278785215 0.01868182557868456 0.9953825935375715 -0.045085733086506714
 -0.0007632321407335419 -0.005859906226617352 0.0008850360588640119 0.009292008668728159 0.9953825935375715 -0.045085733086506714 0.0038598161654883967 0.018681873104923464
0.08128386827845 0.004153596177407459 0.020346902426489885 0.9949953268865587 -0.04892560925329587 0.000996079223675429 0.01007115386893969 -0.0008643589208936883 -0.00635409632736207
 0.9949953268865587 -0.04892560925329587 0.0041525123024408 0.020346965685221895 -0.0008641102315845963 -0.006354105430298629 0.0010046929603003837 0.010070105378490976
 0.000996079223675429 0.01007115386893969 -0.0008641102315845963 -0.006354105430298629 0.004153595503304969 0.020345845281979726 0.9949952901104692 -0.04892670216371831
 -0.0008643589208936883 -0.00635409632736207 0.0010046929603003837 0.010070105378490976 0.9949952901104692 -0.04892670216371831 0.004152449796648521 0.020345897586599628
0.08753647353064001 0.004461285361991931 0.02202586413763353 0.9945883623558944 -0.05277951686399938 0.0011224634199818576 0.010849611733255644 -0.0009723192320342172 -0.006848688489364459
 0.9945883623558944 -0.05277951686399938 0.004460028245810334 0.02202593432017383 -0.0009720316090328469 -0.006848701076094664 0.0011324607445365464 0.010848370924002398
 0.0011224634199818576 0.010849611733255644 -0.0009720316090328469 -0.006848701076094664 0.004461284954103098 0.022024730071540207 0.994588319781296 -0.05278069530271488
 -0.0009723192320342172 -0.006848688489364459 0.0011324607445365464 0.010848370924002398 0.994588319781296 -0.05278069530271488 0.004459956670713989 0.022024787240185407
0.09378907878283 0.0047841193326706765 0.02371945540340955 0.9941614800555963 -0.05664632857742519 0.0012569247385091256 0.011628155182198743 -0.001087185444049342 -0.007343575805116096
 0.9941614800555963 -0.05664632857742519 0.004782676048833884 0.023719532791675338 -0.0010868561589622637 -0.007343592434878518 0.0012684100098158263 0.011626699869086404
 0.0012569247385091256 0.011628155182198743 -0.0010868561589622637 -0.007343592434878518 0.004784119271916858 0.02371824533295305 0.9941614312059753 -0.056647592902336064
 -0.001087185444049342 -0.007343575805116096 0.0012684100098158263 0.011626699869086404 0.9941614312059753 -0.056647592902336064 0.004782594904133682 0.023718307441766312
0.100041684035 0.005122354978530155 0.025427444846821946 0.9937144292352027 -0.06052591252264817 0.0013995320199516512 0.01240667727355431 -0.00120902833908911 -0.007838649607709839
 0.9937144292352027 -0.06052591252264817 0.005120712569190773 0.02542752972005463 -0.0012086546833517443 -0.007838670872238157 0.0014126098455012083 0.012404983962793627
 0.0013995320199516512 0.01240667727355431 -0.0012086546833517443 -0.007838670872238157 0.005122355358219655 0.025426159746876176 0.9937143736194299 -0.06052726312229186
 -0.00120902833908911 -0.007838649607709839 0.0014126098455012083 0.012404983962793627 0.9937143736194299 -0.06052726312229186 0.005120621379537452 0.025426226862558875
0.1059090909091 0.005453988619736683 0.027043102246072964 0.9932763536733933 -0.06417797983696788 0.0015408224365396307 0.013137120640641075 -0.0013297717972404238 -0.00830329504498274
 0.9932763536733933 -0.06417797983696788 0.0054521475353031396 0.027043194395117112 -0.0013293540586661683 -0.008303321225900781 0.001555490056220928 0.0131351814476149
 0.0015408224365396307 0.013137120640641075 -0.0013293540586661683 -0.008303321225900781 0.00545398950978329 0.027041747676465323 0.9932762912478637 -0.06417941177739295
 -0.0013297717972404238 -0.00830329504498274 0.001555490056220928 0.0131351814476149 0.9932762912478637 -0.06417941177739295 0.005452046510904696 0.02704181954297236
0.1062942892872 0.005476247903866619 0.027149602891548007 0.9932469598624575 -0.06441812604185643 0.0015503525350448806 0.013185068380772361 -0.0013379170532179373 -0.008333799377432213
 0.9932469598624575 -0.06441812604185643 0.005474393375296233 0.027149695526769387 -0.001337496338163089 -0.008333825900991213 0.0015651277596468282 0.013183112254393854
 0.0015503525350448806 0.013185068380772361 -0.001337496338163089 -0.008333825900991213 0.005476248831017396 0.027148243794566734 0.9932468969739418 -0.06441956333548518
 -0.0013379170532179373 -0.008333799377432213 0.0015651277596468282 0.013183112254393854 0.9932468969739418 -0.06441956333548518 0.005474291691964349 0.027148315974567825
0.11254689453939999 0.005846052364148095 0.028885700615936896 0.9927588227553639 -0.06832281679845213 0.001709451913955745 0.013963216279408153 -0.001473919015915656 -0.008828912680506633
 0.9927588227553639 -0.06832281679845213 0.005843972683896357 0.02888580128818526 -0.0014734485730662932 -0.008828945119888321 0.001726029607815881 0.013960971179914123
 0.001709451913955745 0.013963216279408153 -0.0014734485730662932 -0.008828945119888321 0.005846053961134953 0.028884268615560888 0.9927587520709569 -0.06832434123230292
 -0.001473919015915656 -0.008828912680506633 0.001726029607815881 0.013960971179914123 0.9927587520709569 -0.06832434123230292 0.005843860085231687 0.028884345908443645
0.11879949979160001 0.006232021194567583 0.030635508863493102 0.9922497697070556 -0.07223982363249559 0.0018768940764214495 0.014741006222211313 -0.0016170998882329183 -0.009323875122907015
 0.9922497697070556 -0.07223982363249559 0.006229703287414299 0.03063561784644979 -0.00161657706946442 -0.009323914167452818 0.0018953795223667514 0.014738444637311337
 0.0018768940764214495 0.014741006222211313 -0.00161657706946442 -0.009323914167452818 0.006232023600536571 0.030634005111840088 0.9922496906862662 -0.07224143568238157
 -0.0016170998882329183 -0.009323875122907015 0.0018953795223667514 0.014738444637311337 0.9922496906862662 -0.07224143568238157 0.0062295793803447685 0.030634087557628458
0.1250521050438 0.0066344057326561115 0.03239879753292724 0.9917195536085456 -0.07616897724110056 0.002052741161969761 0.01551832100194223 -0.0017675234999464603 -0.009818570320211441
 0.9917195536085456 -0.07616897724110056 0.006631836476687481 0.032398915099491804 -0.001766945677711778 -0.009818616691811442 0.0020732398418854747 0.015515414049482713
 0.002052741161969761 0.01551832100194223 -0.001766945677711778 -0.009818616691811442 0.006634409104817199 0.03239722324278413 0.991719465692377 -0.0761706774100151
 -0.0017675234999464603 -0.009818570320211441 0.0020732398418854747 0.015515414049482713 0.991719465692377 -0.0761706774100151 0.006631700897734523 0.03239731087362173
0.131304710296 0.007053455735094026 0.034175335018850866 0.9911679285681584 -0.08011010071256487 0.0022370534603395956 0.016295041008820517 -0.0019252517856529529 -0.010312879876769012
 0.9911679285681584 -0.08011010071256487 0.00705062195852642 0.034175461441852364 -0.0019246163533009372 -0.010312934329851333 0.0022596710411784218 0.01629175842184551
 0.0022370534603395956 0.016295041008820517 -0.0019246163533009372 -0.010312934329851333 0.0070534602504417265 0.03417369146111465 0.9911678311780092 -0.08011188953295242
 -0.0019252517856529529 -0.010312879876769012 0.0022596710411784218 0.01629175842184551 0.9911678311780092 -0.08011188953295242 0.007050474374464905 0.03417378430185521
0.1375573155481 0.007390280052773272 0.035732340051790865 0.9906938225570469 -0.08383037049813394 0.0024056196126377044 0.017047212695221144 -0.002066048941636394 -0.010782882139266963
 0.9906938225570469 -0.08383037049813394 0.007387168051037446 0.03573247320606564 -0.0020653522780236244 -0.010782944702942854 0.0024304053594821767 0.017043560704302373
 0.0024056196126377044 0.017047212695221144 -0.0020653522780236244 -0.010782944702942854 0.007390286685273788 0.035730627871165266 0.9906937152523004 -0.08383224831121924
 -0.002066048941636394 -0.010782882139266963 0.0024304053594821767 0.017043560704302373 0.9906937152523004 -0.08383224831121924 0.007387007094117176 0.035730724523752165
0.1438099208003 0.007738847474231001 0.03728164465107327 0.9902032440131812 -0.08754172965316623 0.0025809948812508267 0.017796695884733964 -0.0022124933718333977 -0.011250414363933762
 0.9902032440131812 -0.08754172965316623 0.007735443940022504 0.03728178471287933 -0.0022117327172485103 -0.011250485770751358 0.0026080445225647275 0.017792646993241384
 0.0025809948812508267 0.017796695884733964 -0.0022117327172485103 -0.011250485770751358 0.007738856573981157 0.03727986512522932 0.9902031262145041 -0.08754369698772771
 -0.0022124933718333977 -0.011250414363933762 0.0026080445225647275 0.017792646993241384 0.9902031262145041 -0.08754369698772771 0.007735269133917981 0.03727996561771535
0.1500625260525 0.00809904231243058 0.03882313460368266 0.9896963123360595 -0.09124410165862336 0.0027631229120245304 0.018543425495696625 -0.0023645300545510443 -0.011715414172908513
 0.9896963123360595 -0.09124410165862336 0.00809533389085042 0.03882328177259408 -0.002363702656992549 -0.01171549518447851 0.0027925316983841374 0.018538951201082576
 0.0027631229120245304 0.018543425495696625 -0.002363702656992549 -0.01171549518447851 0.008099054258436001 0.03882128906106158 0.9896961834475635 -0.0912461590625695
 -0.0023645300545510443 -0.011715414172908513 0.0027925316983841374 0.018538951201082576 0.9896961834475635 -0.0912461590625695 0.008095144776828024 0.03882139344228767
0.15631513130469998 0.008470748140479982 0.04035669922392177 0.9891731474456097 -0.09493740995608434 0.002951946729529321 0.019287337466517184 -0.0025221033321945556 -0.012177820450610404
