! Created with skrf 1.8.0 (http://scikit-rf.org).
# GHz S RI R 50.0 
!freq ReS11 ImS11 ReS12 ImS12 ReS13 ImS13
! ReS14 ImS14
! ReS21 ImS21 ReS22 ImS22 ReS23 ImS23
! ReS24 ImS24
! ReS31 ImS31 ReS32 ImS32 ReS33 ImS33
! ReS34 ImS34
! ReS41 ImS41 ReS42 ImS42 ReS43 ImS43
! ReS44 ImS44
!
0.0 0.001327865479081 0.0 0.998672134517 0.0 5.10148752835e-05 0.0 -5.101487500046e-05 6.247520337821567e-21
 0.998672134517 0.0 0.001327865479107 0.0 -5.101487500114e-05 6.247520337904843e-21 5.101487528437e-05 0.0
 5.10148752835e-05 0.0 -5.101487500114e-05 6.247520337904843e-21 0.001327865481047 0.0 0.9986721345189 0.0
 -5.101487500046e-05 6.247520337821567e-21 5.101487528437e-05 0.0 0.9986721345189 0.0 0.001327865481041 0.0
0.005 0.0014281612768510825 0.0010837110695009933 0.9985453234874103 -0.0027823927723202692 7.160770712400352e-05 0.0005799713997122483 -6.948426350456158e-05 -0.00036101749387212624
 0.9985453234874103 -0.0027823927723202692 0.0014281681842535589 0.0010837069765374707 -6.948512111945374e-05 -0.000361018082073384 7.15653575032056e-05 0.0005799875093557465
 7.160770712400352e-05 0.0005799713997122483 -6.948512111945374e-05 -0.000361018082073384 0.0014281615241280438 0.001083778132571777 0.9985453238240825 -0.002782325707034459
 -6.948426350456158e-05 -0.00036101749387212624 7.15653575032056e-05 0.0005799875093557465 0.9985453238240825 -0.002782325707034459 0.001428168601952205 0.0010837740354095596
0.006252605252188 0.0014543060671966634 0.0013589382298208022 0.9985120821207825 -0.003478697684728392 7.740259120721834e-05 0.0007252470872970705 -7.462613780927311e-05 -0.000451752218817781
 0.9985120821207825 -0.003478697684728392 0.0014543168651770862 0.0013589330237491865 -7.462747290488324e-05 -0.00045175294281683186 7.733642309796185e-05 0.0007252679924917198
 7.740259120721834e-05 0.0007252470872970705 -7.462747290488324e-05 -0.00045175294281683186 0.0014543063886021093 0.0013590220378257986 0.9985120825817019 -0.0034786138638661485
 -7.462613780927311e-05 -0.000451752218817781 7.733642309796185e-05 0.0007252679924917198 0.9985120825817019 -0.0034786138638661485 0.0014543174522693562 0.0013590168385105652
0.01250521050438 0.0015910079423429803 0.0027466906985394047 0.9983372376095049 -0.006958365474174379 0.00011016785574872015 0.001450856630477833 -0.00010341015370799589 -0.0009058148896434106
 0.9983372376095049 -0.006958365474174379 0.0015910510674408604 0.0027466793828420768 -0.00010341542243434366 -0.0009058162149108034 0.00010990397611701802 0.0014509066517726912
 0.00011016785574872015 0.001450856630477833 -0.00010341542243434366 -0.0009058162149108034 0.00159100865846744 0.002746857957326194 0.9983372388789545 -0.006958198061164751
 -0.00010341015370799589 -0.0009058148896434106 0.00010990397611701802 0.0014509066517726912 0.9983372388789545 -0.006958198061164751 0.0015910528298924745 0.0027468467762314054
0.01875781575657 0.0017382367919271178 0.004154541141990738 0.9981474071820259 -0.010447509263193815 0.00014938078820435826 0.0021773553722417445 -0.0001374487561220155 -0.001361530707707257
 0.9981474071820259 -0.010447509263193815 0.0017383337125197065 0.004154522756511093 -0.00013746051596682883 -0.0013615324886680053 0.00014878797195165357 0.0021774441526238573
 0.00014938078820435826 0.0021773553722417445 -0.00013746051596682883 -0.0013615324886680053 0.0017382379919271042 0.00415479160252709 0.9981474096195052 -0.010447258308150426
 -0.0001374487561220155 -0.001361530707707257 0.00014878797195165357 0.0021774441526238573 0.9981474096195052 -0.010447258308150426 0.0017383372344256945 0.0041547736053476
0.02501042100875 0.0018962521938280259 0.005580547182029041 0.9979423903651862 -0.013947854154237705 0.00019511270359487057 0.0029047998627809934 -0.00017682157681717716 -0.001818708739477258
 0.9979423903651862 -0.013947854154237705 0.0018964243438771883 0.005580520717051083 -0.0001768423584102391 -0.0018187108052800172 0.00019405964681908506 0.0029049384183165504
 0.00019511270359487057 0.0029047998627809934 -0.0001768423584102391 -0.0018187108052800172 0.0018962539644439068 0.005580880567339413 0.9979423943266992 -0.013947519664130813
 -0.00017682157681717716 -0.001818708739477258 0.00019405964681908506 0.0029049384183165504 0.9979423943266992 -0.013947519664130813 0.0018964301892702236 0.005580854875909686
0.03126302626094 0.002065302797462072 0.0070237261238792325 0.9977219753368352 -0.01746015863072847 0.0002474356534405916 0.0036331782769803912 -0.00022160628213684924 -0.0022772225726048496
 0.9977219753368352 -0.01746015863072847 0.0020655715869680167 0.007023690521531682 -0.00022163859396288606 -0.0022772247267616274 0.0002457908488720548 0.003633379003782382
 0.0002474356534405916 0.0036331782769803912 -0.00022163859396288606 -0.0022772247267616274 0.002065305228992915 0.00702414212692234 0.997721981182676 -0.017459740571108672
 -0.00022160628213684924 -0.0022772225726048496 0.0002457908488720548 0.003633379003782382 0.997721981182676 -0.017459740571108672 0.002065580306973419 0.007024107820893657
0.037515631513130004 0.002245632040960426 0.00848345003801545 0.997485944770173 -0.020984819423151852 0.00030642170499816924 0.004362452157817877 -0.0002718791709575246 -0.002736968561098486
 0.997485944770173 -0.020984819423151852 0.00224601886283349 0.008483404192909178 -0.0002719255017397584 -0.0027369705813220227 0.0003040533847112298 0.004362728845660816
 0.00030642170499816924 0.004362452157817877 -0.0002719255017397584 -0.0027369705813220227 0.002245635224864197 0.008483948316737598 0.9974859528642318 -0.02098431772264672
 -0.0002718791709575246 -0.002736968561098486 0.0003040533847112298 0.004362728845660816 0.9974859528642318 -0.02098431772264672 0.00224603099397322 0.008483904434431876
0.043768236765320004 0.0024374803654347845 0.009959261670582264 0.9972340781764993 -0.024522055539743234 0.00037214261173086535 0.0050925691081385215 -0.00032771539908847507 -0.003197853122901928
 0.9972340781764993 -0.024522055539743234 0.0024380066004444467 0.009959204430242698 -0.0003277782191971357 -0.003197854760997387 0.0003689187183823763 0.005092936956138978
 0.00037214261173086535 0.0050925691081385215 -0.0003277782191971357 -0.003197854760997387 0.00243748439307239 0.009959841831862345 0.9972340888867761 -0.02452147010575996
 -0.00032771539908847507 -0.003197853122901928 0.0003689187183823763 0.005092936956138978 0.9972340888867761 -0.02452147010575996 0.002438022663856241 0.009959787370887064
0.050020842017509996 0.0026410862531575986 0.011450798340826332 0.9969661530739045 -0.02807198430818549 0.0004446696212415808 0.005823468033278485 -0.00038918907124826143 -0.0036597874876555213
 0.9969661530739045 -0.02807198430818549 0.0026417732742965343 0.011450728505936428 -0.00038927083353125155 -0.0036597884694436794 0.0004404577947400791 0.005823943666419393
 0.0004446696212415808 0.005823468033278485 -0.00038927083353125155 -0.0036597884694436794 0.0026410912156412136 0.011451459947005848 0.9969661667742638 -0.028071315019972957
 -0.00038918907124826143 -0.0036597874876555213 0.0004404577947400791 0.005823943666419393 0.9969661667742638 -0.028071315019972957 0.0026417937764665125 0.01145139386467544
0.055454545454549996 0.0028277586639526937 0.012759521323023167 0.9967201027777073 -0.031167330252556535 0.0005132800365759224 0.006459224318013676 -0.00044724663569126893 -0.004062007784855637
 0.9967201027777073 -0.031167330252556535 0.0028286027674599232 0.012759439532824208 -0.00044734683814316343 -0.004062007953394379 0.0005081019351192307 0.006459808241319864
 0.0005132800365759224 0.006459224318013676 -0.00044734683814316343 -0.004062007953394379 0.002827764511329982 0.012760253316136415 0.9967201193845917 -0.031166587973469558
 -0.00044724663569126893 -0.004062007784855637 0.0005081019351192307 0.006459808241319864 0.9967201193845917 -0.031166587973469558 0.0028286275258587817 0.012760176256612236
0.056273447269699996 0.002856686767296949 0.012957754620777957 0.9966819456608504 -0.03163465863494896 0.0005240733460072558 0.006555081704792512 -0.0004563732719706556 -0.00412268512483278
 0.9966819456608504 -0.03163465863494896 0.002857555943753376 0.012957670945322332 -0.0004564764123467448 -0.004122685150082711 0.0005187409191353053 0.006555683190800615
 0.0005240733460072558 0.006555081704792512 -0.0004564764123467448 -0.004122685150082711 0.002856692753868911 0.012958497187573347 0.9966819627310133 -0.0316339053454136
 -0.0004563732719706556 -0.00412268512483278 0.0005187409191353053 0.006555683190800615 0.9966819627310133 -0.0316339053454136 0.002857581375064174 0.012958418401173554
0.06252605252188 0.0030845178532824583 0.014479861794677655 0.9963812312525608 -0.0352100874859045 0.0006104236622418608 0.0072873381745817015 -0.0005293400684920828 -0.004586460323223604
 0.9963812312525608 -0.0352100874859045 0.003085590553580848 0.014479762986000929 -0.0005294670062758524 -0.004586459065597527 0.0006038376623052188 0.007288085040999392
 0.0006104236622418608 0.0072873381745817015 -0.0005294670062758524 -0.004586459065597527 0.0030845249500276017 0.014480684790539388 0.9963812520787164 -0.03520925002186069
 -0.0005293400684920828 -0.004586460323223604 0.0006038376623052188 0.007288085040999392 0.9963812520787164 -0.03520925002186069 0.003085621387840566 0.014480592177520932
0.06877865777407 0.0033248145070814117 0.01601687561657403 0.9960637845883513 -0.03879824807009307 0.0007037896273859761 0.008020161610788314 -0.0006081604944339799 -0.005051027350665369
 0.9960637845883513 -0.03879824807009307 0.0033261121030078757 0.016016760335322303 -0.0006083136325884691 -0.005051024457658528 0.0006958167822363642 0.008021074862055227
 0.0007037896273859761 0.008020161610788314 -0.0006083136325884691 -0.005051024457658528 0.0033248227965841973 0.016017778460855992 0.9960638095646098 -0.03879732623387839
 -0.0006081604944339799 -0.005051027350665369 0.0006958167822363642 0.008021074862055227 0.9960638095646098 -0.03879732623387839 0.0033261487973312333 0.016017670858897957
0.07503126302626001 0.0035778108667233123 0.017568568553720392 0.9957293800635645 -0.04239909353968688 0.0008042394060224395 0.008753472829418836 -0.000692904524503039 -0.005516299920154126
 0.9957293800635645 -0.04239909353968688 0.003579354736327594 0.017568435413658632 -0.0006930862497547944 -0.0055162950130499214 0.0007947461530335174 0.008754574963937082
 0.0008042394060224395 0.008753472829418836 -0.0006930862497547944 -0.0055162950130499214 0.003577820426158978 0.01756955061718913 0.9957294095917825 -0.042398087108381645
 -0.000692904524503039 -0.005516299920154126 0.0007947461530335174 0.008754574963937082 0.9957294095917825 -0.042398087108381645 0.0035793977297157702 0.01756942682413201
0.08128386827845 0.0038437402558765 0.01913472461720003 0.9953777919164376 -0.04601255810475549 0.0009118402026775296 0.009487189649173383 -0.0007836410412457039 -0.005982190835029675
 0.9953777919164376 -0.04601255810475549 0.0038455517865777144 0.019134572185017573 -0.0007838537241139537 -0.005982183508856926 0.0009006927002579239 0.00948850467628948
 0.0009118402026775296 0.009487189649173383 -0.0007838537241139537 -0.005982183508856926 0.003843751156563902 0.019135785218382013 0.9953778264078679 -0.04601146683359071
 -0.0007836410412457039 -0.005982190835029675 0.0009006927002579239 0.00948850467628948 0.9953778264078679 -0.04601146683359071 0.00384560150013205 0.019135643992134972
0.08753647353064001 0.004122835194230432 0.020715135787628385 0.9950087943846074 -0.04963856055535541 0.001026658198173464 0.010221227136348095 -0.0008804377972958562 -0.006448611746483889
 0.9950087943846074 -0.04963856055535541 0.004124935786295693 0.020714962582543104 -0.0008806837921111611 -0.006448601569974579 0.0010137223392493206 0.010222780593181453
 0.001026658198173464 0.010221227136348095 -0.0008806837921111611 -0.006448601569974579 0.004122847500110205 0.020716274197575796 0.9950088342597997 -0.04963738417284425
 -0.0008804377972958562 -0.006448611746483889 0.0010137223392493206 0.010222780593181453 0.9950088342597997 -0.04963738417284425 0.004124992621923354 0.02071611425583171
0.09378907878283 0.004415327387330994 0.022309599462348607 0.9946221618425004 -0.05327700676453405 0.001148758488488622 0.010955497780561175 -0.0009833613742101146 -0.006915472982649098
 0.9946221618425004 -0.05327700676453405 0.004417738456756323 0.022309403955717046 -0.0009836430190336492 -0.006915459498206007 0.0011338999155708124 0.010957316748706253
 0.001148758488488622 0.010955497780561175 -0.0009836430190336492 -0.006915459498206007 0.004415341153835954 0.02231081490119461 0.9946222075328595 -0.05327574497574975
 -0.0009833613742101146 -0.006915472982649098 0.0011338999155708124 0.010957316748706253 0.9946222075328595 -0.05327574497574975 0.004417802796753126 0.022310634921066306
0.100041684035 0.004721447699233535 0.023917916581726355 0.9942176689252016 -0.05692779151503473 0.001278205025479016 0.011689911626031653 -0.0010924771383983025 -0.007382683424808691
 0.9942176689252016 -0.05692779151503473 0.0047241906812247195 0.02391769719643904 -0.0010927967549791786 -0.007382666148469279 0.0012612891470770993 0.011692024748025729
 0.001278205025479016 0.011689911626031653 -0.0010927967549791786 -0.007382666148469279 0.004721462972597912 0.023919208220023577 0.9942177208734582 -0.056926444000187565
 -0.0010924771383983025 -0.007382683424808691 0.0012612891470770993 0.011692024748025729 0.9942177208734582 -0.056926444000187565 0.00472426288761543 0.02391900683763616
0.1059090909091 0.005021308648320281 0.025439575724812303 0.9938216509863481 -0.06036478529344816 0.0014064141134260313 0.012379129176884914 -0.0012005595574846044 -0.007821345953055588
 0.9938216509863481 -0.06036478529344816 0.005024382609806549 0.025439332453857738 -0.001200916903448507 -0.0078213246547664 0.0013874450697074882 0.01238154578598026
 0.0014064141134260313 0.012379129176884914 -0.001200916903448507 -0.0078213246547664 0.0050213253679579056 0.02544093806979071 0.9938217092202349 -0.06036335702059619
 -0.0012005595574846044 -0.007821345953055588 0.0013874450697074882 0.01238154578598026 0.9938217092202349 -0.06036335702059619 0.00502446250841589 0.02544071532614244
0.1062942892872 0.005041426114540604 0.02553989021710956 0.9937950906431181 -0.06059079986705402 0.0014150605583345916 0.012424376372728023 -0.001207849195381282 -0.007850150416181359
 0.9937950906431181 -0.06059079986705402 0.005044522466407013 0.025539645326965527 -0.0012082090889736345 -0.007850128837605197 0.0013959525666843915 0.012426813868392258
 0.0014150605583345916 0.012424376372728023 -0.0012082090889736345 -0.007850128837605197 0.005041442929891669 0.025541257175125374 0.9937951493038041 -0.060589366282112894
 -0.001207849195381282 -0.007850150416181359 0.0013959525666843915 0.012426813868392258 0.9937951493038041 -0.060589366282112894 0.005044602880038576 0.025541032984959525
0.11254689453939999 0.00537549169096463 0.027175324491079282 0.9933542024894443 -0.06426590819647854 0.0015593865761138566 0.013158797454118099 -0.0013295403420450378 -0.008317779697029681
 0.9933542024894443 -0.06426590819647854 0.005378962895526147 0.027175052420024333 -0.0013299428013259225 -0.008317753279463814 0.0015379514659259845 0.013161591136598939
 0.0015593865761138566 0.013158797454118099 -0.0013299428013259225 -0.008317753279463814 0.005375510071815996 0.027176765839040294 0.9933542683303166 -0.06426438817297349
 -0.0013295403420450378 -0.008317779697029681 0.0015379514659259845 0.013161591136598939 0.9933542683303166 -0.06426438817297349 0.005379051835522775 0.027176517393299474
0.11879949979160001 0.005723872505554843 0.028824023736908476 0.9928947805439255 -0.06795298499724217 0.0017112432506141034 0.013893078103082069 -0.001457612017820354 -0.00878547535421628
 0.9928947805439255 -0.06795298499724217 0.005727740074037901 0.028823722758173756 -0.0014580593146637773 -0.00878544353449688 0.0016873458387243634 0.013896261394651064
 0.0017112432506141034 0.013893078103082069 -0.0014580593146637773 -0.00878544353449688 0.005723892462162825 0.02882553849398664 0.9928948540465113 -0.06795137814330313
 -0.001457612017820354 -0.00878547535421628 0.0016873458387243634 0.013896261394651064 0.9928948540465113 -0.06795137814330313 0.005727837837112018 0.02882526430173478
0.1250521050438 0.006086795594358469 0.03048579182691013 0.9924166015723492 -0.07165189151767022 0.0018706893795232703 0.014627119404448826 -0.0015921242545967815 -0.009253139787062005
 0.9924166015723492 -0.07165189151767022 0.006091081069956039 0.030485460161955146 -0.0015926186439595253 -0.009253101975588273 0.0018441943254883246 0.014630727352084445
 0.0018706893795232703 0.014627119404448826 -0.0015926186439595253 -0.009253101975588273 0.006086817122713195 0.03048737896275029 0.9924166832325585 -0.07165019741655525
 -0.0015921242545967815 -0.009253139787062005 0.0018441943254883246 0.014630727352084445 0.9924166832325585 -0.07165019741655525 0.006091187929251009 0.03048707748901672
0.131304710296 0.0064644868886259265 0.03216043164271201 0.9919194431239172 -0.07536248225825444 0.0020377823297297844 0.015360820341651635 -0.0017331356258895479 -0.009720673681971987
 0.9919194431239172 -0.07536248225825444 0.00646921184950057 0.03216006746019588 -0.0017336793455356113 -0.00972062926272434 0.002008554157295192 0.015364889632288483
 0.0020377823297297844 0.015360820341651635 -0.0017336793455356113 -0.00972062926272434 0.006464509969197299 0.032162090075895766 0.9919195334531492 -0.07536070047004245
 -0.0017331356258895479 -0.009720673681971987 0.002008554157295192 0.015364889632288483 0.9919195334531492 -0.07536070047004245 0.006469328054356508 0.032161759740541335
0.1375573155481 0.006765530084795194 0.033628208788876054 0.9914947518453724 -0.07886499824362295 0.002190176461517855 0.016071354500626446 -0.0018583374050817653 -0.010165238912904063
 0.9914947518453724 -0.07886499824362295 0.006770716690929621 0.03362781855994332 -0.0018589335391504982 -0.010165187890534296 0.0021581478723602067 0.01607587589182774
 0.002190176461517855 0.016071354500626446 -0.0018589335391504982 -0.010165187890534296 0.006765553938539372 0.033629937998646775 0.991494851241688 -0.0788631284882446
 -0.0018583374050817653 -0.010165238912904063 0.0021581478723602067 0.01607587589182774 0.991494851241688 -0.0788631284882446 0.006770843445624384 0.033629584635626035
0.1438099208003 0.007076981098431341 0.03508905924373902 0.9910554535651397 -0.08235946814282291 0.002348737512905877 0.01677954425304322 -0.0019885674391021155 -0.01060767340551995
 0.9910554535651397 -0.08235946814282291 0.007082651038138868 0.03508864169412682 -0.0019892183533490675 -0.010607615185163444 0.0023137851799943723 0.016784550946732753
 0.002348737512905877 0.01677954425304322 -0.0019892183533490675 -0.010607615185163444 0.007077005545088633 0.03509085814659934 0.9910555625396691 -0.0823575099831678
 -0.0019885674391021155 -0.01060767340551995 0.0023137851799943723 0.016784550946732753 0.9910555625396691 -0.0823575099831678 0.007082788730325147 0.03509048064273971
0.1500625260525 0.007398740864872955 0.036542885369838365 0.9906016506526485 -0.08584583025082484 0.0025134177574988063 0.017485334507455583 -0.002123779603936209 -0.011047924777119647
 0.9906016506526485 -0.08584583025082484 0.007404915858038384 0.0365424391543088 -0.0021244876579888357 -0.011047858740429784 0.0024754190190767415 0.0174908609005617
 0.0025134177574988063 0.017485334507455583 -0.0021244876579888357 -0.011047858740429784 0.007398765699741348 0.036544752840477035 0.9906017697295024 -0.08584378323230869
 -0.002123779603936209 -0.011047924777119647 0.0024754190190767415 0.0174908609005617 0.9906017697295024 -0.08584378323230869 0.0074050648633910586 0.03654435001477233
0.15631513130469998 0.007730709740064267 0.037989592612117005 0.9901334458617265 -0.0893240226002351 0.0026841689803086006 0.018188670977069686 -0.0022639272763905526 -0.01148594167101066
