! Created with skrf 1.8.0 (http://scikit-rf.org).
# GHz S RI R 50.0 
!freq ReS11 ImS11 ReS12 ImS12 ReS13 ImS13
! ReS14 ImS14
! ReS21 ImS21 ReS22 ImS22 ReS23 ImS23
! ReS24 ImS24
! ReS31 ImS31 ReS32 ImS32 ReS33 ImS33
! ReS34 ImS34
! ReS41 ImS41 ReS42 ImS42 ReS43 ImS43
! ReS44 ImS44
!
0.0 0.002103469169916 0.0 0.9978965308113 0.0 8.218587354741e-05 0.0 -8.218587360212e-05 1.0064866704196522e-20
 0.9978965308113 0.0 0.00210346916986 0.0 -8.218587360118e-05 1.0064866704081405e-20 8.218587354481e-05 0.0
 8.218587354741e-05 0.0 -8.218587360118e-05 1.0064866704081405e-20 0.002103469176556 0.0 0.997896530818 0.0
 -8.218587360212e-05 1.0064866704196522e-20 8.218587354481e-05 0.0 0.997896530818 0.0 0.00210346917655 0.0
0.005 0.002265347469341461 0.0017163338902848443 0.9976913236681095 -0.004404171353234695 0.00011687883178051351 0.0009195391198188224 -0.00011317430071758046 -0.0005743251515786456
 0.9976913236681095 -0.004404171353234695 0.0022653751099249836 0.0017163176691495355 -0.0001131713725000964 -0.0005743228642271633 0.00011672711177432997 0.0009195972253760427
 0.00011687883178051351 0.0009195391198188224 -0.0001131713725000964 -0.0005743228642271633 0.002265349582055235 0.001716399899571974 0.9976913240704847 -0.004404104282060261
 -0.00011317430071758046 -0.0005743251515786456 0.00011672711177432997 0.0009195972253760427 0.9976913240704847 -0.004404104282060261 0.002265373791853562 0.0017163857937786441
0.006252605252188 0.002308457968303446 0.002152087904532419 0.9976362225662961 -0.005506184728615748 0.00012717566775115235 0.0011498175960968653 -0.0001222343000787455 -0.0007186109474448754
 0.9976362225662961 -0.005506184728615748 0.002308501175786497 0.0021520672721253983 -0.00012222974393940586 -0.0007186081284366166 0.0001269386282901726 0.0011498931356633928
 0.00012717566775115235 0.0011498175960968653 -0.00012222974393940586 -0.0007186081284366166 0.0023084612049135683 0.0021521703863790977 0.9976362231290208 -0.005506100907772675
 -0.0001222343000787455 -0.0007186109474448754 0.0001269386282901726 0.0011498931356633928 0.9976362231290208 -0.005506100907772675 0.002308499048496605 0.0021521524129855247
0.01250521050438 0.0025392102838925853 0.004348345352657573 0.9973388516224209 -0.011012333096627662 0.00018825735800307908 0.0022995870932508693 -0.00017530572125919812 -0.0014402623439029663
 0.9973388516224209 -0.011012333096627662 0.0025393828189908736 0.00434830044003913 -0.00017528777183823408 -0.0014402571573786896 0.00018731230546100035 0.0022997702673444647
 0.00018825735800307908 0.0022995870932508693 -0.00017528777183823408 -0.0014402571573786896 0.002539222649762001 0.004348509918975786 0.9973388533081013 -0.011012165685667137
 -0.00017530572125919812 -0.0014402623439029663 0.00018731230546100035 0.0022997702673444647 0.9973388533081013 -0.011012165685667137 0.0025393737512603588 0.0043484705169959045
0.01875781575657 0.002796361907567257 0.006574749211487108 0.9970039564128004 -0.016531672434847357 0.0002655889169016905 0.0034499711669937934 -0.0002415892964909125 -0.002163782443170522
 0.9970039564128004 -0.016531672434847357 0.0027967496219850874 0.006574675975855453 -0.0002415492790190286 -0.0021637754532175145 0.0002634664722254856 0.0034503020083966026
 0.0002655889169016905 0.0034499711669937934 -0.0002415492790190286 -0.0021637754532175145 0.002796389274045791 0.006574995499430281 0.9970039597777546 -0.016531421496600557
 -0.0002415892964909125 -0.002163782443170522 0.0002634664722254856 0.0034503020083966026 0.9970039597777546 -0.016531421496600557 0.0027967287974552573 0.006574930944072557
0.02501042100875 0.003080520535464678 0.008827990367383165 0.9966310542818851 -0.022066689850210607 0.00035932951249401015 0.004600894103747043 -0.000321264255963742 -0.002888723636606389
 0.9966310542818851 -0.022066689850210607 0.0030812091289733217 0.008827884397280106 -0.0003211936050929792 -0.0028887155283398944 0.00035556052972229277 0.0046014203796675935
 0.00035932951249401015 0.004600894103747043 -0.0003211936050929792 -0.0028887155283398944 0.003080568768983599 0.008828317941777644 0.9966310598904063 -0.02206635538821289
 -0.000321264255963742 -0.002888723636606389 0.00035556052972229277 0.0046014203796675935 0.9966310598904063 -0.02206635538821289 0.003081171731725336 0.008828224261075171
0.03126302626094 0.003392267370042807 0.011106270952386149 0.9962196438456306 -0.027618335090467228 0.00046963650742270536 0.0057521693812771285 -0.0004145018579242643 -0.0036147349341322473
 0.9962196438456306 -0.027618335090467228 0.00339334244367107 0.011106127470243548 -0.00041439210032965086 -0.003614726514516447 0.00046375169774713154 0.005752946636576423
 0.00046963650742270536 0.0057521693812771285 -0.00041439210032965086 -0.003614726514516447 0.0033923423236503947 0.011106679274913912 0.9962196522626107 -0.027617917079140426
 -0.0004145018579242643 -0.0036147349341322473 0.00046375169774713154 0.005752946636576423 0.9962196522626107 -0.027617917079140426 0.0033932836464499808 0.011106552253033737
0.037515631513130004 0.0037321682096749043 0.013408346902744572 0.9957692168212973 -0.0331869779997559 0.0005966636137358735 0.006903564925939374 -0.0005214665821368165 -0.004341496849738449
 0.9957692168212973 -0.0331869779997559 0.003733715303654625 0.013408160764101779 -0.0005213093279163248 -0.004341489047677442 0.0005881934138239434 0.006904656551955827
 0.0005966636137358735 0.006903564925939374 -0.0005213093279163248 -0.004341489047677442 0.0037322757274938067 0.013408835343011545 0.9957692286179688 -0.03318647637235172
 -0.0005214665821368165 -0.004341496849738449 0.0005881934138239434 0.006904656551955827 0.9957692286179688 -0.03318647637235172 0.00373363027106935 0.013408670520995135
0.043768236765320004 0.0041007776629174535 0.01573323664086578 0.9952792629862112 -0.038772699837918416 0.0007405599640247742 0.008054823023784193 -0.0006423164781620592 -0.0050687016469319664
 0.9952792629862112 -0.038772699837918416 0.0041028822875374404 0.015733002331925518 -0.0006421034158145986 -0.005068695513202334 0.0007290345099613762 0.00805630033448103
 0.0007405599640247742 0.008054823023784193 -0.0006421034158145986 -0.005068695513202334 0.0041009235769799484 0.015733804456605133 0.9952792787402618 -0.038772114505444065
 -0.0006423164781620592 -0.0050687016469319664 0.0007290345099613762 0.00805630033448103 0.9952792787402618 -0.038772114505444065 0.004102766174038916 0.01573359713131021
0.050020842017509996 0.0044986410215795995 0.01808010070838415 0.9947492728031856 -0.04437541365529199 0.000901469506940577 0.009205668580574325 -0.0007772032130037585 -0.005796045250943467
 0.9947492728031856 -0.04437541365529199 0.004501388686145018 0.018079812342018546 -0.0007769261066462983 -0.005796041958029156 0.0008864186645723842 0.009207610890917312
 0.000901469506940577 0.009205668580574325 -0.0007769261066462983 -0.005796041958029156 0.004498831150772619 0.01808074705148988 0.994749293099677 -0.04437474449938012
 -0.0007772032130037585 -0.005796045250943467 0.0008864186645723842 0.009207610890917312 0.994749293099677 -0.04437474449938012 0.004501236634273779 0.0180804922735249
0.055454545454549996 0.004868571241732797 0.020136853659606217 0.9942557868588799 -0.049257991082915654 0.0010552291292293336 0.010205229539687458 -0.0009059364386351908 -0.006428005292746185
 0.9942557868588799 -0.049257991082915654 0.004871947190337629 0.020136513240830486 -0.0009055970447916726 -0.0064280055151839655 0.001036732650150573 0.010207646635284713
 0.0010552291292293336 0.010205229539687458 -0.0009055970447916726 -0.0064280055151839655 0.004868804509719821 0.02013756747057316 0.9942558115855288 -0.04925724896616795
 -0.0009059364386351908 -0.006428005292746185 0.001036732650150573 0.010207646635284713 0.9942558115855288 -0.04925724896616795 0.004871759953756576 0.020137267241374893
0.056273447269699996 0.004926295143132131 0.02044818272183971 0.9941787390623645 -0.04999492335887165 0.0010795305437539275 0.010355813238673255 -0.0009262719878405307 -0.006523223321713772
 0.9941787390623645 -0.04999492335887165 0.004929771381874625 0.020447834032450457 -0.0009259226752332154 -0.006523224163634335 0.0010604839741887567 0.01035830794305401
 0.0010795305437539275 0.010355813238673255 -0.0009259226752332154 -0.006523224163634335 0.004926535291791129 0.020448906633272965 0.9941787644959653 -0.04999417023606288
 -0.0009262719878405307 -0.006523223321713772 0.0010604839741887567 0.01035830794305401 0.9941787644959653 -0.04999417023606288 0.004929578523453632 0.020448599203435062
0.06252605252188 0.005384268840339136 0.022836776951343785 0.9935671580374241 -0.055630956174216255 0.0012748753373163597 0.011504957678303878 -0.0010896613876331613 -0.007249929161485327
 0.9935671580374241 -0.055630956174216255 0.0053885592383374195 0.022836361288459773 -0.0010892317792726882 -0.0072499355536036975 0.0012513625854541945 0.011508100327959995
 0.0012748753373163597 0.011504957678303878 -0.0010892317792726882 -0.0072499355536036975 0.005384564795994163 0.022837577356685557 0.9935671892130593 -0.05563011891949597
 -0.0010896613876331613 -0.007249929161485327 0.0012513625854541945 0.011508100327959995 0.9935671892130593 -0.05563011891949597 0.005388320692434755 0.022837211821319373
0.06877865777407 0.005873082998195068 0.025245209025462297 0.9929140303756652 -0.06128318200165717 0.0014876297629819793 0.01265279304742872 -0.001267503192042555 -0.007975852513588915
 0.9929140303756652 -0.06128318200165717 0.0058782732160001004 0.025244719346100508 -0.0012669852705991492 -0.007975865992396578 0.0014591803633558133 0.012656687426297018
 0.0014876297629819793 0.01265279304742872 -0.0012669852705991492 -0.007975865992396578 0.005873440529139323 0.025246084740314593 0.9929140679095587 -0.0612822604223408
 -0.001267503192042555 -0.007975852513588915 0.0014591803633558133 0.012656687426297018 0.9929140679095587 -0.0612822604223408 0.005877984088319469 0.025245655385428948
0.07503126302626001 0.006393250530789591 0.027672823730478014 0.9922188618337899 -0.06695122570094686 0.0017179129845528564 0.013799001915377052 -0.0014599221644614956 -0.008700678858106704
 0.9922188618337899 -0.06695122570094686 0.006399426328713934 0.02767225259032401 -0.001459307984547884 -0.00870070108100294 0.0016840565799130188 0.013803760113769112
 0.0017179129845528564 0.013799001915377052 -0.001459307984547884 -0.00870070108100294 0.006393675384016363 0.027673773453257305 0.9922189063549368 -0.0669502195831609
 -0.0014599221644614956 -0.008700678858106704 0.0016840565799130188 0.013803760113769112 0.9922189063549368 -0.0669502195831609 0.006399081711721873 0.027673274297380646
0.08128386827845 0.006945276235936143 0.03011897694008727 0.991481163916612 -0.0726346752688694 0.0019658371467871413 0.014943258959150246 -0.0016670358270499135 -0.009424088995916279
 0.991481163916612 -0.0726346752688694 0.006952523498495656 0.03011831648336118 -0.001666317515426961 -0.00942412174097254 0.0019261036174310722 0.014949001444983435
 0.0019658371467871413 0.014943258959150246 -0.001666317515426961 -0.00942412174097254 0.00694577413517952 0.030119999257436914 0.9914812160678769 -0.0726335843716047
 -0.0016670358270499135 -0.009424088995916279 0.0019261036174310722 0.014949001444983435 0.9914812160678769 -0.0726335843716047 0.006952118470601176 0.03011942404314406
0.08753647353064001 0.007529656583906826 0.03258303006942413 0.9907004544531572 -0.07833308751743422 0.0022315070804887474 0.016085231489626126 -0.0018889542271614322 -0.010145758814237595
 0.9907004544531572 -0.07833308751743422 0.007538061343444841 0.03258227201748991 -0.0018881239830225425 -0.010145803979940242 0.0021854266818121704 0.016092087176999857
 0.0022315070804887474 0.016085231489626126 -0.0018881239830225425 -0.010145803979940242 0.007530233226658997 0.03258412344781514 0.9907005148925598 -0.07833191158043674
 -0.0018889542271614322 -0.010145758814237595 0.0021854266818121704 0.016092087176999857 0.9907005148925598 -0.07833191158043674 0.00753759096837364 0.03258346563204414
0.09378907878283 0.00814687945789778 0.03506434614655844 0.9898762581289899 -0.08404599215979666 0.0025150200162184677 0.017224579878576524 -0.002125779698723751 -0.01086535917320662
 0.9898762581289899 -0.08404599215979666 0.00815652791844201 0.03506348178518696 -0.002124829794154973 -0.010865418778177963 0.002462123524107811 0.017232686193331858
 0.0025150200162184677 0.017224579878576524 -0.002124829794154973 -0.010865418778177963 0.008147540513291899 0.03506550893964382 0.9898763275309894 -0.08404473089588553
 -0.002125779698723751 -0.01086535917320662 0.002462123524107811 0.017232686193331858 0.9898763275309894 -0.08404473089588553 0.008155987245306041 0.035064761682497086
0.100041684035 0.008797423863677083 0.03756228698542989 0.9890081069885269 -0.08977289482087543 0.002816465305815834 0.018360957926950888 -0.0023776066209737602 -0.011582555873214958
 0.9890081069885269 -0.08977289482087543 0.008808402424438479 0.037561307150715005 -0.0023765294015863454 -0.01158263205594715 0.002756284168078415 0.018370460869086176
 0.002816465305815834 0.018360957926950888 -0.0023765294015863454 -0.01158263205594715 0.008798174969886594 0.03756351742520972 0.9890081860454674 -0.08977154792450778
 -0.0023776066209737602 -0.011582555873214958 0.002756284168078415 0.018370460869086176 0.9890081860454674 -0.08977154792450778 0.008807786487003354 0.03756267357756038
0.1059090909091 0.009438614988377083 0.03992088816820696 0.9881530528276126 -0.09515925708987098 0.0031157214590564327 0.019424312830305053 -0.0026276400135661565 -0.01225308069032224
 0.9881530528276126 -0.09515925708987098 0.009450920480714886 0.03991979122541644 -0.0026264364273440983 -0.012253174480940907 0.0030482790476549153 0.019435266834258433
 0.0031157214590564327 0.019424312830305053 -0.0026264364273440983 -0.012253174480940907 0.009439455695834565 0.03992218037552268 0.9881531415913463 -0.095157829537498
 -0.0026276400135661565 -0.01225308069032224 0.0030482790476549153 0.019435266834258433 0.9881531415913463 -0.095157829537498 0.009450229385145751 0.039921239098155994
0.1062942892872 0.009481759614692673 0.04007621108661807 0.988095540915699 -0.0955132793467389 0.003135924150454835 0.019494013190339624 -0.0026445211760498014 -0.012297009687252773
 0.988095540915699 -0.0955132793467389 0.009494154893484921 0.040075106149549025 -0.0026433090617695772 -0.01229710470578307 0.0030679906441936637 0.01950506739308818
 0.003135924150454835 0.019494013190339624 -0.0026433090617695772 -0.01229710470578307 0.009482606376340356 0.04007750728977593 0.9880956303388658 -0.09551184648750725
 -0.0026445211760498014 -0.012297009687252773 0.0030679906441936637 0.01950506739308818 0.9880956303388658 -0.09551184648750725 0.00949345870991457 0.040076559379275165
0.11254689453939999 0.010200347000511256 0.04260547208988193 0.9871381080967531 -0.1012666095890124 0.0034734693347745183 0.020623387283391064 -0.002926601107274809 -0.013008376436690875
 0.9871381080967531 -0.1012666095890124 0.010214245856725779 0.04260423193944281 -0.0029252465930945204 -0.013008492668257881 0.00339731672883855 0.020636156068753433
 0.0034734693347745183 0.020623387283391064 -0.0029252465930945204 -0.013008492668257881 0.010201294985764702 0.04260683205353915 0.9871382086175308 -0.10126509041589907
 -0.002926601107274809 -0.013008376436690875 0.00339731672883855 0.020636156068753433 0.9871382086175308 -0.10126509041589907 0.010213464429142657 0.04260577226936214
0.11879949979160001 0.010953636443031664 0.045149417599380716 0.9861353654709409 -0.10703233084428937 0.0038291649669126814 0.021748716168384526 -0.003223915478755488 -0.013716307105290617
 0.9861353654709409 -0.10703233084428937 0.010969126000630321 0.045148031624368014 -0.0032224111356851473 -0.013716447046010077 0.0037443276892830148 0.02176337159899753
 0.0038291649669126814 0.021748716168384526 -0.0032224111356851473 -0.013716447046010077 0.010954691181124009 0.045150839203165705 0.9861354778424276 -0.10703072498373649
 -0.003223915478755488 -0.013716307105290617 0.0037443276892830148 0.02176337159899753 0.9861354778424276 -0.10703072498373649 0.010968254315069967 0.045149659379122825
0.1250521050438 0.011742068143218527 0.04770738830861028 0.9850868791698548 -0.1128098710214482 0.004203066224596 0.02286963043911499 -0.0035365244376660654 -0.01442044798044307
 0.9850868791698548 -0.1128098710214482 0.011759235813162086 0.04770584537779658 -0.003534862913663152 -0.014420614244911388 0.004109080033772887 0.02288635336623109
 0.004203066224596 0.02286963043911499 -0.003534862913663152 -0.014420614244911388 0.011743235121516284 0.047708869312034066 0.9850870041679056 -0.11280817808014244
 -0.0035365244376660654 -0.01442044798044307 0.004109080033772887 0.02288635336623109 0.9850870041679056 -0.11280817808014244 0.011758268838983272 0.04770756090830212
0.131304710296 0.012566071721672598 0.05027871733688284 0.9839922249475775 -0.11859864162530903 0.0045952191069855595 0.023985755598400042 -0.003864478979968774 -0.01512044082309182
 0.9839922249475775 -0.11859864162530903 0.012585005224057593 0.050277005777901285 -0.0038626530010181146 -0.015120636143997574 0.004491621267651856 0.02400473570593608
 0.0045952191069855595 0.023985755598400042 -0.0038626530010181146 -0.015120636143997574 0.012567356383038002 0.05028025537977031 0.983992363372216 -0.11859686119018478
 -0.003864478979968774 -0.01512044082309182 0.004491621267651856 0.02400473570593608 0.983992363372216 -0.11859686119018478 0.012583937914186319 0.050278809463079784
0.1375573155481 0.013259111078670859 0.05252887423463659 0.983018058507973 -0.12406390221230541 0.004963235810531883 0.025066464231765815 -0.004165519906394807 -0.015785620434392595
 0.983018058507973 -0.12406390221230541 0.013279903436176868 0.052527014900230325 -0.004163518376608891 -0.015785845618889852 0.004849787218108144 0.025087706658173472
 0.004963235810531883 0.025066464231765815 -0.004163518376608891 -0.015785845618889852 0.01326051806379597 0.052530467457745235 0.9830182110001277 -0.1240620340599652
 -0.004165519906394807 -0.015785620434392595 0.004849787218108144 0.025087706658173472 0.9830182110001277 -0.1240620340599652 0.01327873182742161 0.05252890692111066
0.1438099208003 0.013977007641233951 0.05476265285457956 0.9820084737821322 -0.12951070903128273 0.005345882553311697 0.026139846273182523 -0.004478317882784191 -0.016444144705160497
 0.9820084737821322 -0.12951070903128273 0.013999747705438227 0.05476063569327261 -0.004476132953902843 -0.016444402506932694 0.005222162741647733 0.02616352772661055
 0.005345882553311697 0.026139846273182523 -0.004476132953902843 -0.016444402506932694 0.013978542188597582 0.05476429886227309 0.9820086411425776 -0.1295087527652305
 -0.004478317882784191 -0.016444144705160497 0.005222162741647733 0.02616352772661055 0.9820086411425776 -0.1295087527652305 0.013998466920637468 0.054762616392678695
0.1500625260525 0.014719426800191218 0.056979734743614466 0.9809638114097354 -0.13493879121040572 0.005742971769261546 0.027205699551992833 -0.004802692003307287 -0.017095829193405306
 0.9809638114097354 -0.13493879121040572 0.014744203717813249 0.056977549083982365 -0.0048003158566443565 -0.01709612247793379 0.005608564235273288 0.0272320031353964
 0.005742971769261546 0.027205699551992833 -0.0048003158566443565 -0.01709612247793379 0.01472109409683289 0.05698143104676537 0.9809639944593628 -0.13493674642425899
 -0.004802692003307287 -0.017095829193405306 0.005608564235273288 0.0272320031353964 0.9809639944593628 -0.13493674642425899 0.014742808875842556 0.056979618818851496
0.15631513130469998 0.015486030620939228 0.05917981135325876 0.9798844148160035 -0.1403478823747995 0.006154313132385618 0.02826382679598931 -0.005138458666159468 -0.017740494660670878
 0.9798844148160035 -0.1403478823747995 0.015512933839073532 0.05917744588590693 -0.005135883513190983 -0.017740826404707928 0.0060088054155924804 0.02829294191188461
