! Created with skrf 1.8.0 (http://scikit-rf.org).
# GHz S RI R 50.0 
!freq ReS11 ImS11 ReS12 ImS12 ReS13 ImS13
! ReS14 ImS14
! ReS21 ImS21 ReS22 ImS22 ReS23 ImS23
! ReS24 ImS24
! ReS31 ImS31 ReS32 ImS32 ReS33 ImS33
! ReS34 ImS34
! ReS41 ImS41 ReS42 ImS42 ReS43 ImS43
! ReS44 ImS44
!
0.0 0.001249370763608 0.0 0.9987506292361 0.0 4.763108316625e-05 0.0 -4.763108182224e-05 5.8331251893531895e-21
 0.9987506292361 0.0 0.00124937076362 0.0 -4.763108182295e-05 5.833125189440139e-21 4.763108316567e-05 0.0
 4.763108316625e-05 0.0 -4.763108182295e-05 5.833125189440139e-21 0.001249370760892 0.0 0.9987506292333 0.0
 -4.763108182224e-05 5.8331251893531895e-21 4.763108316567e-05 0.0 0.9987506292333 0.0 0.001249370760873 0.0
0.005 0.0013434938293553267 0.0010237590599862522 0.9986316569755077 -0.0026179457205552127 6.618252699087483e-05 0.000517622149597017 -6.435263495697091e-05 -0.000326287077136551
 0.9986316569755077 -0.0026179457205552127 0.0013435138163097806 0.0010237473750830427 -6.43513561119775e-05 -0.0003262860628606229 6.607150465832604e-05 0.0005176644560476665
 6.618252699087483e-05 0.000517622149597017 -6.43513561119775e-05 -0.0003262860628606229 0.0013434949776438836 0.001023825610192742 0.9986316573040178 -0.0026178786560160238
 -6.435263495697091e-05 -0.000326287077136551 6.607150465832604e-05 0.0005176644560476665 0.9986316573040178 -0.0026178786560160238 0.001343513321983441 0.0010238149516660555
0.006252605252188 0.0013679711901328966 0.0012837496476351582 0.9986005530651937 -0.0032731038554203156 7.137757758385765e-05 0.0006472940752270152 -6.897844793003742e-05 -0.0004082908118830839
 0.9986005530651937 -0.0032731038554203156 0.001368002433179094 0.0012837347799767175 -6.897645815989136e-05 -0.0004082895601507548 7.12041139510143e-05 0.0006473489467582412
 7.137757758385765e-05 0.0006472940752270152 -6.897645815989136e-05 -0.0004082895601507548 0.0013679729202975585 0.001283832811812923 0.9986005535137019 -0.003273020043140081
 -6.897844793003742e-05 -0.0004082908118830839 7.12041139510143e-05 0.0006473489467582412 0.9986005535137019 -0.003273020043140081 0.0013680015949488389 0.0012838192351295255
0.01250521050438 0.0014956130694317915 0.0025946538954965135 0.9984374279016826 -0.0065471876886681185 0.00010061478904069854 0.0012950282888638746 -9.47130153317653e-05 -0.0008186822465660774
 0.9984374279016826 -0.0065471876886681185 0.0014957378232152642 0.0025946215179839483 -9.47051762598564e-05 -0.0008186799169265771 9.99230334963799e-05 0.001295159228372656
 0.00010061478904069854 0.0012950282888638746 -9.47051762598564e-05 -0.0008186799169265771 0.0014956194121124385 0.0025948199337916373 0.9984374291221896 -0.006547020288085512
 -9.47130153317653e-05 -0.0008186822465660774 9.99230334963799e-05 0.001295159228372656 0.9984374291221896 -0.006547020288085512 0.0014957338992306066 0.002594790230822127
0.01875781575657 0.0016325321706738766 0.003924528062451931 0.9982610818668275 -0.009830261633420908 0.00013540301662100696 0.001943653138874809 -0.00012490456072657662 -0.0012306191121298435
 0.9982610818668275 -0.009830261633420908 0.0016328124977030738 0.003924475337904588 -0.0001248870821701992 -0.0012306159051129323 0.0001338490016100481 0.0019438848965787734
 0.00013540301662100696 0.001943653138874809 -0.0001248870821701992 -0.0012306159051129323 0.0016325460087799196 0.003924776772918801 0.998261084187126 -0.009830010740695002
 -0.00012490456072657662 -0.0012306191121298435 0.0001338490016100481 0.0019438848965787734 0.998261084187126 -0.009830010740695002 0.0016328032446379012 0.0039247282385212155
0.02501042100875 0.001778959482762071 0.005271557403217509 0.9980713375695915 -0.013123960150978387 0.0001758038516477915 0.0025932197014623126 -0.0001596213010795874 -0.0016439426383956064
 0.9980713375695915 -0.013123960150978387 0.0017794573165553073 0.005271481318811348 -0.00015959043855544942 -0.001643938785209383 0.00017304340907422336 0.0025935804205939866
 0.0001758038516477915 0.0025932197014623126 -0.00015959043855544942 -0.001643938785209383 0.0017789836966607003 0.005271888588452999 0.9980713413160188 -0.013123625818933563
 -0.0001596213010795874 -0.0016439426383956064 0.00017304340907422336 0.0025935804205939866 0.9980713413160188 -0.013123625818933563 0.0017794404855934459 0.0052718183791991766
0.03126302626094 0.0019351161468784143 0.0066348299785886095 0.9978680071288798 -0.016429009137730145 0.0002218796884404898 0.003243721044307544 -0.00019892994626615572 -0.0020585489756088328
 0.9978680071288798 -0.016429009137730145 0.00193589332161121 0.006634727349159614 -0.0001988819929659639 -0.002058544738650691 0.00021756810838368976 0.0032442422772220618
 0.0002218796884404898 0.003243721044307544 -0.0001988819929659639 -0.002058544738650691 0.0019351536198925264 0.00663524343495773 0.9978680126310099 -0.016428591386403835
 -0.00019892994626615572 -0.0020585489756088328 0.00021756810838368976 0.0032442422772220618 0.9978680126310099 -0.016428591386403835 0.0019358666619849361 0.006635148572535255
0.037515631513130004 0.0021012187035093577 0.008013767836051601 0.9976508975148562 -0.019745794697698195 0.00027369308300258336 0.00389512769197337 -0.00024289618209790074 -0.0024743537106561566
 0.9976508975148562 -0.019745794697698195 0.0021023369725260282 0.008013635305585493 -0.00024282746472549714 -0.0024743493836705977 0.00026748494984948337 0.003895844434263205
 0.00027369308300258336 0.00389512769197337 -0.00024282746472549714 -0.0024743493836705977 0.0021012723168436333 0.00801426332897449 0.9976509051003567 -0.01974529353871165
 -0.00024289618209790074 -0.0024743537106561566 0.00026748494984948337 0.003895844434263205 0.9976509051003567 -0.01974529353871165 0.002102298225548545 0.008014140702023224
0.043768236765320004 0.0022774811234214337 0.009407953892738278 0.9974198126782645 -0.023074536206334244 0.0003313064603399013 0.004547398402653895 -0.00029158485603133366 -0.0028912810762984848
 0.9974198126782645 -0.023074536206334244 0.002279002173025122 0.009407787935234647 -0.0002914917323338211 -0.002891276984431521 0.000322855564327288 0.004548349132902627
 0.0003313064603399013 0.004547398402653895 -0.0002914917323338211 -0.002891276984431521 0.0022775537597449365 0.009408531160419937 0.997419822676569 -0.02307395163876275
 -0.00029158485603133366 -0.0028912810762984848 0.000322855564327288 0.004548349132902627 0.997419822676569 -0.02307395163876275 0.0022789490748401863 0.009408377525936642
0.050020842017509996 0.0024641157635975804 0.010817060407355117 0.9971745546064325 -0.02641535778331368 0.00039478194936564667 0.005200484618992459 -0.0003450600524390456 -0.003309259487888266
 0.9971745546064325 -0.02641535778331368 0.0024661012240234873 0.010816857327313422 -0.00034493890948393785 -0.0033092559877042015 0.0003837412381013954 0.0052017113409398704
 0.00039478194936564667 0.005200484618992459 -0.00034493890948393785 -0.0033092559877042015 0.0024642103053516625 0.010817719158407627 0.9971745673474033 -0.026414689795564304
 -0.0003450600524390456 -0.003309259487888266 0.0003837412381013954 0.0052017113409398704 0.9971745673474033 -0.026414689795564304 0.0024660315042509956 0.010817531142718514
0.055454545454549996 0.002634894517464601 0.012053520496526525 0.9969497526941911 -0.029328494233781085 0.00045475277074245613 0.0057686570279104265 -0.000395468080002018 -0.0036732948925543812
 0.9969497526941911 -0.029328494233781085 0.0026373335802002723 0.012053282023211933 -0.0003953196752509 -0.0036732922205432064 0.00044117890947330463 0.005770160477614126
 0.00045475277074245613 0.0057686570279104265 -0.0003953196752509 -0.0036732922205432064 0.002635010437837746 0.01205424980285592 0.9969497680886603 -0.029327753730030635
 -0.000395468080002018 -0.0036732948925543812 0.00044117890947330463 0.005770160477614126 0.9969497680886603 -0.029327753730030635 0.0026372475678655117 0.012054029068172262
0.056273447269699996 0.002661333867361329 0.012240813854568058 0.9969149239269351 -0.029768323362255267 0.00046418127019390293 0.005854332652185721 -0.00040338512249098434 -0.003728219348095466
 0.9969149239269351 -0.029768323362255267 0.002663845322781686 0.012240569787210621 -0.0004032323755617754 -0.003728216827585651 0.000450202824130921 0.0058558809380985875
 0.00046418127019390293 0.005854332652185721 -0.0004032323755617754 -0.003728216827585651 0.0026614531982153437 0.012241553770840892 0.9969149397429359 -0.029767571928905515
 -0.00040338512249098434 -0.003728219348095466 0.000450202824130921 0.0058558809380985875 0.9969149397429359 -0.029767571928905515 0.002663756705356466 0.012241327870440969
0.06252605252188 0.0028693458477104267 0.013678975627936983 0.9966407202963007 -0.033133455932620536 0.0005395656518437831 0.006508884869132092 -0.00046662268704588257 -0.004148091849911095
 0.9966407202963007 -0.033133455932620536 0.0028724448451360103 0.01367868653922185 -0.00046643477882009896 -0.00414809072847324 0.0005223006749993566 0.0065108039038534946
 0.0005395656518437831 0.006508884869132092 -0.00046643477882009896 -0.00414809072847324 0.0028694928515147645 0.013679796354844804 0.9966407395211061 -0.0331326210235298
 -0.00046662268704588257 -0.004148091849911095 0.0005223006749993566 0.0065108039038534946 0.9966407395211061 -0.0331326210235298 0.002872335047415918 0.013679528936916397
0.06877865777407 0.003088361448266286 0.015131330527847103 0.9963517426680689 -0.03651074899714653 0.0006209957622662687 0.007164080410580035 -0.0005348346281465997 -0.004568808250079658
 0.9963517426680689 -0.03651074899714653 0.0030921095059264405 0.015130992214267378 -0.0005346080280314192 -0.0045688089785118355 0.000600094584294272 0.007166423035886748
 0.0006209957622662687 0.007164080410580035 -0.0005346080280314192 -0.0045688089785118355 0.0030885390083934022 0.015132231678335314 0.9963517656373072 -0.03650983057319362
 -0.0005348346281465997 -0.004568808250079658 0.000600094584294272 0.007166423035886748 0.9963517656373072 -0.03650983057319362 0.0030919762385419837 0.015131918981149814
0.07503126302626001 0.0033185898349356747 0.016597679462858794 0.9960477894946247 -0.03990017381735275 0.000708531649482478 0.007819855633796427 -0.000608082070035865 -0.004990299419508454
 0.9960477894946247 -0.03990017381735275 0.003323048450594988 0.016597287551044157 -0.0006078132738286842 -0.004990302479983075 0.0006836437355347253 0.00782267839293507
 0.000708531649482478 0.007819855633796427 -0.0006078132738286842 -0.004990302479983075 0.0033188008347245475 0.016598660619208006 0.9960478165462143 -0.03989917182807925
 -0.000608082070035865 -0.004990299419508454 0.0006836437355347253 0.00782267839293507 0.9960478165462143 -0.03989917182807925 0.0033228894171207493 0.016598298752396396
0.08128386827845 0.003560239643723871 0.018077834590173817 0.9957286588864868 -0.04330168422117738 0.0008022326874271144 0.008476144414727 -0.000686425355444443 -0.005412495535780323
 0.9957286588864868 -0.04330168422117738 0.003565470302361422 0.01807738453634256 -0.0006861108849253735 -0.005412501441824012 0.000773006654155282 0.008479507596983316
 0.0008022326874271144 0.008476144414727 -0.0006861108849253735 -0.005412501441824012 0.0035604869661392128 0.018078895296640682 0.9957286903611057 -0.04330059861173725
 -0.000686425355444443 -0.005412495535780323 0.000773006654155282 0.008479507596983316 0.9957286903611057 -0.04330059861173725 0.003565283199896679 0.018078480241143693
0.08753647353064001 0.003813519000345246 0.019571615953623264 0.9953941487456601 -0.04671521991469237 0.0009021575252388677 0.009132878351494615 -0.000769924017854616 -0.0058353258759909175
 0.9953941487456601 -0.04671521991469237 0.0038195831818484253 0.019571103042812052 -0.0007695604205397018 -0.005835335172461742 0.000868241161847941 0.009136846036691295
 0.0009021575252388677 0.009132878351494615 -0.0007695604205397018 -0.005835335172461742 0.0038138055270382637 0.01957275572108778 0.9953941849865569 -0.04671405062085039
 -0.000769924017854616 -0.0058353258759909175 0.000868241161847941 0.009136846036691295 0.9953941849865569 -0.04671405062085039 0.003819365700338349 0.019572283329004306
0.09378907878283 0.004078635518497539 0.021078849084664168 0.9950440568802909 -0.05014070883270479 0.001008364039186707 0.009789986912544334 -0.0008586367507038716 -0.006258718666670815
 0.9950440568802909 -0.05014070883270479 0.004085594705648137 0.021078268429756256 -0.0008582205997381871 -0.0062587319297281105 0.0009694043324287789 0.009794627015412165
 0.001008364039186707 0.009789986912544334 -0.0008582205997381871 -0.0062587319297281105 0.004078964129778465 0.021080067392019418 0.9950440982334223 -0.05013945577896488
 -0.0008586367507038716 -0.006258718666670815 0.0009694043324287789 0.009794627015412165 0.9950440982334223 -0.05013945577896488 0.0040853445275624905 0.021079533386263637
0.100041684035 0.004355796284606519 0.022599363236430626 0.9946781811065435 -0.053578068857845516 0.0011209092861613568 0.010447397543113544 -0.000952621374493952 -0.006682600977164798
 0.9946781811065435 -0.053578068857845516 0.004363711970384799 0.02259870977696591 -0.0009521492684871567 -0.006682618814231594 0.0010765524486517457 0.010452781857488797
 0.0011209092861613568 0.010447397543113544 -0.0009521492684871567 -0.006682618814231594 0.0043561698591622665 0.022600659523004246 0.9946782279213585 -0.05357673196466933
 -0.000952621374493952 -0.006682600977164798 0.0010765524486517457 0.010452781857488797 0.9946782279213585 -0.05357673196466933 0.004363426771185033 0.022600059496691666
0.1059090909091 0.004627020364473592 0.02403813344469515 0.9943203101958441 -0.056814382456521616 0.0012323361376940574 0.011064516088309941 -0.0010456614119816372 -0.007080748727859443
 0.9943203101958441 -0.056814382456521616 0.0046358895658991685 0.02403740690785666 -0.0010451337272206862 -0.0070807714374222855 0.0011825922377046245 0.011070667556011533
 0.0012323361376940574 0.011064516088309941 -0.0010451337272206862 -0.0070807714374222855 0.004627438748640577 0.024039502365012046 0.994320362456983 -0.056812966808959836
 -0.0010456614119816372 -0.007080748727859443 0.0011825922377046245 0.011070667556011533 0.994320362456983 -0.056812966808959836 0.004635569382489677 0.02403883626109951
0.1062942892872 0.004645207832823476 0.02413299005534648 0.994296319344174 -0.05702720910435365 0.0012398494579545568 0.011105035748577708 -0.0010519348022337955 -0.0071068986380155245
 0.994296319344174 -0.05702720910435365 0.0046541415282208825 0.02413225855619887 -0.001051403365214858 -0.007106921687754342 0.0011897409595418712 0.011111239991326072
 0.0012398494579545568 0.011105035748577708 -0.001051403365214858 -0.007106921687754342 0.004645629247296894 0.024134363725340034 0.9942963719737598 -0.057025788283324386
 -0.0010519348022337955 -0.0071068986380155245 0.0011897409595418712 0.011111239991326072 0.9942963719737598 -0.057025788283324386 0.0046538189760613555 0.024133693141037596
0.11254689453939999 0.004947076110935058 0.025679562565107165 0.993898269703855 -0.06048803089132113 0.0013652398363933817 0.011762825157138165 -0.0011566330034785794 -0.007531536181840517
 0.993898269703855 -0.06048803089132113 0.004957089352623632 0.02567874761483439 -0.001156038884856924 -0.007531565114105322 0.0013090244380551453 0.011769929011844853
 0.0013652398363933817 0.011762825157138165 -0.001156038884856924 -0.007531565114105322 0.004947548239226072 0.025681012985755418 0.9938983285048872 -0.06048652604660059
 -0.0011566330034785794 -0.007531536181840517 0.0013090244380551453 0.011769929011844853 0.9938983285048872 -0.06048652604660059 0.004956727107999865 0.025680267174484083
0.11879949979160001 0.005261606440833295 0.027238914368600108 0.9934838305716219 -0.0639604285002627 0.00149713474873488 0.01242068757173609 -0.00126677096737653 -0.00795643679704159
 0.9934838305716219 -0.0639604285002627 0.005272760798717838 0.027238010377684158 -0.0012661108419308252 -0.00795647231284462 0.001434456538788166 0.012428774732023775
 0.00149713474873488 0.01242068757173609 -0.0012661108419308252 -0.00795647231284462 0.005262132153750711 0.027240440872353545 0.9934838959045472 -0.06395883952603995
 -0.00126677096737653 -0.00795643679704159 0.001434456538788166 0.012428774732023775 0.9934838959045472 -0.06395883952603995 0.005272356514610333 0.027239615032351835
0.1250521050438 0.0055890034734100945 0.028810879024271898 0.99305280068903 -0.06744428976040437 0.001635587523589258 0.01307854301074336 -0.0013824026645191379 -0.008381522294689789
 0.99305280068903 -0.06744428976040437 0.0056013605584635095 0.028809880223023696 -0.0013816732324573966 -0.008381565126148696 0.0015660899559068826 0.013087701223256724
 0.001635587523589258 0.01307854301074336 -0.0013816732324573966 -0.008381565126148696 0.005589585638442659 0.02881248090440553 0.993052872919046 -0.0674426165449652
 -0.0013824026645191379 -0.008381522294689789 0.0015660899559068826 0.013087701223256724 0.993052872919046 -0.0674426165449652 0.005600911880180689 0.028811570099697512
0.131304710296 0.005929471139891742 0.030395289533554713 0.9926049792326483 -0.07093949652521234 0.0017806504466505815 0.013736309744460625 -0.0015035810082538964 -0.008806713081632651
 0.9926049792326483 -0.07093949652521234 0.005943092612030789 0.030394189969878787 -0.0015027789952435514 -0.008806763991927024 0.0017039763809597553 0.01374663085148625
 0.0017806504466505815 0.013736309744460625 -0.0015027789952435514 -0.008806763991927024 0.005930112620425383 0.030396966045768654 0.9926050587290449 -0.0709377389489193
 -0.0015035810082538964 -0.008806713081632651 0.0017039763809597553 0.01374663085148625 0.9926050587290449 -0.0709377389489193 0.005942597176956305 0.030395965204481172
0.1375573155481 0.006198325299668802 0.0317851211195101 0.9922250739745575 -0.07423901823035704 0.001912524544076625 0.014372672509513362 -0.0016105985437695777 -0.009210644336635546
 0.9922250739745575 -0.07423901823035704 0.006213276911872666 0.03178393978081172 -0.001609719048196077 -0.009210703257033845 0.001828492334584318 0.014384129874532314
 0.001912524544076625 0.014372672509513362 -0.001609719048196077 -0.009210703257033845 0.006199028364563665 0.03178687171812299 0.9922251610657585 -0.07423717623842925
 -0.0016105985437695777 -0.009210644336635546 0.001828492334584318 0.014384129874532314 0.9922251610657585 -0.07423717623842925 0.006212733025135675 0.03178580042042754
0.1438099208003 0.0064763940667564935 0.033168725290045185 0.9918322432872417 -0.07753127989928744 0.0020497361904904367 0.015007067122135143 -0.0017219080559785804 -0.009612800474065515
 0.9918322432872417 -0.07753127989928744 0.006492738173630626 0.03316745793463127 -0.0017209475468278892 -0.009612868143665364 0.001958019651265658 0.015019743615542697
 0.0020497361904904367 0.015007067122135143 -0.0017209475468278892 -0.009612868143665364 0.006477161466411197 0.03317054922391203 0.9918323383406471 -0.07752935337664486
 -0.0017219080559785804 -0.009612800474065515 0.001958019651265658 0.015019743615542697 0.9918323383406471 -0.07752935337664486 0.006492143582765827 0.03316940410370298
0.1500625260525 0.006763592879157035 0.03454601898365662 0.9914265746313026 -0.08081623283685686 0.002192246573891123 0.01563944900760665 -0.001837472401670743 -0.010013139565271877
 0.9914265746313026 -0.08081623283685686 0.0067813919093761225 0.03454466115015655 -0.0018364273526657129 -0.010013216752645996 0.0020925209997607404 0.015653430505871393
 0.002192246573891123 0.01563944900760665 -0.0018364273526657129 -0.010013216752645996 0.006764427353372982 0.034547915472519335 0.991426678018089 -0.08081422166327114
 -0.001837472401670743 -0.010013139565271877 0.0020925209997607404 0.015653430505871393 0.991426678018089 -0.08081422166327114 0.006780744362329361 0.03454669297841001
0.15631513130469998 0.0070598367324380355 0.035916921838695215 0.9910081557359299 -0.08409382790505197 0.002340016520053123 0.016269774204069012 -0.00195725406765274 -0.010411620473289434
