! Created with skrf 1.8.0 (http://scikit-rf.org).
# GHz S RI R 50.0 
!freq ReS11 ImS11 ReS12 ImS12 ReS13 ImS13
! ReS14 ImS14
! ReS21 ImS21 ReS22 ImS22 ReS23 ImS23
! ReS24 ImS24
! ReS31 ImS31 ReS32 ImS32 ReS33 ImS33
! ReS34 ImS34
! ReS41 ImS41 ReS42 ImS42 ReS43 ImS43
! ReS44 ImS44
!
0.0 0.00149930663255 0.0 0.9985006933579 0.0 5.801515455798e-05 0.0 -5.801515479723e-05 7.104807362446594e-21
 0.9985006933579 0.0 0.001499306632512 0.0 -5.801515479617e-05 7.104807362316781e-21 5.801515455801e-05 0.0
 5.801515455798e-05 0.0 -5.801515479617e-05 7.104807362316781e-21 0.001499306626047 0.0 0.9985006933514 0.0
 -5.801515479723e-05 7.104807362446594e-21 5.801515455801e-05 0.0 0.9985006933514 0.0 0.001499306626065 0.0
0.005 0.0016130627408538112 0.0012218119993397754 0.9983567825038162 -0.003141103450017816 8.193433603487798e-05 0.000668169180848994 -7.941677120404613e-05 -0.0004143654154835652
 0.9983567825038162 -0.003141103450017816 0.0016130669757131798 0.0012218094534483274 -7.94177773273406e-05 -0.00041436610638058115 8.191518988702134e-05 0.0006681765952732809
 8.193433603487798e-05 0.000668169180848994 -7.94177773273406e-05 -0.00041436610638058115 0.001613062983170316 0.0012218790732664783 0.9983567828600172 -0.003141036385768711
 -7.941677120404613e-05 -0.0004143654154835652 8.191518988702134e-05 0.0006681765952732809 0.9983567828600172 -0.003141036385768711 0.0016130674419207267 0.001221876504903449
0.006252605252188 0.0016428619670308807 0.001532098776723016 0.9983188499820104 -0.003927155238132577 8.874740749965847e-05 0.0008355240559662216 -8.544623233691214e-05 -0.000518501230686549
 0.9983188499820104 -0.003927155238132577 0.00164286858717886 0.0015320955026393505 -8.544779860815568e-05 -0.0005185020808800821 8.871749482727776e-05 0.000835533662252109
 8.874740749965847e-05 0.0008355240559662216 -8.544779860815568e-05 -0.0005185020808800821 0.0016428622646137954 0.0015321826085148097 0.9983188504572684 -0.0039270714100314765
 -8.544623233691214e-05 -0.000518501230686549 8.871749482727776e-05 0.000835533662252109 0.9983188504572684 -0.0039270714100314765 0.0016428692338083324 0.0015321793199735657
0.01250521050438 0.0017995245776579946 0.003096522869445537 0.998118127123321 -0.007855175907833302 0.0001277102909962041 0.0016713342910472666 -0.00011958677211661785 -0.0010395664566521412
 0.998118127123321 -0.007855175907833302 0.0017995510189598829 0.003096515388795123 -0.00011959295279173351 -0.001039568009139168 0.0001275910491852477 0.0016713571605495759
 0.0001277102909962041 0.0016713342910472666 -0.00011959295279173351 -0.001039568009139168 0.0017995252325505445 0.0030966901803842796 0.9981181284807382 -0.00785500850854785
 -0.00011958677211661785 -0.0010395664566521412 0.0001275910491852477 0.0016713571605495759 0.9981181284807382 -0.00785500850854785 0.001799553051055036 0.003096682809178802
0.01875781575657 0.0019696300289593345 0.004683400255744221 0.9978982800214884 -0.011793634227262442 0.00017499252944892484 0.0025080264214694835 -0.00016054114068122738 -0.0015624099424692247
 0.9978982800214884 -0.011793634227262442 0.0019696894584091385 0.004683387565782805 -0.0001605549352233631 -0.0015624120186810062 0.00017472476601224725 0.0025080669367884795
 0.00017499252944892484 0.0025080264214694835 -0.0001605549352233631 -0.0015624120186810062 0.0019696310882384035 0.004683650839985425 0.9978982826468704 -0.011793383337224747
 -0.00016054114068122738 -0.0015624099424692247 0.00017472476601224725 0.0025080669367884795 0.9978982826468704 -0.011793383337224747 0.0019696935793243656 0.004683638527572442
0.02501042100875 0.0021535043101282175 0.0062905062734059745 0.9976590544579069 -0.015744445180122444 0.00023068416259692167 0.0033456465075793985 -0.00020841027601453107 -0.002086790053544912
 0.9976590544579069 -0.015744445180122444 0.002153609874987272 0.00629048730287389 -0.00020843465190853005 -0.0020867924414201618 0.00023020872078245995 0.003345709744121312
 0.00023068416259692167 0.0033456465075793985 -0.00020843465190853005 -0.0020867924414201618 0.002153505838591428 0.006290839938578188 0.9976590587481453 -0.015744110835828048
 -0.00020841027601453107 -0.002086790053544912 0.00023020872078245995 0.003345709744121312 0.9976590587481453 -0.015744110835828048 0.0021536167850422757 0.006290821765018557
0.03126302626094 0.002351459891602253 0.007916698791753279 0.9974001830298038 -0.019708431313745535 0.00029487578173192084 0.00418416022589532 -0.0002632922431402212 -0.002612539979017875
 0.9974001830298038 -0.019708431313745535 0.0023516247246895754 0.007916672400791311 -0.00026333014134590844 -0.0026125424325741547 0.0002941334820741071 0.004184251953960382
 0.00029487578173192084 0.00418416022589532 -0.00026333014134590844 -0.0026125424325741547 0.0023514619582326655 0.007917115323698036 0.9974001893801192 -0.019708013542652583
 -0.0002632922431402212 -0.002612539979017875 0.0002941334820741071 0.004184251953960382 0.9974001893801192 -0.019708013542652583 0.0023516351090759023 0.007917090307897867
0.037515631513130004 0.002563802500589307 0.0095612351632113 0.9971213921309289 -0.023686005728037165 0.0003676576108197528 0.005023501636474362 -0.00032528299101847603 -0.0031395189640535445
 0.9971213921309289 -0.023686005728037165 0.0025640397233668865 0.00956120014301697 -0.00032533732873874134 -0.003139521203207491 0.00036658922456442636 0.005023628326903547
 0.0003676576108197528 0.005023501636474362 -0.00032533732873874134 -0.003139521203207491 0.002563805180517026 0.009561734347180882 0.997121400938151 -0.023685504527018328
 -0.00032528299101847603 -0.0031395189640535445 0.00036658922456442636 0.005023628326903547 0.997121400938151 -0.023685504527018328 0.0025640542546500104 0.009561701446839915
0.043768236765320004 0.0027908337524401973 0.01122356439210526 0.9968224047914409 -0.027677379838758755 0.0004491190774508397 0.005863588019597764 -0.0003944766262856543 -0.003667597472837113
 0.9968224047914409 -0.027677379838758755 0.0027911564778758968 0.011223519464508128 -0.0003945502985569163 -0.0036675991832853523 0.000447665314073044 0.005863756850576877
 0.0004491190774508397 0.005863588019597764 -0.0003945502985569163 -0.0036675991832853523 0.002790837125910543 0.011224145988448318 0.9968224164538102 -0.027676795198160024
 -0.0003944766262856543 -0.003667597472837113 0.000447665314073044 0.005863756850576877 0.9968224164538102 -0.027676795198160024 0.002791175815352508 0.011224104099887375
0.050020842017509996 0.0030328523675735293 0.012903241212430418 0.9965029421038513 -0.03168264923008541 0.0005393485607090601 0.006704325989051889 -0.00047096551170124307 -0.00419665107689133
 0.9965029421038513 -0.03168264923008541 0.0030332737014893865 0.012903185029462904 -0.00047106139236694926 -0.0041966519100190836 0.000537450062083498 0.006704544853372033
 0.0005393485607090601 0.006704325989051889 -0.00047106139236694926 -0.0041966519100190836 0.0030328565201524675 0.012903904966488206 0.9965029570220036 -0.0316819811234985
 -0.00047096551170124307 -0.00419665107689133 0.000537450062083498 0.006704544853372033 0.9965029570220036 -0.0316819811234985 0.003033298491812609 0.012903852924423656
0.055454545454549996 0.0032555757419086024 0.014376722062125969 0.9962084734155053 -0.035174652706963655 0.0006249491345321938 0.007435403613462392 -0.000543431749752359 -0.004657111559956072
 0.9962084734155053 -0.035174652706963655 0.0032560934091360985 0.014376654948586953 -0.0005435492480749952 -0.00465711132083512 0.0006226158882755069 0.00743567292879286
 0.0006249491345321938 0.007435403613462392 -0.0005435492480749952 -0.00465711132083512 0.00325558064400403 0.014377456989238323 0.9962084914898532 -0.035173912037307166
 -0.000543431749752359 -0.004657111559956072 0.0006226158882755069 0.00743567292879286 0.9962084914898532 -0.035173912037307166 0.003256123452686 0.014377395129097347
0.056273447269699996 0.0032901548001938565 0.014599883931135987 0.9961627240667015 -0.0357018357426706 0.0006384332091509941 0.007545614504372836 -0.0005548402933480107 -0.004726557447300433
 0.9961627240667015 -0.0357018357426706 0.0032906878432645355 0.014599815074525973 -0.0005549612356270963 -0.004726557020096196 0.0006360305487087192 0.007545892016889051
 0.0006384332091509941 0.007545614504372836 -0.0005549612356270963 -0.004726557020096196 0.0032901598213391984 0.014600629565826716 0.9961627426432228 -0.03570108413415475
 -0.0005548402933480107 -0.004726557447300433 0.0006360305487087192 0.007545892016889051 0.9961627426432228 -0.03570108413415475 0.0032907187196042015 0.014600566143128177
0.06252605252188 0.0035630355757088777 0.016313151253564168 0.9958014701381552 -0.03973491058212385 0.0007464587998534712 0.00838734652152202 -0.0006461898861086923 -0.005257194711938542
 0.9958014701381552 -0.03973491058212385 0.0035636934247389655 0.0163130682342441 -0.000646338723025227 -0.005257192606929016 0.0007434924841397858 0.008387692026678552
 0.0007464587998534712 0.00838734652152202 -0.000646338723025227 -0.005257192606929016 0.003563041558918409 0.016313978469725595 0.9958014927785983 -0.03973407542550001
 -0.0006461898861086923 -0.005257194711938542 0.0007434924841397858 0.008387692026678552 0.9958014927785983 -0.03973407542550001 0.003563731006853528 0.016313902377116916
0.06877865777407 0.0038517874684153163 0.018042728450815414 0.9954188996355431 -0.04378180808867027 0.0008635096161682229 0.009229409981518336 -0.0007451014387718073 -0.0057884404785112625
 0.9954188996355431 -0.04378180808867027 0.0038525832177515257 0.01804262970831226 -0.0007452809833174972 -0.005788436243698165 0.0008599200887503515 0.009229833560891578
 0.0008635096161682229 0.009229409981518336 -0.0007452809833174972 -0.005788436243698165 0.0038517945106949654 0.018043636929305683 0.9954189267486223 -0.043780889325266956
 -0.0007451014387718073 -0.0057884404785112625 0.0008599200887503515 0.009229833560891578 0.9954189267486223 -0.043780889325266956 0.003852628112095373 0.018043546814963802
0.07503126302626001 0.004156701587976666 0.019788318612113227 0.9950147320456575 -0.04784243442577192 0.0009896683384494336 0.010071688442776899 -0.0008516602849150596 -0.006320171217947955
 0.9950147320456575 -0.04784243442577192 0.00415764833074665 0.01978820251394887 -0.0008518733301566486 -0.006320164366742589 0.0009853959851628623 0.01007220092256635
 0.0009896683384494336 0.010071688442776899 -0.0008518733301566486 -0.006320164366742589 0.004156709789113777 0.019789308009751278 0.995014764043496 -0.04784143198823406
 -0.0008516602849150596 -0.006320171217947955 0.0009853959851628623 0.01007220092256635 0.995014764043496 -0.04784143198823406 0.004157701129934861 0.019789202458890823
0.08128386827845 0.004478067404282905 0.021549636808028107 0.9945886872778361 -0.05191667336213422 0.0011250159427328137 0.010914061499900292 -0.0009659498843389042 -0.006852261865565235
 0.9945886872778361 -0.05191667336213422 0.004479178233759543 0.02154950164904271 -0.0009661992034490457 -0.006852251876738701 0.0011200010981671925 0.010914674458389968
 0.0011250159427328137 0.010914061499900292 -0.0009661992034490457 -0.006852251876738701 0.004478076866723907 0.021550706761711006 0.9945887245767544 -0.051915587170152426
 -0.0009659498843389042 -0.006852261865565235 0.0011200010981671925 0.010914674458389968 0.9945887245767544 -0.051915587170152426 0.004479239516413192 0.021550584296116684
0.08753647353064001 0.004816172735680521 0.023326406063378255 0.994140485883214 -0.05600439024850544 0.0012696316035290074 0.011756405082772443 -0.0010880517591092096 -0.007384585546383249
 0.994140485883214 -0.05600439024850544 0.0048174607463787504 0.02332625006501758 -0.0010883401052466546 -0.007384571864024725 0.0012638145584914439 0.011757130857661316
 0.0012696316035290074 0.011756405082772443 -0.0010883401052466546 -0.007384571864024725 0.004816183563382573 0.023327556183797813 0.9941405289035224 -0.0560032202149307
 -0.0010880517591092096 -0.007384585546383249 0.0012638145584914439 0.011757130857661316 0.9941405289035224 -0.0560032202149307 0.004817531076782652 0.023327415261293644
0.09378907878283 0.0051713037086261815 0.02511835447619052 0.9936698492489814 -0.0601054348534368 0.0014235926004042233 0.012598591673360034 -0.0012180454245574624 -0.00791701338726799
 0.9936698492489814 -0.0601054348534368 0.005172781997153802 0.025118175785774185 -0.0012183755307591572 -0.007916995420740407 0.001416913610075087 0.012599443369016994
 0.0014235926004042233 0.012598591673360034 -0.0012183755307591572 -0.007916995420740407 0.005171316006980398 0.02511958435187769 0.993669898415873 -0.06010418088001267
 -0.0012180454245574624 -0.00791701338726799 0.001416913610075087 0.012599443369016994 0.993669898415873 -0.06010418088001267 0.005172861925407531 0.025119423365723762
0.100041684035 0.0055437446981649935 0.026925213110824908 0.9931764997769014 -0.06421964342976895 0.001586974226060995 0.013440490472466761 -0.0013560083175054335 -0.008449414383855965
 0.9931764997769014 -0.06421964342976895 0.005545426365085265 0.026925009800639523 -0.001356382896588627 -0.008449391507755337 0.0015793735189691329 0.013441481967028625
 0.001586974226060995 0.013440490472466761 -0.001356382896588627 -0.008449391507755337 0.0055437585736106245 0.026926522307114398 0.9931765555205968 -0.06421830540808965
 -0.0013560083175054335 -0.008449414383855965 0.0015793735189691329 0.013441481967028625 0.9931765555205968 -0.06421830540808965 0.005545516426308547 0.026926339585417763
0.1059090909091 0.005909236053350942 0.028634080630446458 0.9926926403032529 -0.06809220793110747 0.0017489237590325088 0.014230142175531537 -0.0014927868750034747 -0.008948873190740165
 0.9926926403032529 -0.06809220793110747 0.005911120487930774 0.02863385239642256 -0.0014932056361748737 -0.008948845107742699 0.001740403741489473 0.014231278173959075
 0.0017489237590325088 0.014230142175531537 -0.0014932056361748737 -0.008948845107742699 0.0059092515052845815 0.028635463844273918 0.9926927026146259 -0.0680907909317993
 -0.0014927868750034747 -0.008948873190740165 0.001740403741489473 0.014231278173959075 0.9926927026146259 -0.0680907909317993 0.005911220531075526 0.028635259146779248
0.1062942892872 0.0059337782552654145 0.028746714410089632 0.9926601610508403 -0.06834684026745409 0.0017598496969320556 0.014281967527540533 -0.0015020157212429304 -0.008981655311224033
 0.9926601610508403 -0.06834684026745409 0.005935676405526148 0.02874648447655747 -0.0015024374655239414 -0.008981626865359393 0.0017512674843031182 0.01428311347990428
 0.0017598496969320556 0.014281967527540533 -0.0015024374655239414 -0.008981626865359393 0.0059337938139485 0.02874810246948885 0.9926602238067106 -0.06834541807849587
 -0.0015020157212429304 -0.008981655311224033 0.0017512674843031182 0.01428311347990428 0.9926602238067106 -0.06834541807849587 0.005935777119605601 0.02874789627442221
0.11254689453939999 0.006341685020843391 0.030582590988921955 0.9921205579950493 -0.07248683887033278 0.0019422900633730698 0.015122885841501999 -0.001656140689626863 -0.00951360065846221
 0.9921205579950493 -0.07248683887033278 0.0063438127652233 0.030582332351694837 -0.0016566122707326035 -0.009513565947831747 0.0019326665492469704 0.015124201698194234
 0.0019422900633730698 0.015122885841501999 -0.0016566122707326035 -0.009513565947831747 0.0063417023689477025 0.030584057426964587 0.9921206282047248 -0.07248533238848039
 -0.001656140689626863 -0.00951360065846221 0.0019326665492469704 0.015124201698194234 0.9921206282047248 -0.07248533238848039 0.006343924636960336 0.030583825954090368
0.11879949979160001 0.006767743633816785 0.03243257468610878 0.9915574170285336 -0.07663944288049453 0.0021343641221583673 0.01596310546287288 -0.001818453968446304 -0.01004511258704913
 0.9915574170285336 -0.07663944288049453 0.006770114089984034 0.03243228518702399 -0.0018189780370479428 -0.010045070881825604 0.0021236395137584027 0.015964607464727627
 0.0021343641221583673 0.01596310546287288 -0.0018189780370479428 -0.010045070881825604 0.006767762876403997 0.032434118998571446 0.9915574951394986 -0.07663785196626292
 -0.001818453968446304 -0.01004511258704913 0.0021236395137584027 0.015964607464727627 0.9915574951394986 -0.07663785196626292 0.006770237608420955 0.032433860375972214
0.1250521050438 0.007212230630426907 0.034296395831185794 0.9909704662137905 -0.08080444679321755 0.0023361383283338364 0.016802483562812113 -0.0019890239165658566 -0.010576050907423078
 0.9909704662137905 -0.08080444679321755 0.00721485692418594 0.034296073233223374 -0.0019896031021087186 -0.010576001442948015 0.002324252847060645 0.016804188751453165
 0.0023361383283338364 0.016802483562812113 -0.0019896031021087186 -0.010576001442948015 0.007212251871064601 0.0342980174862102 0.9909705526801007 -0.08080277130113099
 -0.0019890239165658566 -0.010576050907423078 0.002324252847060645 0.016804188751453165 0.9909705526801007 -0.08080277130113099 0.007214992562240012 0.03429772977357737
0.131304710296 0.007675420339146794 0.03617378264211535 0.9903594354028961 -0.08498163654715403 0.002547676708304873 0.0176408745071247 -0.002167916425558479 -0.011106273065803555
 0.9903594354028961 -0.08498163654715403 0.007678315605022994 0.03617342462830209 -0.0021685533359363436 -0.011106215042591404 0.002534570600911994 0.01764280073135328
 0.002547676708304873 0.0176408745071247 -0.0021685533359363436 -0.011106215042591404 0.007675443679388906 0.03617548108557531 0.9903595306859702 -0.08497987632036332
 -0.002167916425558479 -0.011106273065803555 0.002534570600911994 0.01764280073135328 0.9903595306859702 -0.08497987632036332 0.0076784638196527415 0.0361751622733077
0.1375573155481 0.008050575780016446 0.03781843413555612 0.9898311053997179 -0.08892465921389932 0.002742205410951288 0.018453095298022866 -0.0023283743200492417 -0.011610602885824408
 0.9898311053997179 -0.08892465921389932 0.008053753073059862 0.037818047289067354 -0.002329072575869388 -0.011610536238090928 0.002727844328192726 0.01845523961412674
 0.002742205410951288 0.018453095298022866 -0.002329072575869388 -0.011610536238090928 0.008050600411077474 0.03782020939524339 0.9898312099018531 -0.08892281418005298
 -0.0023283743200492417 -0.011610602885824408 0.002727844328192726 0.01845523961412674 0.9898312099018531 -0.08892281418005298 0.008053915338400417 0.03781986534630204
0.1438099208003 0.008438893150602464 0.03945451442511966 0.9892842523096599 -0.0928578001244485 0.0029445987948087185 0.019262138743778273 -0.002495261918574698 -0.012112036090102791
 0.9892842523096599 -0.0928578001244485 0.008442365575606025 0.039454097091775636 -0.0024960242796428543 -0.012111960038170338 0.002928927614836034 0.019264517516141944
 0.0029445987948087185 0.019262138743778273 -0.0024960242796428543 -0.012111960038170338 0.008438919007012836 0.03945636598367152 0.9892843664895479 -0.09285587013522896
 -0.002495261918574698 -0.012112036090102791 0.002928927614836034 0.019264517516141944 0.9892843664895479 -0.09285587013522896 0.008442542509259963 0.039455995248466616
0.1500625260525 0.008840237253856785 0.04108189009371706 0.9887190154052764 -0.09678096509949868 0.003154788370263152 0.020067925343622155 -0.0026685127756566123 -0.012610497658911509
 0.9887190154052764 -0.09678096509949868 0.008844017918215511 0.04108144054063516 -0.0026693419934509317 -0.012610411392046382 0.003137752289910991 0.020070555535425603
 0.003154788370263152 0.020067925343622155 -0.0026693419934509317 -0.012610411392046382 0.008840264257646198 0.04108381741633977 0.9887191397278041 -0.09677894999974024
 -0.0026685127756566123 -0.012610497658911509 0.003137752289910991 0.020070555535425603 0.9887191397278041 -0.09677894999974024 0.008844210134487615 0.041083418471832514
0.15631513130469998 0.009254471948153013 0.04270043177987644 0.9881355346542665 -0.10069406022133176 0.003372704844521531 0.020870376912147756 -0.0028480596332656444 -0.013105914149737288
