! Created with skrf 1.8.0 (http://scikit-rf.org).
# GHz S RI R 50.0 
!freq ReS11 ImS11 ReS12 ImS12 ReS13 ImS13
! ReS14 ImS14
! ReS21 ImS21 ReS22 ImS22 ReS23 ImS23
! ReS24 ImS24
! ReS31 ImS31 ReS32 ImS32 ReS33 ImS33
! ReS34 ImS34
! ReS41 ImS41 ReS42 ImS42 ReS43 ImS43
! ReS44 ImS44
!
0.0 0.00132691749068 0.0 0.9986730825093 0.0 5.092561648534e-05 0.0 -5.09256164295e-05 6.236589315499304e-21
 0.9986730825093 0.0 0.001326917490688 0.0 -5.092561642973e-05 6.2365893155274706e-21 5.092561648489e-05 0.0
 5.092561648534e-05 0.0 -5.092561642973e-05 6.2365893155274706e-21 0.001326917488204 0.0 0.9986730825068 0.0
 -5.09256164295e-05 6.236589315499304e-21 5.092561648489e-05 0.0 0.9986730825068 0.0 0.001326917488205 0.0
0.005 0.0014271215121776546 0.0010839618176466882 0.9985463835917642 -0.002780288412669736 7.138406318861811e-05 0.0005732301771648008 -6.92565129533331e-05 -0.00035779855473477243
 0.9985463835917642 -0.002780288412669736 0.001427142270509769 0.0010839497425111024 -6.925811618543632e-05 -0.00035779981790718583 7.124599439338858e-05 0.0005732825973057657
 7.138406318861811e-05 0.0005732301771648008 -6.925811618543632e-05 -0.00035779981790718583 0.001427120202293492 0.0010838953703711657 0.9985463832565502 -0.0027803554703972194
 -6.92565129533331e-05 -0.00035779855473477243 7.124599439338858e-05 0.0005732825973057657 0.9985463832565502 -0.0027803554703972194 0.001427142918356036 0.0010838820827238982
0.006252605252188 0.0014532392890512205 0.0013592481015334338 0.9985131736479786 -0.003476066451481236 7.715290054135639e-05 0.0007168191234979562 -7.435825139860344e-05 -0.0004477230432309488
 0.9985131736479786 -0.003476066451481236 0.0014532717378473376 0.0013592327757893084 -7.43607459491569e-05 -0.00044772460181194027 7.693717717165427e-05 0.0007168871625594632
 7.715290054135639e-05 0.0007168191234979562 -7.43607459491569e-05 -0.00044772460181194027 0.0014532373086563431 0.0013591650543416823 0.9985131731913822 -0.00347615026982696
 -7.435825139860344e-05 -0.0004477230432309488 7.693717717165427e-05 0.0007168871625594632 0.9985131731913822 -0.00347615026982696 0.0014532728184005015 0.001359148204774359
0.01250521050438 0.0015897819623484563 0.002747281458199064 0.9983385060314579 -0.006953098600129778 0.00010983317800392419 0.0014340083414077717 -0.00010290901295492197 -0.0008977313085604535
 0.9983385060314579 -0.006953098600129778 0.0015899115254024152 0.002747248490117881 -0.00010291884134310043 -0.0008977342049172858 0.00010897283287216989 0.001434171282087538
 0.00010983317800392419 0.0014340083414077717 -0.00010291884134310043 -0.0008977342049172858 0.001589774604022459 0.0027471156984211135 0.9983385047597344 -0.006953266017512664
 -0.00010290901295492197 -0.0008977313085604535 0.00010897283287216989 0.001434171282087538 0.9983385047597344 -0.006953266017512664 0.0015899164007232135 0.002747079585099591
0.01875781575657 0.001736810761421392 0.004155391965688067 0.9981488862378 -0.010439595096655898 0.00014903563883115516 0.0021520805482669347 -0.00013665889041854107 -0.0013493811482414347
 0.9981488862378 -0.010439595096655898 0.0017371018831304208 0.004155338914581083 -0.00013668080525418836 -0.0013493851254595874 0.00014710274927558212 0.002152369922808289
 0.00014903563883115516 0.0021520805482669347 -0.00013668080525418836 -0.0013493851254595874 0.0017367946458920226 0.004155143763219838 0.9981488838013791 -0.010439846049010998
 -0.00013665889041854107 -0.0013493811482414347 0.00014710274927558212 0.002152369922808289 0.9981488838013791 -0.010439846049010998 0.0017371132789471755 0.004155085799982498
0.02501042100875 0.00189458481473067 0.005581639343747332 0.9979441141788782 -0.01393727987944232 0.00019483107803967573 0.0028710887261740037 -0.00017568672103977556 -0.0018024851125606636
 0.9979441141788782 -0.01393727987944232 0.0018951018008716602 0.0055815636684280094 -0.0001757254176799376 -0.001802489872677434 0.00019139740253755892 0.0028715405501792027
 0.00019483107803967573 0.0028710887261740037 -0.0001757254176799376 -0.001802489872677434 0.0018945565624389454 0.005581308994891007 0.9979441102211573 -0.013937614365841311
 -0.00017568672103977556 -0.0018024851125606636 0.00019139740253755892 0.0028715405501792027 0.9979441102211573 -0.013937614365841311 0.0018951224442583505 0.0055812264496118875
0.03126302626094 0.0020633523381772957 0.007025042138628314 0.9977239784362747 -0.017446911149030898 0.00024729114971155274 0.003591018943526324 -0.00022006941351114802 -0.0022569188440465945
 0.9977239784362747 -0.017446911149030898 0.0020641593907007685 0.007024941202760981 -0.00022012954014550697 -0.002256924047429782 0.00024192771687906337 0.0035916737411481464
 0.00024729114971155274 0.003591018943526324 -0.00022012954014550697 -0.002256924047429782 0.00206330857192318 0.007024629996991533 0.9977239725960568 -0.017447329201059573
 -0.00022006941351114802 -0.0022569188440465945 0.00024192771687906337 0.0035916737411481464 0.9977239725960568 -0.017447329201059573 0.0020641920142605214 0.007024519996975717
0.037515631513130004 0.00224335633952852 0.008484973356167462 0.9974882620874782 -0.020968885683620445 0.0003064875867903883 0.004311831184380097 -0.00026988253251590663 -0.0027125802290293073
 0.9974882620874782 -0.020968885683620445 0.0022445175787330815 0.008484844431492524 -0.0002699686952123315 -0.002712585494179304 0.0002987645021937038 0.004312734035025408
 0.0003064875867903883 0.004311831184380097 -0.0002699686952123315 -0.002712585494179304 0.0022432936893677802 0.008484479826608734 0.9974882540030596 -0.02096938737201639
 -0.00026988253251590663 -0.0027125802290293073 0.0002987645021937038 0.004312734035025408 0.9974882540030596 -0.02096938737201639 0.0022445649274604276 0.00848433936122918
0.043768236765320004 0.00243483683587269 0.009960976511304271 0.9972367450496891 -0.024503422731006093 0.0003724918470251862 0.005033471749981727 -0.0003252005168255966 -0.0031693769830350407
 0.9972367450496891 -0.024503422731006093 0.0024364163185099973 0.009960816779942873 -0.00032531728270033015 -0.003169381886515435 0.0003619781931904105 0.005034672341716472
 0.0003724918470251862 0.005033471749981727 -0.00032531728270033015 -0.003169381886515435 0.002434751934666486 0.009960402073329601 0.9972367343532891 -0.02450400814282481
 -0.0003252005168255966 -0.0031693769830350407 0.0003619781931904105 0.005034672341716472 0.9972367343532891 -0.02450400814282481 0.002436481145283953 0.009960227995837581
0.050020842017509996 0.0026380318881263046 0.01145268964767652 0.9969692052434154 -0.028050639928150246 0.000445374906018505 0.005755878397290575 -0.00038609677090766024 -0.0036272215015627574
 0.9969692052434154 -0.028050639928150246 0.0026400936221300775 0.01145249620406721 -0.00038624867010220127 -0.003627225577989146 0.00043163869116614507 0.005757431083098808
 0.000445374906018505 0.005755878397290575 -0.00038624867010220127 -0.003627225577989146 0.002637921373164171 0.011452034841326073 0.9969691915614695 -0.028051309181609186
 -0.00038609677090766024 -0.0036272215015627574 0.00043163869116614507 0.005757431083098808 0.9969691915614695 -0.028051309181609186 0.0026401786901678087 0.011451823869998537
0.055454545454549996 0.002824312019262837 0.012761554269819776 0.9967235191164173 -0.031143619590474427 0.0005143535779998221 0.006384240902968742 -0.00044360395243430703 -0.004025886797457774
 0.9967235191164173 -0.031143619590474427 0.0028268447991618203 0.012761329102518659 -0.00044379003494679443 -0.0040258897446120425 0.0004974651791307152 0.0063861473767912675
 0.0005143535779998221 0.006384240902968742 -0.00044379003494679443 -0.0040258897446120425 0.0028241765193812054 0.012760830110676753 0.9967235025329242 -0.03114436182125534
 -0.00044360395243430703 -0.004025886797457774 0.0004974651791307152 0.0063861473767912675 0.9967235025329242 -0.03114436182125534 0.002826949711007636 0.012760584308145414
0.056273447269699996 0.0028531781423517697 0.01295980799914295 0.996685419265362 -0.03161059057889767 0.0005252071202955567 0.006478982837518603 -0.0004526436942474173 -0.004086028352851182
 0.996685419265362 -0.03161059057889767 0.0028557861008101804 0.01295957785143171 -0.00045283522136642764 -0.004086031094880346 0.0005078152569821826 0.006480946692900792
 0.0005252071202955567 0.006478982837518603 -0.00045283522136642764 -0.004086031094880346 0.0028530386575135722 0.01295907342961242 0.9966854022194608 -0.03161134381923919
 -0.0004526436942474173 -0.004086028352851182 0.0005078152569821826 0.006480946692900792 0.9966854022194608 -0.03161134381923919 0.002855894185470938 0.012958822148591393
0.06252605252188 0.003080511129837282 0.01448206349528955 0.9963851628242338 -0.035183284088530144 0.0006120581216469156 0.00720271212442798 -0.000524912683502426 -0.004545712882812417
 0.9963851628242338 -0.035183284088530144 0.003083729264163847 0.014481793566442833 -0.000525148298595836 -0.004545713741161702 0.0005905764243410981 0.007205151005725695
 0.0006120581216469156 0.00720271212442798 -0.000525148298595836 -0.004545713741161702 0.0030803393259825895 0.014481249838132502 0.9963851420295547 -0.035184121483485764
 -0.000524912683502426 -0.004545712882812417 0.0005905764243410981 0.007205151005725695 0.9963851420295547 -0.035184121483485764 0.0030838631534482823 0.014480954697763363
0.06877865777407 0.0033202654375068 0.016019212522878457 0.996068211047399 -0.038768698143599595 0.0007059967300011716 0.007926989468667229 -0.0006029741171855277 -0.005006190396099514
 0.996068211047399 -0.038768698143599595 0.003324157689900381 0.0160188996515479 -0.0006032582464581721 -0.005006188779563348 0.0006799899266840537 0.007929972071629994
 0.0007059967300011716 0.007926989468667229 -0.0006032582464581721 -0.005006188779563348 0.003320057972145477 0.016018320519479514 0.9960681861112413 -0.038769619888548795
 -0.0006029741171855277 -0.005006190396099514 0.0006799899266840537 0.007929972071629994 0.9960681861112413 -0.038769619888548795 0.0033243201840393297 0.016017977836415433
0.07503126302626001 0.0035726747978938335 0.017571028176226872 0.9957343387115031 -0.04236678640509331 0.0008070908782292322 0.008651734760233733 -0.0006868973292712526 -0.005467375631158413
 0.9957343387115031 -0.04236678640509331 0.003577305113415571 0.017570669117152937 -0.0006872343655920259 -0.00546737090663605 0.0007761226316600657 0.008655334678701918
 0.0008070908782292322 0.008651734760233733 -0.0006872343655920259 -0.00546737090663605 0.003572428337220788 0.017570058640733965 0.9957343092332258 -0.042367792716591184
 -0.0006868973292712526 -0.005467375631158413 0.0007761226316600657 0.008655334678701918 0.9957343092332258 -0.042367792716591184 0.003577499026696254 0.017569664597738992
0.08128386827845 0.0038379721334627203 0.019137295089674156 0.9953833204286692 -0.04597748362116248 0.0009154075420864047 0.009376864913160648 -0.0007767505772036084 -0.00592918241542658
 0.9953833204286692 -0.04597748362116248 0.0038434044724378483 0.019136886513932385 -0.0007771448804951748 -0.005929173907945603 0.0008790404791207898 0.009381160697595104
 0.0009154075420864047 0.009376864913160648 -0.0007771448804951748 -0.005929173907945603 0.003837683352894034 0.01913624890618886 0.995383285998986 -0.04597857474038047
 -0.0007767505772036084 -0.00592918241542658 0.0008790404791207898 0.009381160697595104 0.995383285998986 -0.04597857474038047 0.0038436326333719513 0.019135799551552306
0.08753647353064001 0.004116389567393666 0.020717805874754507 0.9950149308028543 -0.049600709137891406 0.001031012675949059 0.010102294104950955 -0.0008726010039157215 -0.006391523428115818
 0.9950149308028543 -0.049600709137891406 0.004122687917354064 0.020717344369538915 -0.0008730569013989453 -0.00639151042086858 0.0009888084229336355 0.010107369320761768
 0.001031012675949059 0.010102294104950955 -0.0008730569013989453 -0.00639151042086858 0.004116055153054706 0.02071668399674302 0.9950148910029856 -0.04960188533161904
 -0.0008726010039157215 -0.006391523428115818 0.0009888084229336355 0.010107369320761768 0.9950148910029856 -0.04960188533161904 0.004122953169968736 0.020716175243396754
0.09378907878283 0.004408158413897837 0.02231235856199157 0.9946289445668676 -0.05323636940749006 0.00115397115034615 0.010827933951154091 -0.0009745145973131077 -0.00685431003035184
 0.9946289445668676 -0.05323636940749006 0.004415386801730216 0.022311840630155885 -0.0009750363836762232 -0.006854291764735543 0.0011054903737313228 0.010833877236705385
 0.00115397115034615 0.010827933951154091 -0.0009750363836762232 -0.006854291764735543 0.004407775062809052 0.02231116201749785 0.9946288989672748 -0.05323763096342511
 -0.0009745145973131077 -0.00685431003035184 0.0011054903737313228 0.010833877236705385 0.9946288989672748 -0.05323763096342511 0.004415692005358059 0.022310589641841804
0.100041684035 0.004713509150634079 0.023920754731012493 0.9942251367046736 -0.05688435981112898 0.0012843466918957553 0.011553693631498477 -0.0010825561467109198 -0.007317452146282715
 0.9942251367046736 -0.05688435981112898 0.004721731654608767 0.0239201767902721 -0.0010831480842128393 -0.007317427821933794 0.0012291491431683293 0.011560598755712291
 0.0012843466918957553 0.011553693631498477 -0.0010831480842128393 -0.007317427821933794 0.004713073572674866 0.023919484617325622 0.9942250848651791 -0.05688570704367043
 -0.0010825561467109198 -0.007317452146282715 0.0012291491431683293 0.011560598755712291 0.9942250848651791 -0.05688570704367043 0.004722079685529308 0.02391884425764665
0.1059090909091 0.005012605551617293 0.02544247957038796 0.9938297971622304 -0.06031872429209271 0.0014134917618071289 0.012234768150575974 -0.0011895716120869483 -0.007752303658092988
 0.9938297971622304 -0.06031872429209271 0.0050218192632106445 0.025441841982692715 -0.001190233226633852 -0.007752272883189826 0.0013515900615705902 0.012242665760584973
 0.0014134917618071289 0.012234768150575974 -0.001190233226633852 -0.007752272883189826 0.005012117984018004 0.025441141481410443 0.9938297390560582 -0.06032015223105916
 -0.0011895716120869483 -0.007752303658092988 0.0013515900615705902 0.012242665760584973 0.9938297390560582 -0.06032015223105916 0.005022210114177873 0.025440433234301483
0.1062942892872 0.005032671381461946 0.025542798100980136 0.993803282566699 -0.06054456602416353 0.0014222018244397982 0.012279479989025352 -0.0011967891972502623 -0.007780858173818463
 0.993803282566699 -0.06054456602416353 0.005041952143587164 0.025542156482698655 -0.001197455515783738 -0.0077808269486662205 0.0013598463889466883 0.012287445908501117
 0.0014222018244397982 0.012279479989025352 -0.001197455515783738 -0.0077808269486662205 0.0050321803001287645 0.02554145558802994 0.9938032240349343 -0.060545999271297314
 -0.0011967891972502623 -0.007780858173818463 0.0013598463889466883 0.012287445908501117 0.9938032240349343 -0.060545999271297314 0.005042345895192758 0.025540742742585193
0.11254689453939999 0.005365873789663222 0.027178293451583263 0.9933631579762914 -0.06421686505348694 0.001567597810922965 0.013005197607238167 -0.0013172760029733085 -0.008244434920085126
 0.9933631579762914 -0.06421686505348694 0.005376277027707888 0.027177584399245218 -0.0013180209000166411 -0.0082443959103972 0.0014976425599108787 0.013014328522846529
 0.001567597810922965 0.013005197607238167 -0.0013180209000166411 -0.0082443959103972 0.0053653239431320455 0.027176879782979984 0.9933630922875362 -0.06421838467620614
 -0.0013172760029733085 -0.008244434920085126 0.0014976425599108787 0.013014328522846529 0.9933630922875362 -0.06421838467620614 0.005376719411517701 0.027176089807810583
0.11879949979160001 0.005713344083222582 0.02882704577964197 0.9929045393329506 -0.0679011260425659 0.0017205945957877494 0.013730748873941214 -0.001444077478432929 -0.00870808755287932
 0.9929045393329506 -0.0679011260425659 0.00572493410356504 0.028826265446944884 -0.0014449051190698358 -0.008708039833319848 0.0016425968415999309 0.01374115428684184
 0.0017205945957877494 0.013730748873941214 -0.0014449051190698358 -0.008708039833319848 0.005712732225859362 0.028825562272258697 0.9929044660087954 -0.06790273242549687
 -0.001444077478432929 -0.00870808755287932 0.0016425968415999309 0.01374115428684184 0.9929044660087954 -0.06790273242549687 0.0057254280496618175 0.028824690378500474
0.1250521050438 0.006075308936534651 0.030488859635228238 0.9924272037114963 -0.07159721089981143 0.001881250748028701 0.014456034033507455 -0.0015772531491303145 -0.009171719566548686
 0.9924272037114963 -0.07159721089981143 0.006088150146148523 0.030488004083822587 -0.0015781676659090919 -0.009171662170239634 0.0017947671020116806 0.014467828800524421
 0.001881250748028701 0.014456034033507455 -0.0015781676659090919 -0.009171662170239634 0.0060746318396070215 0.03048730767946568 0.9924271222590242 -0.07159890445133126
 -0.0015772531491303145 -0.009171719566548686 0.0017947671020116806 0.014467828800524421 0.9924271222590242 -0.07159890445133126 0.0060886986040239455 0.0304863489303379
0.131304710296 0.006451993925756831 0.03216353858439721 0.9919309289587294 -0.07530497480371731 0.002049623404247809 0.01518095123200988 -0.0017168611011891604 -0.009635232757962714
 0.9919309289587294 -0.07530497480371731 0.006466150845089934 0.03216260378115726 -0.0017178665940690183 -0.009635164676545646 0.0019542098371456286 0.015194255620279547
 0.002049623404247809 0.01518095123200988 -0.0017178665940690183 -0.009635164676545646 0.006451248379107928 0.03216191964335296 0.9919308388702287 -0.07530675595691556
 -0.0017168611011891604 -0.009635232757962714 0.0019542098371456286 0.015194255620279547 0.9919308388702287 -0.07530675595691556 0.00646675678442943 0.03216086895081341
0.1375573155481 0.006752056220811567 0.033631597024940965 0.9915070855028348 -0.07880491462291396 0.0022035016473812724 0.015882827725159386 -0.0018408055582191671 -0.010075889868747398
 0.9915070855028348 -0.07880491462291396 0.006767599206536163 0.033630600715848794 -0.0018419081521816717 -0.010075811143000334 0.0020989402946387063 0.015897611716797214
 0.0022035016473812724 0.015882827725159386 -0.0018419081521816717 -0.010075811143000334 0.006751239567415389 0.03362991231302119 0.9915069863813818 -0.0788067836504508
 -0.0018408055582191671 -0.010075889868747398 0.0020989402946387063 0.015897611716797214 0.9915069863813818 -0.0788067836504508 0.006768264852716325 0.03362878663346783
0.1438099208003 0.007062486822937749 0.03509274430680878 0.9910686662907624 -0.08229682587025655 0.0023636167684735103 0.016582344719408185 -0.001969725480706337 -0.01051443645941673
 0.9910686662907624 -0.08229682587025655 0.007079481471816943 0.03509168382416734 -0.001970929593690076 -0.010514346108243552 0.002249503634775021 0.016598717180514203
 0.0023636167684735103 0.016582344719408185 -0.001970929593690076 -0.010514346108243552 0.00706159597926199 0.03509099533491219 0.9910685576289993 -0.08229878320052893
 -0.001969725480706337 -0.01051443645941673 0.002249503634775021 0.016598717180514203 0.9910685576289993 -0.08229878320052893 0.007080209689040923 0.03508979094402228
0.1500625260525 0.007383186930831331 0.036546883167724496 0.9906157733498397 -0.08578064719447856 0.002529920867770523 0.017279446327098106 -0.0021035752368822797 -0.010950820756867784
 0.9906157733498397 -0.08578064719447856 0.0074016989895068445 0.03654575566812831 -0.0021048852800162627 -0.010950717759959159 0.0024058539808700058 0.01729752007027123
 0.002529920867770523 0.017279446327098106 -0.0021048852800162627 -0.010950717759959159 0.007382218837901101 0.036545071506883506 0.9906156546273516 -0.08578269327303958
 -0.0021035752368822797 -0.010950820756867784 0.0024058539808700058 0.01729752007027123 0.9906156546273516 -0.08578269327303958 0.007402492653003103 0.036543784462894684
0.15631513130469998 0.007714057165964472 0.03799391941899874 0.9901485090874307 -0.08925631697775828 0.0027023655547108766 0.01797407747140743 -0.002242308701971815 -0.011384991998894383
