! Created with skrf 1.8.0 (http://scikit-rf.org).
# GHz S RI R 50.0 
!freq ReS11 ImS11 ReS12 ImS12 ReS13 ImS13
! ReS14 ImS14
! ReS21 ImS21 ReS22 ImS22 ReS23 ImS23
! ReS24 ImS24
! ReS31 ImS31 ReS32 ImS32 ReS33 ImS33
! ReS34 ImS34
! ReS41 ImS41 ReS42 ImS42 ReS43 ImS43
! ReS44 ImS44
!
0.0 0.001290399989195 0.0 0.9987096000023 0.0 4.925722047303e-05 0.0 -4.925722058395e-05 6.0322697523029484e-21
 0.9987096000023 0.0 0.001290399989213 0.0 -4.925722058441e-05 6.032269752359282e-21 4.925722047326e-05 0.0
 4.925722047303e-05 0.0 -4.925722058441e-05 6.032269752359282e-21 0.001290399993474 0.0 0.9987096000065 0.0
 -4.925722058395e-05 6.0322697523029484e-21 4.925722047326e-05 0.0 0.9987096000065 0.0 0.00129039999347 0.0
0.005 0.0013877260831334137 0.00105775690361464 0.998586583871501 -0.0027037527113928823 6.834568307710403e-05 0.0005326418358410669 -6.654663720100158e-05 -0.00033619161144649555
 0.998586583871501 -0.0027037527113928823 0.0013877189945602272 0.001057760982218208 -6.654632233482639e-05 -0.0003361913213354627 6.840191279707034e-05 0.0005326206210167661
 6.834568307710403e-05 0.0005326418358410669 -6.654632233482639e-05 -0.0003361913213354627 0.0013877268265607633 0.0010578236843772795 0.9985865842053836 -0.002703685646197848
 -6.654663720100158e-05 -0.00033619161144649555 6.840191279707034e-05 0.0005326206210167661 0.9985865842053836 -0.002703685646197848 0.0013877189121728674 0.0010578283253166358
0.006252605252188 0.0014130702475630267 0.0013263750825609308 0.9985543806020029 -0.003380379892589377 7.368263127297141e-05 0.0006660774142382436 -7.134238731783404e-05 -0.00042068230041270873
 0.9985543806020029 -0.003380379892589377 0.0014130591671026938 0.0013263802216173443 -7.134189773921522e-05 -0.0004206819415873796 7.37704881448941e-05 0.0006660498603717899
 7.368263127297141e-05 0.0006660774142382436 -7.134189773921522e-05 -0.0004206819415873796 0.0014130713460041946 0.0013264585373035953 0.9985543810599484 -0.003380296074218184
 -7.134238731783404e-05 -0.00042068230041270873 7.37704881448941e-05 0.0006660498603717899 0.9985543810599484 -0.003380296074218184 0.0014130589739115228 0.0013264643891924726
0.01250521050438 0.0015454303694306386 0.0026807447046223037 0.9983852461405147 -0.006761721816275424 0.00010367427262339269 0.001332614446687946 -9.809277949549912e-05 -0.0008435082521132579
 0.9983852461405147 -0.006761721816275424 0.001545386131763011 0.0026807553815181065 -9.809085465424063e-05 -0.000843507575335238 0.00010402471182039511 0.00133254830708882
 0.00010367427262339269 0.001332614446687946 -9.809085465424063e-05 -0.000843507575335238 0.0015454341781799249 0.0026809112815408846 0.9983852473883099 -0.006761554406887666
 -9.809277949549912e-05 -0.0008435082521132579 0.00010402471182039511 0.00133254830708882 0.9983852473883099 -0.006761554406887666 0.0015453847703869067 0.002680923490316261
0.01875781575657 0.0016877310391501905 0.004054651228561267 0.9982020137266702 -0.010152291899124024 0.0001392965518124696 0.002000070280733128 -0.00012958232084373924 -0.0012679059729483906
 0.9982020137266702 -0.010152291899124024 0.001687631651826136 0.0040546678555236715 -0.00012957803462960212 -0.0012679050242955336 0.0001400839802884671 0.00199995267041324
 0.0001392965518124696 0.002000070280733128 -0.00012957803462960212 -0.0012679050242955336 0.001687739181229785 0.0040549006901158 0.9982020161083578 -0.010152040966702204
 -0.00012958232084373924 -0.0012679059729483906 0.0001400839802884671 0.00199995267041324 0.9982020161083578 -0.010152040966702204 0.0016876281511329497 0.0040549197984603704
0.02501042100875 0.0018402175378793477 0.005446214901714145 0.9980044943578471 -0.01355377209733309 0.00018061440409776095 0.002668495190442657 -0.00016588318151578994 -0.0016937090728192244
 0.9980044943578471 -0.01355377209733309 0.0018400410630072907 0.0054462378940932765 -0.00016587562086066174 -0.0016937079046645904 0.00018201342848292334 0.0026683114407463865
 0.00018061440409776095 0.002668495190442657 -0.00016587562086066174 -0.0016937079046645904 0.0018402316369377516 0.005446546998944553 0.9980044982190177 -0.013553437657159344
 -0.00016588318151578994 -0.0016937090728192244 0.00018201342848292334 0.0026683114407463865 0.9980044982190177 -0.013553437657159344 0.0018400344424939683 0.005446573576071881
0.03126302626094 0.0020031247850240425 0.006854488094556688 0.9977924880990757 -0.016966905921808068 0.00022769328017845813 0.003337880010629196 -0.00020706588699158948 -0.00212080722358752
 0.9977924880990757 -0.016966905921808068 0.002002849326591813 0.0068545178678122215 -0.00020705414963500534 -0.0021208058946853917 0.00022987887204037937 0.0033376136575912836
 0.00022769328017845813 0.003337880010629196 -0.00020705414963500534 -0.0021208058946853917 0.002003146462918197 0.0068549025423634965 0.997792493784978 -0.016966487960744705
 -0.00020706588699158948 -0.00212080722358752 0.00022987887204037937 0.0033376136575912836 0.997792493784978 -0.016966487960744705 0.002002838593123289 0.0068549371813983
0.037515631513130004 0.002176682814488882 0.008278867865723365 0.9975657896741891 -0.020392085822071852 0.00028059860866000094 0.004008192414237035 -0.0002531998218535246 -0.0025491098766091424
 0.9975657896741891 -0.020392085822071852 0.0021762865095241177 0.008278904833608516 -0.00025318301512369513 -0.0025491084521210377 0.0002837461823716394 0.004007825178850361
 0.00028059860866000094 0.004008192414237035 -0.00025318301512369513 -0.0025491084521210377 0.0021767136941466705 0.008279364344343032 0.997565797533467 -0.020391584296724247
 -0.0002531998218535246 -0.0025491098766091424 0.0002837461823716394 0.004007825178850361 0.997565797533467 -0.020391584296724247 0.0021762706602506936 0.008279407660663528
0.043768236765320004 0.0023611188994901258 0.009718917219973174 0.9973241907052887 -0.023829531871501865 0.0003393955430080183 0.0046793879627998955 -0.00030435342305616165 -0.0029785352029259604
 0.9973241907052887 -0.023829531871501865 0.0023605799115878102 0.00971896179292838 -0.00030433066319261097 -0.0029785337543898885 0.00034368099691325693 0.00467889972871963
 0.0003393955430080183 0.0046793879627998955 -0.00030433066319261097 -0.0029785337543898885 0.0023611606031335923 0.009719495363862105 0.9973242010893164 -0.02382894671882081
 -0.00030435342305616165 -0.0029785352029259604 0.00034368099691325693 0.00467889972871963 0.9973242010893164 -0.02382894671882081 0.0023605579315074884 0.009719547994017039
0.050020842017509996 0.0025566585461615993 0.011174291220414068 0.9970674808224744 -0.027279365596188952 0.00040414881856648245 0.0053514146447901 -0.00036059425391665105 -0.003409005545064554
 0.9970674808224744 -0.027279365596188952 0.002555955059076386 0.011174343804375677 -0.00036056466552681065 -0.003409004150374431 0.0004097485559839623 0.005350783434932629
 0.00040414881856648245 0.0053514146447901 -0.00036056466552681065 -0.003409004150374431 0.0025567126958879263 0.01117495062081485 0.9970674940870633 -0.027278696730493764
 -0.00036059425391665105 -0.003409005545064554 0.0004097485559839623 0.005350783434932629 0.9970674940870633 -0.027278696730493764 0.0025559259220202025 0.011175013221639048
0.055454545454549996 0.002735780072584414 0.012451275254249314 0.996831955837111 -0.030287483069918752 0.0004653085391923759 0.005936056751691466 -0.0004136525320670307 -0.003783887151347352
 0.996831955837111 -0.030287483069918752 0.002734915924847314 0.012451335125294092 -0.0004136163048036623 -0.003783885871610919 0.00047219408941820895 0.0059352819803501055
 0.0004653085391923759 0.005936056751691466 -0.0004136163048036623 -0.003783885871610919 0.002735846354380318 0.012452004903596908 0.9968319718970435 -0.030286741367432698
 -0.0004136525320670307 -0.003783887151347352 0.00047219408941820895 0.0059352819803501055 0.9968319718970435 -0.030286741367432698 0.0027348797248054105 0.012452076717899895
0.056273447269699996 0.0027635260153161634 0.012644700726713021 0.9967954483026937 -0.03074164617782814 0.00047492264746122045 0.006024215118876548 -0.0004219890345908434 -0.003840445164587054
 0.9967954483026937 -0.03074164617782814 0.0027626362275804646 0.012644761721922571 -0.00042195175032785714 -0.00384044390794624 0.000482013586297749 0.006023417071512262
 0.00047492264746122045 0.006024215118876548 -0.00042195175032785714 -0.00384044390794624 0.0027635942317105807 0.01264544093117495 0.996795464807849 -0.030740893490769455
 -0.0004219890345908434 -0.003840445164587054 0.000482013586297749 0.006023417071512262 0.996795464807849 -0.030740893490769455 0.002762598894579653 0.012645514179095898
0.06252605252188 0.002981944614097032 0.014129892461857098 0.9965078804820212 -0.03421639032846085 0.0005517806404436254 0.006697727935908387 -0.000488603642580802 -0.004272779012130651
 0.9965078804820212 -0.03421639032846085 0.0029808467337277995 0.014129962261919609 -0.0004885578028364526 -0.004272777984026198 0.0005605402152670709 0.006696737280448258
 0.0005517806404436254 0.006697727935908387 -0.0004885578028364526 -0.004272777984026198 0.0029820285159636 0.014130712967746364 0.9965079005925838 -0.034215553695184045
 -0.000488603642580802 -0.004272779012130651 0.0005605402152670709 0.006696737280448258 0.9965079005925838 -0.034215553695184045 0.002980800153098175 0.014130797558189316
0.06877865777407 0.003212136861241794 0.015629637122023424 0.9962045640420999 -0.03770358412345532 0.0006347857410191309 0.007371888261270639 -0.000560503098986802 -0.0047059319985555716
 0.9962045640420999 -0.03770358412345532 0.0032108091005238096 0.015629716113029633 -0.0005604478517028848 -0.004705931295714375 0.0006453918990759977 0.007370677293947968
 0.0006347857410191309 0.007371888261270639 -0.0005604478517028848 -0.004705931295714375 0.003212238064874011 0.015630537382526663 0.9962045881288578 -0.03770266339607889
 -0.000560503098986802 -0.0047059319985555716 0.0006453918990759977 0.007370677293947968 0.9962045881288578 -0.03770266339607889 0.003210752207096557 0.01563063402948675
0.07503126302626001 0.0034543245786046784 0.017143721842150798 0.995885285226501 -0.041203190480196855 0.0007240001646162765 0.008046628341345365 -0.0006377515472809281 -0.005139828523648302
 0.995885285226501 -0.041203190480196855 0.0034527451490962663 0.017143810401954004 -0.0006376860478200564 -0.005139828249004977 0.0007366313584055226 0.008045167400845325
 0.0007240001646162765 0.008046628341345365 -0.0006376860478200564 -0.005139828249004977 0.0034544446972484834 0.017144701258915856 0.995885313666255 -0.041202185494813144
 -0.0006377515472809281 -0.005139828523648302 0.0007366313584055226 0.008045167400845325 0.995885313666255 -0.041202185494813144 0.003452676863501009 0.01714481069468823
0.08128386827845 0.003708728938528105 0.018671945176365046 0.9955498300142629 -0.044715154123545375 0.0008194853438402494 0.008721877806838325 -0.0007204122248487787 -0.00557439216977321
 0.9955498300142629 -0.044715154123545375 0.0037068760458324455 0.018672043674013566 -0.000720335635770227 -0.005574392432423759 0.0008343205204299921 0.008720135249947903
 0.0008194853438402494 0.008721877806838325 -0.000720335635770227 -0.005574392432423759 0.0037088695812835027 0.018673003103655123 0.9955498631905884 -0.044714064695673024
 -0.0007204122248487787 -0.00557439216977321 0.0008343205204299921 0.008720135249947903 0.9955498631905884 -0.044714064695673024 0.0037067952742802974 0.01867312607863201
0.08753647353064001 0.003975570477677788 0.02021411362564277 0.9951979842624613 -0.04823940500620862 0.0009213018763091113 0.009397563885415516 -0.0008085474303420015 -0.006009545488119854
 0.9951979842624613 -0.04823940500620862 0.003973422316660556 0.020214222420852277 -0.0008084589213639724 -0.006009546403291279 0.0009385204641714752 0.009395506062723423
 0.0009213018763091113 0.009397563885415516 -0.0008084589213639724 -0.006009546403291279 0.003975733248846161 0.020215249371576264 0.9951980225660061 -0.04823823092924746
 -0.0008085474303420015 -0.006009545488119854 0.0009385204641714752 0.009395506062723423 0.9951980225660061 -0.04823823092924746 0.003973327949876285 0.020215386654190277
0.09378907878283 0.0042550690928062004 0.02177003916480082 0.9948295338328285 -0.05177586073160799 0.0010295094736985312 0.010073611551074904 -0.0009022184887307787 -0.0064452098501819825
 0.9948295338328285 -0.05177586073160799 0.00425260384225837 0.021770158607617343 -0.0009021172366183575 -0.006445211539187839 0.0010492913673858272 0.010071202782814861
 0.0010295094736985312 0.010073611551074904 -0.0009021172366183575 -0.006445211539187839 0.004255255591490956 0.02177125198332516 0.9948295776624628 -0.051774601784482684
 -0.0009022184887307787 -0.0064452098501819825 0.0010492913673858272 0.010071202782814861 0.9948295776624628 -0.051774601784482684 0.004252494755380699 0.021771404360158286
0.100041684035 0.004547444020068739 0.023339537408358427 0.9944442647041274 -0.0553244283402379 0.0011441669124250312 0.0107499436392154 -0.00100148571335725 -0.006881305335690544
 0.9944442647041274 -0.0553244283402379 0.0045446398377133185 0.02333966783897643 -0.0010013709018107497 -0.0068813079258949585 0.0011666924557402602 0.01074714619117982
 0.0011441669124250312 0.0107499436392154 -0.0010013709018107497 -0.0068813079258949585 0.004547655838924736 0.0233408265061292 0.9944443144670794 -0.055323084280292756
 -0.00100148571335725 -0.006881305335690544 0.0011666924557402602 0.01074714619117982 0.9944443144670794 -0.055323084280292756 0.004544514889527196 0.023340994782097283
0.1059090909091 0.004833712430033703 0.024824527025576096 0.994067243614197 -0.058665307364834995 0.00125767831102432 0.011384797707603523 -0.001099779931068185 -0.007290854403793336
 0.994067243614197 -0.058665307364834995 0.004830570307499821 0.024824668067602862 -0.0010996516591584896 -0.0072908579608694625 0.0012829428830667116 0.011381599354913768
 0.00125767831102432 0.011384797707603523 -0.0010996516591584896 -0.0072908579608694625 0.004833949451413818 0.024825886935602 0.9940672993235986 -0.05866388319934062
 -0.001099779931068185 -0.007290854403793336 0.0012829428830667116 0.011381599354913768 0.9940672993235986 -0.05866388319934062 0.0048304294221059455 0.0248260708799214
0.1062942892872 0.004852913803582035 0.02492242624922211 0.9940419630759599 -0.058885005625454276 0.0012653319847354368 0.011426480929424956 -0.0011064083666907257 -0.007317750654858632
 0.9940419630759599 -0.058885005625454276 0.004849748820843303 0.02492256799786231 -0.0011062791862992921 -0.007317754279638964 0.0012907819521729004 0.011423254989077048
 0.0012653319847354368 0.011426480929424956 -0.0011062791862992921 -0.007317754279638964 0.004853152528156421 0.024923790781892694 0.9940420191887632 -0.05888357619179159
 -0.0011064083666907257 -0.007317750654858632 0.0012907819521729004 0.011423254989077048 0.9940420191887632 -0.05888357619179159 0.004849606853150129 0.02492397578058226
0.11254689453939999 0.005171696255346432 0.026518524806227184 0.9936224154660608 -0.06245748214281076 0.0013930614504147991 0.01210314221371429 -0.001217044619290319 -0.007754463087513869
 0.9936224154660608 -0.06245748214281076 0.0051681485723989035 0.02651867819319705 -0.001216900267494884 -0.007754467886217405 0.0014216170274600406 0.012099445866463878
 0.0013930614504147991 0.01210314221371429 -0.001216900267494884 -0.007754467886217405 0.0051719634634249155 0.026519963879383993 0.9936224783549253 -0.06245596705516941
 -0.001217044619290319 -0.007754463087513869 0.0014216170274600406 0.012099445866463878 0.9936224783549253 -0.06245596705516941 0.005167988409390828 0.026520166443573426
0.11879949979160001 0.005504008409559127 0.028127652602273772 0.993185408803761 -0.06604173999131964 0.0015274109885465312 0.012779844349970737 -0.0013334515080042483 -0.008191358439184405
 0.993185408803761 -0.06604173999131964 0.005500056089608301 0.02812781793819521 -0.0013332911889769152 -0.008191364557095852 0.0015592537506211247 0.012775633555686358
 0.0015274109885465312 0.012779844349970737 -0.0013332911889769152 -0.008191364557095852 0.0055043056696212145 0.028129165270345327 0.993185478904928 -0.06604013895103025
 -0.0013334515080042483 -0.008191358439184405 0.0015592537506211247 0.012775633555686358 0.993185478904928 -0.06604013895103025 0.0054998765371825535 0.028129386262552764
0.1250521050438 0.005850066470054745 0.029749628915176532 0.9927307305191581 -0.06963765442475292 0.0016684351497147252 0.013456502306936024 -0.001455684892626264 -0.008628351008097328
 0.9927307305191581 -0.06963765442475292 0.005845687534318748 0.029749806501274925 -0.0014555078172925396 -0.008628358596394964 0.0017037470401327286 0.013451730876603778
 0.0016684351497147252 0.013456502306936024 -0.0014555078172925396 -0.008628358596394964 0.005850395341468388 0.029751214181706332 0.9927308082803498 -0.06963596711419107
 -0.001455684892626264 -0.008628351008097328 0.0017037470401327286 0.013451730876603778 0.9927308082803498 -0.06963596711419107 0.005845487379874907 0.029751454485054275
0.131304710296 0.006210085755104574 0.03138427225642337 0.9922581686310298 -0.07324509433759892 0.0018161873078912166 0.01413302920167716 -0.0015837994122795264 -0.00906535356197511
 0.9922581686310298 -0.07324509433759892 0.0062052581773949815 0.03138446238509126 -0.0015836047982394023 -0.009065362777695936 0.0018551506147222877 0.014127648774364489
 0.0018161873078912166 0.01413302920167716 -0.0015836047982394023 -0.009065362777695936 0.006210447786335673 0.03138592907426518 0.992258254511395 -0.0732433204198315
 -0.0015837994122795264 -0.00906535356197511 0.0018551506147222877 0.014127648774364489 0.992258254511395 -0.0732433204198315 0.006205036188713199 0.03138618959333984
0.1375573155481 0.00649586693531143 0.032818214005483806 0.9918559520282562 -0.07665066622329915 0.0019501871675083227 0.01478749202370813 -0.0016972687682986279 -0.009480473078017266
 0.9918559520282562 -0.07665066622329915 0.006490565566641599 0.03281841340054052 -0.0016970553208837638 -0.00948048390070542 0.001992886662950988 0.014781515629293444
 0.0019501871675083227 0.01478749202370813 -0.0016970553208837638 -0.00948048390070542 0.006496263015323462 0.03281994170816462 0.9918560463982067 -0.07664880549141721
 -0.0016972687682986279 -0.009480473078017266 0.001992886662950988 0.014781515629293444 0.9918560463982067 -0.07664880549141721 0.006490321324671356 0.032820219210610714
0.1438099208003 0.0067915018269730214 0.03424558729941246 0.9914399708918846 -0.0800485956546588 0.0020895881369856505 0.015439894202048951 -0.0018152863649414305 -0.009893679962812532
 0.9914399708918846 -0.0800485956546588 0.006785704057318413 0.03424579613531825 -0.0018150532191617485 -0.009893692546838242 0.0021361889430997175 0.015433278206344991
 0.0020895881369856505 0.015439894202048951 -0.0018150532191617485 -0.009893692546838242 0.00679193336975499 0.03424738482579886 0.9914400742096613 -0.08004664777607179
 -0.0018152863649414305 -0.009893679962812532 0.0021361889430997175 0.015433278206344991 0.9914400742096613 -0.08004664777607179 0.006785436448846154 0.034247680055243306
0.1500625260525 0.007096898962409479 0.03566630204607361 0.9910103198491086 -0.08343882786962377 0.0022343488887420584 0.01609018881638004 -0.0019378115595611628 -0.010304928285514216
 0.9910103198491086 -0.08343882786962377 0.007090582109712039 0.03566652053025375 -0.001937557850722257 -0.010304942791461876 0.002285015319445919 0.01608288800923551
 0.0022343488887420584 0.01609018881638004 -0.001937557850722257 -0.010304942791461876 0.007097367364002961 0.03566816829332542 0.9910104325826574 -0.08343679249811271
 -0.0019378115595611628 -0.010304928285514216 0.002285015319445919 0.01608288800923551 0.9910104325826574 -0.08343679249811271 0.007090290012177536 0.03566848204786785
0.15631513130469998 0.007411966372725904 0.037080271034751346 0.9905670938458667 -0.086821307740717 0.0023844276907864083 0.016738329623965324 -0.002064803287130425 -0.010714172997772841
