! Created with skrf 1.8.0 (http://scikit-rf.org).
# GHz S RI R 50.0 
!freq ReS11 ImS11 ReS12 ImS12 ReS13 ImS13
! ReS14 ImS14
! ReS21 ImS21 ReS22 ImS22 ReS23 ImS23
! ReS24 ImS24
! ReS31 ImS31 ReS32 ImS32 ReS33 ImS33
! ReS34 ImS34
! ReS41 ImS41 ReS42 ImS42 ReS43 ImS43
! ReS44 ImS44
!
0.0 0.001364962247692 0.0 0.9986350377031 0.0 5.238966462659e-05 0.0 -5.238966465355e-05 6.415883512637324e-21
 0.9986350377031 0.0 0.001364962247692 0.0 -5.238966465429e-05 6.415883512727948e-21 5.238966462573e-05 0.0
 5.238966462659e-05 0.0 -5.238966465429e-05 6.415883512727948e-21 0.001364962272307 0.0 0.9986350377277 0.0
 -5.238966465355e-05 6.415883512637324e-21 5.238966462573e-05 0.0 0.9986350377277 0.0 0.00136496227227 0.0
0.005 0.00146813425988401 0.0011162879603721781 0.9985045892020341 -0.0028598011558670375 7.323064786037294e-05 0.0005817724490954916 -7.114886519551967e-05 -0.0003644590256883002
 0.9985045892020341 -0.0028598011558670375 0.0014681352076604322 0.001116287376818904 -7.11494975973831e-05 -0.0003644594438484154 7.321090431537375e-05 0.0005817797230868066
 7.323064786037294e-05 0.0005817724490954916 -7.11494975973831e-05 -0.0003644594438484154 0.001468133945796649 0.0011162208358340053 0.9985045888656434 -0.0028598682236858383
 -7.114886519551967e-05 -0.0003644590256883002 7.321090431537375e-05 0.0005817797230868066 0.9985045888656434 -0.0028598682236858383 0.0014681348541553656 0.0011162203705332406
0.006252605252188 0.00149505742498686 0.0013997735312887185 0.9984703560287286 -0.0035754725360481535 7.910482937584192e-05 0.0007275041994529581 -7.638189477794552e-05 -0.0004560539968752149
 0.9984703560287286 -0.0035754725360481535 0.0014950589073668766 0.0013997728476133238 -7.638287939680704e-05 -0.0004560545111754375 7.907397875502364e-05 0.0007275136778112049
 7.910482937584192e-05 0.0007275041994529581 -7.638287939680704e-05 -0.0004560545111754375 0.0014950569946844913 0.001399689630202498 0.9984703555631452 -0.0035755563626067135
 -7.638189477794552e-05 -0.0004560539968752149 7.907397875502364e-05 0.0007275136778112049 0.9984703555631452 -0.0035755563626067135 0.0014950584146433054 0.001399689106290827
0.01250521050438 0.001635996575157165 0.0028290973735654507 0.9982900738209267 -0.007151884085815977 0.00011236967585453863 0.0014554055417556142 -0.00010573316412799525 -0.0009144102594697519
 0.9982900738209267 -0.007151884085815977 0.0016360025050876326 0.0028290964799589525 -0.00010573705123746578 -0.0009144111960766229 0.0001122465563521894 0.001455428603458177
 0.00011236967585453863 0.0014554055417556142 -0.00010573705123746578 -0.0009144111960766229 0.0016359954402925118 0.0028289297993247353 0.9982900725354117 -0.007152051488975383
 -0.00010573316412799525 -0.0009144102594697519 0.0001122465563521894 0.001455428603458177 0.9982900725354117 -0.007152051488975383 0.0016360011062581349 0.0028289293474439417
0.01875781575657 0.001788059446267559 0.004279010812193415 0.9980939870124802 -0.010737968817101125 0.00015225699695921446 0.002184214585443207 -0.0001405279192885939 -0.0013744205665920993
 0.9980939870124802 -0.010737968817101125 0.0017880727902277267 0.004279010224328278 -0.00014053659738050715 -0.0013744218154213984 0.00015198020015470392 0.002184256020954989
 0.00015225699695921446 0.002184214585443207 -0.00014053659738050715 -0.0013744218154213984 0.0017880573368659423 0.004278759643835895 0.9980939845443179 -0.010738219730385808
 -0.0001405279192885939 -0.0013744205665920993 0.00015198020015470392 0.002184256020954989 0.9980939845443179 -0.010738219730385808 0.001788070058209802 0.004278759911127603
0.02501042100875 0.0019515189890349626 0.005747512746879973 0.9978818842522954 -0.014335493826737341 0.00019884063638126966 0.002913981620442888 -0.00018084831638181167 -0.0018358928917337881
 0.9978818842522954 -0.014335493826737341 0.0019515427215362259 0.005747513027380845 -0.00018086365475173462 -0.0018358943228671877 0.00019834859476261895 0.002914046891676144
 0.00019884063638126966 0.002913981620442888 -0.00018086365475173462 -0.0018358943228671877 0.0019515156506493322 0.0057471780649692335 0.9978818802415026 -0.014335828216583973
 -0.00018084831638181167 -0.0018358928917337881 0.00019834859476261895 0.002914046891676144 0.9978818802415026 -0.014335828216583973 0.001951538228048988 0.005747179755439193
0.03126302626094 0.00212663673709932 0.007233587937590954 0.9976535424470321 -0.017945232863576372 0.0002521950755273503 0.003644689887951373 -0.00022677448072180425 -0.0022986981752241833
 0.9976535424470321 -0.017945232863576372 0.0021266738444558693 0.007233589697676435 -0.00022679833286895878 -0.0022986996386228885 0.0002514260084173637 0.0036447851356492113
 0.0002521950755273503 0.003644689887951373 -0.00022679833286895878 -0.0022986996386228885 0.002126631925856466 0.007233169822305722 0.9976535365303338 -0.017945650731246005
 -0.00022677448072180425 -0.0022986981752241833 0.0002514260084173637 0.0036447851356492113 0.9976535365303338 -0.017945650731246005 0.0021266671555035875 0.0072331736988611225
0.037515631513130004 0.0023136687332787616 0.008736585444836305 0.9974087328283582 -0.021567587833506315 0.0003123947308438121 0.004376296417322441 -0.00027838509842682097 -0.0027627294795610417
 0.9974087328283582 -0.021567587833506315 0.0023137222161907383 0.008736589345583804 -0.00027841930369086084 -0.002762730804939798 0.0003112866182014971 0.004376428470516409
 0.0003123947308438121 0.004376296417322441 -0.00027841930369086084 -0.002762730804939798 0.002313662217481646 0.00873608399449501 0.9974087246408645 -0.02156808919671497
 -0.00027838509842682097 -0.0027627294795610417 0.0003112866182014971 0.004376428470516409 0.9974087246408645 -0.02156808919671497 0.0023137128945016567 0.0087360908803983
0.043768236765320004 0.0025128678286208015 0.010256029506047697 0.9971472233952973 -0.025202777861444384 0.00037951362687156485 0.0051087444531083175 -0.0003357576383702705 -0.0032278895535834953
 0.9971472233952973 -0.025202777861444384 0.0025129407053413855 0.010256036259290412 -0.0003358040229779244 -0.0032278905503193575 0.00037800419554774784 0.005108920839287275
 0.00037951362687156485 0.0051087444531083175 -0.0003358040229779244 -0.0032278905503193575 0.002512859389717517 0.010255444831191713 0.9971472125700404 -0.025203362760287798
 -0.0003357576383702705 -0.0032278895535834953 0.00037800419554774784 0.005108920839287275 0.9971472125700404 -0.025203362760287798 0.0025129283111745677 0.010255455611264931
0.050020842017509996 0.0027244847573804783 0.011791541348746446 0.9968687801327663 -0.028850917414213688 0.00045362520600393703 0.005841968576896672 -0.00039896843933552557 -0.0036940857025056237
 0.9968687801327663 -0.028850917414213688 0.0027245800657539686 0.011791551717967448 -0.00039902881690636254 -0.0036940861595667514 0.0004516519218389036 0.005842197532500388
 0.00045362520600393703 0.005841968576896672 -0.00039902881690636254 -0.0036940861595667514 0.002724474189028277 0.011790873583063482 0.9968687663000296 -0.02885158590043707
 -0.00039896843933552557 -0.0036940857025056237 0.0004516519218389036 0.005842197532500388 0.9968687663000296 -0.02885158590043707 0.002724564157010844 0.01179088920476152
0.055454545454549996 0.002918664637973894 0.01313874699188516 0.9966128694226044 -0.032031816421771955 0.0005237658313192158 0.006479737382892789 -0.0004587003832076528 -0.004099995265575655
 0.9966128694226044 -0.032031816421771955 0.0029187819248428643 0.013138761164164769 -0.00045877438453715424 -0.004099995066358325 0.0005213384541653509 0.006480019270546051
 0.0005237658313192158 0.006479737382892789 -0.00045877438453715424 -0.004099995066358325 0.0029186520617823894 0.013138007136609621 0.9966128526732922 -0.03203255760665466
 -0.0004587003832076528 -0.004099995265575655 0.0005213384541653509 0.006480019270546051 0.9966128526732922 -0.03203255760665466 0.00291876260142366 0.013138027784668238
0.056273447269699996 0.0029487686974518862 0.01334280083714488 0.996573167720268 -0.032512054590241306 0.0005348021960079963 0.0065758972249791055 -0.00046809273846770715 -0.004161227263576753
 0.996573167720268 -0.032512054590241306 0.002948889498047801 0.01334281563815965 -0.00046816891048416623 -0.004161226949455173 0.0005323022602750781 0.006576187706065498
 0.0005348021960079963 0.0065758972249791055 -0.00046816891048416623 -0.004161226949455173 0.0029487558064379086 0.013342050127661795 0.9965731505067555 -0.03251280673698633
 -0.00046809273846770715 -0.004161227263576753 0.0005323022602750781 0.006576187706065498 0.9965731505067555 -0.03251280673698633 0.002948869630785504 0.013342071602061122
0.06252605252188 0.003185967578730249 0.014909525363641795 0.9962601499890622 -0.0361861921652795 0.0006231165080368856 0.0073104540639764804 -0.0005432046690689179 -0.004629224225669687
 0.9962601499890622 -0.0361861921652795 0.003186116956930339 0.014909545465297314 -0.0005432984250360404 -0.004629222888328609 0.0006200268559974494 0.00731081575698962
 0.0006231165080368856 0.0073104540639764804 -0.0005432984250360404 -0.004629222888328609 0.003185952184700837 0.014908691880250931 0.9962601290174885 -0.03618702805771226
 -0.0005432046690689179 -0.004629224225669687 0.0006200268559974494 0.00731081575698962 0.9962601290174885 -0.03618702805771226 0.0031860926860466762 0.014908720282953366
0.06877865777407 0.003436328255553729 0.01649145727508677 0.9959294902477503 -0.039873300105268385 0.0007186391498376064 0.008045558815229345 -0.00062437724173587 -0.005097986402262016
 0.9959294902477503 -0.039873300105268385 0.003436509324358849 0.016491483599807778 -0.0006244903593762896 -0.00509798376907152 0.0007148964511943746 0.008046002147834701
 0.0007186391498376064 0.008045558815229345 -0.0006244903593762896 -0.00509798376907152 0.00343631019173343 0.01649054120506557 0.9959294651366091 -0.039874219846131716
 -0.00062437724173587 -0.005097986402262016 0.0007148964511943746 0.008046002147834701 0.9959294651366091 -0.039874219846131716 0.003436480203986404 0.01649057767698248
0.07503126302626001 0.0037000965974708557 0.01808835590370494 0.9955809515279658 -0.04357332347655546 0.0008214401490437553 0.008781127774103182 -0.0007116823144141882 -0.005567422911826861
 0.9955809515279658 -0.04357332347655546 0.0037003125000176136 0.01808838942807072 -0.0007118165596502508 -0.005567418689528885 0.0008169808098059332 0.00878166392609581
 0.0008214401490437553 0.008781127774103182 -0.0007118165596502508 -0.005567418689528885 0.0037000757107327606 0.018087357457056988 0.9955809218906729 -0.04357432718084332
 -0.0007116823144141882 -0.005567422911826861 0.0008169808098059332 0.00878166392609581 0.9955809218906729 -0.04357432718084332 0.0037002780846698575 0.018087403205143116
0.08128386827845 0.003977517530029912 0.01969999225370306 0.9952142967831324 -0.047286187702932234 0.0009315884825954078 0.00951707415780549 -0.0008051905551875064 -0.006037441832262724
 0.9952142967831324 -0.047286187702932234 0.003977771442314371 0.01970003400888155 -0.0008053476822439345 -0.006037435706907562 0.0009263486477046815 0.009517715072022148
 0.0009315884825954078 0.00951707415780549 -0.0008053476822439345 -0.006037435706907562 0.003977493681908736 0.019698911658177564 0.9952142622281817 -0.047287275502817624
 -0.0008051905551875064 -0.006037441832262724 0.0009263486477046815 0.009517715072022148 0.9952142622281817 -0.047287275502817624 0.003977731287350646 0.019698967956178867
0.08753647353064001 0.004268835043211312 0.021326145328372254 0.9948292890571496 -0.05101180218478713 0.0010491520090396783 0.01025330834612544 -0.0009049714009393113 -0.006507949964976404
 0.9948292890571496 -0.05101180218478713 0.004269130176685045 0.021326196400527797 -0.0009051531522206382 -0.006507941601890559 0.0010430675660952782 0.01025406673938917
 0.0010491520090396783 0.01025330834612544 -0.0009051531522206382 -0.006507941601890559 0.004268808109285713 0.021324982834950466 0.9948292491871055 -0.051012974224205095
 -0.0009049714009393113 -0.006507949964976404 0.0010430675660952782 0.01025406673938917 0.9948292491871055 -0.051012974224205095 0.0042690838387525005 0.021325051023943532
0.09378907878283 0.004574292174904746 0.022966599511050158 0.9944256916314115 -0.05475006286728271 0.0011741974041158693 0.010989738055635103 -0.0010110930117008209 -0.006978852668273903
 0.9944256916314115 -0.05475006286728271 0.004574631779243398 0.022966661041675662 -0.001011301117772242 -0.006978841712017597 0.0011672039875241017 0.0109906274296884
 0.0011741974041158693 0.010989738055635103 -0.001011301117772242 -0.006978841712017597 0.004574262045902025 0.0229653553878023 0.9944256460426647 -0.054751319308114756
 -0.0010110930117008209 -0.006978852668273903 0.0011672039875241017 0.0109906274296884 0.9944256460426647 -0.054751319308114756 0.004574578817264276 0.022965436876755802
0.100041684035 0.0048941309790962095 0.02462114263372316 0.9940032681586397 -0.058500854123982496 0.0013067900973822019 0.011726268469200005 -0.0011236222227811073 -0.007450053738222066
 0.9940032681586397 -0.058500854123982496 0.00489451834491162 0.02462121581990363 -0.0011238584022487327 -0.007450039812552783 0.001298823093265301 0.011727303121652693
 0.0013067900973822019 0.011726268469200005 -0.0011238584022487327 -0.007450039812552783 0.004894097561102805 0.024619817172825662 0.9940032164407305 -0.058502195138859264
 -0.0011236222227811073 -0.007450053738222066 0.001298823093265301 0.011727303121652693 0.9940032164407305 -0.058502195138859264 0.004894458320877237 0.02461991343910244
0.1059090909091 0.005207560464770066 0.026186382371064156 0.9935895363494085 -0.06203185838579273 0.0014381355971302952 0.012417429134484894 -0.0012351049241022612 -0.007892410182891342
 0.9935895363494085 -0.06203185838579273 0.0052079956814853326 0.02618646763321019 -0.001235368999801777 -0.007892393109993873 0.0014291960022161864 0.01241861383738858
 0.0014381355971302952 0.012417429134484894 -0.001235368999801777 -0.007892393109993873 0.005207523888829615 0.02618498086480423 0.9935894785003664 -0.062033278936861544
 -0.0012351049241022612 -0.007892410182891342 0.0014291960022161864 0.01241861383738858 0.9935894785003664 -0.062033278936861544 0.005207928634949262 0.026185092402953657
0.1062942892872 0.005228592481874304 0.02628956453278396 0.9935617827865961 -0.06226405015637006 0.0014469942100932356 0.012462802335484337 -0.0012426244947119896 -0.007921455322484255
 0.9935617827865961 -0.06226405015637006 0.00522903094368545 0.026289650627420152 -0.0012428904541455774 -0.007921438030322654 0.0014379887615381243 0.012463997370760932
 0.0014469942100932356 0.012462802335484337 -0.0012428904541455774 -0.007921438030322654 0.0052285556965942755 0.026288158044426822 0.9935617245220414 -0.062265475934776486
 -0.0012426244947119896 -0.007921455322484255 0.0014379887615381243 0.012463997370760932 0.9935617245220414 -0.062265475934776486 0.005228963422834771 0.02628827063418354
0.11254689453939999 0.0055779166273224375 0.02797165593804499 0.9931010002752877 -0.06603951606344682 0.001594872493734637 0.013199240049080574 -0.0013681638614828967 -0.008392957856472557
 0.9931010002752877 -0.06603951606344682 0.00557840956630452 0.027971756249969216 -0.0013684612952194928 -0.008392936779883528 0.0015847635066708774 0.01320061138928926
 0.001594872493734637 0.013199240049080574 -0.0013684612952194928 -0.008392936779883528 0.00557787641259492 0.027970168753753587 0.9931009350386151 -0.06604102680837162
 -0.0013681638614828967 -0.008392957856472557 0.0015847635066708774 0.01320061138928926 0.9931009350386151 -0.06604102680837162 0.005578334118459201 0.02797029928221579
0.11879949979160001 0.0059423422171088 0.029667207606989748 0.9926206861091844 -0.06982710866966474 0.0017504862689851376 0.013935479714519219 -0.0015003028775782915 -0.008864460018747557
 0.9926206861091844 -0.06982710866966474 0.00594289306400709 0.0296673235010286 -0.0015006334676119521 -0.008864434718906133 0.0017392084182331516 0.013937044110401827
 0.0017504862689851376 0.013935479714519219 -0.0015006334676119521 -0.008864434718906133 0.005942298527143953 0.029665640079986393 0.9926206134666362 -0.06982870459699488
 -0.0015003028775782915 -0.008864460018747557 0.0017392084182331516 0.013937044110401827 0.9926206134666362 -0.06982870459699488 0.005942809263854528 0.029665790231750738
0.1250521050438 0.006322106843217141 0.031376009642741315 0.9921206066051902 -0.07362667717243834 0.0019138953649361864 0.014671417202007972 -0.0016391025637209457 -0.009335858697782048
 0.9921206066051902 -0.07362667717243834 0.006322719081499961 0.03137614253970907 -0.001639467979537942 -0.009335828714959893 0.0019013831009243745 0.01467319224372916
 0.0019138953649361864 0.014671417202007972 -0.001639467979537942 -0.009335828714959893 0.006322059649545876 0.03137436214592147 0.9921205261146412 -0.07362835851301061
 -0.0016391025637209457 -0.009335858697782048 0.0019013831009243745 0.01467319224372916 0.9921205261146412 -0.07362835851301061 0.006322626509751768 0.03137453367513502
0.131304710296 0.006717446817134885 0.03309785094317145 0.9916005290198561 -0.07743806366250629 0.0020851580586167392 0.015406946194048284 -0.001784622351892653 -0.009807048971104461
 0.9916005290198561 -0.07743806366250629 0.006718123985776775 0.03309800231976186 -0.0017850242502753298 -0.009807013824658577 0.0020713456141202412 0.015408950322072384
 0.0020851580586167392 0.015406946194048284 -0.0017850242502753298 -0.009807013824658577 0.006717396108424115 0.0330961238696003 0.9916004402295089 -0.0774398306612948
 -0.001784622351892653 -0.009807048971104461 0.0020713456141202412 0.015408950322072384 0.9916004402295089 -0.0774398306612948 0.006718022229698487 0.033096318600006364
0.1375573155481 0.007033678209771249 0.03460750659111189 0.9911551707919973 -0.08103600700544855 0.0022415294659539095 0.016118933640939182 -0.0019141415838355403 -0.010254898948870599
 0.9911551707919973 -0.08103600700544855 0.007034423404373036 0.03460767263077739 -0.0019145822052708981 -0.010254858627632252 0.002226392601988557 0.01612116259745933
 0.0022415294659539095 0.016118933640939182 -0.0019145822052708981 -0.010254858627632252 0.007033623052254635 0.034605700682044646 0.9911550733229075 -0.08103785980217024
 -0.0019141415838355403 -0.010254898948870599 0.002226392601988557 0.01612116259745933 0.9911550733229075 -0.08103785980217024 0.007034312845628531 0.0346059142878879
0.1438099208003 0.007360888979794099 0.0361099182034295 0.9906944233123943 -0.08462555352065042 0.002404223702950814 0.016828485194746508 -0.0020488568134151485 -0.010700518271041033
 0.9906944233123943 -0.08462555352065042 0.007361705728706707 0.036110099893932976 -0.0020493379018618678 -0.010700472310285905 0.0023877038531130313 0.016830955612324217
 0.002404223702950814 0.016828485194746508 -0.0020493379018618678 -0.010700472310285905 0.007360829220136293 0.036108033916786714 0.9906943167144371 -0.08462749235648107
 -0.0020488568134151485 -0.010700518271041033 0.0023877038531130313 0.016830955612324217 0.9906943167144371 -0.08462749235648107 0.007361586107753948 0.03610826764951758
0.1500625260525 0.007698973399310866 0.03760498140450449 0.9902183957124525 -0.08820663576883037 0.002573190627683867 0.017535543078781555 -0.002188719305426286 -0.011143851678300842
 0.9902183957124525 -0.08820663576883037 0.00769986527606621 0.03760517976696449 -0.00218924259975683 -0.011143799594923605 0.0025552295005899068 0.01753827219497316
 0.002573190627683867 0.017535543078781555 -0.00218924259975683 -0.011143799594923605 0.007698908889997568 0.03760301921967929 0.9902182795277374 -0.08820866089250184
 -0.002188719305426286 -0.011143851678300842 0.0025552295005899068 0.01753827219497316 0.9902182795277374 -0.08820866089250184 0.007699736349185359 0.03760327437200888
0.15631513130469998 0.008047825101578742 0.03909259507866445 0.9897271975553135 -0.09177918612527726 0.0027483795744002327 0.018240050387760703 -0.0023336797858543685 -0.011584845003776536
