! Created with skrf 1.8.0 (http://scikit-rf.org).
# GHz S RI R 50.0 
!freq ReS11 ImS11 ReS12 ImS12 ReS13 ImS13
! ReS14 ImS14
! ReS21 ImS21 ReS22 ImS22 ReS23 ImS23
! ReS24 ImS24
! ReS31 ImS31 ReS32 ImS32 ReS33 ImS33
! ReS34 ImS34
! ReS41 ImS41 ReS42 ImS42 ReS43 ImS43
! ReS44 ImS44
!
0.0 0.00172186920265 0.0 0.9982781307917 0.0 6.657123406466e-05 0.0 -6.65712339753e-05 8.152624860314068e-21
 0.9982781307917 0.0 0.001721869202682 0.0 -6.657123397604e-05 8.15262486040469e-21 6.657123406435e-05 0.0
 6.657123406466e-05 0.0 -6.657123397604e-05 8.15262486040469e-21 0.001721869199825 0.0 0.9982781307888 0.0
 -6.65712339753e-05 8.152624860314068e-21 6.657123406435e-05 0.0 0.9982781307888 0.0 0.001721869199825 0.0
0.005 0.0018531256250940758 0.0014108200494446486 0.9981119882354835 -0.0036060498284265848 9.319972846478894e-05 0.0007174527282582106 -9.055085075316356e-05 -0.00045303333305654614
 0.9981119882354835 -0.0036060498284265848 0.0018531416061313688 0.001410810767454913 -9.055263742950838e-05 -0.000453034746965608 9.310546007220204e-05 0.0007174888411765688
 9.319972846478894e-05 0.0007174527282582106 -9.055263742950838e-05 -0.000453034746965608 0.0018531241053604674 0.0014107537007841116 0.9981119878572986 -0.003606116889187778
 -9.055085075316356e-05 -0.00045303333305654614 9.310546007220204e-05 0.0007174888411765688 0.9981119878572986 -0.003606116889187778 0.0018531423684654282 0.0014107429912537035
0.006252605252188 0.0018877183851115622 0.0017690385784593378 0.9980678994275916 -0.004508415682394846 0.00010089861556537104 0.0008971599977599546 -9.739266209622586e-05 -0.0005668635523545326
 0.9980678994275916 -0.004508415682394846 0.0018877433652294585 0.0017690267268566922 -9.739544196867314e-05 -0.0005668652961553392 0.000100751333523255 0.0008972068817642534
 0.00010089861556537104 0.0008971599977599546 -9.739544196867314e-05 -0.0005668652961553392 0.0018877160934008526 0.001768955654227825 0.998067898920764 -0.0045084995014660015
 -9.739266209622586e-05 -0.0005668635523545326 0.000100751333523255 0.0008972068817642534 0.998067898920764 -0.0045084995014660015 0.0018877446417241012 0.0017689420061900369
0.01250521050438 0.0020708010422733087 0.003574779803144848 0.997832901050921 -0.009017421976394673 0.00014553163901520359 0.0017946477580390717 -0.00013659542019095114 -0.0011363488229913703
 0.997832901050921 -0.009017421976394673 0.0020709007742357017 0.003574753574503732 -0.00013660637108267668 -0.0011363520501807 0.00014494440761750305 0.0017947604930658514
 0.00014553163901520359 0.0017946477580390717 -0.00013660637108267668 -0.0011363520501807 0.0020707924442168782 0.003574614271059524 0.9978328995876559 -0.009017589349651769
 -0.00013659542019095114 -0.0011363488229913703 0.00014494440761750305 0.0017947604930658514 0.9978328995876559 -0.009017589349651769 0.0020709064385178925 0.0035745843040716845
0.01875781575657 0.0022715523807863005 0.005405853623688371 0.9975728184188213 -0.013537948461888757 0.00020057884645876577 0.0026930168660785434 -0.0001843068091494798 -0.0017076322810491127
 0.9975728184188213 -0.013537948461888757 0.002271776458446262 0.005405810298410412 -0.00018433122362853765 -0.0017076366768687104 0.000199259925734297 0.0026932184957871486
 0.00020057884645876577 0.0026930168660785434 -0.00018433122362853765 -0.0017076366768687104 0.0022715334698863695 0.005405605654995973 0.9975728155558409 -0.01353819928547734
 -0.0001843068091494798 -0.0017076322810491127 0.000199259925734297 0.0026932184957871486 0.9975728155558409 -0.01353819928547734 0.0022717896234029935 0.005405556430654009
0.02501042100875 0.002490392583498882 0.007259659186528169 0.9972873208216527 -0.01807214090435152 0.00026615020414241943 0.0035922701660585188 -0.0002406493422295873 -0.00228043338007089
 0.9972873208216527 -0.01807214090435152 0.0024907904856461697 0.007259595864085883 -0.00024069244711232175 -0.002280438570076062 0.00026380790347495616 0.0035925876747921782
 0.00026615020414241943 0.0035922701660585188 -0.00024069244711232175 -0.002280438570076062 0.0024903593507249024 0.007259328969601716 0.9972873161160652 -0.01807247507208355
 -0.0002406493422295873 -0.00228043338007089 0.00026380790347495616 0.0035925876747921782 0.9972873161160652 -0.01807247507208355 0.002490814263706873 0.0072592572978273625
0.03126302626094 0.0027277244174922673 0.009134835575590463 0.9969760620387526 -0.0226208905002017 0.0003423557000618335 0.004492329036230599 -0.00030574161181788775 -0.0028545452467353748
 0.9969760620387526 -0.0226208905002017 0.0027283455338790448 0.009134749176886786 -0.000305808579059894 -0.0028545507961907973 0.00033869811665099227 0.004492793368798518
 0.0003423557000618335 0.004492329036230599 -0.000305808579059894 -0.0028545507961907973 0.0027276728515875817 0.00913442328092272 0.996976055050528 -0.022621307938891184
 -0.00030574161181788775 -0.0028545452467353748 0.00033869811665099227 0.004492793368798518 0.996976055050528 -0.022621307938891184 0.002728383040647108 0.009134325721985562
0.037515631513130004 0.0029839415018214255 0.011030478373590242 0.9966386889466429 -0.02718461725596734 0.00042930422779034863 0.005393082149768209 -0.000379699096375303 -0.003429785939160972
 0.9966386889466429 -0.02718461725596734 0.0029848351517609475 0.01103036564179517 -0.00037979504871452877 -0.0034297913529313514 0.0004240391378404548 0.005393728247284926
 0.00042930422779034863 0.005393082149768209 -0.00037979504871452877 -0.0034297913529313514 0.002983867587618979 0.011029984197671195 0.9966386792374533 -0.027185117882161037
 -0.000379699096375303 -0.003429785939160972 0.0004240391378404548 0.005393728247284926 0.9966386792374533 -0.027185117882161037 0.0029848895045534417 0.011029857062123751
0.043768236765320004 0.0032594314852611595 0.012945901303301689 0.9962748450393495 -0.031763508276048145 0.0005271030441900784 0.0062944003067721245 -0.00046263443398616495 -0.004005983639190309
 0.9962748450393495 -0.031763508276048145 0.003260646931776092 0.012945758804171847 -0.0004627644482000608 -0.004005988361729272 0.000519937859548199 0.006295267147420452
 0.0005271030441900784 0.0062944003067721245 -0.0004627644482000608 -0.004005988361729272 0.0032593312045666217 0.01294532545725374 0.996274832174696 -0.03176409200794591
 -0.00046263443398616495 -0.004005983639190309 0.000519937859548199 0.006295267147420452 0.996274832174696 -0.03176409200794591 0.0032607212510820825 0.01294516480536997
0.050020842017509996 0.0035545775099491625 0.014880537695881518 0.9958841722403665 -0.036357616222467776 0.0006358574355241299 0.007196142563078897 -0.0005546575002400448 -0.004582970553092366
 0.9958841722403665 -0.036357616222467776 0.003556163971814164 0.014880361817620775 -0.0005548266091651309 -0.004582973968497171 0.0006264991946939238 0.007197273204728095
 0.0006358574355241299 0.007196142563078897 -0.0005548266091651309 -0.004582973968497171 0.0035544468384379915 0.014879880414290569 0.99588415578679 -0.03635828297187166
 -0.0005546575002400448 -0.004582970553092366 0.0006264991946939238 0.007197273204728095 0.99588415578679 -0.03635828297187166 0.0035562613788039077 0.014879682054772362
0.055454545454549996 0.003827326181546306 0.016577013016146544 0.9955225989197314 -0.040362368843318695 0.0007393456687198159 0.00798001228547 -0.0006420919382409529 -0.005084901087712904
 0.9955225989197314 -0.040362368843318695 0.0038292750136095424 0.01657680505886832 -0.0006422990759032135 -0.005084902820161253 0.0007278433946047381 0.007981410347436498
 0.0007393456687198159 0.00798001228547 -0.0006422990759032135 -0.005084902820161253 0.0038271658276145338 0.016576285169832148 0.9955225789972862 -0.040363107664854486
 -0.0006420919382409529 -0.005084901087712904 0.0007278433946047381 0.007981410347436498 0.9955225789972862 -0.040363107664854486 0.0038293950201633443 0.016576050440816326
0.056273447269699996 0.003869758941907981 0.016833892147422033 0.9954663119867999 -0.04096690759009189 0.0007556704674791564 0.008098159265986938 -0.000655875405863077 -0.005160579911452078
 0.9954663119867999 -0.04096690759009189 0.003871765605928125 0.016833679100094902 -0.0006560885998310882 -0.0051605813435271234 0.0007438258485500007 0.008099600889394253
 0.0007556704674791564 0.008098159265986938 -0.0006560885998310882 -0.0051605813435271234 0.003869593850749955 0.01683315368429459 0.995466291513774 -0.04096765726710465
 -0.000655875405863077 -0.005160579911452078 0.0007438258485500007 0.008099600889394253 0.995466291513774 -0.04096765726710465 0.0038718892231865212 0.01683291317268072
0.06252605252188 0.004205351749181601 0.01880551393134398 0.99502090596615 -0.045591289231409864 0.0008866427856483002 0.009000293707627368 -0.0007663924459397222 -0.005738644358103211
 0.99502090596615 -0.045591289231409864 0.0042078277806577215 0.018805259745874502 -0.0007666546736652239 -0.005738643070438291 0.0008720181327212432 0.009002097659690102
 0.0008866427856483002 0.009000293707627368 -0.0007666546736652239 -0.005738643070438291 0.004205148204021285 0.018804694563701173 0.9950208810456257 -0.045592121741498626
 -0.0007663924459397222 -0.005738644358103211 0.0008720181327212432 0.009002097659690102 0.9950208810456257 -0.045592121741498626 0.004207980731049469 0.018804407200297853
0.06877865777407 0.004561728678119124 0.020794981161929665 0.9945475966563283 -0.05023062413701031 0.0010288724386011182 0.009902383140935438 -0.0008863100261042611 -0.006316994983634972
 0.9945475966563283 -0.05023062413701031 0.004564723231294827 0.02079468168884794 -0.0008866261952311832 -0.00631699017969742 0.0010111737985327445 0.009904604977629107
 0.0010288724386011182 0.009902383140935438 -0.0008866261952311832 -0.00631699017969742 0.004561482639483646 0.020794081191606355 0.9945475668638556 -0.05023153938010671
 -0.0008863100261042611 -0.006316994983634972 0.0010111737985327445 0.009904604977629107 0.9945475668638556 -0.05023153938010671 0.004564908638293587 0.020793742019039312
0.07503126302626001 0.00493925931713604 0.02280189075729637 0.9940460277591663 -0.05488474142474306 0.0011824547166696324 0.010804259426165105 -0.0010157265725464929 -0.006895460735905543
 0.9940460277591663 -0.05488474142474306 0.0049428215454691195 0.022801541664891362 -0.0010161015500776052 -0.0068954515591240564 0.001161387883328575 0.010806958954934729
 0.0011824547166696324 0.010804259426165105 -0.0010161015500776052 -0.0068954515591240564 0.004938966739827169 0.02280091051314174 0.9940459926728787 -0.05488573929367781
 -0.0010157265725464929 -0.006895460735905543 0.001161387883328575 0.010806958954934729 0.9940459926728787 -0.05488573929367781 0.004943042531569518 0.022800514313524124
0.08128386827845 0.005338310084644797 0.024825851763172722 0.9935158445617803 -0.059553442976309524 0.0013474819995369638 0.011705749473711483 -0.0011547374324742815 -0.007473868042072125
 0.9935158445617803 -0.059553442976309524 0.00534248915160069 0.024825448535346992 -0.0011551760449547129 -0.007473853575942714 0.0013227525642050214 0.011708990795137285
 0.0013474819995369638 0.011705749473711483 -0.0011551760449547129 -0.007473853575942714 0.00533796691786456 0.024824791598391568 0.9935158037631253 -0.05955452336025238
 -0.0011547374324742815 -0.007473868042072125 0.0013227525642050214 0.011708990795137285 0.9935158037631253 -0.05955452336025238 0.005342748837963758 0.02482433288999458
0.08753647353064001 0.005759244168729547 0.026866480747310784 0.9929566942547589 -0.06423650801211696 0.0015240436105897833 0.012606675569119626 -0.0013034347671870281 -0.00805204055649175
 0.9929566942547589 -0.06423650801211696 0.005764089257290745 0.026866018680976978 -0.0013039418007965969 -0.008052019824677023 0.0014953570170161672 0.012610527117789752
 0.0015240436105897833 0.012606675569119626 -0.0013039418007965969 -0.008052019824677023 0.005758846356235941 0.026865341041635123 0.9929566473286618 -0.06423767079521207
 -0.0013034347671870281 -0.00805204055649175 0.0014953570170161672 0.012610527117789752 0.9929566473286618 -0.06423767079521207 0.005764390763169393 0.02686481407524475
0.09378907878283 0.00620242143372863 0.028923398510256274 0.9923682262215634 -0.06893369635940166 0.0017122256751073185 0.013506855613315803 -0.0014619074405430128 -0.008629799001719627
 0.9923682262215634 -0.06893369635940166 0.00620798175682602 0.028922872712336862 -0.001462487641054423 -0.00862977096817319 0.0016792872788532116 0.013511390197711227
 0.0017122256751073185 0.013506855613315803 -0.001462487641054423 -0.00862977096817319 0.0062019649135441664 0.028922179675146827 0.9923681727566408 -0.06893494141636423
 -0.0014619074405430128 -0.008629799001719627 0.0016792872788532116 0.013511390197711227 0.9923681727566408 -0.06893494141636423 0.006208328198661882 0.02892157842991979
0.100041684035 0.0066681983007081036 0.030996227686814554 0.991750092306005 -0.07364475083921664 0.001912110981478847 0.014406103317842079 -0.0016302409039686994 -0.00920696106295976
 0.991750092306005 -0.07364475083921664 0.006674523111164016 0.03099563307074217 -0.0016308989766624247 -0.009206924632032909 0.0018746261127766597 0.014411398159233792
 0.001912110981478847 0.014406103317842079 -0.0016308989766624247 -0.009206924632032909 0.006667679005562119 0.030994930160516722 0.9917500318948329 -0.0736460780410849
 -0.0016302409039686994 -0.00920696106295976 0.0018746261127766597 0.014411398159233792 0.9917500318948329 -0.0736460780410849 0.006674917602113158 0.03099424833940561
0.1059090909091 0.007126148935904018 0.03295549315906986 0.9911427506425972 -0.07807794444543352 0.002110396809980205 0.015248934477462827 -0.0017972453079560197 -0.009747858913382366
 0.9911427506425972 -0.07807794444543352 0.0071332359760204935 0.032954829162471354 -0.0017979806986239595 -0.009747813552953184 0.0020683775957885562 0.015255016935329326
 0.002110396809980205 0.015248934477462827 -0.0017979806986239595 -0.009747813552953184 0.007125567028817864 0.03295412221397747 0.9911426833460942 -0.07807934860967461
 -0.0017972453079560197 -0.009747858913382366 0.0020683775957885562 0.015255016935329326 0.9911426833460942 -0.07807934860967461 0.007133678383369817 0.03295335880339764
0.1062942892872 0.007156927611697484 0.03308459094894914 0.9911019470673452 -0.07836939906222473 0.0021237788446527746 0.015304228364549272 -0.0018085170789510867 -0.009783341326740549
 0.9911019470673452 -0.07836939906222473 0.007164066212445654 0.03308392223072769 -0.0018092576884334586 -0.00978329534332727 0.0020814528745957796 0.015310365134717358
 0.0021237788446527746 0.015304228364549272 -0.0018092576884334586 -0.00978329534332727 0.007156341468493045 0.03308321519887019 0.9911018793063687 -0.07837080827485038
 -0.0018085170789510867 -0.009783341326740549 0.0020814528745957796 0.015310365134717358 0.9911018793063687 -0.07837080827485038 0.0071645118611844685 0.033082446223575625
0.11254689453939999 0.007668958478720797 0.03518810963620865 0.9904234480235788 -0.08310735480728328 0.0023473049718125715 0.016201036543281734 -0.001996814237415178 -0.010358751250384914
 0.9904234480235788 -0.08310735480728328 0.007676960232784911 0.03518736132998772 -0.0019976420074620275 -0.010358694500038802 0.0022998433810360597 0.016208101401089053
 0.0023473049718125715 0.016201036543281734 -0.0019976420074620275 -0.010358694500038802 0.007668301409389419 0.03518665616081221 0.990423372513735 -0.08310884589015803
 -0.001996814237415178 -0.010358751250384914 0.0022998433810360597 0.016208101401089053 0.990423372513735 -0.08310884589015803 0.007677460143092831 0.035185793166364984
0.11879949979160001 0.008204636123578395 0.03730640270028686 0.9897142558884023 -0.08785831909651874 0.0025827613288150458 0.01709632987692023 -0.002195206881573247 -0.010932999153033791
 0.9897142558884023 -0.08785831909651874 0.008213550464114256 0.03730556911352153 -0.0021961263947855247 -0.010932930362122001 0.0025298697789614202 0.01710441350366691
 0.0025827613288150458 0.01709632987692023 -0.0021961263947855247 -0.010932930362122001 0.00820390404474187 0.03730487203005531 0.9897141722350657 -0.08785989190280878
 -0.002195206881573247 -0.010932999153033791 0.0025298697789614202 0.01710441350366691 0.9897141722350657 -0.08785989190280878 0.008214107733903585 0.037303907858824786
0.1250521050438 0.008764301707756609 0.03943908588305562 0.9889740348026017 -0.09262198104809354 0.002830216008361236 0.01798990673595276 -0.002403765622327208 -0.01150589022634888
 0.9889740348026017 -0.09262198104809354 0.008774178148398726 0.03943816111103268 -0.002404781419896855 -0.011505808062208508 0.002771600416097901 0.017999104369286874
 0.002830216008361236 0.01798990673595276 -0.002404781419896855 -0.011505808062208508 0.008763490530957334 0.03943747857956468 0.9889739426156824 -0.09262363542630607
 -0.002403765622327208 -0.01150589022634888 0.002771600416097901 0.017999104369286874 0.9889739426156824 -0.09262363542630607 0.008774795868809169 0.03943640577474421
0.131304710296 0.009348292156973519 0.041585771060447314 0.988202452560569 -0.09739801857403152 0.0030897330996520617 0.018881561946418754 -0.002622557057523165 -0.012077226560884866
 0.988202452560569 -0.09739801857403152 0.009359180301581053 0.041584748980410854 -0.002623673638844895 -0.012077129631992265 0.003025099712665788 0.018891973412955104
 0.0030897330996520617 0.018881561946418754 -0.002623673638844895 -0.012077129631992265 0.009347397788883936 0.04158408771842727 0.9882023514551492 -0.09739975436689967
 -0.002622557057523165 -0.012077226560884866 0.003025099712665788 0.018891973412955104 0.9882023514551492 -0.09739975436689967 0.009359861556386994 0.04158289851716236
0.1375573155481 0.00982883958516708 0.043467554659081045 0.9875273407668017 -0.1019074372897284 0.003330486550345485 0.01974425587929857 -0.0028208304903521355 -0.012619939343068775
 0.9875273407668017 -0.1019074372897284 0.009840794085236951 0.04346645309234828 -0.0028220546833641344 -0.012619827419216897 0.003259681321382377 0.019755873143618468
 0.003330486550345485 0.01974425587929857 -0.0028220546833641344 -0.012619827419216897 0.009827858776950416 0.04346579557451933 0.9875272303505376 -0.1019092543317752
 -0.0028208304903521355 -0.012619939343068775 0.003259681321382377 0.019755873143618468 0.9875272303505376 -0.1019092543317752 0.009841541115899737 0.043464506711455325
0.1438099208003 0.010326476902540604 0.04533836211913727 0.9868281242232607 -0.10640432245389157 0.003580928906927529 0.020602707452304594 -0.0030269816126384736 -0.013158789353244747
 0.9868281242232607 -0.10640432245389157 0.010339548265998123 0.045337176444287246 -0.0030283182754504965 -0.013158661049596336 0.0035036837505729407 0.020615622594528944
 0.003580928906927529 0.020602707452304594 -0.0030283182754504965 -0.013158661049596336 0.010325405703122426 0.045336527855267164 0.9868280041180304 -0.1064062205760519
 -0.0030269816126384736 -0.013158789353244747 0.0035036837505729407 0.020615622594528944 0.9868280041180304 -0.1064062205760519 0.010340363992597634 0.0453351330794632
0.1500625260525 0.01084101221946749 0.04719800496588047 0.9861049995752285 -0.11088852912853246 0.0038409626319848155 0.02145680504399898 -0.0032409162903891814 -0.013693673291276938
 0.9861049995752285 -0.11088852912853246 0.010855251071210931 0.04719673029135559 -0.003242370268811801 -0.013693527167059374 0.0037570113855756523 0.021471113496616578
 0.0038409626319848155 0.02145680504399898 -0.003242370268811801 -0.013693527167059374 0.01083984668177051 0.04719609610778118 0.9861048694078828 -0.11089050815561606
 -0.0032409162903891814 -0.013693673291276938 0.0037570113855756523 0.021471113496616578 0.9861048694078828 -0.11089050815561606 0.010856138396469204 0.04719458883318774
0.15631513130469998 0.011372252086466675 0.04904630034711802 0.9853581646846696 -0.1153599136239227 0.00411048890952234 0.02230643917538992 -0.0034625391234609816 -0.014224490242405706
 0.9853581646846696 -0.1153599136239227 0.01138770917154683 0.04904493150484014 -0.003464115250877112 -0.014224324801074268 0.004019567368014769 0.02232223968222521
