! Created with skrf 1.8.0 (http://scikit-rf.org).
# GHz S RI R 50.0 
!freq ReS11 ImS11 ReS12 ImS12 ReS13 ImS13
! ReS14 ImS14
! ReS21 ImS21 ReS22 ImS22 ReS23 ImS23
! ReS24 ImS24
! ReS31 ImS31 ReS32 ImS32 ReS33 ImS33
! ReS34 ImS34
! ReS41 ImS41 ReS42 ImS42 ReS43 ImS43
! ReS44 ImS44
!
0.0 0.001350305805265 0.0 0.9986496941947 0.0 5.195898737434e-05 0.0 -5.195898772921e-05 6.3631408009513626e-21
 0.9986496941947 0.0 0.001350305805254 0.0 -5.195898772935e-05 6.363140800968508e-21 5.195898737369e-05 0.0
 5.195898737434e-05 0.0 -5.195898772935e-05 6.363140800968508e-21 0.001350305799588 0.0 0.998649694189 0.0
 -5.195898772921e-05 6.3631408009513626e-21 5.195898737369e-05 0.0 0.998649694189 0.0 0.001350305799564 0.0
0.005 0.0014523525360744514 0.0011013520046384028 0.9985206442842861 -0.0028293112815973792 7.315010454849261e-05 0.0005949047532550248 -7.08749301449284e-05 -0.00036960392561527386
 0.9985206442842861 -0.0028293112815973792 0.0014523820541077635 0.0011013348327984028 -7.087739053394999e-05 -0.0003696058355731694 7.295638584426837e-05 0.0005949783511102567
 7.315010454849261e-05 0.0005949047532550248 -7.087739053394999e-05 -0.0003696058355731694 0.0014523508485606656 0.0011012857594264586 0.9985206439472353 -0.002829378353349448
 -7.08749301449284e-05 -0.00036960392561527386 7.295638584426837e-05 0.0005949783511102567 0.9985206439472353 -0.002829378353349448 0.0014523830763784587 0.0011012669432093273
0.006252605252188 0.0014789676854961697 0.0013810600881177502 0.9984867909279385 -0.0035373554443597125 7.914529315373404e-05 0.0007439166233854815 -7.614986601042695e-05 -0.000462496617115918
 0.9984867909279385 -0.0035373554443597125 0.001479013827078963 0.0013810382808454212 -7.615369445236953e-05 -0.00046249897310006823 7.884262134284069e-05 0.0007440121491466083
 7.914529315373404e-05 0.0007439166233854815 -7.615369445236953e-05 -0.00046249897310006823 0.001478965106696331 0.0013809773139623687 0.9984867904605009 -0.003537439259430519
 -7.614986601042695e-05 -0.000462496617115918 7.884262134284069e-05 0.0007440121491466083 0.9984867904605009 -0.003537439259430519 0.0014790154849820402 0.0013809534440448652
0.01250521050438 0.0016182108127062147 0.0027914034180556743 0.9983085825387762 -0.007075673727292971 0.00011321299594307833 0.0014881632091946811 -0.00010572639938241173 -0.0009273515225258574
 0.9983085825387762 -0.007075673727292971 0.0016183950506416123 0.0027913563808841992 -0.00010574148594416063 -0.0009273558930264191 0.00011200590711519418 0.0014883920077412528
 0.00011321299594307833 0.0014881632091946811 -0.00010574148594416063 -0.0009273558930264191 0.0016182010968437063 0.0027912381946945558 0.9983085812549423 -0.0070758411474498946
 -0.00010572639938241173 -0.0009273515225258574 0.00011200590711519418 0.0014883920077412528 0.9983085812549423 -0.0070758411474498946 0.0016184022621574096 0.0027911869404843442
0.01875781575657 0.0017683098185327208 0.004222162279711095 0.9981148688064999 -0.010623601415818428 0.00015423429427976793 0.002233279853394751 -0.00014077371045110093 -0.0013938839202267334
 0.9981148688064999 -0.010623601415818428 0.0017687237968758175 0.004222086412119904 -0.00014080735335541346 -0.001393889906179137 0.00015152244891406048 0.0022336863312520322
 0.00015423429427976793 0.002233279853394751 -0.00014080735335541346 -0.001393889906179137 0.0017682884033186517 0.00422191488771829 0.9981148663392372 -0.010623852376585455
 -0.00014077371045110093 -0.0013938839202267334 0.00015152244891406048 0.0022336863312520322 0.9981148663392372 -0.010623852376585455 0.001768740438104064 0.0042218324930971204
0.02501042100875 0.001929532742945373 0.0056713576830205335 0.9979054424699076 -0.014182889080206307 0.00020228335092988898 0.0029793208128785316 -0.00018137453330602148 -0.0018618949161003863
 0.9979054424699076 -0.014182889080206307 0.0019302679129164025 0.0056712492390234214 -0.0001814339441042794 -0.0018619020533374227 0.00019746599620425065 0.002979955773229938
 0.00020228335092988898 0.0029793208128785316 -0.0001814339441042794 -0.0018619020533374227 0.0019294950809424284 0.005671028444923022 0.9979054384570727 -0.014183223574549937
 -0.00018137453330602148 -0.0018618949161003863 0.00019746599620425065 0.002979955773229938 0.9979054384570727 -0.014183223574549937 0.0019302978703228668 0.005670910948364879
0.03126302626094 0.002102136362998073 0.007137986490000777 0.9976800846815286 -0.017754304142046404 0.00025743529421722624 0.0037262696217792916 -0.00022760950766918396 -0.0023312522514331974
 0.9976800846815286 -0.017754304142046404 0.0021032840318594695 0.007137841585640267 -0.0002277018262991757 -0.0023312600097349077 0.00024991068721096337 0.0037271903005376373
 0.00025743529421722624 0.0037262696217792916 -0.0002277018262991757 -0.0023312600097349077 0.002102077910587291 0.007137575780029007 0.9976800787552967 -0.017754722211039596
 -0.00022760950766918396 -0.0023312522514331974 0.00024991068721096337 0.0037271903005376373 0.9976800787552967 -0.017754722211039596 0.0021033311951348427 0.007137419021861005
0.037515631513130004 0.002286372045536976 0.008621406211402565 0.9974385709902066 -0.021338246025581417 0.00031976534075428206 0.0044740822255294865 -0.000279557809599678 -0.0028018471462303027
 0.9974385709902066 -0.021338246025581417 0.002288023409208806 0.008621220828895557 -0.00027969011215252764 -0.002801854928992449 0.00030893047792331964 0.004475352357721194
 0.00031976534075428206 0.0044740822255294865 -0.00027969011215252764 -0.002801854928992449 0.00228628826602927 0.00862091447863536 0.9974385627798485 -0.0213387477358372
 -0.000279557809599678 -0.0028018471462303027 0.00030893047792331964 0.004475352357721194 0.9974385627798485 -0.0213387477358372 0.0022880916761511255 0.008620714104764468
0.043768236765320004 0.0024824880181334077 0.01012114780426345 0.997180673747093 -0.02493493330021091 0.00038934840125583235 0.005222700091732582 -0.00033729738369140544 -0.003273581174608233
 0.997180673747093 -0.02493493330021091 0.0024847341867362776 0.010120917795293342 -0.00033747668712111475 -0.0032735883187400483 0.0003745988786427111 0.005224389987523561
 0.00038934840125583235 0.005222700091732582 -0.00033747668712111475 -0.0032735883187400483 0.002482374382414546 0.010120575562013848 0.9971806628780455 -0.024935518755163928
 -0.00033729738369140544 -0.003273581174608233 0.0003745988786427111 0.005224389987523561 0.9971806628780455 -0.024935518755163928 0.0024848274644418064 0.010120327026338074
0.050020842017509996 0.00269073043208384 0.011636838284339783 0.9969061633066824 -0.028544481006066633 0.0004662588517371719 0.005972055619552315 -0.00040090503881996223 -0.003746360845115739
 0.9969061633066824 -0.028544481006066633 0.002693662451771809 0.011636559372361233 -0.0004011383038946729 -0.003746366620975512 0.0004469887940078497 0.005974242244224589
 0.0004662588517371719 0.005972055619552315 -0.0004011383038946729 -0.003746366620975512 0.0026905824167399077 0.011636186130856362 0.9969061493978264 -0.02854515032606307
 -0.00040090503881996223 -0.003746360845115739 0.0004469887940078497 0.005974242244224589 0.9969061493978264 -0.02854515032606307 0.0026937846558771714 0.011635884696743329
0.055454545454549996 0.002881737575740345 0.01296672609056094 0.9966539341265801 -0.03169177118008601 0.0005391043489742763 0.006623810006330745 -0.00046100644214246866 -0.004157999013632747
 0.9966539341265801 -0.03169177118008601 0.0028853395270434404 0.012966401109206657 -0.00046129221250379605 -0.004158002956170331 0.0005154125993697621 0.006626496039028106
 0.0005391043489742763 0.006623810006330745 -0.00046129221250379605 -0.004158002956170331 0.0028815560162585123 0.012966005034185558 0.9966539172622244 -0.031692513502188394
 -0.00046100644214246866 -0.004157999013632747 0.0005154125993697621 0.006626496039028106 0.9966539172622244 -0.031692513502188394 0.0028854900574096045 0.01296565363583125
0.056273447269699996 0.002911343914446851 0.013168162764241969 0.9966148087211247 -0.03216693855371947 0.0005505703797663664 0.006722074803002902 -0.00047045648041915754 -0.00422009492948961
 0.9966148087211247 -0.03216693855371947 0.0029150527877207133 0.01316783054643625 -0.0004707506138631296 -0.004220098540876062 0.0005261724111063906 0.0067248418589293205
 0.0005505703797663664 0.006722074803002902 -0.0004707506138631296 -0.004220098540876062 0.0029111570040378167 0.013167431369940396 0.9966147913855562 -0.032167691889506134
 -0.00047045648041915754 -0.00422009492948961 0.0005261724111063906 0.0067248418589293205 0.9966147913855562 -0.032167691889506134 0.0029152078444537027 0.01316707211126771
0.06252605252188 0.003144571874810362 0.014714843569091597 0.9963063781913646 -0.03580231054763324 0.0006423558685874097 0.007472678678978386 -0.0005460263109333265 -0.004694693009064842
 0.9963063781913646 -0.03580231054763324 0.003149148579415664 0.014714453517664539 -0.0005463881668418107 -0.0046946935932129456 0.0006122211104584676 0.007476116688534965
 0.0006423558685874097 0.007472678678978386 -0.0005463881668418107 -0.0046946935932129456 0.0031443415623420845 0.014714033681098129 0.9963063570354448 -0.035803148076524065
 -0.0005460263109333265 -0.004694693009064842 0.0006122211104584676 0.007476116688534965 0.9963063570354448 -0.035803148076524065 0.0031493404263980996 0.014713611482653084
0.06877865777407 0.0033906566754996125 0.01627662778559465 0.9959806393855558 -0.03945056917761315 0.0007416873004906925 0.008223784198404239 -0.0006276880131817631 -0.0051700646004214194
 0.9959806393855558 -0.03945056917761315 0.0033961921825597053 0.01627617524872526 -0.0006281243940715832 -0.005170061228011862 0.0007052053887655584 0.008227990587307358
 0.0007416873004906925 0.008223784198404239 -0.0006281243940715832 -0.005170061228011862 0.0033903784633457935 0.01627574023280507 0.9959806140077535 -0.0394514910991286
 -0.0006276880131817631 -0.0051700646004214194 0.0007052053887655584 0.008227990587307358 0.9959806140077535 -0.0394514910991286 0.0033964247695185594 0.016275249790255977
0.07503126302626001 0.0036498397237762128 0.01785327937252676 0.9956373596808257 -0.04311166205110043 0.0008486356734408889 0.008975304777229685 -0.0007155139216966155 -0.005646118603686956
 0.9956373596808257 -0.04311166205110043 0.003656425015974695 0.017852759574739897 -0.0007160315792026625 -0.005646110278871923 0.0008051947897714254 0.008980383957941856
 0.0008486356734408889 0.008975304777229685 -0.0007160315792026625 -0.005646110278871923 0.003649509124070727 0.01785231506091265 0.9956373296710181 -0.04311266859234044
 -0.0007155139216966155 -0.005646118603686956 0.0008051947897714254 0.008980383957941856 0.9956373296710181 -0.04311266859234044 0.0036567023052582067 0.01785175088025282
0.08128386827845 0.003922361512183523 0.019444573903730774 0.9952763063575637 -0.046785517395203424 0.0009632709254317189 0.00972715065869578 -0.0008095751867150495 -0.0061227629421325026
 0.9952763063575637 -0.046785517395203424 0.003930087601435884 0.019443981945900846 -0.0008101808221411463 -0.0061227486025550405 0.0009122578392544422 0.009733214113675982
 0.0009632709254317189 0.00972715065869578 -0.0008101808221411463 -0.0061227486025550405 0.003921974048626499 0.01944353381908791 0.9952762712964869 -0.04678660880876404
 -0.0008095751867150495 -0.0061227629421325026 0.0009122578392544422 0.009733214113675982 0.9952762712964869 -0.04678660880876404 0.003930413569259987 0.01944289021565877
0.08753647353064001 0.004208461628104095 0.021050294938792687 0.9948972467639776 -0.050472047633632736 0.0010856618623013225 0.010479229174096152 -0.00090994173426996 -0.006599904305921954
 0.9948972467639776 -0.050472047633632736 0.004217419573296207 0.021049625797609734 -0.0009106419988816305 -0.006599882822761549 0.0010264619820097665 0.010486395538730105
 0.0010856618623013225 0.010479229174096152 -0.0009106419988816305 -0.006599882822761549 0.0042080128364878205 0.021049180148837908 0.9948972062220813 -0.050473224196111145
 -0.00090994173426996 -0.006599904305921954 0.0010264619820097665 0.010486395538730105 0.9948972062220813 -0.050473224196111145 0.004217798210207492 0.02104845124586681
0.09378907878283 0.0045083787389483725 0.022670231422469992 0.9944999484596339 -0.054171151937704276 0.0012158760908082267 0.011231444920113435 -0.0010166822208181093 -0.0070774479820969235
 0.9944999484596339 -0.054171151937704276 0.004518659663613758 0.02266947994945489 -0.0010174837160839213 -0.00707741816010191 0.001147873521892265 0.01123984006513079
 0.0012158760908082267 0.011231444920113435 -0.0010174837160839213 -0.00707741816010191 0.004507864168544402 0.022669043076395907 0.9944999019967264 -0.05417241395069931
 -0.0010166822208181093 -0.0070774479820969235 0.001147873521892265 0.01123984006513079 0.9944999019967264 -0.05417241395069931 0.004519094975323643 0.02266822280300157
0.100041684035 0.004822350562114991 0.024304175779022892 0.9940841793464539 -0.05788271808539356 0.0013539799520002837 0.01198369990023131 -0.0011298639867970712 -0.007555297723223575
 0.9940841793464539 -0.05788271808539356 0.004834045672164838 0.02430333669896298 -0.0011307732644448504 -0.007555258300765802 0.0012765575615993083 0.011993457013601525
 0.0013539799520002837 0.01198369990023131 -0.0011307732644448504 -0.007555258300765802 0.004821765776657981 0.02430291510888838 0.9940841265105301 -0.05788406587467774
 -0.0011298639867970712 -0.007555297723223575 0.0012765575615993083 0.011993457013601525 0.9940841265105301 -0.05788406587467774 0.0048345416803680236 0.024301997197586803
0.1059090909091 0.005129973309764119 0.025850016158984107 0.9936770187899684 -0.0613768544112199 0.0014908092410431174 0.012689557613989932 -0.0012419901302784663 -0.008003900226388767
 0.9936770187899684 -0.0613768544112199 0.00514307852262761 0.025849089956630197 -0.001243006464680495 -0.008003850588406717 0.0014039850299159158 0.012700720512618087
 0.0014908092410431174 0.012689557613989932 -0.001243006464680495 -0.008003850588406717 0.005129318613984962 0.02584868881467192 0.9936769595512132 -0.06137828301083002
 -0.0012419901302784663 -0.008003900226388767 0.0014039850299159158 0.012700720512618087 0.9936769595512132 -0.06137828301083002 0.005143635160499854 0.02584767340258671
0.1062942892872 0.005150613822506662 0.025951922482278657 0.993649707789024 -0.06160662384750241 0.0015000384574002726 0.0127358936258189 -0.0012495530068756106 -0.008033355659398346
 0.993649707789024 -0.06160662384750241 0.005163814424148391 0.025950990391236307 -0.0012505765689004062 -0.008033305308537164 0.001412577944004885 0.012747153293907994
 0.0015000384574002726 0.0127358936258189 -0.0012505765689004062 -0.008033305308537164 0.005149954401296227 0.02595059080199595 0.9936496481154565 -0.06160805776458094
 -0.0012495530068756106 -0.008033355659398346 0.001412577944004885 0.012747153293907994 0.9936496481154565 -0.06160805776458094 0.005164375167181635 0.025949568785704702
0.11254689453939999 0.005493404200616656 0.027613266953491356 0.9931963027285864 -0.0653427380495669 0.0016541152254647726 0.013487923202872155 -0.0013758138390217172 -0.008511522227503518
 0.9931963027285864 -0.0653427380495669 0.0055082017183995515 0.027612236316229197 -0.001376958137652542 -0.00851145955403863 0.001555997193558571 0.01350083349085124
 0.0016541152254647726 0.013487923202872155 -0.001376958137652542 -0.00851145955403863 0.005492665740117802 0.027611865663291935 0.9931962357394559 -0.06534425846755645
 -0.0013758138390217172 -0.008511522227503518 0.001555997193558571 0.01350083349085124 0.9931962357394559 -0.06534425846755645 0.005508831252080678 0.027610732871791523
0.11879949979160001 0.005850956274325518 0.029288004712835738 0.9927237337924723 -0.06909092138315788 0.00181627241882903 0.014239683398474045 -0.0015087095723304827 -0.008989696123818005
 0.9927237337924723 -0.06909092138315788 0.005867442269470306 0.029286869859634374 -0.0015099810099058898 -0.008989619667373728 0.0017068764576640156 0.014254399929840487
 0.00181627241882903 0.014239683398474045 -0.0015099810099058898 -0.008989619667373728 0.005850134388985364 0.029286535290501018 0.9927236589954425 -0.06909252870602751
 -0.0015087095723304827 -0.008989696123818005 0.0017068764576640156 0.014254399929840487 0.9927236589954425 -0.06909252870602751 0.005868144667435964 0.029285284846335278
0.1250521050438 0.006223503453943046 0.030975930690472244 0.9922317713993012 -0.0728510270611892 0.00198657068234306 0.014991066698476871 -0.0016483017732116755 -0.00946777426857311
 0.9922317713993012 -0.0728510270611892 0.006241769642334808 0.030974685813458084 -0.0016497067019413166 -0.00946768250267907 0.0018652754488190377 0.015007752733713804
 0.00198657068234306 0.014991066698476871 -0.0016497067019413166 -0.00946768250267907 0.006222593777896109 0.03097439470495538 0.9922316882871601 -0.07285272171053668
 -0.0016483017732116755 -0.00946777426857311 0.0018652754488190377 0.015007752733713804 0.9922316882871601 -0.07285272171053668 0.006242548997615611 0.030973019518767686
0.131304710296 0.006611277913527031 0.032676838696706824 0.9917201868625464 -0.07662290131766344 0.0021650690811705993 0.01574196335716075 -0.001794650431042694 -0.009945651781717892
 0.9917201868625464 -0.07662290131766344 0.006631416184466749 0.03267547784559335 -0.0017961951528554195 -0.009945543113901938 0.002031252386079885 0.0157607898712976
 0.0021650690811705993 0.01574196335716075 -0.0017961951528554195 -0.009945543113901938 0.006610276101407606 0.03267523779641181 0.9917200949119465 -0.07662468374471865
 -0.001794650431042694 -0.009945651781717892 0.002031252386079885 0.0157607898712976 0.9917200949119465 -0.07662468374471865 0.0066322766092329405 0.03267373056166147
0.1375573155481 0.006920900883976805 0.03416741651926952 0.9912823872395776 -0.08018321610548138 0.002328626063715945 0.016469259745712127 -0.0019247735949047612 -0.010400121049607755
 0.9912823872395776 -0.08018321610548138 0.006943011098204571 0.034165966016912054 -0.0019264674457535923 -0.010399995517527155 0.0021819807577441942 0.01649018617029514
 0.002328626063715945 0.016469259745712127 -0.0019264674457535923 -0.010399995517527155 0.006919803081898559 0.0341657521984876 0.991282286043312 -0.08018508659215547
 -0.0019247735949047612 -0.010400121049607755 0.0021819807577441942 0.01649018617029514 0.991282286043312 -0.08018508659215547 0.006943956014662747 0.034164137952166385
0.1438099208003 0.0072412416376832316 0.03565086219248529 0.9908294868437357 -0.08373525449257936 0.0024988221670488174 0.017194041712254957 -0.002060123067600824 -0.010852359986676484
 0.9908294868437357 -0.08373525449257936 0.007265417168468903 0.035649318140991856 -0.002061972823784382 -0.010852216040369376 0.0023387818820011447 0.01721722303538829
 0.0024988221670488174 0.017194041712254957 -0.002061972823784382 -0.010852216040369376 0.007240043618885592 0.0356491361638975 0.9908293758786751 -0.08373721348470899
 -0.002060123067600824 -0.010852359986676484 0.0023387818820011447 0.01721722303538829 0.9908293758786751 -0.08373721348470899 0.007266450592807795 0.035647409620947264
0.1500625260525 0.007572196631052163 0.03712707375855352 0.9903615925114188 -0.08727895085857366 0.0026756059428522 0.01791624882996614 -0.002200650163546055 -0.011302313278282352
 0.9903615925114188 -0.08727895085857366 0.007598531071667844 0.03712543200328382 -0.002202662589760962 -0.01130214930586546 0.002501607169237864 0.01794184567037062
 0.0026756059428522 0.01791624882996614 -0.002202662589760962 -0.01130214930586546 0.007570894194770552 0.037125287805355345 0.9903614712409038 -0.08728099881787031
 -0.002200650163546055 -0.011302313278282352 0.002501607169237864 0.01794184567037062 0.9903614712409038 -0.08728099881787031 0.007599657031210774 0.03712344336819591
0.15631513130469998 0.007913661695043787 0.03859595246409565 0.9898788114993262 -0.09081423937601342 0.0028589254038787486 0.01863582155663497 -0.002346305660513328 -0.01174992670212456
