! Created with skrf 1.8.0 (http://scikit-rf.org).
# GHz S RI R 50.0 
!freq ReS11 ImS11 ReS12 ImS12 ReS13 ImS13
! ReS14 ImS14
! ReS21 ImS21 ReS22 ImS22 ReS23 ImS23
! ReS24 ImS24
! ReS31 ImS31 ReS32 ImS32 ReS33 ImS33
! ReS34 ImS34
! ReS41 ImS41 ReS42 ImS42 ReS43 ImS43
! ReS44 ImS44
!
0.0 0.001391070878919 0.0 0.998608929104 0.0 5.340552683206e-05 0.0 -5.340552669858e-05 6.540290732819451e-21
 0.998608929104 0.0 0.001391070878953 0.0 -5.340552669963e-05 6.540290732948039e-21 5.340552683257e-05 0.0
 5.340552683206e-05 0.0 -5.340552669963e-05 6.540290732948039e-21 0.001391070887472 0.0 0.9986089291125 0.0
 -5.340552669858e-05 6.540290732819451e-21 5.340552683257e-05 0.0 0.9986089291125 0.0 0.001391070887453 0.0
0.005 0.001496271973732528 0.001138199153665604 0.9984758989030367 -0.0029144446451684443 7.461120645184948e-05 0.0005889921189715027 -7.2487339060992e-05 -0.00036967780121165806
 0.9984758989030367 -0.0029144446451684443 0.00149628468225081 0.0011381916947617845 -7.248622310939654e-05 -0.0003696769031520808 7.45435235793156e-05 0.0005890179554272848
 7.461120645184948e-05 0.0005889921189715027 -7.248622310939654e-05 -0.0003696769031520808 0.0014962730933902007 0.0011382657144104631 0.9984758992443743 -0.002914377585786817
 -7.2487339060992e-05 -0.00036967780121165806 7.45435235793156e-05 0.0005890179554272848 0.9984758992443743 -0.002914377585786817 0.0014962842392358035 0.0011382592467438432
0.006252605252188 0.0015237429758506234 0.0014272435520485474 0.9984409597451849 -0.0036437872220113354 8.060521928706228e-05 0.0007365326499208747 -7.781917006077965e-05 -0.0004625822418147729
 0.9984409597451849 -0.0036437872220113354 0.0015237628417713906 0.0014272340575157496 -7.781743385879713e-05 -0.00046258113344129447 8.049947119635996e-05 0.0007365661692775627
 8.060521928706228e-05 0.0007365326499208747 -7.781743385879713e-05 -0.00046258113344129447 0.00152374465898051 0.001427326743120651 0.9984409602114891 -0.003643703399929989
 -7.781917006077965e-05 -0.0004625822418147729 8.049947119635996e-05 0.0007365661692775627 0.9984409602114891 -0.003643703399929989 0.0015237620813417245 0.001427318497257654
0.01250521050438 0.0016676574948930436 0.0028845655106679267 0.9982567955599232 -0.007288494388543403 0.0001146394765050796 0.0014734646165704061 -0.00010777239961574357 -0.0009274831912873907
 0.9982567955599232 -0.007288494388543403 0.0016677368234140008 0.0028845447887116604 -0.0001077655609888055 -0.0009274811287075282 0.00011421778846400602 0.001473544784148141
 0.0001146394765050796 0.0014734646165704061 -0.0001077655609888055 -0.0009274811287075282 0.0016676636579941362 0.002884731554242591 0.9982567968603994 -0.007288326979831453
 -0.00010777239961574357 -0.0009274831912873907 0.00011421778846400602 0.001473544784148141 0.9982567968603994 -0.007288326979831453 0.0016677332170566953 0.002884713439267047
0.01875781575657 0.0018231044851924649 0.004362831161316114 0.9980562249674727 -0.010943017524694931 0.0001555831185425575 0.0022113052396900202 -0.00014335221528304158 -0.0013940485106145918
 0.9980562249674727 -0.010943017524694931 0.0018232827481219514 0.004362797336795169 -0.00014333696968895694 -0.0013940456738329092 0.00015463586467366974 0.0022114475787619564
 0.0001555831185425575 0.0022113052396900202 -0.00014333696968895694 -0.0013940456738329092 0.0018231179186075062 0.004363079813289119 0.9980562274687396 -0.010942766600700753
 -0.00014335221528304158 -0.0013940485106145918 0.00015463586467366974 0.0022114475787619564 0.9980562274687396 -0.010942766600700753 0.0018232742044894303 0.004363050106140024
0.02501042100875 0.001990366707445999 0.005859997423666528 0.9978390287031612 -0.014609153144322868 0.00020351226289889069 0.002950101277663379 -0.00018464323078313174 -0.0018620822093179691
 0.9978390287031612 -0.014609153144322868 0.0019906833002648083 0.00585994849129419 -0.00018461631446789971 -0.0018620788076416442 0.00020182973978437554 0.0029503236082056607
 0.00020351226289889069 0.002950101277663379 -0.00018461631446789971 -0.0018620788076416442 0.001990390202321941 0.005860328422930275 0.9978390327758869 -0.014608818724567211
 -0.00018464323078313174 -0.0018620822093179691 0.00020182973978437554 0.0029503236082056607 0.9978390327758869 -0.014608818724567211 0.001990667723916282 0.005860285310879791
0.03126302626094 0.0021697151248827474 0.007375025646260512 0.9976049754706146 -0.018287685427528774 0.0002585037125515089 0.0036898320199666213 -0.00023172795254642594 -0.002331451484407569
 0.9976049754706146 -0.018287685427528774 0.0021702093861521404 0.0073749594724677675 -0.00023168613549662267 -0.002331447756867435 0.00025587593578383185 0.00369015447013533
 0.0002585037125515089 0.0036898320199666213 -0.00023168613549662267 -0.002331447756867435 0.0021697514696249675 0.007375438691998802 0.9976049814856887 -0.018287267502066978
 -0.00023172795254642594 -0.002331451484407569 0.00025587593578383185 0.00369015447013533 0.9976049814856887 -0.018287267502066978 0.0021701846722042718 0.00737538027473263
0.037515631513130004 0.0023614149948655953 0.00890724827200096 0.9973538281815834 -0.021979019499419657 0.000320634198307602 0.004430450329161197 -0.0002846873768898318 -0.00280204566750938
 0.9973538281815834 -0.021979019499419657 0.0023621262185462375 0.008907162595490828 -0.00028462745921108265 -0.002802041882966121 0.00031685080769025846 0.004430895357963866
 0.000320634198307602 0.004430450329161197 -0.00028462745921108265 -0.002802041882966121 0.002361466976830783 0.008907743020143898 0.9973538365131043 -0.021978518031913696
 -0.0002846873768898318 -0.00280204566750938 0.00031685080769025846 0.004430895357963866 0.9973538365131043 -0.021978518031913696 0.0023620902533794488 0.008907667310801377
0.043768236765320004 0.002565728231082732 0.010456176095288433 0.9970853464699316 -0.025683374109366098 0.00038998002639885365 0.005171895116101768 -0.00034360121309654694 -0.0032737637405409643
 0.9970853464699316 -0.025683374109366098 0.0025666956756183633 0.010456068527302556 -0.00034352002278724837 -0.0032737601977169805 0.0003848302373762911 0.005172487539575864
 0.00038998002639885365 0.005171895116101768 -0.00034352002278724837 -0.0032737601977169805 0.0025657986356118494 0.010456752148786665 0.9970853574948367 -0.02568278904630436
 -0.00034360121309654694 -0.0032737637405409643 0.0003848302373762911 0.005172487539575864 0.9970853574948367 -0.02568278904630436 0.002566646335842782 0.010456657074761419
0.050020842017509996 0.0027829145059983804 0.01202141860794444 0.9967992879482723 -0.029400861219359198 0.00046661687142753413 0.005914096496704066 -0.00040854797087919956 -0.0037465091712997932
 0.9967992879482723 -0.029400861219359198 0.002784177401722155 0.012021286632172673 -0.00040844236242671176 -0.0037465061987608556 0.0004598894509862388 0.005914863515580172
 0.00046661687142753413 0.005914096496704066 -0.00040844236242671176 -0.0037465061987608556 0.00278300611700802 0.012022075520688092 0.9967993020478841 -0.02940019248558766
 -0.00040854797087919956 -0.0037465091712997932 0.0004598894509862388 0.005914863515580172 0.9967993020478841 -0.02940019248558766 0.002784112554349967 0.012021958924205878
0.055454545454549996 0.00298231085813949 0.01339465324185358 0.9965362306775025 -0.032642170956919084 0.0005391960025601806 0.006559647414983744 -0.0004699482337610001 -0.004158100143272898
 0.9965362306775025 -0.032642170956919084 0.0029838623532165453 0.01339449791216111 -0.0004698188704750015 -0.004158097956332782 0.0005309256701790688 0.006560590126277909
 0.0005391960025601806 0.006559647414983744 -0.0004698188704750015 -0.004158097956332782 0.002982423156674355 0.01339538002193748 0.9965362477618168 -0.032641429433924216
 -0.0004699482337610001 -0.004158100143272898 0.0005309256701790688 0.006560590126277909 0.9965362477618168 -0.032641429433924216 0.0029837822883370807 0.0133952429035055
0.056273447269699996 0.003013231825060556 0.013602644903614411 0.9964954089394394 -0.0331315250340307 0.0005506196346927733 0.006656978313773534 -0.00047960498599559996 -0.004220187385831863
 0.9964954089394394 -0.0331315250340307 0.003014829381265949 0.013602485875918306 -0.00047947183936467475 -0.004220185341973638 0.0005421028921233652 0.0066579495418340896
 0.0005506196346927733 0.006656978313773534 -0.00047947183936467475 -0.004220185341973638 0.003013347423199003 0.013603382179028557 0.9964954264990029 -0.03313077253364716
 -0.00047960498599559996 -0.004220187385831863 0.0005421028921233652 0.0066579495418340896 0.9964954264990029 -0.03313077253364716 0.003014746882032789 0.013603241817456688
0.06252605252188 0.003256936841230075 0.015199562177435304 0.9961734649516718 -0.03687536343672722 0.0006420623335447804 0.007400459526040311 -0.0005568484160352674 -0.004694704375782275
 0.9961734649516718 -0.03687536343672722 0.003258908252091285 0.015199373325411169 -0.0005566846359658981 -0.004694703648796342 0.0006315441207590949 0.007401667018823545
 0.0006420623335447804 0.007400459526040311 -0.0005566846359658981 -0.004694703648796342 0.0032570792037708153 0.015200379265158048 0.9961734863612038 -0.036874527055841023
 -0.0005568484160352674 -0.004694704375782275 0.0006315441207590949 0.007401667018823545 0.9961734863612038 -0.036874527055841023 0.0032588059454540796 0.015200212811223503
0.06877865777407 0.0035142850292451027 0.016811902918230447 0.9958332110154234 -0.0406323407347935 0.0007410180082617758 0.008144455035427475 -0.0006403532186404047 -0.005169965869914434
 0.9958332110154234 -0.0406323407347935 0.0035166694797602828 0.016811681340598662 -0.0006401557341356738 -0.005169966877752575 0.0007282857269520981 0.008145933319065844
 0.0007410180082617758 0.008144455035427475 -0.0006401557341356738 -0.005169966877752575 0.0035144569293549363 0.01681279921201867 0.9958332366706517 -0.04063142034317083
 -0.0006403532186404047 -0.005169965869914434 0.0007282857269520981 0.008145933319065844 0.9958332366706517 -0.04063142034317083 0.003516545198415533 0.01681260425388901
0.07503126302626001 0.003785530776637029 0.018439416774928715 0.9954744019415468 -0.044402395733185517 0.0008475586396744241 0.008888876206326866 -0.0007301931184805295 -0.005645876816223132
 0.9954744019415468 -0.044402395733185517 0.0037883674482992393 0.018439159440809594 -0.000729958882445679 -0.00564588000656469 0.0008323992535457249 0.008890662306391822
 0.0008475586396744241 0.008888876206326866 -0.000729958882445679 -0.00564588000656469 0.003785734983059245 0.01844039161486143 0.9954744322444095 -0.04440139118160828
 -0.0007301931184805295 -0.005645876816223132 0.0008323992535457249 0.008890662306391822 0.9954744322444095 -0.04440139118160828 0.003788219012932159 0.018440165655965637
0.08128386827845 0.00407092742366218 0.020081865147039645 0.9950967925295068 -0.04818544708669419 0.0009617550726717677 0.009633631223176497 -0.0008264405676047227 -0.006122341028486794
 0.9950967925295068 -0.04818544708669419 0.004074255500027353 0.0200815688949737 -0.0008261665565593666 -0.006122346878691391 0.0009439551235909396 0.009635764693443903
 0.0009617550726717677 0.009633631223176497 -0.0008261665565593666 -0.006122346878691391 0.004071166698914987 0.020082917819963426 0.9950968278881194 -0.04818435820597305
 -0.0008264405676047227 -0.006122341028486794 0.0009439551235909396 0.009635764693443903 0.9950968278881194 -0.04818435820597305 0.004074080718030694 0.02008265827880402
0.08753647353064001 0.0043707272662160766 0.021739017449931963 0.9947001377424609 -0.05198139698025432 0.001083676944776485 0.01037862532594578 -0.0009291666998692421 -0.00659926095777296
 0.9947001377424609 -0.05198139698025432 0.004374585938023728 0.021738678986844374 -0.0009288499137565843 -0.006599269974845672 0.0010630225719275531 0.010381148277017489
 0.001083676944776485 0.01037862532594578 -0.0009288499137565843 -0.006599269974845672 0.004371004366629765 0.021740147182424972 0.9947001785726063 -0.051980223587926526
 -0.0009291666998692421 -0.00659926095777296 0.0010630225719275531 0.010381148277017489 0.9947001785726063 -0.051980223587926526 0.004374382603934459 0.021739851392091208
0.09378907878283 0.004685181538041545 0.02341064843560309 0.9942841928644566 -0.05579013375690792 0.001213392616178998 0.01112376099185435 -0.001038441282789851 -0.007076537520694155
 0.9942841928644566 -0.05579013375690792 0.004689610009180173 0.023410264335506015 -0.0010380787449068252 -0.007076550241226473 0.0011896695779906985 0.011126718119590387
 0.001213392616178998 0.01112376099185435 -0.0010380787449068252 -0.007076550241226473 0.004685499212669282 0.02341185440009043 0.9942842395895904 -0.055788875650648564
 -0.001038441282789851 -0.007076537520694155 0.0011896695779906985 0.011126718119590387 0.9942842395895904 -0.055788875650648564 0.0046893759033989025 0.02341151960769382
0.100041684035 0.005014540373801103 0.025096536233178732 0.9938487136403605 -0.05961153382937353 0.0013509691023792828 0.011868938063934456 -0.0011543326660865129 -0.007554069983871759
 0.9938487136403605 -0.05961153382937353 0.005019577866120287 0.025096102935756953 -0.001153921422925226 -0.0075540869740056745 0.001323962800518277 0.011872376677647843
 0.0013509691023792828 0.011868938063934456 -0.001153921422925226 -0.0075540869740056745 0.005014901363463647 0.02509781754652196 0.993848766692187 -0.059610190788082516
 -0.0011543326660865129 -0.007554069983871759 0.001323962800518277 0.011872376677647843 0.993848766692187 -0.059610190788082516 0.005019310755026697 0.0250974409123706
0.1059090909091 0.005337386056200742 0.026691333567967372 0.9934220792438841 -0.0632089103056767 0.0014872778254825965 0.012568153928791995 -0.0012691619389986212 -0.008002325034269838
 0.9934220792438841 -0.0632089103056767 0.00534303074317812 0.026690850744930685 -0.0012687023256088335 -0.008002346572141742 0.0014569950591569421 0.012572089745864157
 0.0014872778254825965 0.012568153928791995 -0.0012687023256088335 -0.008002346572141742 0.005337790177122279 0.026692684731801856 0.9934221386336992 -0.06320748734749045
 -0.0012691619389986212 -0.008002325034269838 0.0014569950591569421 0.012572089745864157 0.9934221386336992 -0.06320748734749045 0.0053427306153412185 0.026692266172829503
0.1062942892872 0.005359052760125959 0.02679646087354295 0.993393456407079 -0.06344546311097539 0.001496472007599416 0.0126140538542101 -0.0012769077282704785 -0.00803175587702956
 0.993393456407079 -0.06344546311097539 0.0053647385191232235 0.02679597468253311 -0.0012764448495434 -0.008031777732397426 0.001465967512978186 0.01261802390454268
 0.001496472007599416 0.0126140538542101 -0.0012764448495434 -0.008031777732397426 0.005359459796571501 0.02679781659308576 0.9933935162266477 -0.06344403489837927
 -0.0012769077282704785 -0.00803175587702956 0.001465967512978186 0.01261802390454268 0.9933935162266477 -0.06344403489837927 0.005364436154192681 0.026797395189788263
0.11254689453939999 0.005718966477431683 0.028510203158325656 0.9929181782181891 -0.06729177810577007 0.0016499654592854465 0.013359003224081952 -0.0014062318214438966 -0.0085094909319719
 0.9929181782181891 -0.06729177810577007 0.005725339777537666 0.02850966023976321 -0.0014057144000580442 -0.008509518277640831 0.0016157475396803257 0.013363557330641223
 0.0016499654592854465 0.013359003224081952 -0.0014057144000580442 -0.008509518277640831 0.005719422282359017 0.028511632285084458 0.9929182452562038 -0.06729026446695803
 -0.0014062318214438966 -0.0085094909319719 0.0016157475396803257 0.013363557330641223 0.9929182452562038 -0.06729026446695803 0.005724999894941926 0.028511163096397656
0.11879949979160001 0.006094528033286091 0.030237543781050667 0.9924226369623241 -0.0711503267504157 0.0018115120427498318 0.014103678651644563 -0.0015423687150247368 -0.008987169038165838
 0.9924226369623241 -0.0711503267504157 0.006101628183103586 0.030236940161265314 -0.0015417938670557586 -0.00898720252859186 0.001773365192058935 0.01410887213026709
 0.0018115120427498318 0.014103678651644563 -0.0015417938670557586 -0.00898720252859186 0.006095035317259742 0.03023904525627981 0.9924227116794505 -0.07114872741494346
 -0.0015423687150247368 -0.008987169038165838 0.001773365192058935 0.01410887213026709 0.9924227116794505 -0.07114872741494346 0.00610124850345177 0.030238525175744744
0.1250521050438 0.006485982590780056 0.031978262629822826 0.9919065914786739 -0.07502094907821309 0.0019811727365440157 0.014847970289512846 -0.0016853805379919385 -0.009464682211077038
 0.9919065914786739 -0.07502094907821309 0.0064938489386672715 0.03197759419327491 -0.0016847454028079453 -0.0094647225300291 0.0019388812053238171 0.014853861179114781
 0.0019811727365440157 0.014847970289512846 -0.0016847454028079453 -0.0094647225300291 0.00648654405244008 0.03197983533706226 0.991906674346795 -0.0750192637578869
 -0.0016853805379919385 -0.009464682211077038 0.0019388812053238171 0.014853861179114781 0.991906674346795 -0.0750192637578869 0.006493427166146671 0.03197926116650454
0.131304710296 0.006893573891073872 0.033732138228044994 0.991369801670155 -0.07890347774929599 0.00215900684778185 0.015591766012873928 -0.001835327720508398 -0.00994192057381089
 0.991369801670155 -0.07890347774929599 0.006902245830557584 0.03373140071495768 -0.0018346294607922294 -0.009941968434318419 0.002112354675234783 0.015598415102020204
 0.00215900684778185 0.015591766012873928 -0.0018346294607922294 -0.009941968434318419 0.006894192216177496 0.033733780993249717 0.9913698931726261 -0.07890170613778066
 -0.001835327720508398 -0.00994192057381089 0.002112354675234783 0.015598415102020204 0.9913698931726261 -0.07890170613778066 0.00690177965273984 0.03373314944104673
0.1375573155481 0.007220301914618978 0.035269977523687 0.9909093018665703 -0.08256869035238275 0.0023217604944996374 0.016311670601168598 -0.001969014035242301 -0.010395466560475344
 0.9909093018665703 -0.08256869035238275 0.007229820867718135 0.0352691827866205 -0.001968248347214676 -0.010395521958965906 0.0022706367019580385 0.01631906481680369
 0.0023217604944996374 0.016311670601168598 -0.001968248347214676 -0.010395521958965906 0.007220979141149103 0.035271689482902865 0.990909402399533 -0.082566832266373
 -0.001969014035242301 -0.010395466560475344 0.0022706367019580385 0.01631906481680369 0.990909402399533 -0.082566832266373 0.007229308773162187 0.03527101293250074
0.1438099208003 0.007558398215397326 0.036800340535492956 0.9904328394240945 -0.08622524600133043 0.0024911010798543635 0.017029031289412126 -0.0021080619151232225 -0.010846693366483275
 0.9904328394240945 -0.08622524600133043 0.007568803928803114 0.03679948539361362 -0.0021072257309305447 -0.010846757000860347 0.002435308405129593 0.01703722592493779
 0.0024911010798543635 0.017029031289412126 -0.0021072257309305447 -0.010846757000860347 0.007559136893473876 0.0368021204916278 0.9904329494698574 -0.08622330114013009
 -0.0021080619151232225 -0.010846693366483275 0.002435308405129593 0.01703722592493779 0.9904329494698574 -0.08622330114013009 0.0075682437256965355 0.03680139671140125
0.1500625260525 0.007907752065162938 0.038323117970557784 0.9899405285503137 -0.08987307286057966 0.0026669758169523593 0.01774378705272709 -0.00225242033800493 -0.011295543152072702
 0.9899405285503137 -0.08987307286057966 0.007919084338024815 0.038322199078050324 -0.0022515105944695695 -0.011295615748264324 0.002606318016231613 0.01775283941858049
 0.0026669758169523593 0.01774378705272709 -0.0022515105944695695 -0.011295615748264324 0.00790855472468822 0.03832496467940235 0.9899406486009807 -0.08987104091151117
 -0.00225242033800493 -0.011295543152072702 0.002606318016231613 0.01775283941858049 0.9899406486009807 -0.08987104091151117 0.007918473827594974 0.03832419130982687
0.15631513130469998 0.00826825204995856 0.03983820392516814 0.9894324839217695 -0.0935120989766838 0.0028493313576408376 0.018455877802154245 -0.00240203770939677 -0.011741959228381293
