! Created with skrf 1.8.0 (http://scikit-rf.org).
# GHz S RI R 50.0 
!freq ReS11 ImS11 ReS12 ImS12 ReS13 ImS13
! ReS14 ImS14
! ReS21 ImS21 ReS22 ImS22 ReS23 ImS23
! ReS24 ImS24
! ReS31 ImS31 ReS32 ImS32 ReS33 ImS33
! ReS34 ImS34
! ReS41 ImS41 ReS42 ImS42 ReS43 ImS43
! ReS44 ImS44
!
0.0 0.001546640161819 0.0 0.9984533598382 0.0 5.978846992961e-05 0.0 -5.978846957314e-05 7.321975788866482e-21
 0.9984533598382 0.0 0.001546640161805 0.0 -5.978846957289e-05 7.321975788835866e-21 5.978846992696e-05 0.0
 5.978846992961e-05 0.0 -5.978846957289e-05 7.321975788835866e-21 0.001546640153299 0.0 0.9984533598297 0.0
 -5.978846957314e-05 7.321975788866482e-21 5.978846992696e-05 0.0 0.9984533598297 0.0 0.001546640153292 0.0
0.005 0.0016641079262045104 0.0012628777979746778 0.9983047585062558 -0.0032399600969319846 8.404007119834622e-05 0.0006729279273786483 -8.161899628585067e-05 -0.0004198939014003139
 0.9983047585062558 -0.0032399600969319846 0.0016640855906220932 0.0012628908867305846 -8.162024232205335e-05 -0.00041989490473510023 8.417360127759025e-05 0.0006728771110087251
 8.404007119834622e-05 0.0006729279273786483 -8.162024232205335e-05 -0.00041989490473510023 0.001664107414481483 0.0012629454023886928 0.9983047588718879 -0.003239893039100389
 -8.161899628585067e-05 -0.0004198939014003139 8.417360127759025e-05 0.0006728771110087251 0.9983047588718879 -0.003239893039100389 0.0016640868213561968 0.0012629573853660126
0.006252605252188 0.0016949233688804942 0.0015835755129595635 0.9982655341230355 -0.004050742959695331 9.094575959972687e-05 0.0008414806715335707 -8.778499129641655e-05 -0.0005254131975259056
 0.9982655341230355 -0.004050742959695331 0.0016948884538452197 0.001583592126631534 -8.778692986659281e-05 -0.0005254144356093734 9.115438847490563e-05 0.0008414146827085867
 9.094575959972687e-05 0.0008414806715335707 -8.778692986659281e-05 -0.0005254144356093734 0.0016949224835054646 0.001583660019508008 0.9982655346099718 -0.004050659135895853
 -8.778499129641655e-05 -0.0005254131975259056 9.115438847490563e-05 0.0008414146827085867 0.9982655346099718 -0.004050659135895853 0.0016948902931112643 0.0015836752399647379
0.01250521050438 0.001857183865623674 0.003200404029119766 0.9980576568284765 -0.008102296756993919 0.0001304289307147885 0.0016832917582048608 -0.00012278303514193928 -0.0010533837846489612
 0.9980576568284765 -0.008102296756993919 0.0018570444412189992 0.0032004398088423414 -0.0001227906705184844 -0.0010533860848277335 0.0001312609103310921 0.001683133149226169
 0.0001304289307147885 0.0016832917582048608 -0.0001227906705184844 -0.0010533860848277335 0.0018571797647244737 0.003200572786974391 0.9980576582188613 -0.008102129328211879
 -0.00012278303514193928 -0.0010533837846489612 0.0001312609103310921 0.001683133149226169 0.9980576582188613 -0.008102129328211879 0.001857051233425488 0.0032006056542734133
0.01875781575657 0.0020337771346927895 0.004840297931289273 0.9978294685751119 -0.012164522801195437 0.00017833100748692132 0.0025260133980833503 -0.0001648909534692072 -0.0015831308517683842
 0.9978294685751119 -0.012164522801195437 0.0020334638256023904 0.004840355630187167 -0.0001649079745888055 -0.0015831340055365722 0.00018019999714363234 0.0025257303201356766
 0.00017833100748692132 0.0025260133980833503 -0.0001649079745888055 -0.0015831340055365722 0.002033767480853327 0.0048405507894475844 0.9978294712875032 -0.01216427180843868
 -0.0001648909534692072 -0.0015831308517683842 0.00018019999714363234 0.0025257303201356766 0.9978294712875032 -0.01216427180843868 0.002033478675751669 0.004840603878914256
0.02501042100875 0.002225048099688319 0.006500954557779697 0.9975806997000638 -0.016239386791185268 0.0002347455567272176 0.003369684769559933 -0.00021421345795642033 -0.0021144083898751247
 0.9975806997000638 -0.016239386791185268 0.0022244916591827196 0.006501037105063612 -0.00021424350772525008 -0.0021144121523571807 0.00023806539471320253 0.0033692403345349626
 0.0002347455567272176 0.003369684769559933 -0.00021424350772525008 -0.0021144121523571807 0.002225030540870648 0.006501291359543731 0.997580704152308 -0.016239052206199953
 -0.00021421345795642033 -0.0021144083898751247 0.00023806539471320253 0.0033692403345349626 0.997580704152308 -0.016239052206199953 0.002224517662716386 0.006501367373067747
0.03126302626094 0.002431327429837427 0.008181187141002855 0.9973110668458863 -0.02032772773634925 0.00029976634615256313 0.0042142657946090826 -0.00027085223363502135 -0.0026470437077914847
 0.9973110668458863 -0.02032772773634925 0.0024304587015870826 0.00818129763735385 -0.0002708989167748114 -0.0026470477973181902 0.0003049514334920939 0.004213618045336578
 0.00029976634615256313 0.0042142657946090826 -0.0002708989167748114 -0.0026470477973181902 0.002431299605493881 0.00818160770402077 0.9973110734651984 -0.020327309481429117
 -0.00027085223363502135 -0.0026470437077914847 0.0003049514334920939 0.004213618045336578 0.9973110734651984 -0.020327309481429117 0.002430498952282874 0.008181709465052589
0.037515631513130004 0.002652938622079267 0.009880220548938445 0.997020280281003 -0.024429962152732854 0.00037348653982937686 0.005059685083786439 -0.00033490668873292025 -0.0031808895031591672
 0.997020280281003 -0.024429962152732854 0.0026516885147314768 0.009880362264401903 -0.000334973575787122 -0.003180893601155954 0.00038095201223527664 0.00505878694274165
 0.00037348653982937686 0.005059685083786439 -0.000334973575787122 -0.003180893601155954 0.002652898154551895 0.009880724650389316 0.9970202894977571 -0.024429460115472236
 -0.00033490668873292025 -0.0031808895031591672 0.00038095201223527664 0.00505878694274165 0.9970202894977571 -0.024429460115472236 0.0026517460969535758 0.009880855101322437
0.043768236765320004 0.002890200731022688 0.011597476946518687 0.996708046863574 -0.028546298331028792 0.0004559983092305268 0.005905854538278667 -0.00040647422566325976 -0.0037158092678194004
 0.996708046863574 -0.028546298331028792 0.0028885001977215995 0.011597653319542373 -0.0004065648554405105 -0.0037158130188062874 0.0004661601183958127 0.005904653749702999
 0.0004559983092305268 0.005905854538278667 -0.0004065648554405105 -0.0037158130188062874 0.002890145229669054 0.011598064330531324 0.9967080591182854 -0.028545712356908847
 -0.00040647422566325976 -0.0037158092678194004 0.0004661601183958127 0.005904653749702999 0.9967080591182854 -0.028545712356908847 0.0028885781906099585 0.011598226530921846
0.050020842017509996 0.0031434296448013188 0.01333248722954043 0.996374071554442 -0.0326768248306492 0.000547392597626742 0.006752675372501806 -0.0004856503351935913 -0.004251671272682625
 0.996374071554442 -0.0326768248306492 0.003141209665600711 0.013332701866499833 -0.00048576821628284615 -0.0042516742842968695 0.0005606675443791065 0.006751114441705171
 0.000547392597626742 0.006752675372501806 -0.00048576821628284615 -0.0042516742842968695 0.0031433567012142368 0.013333157602950731 0.9963740872953983 -0.03267615472738402
 -0.0004856503351935913 -0.004251671272682625 0.0005606675443791065 0.006751114441705171 0.9963740872953983 -0.03267615472738402 0.0031413111386475135 0.013333354728351059
0.055454545454549996 0.0033767036762060543 0.014854367254425823 0.9960659499017931 -0.03627791273362728 0.0006341002756491874 0.0074890347759098315 -0.0005607086061625384 -0.004718015905512289
 0.9960659499017931 -0.03627791273362728 0.00337397623901359 0.014854618203289658 -0.0005608529962244842 -0.004718017927328853 0.0006504197897695819 0.007487110062516613
 0.0006341002756491874 0.0074890347759098315 -0.0005608529962244842 -0.004718017927328853 0.003376613604393967 0.0148551094778128 0.9960659690436369 -0.03627716933744165
 -0.0005607086061625384 -0.004718015905512289 0.0006504197897695819 0.007487110062516613 0.9960659690436369 -0.03627716933744165 0.003374100601365048 0.014855339622681108
0.056273447269699996 0.0034129387305803487 0.01508484754263402 0.9960180583022318 -0.03682155389115716 0.0006477589471312264 0.007600041074497369 -0.0005725286159346836 -0.004788345617185388
 0.9960180583022318 -0.03682155389115716 0.003410130296441004 0.01508510421803805 -0.0005726772277999336 -0.004788347460225136 0.0006645646860642489 0.007598057205972299
 0.0006477589471312264 0.007600041074497369 -0.0005726772277999336 -0.004788347460225136 0.003412845917474499 0.015085600573770027 0.9960180779867384 -0.03682079942998995
 -0.0005725286159346836 -0.004788345617185388 0.0006645646860642489 0.007598057205972299 0.9960180779867384 -0.03682079942998995 0.0034102583079582034 0.015085835915132463
0.06252605252188 0.0036990391807343198 0.016854195385159212 0.9956397106319438 -0.04098044525862372 0.0007571853593629494 0.008447839032665133 -0.0006672007539907797 -0.005325702615874233
 0.9956397106319438 -0.04098044525862372 0.0036955732778947265 0.016854498042301436 -0.0006673835476891713 -0.005325702824343184 0.0007779403835515491 0.008445364067795851
 0.0007571853593629494 0.008447839032665133 -0.0006673835476891713 -0.005325702824343184 0.003698924053144938 0.01685503069729566 0.9956397347302174 -0.040979606181131986
 -0.0006672007539907797 -0.005325702615874233 0.0007779403835515491 0.008445364067795851 0.9956397347302174 -0.040979606181131986 0.00369573087615306 0.016855307660841493
0.06877865777407 0.004002040195103845 0.018640195357316897 0.9952387320748398 -0.045153420375907125 0.0008757581730238794 0.009295951512034929 -0.0007697564803813903 -0.005863611839587213
 0.9952387320748398 -0.045153420375907125 0.003997847790583484 0.018640548109355108 -0.0007699768791377454 -0.00586360991074734 0.0009008817855767179 0.00929291186669932
 0.0008757581730238794 0.009295951512034929 -0.0007699768791377454 -0.00586360991074734 0.004001900286804799 0.01864111254087214 0.9952387610687118 -0.04515249638195504
 -0.0007697564803813903 -0.005863611839587213 0.0009008817855767179 0.00929291186669932 0.9952387610687118 -0.04515249638195504 0.003998038009516758 0.01864143464844458
0.07503126302626001 0.004322249061533077 0.020442530129564637 0.9948148264986961 -0.04934037135385056 0.001003561952255856 0.010144256274799892 -0.0008802835145154595 -0.006401941516766941
 0.9948148264986961 -0.04934037135385056 0.004317261088191596 0.020442937261195976 -0.0008805449140089881 -0.006401936911203739 0.0010334742277784213 0.010140572877231746
 0.001003561952255856 0.010144256274799892 -0.0008805449140089881 -0.006401936911203739 0.00432208188394338 0.02044352873230098 0.9948148608832725 -0.04933936211176461
 -0.0008802835145154595 -0.006401941516766941 0.0010334742277784213 0.010140572877231746 0.9948148608832725 -0.04933936211176461 0.004317486946415651 0.020443899622085645
0.08128386827845 0.004659971175551697 0.02226089443343752 0.9943676983823772 -0.053541166926161746 0.001140679381424514 0.01099262700193264 -0.0009988674986200156 -0.006940558138456689
 0.9943676983823772 -0.053541166926161746 0.0046541185180692 0.022261360402844946 -0.0009991732673029121 -0.006940550280132073 0.001175801119140053 0.010988215230964939
 0.001140679381424514 0.01099262700193264 -0.0009991732673029121 -0.006940550280132073 0.00465977421786085 0.022261973966059393 0.9943677386683228 -0.053540072067462134
 -0.0009988674986200156 -0.006940558138456689 0.001175801119140053 0.010988215230964939 0.9943677386683228 -0.053540072067462134 0.004654383018077152 0.022262397393897102
0.08753647353064001 0.005015510020513073 0.02409499090593403 0.9938970530531182 -0.05775565655598242 0.001287191163719946 0.011840933586146143 -0.0011255919258355703 -0.007479326196803756
 0.9938970530531182 -0.05775565655598242 0.005008723500835353 0.02409552034741301 -0.0011259454050671419 -0.007479314473119285 0.001327943834593944 0.011835703210120242
 0.001287191163719946 0.011840933586146143 -0.0011259454050671419 -0.007479314473119285 0.005015280747495581 0.024096150839719905 0.9938970997673857 -0.05775447567819828
 -0.0011255919258355703 -0.007479326196803756 0.001327943834593944 0.011835703210120242 0.9938970997673857 -0.05775447567819828 0.005009029626500977 0.024096630680876766
0.09378907878283 0.005389167118065019 0.025944527124138528 0.9934025968988354 -0.06198367335779763 0.0014431759228560016 0.01268904235011444 -0.0012605380636241288 -0.008018108003557437
 0.9934025968988354 -0.06198367335779763 0.0053813774811703125 0.025945124851114235 -0.0012609425677712481 -0.008018091765428245 0.0014899816111199153 0.012682897466321357
 0.0014431759228560016 0.01268904235011444 -0.0012609425677712481 -0.008018091765428245 0.00538890296876303 0.025945766889501797 0.9934026505855028 -0.06198240602632689
 -0.0012605380636241288 -0.008018108003557437 0.0014899816111199153 0.012682897466321357 0.9934026505855028 -0.06198240602632689 0.005381728195838894 0.025946307140886637
0.100041684035 0.005781241958791366 0.0278092134296371 0.992884037562918 -0.06622503623532194 0.00160871010595742 0.013536816214846264 -0.00140378487441466 -0.008556763563474484
 0.992884037562918 -0.06622503623532194 0.005772379858279889 0.027809884438194273 -0.001404243690883673 -0.00855674212539114 0.0016619914458779498 0.013529655189927775
 0.00160871010595742 0.013536816214846264 -0.001404243690883673 -0.00855674212539114 0.005780940345350176 0.027810532421399053 0.9928840987849215 -0.06622368197887411
 -0.00140378487441466 -0.008556763563474484 0.0016619914458779498 0.013529655189927775 0.9928840987849215 -0.06622368197887411 0.005772778103017927 0.027811137204367488
0.1059090909091 0.006166178273929261 0.029572545567381817 0.9923752438813866 -0.07021707115826614 0.0017727975801322278 0.014331932502621252 -0.0015458244282433558 -0.009061993051105801
 0.9923752438813866 -0.07021707115826614 0.0061562466163892675 0.029573290053161172 -0.00154633717691491 -0.009061966077575766 0.0018325404446242176 0.014323720346039483
 0.0017727975801322278 0.014331932502621252 -0.00154633717691491 -0.009061966077575766 0.006165839126001584 0.029573938322070524 0.9923753127045571 -0.07021563487166355
 -0.0015458244282433558 -0.009061993051105801 0.0018325404446242176 0.014323720346039483 0.9923753127045571 -0.07021563487166355 0.006156692116651766 0.029574607523122083
0.1062942892872 0.00619203191633787 0.02968876130005379 0.9923410841266742 -0.07047955147850549 0.0017838678879119898 0.014384114830365283 -0.0015554089332497924 -0.009095150491073277
 0.9923410841266742 -0.07047955147850549 0.006182027900229298 0.029689510773075915 -0.0015559253224934641 -0.009095123131181654 0.0018440479968436715 0.014375830241400527
 0.0017838678879119898 0.014384114830365283 -0.0015559253224934641 -0.009095123131181654 0.006191690223142247 0.029690158876003687 0.9923411534672811 -0.0704781097911221
 -0.0015554089332497924 -0.009095150491073277 0.0018440479968436715 0.014375830241400527 0.9923411534672811 -0.0704781097911221 0.006182476592255179 0.02969083243960232
0.11254689453939999 0.006621832152448648 0.03158288210004993 0.991773447285067 -0.07474701398727152 0.001968721076952031 0.01523079468674506 -0.0017154843434292954 -0.009633123952317068
 0.991773447285067 -0.07474701398727152 0.006610616648495395 0.03158371541176203 -0.001716061538893369 -0.009633089912493387 0.00203622348451488 0.015221273263471327
 0.001968721076952031 0.01523079468674506 -0.001716061538893369 -0.009633089912493387 0.006621447734417601 0.03158435757996599 0.9917735253491465 -0.07474548432992616
 -0.0017154843434292954 -0.009633123952317068 0.00203622348451488 0.015221273263471327 0.9917735253491465 -0.07474548432992616 0.006611118678917373 0.031585104304838116
0.11879949979160001 0.007070935511331005 0.03349128611682866 0.9911808395154671 -0.07902720821713527 0.0021633390201549023 0.01607670920643808 -0.0018840826512602025 -0.010170536630867309
 0.9911808395154671 -0.07902720821713527 0.007058438812458862 0.03349220883801535 -0.0018847238592752324 -0.01017049511681228 0.002238587594116931 0.016065831774365342
 0.0021633390201549023 0.01607670920643808 -0.0018847238592752324 -0.01017049511681228 0.007070505692317114 0.033492838782939204 0.991180926930121 -0.07902559001822868
 -0.0018840826512602025 -0.010170536630867309 0.002238587594116931 0.016065831774365342 0.991180926930121 -0.07902559001822868 0.007058997044234143 0.033493663185682074
0.1250521050438 0.007539632406236783 0.03541368179354169 0.9905629752408945 -0.08331990893377826 0.002367788510111033 0.01692170882876499 -0.0020612727588918043 -0.01070723870781891
 0.9905629752408945 -0.08331990893377826 0.007525784656492792 0.03541469969725654 -0.0020619811586707207 -0.010707188889120265 0.0024512073794174154 0.016909350253483932
 0.002367788510111033 0.01692170882876499 -0.0020619811586707207 -0.010707188889120265 0.007539154478914319 0.035415310893607096 0.9905630726581285 -0.0833182015868226
 -0.0020612727588918043 -0.01070723870781891 0.0024512073794174154 0.016909350253483932 0.9905630726581285 -0.0833182015868226 0.007526401922626565 0.03541621763176881
0.131304710296 0.008028210702544456 0.037349775125881196 0.9899195709921581 -0.08762488181113058 0.002582133691631932 0.017765641083424683 -0.0022471208368775855 -0.011243077858330354
 0.9899195709921581 -0.08762488181113058 0.008012941881681423 0.03735089419380157 -0.002247899580297051 -0.011243018868561666 0.002674147166548702 0.01775167021597941
 0.002582133691631932 0.017765641083424683 -0.002247899580297051 -0.011243018868561666 0.008027681925813103 0.03735147987098601 0.9899196790892189 -0.08762308467797646
 -0.0022471208368775855 -0.011243077858330354 0.002674147166548702 0.01775167021597941 0.9899196790892189 -0.08762308467797646 0.008013620983242025 0.03735247374864079
0.1375573155481 0.008425559606548038 0.039046371109751364 0.9893617877498067 -0.09168885537761509 0.002779073042063595 0.018582883371816638 -0.0024142227652692166 -0.011752524993159149
 0.9893617877498067 -0.09168885537761509 0.008408795438459914 0.03904757417969473 -0.002415076656265059 -0.011752456764596818 0.0028798924023532547 0.01856731957829091
 0.002779073042063595 0.018582883371816638 -0.002415076656265059 -0.011752456764596818 0.008424978185876725 0.039048150612560735 0.9893619070325383 -0.09168696804610738
 -0.0024142227652692166 -0.011752524993159149 0.0028798924023532547 0.01856731957829091 0.9893619070325383 -0.09168696804610738 0.008409538524569563 0.03904921381941304
0.1438099208003 0.008836910492227373 0.040733923957499585 0.9887843616056615 -0.09574242887443747 0.002983947953133169 0.01939683657421972 -0.002588007904640878 -0.012258904623392781
 0.9887843616056615 -0.09574242887443747 0.008818580115485636 0.04073521565351104 -0.0025889403530728883 -0.01225882630036931 0.0030939592786275835 0.01937955983537052
 0.002983947953133169 0.01939683657421972 -0.0025889403530728883 -0.01225882630036931 0.008836273808997085 0.04073577734988606 0.9887844927535839 -0.09574045071097813
 -0.002588007904640878 -0.012258904623392781 0.0030939592786275835 0.01937955983537052 0.9887844927535839 -0.09574045071097813 0.00881938982340817 0.040736913356341095
0.1500625260525 0.009262117585752164 0.04241228960156128 0.9881874426518358 -0.0997854986636297 0.0031966863509600837 0.020207418213346436 -0.0027684050110182742 -0.012762136738445805
 0.9881874426518358 -0.0997854986636297 0.009242149965159508 0.04241367482560024 -0.0027694194204547617 -0.012762047430752389 0.003316273430924282 0.020188304124788163
 0.0031966863509600837 0.020207418213346436 -0.0027694194204547617 -0.012762047430752389 0.0092614230000613 0.04241421597937682 0.9881875863666969 -0.09978342901230566
 -0.0027684050110182742 -0.012762136738445805 0.003316273430924282 0.020188304124788163 0.9881875863666969 -0.09978342901230566 0.009243028893105954 0.04241542848879453
0.15631513130469998 0.00970103406302885 0.04408132831124249 0.9875711817659039 -0.10381796153974159 0.0034172152980105706 0.021014547241920638 -0.002955341949388438 -0.013262143039674705
 0.9875711817659039 -0.10381796153974159 0.009679357984237835 0.04408281225067075 -0.0029564417169099617 -0.013262041822719428 0.0035467595967259746 0.0209934670595239
