! Created with skrf 1.8.0 (http://scikit-rf.org).
# GHz S RI R 50.0 
!freq ReS11 ImS11 ReS12 ImS12 ReS13 ImS13
! ReS14 ImS14
! ReS21 ImS21 ReS22 ImS22 ReS23 ImS23
! ReS24 ImS24
! ReS31 ImS31 ReS32 ImS32 ReS33 ImS33
! ReS34 ImS34
! ReS41 ImS41 ReS42 ImS42 ReS43 ImS43
! ReS44 ImS44
!
0.0 0.001652533159201 0.0 0.9983474668408 0.0 6.395391299158e-05 0.0 -6.39539126355e-05 7.832095440201455e-21
 0.9983474668408 0.0 0.001652533159202 0.0 -6.395391263593e-05 7.832095440254115e-21 6.395391299039e-05 0.0
 6.395391299158e-05 0.0 -6.395391263593e-05 7.832095440254115e-21 0.001652533156363 0.0 0.9983474668379 0.0
 -6.39539126355e-05 7.832095440201455e-21 6.395391299039e-05 0.0 0.9983474668379 0.0 0.001652533156344 0.0
0.005 0.0017783192640473137 0.0013510297232323513 0.9981882591738822 -0.003461311808023955 8.995749402829139e-05 0.0007079741357514581 -8.724577070307633e-05 -0.00044375566269730463
 0.9981882591738822 -0.003461311808023955 0.0017783526476801595 0.0013510101929283984 -8.724279076544865e-05 -0.0004437533530237282 8.975534558725358e-05 0.0007080510387367874
 8.995749402829139e-05 0.0007079741357514581 -8.724279076544865e-05 -0.0004437533530237282 0.0017783212686266836 0.0013510957794012203 0.9981882595408144 -0.003461244748942578
 -8.724577070307633e-05 -0.00044375566269730463 8.975534558725358e-05 0.0007080510387367874 0.9981882595408144 -0.003461244748942578 0.001778351367057443 0.0013510782457792898
0.006252605252188 0.0018114051578425687 0.0016940904744030298 0.9981460977287524 -0.0043274703867013905 9.746123787452096e-05 0.0008853012350856768 -9.386761632219609e-05 -0.0005552629076711977
 0.9981460977287524 -0.0043274703867013905 0.0018114573432354267 0.0016940657103785837 -9.386297946570798e-05 -0.0005552600598656023 9.714539993493233e-05 0.0008854011403215361
 9.746123787452096e-05 0.0008853012350856768 -9.386297946570798e-05 -0.0005552600598656023 0.0018114082169263417 0.0016941730361866786 0.9981460982275727 -0.004327386562004634
 -9.386761632219609e-05 -0.0005552629076711977 9.714539993493233e-05 0.0008854011403215361 0.9981460982275727 -0.004327386562004634 0.0018114552661224336 0.0016941507777051203
0.01250521050438 0.001986135714856561 0.003423539562628272 0.9979218681192309 -0.00865563210416743 0.00014088621854369216 0.001770890322344806 -0.0001316840506226927 -0.001113153515435523
 0.9979218681192309 -0.00865563210416743 0.001986344101466379 0.0034234864794529724 -0.000131665779419214 -0.001113148252710166 0.00013962671740509484 0.001771131048166276
 0.00014088621854369216 0.001770890322344806 -0.000131665779419214 -0.001113148252710166 0.001986147383041086 0.0034237043141024078 0.9979218695624219 -0.008655464688573509
 -0.0001316840506226927 -0.001113153515435523 0.00013962671740509484 0.001771131048166276 0.9979218695624219 -0.008655464688573509 0.0019863352487032374 0.003423656371135107
0.01875781575657 0.0021771280353058858 0.005177444178490742 0.9976744840973886 -0.012994994991801463 0.0001943312706644541 0.0026573437275943914 -0.00017752398790876297 -0.0016728485877515018
 0.9976744840973886 -0.012994994991801463 0.0021775963094517034 0.005177358910853604 -0.00017748324594061567 -0.0016728414316006417 0.0001915019141481285 0.0026577746014728805
 0.0001943312706644541 0.0026573437275943914 -0.00017748324594061567 -0.0016728414316006417 0.002177153838783754 0.005177690805182614 0.9976744869238319 -0.012994744040503886
 -0.00017752398790876297 -0.0016728485877515018 0.0001915019141481285 0.0026577746014728805 0.9976744869238319 -0.012994744040503886 0.002177575978328878 0.0051776135356873644
0.02501042100875 0.002384772068379881 0.006953322103174129 0.9974036395635709 -0.01734763497920664 0.0002579008780914763 0.003544678366080102 -0.00023150385952644195 -0.002234077452974077
 0.9974036395635709 -0.01734763497920664 0.0023856037253031253 0.006953200513760639 -0.00023143191755718086 -0.0022340690223393626 0.00025287524590783723 0.003545356865062443
 0.0002579008780914763 0.003544678366080102 -0.00023143191755718086 -0.0022340690223393626 0.002384817523967908 0.006953650231991396 0.9974036442151949 -0.017347300486843943
 -0.00023150385952644195 -0.002234077452974077 0.00025287524590783723 0.003545356865062443 0.9974036442151949 -0.017347300486843943 0.002385567209879606 0.006953539812001071
0.03126302626094 0.002609441610887753 0.008749882211037953 0.9971090136139374 -0.021714423851152718 0.00033169996094642294 0.004432828697172071 -0.00029373651377636255 -0.0027966447901338043
 0.9971090136139374 -0.021714423851152718 0.0026107400149562613 0.008749719897763361 -0.00029362473176461253 -0.0027966358024615443 0.00032385083874601387 0.004433820498220449
 0.00033169996094642294 0.004432828697172071 -0.00029362473176461253 -0.0027966358024615443 0.0026095122298153 0.008750291385841852 0.9971090205390191 -0.021714005775826876
 -0.00029373651377636255 -0.0027966447901338043 0.00032385083874601387 0.004433820498220449 0.9971090205390191 -0.021714005775826876 0.0026106826055426018 0.008750143816872093
0.037515631513130004 0.00285150210834556 0.010566272246542163 0.9967902786281551 -0.026095781411007882 0.0004158327013509545 0.0053216963026371505 -0.00036433202016031686 -0.0033603810526858253
 0.9967902786281551 -0.026095781411007882 0.002853370533795296 0.010566064545697423 -0.00036417183814591557 -0.0033603723241961525 0.00040453183469615493 0.00532307536535394
 0.0004158327013509545 0.0053216963026371505 -0.00036417183814591557 -0.0033603723241961525 0.002851603391183026 0.010566761919361877 0.9967902882773972 -0.026095279682320817
 -0.00036433202016031686 -0.0033603810526858253 0.00040453183469615493 0.00532307536535394 0.9967902882773972 -0.026095279682320817 0.0028532875099200614 0.010566573032621793
0.043768236765320004 0.0031113136589517106 0.012401849905039744 0.9964471035670727 -0.030491904329176537 0.000510401990480603 0.006211164963154676 -0.0004433979446417343 -0.003925127403641705
 0.9964471035670727 -0.030491904329176537 0.0031138553230857543 0.012401591892604619 -0.0004431808774137666 -0.0039251198494017455 0.0004950199759345207 0.006213013622532556
 0.000510401990480603 0.006211164963154676 -0.0004431808774137666 -0.0039251198494017455 0.003111451098805535 0.01240241944054154 0.9964471163979706 -0.030491318842801318
 -0.0004433979446417343 -0.003925127403641705 0.0004950199759345207 0.006213013622532556 0.9964471163979706 -0.030491318842801318 0.0031137419554920155 0.012402184899377718
0.050020842017509996 0.0033892324034083313 0.01425608824832468 0.9960791556609766 -0.03490286065494848 0.0006155090913750517 0.0071011068978803086 -0.0005310394402100926 -0.004490729493324529
 0.9960791556609766 -0.03490286065494848 0.0033925504953333943 0.014255774740178941 -0.0005307570738709068 -0.004490724127229676 0.0005954153401823512 0.007103515961058314
 0.0006155090913750517 0.0071011068978803086 -0.0005307570738709068 -0.004490724127229676 0.0033894114838137275 0.014256736916912597 0.996079172137782 -0.034902191278684346
 -0.0005310394402100926 -0.004490729493324529 0.0005954153401823512 0.007103515961058314 0.996079172137782 -0.034902191278684346 0.003392402043967987 0.014256452218336713
0.055454545454549996 0.0036457316127509382 0.015882275380107575 0.9957390201986415 -0.038748152420981945 0.0007154855849064591 0.007874772093105348 -0.000614246825424262 -0.00498283106394698
 0.9957390201986415 -0.038748152420981945 0.003649808244669011 0.015881909231777572 -0.0006139009328274831 -0.004982828499540914 0.0006907841618609765 0.00787774856456578
 0.0007154855849064591 0.007874772093105348 -0.0006139009328274831 -0.004982828499540914 0.0036459513259202154 0.015882992147853357 0.9957390402272713 -0.03874741001631856
 -0.000614246825424262 -0.00498283106394698 0.0006907841618609765 0.00787774856456578 0.9957390402272713 -0.03874741001631856 0.003649625445988425 0.015882660075298555
0.056273447269699996 0.0036856112258370544 0.01612852926176796 0.9956861014154871 -0.03932863618938412 0.0007312534002537629 0.007991385819754709 -0.0006273592510721016 -0.005057034426938902
 0.9956861014154871 -0.03932863618938412 0.003689808933672905 0.01612815481288789 -0.0006270032409013531 -0.005057032361657183 0.0007058161466345961 0.007994454664390133
 0.0007312534002537629 0.007991385819754709 -0.0006270032409013531 -0.005057032361657183 0.00368583742063923 0.01612925623408019 0.995686122010687 -0.039327882767727106
 -0.0006273592510721016 -0.005057034426938902 0.0007058161466345961 0.007994454664390133 0.995686122010687 -0.039327882767727106 0.0036896206467587006 0.016128916709419478
0.06252605252188 0.004000800119981031 0.01801875834045997 0.9952676072866711 -0.04376915993347157 0.0008577322522730336 0.008881858637509284 -0.0007324576784551859 -0.0056238890912418205
 0.9952676072866711 -0.04376915993347157 0.004005980656335975 0.018018317243293943 -0.0007320197473836289 -0.005623891538156029 0.0008263185907228604 0.008885695310616122
 0.0008577322522730336 0.008881858637509284 -0.0007320197473836289 -0.005623891538156029 0.004001078890272477 0.018019562695244382 0.9952676324805401 -0.04376832227897105
 -0.0007324576784551859 -0.0056238890912418205 0.0008263185907228604 0.008885695310616122 0.9952676324805401 -0.04376832227897105 0.004005747768023347 0.018019163509713776
0.06877865777407 0.004335146368982224 0.019926389064572583 0.9948233401753163 -0.04822431925271846 0.000995040757619258 0.00977237646214678 -0.000846432518183574 -0.00619113918290501
 0.9948233401753163 -0.04822431925271846 0.004341412996027294 0.019925875346521016 -0.000845904455917684 -0.006191147452008855 0.0009570167010613233 0.009777097778753008
 0.000995040757619258 0.00977237646214678 -0.000845904455917684 -0.006191147452008855 0.0043354831639252495 0.019927269779793037 0.9948233704586571 -0.04822339715397557
 -0.000846432518183574 -0.00619113918290501 0.0009570167010613233 0.009777097778753008 0.9948233704586571 -0.04822339715397557 0.004341130726879998 0.0199268059315601
0.07503126302626001 0.004688994617378559 0.021851053560186448 0.9943529678181151 -0.052693969462581446 0.0011432716512880677 0.010662785262969607 -0.0009693789854410204 -0.006758628593697668
 0.9943529678181151 -0.052693969462581446 0.004696450671317496 0.02185046098024745 -0.0009687526478284637 -0.00675864409351017 0.0010980022051893519 0.01066851690414106
 0.0011432716512880677 0.010662785262969607 -0.0009687526478284637 -0.00675864409351017 0.004689394871879214 0.02185200951700623 0.994353003692196 -0.05269296267950351
 -0.0009693789854410204 -0.006758628593697668 0.0010980022051893519 0.01066851690414106 0.994353003692196 -0.05269296267950351 0.004696114226869915 0.021851475835144907
0.08128386827845 0.0050626868740771235 0.023792396096862577 0.9938561591136921 -0.05717794018409943 0.0013025151534890914 0.011552926312566828 -0.0011013896292365963 -0.007326199013382306
 0.9938561591136921 -0.05717794018409943 0.0050714357893763004 0.023791718141399788 -0.0011006569379859756 -0.007326223250831837 0.0012493644019145838 0.011559802922455792
 0.0013025151534890914 0.011552926312566828 -0.0011006569379859756 -0.007326223250831837 0.00506315600732572 0.023793426072621644 0.9938562010915576 -0.05717684845421122
 -0.0011013896292365963 -0.007326199013382306 0.0012493644019145838 0.011559802922455792 0.9938562010915576 -0.05717684845421122 0.005071040359041505 0.02379281721432114
0.08753647353064001 0.005456562468055992 0.025750068642511607 0.9933325844060872 -0.0616760397495515 0.0014728588367944767 0.012442636501267434 -0.001242554239599689 -0.007893689669969284
 0.9933325844060872 -0.0616760397495515 0.00546670780181432 0.025749298520151346 -0.0012417071821474441 -0.007893724250275163 0.001411190038876822 0.012450801782973524
 0.0014728588367944767 0.012442636501267434 -0.0012417071821474441 -0.007893724250275163 0.005457105882161101 0.025751171316169805 0.9933326330137016 -0.06167486278191408
 -0.001242554239599689 -0.007893689669969284 0.001411190038876822 0.012450801782973524 0.9933326330137016 -0.06167486278191408 0.005466248558374087 0.02575048176302263
0.09378907878283 0.005870957974351463 0.027723727712187465 0.9927819157432367 -0.06618805832205538 0.0016543874973578045 0.01333174857630923 -0.0013929597505729873 -0.008460937152266066
 0.9927819157432367 -0.06618805832205538 0.005882603430753506 0.027722858347726094 -0.0013919903802337887 -0.00846098377878428 0.0015835631918809958 0.01334135538637427
 0.0016543874973578045 0.01333174857630923 -0.0013919903802337887 -0.00846098377878428 0.005871581052926813 0.027724901659078434 0.9927819715201576 -0.06618679580184557
 -0.0013929597505729873 -0.008460937152266066 0.0015835631918809958 0.01334135538637427 0.9927819715201576 -0.06618679580184557 0.0058820755290254975 0.027724125712552367
0.100041684035 0.006306207115268844 0.02971303205349424 0.9922038271129068 -0.0707137701865136 0.0018471830292766625 0.014220091326113233 -0.0015526901395334536 -0.009027775294539783
 0.9922038271129068 -0.0707137701865136 0.006319456569481226 0.029712056081050802 -0.0015515905756692937 -0.009027835768620039 0.0017665651467077797 0.014231301767452662
 0.0018471830292766625 0.014220091326113233 -0.0015515905756692937 -0.009027835768620039 0.00630691522211589 0.029714275745960698 0.9922038906139742 -0.07071242177384132
 -0.0015526901395334536 -0.009027775294539783 0.0017665651467077797 0.014231301767452662 0.9922038906139742 -0.07071242177384132 0.006318855145998359 0.029713407521854328
0.1059090909091 0.00673390309689234 0.03159370884630489 0.9916361255810489 -0.07497291116110653 0.002038418578871988 0.015052851229135555 -0.0017111331633905377 -0.009559169976844339
 0.9916361255810489 -0.07497291116110653 0.006748752379994609 0.0315926258684845 -0.0017099043184355936 -0.009559245170850892 0.0019480297079576703 0.015065722255857906
 0.002038418578871988 0.015052851229135555 -0.0017099043184355936 -0.009559245170850892 0.006734695852195993 0.031595016509149386 0.9916361968490399 -0.07497148181296706
 -0.0017111331633905377 -0.009559169976844339 0.0019480297079576703 0.015065722255857906 0.9916361968490399 -0.07497148181296706 0.006748077523372646 0.03159405616961468
0.1062942892872 0.006762640646810388 0.031717640912202534 0.9915979946690843 -0.07525293546877453 0.0020513243015544322 0.015107489732945706 -0.0017218263236175725 -0.009594035100121977
 0.9915979946690843 -0.07525293546877453 0.006777598169451024 0.0317165506672754 -0.0017205887519120063 -0.00959411132094581 0.0019602742825069654 0.015120475246031334
 0.0020513243015544322 0.015107489732945706 -0.0017205887519120063 -0.00959411132094581 0.006763439123480576 0.03171895272102408 0.9915980664649899 -0.0752515007968421
 -0.0017218263236175725 -0.009594035100121977 0.0019602742825069654 0.015120475246031334 0.9915980664649899 -0.0752515007968421 0.0067769183412300605 0.03171798614296138
0.11254689453939999 0.0072405862297561414 0.03373721271374557 0.9909640969459458 -0.07980530144756738 0.0022668870360929077 0.015993765101244138 -0.001900446054860026 -0.01015954469685021
 0.9909640969459458 -0.07980530144756738 0.007257356111537039 0.03373600022427679 -0.0018990627277434525 -0.010159638661241505 0.0021647659556182338 0.016008706553472418
 0.0022668870360929077 0.015993765101244138 -0.0018990627277434525 -0.010159638661241505 0.007241480394365987 0.03373859090614379 0.9909641776243802 -0.07980378012422809
 -0.001900446054860026 -0.01015954469685021 0.0021647659556182338 0.016008706553472418 0.9909641776243802 -0.07980378012422809 0.007256592975413227 0.0337375196980857
0.11879949979160001 0.007740368293092704 0.03577140404107513 0.9903018150668562 -0.0843706035789075 0.0024939436878415135 0.016878735169076557 -0.002088623813336014 -0.010724129317023098
 0.9903018150668562 -0.0843706035789075 0.0077590550690615386 0.03577006101763087 -0.0020870870504555417 -0.01072424311924331 0.0023801123848542645 0.016895822942109815
 0.0024939436878415135 0.016878735169076557 -0.0020870870504555417 -0.01072424311924331 0.0077413634385152565 0.03577284677848594 0.9903019052338043 -0.08436899518850546
 -0.002088623813336014 -0.010724129317023098 0.0023801123848542645 0.016895822942109815 0.9903019052338043 -0.08436899518850546 0.007758203700939843 0.03577166445629714
0.1250521050438 0.008262307887795192 0.03781986883291837 0.9896108329476733 -0.08894856630930394 0.002732563325605722 0.01776221421276693 -0.002286430699670528 -0.011287611291829763
 0.9896108329476733 -0.08894856630930394 0.0082830163620632 0.03781838665773988 -0.0022847328884288286 -0.011287747123388345 0.0026063825371124886 0.017781648287838212
 0.002732563325605722 0.01776221421276693 -0.0022847328884288286 -0.011287747123388345 0.008263409279675463 0.0378213741712534 0.9896109332282825 -0.08894687041218897
 -0.002286430699670528 -0.011287611291829763 0.0026063825371124886 0.017781648287838212 0.9896109332282825 -0.08894687041218897 0.008282071815986171 0.037820074033170455
0.131304710296 0.008806722534862515 0.03988225774804886 0.9888908374960018 -0.09353890373216629 0.0029828115140840073 0.01864401314277004 -0.0024939343266583334 -0.011849810062567382
 0.9888908374960018 -0.09353890373216629 0.008829557805390591 0.03988062746300854 -0.002492067922841624 -0.011849970211957068 0.0028436420141376554 0.0186660031836609
 0.0029828115140840073 0.01864401314277004 -0.002492067922841624 -0.011849970211957068 0.00880793541021478 0.039883823639787395 0.9888909485359422 -0.09353711986239316
 -0.0024939343266583334 -0.011849810062567382 0.0028436420141376554 0.0186660031836609 0.9888909485359422 -0.09353711986239316 0.008828515112957522 0.039882398755828066
0.1375573155481 0.009252525362451865 0.04168962228293206 0.9882629710951842 -0.09787259606756589 0.0032148414666390967 0.01949764153334652 -0.00268145811908507 -0.012384144591457228
 0.9882629710951842 -0.09787259606756589 0.009277599300302152 0.04168786653003596 -0.0026794118409234962 -0.012384329369394263 0.0030623668866203773 0.019522165145460294
 0.0032148414666390967 0.01949764153334652 -0.0026794118409234962 -0.012384329369394263 0.009253854368849797 0.041691246930097736 0.9882630934018228 -0.09787072394419503
 -0.00268145811908507 -0.012384144591457228 0.0030623668866203773 0.019522165145460294 0.9882630934018228 -0.09787072394419503 0.009276454321562244 0.041689721744652346
0.1438099208003 0.009714115404751374 0.04348679695772993 0.9876127984872444 -0.10219461888927588 0.0034562451665677016 0.020347305851531744 -0.002876458673276448 -0.012914917725831246
 0.9876127984872444 -0.10219461888927588 0.009741534493685103 0.04348490844679473 -0.002874224402182888 -0.012915129397760476 0.003289884596179445 0.020374555679690574
 0.0034562451665677016 0.020347305851531744 -0.002874224402182888 -0.012915129397760476 0.009715565633049445 0.04348847824633999 0.9876129327071593 -0.10219265805648287
 -0.002876458673276448 -0.012914917725831246 0.003289884596179445 0.020374555679690574 0.9876129327071593 -0.10219265805648287 0.00974028237613296 0.043486847534330506
0.1500625260525 0.010191319649971404 0.04527361163445576 0.9869404970979011 -0.10650484424597893 0.0037069334582418103 0.021192902604100585 -0.0030788508578572377 -0.013442034902311184
 0.9869404970979011 -0.10650484424597893 0.01022119068058633 0.045271582620812725 -0.0030764204960525604 -0.013442275824763112 0.0035261097417983588 0.02122307833913636
 0.0037069334582418103 0.021192902604100585 -0.0030764204960525604 -0.013442275824763112 0.010192896156866355 0.04527534736739518 0.9869406438950468 -0.10650279423029009
 -0.0030788508578572377 -0.013442034902311184 0.0035261097417983588 0.02122307833913636 0.9869406438950468 -0.10650279423029009 0.010219826558919854 0.04527360553341477
0.15631513130469998 0.01068396373476038 0.047049901271135466 0.986246245388647 -0.11080314508163029 0.003966816053419424 0.02203433017927673 -0.0032885484271193543 -0.013965403669417445
 0.986246245388647 -0.11080314508163029 0.0107163938127811 0.04704772354218881 -0.0032859138979212687 -0.013965676289617767 0.0037709558505287484 0.022067638480704543
