! Created with skrf 1.8.0 (http://scikit-rf.org).
# GHz S RI R 50.0 
!freq ReS11 ImS11 ReS12 ImS12 ReS13 ImS13
! ReS14 ImS14
! ReS21 ImS21 ReS22 ImS22 ReS23 ImS23
! ReS24 ImS24
! ReS31 ImS31 ReS32 ImS32 ReS33 ImS33
! ReS34 ImS34
! ReS41 ImS41 ReS42 ImS42 ReS43 ImS43
! ReS44 ImS44
!
0.0 0.001507953172629 0.0 0.9984920468274 0.0 5.802009527284e-05 0.0 -5.802009540815e-05 7.105412412781494e-21
 0.9984920468274 0.0 0.001507953172606 0.0 -5.802009540697e-05 7.105412412636986e-21 5.802009527583e-05 0.0
 5.802009527284e-05 0.0 -5.802009540697e-05 7.105412412636986e-21 0.001507953159807 0.0 0.9984920468146 0.0
 -5.802009540815e-05 7.105412412781494e-21 5.802009527583e-05 0.0 0.9984920468146 0.0 0.001507953159847 0.0
0.005 0.0016223148597613174 0.0012352731833041393 0.9983473944131364 -0.0031588234318026035 8.096953822721967e-05 0.0006296739800921193 -7.87172887039809e-05 -0.0003969290079768927
 0.9983473944131364 -0.0031588234318026035 0.0016223166565044547 0.0012352721764806384 -7.871812385979418e-05 -0.0003969296987387038 8.093413754780359e-05 0.0006296871303926285
 8.096953822721967e-05 0.0006296739800921193 -7.871812385979418e-05 -0.0003969296987387038 0.001622314523915614 0.0012353406851748627 0.9983473947642144 -0.0031587563723626
 -7.87172887039809e-05 -0.0003969290079768927 8.093413754780359e-05 0.0006296871303926285 0.9983473947642144 -0.0031587563723626 0.001622317689717208 0.001235338789366436
0.006252605252188 0.0016522779124918112 0.0015489476217461547 0.9983092633961199 -0.003949305910796635 8.750282514597558e-05 0.0007874042315396336 -8.454307239316996e-05 -0.0004966739709318255
 0.9983092633961199 -0.003949305910796635 0.001652280721592963 0.0015489464287178846 -8.454437157737234e-05 -0.0004966748237240936 8.744751081960331e-05 0.0007874213592755198
 8.750282514597558e-05 0.0007874042315396336 -8.454437157737234e-05 -0.0004966748237240936 0.0016522773143810674 0.0015490320020265969 0.9983092638723237 -0.003949222087098205
 -8.454307239316996e-05 -0.0004966739709318255 8.744751081960331e-05 0.0007874213592755198 0.9983092638723237 -0.003949222087098205 0.0016522822643861667 0.001549029686572086
0.01250521050438 0.0018098319900049643 0.0031303284953903263 0.9981074728159073 -0.007899437110534802 0.00012484721042636536 0.0015752098524001185 -0.00011750220470413036 -0.000995765885607537
 0.9981074728159073 -0.007899437110534802 0.0018098432075512266 0.0031303267972991725 -0.00011750732002734128 -0.0009957674749412368 0.00012462650490791888 0.0015752514998061832
 0.00012484721042636536 0.0015752098524001185 -0.00011750732002734128 -0.0009957674749412368 0.001809829052159142 0.0031304970403534553 0.9981074741766953 -0.007899269707021709
 -0.00011750220470413036 -0.000995765885607537 0.00012462650490791888 0.0015752514998061832 0.9981074741766953 -0.007899269707021709 0.0018098488323649632 0.0031304929723109925
0.01875781575657 0.001980953540831742 0.004734223907887333 0.9978864283707254 -0.011860011896003195 0.00017013937778214943 0.0023639368592931137 -0.00015699746873606326 -0.0014965743732270023
 0.9978864283707254 -0.011860011896003195 0.001980978743958818 0.004734222476404513 -0.00015700886965597303 -0.0014965765624524007 0.00016964329332794836 0.002364011770568363
 0.00017013937778214943 0.0023639368592931137 -0.00015700886965597303 -0.0014965765624524007 0.001980946494968077 0.004734476557823096 0.9978864310029513 -0.011859760987389034
 -0.00015699746873606326 -0.0014965743732270023 0.00016964329332794836 0.002364011770568363 0.9978864310029513 -0.011859760987389034 0.001980990966404416 0.004734471341400574
0.02501042100875 0.0021659710214904943 0.006358398739929609 0.9976458737246657 -0.015832955026247757 0.0002234666041205739 0.00315361899458417 -0.0002031257735565099 -0.0019988789836215878
 0.9976458737246657 -0.015832955026247757 0.0021660157774493274 0.0063583984383798866 -0.00020314589796441786 -0.001998881613048561 0.00022258493552856177 0.0031537372369168405
 0.0002234666041205739 0.00315361899458417 -0.00020314589796441786 -0.001998881613048561 0.002165958104924944 0.006358735451061104 0.9976458780291291 -0.015832620657000817
 -0.0002031257735565099 -0.0019988789836215878 0.00022258493552856177 0.0031537372369168405 0.9976458780291291 -0.015832620657000817 0.002166037126671474 0.006358729741487459
0.03126302626094 0.0023651993144925814 0.008001705525006876 0.9973855392555746 -0.019819093633459035 0.0002849166268156888 0.003944218725486003 -0.0002559814074018308 -0.0025025252001064815
 0.9973855392555746 -0.019819093633459035 0.0023652691876929087 0.008001707311575077 -0.00025601266695267534 -0.002502528086726917 0.0002835388555601906 0.003944391702007379
 0.0002849166268156888 0.003944218725486003 -0.00025601266695267534 -0.002502528086726917 0.0023651787508263598 0.008002126277462766 0.9973855456295988 -0.019818675809829742
 -0.0002559814074018308 -0.0025025252001064815 0.0002835388555601906 0.003944391702007379 0.9973855456295988 -0.019818675809829742 0.002365302188988147 0.008002120783778306
0.037515631513130004 0.002578946546329569 0.009663398176626358 0.9971051490790896 -0.02381884343481391 0.00035457681108106413 0.004735670353418172 -0.00031565670437465494 -0.0030073813292766666
 0.9971051490790896 -0.02381884343481391 0.002579047104503194 0.009663403106528287 -0.0003157014873469065 -0.0030073842667110396 0.0003525920613411557 0.0047359108203647755
 0.00035457681108106413 0.004735670353418172 -0.0003157014873469065 -0.0030073842667110396 0.0025789165514059444 0.009663902953637588 0.9971051579229637 -0.02381834214566503
 -0.00031565670437465494 -0.0030073813292766666 0.0003525920613411557 0.0047359108203647755 0.9971051579229637 -0.02381834214566503 0.0025790942851276304 0.00966389844038241
0.043768236765320004 0.002807516727254739 0.011342923147472723 0.9968044238956656 -0.027832417503127815 0.0004325337592515257 0.005527893123525814 -0.00038224228215353684 -0.0035133253903365555
 0.9968044238956656 -0.027832417503127815 0.0028076535466069713 0.011342932375030245 -0.0003823029550160346 -0.003513328148851997 0.00042983077612152916 0.005528215208843028
 0.0004325337592515257 0.005527893123525814 -0.0003823029550160346 -0.003513328148851997 0.0028074755064898846 0.011343511938054683 0.9968044356116751 -0.02783183271742287
 -0.00038224228215353684 -0.0035133253903365555 0.00042983077612152916 0.005528215208843028 0.9968044356116751 -0.02783183271742287 0.0028077174343579766 0.011343509226616167
0.050020842017509996 0.003051210981764447 0.013039833122192151 0.9964830824319143 -0.03185991250223914 0.0005188730740310477 0.006320796642420512 -0.0004558271287625436 -0.004020239697949455
 0.9964830824319143 -0.03185991250223914 0.00305138965255883 0.013039847902397593 -0.00045590603733589594 -0.004020242024483093 0.0005153402134943798 0.006321215864876019
 0.0005188730740310477 0.006320796642420512 -0.00045590603733589594 -0.004020242024483093 0.003051156730315935 0.013040505910377028 0.9964830974249742 -0.0318592441799143
 -0.0004558271287625436 -0.004020239697949455 0.0005153402134943798 0.006321215864876019 0.9964830974249742 -0.0318592441799143 0.003051472775441271 0.0130405058799989
0.055454545454549996 0.003275503436456318 0.01452831910699376 0.9961868647096045 -0.03537125210718029 0.0006007776705438096 0.00701033119389225 -0.0005255267533710964 -0.0044614614160702944
 0.9961868647096045 -0.03537125210718029 0.003275723032267284 0.014528339811240683 -0.0005256233989498738 -0.00446146314360549 0.0005964326483850696 0.007010848529434136
 0.0006007776705438096 0.00701033119389225 -0.0005256233989498738 -0.00446146314360549 0.0032754363872559062 0.014529064880525033 0.9961868828821256 -0.03537051114385575
 -0.0005255267533710964 -0.0044614614160702944 0.0005964326483850696 0.007010848529434136 0.9961868828821256 -0.03537051114385575 0.0032758249243404116 0.014529067939710136
0.056273447269699996 0.00331032817685745 0.014753744635803914 0.9961408422822691 -0.035901350997374355 0.0006136791918710146 0.0071142835309161365 -0.000536498619714134 -0.004528008212624388
 0.9961408422822691 -0.035901350997374355 0.00331055430856031 0.014753766325945274 -0.0005365980898984804 -0.004528009830842752 0.0006092044179447758 0.0071148168195770975
 0.0006136791918710146 0.0071142835309161365 -0.0005365980898984804 -0.004528009830842752 0.003310259079533028 0.014754501408957841 0.9961408609609088 -0.035900599081205534
 -0.000536498619714134 -0.004528008212624388 0.0006092044179447758 0.0071148168195770975 0.9961408609609088 -0.035900599081205534 0.003310659194895597 0.014754504997593997
0.06252605252188 0.0035851652646917667 0.01648431479966992 0.9957774204693033 -0.039956704660364675 0.0007170352487592768 0.007908250888334033 -0.000624342502174886 -0.005036515082808382
 0.9957774204693033 -0.039956704660364675 0.0035854444913852755 0.016484344860605734 -0.0006244648405090175 -0.005036515693143092 0.0007115061351180722 0.007908916602143793
 0.0007170352487592768 0.007908250888334033 -0.0006244648405090175 -0.005036515693143092 0.003585079494776196 0.016485155544296033 0.9957774432454104 -0.03995586908028715
 -0.000624342502174886 -0.005036515082808382 0.0007115061351180722 0.007908916602143793 0.9957774432454104 -0.03995586908028715 0.00358557366835292 0.016485163749301816
0.06877865777407 0.003876017459764662 0.01823122740427882 0.9953925338422405 -0.04402590810124123 0.0008290229656886545 0.008702591163949489 -0.0007194428581723256 -0.005545643783339725
 0.9953925338422405 -0.04402590810124123 0.0038763554453099857 0.018231267401722782 -0.0007195903521710764 -0.0055456430630531975 0.0008223267009692798 0.008703409111403122
 0.0008290229656886545 0.008702591163949489 -0.0007195903521710764 -0.0055456430630531975 0.003875913179099249 0.01823215210587742 0.9953925611318841 -0.04402498877479234
 -0.0007194428581723256 -0.005545643783339725 0.0008223267009692798 0.008703409111403122 0.9953925611318841 -0.04402498877479234 0.003876511439232301 0.01823216598449254
0.07503126302626001 0.004183178327404428 0.019994184118530472 0.9949858993898283 -0.04810886760709425 0.000949722545386154 0.009497192714043307 -0.0008218820555462251 -0.006055276572184343
 0.9949858993898283 -0.04810886760709425 0.004183580770943011 0.01999423572407646 -0.000822056973992893 -0.00605527417542433 0.0009417459407096585 0.009498184172835834
 0.000949722545386154 0.009497192714043307 -0.000822056973992893 -0.00605527417542433 0.004183053685749764 0.019995192766121956 0.9949859316136045 -0.04810786443502673
 -0.0008218820555462251 -0.006055276572184343 0.0009417459407096585 0.009498184172835834 0.9949859316136045 -0.04810786443502673 0.004183766106354326 0.01999521343585828
0.08128386827845 0.0045069398087417955 0.021772898634267967 0.994557234493983 -0.052205466939772925 0.0010792125754562328 0.010291940175425583 -0.0009317406910944517 -0.006565294134677014
 0.994557234493983 -0.052205466939772925 0.00450741245007002 0.021772963626366083 -0.0009319452842480053 -0.0065652896925351275 0.0010698420739587192 0.010293127912109668
 0.0010792125754562328 0.010291940175425583 -0.0009319452842480053 -0.0065652896925351275 0.0045067929438778916 0.021773991214603165 0.9945572720777978 -0.052204379812210676
 -0.0009317406910944517 -0.006565294134677014 0.0010698420739587192 0.010293127912109668 0.9945572720777978 -0.052204379812210676 0.004507629649523202 0.02177401985347691
0.08753647353064001 0.004847592209107316 0.02356709261309691 0.9941062571497968 -0.0563155713360165 0.0012175699359379475 0.011086714728400025 -0.0010490975280087163 -0.007075575342566606
 0.9941062571497968 -0.0563155713360165 0.004848140834601025 0.023567172877789252 -0.0010493340277770741 -0.007075568463134301 0.001206691623952588 0.011088123017985476
 0.0012175699359379475 0.011086714728400025 -0.0010493340277770741 -0.007075568463134301 0.004847421246079697 0.02356826911036754 0.9941063005249452 -0.05631440013289308
 -0.0010490975280087163 -0.007075575342566606 0.001206691623952588 0.011088123017985476 0.9941063005249452 -0.05631440013289308 0.004848392417287976 0.023568306956954343
0.09378907878283 0.00520542415778262 0.025376492790125344 0.9936326861602296 -0.060439030355135676 0.0013648697101364313 0.011881394289214595 -0.0011740294290231575 -0.007585997087936723
 0.9936326861602296 -0.060439030355135676 0.005206054605619994 0.025376590321705403 -0.0011743000489982394 -0.007585987356374632 0.0013523693295665943 0.011883048934604888
 0.0013648697101364313 0.011881394289214595 -0.0011743000489982394 -0.007585987356374632 0.005205227208639664 0.025377753193777036 0.9936327357642437 -0.06043777493877774
 -0.0011740294290231575 -0.007585997087936723 0.0013523693295665943 0.011883048934604888 0.9936327357642437 -0.06043777493877774 0.005206343087416591 0.025377801547146528
0.100041684035 0.005580722548929933 0.027200828859810337 0.9931362413158642 -0.06457567994983736 0.0015211850968033468 0.012675853656668703 -0.0013066112868350393 -0.00809643416739736
 0.9931362413158642 -0.06457567994983736 0.005581440715097623 0.027200945761314963 -0.001306918222364448 -0.008096421146006628 0.0015069480588500595 0.012677782008110943
 0.0015211850968033468 0.012675853656668703 -0.001306918222364448 -0.008096421146006628 0.005580497712172398 0.027202173155481953 0.9931362975925264 -0.06457434017434223
 -0.0013066112868350393 -0.00809643416739736 0.0015069480588500595 0.012677782008110943 0.9931362975925264 -0.06457434017434223 0.0055817686074470735 0.02720223337495341
0.1059090909091 0.005949039797125712 0.028926119207156615 0.99264932837077 -0.06846932682551643 0.0016761335835822526 0.013421055084890094 -0.001438047771811605 -0.00857532573443022
 0.99264932837077 -0.06846932682551643 0.005949845696697051 0.028926256295085932 -0.0014383907661096496 -0.008575309207478895 0.0016601623777395308 0.013423266550445555
 0.0016761335835822526 0.013421055084890094 -0.0014383907661096496 -0.008575309207478895 0.005948787049443946 0.028927542215365518 0.992649391318886 -0.06846790774287907
 -0.001438047771811605 -0.00857532573443022 0.0016601623777395308 0.013423266550445555 0.992649391318886 -0.06846790774287907 0.005950212851222417 0.028927614859589175
0.1062942892872 0.005973772467635801 0.029039831873362964 0.9926166435622892 -0.06872534403064574 0.0016865873241160834 0.013469964628403105 -0.0014469159519670616 -0.008606759201283204
 0.9926166435622892 -0.06872534403064574 0.005974584311861023 0.029039970356850478 -0.0014472613802291752 -0.008606742429553914 0.001670498723759619 0.013472195602727407
 0.0016865873241160834 0.013469964628403105 -0.0014472613802291752 -0.008606742429553914 0.005973517828196851 0.029041260049460286 0.9926167069625377 -0.0687239197355497
 -0.0014469159519670616 -0.008606759201283204 0.001670498723759619 0.013472195602727407 0.9926167069625377 -0.0687239197355497 0.005974954121064794 0.029041333554265806
0.11254689453939999 0.006384857104998591 0.030893233028244167 0.9920736151598816 -0.07288783564356645 0.0018611455642540992 0.014263596095897295 -0.0015950141590243818 -0.009116842578805531
 0.9920736151598816 -0.07288783564356645 0.006385768656438609 0.030893395415024172 -0.0015954002389688695 -0.009116821573507787 0.0018430901957876924 0.014266160195639956
 0.0018611455642540992 0.014263596095897295 -0.0015954002389688695 -0.009116821573507787 0.0063845707336807915 0.03089474507369229 0.9920736861421803 -0.07288632665664774
 -0.0015950141590243818 -0.009116842578805531 0.0018430901957876924 0.014266160195639956 0.9920736861421803 -0.07288632665664774 0.006386182883187224 0.030894833342357566
0.11879949979160001 0.006814257664843831 0.03276076271804082 0.9915068798383804 -0.07706295789311308 0.0020449268488604 0.015056614124608578 -0.0017509744512595312 -0.009626552422931636
 0.9915068798383804 -0.07706295789311308 0.006815275028462968 0.032760951438601395 -0.0017514033236461612 -0.009626526678173116 0.0020247892222306557 0.015059543456965184
 0.0020449268488604 0.015056614124608578 -0.0017514033236461612 -0.009626526678173116 0.006813937617820725 0.032762358622678595 0.9915069588688611 -0.07706136403024227
 -0.0017509744512595312 -0.009626552422931636 0.0020247892222306557 0.015059543456965184 0.9915069588688611 -0.07706136403024227 0.006815736166568954 0.03276246319236979
0.1250521050438 0.007262253262800644 0.03464214978112268 0.9909161629458033 -0.08125050467221002 0.0022379959847394965 0.015848882025920153 -0.0019148631043458151 -0.010135754568334616
 0.9909161629458033 -0.08125050467221002 0.007263382625257557 0.03464236737498449 -0.0019153368916565966 -0.010135723555647416 0.002215660342669853 0.015852210321552367
 0.0022379959847394965 0.015848882025920153 -0.0019153368916565966 -0.010135723555647416 0.007261897581576254 0.034643829537433175 0.9909162504994032 -0.08124882573611762
 -0.0019148631043458151 -0.010135754568334616 0.002215660342669853 0.015852210321552367 0.9909162504994032 -0.08124882573611762 0.007263893161406345 0.03464395200303489
0.131304710296 0.007729120820523279 0.036537120912949195 0.9903011915962404 -0.08545026123440076 0.002440415470253863 0.016640260420480182 -0.0020867440489446614 -0.01064431255302231
 0.9903011915962404 -0.08545026123440076 0.007730368456613815 0.036537370028289 -0.0020872648553885054 -0.010644275721429342 0.0024157658059902713 0.01664402305206037
 0.002440415470253863 0.016640260420480182 -0.0020872648553885054 -0.010644275721429342 0.007728727531345554 0.03653888451391006 0.9903012881569349 -0.08544849701732478
 -0.0020867440489446614 -0.01064431255302231 0.0024157658059902713 0.01664402305206037 0.9903012881569349 -0.08544849701732478 0.007730930869185944 0.036539026526995054
0.1375573155481 0.008107296577380628 0.03819878398693067 0.9897695733478933 -0.08941527519649288 0.002626514277159948 0.017406009414579288 -0.0022409856957837527 -0.01112748299104566
 0.9897695733478933 -0.08941527519649288 0.008108670506918311 0.0381990601755111 -0.0022415567805743413 -0.011127440310776854 0.0025995045428172524 0.01741020038344717
 0.002626514277159948 0.017406009414579288 -0.0022415567805743413 -0.011127440310776854 0.008106864581373965 0.0382006312084005 0.9897696793284428 -0.08941342558853836
 -0.0022409856957837527 -0.01112748299104566 0.0025995045428172524 0.01741020038344717 0.9897696793284428 -0.08941342558853836 0.008109286526696064 0.03820078792043515
0.1438099208003 0.008498762761987617 0.03985184251241943 0.9892192980475962 -0.09337038005082265 0.0028201302576791776 0.01816871683940964 -0.0024013964650382177 -0.01160786494209435
 0.9892192980475962 -0.09337038005082265 0.008500269673710077 0.03985214772392174 -0.0024020201137894747 -0.011607815868867735 0.0027906567278711803 0.018173368295381714
 0.0028201302576791776 0.01816871683940964 -0.0024020201137894747 -0.011607815868867735 0.008498290221527356 0.03985377331184834 0.9892194139302186 -0.09336844485038094
 -0.0024013964650382177 -0.01160786494209435 0.0027906567278711803 0.018173368295381714 0.9892194139302186 -0.09336844485038094 0.008500941633449118 0.039853945710377134
0.1500625260525 0.008903383681462202 0.04149616238754111 0.9886505053078568 -0.09731548164328212 0.0030211978873583714 0.01892830697005693 -0.002567912709423178 -0.012085386772627407
 0.9886505053078568 -0.09731548164328212 0.00890503036198068 0.041496498629513975 -0.0025685912040470204 -0.012085330740203211 0.002989157408182667 0.01893345223605994
 0.0030211978873583714 0.01892830697005693 -0.0025685912040470204 -0.012085330740203211 0.008902868754289087 0.04149817672138861 0.9886506315818829 -0.09731346064050146
 -0.002567912709423178 -0.012085386772627407 0.002989157408182667 0.01893345223605994 0.9886506315818829 -0.09731346064050146 0.008905760577901019 0.04149836581403614
0.15631513130469998 0.009321022706212842 0.04313161357037144 0.988063335419811 -0.10125048606801151 0.0032296508830664135 0.019684705347396147 -0.002740470011408703 -0.012559978344495824
