! Created with skrf 1.8.0 (http://scikit-rf.org).
# GHz S RI R 50.0 
!freq ReS11 ImS11 ReS12 ImS12 ReS13 ImS13
! ReS14 ImS14
! ReS21 ImS21 ReS22 ImS22 ReS23 ImS23
! ReS24 ImS24
! ReS31 ImS31 ReS32 ImS32 ReS33 ImS33
! ReS34 ImS34
! ReS41 ImS41 ReS42 ImS42 ReS43 ImS43
! ReS44 ImS44
!
0.0 0.001472784184714 0.0 0.9985272158152 0.0 5.66263563161e-05 0.0 -5.662635696873e-05 6.934728680913061e-21
 0.9985272158152 0.0 0.001472784184721 0.0 -5.662635696891e-05 6.934728680935104e-21 5.662635631702e-05 0.0
 5.66263563161e-05 0.0 -5.662635696891e-05 6.934728680935104e-21 0.001472784178057 0.0 0.9985272158086 0.0
 -5.662635696873e-05 6.934728680913061e-21 5.662635631702e-05 0.0 0.9985272158086 0.0 0.001472784178054 0.0
0.005 0.00158439382024971 0.0012061653034472956 0.998386069641137 -0.0030852892627804642 7.895427819628378e-05 0.0006168015869547447 -7.68219991475199e-05 -0.00038842064065045044
 0.998386069641137 -0.0030852892627804642 0.0015843780528121308 0.001206174428540142 -7.682260898658413e-05 -0.00038842103788058643 7.906232985367052e-05 0.0006167606318957543
 7.895427819628378e-05 0.0006168015869547447 -7.682260898658413e-05 -0.00038842103788058643 0.0015843942239043992 0.0012062322767750029 0.9983860699933536 -0.0030852222079042276
 -7.68219991475199e-05 -0.00038842064065045044 7.906232985367052e-05 0.0006167606318957543 0.9983860699933536 -0.0030852222079042276 0.0015843783518740676 0.0012062415649111565
0.006252605252188 0.0016136096741113327 0.0015124540829137471 0.9983489038332708 -0.003857374836564611 8.527556915011561e-05 0.0007713094205274716 -8.249397915287465e-05 -0.00048602971800774025
 0.9983489038332708 -0.003857374836564611 0.0016135850271548023 0.001512465625881435 -8.249492869012056e-05 -0.00048603020632206944 8.54443925788795e-05 0.0007712562248215298
 8.527556915011561e-05 0.0007713094205274716 -8.249492869012056e-05 -0.00048603020632206944 0.00161361022897753 0.0015125377953610958 0.998348904307332 -0.0038572910155609498
 -8.249397915287465e-05 -0.00048602971800774025 8.54443925788795e-05 0.0007712562248215298 0.998348904307332 -0.0038572910155609498 0.0016135854175689187 0.0015125495549466697
0.01250521050438 0.001767082005782838 0.0030566337134232567 0.9981524559062448 -0.007715605773257268 0.00012122360064443622 0.0015430376065719877 -0.00011451496768651417 -0.0009744460099799524
 0.9981524559062448 -0.007715605773257268 0.0017669835986636937 0.0030566581645546202 -0.00011451871674539738 -0.0009744468958740335 0.0001218969081044969 0.0015429096994477053
 0.00012122360064443622 0.0015430376065719877 -0.00011451871674539738 -0.0009744468958740335 0.0017670836730767207 0.003056800820621816 0.9981524572433691 -0.007715438379219201
 -0.00011451496768651417 -0.0009744460099799524 0.0001218969081044969 0.0015429096994477053 0.9981524572433691 -0.007715438379219201 0.001766984593860075 0.003056825836921979
0.01875781575657 0.0019335243572289802 0.004622856722686776 0.9979376361464742 -0.011584094113923409 0.00016455352468129034 0.002315703043592747 -0.0001527852280096622 -0.0014645632543854536
 0.9979376361464742 -0.011584094113923409 0.0019333032516525507 0.004622895536978508 -0.00015279359839327777 -0.0014645644278174763 0.00016606622399602516 0.0023154748748405517
 0.00016455352468129034 0.002315703043592747 -0.00015279359839327777 -0.0014645644278174763 0.0019335276921770216 0.004623107039649275 0.9979376387252334 -0.011583843252043202
 -0.0001527852280096622 -0.0014645632543854536 0.00016606622399602516 0.0023154748748405517 0.9979376387252334 -0.011583843252043202 0.00193330504548511 0.004623146911582444
0.02501042100875 0.0021132510305784534 0.006208946312544709 0.9977041996554509 -0.015464726518898507 0.00021534890392635767 0.0030893460453527265 -0.00019739781488797303 -0.0019561689217780713
 0.9977041996554509 -0.015464726518898507 0.0021128583971471767 0.0062090010146858225 -0.0001974126098651356 -0.0019561702517316296 0.0002180361492941915 0.003088988167736295
 0.00021534890392635767 0.0030893460453527265 -0.0001974126098651356 -0.0019561702517316296 0.002113256602047916 0.006209279684118962 0.997704203860688 -0.015464392253990662
 -0.00019739781488797303 -0.0019561689217780713 0.0002180361492941915 0.003088988167736295 0.997704203860688 -0.015464392253990662 0.002112861180546238 0.006209336092911111
0.03126302626094 0.002306563325849995 0.007813788296812854 0.9974518886226814 -0.01935831772300215 0.00027369361161789195 0.0038639369642303107 -0.0002484433259458655 -0.0024491154558519347
 0.9974518886226814 -0.01935831772300215 0.0023059504155566713 0.007813860476464356 -0.0002484663334374919 -0.002449116790079466 0.00027789111622625215 0.003863416008649439
 0.00027369361161789195 0.0038639369642303107 -0.0002484663334374919 -0.002449116790079466 0.0023065717067628977 0.007814204581764989 0.9974518948362641 -0.0193579000951168
 -0.0002484433259458655 -0.0024491154558519347 0.00027789111622625215 0.003863416008649439 0.9974518948362641 -0.0193579000951168 0.0023059543675889005 0.007814279286519654
0.037515631513130004 0.002513756132223159 0.009436660783587686 0.9971804391114857 -0.02326528079212812 0.0003396711415667355 0.004639418602791279 -0.0003060105477805058 -0.002943277868953216
 0.9971804391114857 -0.02326528079212812 0.002512874257099864 0.009436752092498325 -0.0003060435418874374 -0.0029432790338462635 0.0003457153208245564 0.004638697236763496
 0.0003396711415667355 0.004639418602791279 -0.0003060435418874374 -0.0029432790338462635 0.0025137679014357855 0.009437159824254162 0.9971804477148127 -0.023264779846605098
 -0.0003060105477805058 -0.002943277868953216 0.0003457153208245564 0.004638697236763496 0.9971804477148127 -0.023264779846605098 0.002512879547727296 0.009437254659365667
0.043768236765320004 0.002735120483040234 0.011077030155097789 0.9968895838051128 -0.02718583107439298 0.0004133642813698886 0.005415719108008244 -0.0003701866886365501 -0.003438540847509695
 0.9968895838051128 -0.02718583107439298 0.002733921000285337 0.011077142305212704 -0.00037023143051279886 -0.0034385416480283916 0.00042159232367131353 0.0054147559889466575
 0.0004133642813698886 0.005415719108008244 -0.00037023143051279886 -0.0034385416480283916 0.002735136225494079 0.011077611799128074 0.9968895951797058 -0.027185246839861142
 -0.0003701866886365501 -0.003438540847509695 0.00042159232367131353 0.0054147559889466575 0.9968895951797058 -0.027185246839861142 0.002733927791142621 0.011077728672582455
0.050020842017509996 0.0029709447417695083 0.012734466772141255 0.9965790533864642 -0.031120070425037206 0.0004948549124267257 0.006192757299030043 -0.000441057465319405 -0.0039347934234756615
 0.9965790533864642 -0.031120070425037206 0.002969379040171054 0.012734601534022689 -0.00044111570370926253 -0.003934793643063202 0.0005056048117223172 0.00619150702530479
 0.0004948549124267257 0.006192757299030043 -0.00044111570370926253 -0.003934793643063202 0.0029709650479485964 0.012735130856043409 0.9965790679139761 -0.03111940292953129
 -0.000441057465319405 -0.0039347934234756615 0.0005056048117223172 0.00619150702530479 0.9965790679139761 -0.03111940292953129 0.002969387484523806 0.012735271748244733
0.055454545454549996 0.0031878487903614695 0.014188403926904408 0.9962930043779551 -0.03455018523164175 0.0005720680636461858 0.0068685579950758776 -0.0005081486470316401 -0.004366770774997236
 0.9962930043779551 -0.03455018523164175 0.0031859253699441474 0.0141885598217501 -0.0005082200250616224 -0.004366770297125758 0.0005852846582772312 0.0068670181135520696
 0.0005720680636461858 0.0068685579950758776 -0.0005082200250616224 -0.004366770297125758 0.003187873545874515 0.014189139516756384 0.9962930219550464 -0.03454944539736689
 -0.0005081486470316401 -0.004366770774997236 0.0005852846582772312 0.0068670181135520696 0.9962930219550464 -0.03454944539736689 0.0031859353692349933 0.014189302945806602
0.056273447269699996 0.003221515218051449 0.01440860359002464 0.9962485773502906 -0.035068028520362865 0.0005842238677420728 0.006970445275414232 -0.0005187071231841215 -0.0044319263668506055
 0.9962485773502906 -0.035068028520362865 0.003219534704863624 0.014408762791833627 -0.0005187805946882824 -0.004431925767392442 0.0005978344327075973 0.006968858336414017
 0.0005842238677420728 0.006970445275414232 -0.0005187805946882824 -0.004431925767392442 0.00322154068318992 0.014409349945830693 0.9962485954118927 -0.03506727778448599
 -0.0005187071231841215 -0.0044319263668506055 0.0005978344327075973 0.006968858336414017 0.9962485954118927 -0.03506727778448599 0.0032195449475726817 0.01440951690863419
0.06252605252188 0.003487116497366935 0.01609911341139113 0.9958978845320505 -0.039029685536928066 0.0006815508161410305 0.007748689856331019 -0.0006032184236737733 -0.004929830749758128
 0.9958978845320505 -0.039029685536928066 0.0034846725862149046 0.01609929893816101 -0.0006033088528820018 -0.004929829071527788 0.000698361664485883 0.007746712582052093
 0.0006815508161410305 0.007748689856331019 -0.0006033088528820018 -0.004929829071527788 0.003487147722419728 0.01609994185977392 0.99589790651012 -0.03902885158042853
 -0.0006032184236737733 -0.004929830749758128 0.000698361664485883 0.007746712582052093 0.99589790651012 -0.03902885158042853 0.003484684765651487 0.016100137016038765
0.06877865777407 0.003768031622234215 0.01780569531707419 0.995526703491554 -0.043004985655381286 0.0007869141620447947 0.00852739343539259 -0.0006946726127275032 -0.005428397097855873
 0.995526703491554 -0.043004985655381286 0.0037650757209765837 0.01780590911034279 -0.0006947817123325683 -0.005428394059471593 0.0008072657037118772 0.00852496794587399
 0.0007869141620447947 0.00852739343539259 -0.0006947817123325683 -0.005428394059471593 0.0037680692119357487 0.01780660567093998 0.9955267297680718 -0.04300406849331298
 -0.0006946726127275032 -0.005428397097855873 0.0008072657037118772 0.00852496794587399 0.9955267297680718 -0.04300406849331298 0.003765089967191947 0.017806831214371974
0.07503126302626001 0.004064542178278013 0.019528066068111766 0.9951347628053175 -0.04699384559650287 0.0009003909546040787 0.009306454527606964 -0.0007931493766803771 -0.0059275148529061355
 0.9951347628053175 -0.04699384559650287 0.004061025677480319 0.019528310125853206 -0.0007932788474369333 -0.0059275101512899775 0.0009246243671862674 0.009303518682450624
 0.0009003909546040787 0.009306454527606964 -0.0007932788474369333 -0.0059275101512899775 0.004064586741823778 0.019529058129591995 0.9951347937632283 -0.04699284524203867
 -0.0007931493766803771 -0.0059275148529061355 0.0009246243671862674 0.009303518682450624 0.9951347937632283 -0.04699284524203867 0.004061042113805624 0.019529316324893672
0.08128386827845 0.004376928325745439 0.021265954381466112 0.994721791306993 -0.05099616028712312 0.0010220568017432622 0.010085768132794824 -0.000898726790976344 -0.006427072022428444
 0.994721791306993 -0.05099616028712312 0.00437280258671604 0.02126623075840758 -0.0008988783216541534 -0.006427065332769541 0.0010505139995057458 0.0100822554808383
 0.0010220568017432622 0.010085768132794824 -0.0008988783216541534 -0.006427065332769541 0.004376980476268204 0.02126702794385783 0.9947218273297601 -0.05099507674935868
 -0.000898726790976344 -0.006427072022428444 0.0010505139995057458 0.0100822554808383 0.9947218273297601 -0.05099507674935868 0.004372821329854092 0.021267321127182437
0.08753647353064001 0.004705468793200628 0.023019096970576757 0.9942875182933814 -0.05501180676538659 0.0011519857880053048 0.010865225993493264 -0.0010114812629884256 -0.00692695493851884
 0.9942875182933814 -0.05501180676538659 0.004700685136441325 0.02301940777887223 -0.0010116565302578163 -0.006926945914260778 0.001185009386010848 0.010861065722830802
 0.0011519857880053048 0.010865225993493264 -0.0010116565302578163 -0.006926945914260778 0.00470552914673015 0.02302025181552212 0.9942875597648145 -0.055010640051988746
 -0.0010114812629884256 -0.00692695493851884 0.001185009386010848 0.010861065722830802 0.9942875597648145 -0.055010640051988746 0.0047007062961031305 0.023020582395264326
0.09378907878283 0.00505044084337223 0.02478723572210001 0.993831673705667 -0.05904064695384083 0.0012902503944048872 0.011644716780476846 -0.0011314874712176817 -0.007427048092940897
 0.993831673705667 -0.05904064695384083 0.005044950536726471 0.024787583132264496 -0.0011316881395197307 -0.007427036365740677 0.0013281836683080297 0.011639833668841311
 0.0012902503944048872 0.011644716780476846 -0.0011316881395197307 -0.007427036365740677 0.005050510019447881 0.024788471620413748 0.9938317210109229 -0.059039397069914734
 -0.0011314874712176817 -0.007427048092940897 0.0013281836683080297 0.011639833668841311 0.9938317210109229 -0.059039397069914734 0.005044974216916928 0.024788842078397037
0.100041684035 0.005412120222812628 0.026570115615453603 0.9933539882982639 -0.06308252969420143 0.0014369214197539064 0.01242412623455187 -0.0012588183013844225 -0.007927234019921488
 0.9933539882982639 -0.06308252969420143 0.005405874469865703 0.02657050185773556 -0.001259046022811861 -0.007927219199643393 0.0014801082620940012 0.01241844060011815
 0.0014369214197539064 0.01242412623455187 -0.001259046022811861 -0.007927219199643393 0.0054121988435076335 0.02657143232747839 0.9933540418231215 -0.06308119664183402
 -0.0012588183013844225 -0.007927234019921488 0.0014801082620940012 0.01241844060011815 0.9933540418231215 -0.06308119664183402 0.005405900768202211 0.026571845220475614
0.1059090909091 0.0057669573363815715 0.028256340391683597 0.9928856282313767 -0.06688712519861181 0.0015822636886188121 0.013155341113350491 -0.0013850297384012029 -0.008396583410415248
 0.9928856282313767 -0.06688712519861181 0.0057599582293309986 0.028256765156966797 -0.0013852843376479951 -0.008396565313365934 0.0016306937224769204 0.01314882591144799
 0.0015822636886188121 0.013155341113350491 -0.0013852843376479951 -0.008396565313365934 0.005767045387541057 0.0282577327097894 0.992885687944616 -0.06688571410223189
 -0.0013850297384012029 -0.008396583410415248 0.0016306937224769204 0.01314882591144799 0.992885687944616 -0.06688571410223189 0.005759987068523038 0.028258187817262238
0.1062942892872 0.005790781095559407 0.02836748317091918 0.9928541937934479 -0.06713729225831094 0.0015920679030358607 0.013203337276369999 -0.0013935447803344006 -0.008427393214955484
 0.9928541937934479 -0.06713729225831094 0.005783731023276495 0.028367910537105016 -0.001393801194379274 -0.008427374889660732 0.0016408527763082583 0.013196764929188507
 0.0015920679030358607 0.013203337276369999 -0.001393801194379274 -0.008427374889660732 0.005790869785055657 0.02836888044533392 0.9928542539248966 -0.06713587603756302
 -0.0013935447803344006 -0.008427393214955484 0.0016408527763082583 0.013196764929188507 0.9928542539248966 -0.06713587603756302 0.005783760031913084 0.028369338406889082
0.11254689453939999 0.006186695966732287 0.030179085251766342 0.9923320230301033 -0.07120476150983689 0.0017557570461690453 0.013982230098313005 -0.0015357360082053609 -0.00892740407582188
 0.9923320230301033 -0.07120476150983689 0.006178792614039631 0.030179556097201243 -0.0015360227416230624 -0.008927381811756913 0.0018104849331484583 0.013974682292223671
 0.0017557570461690453 0.013982230098313005 -0.0015360227416230624 -0.008927381811756913 0.006186795351184482 0.030180562825465856 0.9923320901561898 -0.07120326211859704
 -0.0015357360082053609 -0.00892740407582188 0.0018104849331484583 0.013974682292223671 0.9923320901561898 -0.07120326211859704 0.006178824419558293 0.030181068568172303
0.11879949979160001 0.006600135598601695 0.032004668140964136 0.9917872101064714 -0.07528475479619703 0.001928054137466267 0.014760682238670962 -0.0016854590890605383 -0.009427142865568514
 0.9917872101064714 -0.07528475479619703 0.0065913299038481 0.032005184887175936 -0.001685777755612247 -0.00942711620717885 0.001989070488995041 0.01475206562391929
 0.001928054137466267 0.014760682238670962 -0.001685777755612247 -0.00942711620717885 0.00660024630547911 0.03200622573844162 0.9917872846165978 -0.07528317223072775
 -0.0016854590890605383 -0.009427142865568514 0.001989070488995041 0.01475206562391929 0.9917872846165978 -0.07528317223072775 0.006591364587710327 0.032006782056532374
0.1250521050438 0.007031368918930612 0.03384397680416167 0.9912194905190584 -0.07937708065966606 0.0021090224752444513 0.01553856864729011 -0.0018427790604390968 -0.009926483688450893
 0.9912194905190584 -0.07937708065966606 0.007021611708119203 0.033844541941655024 -0.0018431312607338766 -0.009926452158375319 0.0021766731556305684 0.015528785223780008
 0.0021090224752444513 0.01553856864729011 -0.0018431312607338766 -0.009926452158375319 0.0070314915766965195 0.03384561413936384 0.9912195728039761 -0.0793754149125375
 -0.0018427790604390968 -0.009926483688450893 0.0021766731556305684 0.015528785223780008 0.9912195728039761 -0.0793754149125375 0.007021649346565107 0.03384622391177781
0.131304710296 0.007480662924668342 0.03569675430828617 0.9906286012988578 -0.08348153939787192 0.0022987232916458285 0.016315761745647625 -0.002007758822193422 -0.010425298475886122
 0.9906286012988578 -0.08348153939787192 0.0074699048986242985 0.03569737040003386 -0.0020081461433183734 -0.010425261574991235 0.0023733545218669752 0.016304708816965066
 0.0022987232916458285 0.016315761745647625 -0.0020081461433183734 -0.010425261574991235 0.007480798162199698 0.03569847108266354 0.9906286917507752 -0.08347979045980407
 -0.002007758822193422 -0.010425298475886122 0.0023733545218669752 0.016304708816965066 0.9906286917507752 -0.08347979045980407 0.007469945563419551 0.03569913727639777
0.1375573155481 0.007843671573724724 0.037321425992958006 0.9901189328423459 -0.08735649968143205 0.002472373856162239 0.017067840534290682 -0.0021555303775527427 -0.010899242508409748
 0.9901189328423459 -0.08735649968143205 0.007831857986820945 0.03732208319980832 -0.002155954959669524 -0.010899200197447945 0.0025541527448967576 0.017055536461737946
 0.002472373856162239 0.017067840534290682 -0.002155954959669524 -0.010899200197447945 0.007843819129361483 0.03732322240857559 0.9901190318294177 -0.08735466758753015
 -0.0021555303775527427 -0.010899242508409748 0.0025541527448967576 0.017055536461737946 0.9901190318294177 -0.08735466758753015 0.007831902686246155 0.03732393467263427
0.1438099208003 0.008219411511309418 0.03893784405570146 0.9895914399147905 -0.09122193997627231 0.0026530242507074027 0.017817098374773698 -0.0023092168233731776 -0.011370545914589726
 0.9895914399147905 -0.09122193997627231 0.008206492017577874 0.03893854433611594 -0.0023096803340509377 -0.011370497708823861 0.002742265145572475 0.01780344953347614
 0.0026530242507074027 0.017817098374773698 -0.0023096803340509377 -0.011370497708823861 0.008219571854158645 0.038939719864371204 0.9895915478258543 -0.0912200247258437
 -0.0023092168233731776 -0.011370545914589726 0.002742265145572475 0.01780344953347614 0.9895915478258543 -0.0912200247258437 0.008206540987650977 0.03894048047025382
0.1500625260525 0.008607755055583111 0.04054588215549214 0.9890462541141214 -0.09507777321679123 0.0028406141878244027 0.01856346648148238 -0.0024687585215355653 -0.011839141410188905
 0.9890462541141214 -0.09507777321679123 0.008593679148839063 0.0405466276146751 -0.002469262622198923 -0.01183908680587734 0.0029376297007567245 0.018548375828467543
 0.0028406141878244027 0.01856346648148238 -0.002469262622198923 -0.01183908680587734 0.00860792864470373 0.04054783710316461 0.989046371339093 -0.0950757748075447
 -0.0024687585215355653 -0.011839141410188905 0.0029376297007567245 0.018548375828467543 0.989046371339093 -0.0950757748075447 0.008593732632594362 0.04054864847758495
0.15631513130469998 0.009008573672627552 0.042145417795215856 0.9884835076494718 -0.09892391246340891 0.003035082699199985 0.019306877206146638 -0.0026340951265064467 -0.012304963095805137
