! Created with skrf 1.8.0 (http://scikit-rf.org).
# GHz S RI R 50.0 
!freq ReS11 ImS11 ReS12 ImS12 ReS13 ImS13
! ReS14 ImS14
! ReS21 ImS21 ReS22 ImS22 ReS23 ImS23
! ReS24 ImS24
! ReS31 ImS31 ReS32 ImS32 ReS33 ImS33
! ReS34 ImS34
! ReS41 ImS41 ReS42 ImS42 ReS43 ImS43
! ReS44 ImS44
!
0.0 0.001557527528075 0.0 0.9984424724719 0.0 6.010743708065e-05 0.0 -6.010743734695e-05 7.36103807518924e-21
 0.9984424724719 0.0 0.001557527528043 0.0 -6.010743734574e-05 7.361038075041057e-21 6.010743707919e-05 0.0
 6.010743708065e-05 0.0 -6.010743734574e-05 7.361038075041057e-21 0.001557527519515 0.0 0.9984424724634 0.0
 -6.010743734695e-05 7.36103807518924e-21 6.010743707919e-05 0.0 0.9984424724634 0.0 0.001557527519547 0.0
0.005 0.0016758102349018035 0.0012739942776549508 0.9982928227874994 -0.003262603318221861 8.425791950232055e-05 0.0006630104784274319 -8.182008979977604e-05 -0.0004160272965641085
 0.9982928227874994 -0.003262603318221861 0.0016758220625535346 0.001273987314350016 -8.181662586507212e-05 -0.0004160246265260707 8.419282066932484e-05 0.0006630352040127189
 8.425791950232055e-05 0.0006630104784274319 -8.181662586507212e-05 -0.0004160246265260707 0.0016758124268543087 0.0012740602368973054 0.9982928231495727 -0.0032625362550142752
 -8.182008979977604e-05 -0.0004160272965641085 8.419282066932484e-05 0.0006630352040127189 0.9982928231495727 -0.0032625362550142752 0.0016758205910723735 0.0012740554792724321
0.006252605252188 0.0017068428847376634 0.001597503403382811 0.9982533107814682 -0.00407905013885474 9.116384486803082e-05 0.0008290830560929152 -8.795467488120323e-05 -0.0005205713127014006
 0.9982533107814682 -0.00407905013885474 0.001706861374294435 0.001597494594354161 -8.79492847752927e-05 -0.0005205680204503401 9.106213314471725e-05 0.0008291151742303121
 9.116384486803082e-05 0.0008290830560929152 -8.79492847752927e-05 -0.0005205680204503401 0.001706846232665352 0.0015975858429909864 0.99825331126869 -0.004078966313989991
 -8.795467488120323e-05 -0.0005205713127014006 9.106213314471725e-05 0.0008291151742303121 0.99825331126869 -0.004078966313989991 0.001706858994863659 0.0015975797991884823
0.01250521050438 0.0018702676946972658 0.003228457808175683 0.9980438468187525 -0.008158889409032768 0.00013080061670008838 0.0016585142888432874 -0.00012278430910125422 -0.0010436578558265031
 0.9980438468187525 -0.008158889409032768 0.001870341533058053 0.0032284391198126295 -0.00012276306782322134 -0.0010436517685126765 0.00013039498711831307 0.0016585915913734691
 0.00013080061670008838 0.0016585142888432874 -0.00012276306782322134 -0.0010436517685126765 0.0018702805076043765 0.003228622357204195 0.9980438482046868 -0.008158722012360661
 -0.00012278430910125422 -0.0010436578558265031 0.00013039498711831307 0.0016585915913734691 0.9980438482046868 -0.008158722012360661 0.0018703314659423943 0.0032286093121085147
0.01875781575657 0.00204816197953812 0.004882606142302575 0.9978138179886561 -0.012249443691416109 0.00017910983097992148 0.0024888451467617806 -0.0001647039835536266 -0.0015685028777873155
 0.9978138179886561 -0.012249443691416109 0.0020483279142130147 0.004882576380857941 -0.00016465661557194235 -0.0015684945895534147 0.00017819856506572193 0.0024889832610091346
 0.00017910983097992148 0.0024888451467617806 -0.00016465661557194235 -0.0015684945895534147 0.0020481903511941806 0.00488285256612057 0.9978138206769802 -0.012249192810462143
 -0.0001647039835536266 -0.0015685028777873155 0.00017819856506572193 0.0024889832610091346 0.9978138206769802 -0.012249192810462143 0.0020483048537089155 0.004882831536695886
0.02501042100875 0.0022408749137569845 0.006557628934127654 0.9975629512236334 -0.016352690307010035 0.00023618494495297038 0.0033201054939043964 -0.00021381780228459042 -0.0020948652608488868
 0.9975629512236334 -0.016352690307010035 0.002241169629524254 0.006557586797193946 -0.00021373415507448394 -0.0020948554731535 0.00023456621139904138 0.0033203225246397935
 0.00023618494495297038 0.0033201054939043964 -0.00021373415507448394 -0.0020948554731535 0.0022409249372911996 0.006557956971129099 0.9975629556254917 -0.016352355988729948
 -0.00021381780228459042 -0.0020948652608488868 0.00023456621139904138 0.0033203225246397935 0.9975629556254917 -0.016352355988729948 0.0022411282799846065 0.006557926958364495
0.03126302626094 0.0024487412391209257 0.008252330008716712 0.9972909596535963 -0.02046947229628547 0.00030211983583626375 0.00415224864130385 -0.0002702268946788104 -0.002622574463099453
 0.9972909596535963 -0.02046947229628547 0.00244920137841283 0.008252274087666111 -0.00027009691784638483 -0.002622563985994532 0.00029959150507005814 0.004152565186263125
 0.00030211983583626375 0.00415224864130385 -0.00027009691784638483 -0.002622563985994532 0.002448818997529462 0.008252739351544787 0.9972909661764324 -0.020469054565521762
 -0.0002702268946788104 -0.002622574463099453 0.00029959150507005814 0.004152565186263125 0.9972909661764324 -0.020469054565521762 0.0024491364395777546 0.008252699343108702
0.037515631513130004 0.0026720884082652697 0.009965927514211709 0.9969975499816985 -0.024600207331683176 0.0003770078644311351 0.004985197568545651 -0.0003340301314705566 -0.0031514842980633656
 0.9969975499816985 -0.024600207331683176 0.0026727505841368003 0.009965856295143538 -0.0003338438660184683 -0.003151474050574969 0.00037336742578330075 0.004985636744197665
 0.0003770078644311351 0.004985197568545651 -0.0003338438660184683 -0.003151474050574969 0.002672199981535638 0.009966417801280271 0.9969975590355562 -0.02459970619909927
 -0.0003340301314705566 -0.0031514842980633656 0.00037336742578330075 0.004985636744197665 0.9969975590355562 -0.02459970619909927 0.0026726567566410435 0.00996636677326408
0.043768236765320004 0.0029112393573294914 0.011697838168422573 0.9966824254925778 -0.02874510340058387 0.00046094142962640143 0.005818858986046729 -0.000405324380450778 -0.0036814588757768585
 0.9966824254925778 -0.02874510340058387 0.0029121401641193797 0.01169775003232449 -0.00040507195253702507 -0.003681449886023203 0.0004559859524929785 0.005819446456539545
 0.00046094142962640143 0.005818858986046729 -0.00040507195253702507 -0.003681449886023203 0.002911390819891032 0.011698408975192096 0.9966824374877931 -0.028744518870447107
 -0.000405324380450778 -0.0036814588757768585 0.0004559859524929785 0.005819446456539545 0.9966824374877931 -0.028744518870447107 0.0029120121453767942 0.011698345893586636
0.050020842017509996 0.0031665137838199887 0.013447588075664655 0.9963452875692782 -0.03290424791597622 0.0005540117006812878 0.006653129141431349 -0.00048420459402497733 -0.004212366802597618
 0.9963452875692782 -0.03290424791597622 0.0031676898057282164 0.01344748129836554 -0.00048387621088732876 -0.004212360207837645 0.0005475378188878395 0.006653893148853345
 0.0005540117006812878 0.006653129141431349 -0.00048387621088732876 -0.004212360207837645 0.0031667112060512004 0.01344823892662835 0.996345302918261 -0.03290357997352037
 -0.00048420459402497733 -0.004212366802597618 0.0005475378188878395 0.006653893148853345 0.996345302918261 -0.03290357997352037 0.0031675222914147308 0.013448162748376104
0.055454545454549996 0.003401695579705845 0.01498234318602672 0.9960341942142071 -0.03653025161723487 0.0006423824481049664 0.007378543230619186 -0.0005589869390552571 -0.004674399093240844
 0.9960341942142071 -0.03653025161723487 0.003403140480898226 0.014982218726673978 -0.0005585846565639108 -0.004674395588153187 0.0006344235288694204 0.0073794856153371596
 0.0006423824481049664 0.007378543230619186 -0.0005585846565639108 -0.004674395588153187 0.00340193786827313 0.014983063158908308 0.9960342128138074 -0.03652951117262459
 -0.0005589869390552571 -0.004674399093240844 0.0006344235288694204 0.0073794856153371596 0.9960342128138074 -0.03652951117262459 0.0034029343337271755 0.014982974745849333
0.056273447269699996 0.0034382288056342665 0.015214768979615458 0.9959858365951382 -0.0370776513926161 0.0006563084232715213 0.007487896679730389 -0.0005707638259943399 -0.004744078330835085
 0.9959858365951382 -0.0370776513926161 0.0034397166247341184 0.015214641731289561 -0.0005703497732854011 -0.0047440753774551075 0.0006481123335183809 0.007488868074911941
 0.0006563084232715213 0.007487896679730389 -0.0005703497732854011 -0.0047440753774551075 0.0034384782527580086 0.015215499331497467 0.9959858557117421 -0.0370769000199215
 -0.0005707638259943399 -0.004744078330835085 0.0006481123335183809 0.007488868074911941 0.9959858557117421 -0.0370769000199215 0.0034395043075058454 0.01521540900542666
0.06252605252188 0.003726699307824837 0.016999014187407013 0.9956037725486159 -0.04126527145511753 0.0007679197687140776 0.008323044206457878 -0.0006650932059104954 -0.005276463809577098
 0.9956037725486159 -0.04126527145511753 0.0037285355119510716 0.016998864531871168 -0.0006645838459200676 -0.005276465853062843 0.0007577972383012778 0.008324256480025728
 0.0007679197687140776 0.008323044206457878 -0.0006645838459200676 -0.005276465853062843 0.0037270068401093147 0.016999823441514218 0.9956037958491727 -0.04126443661791918
 -0.0006650932059104954 -0.005276463809577098 0.0007577972383012778 0.008324256480025728 0.9956037958491727 -0.04126443661791918 0.0037282730816363937 0.01699971790892073
0.06877865777407 0.004032238125305108 0.01879998423902108 0.9951987954365196 -0.04546702710429984 0.0008889322005898306 0.009158449231704963 -0.0007672818957793345 -0.005809392758989653
 0.9951987954365196 -0.04546702710429984 0.004034459314746787 0.018799810132841203 -0.0007666676661948607 -0.005809401263882747 0.0008766785816649088 0.00915993854512062
 0.0008889322005898306 0.009158449231704963 -0.0007666676661948607 -0.005809401263882747 0.004032609797488232 0.018800871727086655 0.9951988233400302 -0.04546610876541144
 -0.0007672818957793345 -0.005809392758989653 0.0008766785816649088 0.00915993854512062 0.9951988233400302 -0.04546610876541144 0.0040341414583515735 0.018800749922216486
0.07503126302626001 0.0043551561232821985 0.020617357805476386 0.9947706056305681 -0.04968280775986028 0.0010194303562865137 0.009993984768331556 -0.0008774170307881221 -0.006342733295220334
 0.9947706056305681 -0.04968280775986028 0.004357798918373926 0.02061715709675291 -0.0008766884439149854 -0.006342749835062829 0.0010048406053921593 0.009995789984824038
 0.0010194303562865137 0.009993984768331556 -0.0008766884439149854 -0.006342749835062829 0.004355597984081456 0.02061832279598142 0.9947706385588417 -0.049681805871883616
 -0.0008774170307881221 -0.006342733295220334 0.0010048406053921593 0.009995789984824038 0.9947706385588417 -0.049681805871883616 0.004357420320125279 0.020618183646181343
0.08128386827845 0.004695762217720465 0.022450825642295755 0.9943189041463766 -0.0539124792523305 0.0011594969353472104 0.010829519740280978 -0.0009955836527221504 -0.006876351750132268
 0.9943189041463766 -0.0539124792523305 0.004698863265424786 0.0224505960692189 -0.0009947312950303 -0.006876378007390953 0.001142365636275161 0.010831682455601222
 0.0011594969353472104 0.010829519740280978 -0.0009947312950303 -0.006876378007390953 0.0046962803089091185 0.022451867339449736 0.9943189425243066 -0.0539113937579987
 -0.0009955836527221504 -0.006876351750132268 0.001142365636275161 0.010831682455601222 0.9943189425243066 -0.0539113937579987 0.004698418606303013 0.02245170976512622
0.08753647353064001 0.005054363352219539 0.02430008640759628 0.9938433928833943 -0.05815588795620519 0.0013092125931032886 0.011664919267071578 -0.001121864636565795 -0.007410112419979859
 0.9938433928833943 -0.05815588795620519 0.005057959333129693 0.024299825596856922 -0.001120879168456153 -0.007410150185968282 0.001289333983324003 0.011667483839909157
 0.0013092125931032886 0.011664919267071578 -0.001120879168456153 -0.007410150185968282 0.005054963708379978 0.024301203947390604 0.9938434371396724 -0.058154718791419
 -0.001121864636565795 -0.007410112419979859 0.001289333983324003 0.011667483839909157 0.9938434371396724 -0.058154718791419 0.005057443291422357 0.024301026861757613
0.09378907878283 0.005431264447285597 0.02616484367828457 0.9933437748410489 -0.062412863730485 0.001468655837705704 0.012500044875055492 -0.0012563406129836243 -0.007943877392596338
 0.9933437748410489 -0.062412863730485 0.005435392082463246 0.026164549143084723 -0.0012552127687353734 -0.007943928567373755 0.0014458238372908564 0.01250305845716943
 0.001468655837705704 0.012500044875055492 -0.0012552127687353734 -0.007943928567373755 0.005431953094742402 0.026166036129652404 0.9933438254081153 -0.06241161082247699
 -0.0012563406129836243 -0.007943877392596338 0.0014458238372908564 0.01250305845716943 0.9933438254081153 -0.06241161082247699 0.005434799333755286 0.02616583843816939
0.100041684035 0.005826768328919206 0.02804480375897316 0.9928197543169653 -0.06668322207261886 0.0016379029291507038 0.013334754663182603 -0.00139908988783403 -0.008477506425460425
 0.9928197543169653 -0.06668322207261886 0.005831464386876342 0.02804447289691732 -0.0013978104757587343 -0.008477573017729357 0.0016119111717688582 0.013338267229124378
 0.0016379029291507038 0.013334754663182603 -0.0013978104757587343 -0.008477573017729357 0.00582755128504144 0.028046070121203425 0.9928198116313622 -0.06668188534169321
 -0.00139908988783403 -0.008477506425460425 0.0016119111717688582 0.013338267229124378 0.9928198116313622 -0.06668188534169321 0.005830789603863964 0.02804585072078564
0.1059090909091 0.006215093644307189 0.029822513027446 0.9923055607392318 -0.07070249619634783 0.0018057057365591079 0.014117533781597087 -0.0015406370566825357 -0.008978010000523888
 0.9923055607392318 -0.07070249619634783 0.006220356595208044 0.029822145604549825 -0.0015392071206658112 -0.008978092984037695 0.001776560968614722 0.014121562582506983
 0.0018057057365591079 0.014117533781597087 -0.0015392071206658112 -0.008978092984037695 0.006215970563130284 0.02982384777692848 0.9923056247866953 -0.0707010807253428
 -0.0015406370566825357 -0.008978010000523888 0.001776560968614722 0.014121562582506983 0.9923056247866953 -0.0707010807253428 0.006219599984510584 0.029823606993225935
0.1062942892872 0.006241175641120625 0.02993967404168822 0.9922710370925386 -0.07096676572775143 0.001817027780558275 0.014168903428235501 -0.0015501883584258006 -0.009010856869928424
 0.9922710370925386 -0.07096676572775143 0.006246476944286607 0.029939304132365393 -0.0015487482610735566 -0.00901094099690938 0.0017876696467759466 0.014172967804658897
 0.001817027780558275 0.014168903428235501 -0.0015487482610735566 -0.00901094099690938 0.006242058913526269 0.029941013246643555 0.9922711015956568 -0.07096534508437652
 -0.0015501883584258006 -0.009010856869928424 0.0017876696467759466 0.014172967804658897 0.9922711015956568 -0.07096534508437652 0.0062457147973390345 0.02994077102464427
0.11254689453939999 0.006674784747888193 0.03184916175347626 0.9916973306121457 -0.07526328591665071 0.002006101859804505 0.01500234277775369 -0.0017097094289195856 -0.009543783613420079
 0.9916973306121457 -0.07526328591665071 0.006680728179919262 0.03184874995573424 -0.0017080996034659723 -0.00954388750070532 0.0019731705119168095 0.015007014672222724
 0.002006101859804505 0.01500234277775369 -0.0017080996034659723 -0.00954388750070532 0.006675774333626811 0.031850572661236774 0.9916974027500409 -0.07526178126507599
 -0.0017097094289195856 -0.009543783613420079 0.0019731705119168095 0.015007014672222724 0.9916974027500409 -0.07526178126507599 0.006679873336829797 0.03185030649407577
0.11879949979160001 0.007127891624988754 0.0337729729812822 0.9910983441539442 -0.07957256329299972 0.002205194092555988 0.01583492121903918 -0.0018777239236432645 -0.010076139051221992
 0.9910983441539442 -0.07957256329299972 0.007134514137339993 0.03377251633032927 -0.0018759354022914 -0.010076265032626788 0.002168482511173561 0.01584025924837501
 0.002205194092555988 0.01583492121903918 -0.0018759354022914 -0.010076265032626788 0.007128993509494806 0.03377445438119211 0.9910984243780073 -0.07957097452948836
 -0.0018777239236432645 -0.010076139051221992 0.002168482511173561 0.01584025924837501 0.9910984243780073 -0.07957097452948836 0.007133561263831044 0.03377416313276913
0.1250521050438 0.007600789745130349 0.03571081190455003 0.9904737889975851 -0.0838943686996744 0.0024143707657468534 0.016666484245866524 -0.002054299999650474 -0.010607773066662421
 0.9904737889975851 -0.0838943686996744 0.0076081283640671675 0.03571030730867608 -0.0020523238901422707 -0.01060792358406916 0.0023736717876391175 0.01667254996391139
 0.0024143707657468534 0.016666484245866524 -0.0020523238901422707 -0.01060792358406916 0.007602009901410403 0.03571236251448535 0.9904738777645935 -0.08389269571261201
 -0.002054299999650474 -0.010607773066662421 0.0023736717876391175 0.01667254996391139 0.9904738777645935 -0.08389269571261201 0.007607072123797565 0.03571204503428882
0.131304710296 0.008093769957008534 0.03766238018497443 0.9898233785881907 -0.088228463775125 0.0026336954319663595 0.017496874410022307 -0.0022395030580098243 -0.011138533032303787
 0.9898233785881907 -0.088228463775125 0.008101861790422238 0.037661824422047886 -0.0022373305442189018 -0.011138710635442124 0.00258880178960613 0.01750373233488582
 0.0026336954319663595 0.017496874410022307 -0.0022373305442189018 -0.011138710635442124 0.008095114344688152 0.0376639986527553 0.9898234763611564 -0.08822670644291877
 -0.0022395030580098243 -0.011138533032303787 0.00258880178960613 0.01750373233488582 0.9898234763611564 -0.08822670644291877 0.008100696845432053 0.037663653773658205
0.1375573155481 0.008494696912239372 0.039373068039170366 0.9892592963887705 -0.09232017673478637 0.002835910270687116 0.018300640258607868 -0.0024061347656099386 -0.011642949596020663
 0.9892592963887705 -0.09232017673478637 0.008503580584380178 0.039372466928235046 -0.0024037527520850035 -0.01164315452488672 0.002786720792486493 0.01830828110213948
 0.002835910270687116 0.018300640258607868 -0.0024037527520850035 -0.01164315452488672 0.008496170922548263 0.039374753084874564 0.9892594035779799 -0.09231833501905891
 -0.0024061347656099386 -0.011642949596020663 0.002786720792486493 0.01830828110213948 0.9892594035779799 -0.09231833501905891 0.008502302259473283 0.039374388663993544
0.1438099208003 0.008909752504814416 0.04107462134803854 0.9886753296697712 -0.09640138516986942 0.0030462898388620755 0.019101025595037957 -0.002579424590480092 -0.012144293502868058
 0.9886753296697712 -0.09640138516986942 0.00891946543850901 0.041073972116070674 -0.0025768235998371034 -0.012144528269496309 0.0029926162741223308 0.01910950839742434
 0.0030462898388620755 0.019101025595037957 -0.0025768235998371034 -0.012144528269496309 0.008911361977244566 0.041076371582544034 0.9886754467354257 -0.09639945895777943
 -0.002579424590480092 -0.012144293502868058 0.0029926162741223308 0.01910950839742434 0.9886754467354257 -0.09639945895777943 0.008918068512944525 0.04107598696107855
0.1500625260525 0.009338788682221995 0.042766894159877604 0.988071630699059 -0.1004719836294357 0.0032647601276167854 0.019897944449021748 -0.002759301064814006 -0.01264248463572453
 0.988071630699059 -0.1004719836294357 0.009349368380481345 0.04276619387752869 -0.002756471641202129 -0.012642751853200114 0.0032064153525702827 0.019907330407121095
 0.0032647601276167854 0.019897944449021748 -0.002756471641202129 -0.012642751853200114 0.009340539437106747 0.04276870813646608 0.9880717581059932 -0.10046997280594744
 -0.002759301064814006 -0.01264248463572453 0.0032064153525702827 0.019907330407121095 0.9880717581059932 -0.10046997280594744 0.009347847639515308 0.04276830258493929
0.15631513130469998 0.009781656318891222 0.044449744920749955 0.9874483525440348 -0.10453186712697193 0.0034912462304949273 0.02069131233095084 -0.0029456918235025117 -0.013137444597035572
 0.9874483525440348 -0.10453186712697193 0.009793140367511098 0.04444899049871444 -0.002942624532941592 -0.01313774697905039 0.003428044265299225 0.020701664775928535
