! Created with skrf 1.8.0 (http://scikit-rf.org).
# GHz S RI R 50.0 
!freq ReS11 ImS11 ReS12 ImS12 ReS13 ImS13
! ReS14 ImS14
! ReS21 ImS21 ReS22 ImS22 ReS23 ImS23
! ReS24 ImS24
! ReS31 ImS31 ReS32 ImS32 ReS33 ImS33
! ReS34 ImS34
! ReS41 ImS41 ReS42 ImS42 ReS43 ImS43
! ReS44 ImS44
!
0.0 0.001645060248833 0.0 0.9983549397396 0.0 6.352804141505e-05 0.0 -6.352804126044e-05 7.779941238569883e-21
 0.9983549397396 0.0 0.001645060248837 0.0 -6.35280412605e-05 7.77994123857723e-21 6.352804141686e-05 0.0
 6.352804141505e-05 0.0 -6.35280412605e-05 7.77994123857723e-21 0.001645060254615 0.0 0.9983549397454 0.0
 -6.352804126044e-05 7.779941238569883e-21 6.352804141686e-05 0.0 0.9983549397454 0.0 0.001645060254609 0.0
0.005 0.0017702442942628702 0.0013472662485368068 0.9981965305481107 -0.003445551486783028 8.88799921674928e-05 0.0006892554612567641 -8.638683837004173e-05 -0.0004344428626910669
 0.9981965305481107 -0.003445551486783028 0.0017702424633381762 0.0013472673838829073 -8.638754063529273e-05 -0.00043444345915496553 8.887461724807296e-05 0.0006892573031867826
 8.88799921674928e-05 0.0006892554612567641 -8.638754063529273e-05 -0.00043444345915496553 0.0017702439997873962 0.0013473337381269869 0.9981965309110726 -0.003445484430452691
 -8.638683837004173e-05 -0.0004344428626910669 8.887461724807296e-05 0.0006892573031867826 0.9981965309110726 -0.003445484430452691 0.0017702434815548708 0.0013473340066624349
0.006252605252188 0.0018031693227967373 0.001689361426788263 0.9981545931958673 -0.0043077664026489795 9.616155280735526e-05 0.0008619029640644443 -9.28784728652541e-05 -0.0005436072525214476
 0.9981545931958673 -0.0043077664026489795 0.0018031664607751794 0.0016893629223192937 -9.287956518575952e-05 -0.0005436079890841538 9.615315258706844e-05 0.0008619053900354329
 9.616155280735526e-05 0.0008619029640644443 -9.287956518575952e-05 -0.0005436079890841538 0.0018031687989818646 0.0016894457876756154 0.9981545937002809 -0.004307682589289879
 -9.28784728652541e-05 -0.0005436072525214476 9.615315258706844e-05 0.0008619053900354329 0.9981545937002809 -0.004307682589289879 0.0018031679899130093 0.0016894461870598384
0.01250521050438 0.0019770351474808377 0.0034139064634203966 0.9979316275327079 -0.00861622091588338 0.0001381242259964511 0.0017241618529013957 -0.00012991353246295708 -0.0010897791555078752
 0.9979316275327079 -0.00861622091588338 0.001977023716336854 0.003413910247483937 -0.00012991783168879545 -0.00108978052997261 0.0001380906520659627 0.0017241680180472463
 0.0001381242259964511 0.0017241618529013957 -0.00012991783168879545 -0.00108978052997261 0.001977032462060543 0.003414075008332083 0.9979316289609115 -0.008616053530562308
 -0.00012991353246295708 -0.0010897791555078752 0.0001380906520659627 0.0017241680180472463 0.9979316289609115 -0.008616053530562308 0.001977029243268594 0.003414076458645621
0.01875781575657 0.002167056846020256 0.005162787104363028 0.9976857516313277 -0.012935824980517109 0.0001895170253840592 0.002587327136827099 -0.00017475087989833133 -0.0016377302761370056
 0.9976857516313277 -0.012935824980517109 0.0021670311524605314 0.005162794062996188 -0.00017476045957822396 -0.0016377321715780413 0.00018944142594365808 0.0025873385800274664
 0.0001895170253840592 0.002587327136827099 -0.00017476045957822396 -0.0016377321715780413 0.002167050371776274 0.005163039816301021 0.9976857544170622 -0.012935574120759744
 -0.00017475087989833133 -0.0016377302761370056 0.00018944142594365808 0.0025873385800274664 0.9976857544170622 -0.012935574120759744 0.002167043161250339 0.005163043016999679
0.02501042100875 0.002373620602544726 0.006933535458116487 0.9974166623397827 -0.017268647112251758 0.0002504419670092275 0.003451416498121786 -0.00022750403964072197 -0.0021872010722327733
 0.9974166623397827 -0.017268647112251758 0.002373574963927061 0.006933546572290988 -0.00022752094601774612 -0.002187203351262771 0.0002503073745030403 0.0034514349889204006
 0.0002504419670092275 0.003451416498121786 -0.00022752094601774612 -0.002187203351262771 0.0023736086998363396 0.006933872367980841 0.9974166669099744 -0.01726831284288885
 -0.00022750403964072197 -0.0021872010722327733 0.0002503073745030403 0.0034514349889204006 0.9974166669099744 -0.01726831284288885 0.0023735959347023308 0.006933878069554593
0.03126302626094 0.002597096645267686 0.008724869021911497 0.9971240417697113 -0.021615557601074517 0.00032100120467380943 0.004316369107143893 -0.00028828310623957954 -0.002738003646402405
 0.9971240417697113 -0.021615557601074517 0.002597025389879633 0.008724885369049432 -0.0002883093628609039 -0.002738006150952524 0.0003207905224185774 0.004316396651080459
 0.00032100120467380943 0.004316369107143893 -0.0002883093628609039 -0.002738006150952524 0.002597077669412594 0.008725290190133902 0.9971240485524995 -0.02161513997260967
 -0.00028828310623957954 -0.002738003646402405 0.0003207905224185774 0.004316396651080459 0.9971240485524995 -0.02161513997260967 0.0025970578073482844 0.00872529919525252
0.037515631513130004 0.0028378469867564446 0.010535942107102075 0.9968075653258643 -0.025976977023478967 0.0004012960618482022 0.00518209280969646 -0.00035719551232139124 -0.003289974574446712
 0.9968075653258643 -0.025976977023478967 0.002837744455098049 0.010535964862278788 -0.0003572331224622596 -0.0032899771257337237 0.0004009920563508782 0.005182131653640868
 0.0004012960618482022 0.00518209280969646 -0.0003572331224622596 -0.0032899771257337237 0.0028378192860151704 0.01053644762223755 0.996807574748747 -0.025976476073564313
 -0.00035719551232139124 -0.003289974574446712 0.0004009920563508782 0.005182131653640868 0.996807574748747 -0.025976476073564313 0.002837790806580521 0.010536460786426534
0.043768236765320004 0.0030962284031286623 0.012366118042590508 0.9964669049758533 -0.030353103966312637 0.0004914265691512315 0.006048478492327212 -0.0004343462903492088 -0.0038429605546419572
 0.9964669049758533 -0.030353103966312637 0.0030960889497698967 0.012366148479756105 -0.0004343972385216268 -0.0038429629531921876 0.0004910118649646605 0.006048531129908572
 0.0004914265691512315 0.006048478492327212 -0.0004343972385216268 -0.0038429629531921876 0.0030961903182236505 0.012366708020690958 0.9964669174654719 -0.030352519720521585
 -0.0004343462903492088 -0.0038429605546419572 0.0004910118649646605 0.006048531129908572 0.9964669174654719 -0.030352519720521585 0.0030961517240895363 0.012366726252974034
0.050020842017509996 0.0033725938121351253 0.014214875034166097 0.9961017309223105 -0.03474400909347133 0.0005914911770547722 0.006915406009975364 -0.0005198381576000522 -0.004396812497289929
 0.9961017309223105 -0.03474400909347133 0.003372411807189192 0.014214914527248046 -0.0005199044104722167 -0.004396814522991739 0.0005909482527531655 0.0069154751871190676
 0.0005914911770547722 0.006915406009975364 -0.0005199044104722167 -0.004396814522991739 0.0033725436784748145 0.01421554961077776 0.9961017469067356 -0.03474334157348046
 -0.0005198381576000522 -0.004396812497289929 0.0005909482527531655 0.0069154751871190676 0.9961017469067356 -0.03474334157348046 0.003372493496965896 0.014215573874080943
0.055454545454549996 0.0036276406393026253 0.01583623783343884 0.9957642187507989 -0.03857183329717049 0.0006865931767702019 0.0076691328889542726 -0.0006009852056446372 -0.004878715113086753
 0.9957642187507989 -0.03857183329717049 0.003627417097604864 0.0158362863905935 -0.0006010663426218692 -0.00487871662001088 0.0006859244801639938 0.007669218869665944
 0.0006865931767702019 0.0076691328889542726 -0.0006010663426218692 -0.00487871662001088 0.003627578677625602 0.0158369860531804 0.9957642381192922 -0.03857109342477106
 -0.0006009852056446372 -0.004878715113086753 0.0006859244801639938 0.007669218869665944 0.9957642381192922 -0.03857109342477106 0.0036275172507697385 0.015837016381833453
0.056273447269699996 0.0036672929693554873 0.01608175995127097 0.9957117125975203 -0.03914968128749648 0.0007015865456159618 0.007782747106488934 -0.000613771521827848 -0.004951382625634427
 0.9957117125975203 -0.03914968128749648 0.0036670628010588356 0.016081809975202324 -0.0006138550289479212 -0.004951384037773583 0.0007008977308367454 0.007782835827021335
 0.0007015865456159618 0.007782747106488934 -0.0006138550289479212 -0.004951384037773583 0.0036672291154433005 0.016082519282266963 0.99571173250409 -0.03914893051032067
 -0.000613771521827848 -0.004951382625634427 0.0007008977308367454 0.007782835827021335 0.99571173250409 -0.03914893051032067 0.0036671659001326967 0.016082550593877958
0.06252605252188 0.003980672832508551 0.017966362933872902 0.9952965193301343 -0.0435700529751416 0.0008218073740646948 0.00865036702176814 -0.0007162444454152345 -0.0055065228951627476
 0.9952965193301343 -0.0435700529751416 0.003980388909219401 0.017966425065610015 -0.0007163471396890339 -0.005506523432479423 0.0008209548468519065 0.00865047855311349
 0.0008218073740646948 0.00865036702176814 -0.0007163471396890339 -0.005506523432479423 0.0039805935815849834 0.017967207190147747 0.9952965435876249 -0.043569218958723274
 -0.0007162444454152345 -0.0055065228951627476 0.0008209548468519065 0.00865047855311349 0.9952965435876249 -0.043569218958723274 0.003980515913850556 0.017967246622025163
0.06877865777407 0.00431307774233587 0.01986830223862415 0.9948558208340642 -0.04800501521925789 0.0009522462514874985 0.009518125458143666 -0.0008273525863973807 -0.006062084059235594
 0.9948558208340642 -0.04800501521925789 0.004312734494869255 0.01986837815808277 -0.0008274763844310551 -0.006062083439976463 0.0009512120360553076 0.009518263337139938
 0.0009522462514874985 0.009518125458143666 -0.0008274763844310551 -0.006062083439976463 0.004312981411638848 0.01986923161826524 0.9948558498714791 -0.04800409797037882
 -0.0008273525863973807 -0.006062084059235594 0.0009512120360553076 0.009518263337139938 0.9948558498714791 -0.04800409797037882 0.004312887902418465 0.019869280297367842
0.07503126302626001 0.0046648494957342015 0.021787214649419132 0.9943892875931198 -0.052454427252153144 0.001092993520264842 0.010385877200893652 -0.0009471891250020837 -0.006617915086525547
 0.9943892875931198 -0.052454427252153144 0.004664441379898909 0.021787306140394782 -0.0009473359274561531 -0.0066179130084871906 0.0010917594849379159 0.010386045239687633
 0.001092993520264842 0.010385877200893652 -0.0009473359274561531 -0.0066179130084871906 0.004664734397679567 0.021788229368399376 0.9943893218408097 -0.052453426775901736
 -0.0009471891250020837 -0.006617915086525547 0.0010917594849379159 0.010386045239687633 0.9943893218408097 -0.052453426775901736 0.004664623688679748 0.021788288477022397
0.08128386827845 0.005036327350250366 0.023722749097918962 0.9938965911819829 -0.0569181228058622 0.0012441371473405351 0.011253472539926356 -0.0010758446808064493 -0.007173862783496052
 0.9938965911819829 -0.0569181228058622 0.005035848849203604 0.02372285804895683 -0.0010760163725027487 -0.007173858924087266 0.0012426850028591705 0.011253674831963767
 0.0012441371473405351 0.011253472539926356 -0.0010760163725027487 -0.007173858924087266 0.005036191792379272 0.02372384938927777 0.9938966310715324 -0.05691703910666464
 -0.0010758446808064493 -0.007173862783496052 0.0012426850028591705 0.011253674831963767 0.9938966310715324 -0.05691703910666464 0.005036062558410885 0.023723920165210386
0.08753647353064001 0.005427847983140196 0.025674562245636308 0.99337740454586 -0.061395914487773706 0.0014057626006569199 0.0121207575682357 -0.001213407223251077 -0.007729771546556345
 0.99337740454586 -0.061395914487773706 0.005427293610495668 0.025674690650772724 -0.0012136056734333312 -0.007729765562830331 0.0014040738985499482 0.012120998494373762
 0.0014057626006569199 0.0121207575682357 -0.0012136056734333312 -0.007729765562830331 0.005427690268267166 0.02567574836461295 0.9933774505098204 -0.061394747564390874
 -0.001213407223251077 -0.007729771546556345 0.0014040738985499482 0.012120998494373762 0.9933774505098204 -0.061394747564390874 0.005427541218666357 0.025675832101413856
0.09378907878283 0.005839745419672733 0.02764231533836083 0.9928314022527941 -0.06588759689163845 0.0015779527290389003 0.012987574409620317 -0.0013599619776765823 -0.008285483191609088
 0.9928314022527941 -0.06588759689163845 0.0058391097215749555 0.02764246529795484 -0.0013601890400556538 -0.008285474720324183 0.0015760088600580491 0.012987858644262506
 0.0015779527290389003 0.012987574409620317 -0.0013601890400556538 -0.008285474720324183 0.005839563846371594 0.0276435875595835 0.9928314547251992 -0.06588634674014411
 -0.0013599619776765823 -0.008285483191609088 0.0015760088600580491 0.012987858644262506 0.9928314547251992 -0.06588634674014411 0.005839393726873186 0.027643685606678292
0.100041684035 0.00627235093754657 0.029625671908480585 0.9922582607270493 -0.07039294886822618 0.0017607876443478101 0.01385376139251213 -0.0015155913278185403 -0.008840836844277203
 0.9922582607270493 -0.07039294886822618 0.006271628495911177 0.02962584562981995 -0.0015158488407037596 -0.008840825501940862 0.0017585698372022311 0.013854093909971645
 0.0017607876443478101 0.01385376139251213 -0.0015158488407037596 -0.008840825501940862 0.006272143800517205 0.02962703052707122 0.9922583201435381 -0.07039161548108717
 -0.0015155913278185403 -0.008840836844277203 0.0017585698372022311 0.013854093909971645 0.9922583201435381 -0.07039161548108717 0.006271951395101149 0.029627144289923704
0.1059090909091 0.0066974316970525305 0.031500733648705204 0.9916954589454702 -0.07463296685641697 0.001942108996146533 0.014665865934210756 -0.0016699570174349815 -0.009361506025772333
 0.9916954589454702 -0.07463296685641697 0.006696622962364476 0.03150093177136948 -0.0016702447631192308 -0.009361491622480133 0.001939616909351099 0.014666248556744435
 0.001942108996146533 0.014665865934210756 -0.0016702447631192308 -0.009361491622480133 0.006697199017081202 0.03150217362709883 0.9916955252762032 -0.07463155535318217
 -0.0016699570174349815 -0.009361506025772333 0.001939616909351099 0.014666248556744435 0.9916955252762032 -0.07463155535318217 0.006696984628595601 0.03150230346577293
0.1062942892872 0.006725992955991669 0.03162429604217084 0.991657658469881 -0.0749117352393218 0.0019543446053546013 0.014719153192410407 -0.0016803747160076044 -0.00939566886857143
 0.991657658469881 -0.0749117352393218 0.006725178391090138 0.03162449584025136 -0.001680664502325561 -0.009395654251490339 0.0019518339254335022 0.014719539273205897
 0.0019543446053546013 0.014719153192410407 -0.001680664502325561 -0.009395654251490339 0.00672575854630865 0.03162574137154018 0.9916577252679918 -0.07491031860778301
 -0.0016803747160076044 -0.00939566886857143 0.0019518339254335022 0.014719539273205897 0.9916577252679918 -0.07491031860778301 0.006725542679266014 0.03162587231173879
0.11254689453939999 0.007200996910915869 0.03363785106485759 0.9910292762704417 -0.0794437081019411 0.002158697902977155 0.015583580954782206 -0.001854388541334574 -0.009949812822184805
 0.9910292762704417 -0.0794437081019411 0.0072000848846701555 0.03363807936287648 -0.0018547124087350657 -0.009949794506511246 0.0021558752512081825 0.015584026192150281
 0.002158697902977155 0.015583580954782206 -0.0018547124087350657 -0.009949794506511246 0.007200733516571558 0.03363938344226655 0.9910293508895741 -0.07944220821059199
 -0.001854388541334574 -0.009949812822184805 0.0021558752512081825 0.015584026192150281 0.9910293508895741 -0.07944220821059199 0.007200493054352391 0.033639533077543526
0.11879949979160001 0.00769768512117098 0.035665998524930416 0.9903727974104243 -0.08398860784257835 0.002373918746687686 0.016446872399717417 -0.0020377060563644468 -0.010503099437263082
 0.9903727974104243 -0.08398860784257835 0.007696670339622846 0.035666257854825426 -0.0020380657971950144 -0.01050307697902123 0.0023707648583980194 0.016447382706188035
 0.002373918746687686 0.016446872399717417 -0.0020380657971950144 -0.01050307697902123 0.007697391027245698 0.035667618304328984 0.9903728802920486 -0.08398702467668061
 -0.0020377060563644468 -0.010503099437263082 0.0023707648583980194 0.016447382706188035 0.9903728802920486 -0.08398702467668061 0.00769712488023714 0.03566778820860234
0.1250521050438 0.008216376645650624 0.037708397390844826 0.9896879078631646 -0.08854616394711155 0.002600075151386723 0.017308851919276624 -0.002230397263162688 -0.011055356615897271
 0.9896879078631646 -0.08854616394711155 0.008215253862545874 0.03770869039378891 -0.0022307946544704643 -0.011055329551078347 0.002596570595451917 0.01730943353331141
 0.002600075151386723 0.017308851919276624 -0.0022307946544704643 -0.011055329551078347 0.008216050134691845 0.037710104948219754 0.9896879994509705 -0.08854449748747971
 -0.002230397263162688 -0.011055356615897271 0.002596570595451917 0.01730943353331141 0.9896879994509705 -0.08854449748747971 0.00821575725967719 0.0377102967515046
0.131304710296 0.008757387135133523 0.03976470341586455 0.9889742964899394 -0.09311609565207778 0.002837231825599923 0.01816934066668745 -0.0024325288082927853 -0.01160640944129816
 0.9889742964899394 -0.09311609565207778 0.008756151154701667 0.03976503284270379 -0.0024329656118538246 -0.011606377285861414 0.0028333570035165546 0.0181700001594507
 0.002837231825599923 0.01816934066668745 -0.0024329656118538246 -0.011606377285861414 0.008757026487572372 0.039766499148381936 0.9889743972299315 -0.09311434587604986
 -0.0024325288082927853 -0.01160640944129816 0.0028333570035165546 0.0181700001594507 0.9889743972299315 -0.09311434587604986 0.008756705889682515 0.039766714536740994
0.1375573155481 0.009200336269605225 0.04156736374184163 0.9883524011326011 -0.09743076156121087 0.0030563905502253024 0.019002003774217006 -0.0026151166846607875 -0.012129941780467272
 0.9883524011326011 -0.09743076156121087 0.009198982650835958 0.04156772470540491 -0.002615595681596413 -0.01212990447492346 0.003052142868943526 0.019002740359252368
 0.0030563905502253024 0.019002003774217006 -0.002615595681596413 -0.01212990447492346 0.009199940691988468 0.04156924773559186 0.9883525114380161 -0.09742892850103578
 -0.0026151166846607875 -0.012129941780467272 0.003052142868943526 0.019002740359252368 0.9883525114380161 -0.09742892850103578 0.009199590342620833 0.04156948148676577
0.1438099208003 0.0096589849218195 0.04335993818525992 0.9877084229830583 -0.10173387908852217 0.0032843785643116045 0.019830904948051845 -0.002804980386414469 -0.012650012025931237
 0.9877084229830583 -0.10173387908852217 0.009657508679176554 0.04336033280808836 -0.0028055034998569375 -0.01264996908661493 0.0032797412529503786 0.019831724569021554
 0.0032843785643116045 0.019830904948051845 -0.0028055034998569375 -0.01264996908661493 0.009658552860232058 0.04336191081519514 0.9877085432958242 -0.10173196273325327
 -0.002804980386414469 -0.012650012025931237 0.0032797412529503786 0.019831724569021554 0.9877085432958242 -0.10173196273325327 0.009658171647962236 0.04336216403806534
0.1500625260525 0.01013316288137907 0.0451422588990084 0.987042536741357 -0.10602532282517454 0.0035211112829563788 0.020655947179777843 -0.003002037446325008 -0.013166528648264208
 0.987042536741357 -0.10602532282517454 0.01013155908635214 0.04514268938533619 -0.003002606596894921 -0.013166479571590462 0.0035160676056963168 0.020656856010252155
 0.0035211112829563788 0.020655947179777843 -0.003002606596894921 -0.013166479571590462 0.010132692791265448 0.04514432055584059 0.9870426675050533 -0.10602332316199463
 -0.003002037446325008 -0.013166528648264208 0.0035160676056963168 0.020656856010252155 0.9870426675050533 -0.10602332316199463 0.010132279638421856 0.045144594403467006
0.15631513130469998 0.010622698625018493 0.0469141630470986 0.9863549181109174 -0.11030496820279415 0.003766503058828162 0.021477035240390897 -0.0032062043236387307 -0.013679402154138055
 0.9863549181109174 -0.11030496820279415 0.010620962407410312 0.04691463168163833 -0.00320682142945754 -0.013679346416581145 0.0037610363133747516 0.021478039683560313
