! Created with skrf 1.8.0 (http://scikit-rf.org).
# GHz S RI R 50.0 
!freq ReS11 ImS11 ReS12 ImS12 ReS13 ImS13
! ReS14 ImS14
! ReS21 ImS21 ReS22 ImS22 ReS23 ImS23
! ReS24 ImS24
! ReS31 ImS31 ReS32 ImS32 ReS33 ImS33
! ReS34 ImS34
! ReS41 ImS41 ReS42 ImS42 ReS43 ImS43
! ReS44 ImS44
!
0.0 0.001066246891576 0.0 0.9989337530773 0.0 4.042263418721e-05 0.0 -4.042263386504e-05 4.950344917592664e-21
 0.9989337530773 0.0 0.001066246891571 0.0 -4.042263386503e-05 4.950344917591439e-21 4.042263418675e-05 0.0
 4.042263418721e-05 0.0 -4.042263386503e-05 4.950344917591439e-21 0.001066246907131 0.0 0.9989337530929 0.0
 -4.042263386504e-05 4.950344917592664e-21 4.042263418675e-05 0.0 0.9989337530929 0.0 0.001066246907126 0.0
0.005 0.001146228389125301 0.0008709930527524291 0.9988327082152728 -0.0022349080728247014 5.633521375050932e-05 0.00045703166095135137 -5.476037802926097e-05 -0.0002850093856698465
 0.9988327082152728 -0.0022349080728247014 0.0011462245205969765 0.0008709952831678097 -5.475871401433851e-05 -0.00028500808690007747 5.636219683871158e-05 0.00045702138305891754
 5.633521375050932e-05 0.00045703166095135137 -5.475871401433851e-05 -0.00028500808690007747 0.0011462290248252676 0.0008709254056084338 0.9988327078999029 -0.002234975141365691
 -5.476037802926097e-05 -0.0002850093856698465 5.636219683871158e-05 0.00045702138305891754 0.9988327078999029 -0.002234975141365691 0.0011462232569544953 0.0008709287957146316
0.006252605252188 0.0011669223213929105 0.001092216720282809 0.998806445898995 -0.0027942261284359584 6.07158780722464e-05 0.000571523947314358 -5.8678926531202906e-05 -0.00035664940353540356
 0.998806445898995 -0.0027942261284359584 0.0011669162745355799 0.0010922195719227368 -5.867633728387721e-05 -0.00035664780072658104 6.075803738280987e-05 0.0005715106247236037
 6.07158780722464e-05 0.000571523947314358 -5.867633728387721e-05 -0.00035664780072658104 0.001166923385997833 0.0010921321701000872 0.9988064454765839 -0.002794309953797727
 -5.8678926531202906e-05 -0.00035664940353540356 6.075803738280987e-05 0.0005715106247236037 0.9988064454765839 -0.002794309953797727 0.001166914369529961 0.0010921364769300858
0.01250521050438 0.001274212746821671 0.002207804736919653 0.9986696071150926 -0.005589477360156071 8.496414490833229e-05 0.0011434531417363605 -8.021676892523654e-05 -0.0007152177135567959
 0.9986696071150926 -0.005589477360156071 0.0012741886062091086 0.002207811073773187 -8.020656560245922e-05 -0.0007152147286793054 8.513227912161137e-05 0.0011434214723772848
 8.496414490833229e-05 0.0011434531417363605 -8.020656560245922e-05 -0.0007152147286793054 0.0012742175682344482 0.0022076358726257884 0.998669605993443 -0.005589644761546669
 -8.021676892523654e-05 -0.0007152177135567959 8.513227912161137e-05 0.0011434214723772848 0.998669605993443 -0.005589644761546669 0.0012741815611008224 0.002207645187113081
0.01875781575657 0.001388292070044117 0.0033397895773638418 0.998523110192491 -0.008392616285082479 0.0001132136997508638 0.0017162194847131927 -0.00010508921964755013 -0.0010752070328029991
 0.998523110192491 -0.008392616285082479 0.0013882378330808476 0.0033398000536592823 -0.00010506646568647715 -0.0010752029157330243 0.00011359142713836906 0.00171616369932841
 0.0001132136997508638 0.0017162194847131927 -0.00010506646568647715 -0.0010752029157330243 0.0013883033327768913 0.003339536470381577 0.9985231080894831 -0.008392867179673923
 -0.00010508921964755013 -0.0010752070328029991 0.00011359142713836906 0.00171616369932841 0.9985231080894831 -0.008392867179673923 0.0013882224140606433 0.0033395515512399565
0.02501042100875 0.0015093319642608455 0.004486639720618663 0.9983668254257118 -0.011205058930971895 0.00014551128093431704 0.002289887162533948 -0.00013334840400624904 -0.001436485166312145
 0.9983668254257118 -0.011205058930971895 0.0015092356582069874 0.004486655007894846 -0.00013330822065444275 -0.0014364802012474705 0.00014618228265212755 0.0022898007869518204
 0.00014551128093431704 0.002289887162533948 -0.00013330822065444275 -0.0014364802012474705 0.0015093523543829655 0.004486302408602593 0.9983668220593295 -0.011205393273010757
 -0.00013334840400624904 -0.001436485166312145 0.00014618228265212755 0.0022898007869518204 0.9983668220593295 -0.011205393273010757 0.0015092086338967558 0.004486324066426063
0.03126302626094 0.0016374964417392975 0.005647595630260643 0.998200614595928 -0.014027445705641422 0.00018190426779695934 0.002864467329488464 -0.00016504538540432356 -0.001798970957674328
 0.998200614595928 -0.014027445705641422 0.0016373461180808084 0.00564761641660887 -0.0001649829413656683 -0.0017989654638369426 0.0001829523730833127 0.002864343181902745
 0.00018190426779695934 0.002864467329488464 -0.0001649829413656683 -0.0017989654638369426 0.0016375286534233483 0.0056471741325128805 0.9982006096884887 -0.014027863471173161
 -0.00016504538540432356 -0.001798970957674328 0.0001829523730833127 0.002864343181902745 0.9982006096884887 -0.014027863471173161 0.0016373042634196186 0.005647203229009209
0.037515631513130004 0.0017729460613157423 0.006822183765362375 0.9980243352341942 -0.016860127351287266 0.00022244025592131153 0.003439950795262551 -0.00020023057165805154 -0.0021626015941056975
 0.9980243352341942 -0.016860127351287266 0.0017727297921318363 0.006822210754933409 -0.0002001410776980442 -0.002162595926001517 0.00022394948413032915 0.0034397809791950076
 0.00022244025592131153 0.003439950795262551 -0.0002001410776980442 -0.002162595926001517 0.0017729927889135735 0.0068216780867942205 0.9980243285039802 -0.016860628534235242
 -0.00020023057165805154 -0.0021626015941056975 0.00022394948413032915 0.0034397809791950076 0.9980243285039802 -0.016860628534235242 0.0017726698791962266 0.006821715534506026
0.043768236765320004 0.001915839563666783 0.008010068700675792 0.9978378423121431 -0.019703312785736046 0.0002671668689711913 0.004016317968936801 -0.0002389538733078989 -0.002527322651880902
 0.9978378423121431 -0.019703312785736046 0.0019155454388423367 0.008010102613214574 -0.00023883257894171102 -0.0025273171994057353 0.00026922145321773774 0.00401609386485157
 0.0002671668689711913 0.004016317968936801 -0.00023883257894171102 -0.0025273171994057353 0.0019159035061251666 0.008009478840312941 0.9978378334769129 -0.019703897389346685
 -0.0002389538733078989 -0.002527322651880902 0.00026922145321773774 0.00401609386485157 0.9978378334769129 -0.019703897389346685 0.001915464240685102 0.008009525602565522
0.050020842017509996 0.0020663346400263583 0.00921099199591929 0.9976409890669949 -0.02255713019310076 0.00031613165319717217 0.004593542955297977 -0.00028126477464619645 -0.00289308398871576
 0.9976409890669949 -0.02255713019310076 0.0020659507652372434 0.009211033566348751 -0.0002811069659915619 -0.0028930791772204204 0.00031881605449955806 0.004593255211651055
 0.00031613165319717217 0.004593542955297977 -0.0002811069659915619 -0.0028930791772204204 0.002066418501164889 0.00921031794473029 0.9976409778436913 -0.022557798231959594
 -0.00028126477464619645 -0.00289308398871576 0.00031881605449955806 0.004593255211651055 0.9976409778436913 -0.022557798231959594 0.0020658450554575177 0.009210375035720962
0.055454545454549996 0.0022034148154835382 0.010265054409403918 0.9974613888415219 -0.025045879507084572 0.0003621622652213263 0.005095842249330865 -0.0003209859351633102 -0.003211749283159101
 0.9974613888415219 -0.025045879507084572 0.002202943296422024 0.010265103243102681 -0.000320792593513634 -0.0032117454016898227 0.00036546277260459444 0.0050954910309117755
 0.0003621622652213263 0.005095842249330865 -0.000320792593513634 -0.0032117454016898227 0.002203518186469904 0.010264307181877702 0.9974613753121192 -0.02504662007272582
 -0.0003209859351633102 -0.003211749283159101 0.00036546277260459444 0.0050954910309117755 0.9974613753121192 -0.02504662007272582 0.0022028136654985158 0.010264374112101852
0.056273447269699996 0.0022245883424215074 0.01042474220987704 0.9974336274689348 -0.02542165696895863 0.00036938200851582376 0.0051715955680581415 -0.0003272123659511435 -0.003259837719258381
 0.9974336274689348 -0.02542165696895863 0.0022241028371485427 0.01042479218789676 -0.0003270133641973917 -0.003259834009576466 0.0003727809240937239 0.00517123409205087
 0.00036938200851582376 0.0051715955680581415 -0.0003270133641973917 -0.003259834009576466 0.002224694830917176 0.010423983953450814 0.9974336135729958 -0.0254224084663061
 -0.0003272123659511435 -0.003259837719258381 0.0003727809240937239 0.00517123409205087 0.9974336135729958 -0.0254224084663061 0.002223969389571084 0.010424052438368005
0.06252605252188 0.002390757315714035 0.011651138405108315 0.9972156085111967 -0.028296936175009568 0.0004269651384857 0.005750442429923616 -0.0003768453551630441 -0.0036275371040502134
 0.9972156085111967 -0.028296936175009568 0.002390158311568763 0.011651197554872126 -0.0003766005154515164 -0.0036275349925258566 0.00043116350635399354 0.005749996378077557
 0.0004269651384857 0.005750442429923616 -0.0003766005154515164 -0.0036275349925258566 0.0023908891456744176 0.011650295917830211 0.9972155916564732 -0.02829777116833962
 -0.0003768453551630441 -0.0036275371040502134 0.00043116350635399354 0.005749996378077557 0.9972155916564732 -0.02829777116833962 0.0023899939006297713 0.011650376913036022
0.06877865777407 0.0025649979381739407 0.01289002031293131 0.996986782409659 -0.03118298633359526 0.0004889280092033906 0.006330047625128351 -0.00043021206948667197 -0.0039961358865058605
 0.996986782409659 -0.03118298633359526 0.0025642735770863285 0.012890089412675472 -0.00042991678006620843 -0.003996135905000618 0.000494011010159218 0.006329505393763588
 0.0004889280092033906 0.006330047625128351 -0.00042991678006620843 -0.003996135905000618 0.002565157828758719 0.012889093569036059 0.99698676230838 -0.031183904863518193
 -0.00043021206948667197 -0.0039961358865058605 0.000494011010159218 0.006329505393763588 0.99698676230838 -0.031183904863518193 0.0025640749775933335 0.012889188242263793
0.07503126302626001 0.00274746640523141 0.014141242107965342 0.9967469987478973 -0.0340798076129888 0.00055531731473624 0.006910373113032253 -0.00048736044943033696 -0.004365587869415397
 0.9967469987478973 -0.0340798076129888 0.0027466048378569185 0.014141321949761447 -0.0004870101310509902 -0.004365590585324249 0.0005613703724416782 0.006909722328679621
 0.00055531731473624 0.006910373113032253 -0.0004870101310509902 -0.004365590585324249 0.002747657080905303 0.014140231072023828 0.9967469751094944 -0.03408080973264503
 -0.00048736044943033696 -0.004365587869415397 0.0005613703724416782 0.006909722328679621 0.9967469751094944 -0.03408080973264503 0.0027463688249842358 0.014140340642583515
0.08128386827845 0.0029383187779629324 0.015404668253472741 0.9964961065866365 -0.03698738594266505 0.000626179446191156 0.007491379000038592 -0.00054833803833556 -0.004735846633805674
 0.9964961065866365 -0.03698738594266505 0.002937308162282242 0.01540475964285278 -0.0005479281437854084 -0.004735852650052072 0.0006332882258679532 0.007490606509813974
 0.000626179446191156 0.007491379000038592 -0.0005479281437854084 -0.004735852650052072 0.002938542969778939 0.015403572885914357 0.9964960791194979 -0.03698847171197191
 -0.00054833803833556 -0.004735846633805674 0.0006332882258679532 0.007490606509813974 0.9964960791194979 -0.03698847171197191 0.002937031512827218 0.015403698625034655
0.08753647353064001 0.0031377110129901407 0.016680170632981967 0.9962339545569243 -0.039905695842600744 0.0007015604625005593 0.008073023726187298 -0.0006131919694472951 -0.005106865343823728
 0.9962339545569243 -0.039905695842600744 0.003136539512446341 0.01668027438878225 -0.0006127179831527441 -0.005106875298865111 0.0007098108684446886 0.00807211558815838
 0.0007015604625005593 0.008073023726187298 -0.0006127179831527441 -0.005106875298865111 0.0031379714573721144 0.01667899088880014 0.9962339229662531 -0.03990686532944147
 -0.0006131919694472951 -0.005106865343823728 0.0007098108684446886 0.00807211558815838 0.9962339229662531 -0.03990686532944147 0.0031362190039567047 0.01667913411986886
0.09378907878283 0.003345798972009139 0.017967626504902176 0.9959603909340872 -0.04283470243050418 0.000781506063323215 0.00865526419836986 -0.0006819689500252046 -0.0054785966057868
 0.9959603909340872 -0.04283470243050418 0.003344454754304551 0.01796774345898697 -0.0006814263878231193 -0.005478611173607371 0.0007909842355292923 0.008654205671909238
 0.000781506063323215 0.00865526419836986 -0.0006814263878231193 -0.005478611173607371 0.0033460984118504774 0.017966362332122798 0.995960354922637 -0.04283595571207885
 -0.0006819689500252046 -0.0054785966057868 0.0007909842355292923 0.008654205671909238 0.995960354922637 -0.04283595571207885 0.003344087165949482 0.017966524431071225
0.100041684035 0.0035627384245598527 0.019266916984573675 0.9956752637050366 -0.045774362902236895 0.0008660615624728653 0.009238055886136461 -0.0007547152443383321 -0.005850992365440499
 0.9956752637050366 -0.045774362902236895 0.003561209659751257 0.019267047981691272 -0.0007540996532325133 -0.005851012255543312 0.0008768538724217345 0.009236831422287095
 0.0008660615624728653 0.009238055886136461 -0.0007540996532325133 -0.005851012255543312 0.0035630796088437387 0.019265568326204033 0.9956752229728858 -0.04577570006296706
 -0.0007547152443383321 -0.005850992365440499 0.0008768538724217345 0.009236831422287095 0.9956752229728858 -0.04577570006296706 0.0035607917723851513 0.019265750721858432
0.1059090909091 0.003774502098056039 0.020496823239061664 0.995397049457397 -0.048542567924526964 0.0009496405854590484 0.009785404532209092 -0.0008266307796189817 -0.00620100718742333
 0.995397049457397 -0.048542567924526964 0.003772789397223538 0.020496968193633752 -0.0008259426363721408 -0.006201032748840781 0.000961744830230971 0.009784009483611434
 0.0009496405854590484 0.009785404532209092 -0.0008259426363721408 -0.006201032748840781 0.0037748849611577025 0.02049539524414217 0.9953970040196912 -0.04854398387941824
 -0.0008266307796189817 -0.00620100718742333 0.000961744830230971 0.009784009483611434 0.9953970040196912 -0.04854398387941824 0.0037723213835607378 0.020495598033075692
0.1062942892872 0.0037886850403042616 0.020577925919977015 0.9953784206279187 -0.048724627619553706 0.0009552718620106914 0.00982135289417831 -0.0008314766551139704 -0.006224003829379564
 0.9953784206279187 -0.048724627619553706 0.0037869598996300114 0.020578071817517755 -0.0008307836131877484 -0.006224029786778195 0.0009674649079450276 0.009819946126029402
 0.0009552718620106914 0.00982135289417831 -0.0008307836131877484 -0.006224029786778195 0.003789070724607731 0.020576492714622825 0.9953783748718152 -0.048726048750199556
 -0.0008314766551139704 -0.006224003829379564 0.0009674649079450276 0.009819946126029402 0.9953783748718152 -0.048726048750199556 0.0037864884960526345 0.020576696889104615
0.11254689453939999 0.004023794376799133 0.02190053902317506 0.9950697092872988 -0.051685440942769105 0.0010491814270805397 0.010405108014968158 -0.0009122985038308684 -0.006597581407201004
 0.9950697092872988 -0.051685440942769105 0.004021861030852613 0.021900700691103878 -0.0009115236201137143 -0.006597614212397887 0.001062862028584848 0.01040350174806108
 0.0010491814270805397 0.010405108014968158 -0.0009115236201137143 -0.006597614212397887 0.004024227323322598 0.021899021197872567 0.9950696582009042 -0.05168694614752485
 -0.0009122985038308684 -0.006597581407201004 0.001062862028584848 0.01040350174806108 0.9950696582009042 -0.05168694614752485 0.004021332896267678 0.021899248687042305
0.11879949979160001 0.00426822186153605 0.023234643182739826 0.9947489771448276 -0.054656741883523374 0.0011478342604144508 0.010989272772953395 -0.0009972256105359512 -0.00697167466297527
 0.9947489771448276 -0.054656741883523374 0.0042660684785965795 0.023234821503507284 -0.0009963645249375687 -0.006971715131955045 0.0011630894525356068 0.010987448975725107
 0.0011478342604144508 0.010989272772953395 -0.0009963645249375687 -0.006971715131955045 0.0042687048392104614 0.02323304066312453 0.9947489204184172 -0.054658331269585185
 -0.0009972256105359512 -0.00697167466297527 0.0011630894525356068 0.010987448975725107 0.9947489204184172 -0.054658331269585185 0.004265480401035631 0.02323329305703788
0.1250521050438 0.004522122770990867 0.02458012593300927 0.9944160715892811 -0.05763846460175379 0.0012512738774311412 0.011573797456833635 -0.0010863022724410451 -0.007346232279634738
 0.9944160715892811 -0.05763846460175379 0.004519737515867027 0.024580321801394505 -0.001085350655783756 -0.007346281263828685 0.0012681909044091966 0.011571737251087079
 0.0012512738774311412 0.011573797456833635 -0.001085350655783756 -0.007346281263828685 0.004522658555598878 0.024578438636211192 0.9944160089090978 -0.05764013828617342
 -0.0010863022724410451 -0.007346232279634738 0.0012681909044091966 0.011571737251087079 0.9944160089090978 -0.05764013828617342 0.004519086286093466 0.024578717579635905
0.131304710296 0.004785652206365414 0.02593687501586607 0.9940708399826013 -0.06063053881082241 0.0013595432811969522 0.01215863114579918 -0.0011795722422481931 -0.007721202030337269
 0.9940708399826013 -0.06063053881082241 0.004783023238320414 0.025937089339063614 -0.001178525796224318 -0.007721260416606598 0.0013782095896588806 0.012156314797206916
 0.0013595432811969522 0.01215863114579918 -0.001178525796224318 -0.007721260416606598 0.004786243580851373 0.0259351028528817 0.9940707710311769 -0.060632296917989104
 -0.0011795722422481931 -0.007721202030337269 0.0013782095896588806 0.012156314797206916 0.9940707710311769 -0.060632296917989104 0.00478230565074168 0.02593541004584625
0.1375573155481 0.0049893101734849185 0.027126492841105288 0.9937827992394088 -0.0634545625211909 0.0014562893127154004 0.012724798959445272 -0.001260664009374526 -0.008077629265701594
 0.9937827992394088 -0.0634545625211909 0.004986424353709342 0.02712672017370447 -0.0012595164007757204 -0.008077696845289745 0.001476749295008551 0.012722234570441622
 0.0014562893127154004 0.012724798959445272 -0.0012595164007757204 -0.008077696845289745 0.0049899593916953285 0.027124635699181568 0.9937827237361688 -0.06345640511876699
 -0.001260664009374526 -0.008077629265701594 0.001476749295008551 0.012722234570441622 0.9937827237361688 -0.06345640511876699 0.004985637665956808 0.027124966440741787
0.1438099208003 0.005199769562461032 0.028311250073963803 0.9934852670416475 -0.06627287196623906 0.0015569248783830379 0.013289591468068638 -0.0013450068612473713 -0.008432786246394739
 0.9934852670416475 -0.06627287196623906 0.005196614833054544 0.028311490847784834 -0.001343753469155454 -0.008432863863299743 0.0015792584564100077 0.013286761462704934
 0.0015569248783830379 0.013289591468068638 -0.001343753469155454 -0.008432863863299743 0.005200479321283473 0.028309307867982397 0.9934851846707833 -0.06627479917549801
 -0.0013450068612473713 -0.008432786246394739 0.0015792584564100077 0.013286761462704934 0.9934851846707833 -0.06627479917549801 0.005195755928269055 0.028309663400419006
0.1500625260525 0.005416972416288541 0.02949108999919212 0.9931783036124452 -0.06908544052279882 0.0016614246083943634 0.013852981380963412 -0.0014325759133097357 -0.008786645402230259
 0.9931783036124452 -0.06908544052279882 0.005413536703241208 0.0294913446720361 -0.0014312121217108602 -0.0087867339337012 0.001685711392324903 0.01384986755465254
 0.0016614246083943634 0.013852981380963412 -0.0014312121217108602 -0.0087867339337012 0.005417745413248229 0.029489062639187515 0.9931782140549951 -0.06908745247185635
 -0.0014325759133097357 -0.008786645402230259 0.001685711392324903 0.01384986755465254 0.9931782140549951 -0.06908745247185635 0.005412602473377496 0.029489444262910336
0.15631513130469998 0.005640860543635398 0.030665957909220866 0.9928619692836003 -0.07189224089940195 0.0017697629452457344 0.014414941726546351 -0.0015233460768685815 -0.009139179665418627
