! Created with skrf 1.8.0 (http://scikit-rf.org).
# GHz S RI R 50.0 
!freq ReS11 ImS11 ReS12 ImS12 ReS13 ImS13
! ReS14 ImS14
! ReS21 ImS21 ReS22 ImS22 ReS23 ImS23
! ReS24 ImS24
! ReS31 ImS31 ReS32 ImS32 ReS33 ImS33
! ReS34 ImS34
! ReS41 ImS41 ReS42 ImS42 ReS43 ImS43
! ReS44 ImS44
!
0.0 0.001120744050186 0.0 0.9988792559498 0.0 4.240854912828e-05 0.0 -4.240854895044e-05 5.193549372864019e-21
 0.9988792559498 0.0 0.001120744050191 0.0 -4.24085489506e-05 5.193549372883613e-21 4.240854912803e-05 0.0
 4.240854912828e-05 0.0 -4.24085489506e-05 5.193549372883613e-21 0.00112074404078 0.0 0.9988792559404 0.0
 -4.240854895044e-05 5.193549372864019e-21 4.240854912803e-05 0.0 0.9988792559404 0.0 0.001120744040773 0.0
0.005 0.0012048861147965014 0.0009194047773756982 0.9987729468781256 -0.002348784978186163 5.860274586428284e-05 0.0004553775772186389 -5.70717000519274e-05 -0.0002880640083980844
 0.9987729468781256 -0.002348784978186163 0.0012048930143476891 0.0009194007227021217 -5.7070895315157015e-05 -0.00028806335676954503 5.856811961758019e-05 0.0004553907868985575
 5.860274586428284e-05 0.0004553775772186389 -5.7070895315157015e-05 -0.00028806335676954503 0.001204887025177182 0.0009194714516522685 0.9987729472020066 -0.002348717926733671
 -5.70717000519274e-05 -0.0002880640083980844 5.856811961758019e-05 0.0004553907868985575 0.9987729472020066 -0.002348717926733671 0.0012048927478369297 0.0009194681477324658
0.006252605252188 0.0012266883115254611 0.001152901138976718 0.9987452701903955 -0.0029365955794155843 6.308392681102764e-05 0.0005694643803197425 -6.109063018814571e-05 -0.00036046457854437165
 0.9987452701903955 -0.0029365955794155843 0.0012266990969047938 0.001152895975444828 -6.108937818784294e-05 -0.0003604637739677513 6.302982593136672e-05 0.0005694815030764347
 6.308392681102764e-05 0.0005694643803197425 -6.108937818784294e-05 -0.0003604637739677513 0.0012266896557144948 0.0011529844895049623 0.9987452706175697 -0.002936511751891636
 -6.109063018814571e-05 -0.00036046457854437165 6.302982593136672e-05 0.0005694815030764347 0.9987452706175697 -0.002936511751891636 0.001226698600735356 0.0011529802719566211
0.01250521050438 0.0013399125681829427 0.002330274356286463 0.9986007933070514 -0.005874192739500696 8.801430221525101e-05 0.0011393940980916346 -8.324371418110315e-05 -0.0007228265548960461
 0.9986007933070514 -0.005874192739500696 0.0013399556383085788 0.0023302630656060357 -8.323878285117593e-05 -0.0007228250523420749 8.779855470305636e-05 0.0011394348178249808
 8.801430221525101e-05 0.0011393940980916346 -8.323878285117593e-05 -0.0007228250523420749 0.0013399173891414013 0.0023304407318400235 0.9986007944626623 -0.005874025338786072
 -8.324371418110315e-05 -0.0007228265548960461 8.779855470305636e-05 0.0011394348178249808 0.9986007944626623 -0.005874025338786072 0.001339953100174386 0.0023304314169362707
0.01875781575657 0.0014606078264373218 0.0035247909897899404 0.9984456862298736 -0.00881999258241496 0.00011724845628394377 0.001710188763188568 -0.00010892360270261099 -0.0010866118233945033
 0.9984456862298736 -0.00881999258241496 0.0014607046155131768 0.003524772534538836 -0.00010891260895356969 -0.001086609743736806 0.0001167637871210086 0.0017102605560125432
 0.00011724845628394377 0.001710188763188568 -0.00010891260895356969 -0.001086609743736806 0.0014606182398867028 0.003525040206785466 0.9984456884006598 -0.008819741678072156
 -0.00010892360270261099 -0.0010866118233945033 0.0001167637871210086 0.0017102605560125432 0.9984456884006598 -0.008819741678072156 0.0014606984721018093 0.003525024867826033
0.02501042100875 0.0015889621769520162 0.0047348377105476324 0.9982798060835704 -0.011775476724974926 0.00015083588943911433 0.002281901720120562 -0.00013818510911743027 -0.0014516903566048265
 0.9982798060835704 -0.011775476724974926 0.0015891340800635264 0.004734810985902123 -0.00013816569897694107 -0.0014516878375591612 0.00014997496079616792 0.0022820130116574877
 0.00015083588943911433 0.002281901720120562 -0.00013816569897694107 -0.0014516878375591612 0.0015889803083496646 0.004735169574535387 0.9982798095663308 -0.01177514235517926
 -0.00013818510911743027 -0.0014516903566048265 0.00014997496079616792 0.0022820130116574877 0.9982798095663308 -0.01177514235517926 0.0015891227725392926 0.004735147242845143
0.03126302626094 0.0017251554538524002 0.005959611640227757 0.9981030009108983 -0.014741312158214804 0.00018882676731657094 0.0028545362298612264 -0.00017108195025458426 -0.0018179799918693167
 0.9981030009108983 -0.014741312158214804 0.0017254238368699158 0.005959575474805566 -0.0001710517937062027 -0.0018179771883192095 0.00018748207072526906 0.002854696398753773
 0.00018882676731657094 0.0028545362298612264 -0.0001710517937062027 -0.0018179771883192095 0.0017251834270376495 0.005960025941645596 0.9981030060014797 -0.014740894333779772
 -0.00017108195025458426 -0.0018179799918693167 0.00018748207072526906 0.002854696398753773 0.9981030060014797 -0.014740894333779772 0.0017254057981940902 0.00595999560751583
0.037515631513130004 0.0018693637295905895 0.007198610048176768 0.9979151142312678 -0.01771786151206203 0.00023127145481943162 0.003428076230621606 -0.00020766713953921469 -0.0021854156574957133
 0.9979151142312678 -0.01771786151206203 0.0018697499345729112 0.007198563204364205 -0.00020762392782436434 -0.0021854127415986187 0.00022933525875799108 0.0034282956176567695
 0.00023127145481943162 0.003428076230621606 -0.00020762392782436434 -0.0021854127415986187 0.0018694036705278723 0.00719910654764433 0.9979151212280292 -0.01771736023082968
 -0.00020766713953921469 -0.0021854156574957133 0.00022933525875799108 0.0034282956176567695 0.9979151212280292 -0.01771736023082968 0.0018697235926975677 0.007199067160873012
0.043768236765320004 0.0020217610707374913 0.008451475042082856 0.9977159868612856 -0.02070533832178586 0.00027822030817516294 0.0040024956903867235 -0.00024799313799224573 -0.0025539400077887304
 0.9977159868612856 -0.02070533832178586 0.0020222864201626524 0.008451416216078868 -0.0002479345819814789 -0.0025539371690102737 0.0002755846295879071 0.004002785609355272
 0.00027822030817516294 0.0040024956903867235 -0.0002479345819814789 -0.0025539371690102737 0.002021815103862067 0.008452053478209905 0.9977159960619812 -0.02070475356045461
 -0.00024799313799224573 -0.0025539400077887304 0.0002755846295879071 0.004002785609355272 0.9977159960619812 -0.02070475356045461 0.002022250193932452 0.008452003948520451
0.050020842017509996 0.0021825203552518846 0.009717929390786511 0.9975054577981544 -0.023703871160640502 0.0003297235557756706 0.004577762468336704 -0.0002921119218633323 -0.0029234995495177507
 0.9975054577981544 -0.023703871160640502 0.0021832061552001215 0.009717857212545221 -0.00029203575097442306 -0.0029234969946374152 0.0003262801437568086 0.004578135217645377
 0.0003297235557756706 0.004577762468336704 -0.00029203575097442306 -0.0029234969946374152 0.002182590606884822 0.009718589470403922 0.9975054695039064 -0.02370320288415382
 -0.0002921119218633323 -0.0029234995495177507 0.0003262801437568086 0.004578135217645377 0.9975054695039064 -0.02370320288415382 0.0021831584574291303 0.009718528667791155
0.055454545454549996 0.0023291496640408813 0.010829374799436426 0.9973131160592743 -0.026318725196317738 0.0003782190203976095 0.0050783466985627685 -0.0003335727106127435 -0.0032454586369350513
 0.9973131160592743 -0.026318725196317738 0.0023299921925229897 0.010829289853535425 -0.00033347940166569823 -0.0032454565101487226 0.00037398553602826823 0.005078802191444466
 0.0003782190203976095 0.0050783466985627685 -0.00033347940166569823 -0.0032454565101487226 0.002329235736723031 0.010830105566533148 0.9973131301879568 -0.026317984305137668
 -0.0003335727106127435 -0.0032454586369350513 0.00037398553602826823 0.005078802191444466 0.9973131301879568 -0.026317984305137668 0.0023299332306396512 0.01083003401904551
0.056273447269699996 0.0023518137123520505 0.010997745025727127 0.9972833647273395 -0.02671353509319104 0.00038583122119484857 0.0051538402002912435 -0.0003400750096757162 -0.0032940427448993853
 0.9972833647273395 -0.02671353509319104 0.0023526812548845667 0.010997658058870841 -0.0003399789710750447 -0.0032940406980095194 0.00038147154839110627 0.005154309074912779
 0.00038583122119484857 0.0051538402002912435 -0.0003399789710750447 -0.0032940406980095194 0.002351902308519736 0.010998486424482156 0.9972833792409391 -0.02671278325373487
 -0.0003400750096757162 -0.0032940427448993853 0.00038147154839110627 0.005154309074912779 0.9972833792409391 -0.02671278325373487 0.0023526204904970025 0.010998413179468236
0.06252605252188 0.0025298127687004377 0.01229072571869722 0.997049544338204 -0.02973436895240118 0.00044659306492042853 0.005730689338661923 -0.00039193347131073893 -0.003665518960665641
 0.997049544338204 -0.02973436895240118 0.00253088333448087 0.012290622460341419 -0.0003918153293740537 -0.003665517663163868 0.0004412083236227733 0.0057312686423097664
 0.00044659306492042853 0.005730689338661923 -0.0003918153293740537 -0.003665517663163868 0.0025299218350636234 0.012291548082007832 0.9970495619643303 -0.02973353348811211
 -0.00039193347131073893 -0.003665518960665641 0.0004412083236227733 0.0057312686423097664 0.9970495619643303 -0.02973353348811211 0.0025308079001089925 0.01229146118590843
0.06877865777407 0.002716688794819594 0.013596696765355262 0.9968038325403805 -0.032766385611334554 0.0005120585379698195 0.006308267764261187 -0.0004477379251298168 -0.004037877846048395
 0.9968038325403805 -0.032766385611334554 0.002717983654976961 0.013596575645887456 -0.00044759546099272046 -0.004037877556623698 0.0005055396396485813 0.006308972821660665
 0.0005120585379698195 0.006308267764261187 -0.00044759546099272046 -0.004037877556623698 0.0027168204570466536 0.013597599702447007 0.9968038535871117 -0.03276546645184553
 -0.0004477379251298168 -0.004037877846048395 0.0005055396396485813 0.006308972821660665 0.9968038535871117 -0.03276546645184553 0.0027178919396563953 0.01359749790755159
0.07503126302626001 0.002912612793147766 0.014915498427119572 0.9965460646245485 -0.03580957849701791 0.0005822767413384523 0.006886531176170961 -0.0005075385289515252 -0.0044110689335211
 0.9965460646245485 -0.03580957849701791 0.002914153211471548 0.014915357809974722 -0.0005073695402258598 -0.00441106992813251 0.0005745143186674578 0.006887378345373879
 0.0005822767413384523 0.006886531176170961 -0.0005073695402258598 -0.00441106992813251 0.002912769176361687 0.014916481517580127 0.9965460894030335 -0.03580857555655902
 -0.0005075385289515252 -0.0044110689335211 0.0005745143186674578 0.006887378345373879 0.9965460894030335 -0.03580857555655902 0.002914043595864687 0.014916363537324869
0.08128386827845 0.003117755548333102 0.01624698158497272 0.9962760753859835 -0.0388639258930606 0.000657296389838079 0.007465433346813585 -0.0005713849662560371 -0.0047850413752083066
 0.9962760753859835 -0.0388639258930606 0.0031195627829762322 0.016246819766298687 -0.0005711872667608264 -0.00478504394707648 0.000648180800571387 0.00746644003152755
 0.000657296389838079 0.007465433346813585 -0.0005711872667608264 -0.00478504394707648 0.003117938776136885 0.01624804437310853 0.9962761042102424 -0.03886283907576846
 -0.0005713849662560371 -0.0047850413752083066 0.000648180800571387 0.00746644003152755 0.9962761042102424 -0.03886283907576846 0.003119433638667592 0.016247908882185445
0.08753647353064001 0.00333228765297297 0.017591004716582283 0.9959936992250337 -0.041929393919927074 0.0007371657786764212 0.008044926299186975 -0.0006393264290421242 -0.005159743758069452
 0.9959936992250337 -0.041929393919927074 0.0033343829583445425 0.017590819924922212 -0.000639097848602277 -0.005159748217653066 0.0007265871110922609 0.00804611096110473
 0.0007371657786764212 0.008044926299186975 -0.000639097848602277 -0.005159748217653066 0.0033324998479278695 0.017592146713593056 0.9959937324132098 -0.041928223117234965
 -0.0006393264290421242 -0.005159743758069452 0.0007265871110922609 0.00804611096110473 0.9959937324132098 -0.041928223117234965 0.0033342326485864713 0.01759199234798871
0.09378907878283 0.00355637951704421 0.01894743175118778 0.9956987702333663 -0.04500593863808653 0.000821932751149095 0.00862496043043936 -0.0007114115990099541 -0.005535123973729366
 0.9956987702333663 -0.04500593863808653 0.0035587841455118445 0.018947222147084414 -0.0007111499833261651 -0.005535130648704725 0.0008097808306690137 0.008626342601519526
 0.000821932751149095 0.00862496043043936 -0.0007111499833261651 -0.005535130648704725 0.0035566227996024816 0.018948652430651882 0.995698808107208 -0.04500468373298427
 -0.0007114115990099541 -0.005535123973729366 0.0008097808306690137 0.008626342601519526 0.995698808107208 -0.04500468373298427 0.0035586110241381955 0.018948477787767103
0.100041684035 0.003790201365875823 0.020316130474849075 0.9953911222693584 -0.048093507602158275 0.0009116446678477389 0.009205484603737324 -0.0007876886266146191 -0.005911129121032942
 0.9953911222693584 -0.048093507602158275 0.0037929365694858263 0.020315894150401737 -0.0007873918371325217 -0.005911138356274006 0.0008978090647340338 0.009207084898445385
 0.0009116446678477389 0.009205484603737324 -0.0007873918371325217 -0.005911138356274006 0.0037904778541351706 0.020317429277895253 0.9953911651551114 -0.04809216846362038
 -0.0007876886266146191 -0.005911129121032942 0.0008978090647340338 0.009207084898445385 0.9953911651551114 -0.04809216846362038 0.0037927389810574644 0.020317232916434832
0.1059090909091 0.004018619148833159 0.021611554603588653 0.9950907113783383 -0.05100083684137916 0.0010003688968585696 0.009750643818608282 -0.0008631213814572074 -0.0062644905563009065
 0.9950907113783383 -0.05100083684137916 0.004021683891939015 0.021611291408333125 -0.0008627896540790154 -0.0062645025230318695 0.0009848526817138523 0.009752468522824164
 0.0010003688968585696 0.009750643818608282 -0.0008627896540790154 -0.0062645025230318695 0.0040189287210083595 0.021612926176512476 0.9950907592678271 -0.0509994185304337
 -0.0008631213814572074 -0.0062644905563009065 0.0009848526817138523 0.009752468522824164 0.9950907592678271 -0.0509994185304337 0.004021461829452712 0.021612708089154668
0.1062942892872 0.004033923229082232 0.021696971351416988 0.9950705890264973 -0.05119204100001819 0.00100634837650074 0.0097864462172674 -0.000868205108894502 -0.006287705432526865
 0.9950705890264973 -0.05119204100001819 0.004037010261313549 0.021696706329818568 -0.0008678710227384622 -0.006287717590075492 0.0009907184143427678 0.009788286344757122
 0.00100634837650074 0.0097864462172674 -0.0008678710227384622 -0.006287717590075492 0.004034235038342462 0.0216983476823185 0.9950706372547816 -0.05119061748716264
 -0.000868205108894502 -0.006287705432526865 0.0009907184143427678 0.009788286344757122 0.9950706372547816 -0.05119061748716264 0.00403678654067931 0.021698128122278934
0.11254689453939999 0.004287714922494257 0.023089826600383515 0.9947370040958862 -0.054301472536448445 0.0011060901821416849 0.01036779125414105 -0.000953008066275134 -0.006664798221127598
 0.9947370040958862 -0.054301472536448445 0.004291175040040958 0.023089530835399264 -0.000952634576191768 -0.006664813680178009 0.0010885549472121104 0.010369894030354083
 0.0011060901821416849 0.01036779125414105 -0.000952634576191768 -0.006664813680178009 0.004288064165163229 0.023091279828930212 0.9947370580025888 -0.05429996449580022
 -0.000953008066275134 -0.006664798221127598 0.0010885549472121104 0.010369894030354083 0.9947370580025888 -0.05429996449580022 0.004290923512395627 0.02309103555150336
0.11879949979160001 0.004551746026476517 0.024494569489879187 0.9943902010266094 -0.057421730102671514 0.0012109158176330731 0.010949464324418191 -0.0010421439184514708 -0.007042351835836898
 0.9943902010266094 -0.057421730102671514 0.004555600490761833 0.024494240865228303 -0.001041728932747323 -0.007042370992700987 0.0011913641689324664 0.01095185368411081
 0.0012109158176330731 0.010949464324418191 -0.001041728932747323 -0.007042370992700987 0.004552134810920012 0.0244960989476354 0.9943902609524584 -0.057420137371649964
 -0.0010421439184514708 -0.007042351835836898 0.0011913641689324664 0.01095185368411081 0.9943902609524584 -0.057420137371649964 0.004555319471035337 0.02449582839503563
0.1250521050438 0.004826185858690453 0.025911073765193863 0.9940300133815967 -0.06055273631161496 0.0013208704143964508 0.011531408697173158 -0.0011356584595199675 -0.007420309628533406
 0.9940300133815967 -0.06055273631161496 0.00483045593753046 0.025910710094015348 -0.0011351999020336504 -0.0074203328966192155 0.0012991909941728042 0.011534109705822849
 0.0013208704143964508 0.011531408697173158 -0.0011351999020336504 -0.0074203328966192155 0.004826616289189445 0.025912678749003333 0.9940300796729288 -0.0605510587147209
 -0.0011356584595199675 -0.007420309628533406 0.0012991909941728042 0.011534109705822849 0.9940300796729288 -0.0605510587147209 0.004830143730455459 0.02591238032426526
0.131304710296 0.005111203443867031 0.027339213196951068 0.9936562747924826 -0.06369440891486594 0.001435998473038381 0.012113566326468808 -0.0012335968324121984 -0.007798613928073491
 0.9936562747924826 -0.06369440891486594 0.005115910413481592 0.027338812221025403 -0.001233092642532519 -0.007798641737847696 0.0014120797181115807 0.012116605192117307
 0.001435998473038381 0.012113566326468808 -0.001233092642532519 -0.007798641737847696 0.005111677620066519 0.02734089296665616 0.9936563478017945 -0.06369264626575229
 -0.0012335968324121984 -0.007798613928073491 0.0014120797181115807 0.012116605192117307 0.9936563478017945 -0.06369264626575229 0.00511556531311146 0.027340565033357588
0.1375573155481 0.005332843261615995 0.028592354557021873 0.9933429590358178 -0.06666011401167952 0.0015394979319010547 0.012676557976914861 -0.001319186229959942 -0.008157873093711568
 0.9933429590358178 -0.06666011401167952 0.00533800901149723 0.02859192301706673 -0.0013186332933834604 -0.008157905360368914 0.00151328251317083 0.012679924941720787
 0.0015394979319010547 0.012676557976914861 -0.0013186332933834604 -0.008157905360368914 0.005333362728352852 0.02859410859475574 0.9933430390646574 -0.06665826620421351
 -0.001319186229959942 -0.008157873093711568 0.00151328251317083 0.012679924941720787 0.9933430390646574 -0.06665826620421351 0.005337629954588819 0.028593758193259648
0.1438099208003 0.005561951356153775 0.029840270065309545 0.9930192099624044 -0.06961968813234798 0.0016471656263491211 0.013238044961834816 -0.0014082007824532112 -0.008515761280503688
 0.9930192099624044 -0.06961968813234798 0.0055675972504661934 0.029839806351548395 -0.0014075968709148007 -0.008515798416961505 0.0016185515259227955 0.0132417634705279
 0.0016471656263491211 0.013238044961834816 -0.0014075968709148007 -0.008515798416961505 0.005562518105713112 0.029842097620575613 0.993019297361438 -0.06961775498299534
 -0.0014082007824532112 -0.008515761280503688 0.0016185515259227955 0.0132417634705279 0.993019297361438 -0.06961775498299534 0.005567182632444832 0.029841723747056452
0.1500625260525 0.0057984628664422225 0.031082896329040825 0.9926850948842113 -0.07257309925762406 0.0017589732948917348 0.013797995854898642 -0.001500613178412747 -0.008872248117554365
 0.9926850948842113 -0.07257309925762406 0.005804610278345452 0.031082398754990238 -0.0014999560657920294 -0.00887229055309303 0.00172785893429225 0.013802090191510416
 0.0017589732948917348 0.013797995854898642 -0.0014999560657920294 -0.00887229055309303 0.005799078879995469 0.03108479662198035 0.9926851900088495 -0.07257108057480698
 -0.001500613178412747 -0.008872248117554365 0.00172785893429225 0.013802090191510416 0.9926851900088495 -0.07257108057480698 0.005804158491979182 0.031084398219241267
0.15631513130469998 0.00604231265003941 0.03232017214577672 0.9923406812564401 -0.07552031474002194 0.0018748924475090307 0.014356379620796776 -0.0015963958675265758 -0.00922730378910642
