! Created with skrf 1.8.0 (http://scikit-rf.org).
# GHz S RI R 50.0 
!freq ReS11 ImS11 ReS12 ImS12 ReS13 ImS13
! ReS14 ImS14
! ReS21 ImS21 ReS22 ImS22 ReS23 ImS23
! ReS24 ImS24
! ReS31 ImS31 ReS32 ImS32 ReS33 ImS33
! ReS34 ImS34
! ReS41 ImS41 ReS42 ImS42 ReS43 ImS43
! ReS44 ImS44
!
0.0 0.001174089921904 0.0 0.9988259100781 0.0 4.472744222957e-05 0.0 -4.472744274061e-05 5.477531958633456e-21
 0.9988259100781 0.0 0.001174089921895 0.0 -4.472744274027e-05 5.477531958591817e-21 4.472744222993e-05 0.0
 4.472744222957e-05 0.0 -4.472744274027e-05 5.477531958591817e-21 0.001174089916478 0.0 0.9988259100727 0.0
 -4.472744274061e-05 5.477531958633456e-21 4.472744222993e-05 0.0 0.9988259100727 0.0 0.001174089916482 0.0
0.005 0.0012624022736278384 0.0009599060970987685 0.9987143083392396 -0.002460514408252614 6.235793768811319e-05 0.0005000495898642509 -6.060431560485283e-05 -0.0003127575803036334
 0.9987143083392396 -0.002460514408252614 0.0012624046738343925 0.0009599046776544347 -6.060346787773269e-05 -0.0003127568924335929 6.234176002405638e-05 0.0005000556544676658
 6.235793768811319e-05 0.0005000495898642509 -6.060346787773269e-05 -0.0003127568924335929 0.0012624025731039054 0.0009598386458642097 0.9987143080176271 -0.002460581466354477
 -6.060431560485283e-05 -0.0003127575803036334 6.234176002405638e-05 0.0005000556544676658 0.9987143080176271 -0.002460581466354477 0.001262403734955388 0.0009598380163406484
0.006252605252188 0.001285321981073347 0.0012036982806956265 0.9986852004416429 -0.003076282786830749 6.725765041031244e-05 0.0006253163192216087 -6.497598790616252e-05 -0.0003913670818244936
 0.9986852004416429 -0.003076282786830749 0.0012853257334224486 0.0012036965028631977 -6.497466903532866e-05 -0.0003913662325199956 6.723237288359115e-05 0.0006253241987928372
 6.725765041031244e-05 0.0006253163192216087 -6.497466903532866e-05 -0.0003913662325199956 0.00128532251835298 0.0012036139603938242 0.9986852000076246 -0.0030763666134945747
 -6.497598790616252e-05 -0.0003913670818244936 6.723237288359115e-05 0.0006253241987928372 0.9986852000076246 -0.0030763666134945747 0.0012853243343060102 0.0012036131779559049
0.01250521050438 0.0014045675307617599 0.0024330139077817824 0.9985329428714088 -0.006153578199164166 9.463157761001156e-05 0.0012510458287472808 -8.9184548884162e-05 -0.000784791314026321
 0.9985329428714088 -0.006153578199164166 0.0014045825183031115 0.002433010317723625 -8.917935436789644e-05 -0.0007847897284894149 9.453073640880708e-05 0.0012510647520529126
 9.463157761001156e-05 0.0012510458287472808 -8.917935436789644e-05 -0.0007847897284894149 0.0014045702346581514 0.0024328455009365014 0.9985329416899392 -0.00615374560407102
 -8.9184548884162e-05 -0.000784791314026321 9.453073640880708e-05 0.0012510647520529126 0.9985329416899392 -0.00615374560407102 0.001404577479192682 0.002432843990158788
0.01875781575657 0.0015320359469399676 0.003680258997039435 0.9983689847617063 -0.009239427047783607 0.00012690424102971775 0.0018776464853413949 -0.00011741658823573726 -0.0011797265022999534
 0.9983689847617063 -0.009239427047783607 0.0015320696318729102 0.003680253550673794 -0.00011740500807684588 -0.001179724309346509 0.0001266776166689022 0.0018776801044033866
 0.00012690424102971775 0.0018776464853413949 -0.00011740500807684588 -0.001179724309346509 0.0015320424565625488 0.003680006579016046 0.9983689825259427 -0.009239677956042198
 -0.00011741658823573726 -0.0011797265022999534 0.0001266776166689022 0.0018776801044033866 0.9983689825259427 -0.009239677956042198 0.0015320587211214577 0.0036800044134122213
0.02501042100875 0.001667932998826761 0.004943735785082941 0.9981931690377773 -0.012335375229027645 0.00016413147613826773 0.002505178363204697 -0.00014973422597287268 -0.0015760217129386087
 0.9981931690377773 -0.012335375229027645 0.0016679928325765018 0.00494372843261687 -0.00014971378096694334 -0.0015760190598239135 0.0001637287678396761 0.0025052307993829676
 0.00016413147613826773 0.002505178363204697 -0.00014971378096694334 -0.0015760190598239135 0.001667944956183919 0.004943399415864486 0.9981931654379392 -0.012335709597195625
 -0.00014973422597287268 -0.0015760217129386087 0.0001637287678396761 0.0025052307993829676 0.9981931654379392 -0.012335709597195625 0.00166797381622255 0.004943396690784398
0.03126302626094 0.0018124555353876495 0.006222595758106258 0.9980053289426228 -0.015442114569747962 0.0002063698251205073 0.003133643944813961 -0.00018619824048065353 -0.0019735809687726653
 0.9980053289426228 -0.015442114569747962 0.0018125489627651 0.006222586444937519 -0.00018616647681222556 -0.0019735780215395303 0.00020574060263810063 0.0031337197922677927
 0.0002063698251205073 0.003133643944813961 -0.00018616647681222556 -0.0019735780215395303 0.001812474589259984 0.006222175477706364 0.9980053236686459 -0.015442532390544031
 -0.00018619824048065353 -0.0019735809687726653 0.00020574060263810063 0.0031337197922677927 0.9980053236686459 -0.015442532390544031 0.0018125196067599293 0.00622217231133889
0.037515631513130004 0.0019657963070146126 0.007516304744868951 0.9978052929372689 -0.0185600176921182 0.0002536760067839851 0.0037630234743091188 -0.000226868530378959 -0.002372327884534443
 0.9978052929372689 -0.0185600176921182 0.00196593076869944 0.007516293412151984 -0.00022682301673155917 -0.002372324828107373 0.0002527696870740193 0.0037631278055874334
 0.0002536760067839851 0.0037630234743091188 -0.00022682301673155917 -0.002372324828107373 0.001965824111945552 0.007515800599545372 0.9978052856766424 -0.018560518968246117
 -0.000226868530378959 -0.002372327884534443 0.0002527696870740193 0.0037631278055874334 0.9978052856766424 -0.018560518968246117 0.001965888837665837 0.007515797133754338
0.043768236765320004 0.002128145827342079 0.008824480161051423 0.9975928866421556 -0.02168930072211272 0.0003061066744341304 0.004393285701835276 -0.00027180429572856447 -0.0027721949103435652
 0.9975928866421556 -0.02168930072211272 0.0021283287620392833 0.008824466745969347 -0.0002717426216208257 -0.0027721919485711845 0.00030487250852199234 0.00439342407418859
 0.0003061066744341304 0.004393285701835276 -0.0002717426216208257 -0.0027721919485711845 0.002128184046760636 0.008823892190165047 0.9975928770826501 -0.02168988547938857
 -0.00027180429572856447 -0.0027721949103435652 0.00030487250852199234 0.00439342407418859 0.9975928770826501 -0.02168988547938857 0.002128272021602971 0.008823888591199555
0.050020842017509996 0.0022996932545427213 0.01014682372686296 0.9973679337992318 -0.024830090522706395 0.000363718279445385 0.005024392319022419 -0.0003210641153127355 -0.003173118884148118
 0.9973679337992318 -0.024830090522706395 0.0022999321004263974 0.01014680816293942 -0.00032098388986067484 -0.0031731162397996403 0.00036210534499016544 0.005024570781006783
 0.000363718279445385 0.005024392319022419 -0.00032098388986067484 -0.0031731162397996403 0.002299743557242591 0.010146151980313631 0.9973679216246979 -0.02483075879262771
 -0.0003210641153127355 -0.003173118884148118 0.00036210534499016544 0.005024570781006783 0.9973679216246979 -0.02483075879262771 0.002299858314196259 0.010146148439470995
0.055454545454549996 0.002456389222591986 0.011307293886842996 0.9971621157281411 -0.027568932776749357 0.00041803568888208373 0.0055734953938343275 -0.0003674291037233128 -0.003522344961092221
 0.9971621157281411 -0.027568932776749357 0.002456682698793469 0.011307276398800933 -0.0003673308296065914 -0.0035223427882051937 0.0004160521000459791 0.005573713993746128
 0.00041803568888208373 0.0055734953938343275 -0.0003673308296065914 -0.0035223427882051937 0.002456451388373194 0.01130654937633738 0.9971621010232654 -0.027569673660629263
 -0.0003674291037233128 -0.003522344961092221 0.0004160521000459791 0.005573713993746128 0.9971621010232654 -0.027569673660629263 0.0024565922835887532 0.011306546061331241
0.056273447269699996 0.002480626849307861 0.011483088463016027 0.9971302568123851 -0.02798245764844812 0.00042656698089377443 0.005656300133440875 -0.0003747059781320714 -0.003575038845693931
 0.9971302568123851 -0.02798245764844812 0.0024809290460253747 0.011483070680272614 -0.0003746048293585971 -0.00357503676045897 0.00042452417795719717 0.005656525231676443
 0.00042656698089377443 0.005656300133440875 -0.0003746048293585971 -0.00357503676045897 0.0024806909131927005 0.011482332989126877 0.9971302417054126 -0.027983209480164584
 -0.0003747059781320714 -0.003575038845693931 0.00042452417795719717 0.005656525231676443 0.9971302417054126 -0.027983209480164584 0.002480835978377232 0.011482329723435464
0.06252605252188 0.00267113423990952 0.012833060534939655 0.9968796770962479 -0.031146434451699047 0.000494708576952179 0.006288962258143288 -0.0004327872929763829 -0.0039778948361915934
 0.9968796770962479 -0.031146434451699047 0.0026715072295247634 0.012833040460124161 -0.0004326628670761445 -0.003977893570669616 0.0004921846260241676 0.006289241044175757
 0.000494708576952179 0.006288962258143288 -0.0004326628670761445 -0.003977893570669616 0.002671213750751685 0.012832221386524605 0.996879658737 -0.031147269906084223
 -0.0004327872929763829 -0.0039778948361915934 0.0004921846260241676 0.006289241044175757 0.996879658737 -0.031147269906084223 0.002671392645527194 0.012832218639270471
0.06877865777407 0.002871402575371508 0.014196548423962136 0.9966160153152733 -0.03432202586288391 0.000568198450212546 0.006922328818429039 -0.000495364883388215 -0.0043816271817318595
 0.9966160153152733 -0.03432202586288391 0.0028718538041316894 0.014196525980598056 -0.0004952148443936164 -0.004381627015411219 0.0005651418915679163 0.006922668855631584
 0.000568198450212546 0.006922328818429039 -0.0004952148443936164 -0.004381627015411219 0.002871499226889019 0.014195625659145446 0.9966159933805485 -0.03432294501149288
 -0.000495364883388215 -0.0043816271817318595 0.0005651418915679163 0.006922668855631584 0.9966159933805485 -0.03432294501149288 0.0028717154688751374 0.014195623700512517
0.07503126302626001 0.003081618612716087 0.015573376074083312 0.9963390915582134 -0.03750921619545277 0.0006470915191367724 0.007556347399089206 -0.0005624949758996171 -0.004786176037245583
 0.9963390915582134 -0.03750921619545277 0.0030821555322539285 0.015573351182627381 -0.0005623170052849997 -0.004786177268492206 0.0006434507133517571 0.007556756769627448
 0.0006470915191367724 0.007556347399089206 -0.0005623170052849997 -0.004786177268492206 0.0030817341074893044 0.015572369752628752 0.9963390657222494 -0.037510219124233024
 -0.0005624949758996171 -0.004786176037245583 0.0006434507133517571 0.007556756769627448 0.9963390657222494 -0.037510219124233024 0.0030819912123405814 0.015572368880184815
0.08128386827845 0.003301968768816397 0.016963378316998116 0.9960487254794798 -0.04070797367405179 0.0007314421946825693 0.008190963342387449 -0.0006342331821785676 -0.005191481080917821
 0.9960487254794798 -0.04070797367405179 0.003302598837551038 0.01696335089486067 -0.0006340249786429084 -0.005191484026948 0.0007271653241314572 0.00819145065417928
 0.0007314421946825693 0.008190963342387449 -0.0006340249786429084 -0.005191484026948 0.003302104817908601 0.0169622885052855 0.9960486954123572 -0.04070906047821006
 -0.0006342331821785676 -0.005191481080917821 0.0007271653241314572 0.00819145065417928 0.9960486954123572 -0.04070906047821006 0.0033024063005667914 0.01696228904457024
0.08753647353064001 0.003532639141845505 0.018366397719358125 0.9957447364105321 -0.04391825354128992 0.0008213043396769306 0.008826119948340917 -0.000710634477904181 -0.005597481307482184
 0.9957447364105321 -0.04391825354128992 0.0035333698260359174 0.018366367680997833 -0.0007103937571020293 -0.005597486304347893 0.000816339410507067 0.008826694342055406
 0.0008213043396769306 0.008826119948340917 -0.0007103937571020293 -0.005597486304347893 0.003532797465366668 0.018365224487144415 0.9957447017787976 -0.043919424328469
 -0.000710634477904181 -0.005597481307482184 0.000816339410507067 0.008826694342055406 0.9957447017787976 -0.043919424328469 0.0035331468418882067 0.018365226792098885
0.09378907878283 0.003773815517498335 0.019782282315686996 0.9954269434590384 -0.047140000280192954 0.0009167312303286968 0.009461758620754945 -0.0007917531784562515 -0.00600411487708945
 0.9954269434590384 -0.047140000280192954 0.003774654293038495 0.019782249572553652 -0.0007914776729173475 -0.00600412227965148 0.0009110260750728224 0.00946242977677568
 0.0009167312303286968 0.009461758620754945 -0.0007914776729173475 -0.00600412227965148 0.0037739978446607314 0.01978102573803306 0.9954269039250213 -0.04714125516842533
 -0.0007917531784562515 -0.00600411487708945 0.0009110260750728224 0.00946242977677568 0.9954269039250213 -0.04714125516842533 0.003774398633632383 0.019781030191465158
0.100041684035 0.004025683361182015 0.021210883958491977 0.995095165595243 -0.05037314922080636 0.0010177755183478833 0.010097818973885458 -0.0008776429133962895 -0.006411319004828262
 0.995095165595243 -0.05037314922080636 0.004026637714630342 0.021210848419018456 -0.0008773303723873024 -0.006411329186730019 0.001011277798955257 0.010098597119309239
 0.0010177755183478833 0.010097818973885458 -0.0008773303723873024 -0.006411329186730019 0.0040258914310276365 0.021209544114221327 0.9950951208167307 -0.0503744883399234
 -0.0008776429133962895 -0.006411319004828262 0.001011277798955257 0.010098597119309239 0.9950951208167307 -0.0503744883399234 0.004026347154995707 0.021209551128255694
0.1059090909091 0.004271923306688685 0.02256291137780125 0.994770946824814 -0.05341742218036464 0.0011177501479029198 0.010695022374599801 -0.0009626276695670508 -0.006793898977570063
 0.994770946824814 -0.05341742218036464 0.004272992937360896 0.02256287312824541 -0.0009622783424867129 -0.006793912124127407 0.00111046094142259 0.010695910712779482
 0.0011177501479029198 0.010695022374599801 -0.0009622783424867129 -0.006793912124127407 0.00427215712333181 0.02256149347071183 0.9947708968095557 -0.05341884047076782
 -0.0009626276695670508 -0.006793898977570063 0.00111046094142259 0.010695910712779482 0.9947708968095557 -0.05341884047076782 0.00427266760692318 0.022561503288850784
0.1062942892872 0.004288427801480979 0.02265205706357347 0.994749221730385 -0.05361762775294763 0.001124489194469149 0.010734238911189879 -0.0009683565986538475 -0.0068190298795969264
 0.994749221730385 -0.05361762775294763 0.004289505231348308 0.02265201863313437 -0.000968004788053745 -0.006819043233246282 0.0011171464058323409 0.010735134826786353
 0.001124489194469149 0.010734238911189879 -0.000968004788053745 -0.006819043233246282 0.004288663362421415 0.02265063403467786 0.9947491713605205 -0.05361905124512525
 -0.0009683565986538475 -0.0068190298795969264 0.0011171464058323409 0.010735134826786353 0.9947491713605205 -0.05361905124512525 0.004289177549836533 0.02265064405111917
0.11254689453939999 0.004562233605707426 0.024105657655042367 0.9943889307903158 -0.056873356240799165 0.0012369235522216129 0.011370954686255836 -0.0010639464078152727 -0.007227182602177049
 0.9943889307903158 -0.056873356240799165 0.004563441624061078 0.02410561623586421 -0.0010635531101097697 -0.007227199538713237 0.001228683025858698 0.011371979713433606
 0.0012369235522216129 0.011370954686255836 -0.0010635531101097697 -0.007227199538713237 0.004562498416369502 0.0241041515287028 0.9943888744771446 -0.05687486425833111
 -0.0010639464078152727 -0.007227182602177049 0.001228683025858698 0.011371979713433606 0.9943888744771446 -0.05687486425833111 0.004563074602935147 0.024104165019423446
0.11879949979160001 0.004847285150977089 0.025571542618499532 0.994014111785035 -0.06014024873093405 0.0013551291519260998 0.012007900951949504 -0.0011644637423193706 -0.007635711136606424
 0.994014111785035 -0.06014024873093405 0.004848631284557671 0.02557149810951369 -0.0011640267565157403 -0.007635732085871388 0.0013459380601933478 0.012009066999680566
 0.0013551291519260998 0.012007900951949504 -0.0011640267565157403 -0.007635732085871388 0.0048475809798893404 0.02556995348611483 0.9940140491709061 -0.060141841436984415
 -0.0011644637423193706 -0.007635711136606424 0.0013459380601933478 0.012009066999680566 0.9940140491709061 -0.060141841436984415 0.0048482227103633984 0.025569970953379765
0.1250521050438 0.0051437663897346275 0.027049569106068316 0.9936245838750027 -0.06341821350994122 0.0014791557850503487 0.012645010798402006 -0.0012699592007467302 -0.008044548274199509
 0.9936245838750027 -0.06341821350994122 0.005145258181512273 0.027049521402817144 -0.001269476342366379 -0.008044573684707478 0.0014689611454282475 0.012646330350164044
 0.0014791557850503487 0.012645010798402006 -0.001269476342366379 -0.008044573684707478 0.005144095015940846 0.027047897062234184 0.9936245145963404 -0.06341989107953745
 -0.0012699592007467302 -0.008044548274199509 0.0014689611454282475 0.012646330350164044 0.9936245145963404 -0.06341989107953745 0.005144805845830333 0.027047919038967524
0.131304710296 0.005451860812396451 0.02853959406141546 0.9932201664351659 -0.06670715354402253 0.0016090524384836584 0.013282215785431553 -0.001380482547295448 -0.008453625604749545
 0.9932201664351659 -0.06670715354402253 0.005453505822764201 0.028539543055777713 -0.0013799516483692224 -0.008453655943659549 0.001597801118360795 0.01328370190603552
 0.0016090524384836584 0.013282215785431553 -0.0013799516483692224 -0.008453655943659549 0.005452224025628869 0.02853783920455723 0.9932200901226554 -0.06670891616310529
 -0.001380482547295448 -0.008453625604749545 0.001597801118360795 0.01328370190603552 0.9932200901226554 -0.06670891616310529 0.005453007522767407 0.028537866254623786
0.1375573155481 0.005693242614462625 0.029846172934723376 0.9928792065189683 -0.06981161378061805 0.001726279072382376 0.013899009467867922 -0.0014775115706734006 -0.008842435855930066
 0.9928792065189683 -0.06981161378061805 0.005695048639095393 0.02984611847407238 -0.0014769293473506043 -0.008842471048386027 0.0017139475623895073 0.013900657760347062
 0.001726279072382376 0.013899009467867922 -0.0014769293473506043 -0.008842471048386027 0.005693641531045043 0.02984433547547751 0.9928791228557243 -0.06981346155494171
 -0.0014775115706734006 -0.008842435855930066 0.0017139475623895073 0.013900657760347062 0.9928791228557243 -0.06981346155494171 0.005694502752183744 0.02984436777051923
0.1438099208003 0.005942820286921816 0.03114710488227937 0.9925267834981708 -0.07290946860903141 0.001848237365701596 0.014514085271269205 -0.0015784348560255073 -0.009229675046458314
 0.9925267834981708 -0.07290946860903141 0.0059447949425820565 0.031147046804768867 -0.001577798962878034 -0.00922971554247784 0.0018347776875827094 0.014515907427865172
 0.001848237365701596 0.014514085271269205 -0.001577798962878034 -0.00922971554247784 0.005943256589640273 0.031145184946491707 0.9925266921162801 -0.07291140172171083
 -0.0015784348560255073 -0.009229675046458314 0.0018347776875827094 0.014515907427865172 0.9925266921162801 -0.07291140172171083 0.005944199378959696 0.03114522297857502
0.1500625260525 0.006200520876391307 0.03244231830637753 0.9921629729885698 -0.07600067907250757 0.001974894278454824 0.015127406140459756 -0.0016832203088184502 -0.0096153070802031
 0.9921629729885698 -0.07600067907250757 0.006202671797077671 0.032442256438375845 -0.0016825284027388694 -0.009615353347712872 0.0019602586569049934 0.015129414273856388
 0.001974894278454824 0.015127406140459756 -0.0016825284027388694 -0.009615353347712872 0.0062009962503802585 0.03244031602540993 0.9921628735151425 -0.07600269771433434
 -0.0016832203088184502 -0.0096153070802031 0.0019602586569049934 0.015129414273856388 0.9921628735151425 -0.07600269771433434 0.006202024479234751 0.032440360299947804
0.15631513130469998 0.006466271081553513 0.03373174400718751 0.9917878508021919 -0.07908520566121191 0.0021062164861041285 0.01573893550069491 -0.0017918355354326428 -0.009999296531598157
