! Created with skrf 1.8.0 (http://scikit-rf.org).
# GHz S RI R 50.0 
!freq ReS11 ImS11 ReS12 ImS12 ReS13 ImS13
! ReS14 ImS14
! ReS21 ImS21 ReS22 ImS22 ReS23 ImS23
! ReS24 ImS24
! ReS31 ImS31 ReS32 ImS32 ReS33 ImS33
! ReS34 ImS34
! ReS41 ImS41 ReS42 ImS42 ReS43 ImS43
! ReS44 ImS44
!
0.0 0.001795674225891 0.0 0.9982043257741 0.0 6.976045387879e-05 0.0 -6.97604537074e-05 8.543191633983452e-21
 0.9982043257741 0.0 0.00179567422584 0.0 -6.976045370611e-05 8.543191633825473e-21 6.976045387892e-05 0.0
 6.976045387879e-05 0.0 -6.976045370611e-05 8.543191633825473e-21 0.00179567421334 0.0 0.9982043257616 0.0
 -6.97604537074e-05 8.543191633983452e-21 6.976045387892e-05 0.0 0.9982043257616 0.0 0.001795674213355 0.0
0.005 0.0019328655552995127 0.0014667568676385006 0.9980306242489679 -0.0037606727050125176 9.840896484042142e-05 0.0007773430705486098 -9.549499868727386e-05 -0.00048623583645167226
 0.9980306242489679 -0.0037606727050125176 0.0019328552475866743 0.0014667629658193613 -9.549539966317116e-05 -0.0004862362146070169 9.846176036605256e-05 0.0007773228171090082
 9.840896484042142e-05 0.0007773430705486098 -9.549539966317116e-05 -0.0004862362146070169 0.001932865363650615 0.001466824308533774 0.9980306246232719 -0.003760605640501939
 -9.549499868727386e-05 -0.00048623583645167226 9.846176036605256e-05 0.0007773228171090082 0.9980306246232719 -0.003760605640501939 0.0019328561741819618 0.001466829639939879
0.006252605252188 0.001969101900429392 0.0018391872480811033 0.9979844186777254 -0.004701720416811101 0.00010671981288426334 0.0009720357088602078 -0.00010287861469716859 -0.0006084098734124839
 0.9979844186777254 -0.004701720416811101 0.001969085787328785 0.0018391950266290738 -0.00010287923808653298 -0.0006084103410684031 0.00010680229849633492 0.0009720094115529262
 0.00010671981288426334 0.0009720357088602078 -0.00010287923808653298 -0.0006084103410684031 0.0019691015365886277 0.0018392715501980806 0.9979844191992695 -0.004701636585775396
 -0.00010287861469716859 -0.0006084098734124839 0.00010680229849633492 0.0009720094115529262 0.9979844191992695 -0.004701636585775396 0.001969087172512047 0.001839278355796656
0.01250521050438 0.0021613427538990982 0.0037165730366991263 0.9977375066575825 -0.009403949849370503 0.0001550472208276539 0.001944292271690844 -0.00014540400654279394 -0.0012196065387061333
 0.9977375066575825 -0.009403949849370503 0.0021612784072648846 0.0037165901863317296 -0.0001454064563986433 -0.0012196074190163723 0.00015537608937269825 0.0019442289733467906
 0.0001550472208276539 0.001944292271690844 -0.0001454064563986433 -0.0012196074190163723 0.0021613407317044586 0.0037167413705550736 0.9977375081853671 -0.009403782427103553
 -0.00014540400654279394 -0.0012196065387061333 0.00015537608937269825 0.0019442289733467906 0.9977375081853671 -0.009403782427103553 0.002161283385817947 0.003716756414521087
0.01875781575657 0.002372868695969043 0.00562027304748294 0.9974632458667053 -0.014118070990900186 0.00021486326030431213 0.0029173897492593506 -0.00019747838991448943 -0.0018326580445502977
 0.9974632458667053 -0.014118070990900186 0.0023727240916899374 0.0056203013163909354 -0.00019748384356175688 -0.001832659273042872 0.0002156018725443119 0.0029172763708174955
 0.00021486326030431213 0.0029173897492593506 -0.00019748384356175688 -0.001832659273042872 0.002372863699980842 0.00562052528158163 0.997463248880376 -0.014117819990318664
 -0.00019747838991448943 -0.0018326580445502977 0.0002156018725443119 0.0029172763708174955 0.997463248880376 -0.014117819990318664 0.002372734859863602 0.005620550107382339
0.02501042100875 0.0026041344547005226 0.007547552273477968 0.9971612775681566 -0.018846300635859185 0.0002862893930454319 0.003891328522688376 -0.0002592376710769735 -0.0024472429836682815
 0.9971612775681566 -0.018846300635859185 0.0026038776249414463 0.007547593556970518 -0.00025924728855899516 -0.002447244485049469 0.0002876010661999424 0.0038911496858672666
 0.0002862893930454319 0.003891328522688376 -0.00025924728855899516 -0.002447244485049469 0.002604125158173175 0.007547888230840977 0.9971612825564589 -0.018845966026709817
 -0.0002592376710769735 -0.0024472429836682815 0.0002876010661999424 0.0038911496858672666 0.9971612825564589 -0.018845966026709817 0.0026038963799557306 0.007547924485016671
0.03126302626094 0.00285557579024234 0.009496968747298605 0.9968312268161278 -0.02358954594030584 0.0003694467101312741 0.00486601722276889 -0.00033081303842694566 -0.003063122671025284
 0.9968312268161278 -0.02358954594030584 0.0028551748068543895 0.009497025087040508 -0.00033082796544427185 -0.003063124359119539 0.00037149486467798556 0.004865755238034519
 0.0003694467101312741 0.00486601722276889 -0.00033082796544427185 -0.003063124359119539 0.0028555608483726838 0.009497388217365685 0.9968312342734028 -0.02358912763726478
 -0.00033081303842694566 -0.003063122671025284 0.00037149486467798556 0.004865755238034519 0.9968312342734028 -0.02358912763726478 0.0028552037405979998 0.009497437648156493
0.037515631513130004 0.0031276182784128245 0.011467556154528262 0.9964727116503208 -0.028348221754777674 0.0004644547588032661 0.005841327589385559 -0.00041233189380141097 -0.003680086333572011
 0.9964727116503208 -0.028348221754777674 0.003127041241831961 0.01146762973866515 -0.0004123532632510906 -0.0036800881113327583 0.0004674029797989298 0.005840962434791259
 0.0004644547588032661 0.005841327589385559 -0.0004123532632510906 -0.0036800881113327583 0.0031275963270998306 0.011468058884951738 0.9964727220784886 -0.028347719625672466
 -0.00041233189380141097 -0.003680086333572011 0.0004674029797989298 0.005840962434791259 0.9964727220784886 -0.028347719625672466 0.0031270825396337034 0.011468123341894922
0.043768236765320004 0.003420680689541945 0.013458575123054277 0.9960853468858449 -0.03312249927021086 0.0005714309655891724 0.00681711116893806 -0.000503918161096542 -0.004297934458646385
 0.9960853468858449 -0.03312249927021086 0.0034198957201342067 0.013458668286937822 -0.0005039470940408434 -0.004297936218222037 0.0005754430269503583 0.006816620466181762
 0.0005714309655891724 0.00681711116893806 -0.0005039470940408434 -0.004297936218222037 0.0034206503443595954 0.013459160811867007 0.9960853607965559 -0.033121913143907666
 -0.000503918161096542 -0.004297934458646385 0.0005754430269503583 0.006816620466181762 0.9960853607965559 -0.033121913143907666 0.0034199515593628937 0.0134592422458102
0.050020842017509996 0.0037351765275096837 0.015469410407557296 0.9956687460667524 -0.037912408768864835 0.000690490270805068 0.007793206229041135 -0.0006056923722063309 -0.0049164719292093895
 0.9956687460667524 -0.037912408768864835 0.003734151757732108 0.015469525634633852 -0.000605729978470439 -0.004916473552025879 0.0006957301402691767 0.00779256521837009
 0.000690490270805068 0.007793206229041135 -0.000605729978470439 -0.004916473552025879 0.0037351363819670656 0.015470078706255073 0.9956687639824363 -0.037911738432511013
 -0.0006056923722063309 -0.0049164719292093895 0.0006957301402691767 0.00779256521837009 0.9956687639824363 -0.037911738432511013 0.003734224306098613 0.015470179169417966
0.055454545454549996 0.004026207263038833 0.017232558584384158 0.9952826638589324 -0.042087635262292075 0.0008038565663072638 0.008641582302544009 -0.0007025021560619838 -0.005454408854461277
 0.9952826638589324 -0.042087635262292075 0.004024948223835199 0.017232695117786287 -0.0007025481927323445 -0.005454410253839024 0.0008102967454744559 0.008640788693097166
 0.0008038565663072638 0.008641582302544009 -0.0007025481927323445 -0.005454410253839024 0.004026157440419526 0.01723329835018142 0.9952826856889776 -0.042086891543779155
 -0.0007025021560619838 -0.005454408854461277 0.0008102967454744559 0.008640788693097166 0.9952826856889776 -0.042086891543779155 0.004025037043925926 0.01723341709620247
0.056273447269699996 0.004071514795266 0.017499520454938373 0.9952225226516827 -0.042717889999413526 0.0008217448546352986 0.008769441160268307 -0.0007177716551930054 -0.005535504678728588
 0.9952225226516827 -0.042717889999413526 0.0040702183632143904 0.01749966037793088 -0.0007178190339228761 -0.005535506035536625 0.0008283766867827707 0.0087686226750472
 0.0008217448546352986 0.008769441160268307 -0.0007178190339228761 -0.005535506035536625 0.004071463419239425 0.017500270965306243 0.9952225451068016 -0.0427171352015909
 -0.0007177716551930054 -0.005535504678728588 0.0008283766867827707 0.0087686226750472 0.9952225451068016 -0.0427171352015909 0.0040703097759904805 0.017500392611963584
0.06252605252188 0.00443010037706568 0.01954840968346248 0.9947462908208287 -0.04753881984553496 0.000965303910865726 0.009745636364324359 -0.0008402696708316867 -0.006154837867640232
 0.9947462908208287 -0.04753881984553496 0.004428500419956942 0.019548577085850543 -0.0008403279108213823 -0.006154838818614755 0.0009734920320436334 0.009744610805554051
 0.000965303910865726 0.009745636364324359 -0.0008403279108213823 -0.006154838818614755 0.004430036316134854 0.019549241955352566 0.9947463183648735 -0.04753798029905005
 -0.0008402696708316867 -0.006154837867640232 0.0009734920320436334 0.009744610805554051 0.9947463183648735 -0.04753798029905005 0.004428612839019033 0.019549387042427716
0.06877865777407 0.004811334211275736 0.0216156119474158 0.9942396660797257 -0.05237502881820743 0.001121273445268336 0.010721605393830477 -0.000973296521201938 -0.006774274817048993
 0.9942396660797257 -0.05237502881820743 0.00480939885885811 0.02161580976517488 -0.0009733667011389867 -0.006774275211838562 0.0011311823330345157 0.010720340704876081
 0.001121273445268336 0.010721605393830477 -0.0009733667011389867 -0.006774275211838562 0.004811255983786721 0.021616525487117417 0.9942396992769207 -0.05237410419193481
 -0.000973296521201938 -0.006774274817048993 0.0011311823330345157 0.010720340704876081 0.9942396992769207 -0.05237410419193481 0.004809534409414052 0.021616696375312536
0.07503126302626001 0.005215613335732465 0.023700680087296918 0.9937022657407865 -0.057226311472314786 0.0012897560902412036 0.01169715569150661 -0.0011169586398684795 -0.007393616352395984
 0.9937022657407865 -0.057226311472314786 0.0052133107046231295 0.023700911410810332 -0.001117041828605482 -0.007393616030200856 0.0013015503483023313 0.011695617333033594
 0.0012897560902412036 0.01169715569150661 -0.001117041828605482 -0.007393616030200856 0.005215519432593234 0.023701674347660396 0.9937023051731306 -0.05722530140166575
 -0.0011169586398684795 -0.007393616352395984 0.0013015503483023313 0.011695617333033594 0.9937023051731306 -0.05722530140166575 0.005213471493963372 0.023701873502634373
0.08128386827845 0.005643330857360138 0.025803178969327264 0.9931337093335718 -0.06209243334455038 0.001470850928634276 0.012672089101948012 -0.001271358670895887 -0.008012660384198012
 0.9931337093335718 -0.06209243334455038 0.005640629044730654 0.025803447045685414 -0.001271455927637306 -0.008012659173842866 0.0014846952587086338 0.012670240027330753
 0.001470850928634276 0.012672089101948012 -0.001271455927637306 -0.008012659173842866 0.005643219739537946 0.02580425335358482 0.9931337556012856 -0.0620913374282238
 -0.001271358670895887 -0.008012660384198012 0.0014846952587086338 0.012670240027330753 0.9931337556012856 -0.0620913374282238 0.005640817159081576 0.025804483347512994
0.08753647353064001 0.006094875867322085 0.027922680682622276 0.9925336189657704 -0.06697313574520974 0.0016646533240259626 0.013646202241135219 -0.0014365953403452654 -0.008631201641238456
 0.9925336189657704 -0.06697313574520974 0.006091742945420315 0.027922988918020315 -0.0014367077148047132 -0.008631199361224617 0.001680712494744314 0.013644002872287333
 0.0016646533240259626 0.013646202241135219 -0.0014367077148047132 -0.008631199361224617 0.006094745964885173 0.027923834548810103 0.9925336726898741 -0.06697195354134518
 -0.0014365953403452654 -0.008631201641238456 0.001680712494744314 0.013644002872287333 0.9925336726898741 -0.06697195354134518 0.006091960448172932 0.027924098062244076
0.09378907878283 0.00657063332113034 0.030058761136063726 0.9919016196536871 -0.07186813916174982 0.0018712547556887994 0.014619286780285486 -0.0016127633221520424 -0.009249031499638622
 0.9919016196536871 -0.07186813916174982 0.006567037331131818 0.030059113098633 -0.001612891854699981 -0.009249027958215479 0.0018896935690956365 0.01461669498400834
 0.0018712547556887994 0.014619286780285486 -0.001612891854699981 -0.009249027958215479 0.006570483031469702 0.030059993790751586 0.9919016814769871 -0.07186687019509182
 -0.0016127633221520424 -0.009249031499638622 0.0018896935690956365 0.01461669498400834 0.9919016814769871 -0.07186687019509182 0.006567286260227895 0.03006029361464966
0.100041684035 0.007070983891511817 0.032210997548903116 0.9912373396291195 -0.0767771457811027 0.002090742656510902 0.015591129675770187 -0.0017999531004721091 -0.009865937876511724
 0.9912373396291195 -0.0767771457811027 0.007066892837675099 0.032211396971737166 -0.0018000988222155422 -0.009865932871744188 0.0021117259128472323 0.015588100740728642
 0.002090742656510902 0.015591129675770187 -0.0018000988222155422 -0.009865932871744188 0.007070811577928327 0.032212308253372575 0.9912374102185004 -0.07677578953760145
 -0.0017999531004721091 -0.009865937876511724 0.0021117259128472323 0.015588100740728642 0.9912374102185004 -0.07677578953760145 0.007067175203636144 0.03221264729153334
0.1059090909091 0.007563212201008639 0.03424495973728514 0.990584296239966 -0.08139618387807289 0.0023085030680872892 0.016501778145919032 -0.001985711859701748 -0.010443807177420971
 0.990584296239966 -0.08139618387807289 0.007558627444836745 0.03424540724161197 -0.00198587464137843 -0.010443800606756511 0.0023320238638623696 0.016498296021719122
 0.0023085030680872892 0.016501778145919032 -0.00198587464137843 -0.010443800606756511 0.007563017699823463 0.03424634296963154 0.9905843756842405 -0.08139474523469756
 -0.001985711859701748 -0.010443807177420971 0.0023320238638623696 0.016498296021719122 0.9905843756842405 -0.08139474523469756 0.007558942989248627 0.034246721550021716
0.1062942892872 0.0075963038032732045 0.034378966597727836 0.9905404106324149 -0.08169984136795237 0.0023232002539394364 0.01656151335921394 -0.0019982508292025196 -0.010481705174154523
 0.9905404106324149 -0.08169984136795237 0.007591685647452866 0.03437941738219691 -0.001998414762172595 -0.010481698493955343 0.002346892714263044 0.01655799997347989
 0.0023232002539394364 0.01656151335921394 -0.001998414762172595 -0.010481698493955343 0.007596107793157452 0.034380354566384816 0.9905404906799196 -0.08169839729735678
 -0.0019982508292025196 -0.010481705174154523 0.002346892714263044 0.01655799997347989 0.9905404906799196 -0.08169839729735678 0.007592003430411568 0.03438073583810021
0.11254689453939999 0.00814696465277005 0.036562243006569704 0.9898104681934817 -0.08663589671301014 0.00256870641241439 0.01753021590607231 -0.0022077381902767586 -0.011096114256727402
 0.9898104681934817 -0.08663589671301014 0.008141787308337317 0.03656274922599221 -0.0022079213474241566 -0.011096105678941282 0.002595272759963703 0.01752616813540155
 0.00256870641241439 0.01753021590607231 -0.0022079213474241566 -0.011096105678941282 0.008146743236220633 0.03656370740714164 0.9898105584183846 -0.08663436422981483
 -0.0022077381902767586 -0.011096114256727402 0.002595272759963703 0.01752616813540155 0.9898105584183846 -0.08663436422981483 0.008142142455939801 0.03656413405020371
0.11879949979160001 0.008723333216409817 0.03876039845300508 0.989047151904487 -0.09158496877844903 0.0028273354784137503 0.01849701118651443 -0.0024284922502210843 -0.011708942455728689
 0.989047151904487 -0.09158496877844903 0.008717564542915167 0.03876096435647508 -0.002428695635580335 -0.011708931748182716 0.0028569402782212213 0.018492376453232758
 0.0028273354784137503 0.01849701118651443 -0.002428695635580335 -0.011708931748182716 0.008723084644542868 0.038761938406209256 0.9890472530545159 -0.09158334726328146
 -0.0024284922502210843 -0.011708942455728689 0.0028569402782212213 0.018492376453232758 0.9890472530545159 -0.09158334726328146 0.008717958967264159 0.03876241368025972
0.1250521050438 0.009325771250500114 0.040973000729117505 0.9882501056865789 -0.09654670160193189 0.0030991571266651887 0.019461669007840098 -0.0026605853167685173 -0.012319963595155681
 0.9882501056865789 -0.09654670160193189 0.00931937904734294 0.040973630745846736 -0.002660809925525476 -0.012319950515692239 0.003131964783945228 0.019456392070630844
 0.0030991571266651887 0.019461669007840098 -0.002660809925525476 -0.012319950515692239 0.00932549373377828 0.04097461531316276 0.9882502185401532 -0.09654499039847095
 -0.0026605853167685173 -0.012319963595155681 0.003131964783945228 0.019456392070630844 0.9882502185401532 -0.09654499039847095 0.009319814623184102 0.04097514260330762
0.131304710296 0.00995463528385751 0.043199613078344315 0.9874189780516008 -0.10152072703855403 0.003384236208372863 0.020423955250115675 -0.002904084795173938 -0.012928948034818883
 0.9874189780516008 -0.10152072703855403 0.009947587284995814 0.04320031182221696 -0.002904331613644765 -0.012928932331382459 0.0034204109257576 0.020417978184446007
 0.003384236208372863 0.020423955250115675 -0.002904331613644765 -0.012928932331382459 0.009954326990651654 0.0432013013262489 0.9874191034194248 -0.101518925457644
 -0.002904084795173938 -0.012928948034818883 0.0034204109257576 0.020417978184446007 0.9874191034194248 -0.101518925457644 0.00994806584683887 0.04320188414701467
0.1375573155481 0.010474941205857638 0.04515002252590633 0.9866888292983291 -0.10621670134880581 0.0036490144708386492 0.021355698283382324 -0.003125402472416196 -0.013507786978328037
 0.9866888292983291 -0.10621670134880581 0.010467203876574448 0.04515078003068861 -0.0031256731700643197 -0.013507768608326481 0.003688643185972259 0.021349024294378068
 0.0036490144708386492 0.021355698283382324 -0.0031256731700643197 -0.013507768608326481 0.01047460148232131 0.04515178319252342 0.9866889677863777 -0.10621480895098549
 -0.003125402472416196 -0.013507786978328037 0.003688643185972259 0.021349024294378068 0.9866889677863777 -0.10621480895098549 0.010467726435685703 0.04515241139515856
0.1438099208003 0.011013803171363249 0.04708848575757335 0.985932493541224 -0.11089907737055073 0.003924422424582782 0.02228266857786056 -0.003355498672222764 -0.014082210383403109
 0.985932493541224 -0.11089907737055073 0.011005344002609937 0.047089305724314155 -0.003355794345120115 -0.0140821890896188 0.003967655128208722 0.022275244080738377
 0.003924422424582782 0.02228266857786056 -0.003355794345120115 -0.0140821890896188 0.011013430336851173 0.04709031776775072 0.9859326459646633 -0.11089709347599842
 -0.003355498672222764 -0.014082210383403109 0.003967655128208722 0.022275244080738377 0.9859326459646633 -0.11089709347599842 0.01100591218737918 0.04709099402452651
0.1500625260525 0.011571005137266608 0.049014791163461975 0.9851501920005701 -0.11556768813993165 0.004210347618222151 0.023204739553654433 -0.003594263221247158 -0.014652098518085462
 0.9851501920005701 -0.11556768813993165 0.011561791559206263 0.04901567749235182 -0.0035945849651080894 -0.014652074032433524 0.004257333222657935 0.023196508999870188
 0.004210347618222151 0.023204739553654433 -0.0035945849651080894 -0.014652074032433524 0.011570597483717797 0.049016693399284904 0.9851503592023403 -0.11556561204587486
 -0.003594263221247158 -0.014652098518085462 0.004257333222657935 0.023196508999870188 0.9851503592023403 -0.11556561204587486 0.011562406949334856 0.04901742054333379
0.15631513130469998 0.012146329207391149 0.05092873345096885 0.984342147376655 -0.12022236844637059 0.004506676088576434 0.02412178719510488 -0.003841584419809547 -0.015217334522273529
 0.984342147376655 -0.12022236844637059 0.012136328587862965 0.050929690244939804 -0.003841933329967986 -0.01521730656579471 0.004557562408567516 0.024112693095672474
