! Created with skrf 1.8.0 (http://scikit-rf.org).
# GHz S RI R 50.0 
!freq ReS11 ImS11 ReS12 ImS12 ReS13 ImS13
! ReS14 ImS14
! ReS21 ImS21 ReS22 ImS22 ReS23 ImS23
! ReS24 ImS24
! ReS31 ImS31 ReS32 ImS32 ReS33 ImS33
! ReS34 ImS34
! ReS41 ImS41 ReS42 ImS42 ReS43 ImS43
! ReS44 ImS44
!
0.0 0.001682462018228 0.0 0.9983175379817 0.0 6.531744704178e-05 0.0 -6.531744539913e-05 7.999080043652657e-21
 0.9983175379817 0.0 0.001682462018231 0.0 -6.531744539947e-05 7.999080043694296e-21 6.531744704301e-05 0.0
 6.531744704178e-05 0.0 -6.531744539947e-05 7.999080043694296e-21 0.001682462004017 0.0 0.9983175379675 0.0
 -6.531744539913e-05 7.999080043652657e-21 6.531744704301e-05 0.0 0.9983175379675 0.0 0.001682462004006 0.0
0.005 0.0018106682443597315 0.0013724405224865867 0.9981552534949452 -0.003524066677726367 9.231754611122322e-05 0.0007409237190722539 -8.948855462028531e-05 -0.0004612724643029418
 0.9981552534949452 -0.003524066677726367 0.0018106772281090981 0.0013724352085955334 -8.948641097581263e-05 -0.0004612707804352604 9.22743197098969e-05 0.0007409402597269827
 9.231754611122322e-05 0.0007409237190722539 -8.948641097581263e-05 -0.0004612707804352604 0.0018106699029789052 0.0013725067903032722 0.9981552538662192 -0.003523999613524696
 -8.948855462028531e-05 -0.0004612724643029418 9.22743197098969e-05 0.0007409402597269827 0.9981552538662192 -0.003523999613524696 0.0018106763103836478 0.0013725030698079007
0.006252605252188 0.001844423805616252 0.0017209475896258282 0.9981122332919212 -0.004405925614774724 0.00010010706298391379 0.000926494877114487 -9.637785971495157e-05 -0.000577183608056157
 0.9981122332919212 -0.004405925614774724 0.0018444378492610358 0.0017209408326908711 -9.637452433422027e-05 -0.0005771815314534044 0.0001000395270390613 0.0009265163524032417
 0.00010010706298391379 0.000926494877114487 -9.637452433422027e-05 -0.0005771815314534044 0.001844426324448539 0.0017210304097210187 0.9981122337978269 -0.004405841793722204
 -9.637785971495157e-05 -0.000577183608056157 0.0001000395270390613 0.0009265163524032417 0.9981122337978269 -0.004405841793722204 0.0018444363399207633 0.001721025655554105
0.01250521050438 0.002022882568557438 0.0034778783279839315 0.9978831857996995 -0.008812521675986965 0.00014517759485891971 0.0018532211722118394 -0.00013581502700571137 -0.0011570953432408124
 0.9978831857996995 -0.008812521675986965 0.002022938652348469 0.003477863640066343 -0.00013580188642309577 -0.0011570915011592097 0.0001449083116718915 0.0018532728048716639
 0.00014517759485891971 0.0018532211722118394 -0.00013580188642309577 -0.0011570915011592097 0.002022892059722917 0.0034780436459954074 0.9978831872472228 -0.008812354288110743
 -0.00013581502700571137 -0.0011570953432408124 0.0001449083116718915 0.0018532728048716639 0.9978831872472228 -0.008812354288110743 0.0020229320454773305 0.0034780331003550513
0.01875781575657 0.002218255908174807 0.005259679276585384 0.9976300910922611 -0.013230484107176822 0.0002006372701940951 0.0027808002240723496 -0.00018375661097037556 -0.0017388501051989985
 0.9976300910922611 -0.013230484107176822 0.002218381945342937 0.005259655356786938 -0.0001837273126451387 -0.0017388448724175388 0.00020003243985812708 0.0027808925223441958
 0.0002006372701940951 0.0027808002240723496 -0.0001837273126451387 -0.0017388448724175388 0.002218276827164507 0.005259926882079322 0.9976300939248474 -0.013230233256406347
 -0.00018375661097037556 -0.0017388501051989985 0.00020003243985812708 0.0027808925223441958 0.9976300939248474 -0.013230233256406347 0.0022183666655501096 0.005259909457909404
0.02501042100875 0.002430947404374502 0.007063814023173845 0.9973526320398244 -0.017661918524351092 0.00026659574885880814 0.0037092522673283345 -0.00024032543416306512 -0.0023221562543757207
 0.9973526320398244 -0.017661918524351092 0.0024311712598653517 0.0070637794523857106 -0.0002402737036030108 -0.0023221500757395143 0.00026552158322935805 0.003709397503774076
 0.00026659574885880814 0.0037092522673283345 -0.0002402737036030108 -0.0023221500757395143 0.002430984197686692 0.007064143701240477 0.9973526366931024 -0.01766158428191728
 -0.00024032543416306512 -0.0023221562543757207 0.00026552158322935805 0.003709397503774076 0.9973526366931024 -0.01766158428191728 0.0024311437239238867 0.007064118267237668
0.03126302626094 0.0026613438767104985 0.008888959036404642 0.9970504764043998 -0.022107703864063896 0.0003431628586964937 0.004638508972928788 -0.00030564035946625313 -0.002906803079189382
 0.9970504764043998 -0.022107703864063896 0.0026616933815188674 0.008888912278277795 -0.0003055599871262626 -0.0029067964703470904 0.0003414854633449467 0.004638721193155089
 0.0003431628586964937 0.004638508972928788 -0.0003055599871262626 -0.0029067964703470904 0.0026614009929399863 0.008889370550192828 0.9970504833158472 -0.022107286285555347
 -0.00030564035946625313 -0.002906803079189382 0.0003414854633449467 0.004638721193155089 0.9970504833158472 -0.022107286285555347 0.0026616500064622476 0.008889335932158312
0.037515631513130004 0.0029098234110156566 0.010734237512345635 0.9967232851846431 -0.02656825847805351 0.00043044744984375294 0.005568466723593282 -0.00037981717141758473 -0.0034926075408744416
 0.9967232851846431 -0.02656825847805351 0.002910326371191499 0.010734176913159194 -0.00037970200598888863 -0.00349260108846675 0.00042803277571102104 0.005568761762088381
 0.00043044744984375294 0.005568466723593282 -0.00037970200598888863 -0.00349260108846675 0.002909905297080951 0.010734730597137481 0.9967232947894574 -0.026567757608828797
 -0.00037981717141758473 -0.0034926075408744416 0.00042803277571102104 0.005568761762088381 0.9967232947894574 -0.026567757608828797 0.0029102635696633184 0.01073468557860641
0.043768236765320004 0.0031767584320983944 0.012598986247295548 0.9963707160089024 -0.03104377319102927 0.0005285568550258856 0.006499002811409978 -0.0004629688714029263 -0.004079398097613023
 0.9963707160089024 -0.03104377319102927 0.003177442635722656 0.012598910035468662 -0.0004628128158896621 -0.004079392459299018 0.000525270680219098 0.006499398309620949
 0.0005285568550258856 0.006499002811409978 -0.0004628128158896621 -0.004079392459299018 0.003176869536545737 0.012599560606156732 0.996370728742856 -0.031043189069866493
 -0.0004629688714029263 -0.004079398097613023 0.000525270680219098 0.006499398309620949 0.996370728742856 -0.031043189069866493 0.00317735681886212 0.012599503928927011
0.050020842017509996 0.0034625171295908884 0.014482659270896292 0.9959924248855432 -0.03553430759706704 0.0006375965513307737 0.007429982147779667 -0.0005552057770891015 -0.004667008020380758
 0.9959924248855432 -0.03553430759706704 0.0034634103523073626 0.014482565556295353 -0.0005550027862534046 -0.004667003924817634 0.0006333044786239257 0.007430497572911593
 0.0006375965513307737 0.007429982147779667 -0.0005550027862534046 -0.004667003924817634 0.0034626619012227454 0.014483314564566415 0.995992441183922 -0.035533640265564784
 -0.0005552057770891015 -0.004667008020380758 0.0006333044786239257 0.007430497572911593 0.995992441183922 -0.035533640265564784 0.0034632979287927113 0.01448324492906319
0.055454545454549996 0.00372642052424402 0.016134626111799336 0.9956425214602493 -0.03944889850701875 0.0007413124312254094 0.008239279584750066 -0.0006428244053009504 -0.005178195989930507
 0.9956425214602493 -0.03944889850701875 0.003727517942557772 0.016134515558859357 -0.0006425757557450416 -0.005178193881935288 0.0007360369248982971 0.008239916472061872
 0.0007413124312254094 0.008239279584750066 -0.0006425757557450416 -0.005178193881935288 0.0037265981665036275 0.016135351437294873 0.9956425412093264 -0.03944815889323985
 -0.0006428244053009504 -0.005178195989930507 0.0007360369248982971 0.008239916472061872 0.9956425412093264 -0.03944815889323985 0.0037273794781699974 0.016135269453080477
0.056273447269699996 0.0037674641695350985 0.016384780564864632 0.9955880672441935 -0.04003983727375869 0.0007576699196032968 0.008361260549248368 -0.0006566355252139811 -0.005255272138199729
 0.9955880672441935 -0.04003983727375869 0.003768594179872396 0.01638466733773876 -0.0006563796039459358 -0.005255270385003635 0.0007522373836094559 0.00836191721330712
 0.0007576699196032968 0.008361260549248368 -0.0006563796039459358 -0.005255270385003635 0.0037676470568916427 0.016385516420016524 0.9955880875417454 -0.040039086767387384
 -0.0006566355252139811 -0.005255272138199729 0.0007522373836094559 0.00836191721330712 0.9955880875417454 -0.040039086767387384 0.0037684515554191954 0.01638543248526192
0.06252605252188 0.004091961064003705 0.01830491806941055 0.9951572986403339 -0.04456027971350406 0.0008888780447549101 0.009292686564723807 -0.0007673630330294566 -0.005844025048191064
 0.9951572986403339 -0.04456027971350406 0.004093355628354282 0.01830478319923514 -0.0007670482352043343 -0.0058440265078651245 0.0008821703258113227 0.009293507643506838
 0.0008888780447549101 0.009292686564723807 -0.0007670482352043343 -0.0058440265078651245 0.004092186515734391 0.018305734073098306 0.9951573233715924 -0.044559446066423564
 -0.0007673630330294566 -0.005844025048191064 0.0008821703258113227 0.009293507643506838 0.9951573233715924 -0.044559446066423564 0.004093179206899611 0.018305634456695898
0.06877865777407 0.0044363663503498175 0.020242668186290762 0.9946997752732363 -0.04909550976456435 0.0010313195455966641 0.010224102562462898 -0.0008874904294735494 -0.006433100072471108
 0.9946997752732363 -0.04909550976456435 0.0044380532369672635 0.0202425094204334 -0.0008871108571698758 -0.0064331056863543845 0.001023201788016721 0.010225113114383877
 0.0010313195455966641 0.010224102562462898 -0.0008871108571698758 -0.0064331056863543845 0.004436638814786955 0.02024356388675271 0.9946998048728373 -0.049094593008163864
 -0.0008874904294735494 -0.006433100072471108 0.001023201788016721 0.010225113114383877 0.9946998048728373 -0.049094593008163864 0.0044378394210968205 0.02024344716460239
0.07503126302626001 0.004801035656568251 0.02219764596439769 0.9942151543956986 -0.05364536939687544 0.001185090417103533 0.01115534544207847 -0.0010171169726085302 -0.007022328597073736
 0.9942151543956986 -0.05364536939687544 0.0048030426402054325 0.02219746092653501 -0.0010166667756695425 -0.007022339377260759 0.001175427650854477 0.011156572426709407
 0.001185090417103533 0.01115534544207847 -0.0010166667756695425 -0.007022339377260759 0.004801359581308749 0.02219862087005811 0.9942151892982353 -0.053644369559983196
 -0.0010171169726085302 -0.007022328597073736 0.001175427650854477 0.011156572426709407 0.9942151892982353 -0.053644369559983196 0.004802787831226814 0.022198485575862296
0.08128386827845 0.00518632169725173 0.024169478573686256 0.9937030946592228 -0.058209674187108595 0.0013502838833847172 0.012086247107449271 -0.001156338955018914 -0.007611539657432397
 0.9937030946592228 -0.058209674187108595 0.005188676563522015 0.02416926476202024 -0.0011558123307532076 -0.0076115566866900705 0.001338941048946554 0.012087719403594436
 0.0013502838833847172 0.012086247107449271 -0.0011558123307532076 -0.0076115566866900705 0.005186701529001563 0.024170532149981022 0.9937031352995579 -0.05820859129848636
 -0.001156338955018914 -0.007611539657432397 0.001338941048946554 0.012087719403594436 0.9937031352995579 -0.05820859129848636 0.005188377162295391 0.024170376774606987
0.08753647353064001 0.0055925742211999025 0.026157800792327005 0.9931632564132582 -0.06278821779873801 0.0015269902566198057 0.013016634814433607 -0.0013052496025416928 -0.008200559656427466
 0.9931632564132582 -0.06278821779873801 0.005595304770493914 0.02615755557765894 -0.0013046407955520022 -0.008200584088121271 0.0015138322316814831 0.013018383237904647
 0.0015269902566198057 0.013016634814433607 -0.0013046407955520022 -0.008200584088121271 0.005593014404613528 0.026158932460265905 0.9931633032261805 -0.06278705188790497
 -0.0013052496025416928 -0.008200559656427466 0.0015138322316814831 0.013018383237904647 0.9931633032261805 -0.06278705188790497 0.005594957177557994 0.02615875545080295
0.09378907878283 0.006020139927079185 0.02816225179356281 0.9925953019790735 -0.06738077517117508 0.0017152967998564606 0.01394633142969723 -0.0014639389679407654 -0.008789212179312398
 0.9925953019790735 -0.06738077517117508 0.006023273978750293 0.028161972417150006 -0.0014632422701604658 -0.008789245237305765 0.0017001884279981545 0.013948388750540096
 0.0017152967998564606 0.01394633142969723 -0.0014632422701604658 -0.008789245237305765 0.006020644904949612 0.028163460933600417 0.9925953554000067 -0.06737952626372568
 -0.0014639389679407654 -0.008789212179312398 0.0017001884279981545 0.013948388750540096 0.9925953554000067 -0.06737952626372568 0.006022874595106106 0.028163260692340653
0.100041684035 0.006469362355102201 0.03018247279330954 0.9919988959018287 -0.07198710485692296 0.0019152875933696257 0.014875155630272018 -0.0016324938203363282 -0.009377317875850387
 0.9919988959018287 -0.07198710485692296 0.0064729277514567725 0.030182156364482737 -0.0016317035710841632 -0.00937736085440722 0.0018980937145466757 0.01487755658947104
 0.0019152875933696257 0.014875155630272018 -0.0016317035710841632 -0.00937736085440722 0.006469936567162537 0.03018375874037208 0.9919989563659883 -0.07198577297890188
 -0.0016324938203363282 -0.009377317875850387 0.0018980937145466757 0.01487755658947104 0.9919989563659883 -0.07198577297890188 0.006472472978686405 0.03018353362347832
0.1059090909091 0.006910909650827462 0.032092259226350166 0.9914130589401178 -0.07632195454122535 0.00211365642741286 0.01574580012735778 -0.0017997115375312858 -0.009928532953591692
 0.9914130589401178 -0.07632195454122535 0.006914905164698377 0.032091905278980204 -0.0017988283941701687 -0.009928586481285607 0.0020943826195961653 0.015748556921140154
 0.00211365642741286 0.01574580012735778 -0.0017988283941701687 -0.009928586481285607 0.0069115528671318816 0.03209361660374548 0.9914131264103344 -0.0763205448270611
 -0.0017997115375312858 -0.009928532953591692 0.0020943826195961653 0.015748556921140154 0.9914131264103344 -0.0763205448270611 0.006914395144095931 0.0320933666061984
0.1062942892872 0.006940581761470492 0.0322181052944711 0.991373705189679 -0.07660695077148802 0.002127043402348468 0.01580292207284105 -0.0018109975329380626 -0.009964694380858377
 0.991373705189679 -0.07660695077148802 0.006944606371778133 0.03221774878809311 -0.0018101081190722733 -0.009964748644537858 0.0021076288846544207 0.015805703398470795
 0.002127043402348468 0.01580292207284105 -0.0018101081190722733 -0.009964748644537858 0.006941229644501782 0.03221946733891339 0.9913737731331972 -0.07660553594771895
 -0.0018109975329380626 -0.009964694380858377 0.0021076288846544207 0.015805703398470795 0.9913737731331972 -0.07660553594771895 0.006944092613327996 0.03221921565486897
0.11254689453939999 0.007434134979816395 0.0342687897398828 0.9907193995429172 -0.08124004354402643 0.00235064154732275 0.016729441535170465 -0.00199952996763352 -0.010551156270969083
 0.9907193995429172 -0.08124004354402643 0.007438646704152663 0.03426838999354022 -0.0019985358237631025 -0.010551223254493439 0.002328871320164671 0.01673264195798945
 0.00235064154732275 0.016729441535170465 -0.0019985358237631025 -0.010551223254493439 0.007434860966321915 0.03427022712630541 0.9907194754023171 -0.08123854579864627
 -0.00199952996763352 -0.010551156270969083 0.002328871320164671 0.01673264195798945 0.9907194754023171 -0.08123854579864627 0.007438070365338248 0.03426994713416196
0.11879949979160001 0.007950355272214505 0.03633416448524347 0.9900356515768964 -0.08588610155796614 0.002586155775047899 0.017654521039124644 -0.00219816735917719 -0.011136515048218906
 0.9900356515768964 -0.08588610155796614 0.007955382045585338 0.03633371819628903 -0.0021970629679864294 -0.011136596256387693 0.002561894863621411 0.017658181307481657
 0.002586155775047899 0.017654521039124644 -0.0021970629679864294 -0.011136596256387693 0.007951163790253587 0.03633567641205433 0.9900357357891186 -0.08588452091426281
 -0.00219816735917719 -0.011136515048218906 0.002561894863621411 0.017658181307481657 0.9900357357891186 -0.08588452091426281 0.00795473953435791 0.036335366319434174
0.1250521050438 0.008489572171886988 0.038413864981547426 0.9893221370373739 -0.09054483179211355 0.0028336561313282477 0.018577963967714863 -0.002406982197951644 -0.011720579138232393
 0.9893221370373739 -0.09054483179211355 0.008495141967814191 0.038413368703828756 -0.002405762090480342 -0.011720676145749441 0.0028067696918404237 0.018582126861870985
 0.0028336561313282477 0.018577963967714863 -0.002405762090480342 -0.011720676145749441 0.008490467644129298 0.038415450601781094 0.9893222300402255 -0.09054316827102753
 -0.002406982197951644 -0.011720579138232393 0.0028067696918404237 0.018582126861870985 0.9893222300402255 -0.09054316827102753 0.008494429695452456 0.038415108562637544
0.131304710296 0.009052111319711646 0.0405075231391968 0.9885785350147821 -0.09521593049042588 0.003093208834554747 0.019499570170669913 -0.002626043112230069 -0.012303153908636457
 0.9885785350147821 -0.09521593049042588 0.009058252154443225 0.04050697327962081 -0.002624701868250402 -0.012303268359977875 0.0030635621908612102 0.01950428051636983
 0.003093208834554747 0.019499570170669913 -0.002624701868250402 -0.012303268359977875 0.009053098162785671 0.04050918155673057 0.9885786372464733 -0.09521418411369176
 -0.002626043112230069 -0.012303153908636457 0.0030635621908612102 0.01950428051636983 0.9885786372464733 -0.09521418411369176 0.009057466535878687 0.04050880566886956
0.1375573155481 0.009514033189853255 0.04234141077503914 0.9879288466698832 -0.09962557995816132 0.0033336866317993596 0.0203922094221877 -0.0028242638726845917 -0.012857111549471958
 0.9879288466698832 -0.09962557995816132 0.009520773944907286 0.04234081426214549 -0.0028227933204396562 -0.012857243683475785 0.003301210175620224 0.020397462772266676
 0.0033336866317993596 0.0203922094221877 -0.0028227933204396562 -0.012857243683475785 0.009515115048737612 0.04234314136336962 0.9879289585449336 -0.09962375079356534
 -0.0028242638726845917 -0.012857111549471958 0.003301210175620224 0.020397462772266676 0.9879289585449336 -0.09962375079356534 0.009519912215671692 0.04234273980484712
0.1438099208003 0.009992339558176258 0.044164726301033706 0.9872560295030189 -0.10402313632655596 0.0035838580832373832 0.02128067979641669 -0.003030384198633783 -0.013407262161749178
 0.9872560295030189 -0.10402313632655596 0.009999708407399346 0.044164080183845086 -0.0030287784927753867 -0.01340741361040061 0.003548429114587076 0.021286517387613023
 0.0035838580832373832 0.02128067979641669 -0.0030287784927753867 -0.01340741361040061 0.009993520703806127 0.04416652817682651 0.9872561514549879 -0.10402122440588893
 -0.003030384198633783 -0.013407262161749178 0.003548429114587076 0.021286517387613023 0.9872561514549879 -0.10402122440588893 0.009998767137115025 0.04416609968573464
0.1500625260525 0.010486848177464056 0.04597729055926245 0.986560270518585 -0.10840846299374524 0.003843628178097902 0.022164872309292136 -0.0032443119875578967 -0.013953503824367195
 0.986560270518585 -0.10840846299374524 0.01049487333268389 0.045976591731061056 -0.0032425652964910155 -0.013953676285764336 0.003805124906998741 0.02217133686571075
 0.003843628178097902 0.022164872309292136 -0.0032425652964910155 -0.013953676285764336 0.010488132866457849 0.04597916280534804 0.9865604029811172 -0.10840646835002664
 -0.0032443119875578967 -0.013953503824367195 0.003805124906998741 0.02217133686571075 0.9865604029811172 -0.10840646835002664 0.01049384910494559 0.04597870603014016
0.15631513130469998 0.010997375337325465 0.04777892974757048 0.9858417578611042 -0.112781424446236 0.004112900677963043 0.02304468001772397 -0.0034659539092728267 -0.014495736936102463
 0.9858417578611042 -0.112781424446236 0.011006085049856585 0.04777817494321243 -0.003464060415333007 -0.014495932174186345 0.004071202241583936 0.02305181573140084
