! Created with skrf 1.8.0 (http://scikit-rf.org).
# GHz S RI R 50.0 
!freq ReS11 ImS11 ReS12 ImS12 ReS13 ImS13
! ReS14 ImS14
! ReS21 ImS21 ReS22 ImS22 ReS23 ImS23
! ReS24 ImS24
! ReS31 ImS31 ReS32 ImS32 ReS33 ImS33
! ReS34 ImS34
! ReS41 ImS41 ReS42 ImS42 ReS43 ImS43
! ReS44 ImS44
!
0.0 0.00122625794517 0.0 0.9987737420417 0.0 4.679995168887e-05 0.0 -4.679995144453e-05 5.731341073679521e-21
 0.9987737420417 0.0 0.001226257945188 0.0 -4.679995144504e-05 5.731341073741978e-21 4.679995168918e-05 0.0
 4.679995168887e-05 0.0 -4.679995144504e-05 5.731341073741978e-21 0.001226257951762 0.0 0.9987737420482 0.0
 -4.679995144453e-05 5.731341073679521e-21 4.679995168918e-05 0.0 0.9987737420482 0.0 0.001226257951751 0.0
0.005 0.0013186245168694461 0.0010030688432870576 0.9986570153775858 -0.0025696298027729748 6.515722664049001e-05 0.0005197058398821451 -6.340507065180166e-05 -0.0003256215074476863
 0.9986570153775858 -0.0025696298027729748 0.001318606255903578 0.001003079510462303 -6.340551898474755e-05 -0.00032562189650431496 6.528430373126904e-05 0.0005196578392995899
 6.515722664049001e-05 0.0005197058398821451 -6.340551898474755e-05 -0.00032562189650431496 0.0013186237315094044 0.0010030020964981229 0.9986570150471481 -0.0025696968564352433
 -6.340507065180166e-05 -0.0003256215074476863 6.528430373126904e-05 0.0005196578392995899 0.9986570150471481 -0.0025696968564352433 0.001318606385232093 0.0010030121549351794
0.006252605252188 0.001342635459356906 0.0012578153905646015 0.9986265197122918 -0.003212699763059483 7.025794401080133e-05 0.0006498974120428142 -6.799319911938878e-05 -0.00040746142704380306
 0.9986265197122918 -0.003212699763059483 0.0013426069134464653 0.0012578288624263993 -6.799389640800334e-05 -0.0004074619078625894 7.045649717701315e-05 0.0006498350917662079
 7.025794401080133e-05 0.0006498974120428142 -6.799389640800334e-05 -0.0004074619078625894 0.0013426342998583893 0.0012577319564210806 0.9986265192642135 -0.003212783587735336
 -6.799319911938878e-05 -0.00040746142704380306 7.045649717701315e-05 0.0006498350917662079 0.9986265192642135 -0.003212783587735336 0.0013426071845897844 0.0012577446582574161
0.01250521050438 0.0014677877306053316 0.002542324570228784 0.9984667067518658 -0.006426396980226682 9.875089928152606e-05 0.0013002276515342445 -9.348819400121368e-05 -0.0008170393377969159
 0.9984667067518658 -0.006426396980226682 0.0014676737404986419 0.0025423528850166462 -9.349093785470828e-05 -0.0008170402405035734 9.954286739934304e-05 0.001300078357763374
 9.875089928152606e-05 0.0013002276515342445 -9.349093785470828e-05 -0.0008170402405035734 0.0014677836751017092 0.0025421580345795134 0.998466705540782 -0.006426564385842917
 -9.348819400121368e-05 -0.0008170393377969159 9.954286739934304e-05 0.001300078357763374 0.998466705540782 -0.006426564385842917 0.0014676754095103721 0.0025421847110961176
0.01875781575657 0.0016019423022134596 0.0038454935716747793 0.9982941372169497 -0.009648959208690936 0.00013233868480919204 0.0019514608580700839 -0.00012335360422401068 -0.0012281659349893728
 0.9982941372169497 -0.009648959208690936 0.001601686155443612 0.0038455381846283633 -0.000123359717548268 -0.0012281671928792124 0.00013411819401695064 0.0019511959461775326
 0.00013233868480919204 0.0019514608580700839 -0.000123359717548268 -0.0012281671928792124 0.0016019336020613346 0.0038452441439943974 0.998294134915088 -0.009649210126816668
 -0.00012335360422401068 -0.0012281659349893728 0.00013411819401695064 0.0019511959461775326 0.998294134915088 -0.009649210126816668 0.0016016903425574347 0.0038452861277017483
0.02501042100875 0.0017453223255699888 0.0051655430773702065 0.9981086399442094 -0.012881993928197832 0.00017108136797477295 0.002603656418925219 -0.00015765654033209013 -0.0016406811188088312
 0.9981086399442094 -0.012881993928197832 0.001744867421355947 0.005165605503066188 -0.00015766732858771623 -0.0016406826558973315 0.0001742429901174954 0.002603243414965791
 0.00017108136797477295 0.002603656418925219 -0.00015766732858771623 -0.0016406826558973315 0.0017453072349012653 0.00516521098187513 0.9981086362264125 -0.012882328327340932
 -0.00015765654033209013 -0.0016406811188088312 0.0001742429901174954 0.002603243414965791 0.9981086362264125 -0.012882328327340932 0.0017448752582225004 0.00516526964133866
0.03126302626094 0.001898141425326932 0.006501580311207785 0.9979100335406881 -0.01612621661018402 0.0002150394982945873 0.003256814189085593 -0.00019646261192589253 -0.0020544813565740922
 0.9979100335406881 -0.01612621661018402 0.0018974312439316995 0.006501662117882306 -0.0001964793661342856 -0.002054483087452282 0.0002199786300669055 0.0032562167664223086
 0.0002150394982945873 0.003256814189085593 -0.0001964793661342856 -0.002054483087452282 0.001898118197554342 0.006501165792137211 0.9979100280809207 -0.01612663449092375
 -0.00019646261192589253 -0.0020544813565740922 0.0002199786300669055 0.0032562167664223086 0.9979100280809207 -0.01612663449092375 0.001897443871241499 0.006501242525867509
0.037515631513130004 0.002060608789913264 0.007853040511690154 0.9976981315743221 -0.019382009197506885 0.0002642736456464385 0.0039109109717731195 -0.00023983642445692685 -0.0024694832015349807
 0.9976981315743221 -0.019382009197506885 0.002059586872929004 0.007853143317677723 -0.00023986042279583976 -0.0024694850313288354 0.0002713866903795833 0.003910088909018413
 0.0002642736456464385 0.0039109109717731195 -0.00023986042279583976 -0.0024694850313288354 0.002060575677741593 0.007852543841875262 0.9976981240449098 -0.019382510584254695
 -0.00023983642445692685 -0.0024694832015349807 0.0002713866903795833 0.003910088909018413 0.9976981240449098 -0.019382510584254695 0.002059605440937052 0.007852640074502744
0.043768236765320004 0.0022329311536349035 0.009219516978415164 0.9974727446515567 -0.02264959000583812 0.00031884418810967745 0.004565911609549045 -0.0002878417686453549 -0.0028856121930727332
 0.9974727446515567 -0.02264959000583812 0.0022315410885355397 0.009219642449577419 -0.0002878742774245616 -0.002885614017445573 0.0003285286534054551 0.004564820742718391
 0.00031884418810967745 0.004565911609549045 -0.0002878742774245616 -0.002885614017445573 0.002232886407602665 0.00921893846780673 0.9974727347211911 -0.022650174938747398
 -0.0002878417686453549 -0.0028856121930727332 0.0003285286534054551 0.004564820742718391 0.9974727347211911 -0.022650174938747398 0.0022315667558198515 0.00921905564717096
0.050020842017509996 0.0024153137226654996 0.010600690820706964 0.997233681440654 -0.025929083921380863 0.00037881118778391163 0.005221773567272221 -0.0003405417010054026 -0.003302798263425827
 0.997233681440654 -0.025929083921380863 0.002413499129610865 0.010600840668386237 -0.0003405839753122985 -0.0033027999686031425 0.00039146573853698175 0.005220365739438061
 0.00037881118778391163 0.005221773567272221 -0.0003405839753122985 -0.0033027999686031425 0.0024152555938748536 0.010600030814444373 0.9972336687764797 -0.025929752458637313
 -0.0003405417010054026 -0.003302798263425827 0.00039146573853698175 0.005220365739438061 0.9972336687764797 -0.025929752458637313 0.002413533066022884 0.010600170409117166
0.055454545454549996 0.0025821384073398887 0.011812701608523171 0.9970146718286101 -0.02878879066731715 0.0004353532582375052 0.0057924000550933375 -0.0003902005623675574 -0.0036661512975348087
 0.9970146718286101 -0.02878879066731715 0.002579909115962576 0.01181287406398057 -0.00039025233416922046 -0.003666152799418734 0.0004509135870431353 0.005790674529308957
 0.0004353532582375052 0.0057924000550933375 -0.00039025233416922046 -0.003666152799418734 0.002582067227789443 0.01181197108999808 0.9970146565154483 -0.028789531918562924
 -0.0003902005623675574 -0.0036661512975348087 0.0004509135870431353 0.005790674529308957 0.9970146565154483 -0.028789531918562924 0.0025799511962187912 0.011812131371410503
0.056273447269699996 0.0026079606656923358 0.01199629648460519 0.9969807492599978 -0.02922055681985107 0.000444234306576363 0.005878449167690399 -0.00039799857412069835 -0.003720973491804226
 0.9969807492599978 -0.02922055681985107 0.002605665185828607 0.01199647246390868 -0.0003980518583184542 -0.0037209749546014085 0.0004602587916783305 0.005876672177388006
 0.000444234306576363 0.005878449167690399 -0.0003980518583184542 -0.0037209749546014085 0.002607887404520967 0.01199555536684841 0.9969807335252349 -0.02922130903425931
 -0.00039799857412069835 -0.003720973491804226 0.0004602587916783305 0.005876672177388006 0.9969807335252349 -0.02922130903425931 0.0026057085709989616 0.011995718863996195
0.06252605252188 0.0028110753884497608 0.013406102797015219 0.9967137544522029 -0.0325240344686337 0.0005151727389780181 0.0065358868283595375 -0.00046027404457274186 -0.004140070857890882
 0.9967137544522029 -0.0325240344686337 0.0028082426724914933 0.013406306705407779 -0.00046033957259509106 -0.004140071945739318 0.0005349682003556415 0.006533684377304642
 0.0005151727389780181 0.0065358868283595375 -0.00046033957259509106 -0.004140071945739318 0.002810985245797567 0.013405280987363146 0.9967137353069918 -0.03252487045168016
 -0.00046027404457274186 -0.004140070857890882 0.0005349682003556415 0.006533684377304642 0.9967137353069918 -0.03252487045168016 0.0028082966975039076 0.013405469890942146
0.06877865777407 0.0030248606924585843 0.01482990166073501 0.996432502644284 -0.03583951377905123 0.0005916851576703467 0.007194031786136293 -0.0005274290640896911 -0.004560023508770315
 0.996432502644284 -0.03583951377905123 0.003021434389944745 0.014830135336861538 -0.0005275080597280641 -0.004560024079754338 0.0006156538272881526 0.007191343426614178
 0.0005916851576703467 0.007194031786136293 -0.0005275080597280641 -0.004560024079754338 0.003024751919610896 0.014828999620490389 0.9964324797442239 -0.035840433634885385
 -0.0005274290640896911 -0.004560023508770315 0.0006156538272881526 0.007191343426614178 0.9964324797442239 -0.035840433634885385 0.003021500256999285 0.014829215449624544
0.07503126302626001 0.003249518865238312 0.016267500897313582 0.9961367989407841 -0.03916696991170913 0.0006738296633841345 0.00785282656176019 -0.0005995238638286101 -0.004980764287032851
 0.9961367989407841 -0.03916696991170913 0.0032454426142260614 0.01626776622012155 -0.0005996175409232702 -0.004980764189926176 0.0007023749514521147 0.007849587643818486
 0.0006738296633841345 0.00785282656176019 -0.0005996175409232702 -0.004980764189926176 0.0032493897147564963 0.01626651912562529 0.9961367719374655 -0.039167973761559276
 -0.0005995238638286101 -0.004980764287032851 0.0007023749514521147 0.007849587643818486 0.9961367719374655 -0.039167973761559276 0.0032455215375457014 0.016266763413239724
0.08128386827845 0.003485251729358089 0.01771871946104252 0.9958264480783563 -0.042506361012161084 0.0007616637389642097 0.008512211266803382 -0.000676617932653028 -0.005402225417855155
 0.9958264480783563 -0.042506361012161084 0.003480469145999734 0.017719018349074696 -0.000676727495285762 -0.0054022244921451265 0.0007951902148547076 0.008508352885437416
 0.0007616637389642097 0.008512211266803382 -0.000676727495285762 -0.0054022244921451265 0.0034851004552082696 0.01771765849807577 0.9958264166177345 -0.042507448991336516
 -0.000676617932653028 -0.005402225417855155 0.0007951902148547076 0.008508352885437416 0.9958264166177345 -0.042507448991336516 0.0034805623516590673 0.01771793278988754
0.08753647353064001 0.003732260661482269 0.019183384158804488 0.9955012545508412 -0.04585763144200171 0.0008552442062334432 0.00917212381286852 -0.0007587699906280453 -0.005824338295283378
 0.9955012545508412 -0.04585763144200171 0.003726715329511257 0.01918371856983337 -0.000758896633208517 -0.0058243363712157156 0.0008941575742161129 0.009167572755277105
 0.0008552442062334432 0.00917212381286852 -0.000758896633208517 -0.0058243363712157156 0.0037320855201891023 0.019182244585347327 0.9955012182744812 -0.045858803700814195
 -0.0007587699906280453 -0.005824338295283378 0.0008941575742161129 0.009167572755277105 0.9955012182744812 -0.045858803700814195 0.003726824056865099 0.019182550438933306
0.09378907878283 0.003990746594712469 0.02066132727505811 0.995161022721279 -0.04922071410661775 0.0009546271834037642 0.009832500062257818 -0.0008460379606356843 -0.006247033328634862
 0.995161022721279 -0.04922071410661775 0.003984382055445951 0.020661699205906544 -0.0008461828680424851 -0.0062470302272474906 0.0009993342538013425 0.00982717875522738
 0.0009546271834037642 0.009832500062257818 -0.0008461828680424851 -0.0062470302272474906 0.003990545845343738 0.020660109712408135 0.9951609812644107 -0.04922197081071438
 -0.0008460379606356843 -0.006247033328634862 0.0009993342538013425 0.00982717875522738 0.9951609812644107 -0.04922197081071438 0.003984507556645537 0.020660448696625262
0.100041684035 0.00426091000448368 0.022152384847007076 0.9948055569178952 -0.05259553213424006 0.0010598680440298666 0.010493273939876157 -0.0009384789372543781 -0.006670239829249445
 0.9948055569178952 -0.05259553213424006 0.0042536697461988135 0.022152796333618413 -0.0009386432848671789 -0.00667023536241088 0.0011107767004943862 0.010487100397377123
 0.0010598680440298666 0.010493273939876157 -0.0009386432848671789 -0.00667023536241088 0.0042606819091292394 0.022151089957886255 0.9948055099096095 -0.052596873464059585
 -0.0009384789372543781 -0.006670239829249445 0.0011107767004943862 0.010487100397377123 0.9948055099096095 -0.052596873464059585 0.004253813287023817 0.022151463652515885
0.1059090909091 0.004525228407441565 0.023563367780151962 0.9944579605784855 -0.05577303813917672 0.001164001746809605 0.011113641291774196 -0.001029979885496015 -0.007067775413855098
 0.9944579605784855 -0.05577303813917672 0.0045171149268679565 0.02356381827246727 -0.00103016353632458 -0.00706776948644272 0.0012211018242110332 0.011106589474595623
 0.001164001746809605 0.011113641291774196 -0.00103016353632458 -0.00706776948644272 0.004524973073920592 0.023562000969454582 0.9944579080175705 -0.0557744590572634
 -0.001029979885496015 -0.007067775413855098 0.0012211018242110332 0.011106589474595623 0.9944579080175705 -0.0557744590572634 0.004517276559813518 0.02356240868256408
0.1062942892872 0.004542950886155821 0.023656395358238724 0.9944346615244617 -0.05598200013842261 0.0011710213762769336 0.011154377515413039 -0.0010361491540220222 -0.007093885928643373
 0.9944346615244617 -0.05598200013842261 0.004534778333998202 0.02365684847602095 -0.0010363341078527871 -0.007093879899085986 0.0012285405398217697 0.011147265286461826
 0.0011710213762769336 0.011154377515413039 -0.0010363341078527871 -0.007093879899085986 0.004542693711170725 0.02365502384833404 0.994434608587257 -0.055983426287887814
 -0.0010361491540220222 -0.007093885928643373 0.0012285405398217697 0.011147265286461826 0.994434608587257 -0.055983426287887814 0.00453494119444612 0.023655433843986294
0.11254689453939999 0.00483706872468361 0.02517319874288342 0.9940481410638219 -0.05938002517177714 0.0012881409424662191 0.011815741067944016 -0.0011391039495224655 -0.0075178985160681555
 0.9940481410638219 -0.05938002517177714 0.0048279072298512 0.02517369560738891 -0.001139310666224875 -0.0075178907174285195 0.0013526805325532849 0.011807599184725558
 0.0012881409424662191 0.011815741067944016 -0.001139310666224875 -0.0075178907174285195 0.004836780740533646 0.02517175135900669 0.9940480818130608 -0.059381536350491995
 -0.0011391039495224655 -0.0075178985160681555 0.0013526805325532849 0.011807599184725558 0.9940480818130608 -0.059381536350491995 0.004828090704147483 0.025172199257310676
0.11879949979160001 0.005143462457207661 0.02670263560129884 0.9936458002772969 -0.062789507470319 0.001411279639017397 0.012477293138079423 -0.0012473977319686577 -0.00794220319013914
 0.9936458002772969 -0.062789507470319 0.005133255286768723 0.02670317836904333 -0.0012476273589135524 -0.007942193407002184 0.0014832505320948157 0.012468026064511006
 0.001411279639017397 0.012477293138079423 -0.0012476273589135524 -0.007942193407002184 0.005143141939483867 0.026701113132644443 0.9936457343205287 -0.06279110390252754
 -0.0012473977319686577 -0.00794220319013914 0.0014832505320948157 0.012468026064511006 0.9936457343205287 -0.06279110390252754 0.005133460684069943 0.026701600546677282
0.1250521050438 0.005462330432490217 0.028244546582414393 0.9932274442011099 -0.06621034103293155 0.0015404894559874103 0.013138960568084482 -0.0013610839433914998 -0.008366724224578341
 0.9932274442011099 -0.06621034103293155 0.0054510207582752265 0.02824513745214565 -0.0013613376186609497 -0.008366712232508722 0.0016203034416771504 0.013128468148651077
 0.0015404894559874103 0.013138960568084482 -0.0013613376186609497 -0.008366712232508722 0.005461975662532617 0.028242949861089606 0.9932273711383595 -0.06621202295722645
 -0.0013610839433914998 -0.008366724224578341 0.0016203034416771504 0.013128468148651077 0.9932273711383595 -0.06621202295722645 0.005451249403362797 0.02824347841613941
0.131304710296 0.005793870365121368 0.02979877188636846 0.9927928782412387 -0.0696424140829405 0.0016758214371641567 0.01380066853888728 -0.0014802150224512366 -0.008791384538732188
 0.9927928782412387 -0.0696424140829405 0.005781401253096491 0.02979941310051956 -0.0014804938749026963 -0.008791370104318717 0.0017638911720949423 0.013788845948040753
 0.0016758214371641567 0.01380066853888728 -0.0014804938749026963 -0.008791370104318717 0.005793479630523169 0.029797101787784764 0.9927927976633864 -0.06964418175208724
 -0.0014802150224512366 -0.008791384538732188 0.0017638911720949423 0.013788845948040753 0.9927927976633864 -0.06964418175208724 0.005781654486436112 0.029797673122395976
0.1375573155481 0.006055378559060578 0.031161717870645787 0.9924248325297153 -0.0728821111037927 0.0017978215376089166 0.014441127570754652 -0.001585230031401221 -0.0091949716514193
 0.9924248325297153 -0.0728821111037927 0.006041688724596388 0.031162399672180523 -0.0015855358508551636 -0.009194954811128645 0.0018943411832072984 0.014428006861582044
 0.0017978215376089166 0.014441127570754652 -0.0015855358508551636 -0.009194954811128645 0.006054950777368212 0.031159974948543237 0.9924247440968298 -0.07288396467091503
 -0.001585230031401221 -0.0091949716514193 0.0018943411832072984 0.014428006861582044 0.9924247440968298 -0.07288396467091503 0.006041967135752955 0.031160579192644148
0.1438099208003 0.006325837553698672 0.03251860872762682 0.9920443085732277 -0.07611474399335952 0.001924730504659887 0.015079749798966554 -0.0016944596831397363 -0.009596829304058361
 0.9920443085732277 -0.07611474399335952 0.006310869232948921 0.03251933273996247 -0.0016947937042130132 -0.009596809831192394 0.0020300743666156894 0.015065236732087428
 0.001924730504659887 0.015079749798966554 -0.0016947937042130132 -0.009596809831192394 0.0063253711355392385 0.03251679386712807 0.9920442118781202 -0.07611668370784849
 -0.0016944596831397363 -0.009596829304058361 0.0020300743666156894 0.015065236732087428 0.9920442118781202 -0.07611668370784849 0.00631117404960047 0.03251743207484056
0.1500625260525 0.006605166395571439 0.03386936473138534 0.9916513902599015 -0.079340266952642 0.0020565122528131206 0.015716495143745516 -0.0018078679760285556 -0.009996916850014182
 0.9916513902599015 -0.079340266952642 0.006588861693354081 0.03387013269401177 -0.0018082314323978484 -0.009996894508847172 0.0021710529122043313 0.015700492085507785
 0.0020565122528131206 0.015716495143745516 -0.0018082314323978484 -0.009996894508847172 0.006604659764878318 0.03386747885196172 0.991651284887914 -0.07934229307485269
 -0.0018078679760285556 -0.009996916850014182 0.0021710529122043313 0.015700492085507785 0.991651284887914 -0.07934229307485269 0.006589194149809452 0.033868152171582934
0.15631513130469998 0.006893283719184489 0.03521390876267735 0.9912461617255683 -0.08255863370586619 0.0021931303678016495 0.016351324078695637 -0.001925418554914787 -0.010395194408295783
