! Created with skrf 1.8.0 (http://scikit-rf.org).
# GHz S RI R 50.0 
!freq ReS11 ImS11 ReS12 ImS12 ReS13 ImS13
! ReS14 ImS14
! ReS21 ImS21 ReS22 ImS22 ReS23 ImS23
! ReS24 ImS24
! ReS31 ImS31 ReS32 ImS32 ReS33 ImS33
! ReS34 ImS34
! ReS41 ImS41 ReS42 ImS42 ReS43 ImS43
! ReS44 ImS44
!
0.0 0.001600487721962 0.0 0.998399512278 0.0 6.206619100721e-05 0.0 -6.206619035249e-05 7.60091613504472e-21
 0.998399512278 0.0 0.001600487721916 0.0 -6.206619035163e-05 7.600916134939402e-21 6.206619100701e-05 0.0
 6.206619100721e-05 0.0 -6.206619035163e-05 7.600916134939402e-21 0.001600487704087 0.0 0.9983995122602 0.0
 -6.206619035249e-05 7.60091613504472e-21 6.206619100701e-05 0.0 0.9983995122602 0.0 0.001600487704081 0.0
0.005 0.0017222133613143654 0.0013047337839715643 0.9982454663618066 -0.0033526920771972373 8.776369800533327e-05 0.0007104118715389122 -8.503196213778742e-05 -0.00044124759991353527
 0.9982454663618066 -0.0033526920771972373 0.001722225483020448 0.0013047268008141738 -8.503147592283385e-05 -0.00044124730440007847 8.767276319659294e-05 0.0007104462476508367
 8.776369800533327e-05 0.0007104118715389122 -8.503147592283385e-05 -0.00044124730440007847 0.0017222135871112361 0.001304800978968589 0.9982454667257483 -0.003352625012300156
 -8.503196213778742e-05 -0.00044124759991353527 8.767276319659294e-05 0.0007104462476508367 0.9982454667257483 -0.003352625012300156 0.0017222259779441165 0.001304793729057053
0.006252605252188 0.0017541894678535562 0.0016360630158393937 0.9982047334010994 -0.004191678604898059 9.514426843518173e-05 0.0008883425871421701 -9.154453307332274e-05 -0.0005521327657437854
 0.9982047334010994 -0.004191678604898059 0.0017542084162727452 0.001636054217891008 -9.154377586901492e-05 -0.0005521324030790593 9.50021885081904e-05 0.0008883872717341272
 9.514426843518173e-05 0.0008883425871421701 -9.154377586901492e-05 -0.0005521324030790593 0.0017541897497870991 0.0016361470077964845 0.9982047338994993 -0.004191594779250832
 -9.154453307332274e-05 -0.0005521327657437854 9.50021885081904e-05 0.0008883872717341272 0.9982047338994993 -0.004191594779250832 0.0017542091198107768 0.0016361378626516508
0.01250521050438 0.0019228165945732077 0.0033064826944880464 0.9979884522991349 -0.008384125167504045 0.00013767494884895658 0.0017769335499391472 -0.00012864879625234914 -0.0011069312936371931
 0.9979884522991349 -0.008384125167504045 0.001922892252176106 0.003306464427282804 -0.0001286458046132179 -0.0011069306432982332 0.0001371082789721856 0.001777041428991024
 0.00013767494884895658 0.0017769335499391472 -0.0001286458046132179 -0.0011069306432982332 0.0019228171323106148 0.003306650453495131 0.9979884537124156 -0.008383957760000012
 -0.00012864879625234914 -0.0011069312936371931 0.0001371082789721856 0.001777041428991024 0.9979884537124156 -0.008383957760000012 0.0019228944900447542 0.0033066313477733695
0.01875781575657 0.002106749079962375 0.0050007024526479826 0.9977503918713551 -0.012587534765799487 0.00018975773804796723 0.0026663874005345553 -0.00017349638010494086 -0.001663551906856414
 0.9977503918713551 -0.012587534765799487 0.0021069190786447783 0.005000674027659832 -0.00017348969816772823 -0.001663551061673395 0.00018848457156139199 0.002666580654756836
 0.00018975773804796723 0.0026663874005345553 -0.00017348969816772823 -0.001663551061673395 0.00210674984524474 0.005000953893612976 0.9977503946282958 -0.012587283836346748
 -0.00017349638010494086 -0.001663551906856414 0.00018848457156139199 0.002666580654756836 0.9977503946282958 -0.012587283836346748 0.0021069236973563373 0.005000923976092586
0.02501042100875 0.0023063549848433007 0.006716326780306633 0.9974902638026564 -0.016803929461715064 0.0002514938466200976 0.0035567373924048355 -0.00022620049668793668 -0.002221725560161968
 0.9974902638026564 -0.016803929461715064 0.002306656882555528 0.006716287509669828 -0.00022618868263495973 -0.002221724632086254 0.0002492320563955545 0.0035570417658596616
 0.0002514938466200976 0.0035567373924048355 -0.00022618868263495973 -0.002221724632086254 0.0023063559320737094 0.006716661810230722 0.9974902683302799 -0.016803595034153636
 -0.00022620049668793668 -0.002221725560161968 0.0002492320563955545 0.0035570417658596616 0.9974902683302799 -0.016803595034153636 0.0023066647287693304 0.006716620211216997
0.03126302626094 0.002521987119297754 0.008452114775085813 0.9972077655116359 -0.0210341647460924 0.0003229849562982361 0.004447931442686981 -0.00028687092529449705 -0.002781261879889189
 0.9972077655116359 -0.0210341647460924 0.0025224584254223865 0.008452063976396728 -0.0002868525489968085 -0.0027812610002099125 0.000319451942532556 0.004448376267820013
 0.0003229849562982361 0.004447931442686981 -0.0002868525489968085 -0.0027812610002099125 0.002521988187893225 0.008452533295186599 0.9972077722384202 -0.021033746805994062
 -0.00028687092529449705 -0.002781261879889189 0.000319451942532556 0.004448376267820013 0.9972077722384202 -0.021033746805994062 0.0025224703478909883 0.008452479130971921
0.037515631513130004 0.0027539904975628494 0.01020725119810078 0.996902587867381 -0.025278658422791526 0.0004043321375467998 0.005339883663240275 -0.00035561483618982097 -0.003341997638420301
 0.996902587867381 -0.025278658422791526 0.002754668690878456 0.010207188197154337 -0.00035558847807710145 -0.00334199695788308 0.0003992447169452161 0.005340501899436437
 0.0004043321375467998 0.005339883663240275 -0.00035558847807710145 -0.00334199695788308 0.0027539916113785566 0.01020775309378399 0.9969025972240924 -0.02527815692747584
 -0.00035561483618982097 -0.003341997638420301 0.0003992447169452161 0.005340501899436437 0.9969025972240924 -0.02527815692747584 0.002754685539530593 0.01020768546896705
0.043768236765320004 0.00300270521551621 0.011981124628933063 0.9965744183313217 -0.029537612383468928 0.0004956353372359647 0.006232490036073164 -0.00043253708356470917 -0.0039037810872552016
 0.9965744183313217 -0.029537612383468928 0.003003627759537302 0.01198104876179526 -0.0004325013340082413 -0.0039037807761480676 0.0004887096925616156 0.006233318312529639
 0.0004956353372359647 0.006232490036073164 -0.0004325013340082413 -0.0039037807761480676 0.00300270628525852 0.01198170976040182 0.9965744307546124 -0.029537027271366614
 -0.00043253708356470917 -0.0039037810872552016 0.0004887096925616156 0.006233318312529639 0.9965744307546124 -0.029537027271366614 0.0030036503875593406 0.011981627769544282
0.050020842017509996 0.003268467783325493 0.01377323578524108 0.9962229425589391 -0.03381110421627788 0.0005969930723632223 0.007125634886361797 -0.0005177403045472911 -0.004466465496007079
 0.9962229425589391 -0.03381110421627788 0.003269672140200262 0.013773146399657956 -0.0005176937635402631 -0.004466465744241893 0.0005879447342638476 0.0071267135465927604
 0.0005969930723632223 0.007125634886361797 -0.0005176937635402631 -0.004466465744241893 0.003268468702535196 0.013773903993773559 0.9962229584883527 -0.03381043540056014
 -0.0005177403045472911 -0.004466465496007079 0.0005879447342638476 0.0071267135465927604 0.9962229584883527 -0.03381043540056014 0.0032697013994816347 0.01377380672247732
0.055454545454549996 0.0035135276032410645 0.015345109145100155 0.9958983271555031 -0.037536704737021837 0.000693316803338962 0.007902145898480433 -0.0005985877096107556 -0.00495607444768542
 0.9958983271555031 -0.037536704737021837 0.0035150072965997965 0.01534500749173023 -0.0005985306608723342 -0.004956075351527973 0.0006821922505386225 0.007903477832426387
 0.000693316803338962 0.007902145898480433 -0.0005985306608723342 -0.004956075351527973 0.003513528293760061 0.015345849397467397 0.9958983464940053 -0.03753596309931002
 -0.0005985877096107556 -0.00495607444768542 0.0006821922505386225 0.007903477832426387 0.9958983464940053 -0.03753596309931002 0.0035150430112013556 0.015345738097938504
0.056273447269699996 0.0035516117996222604 0.015583152536089 0.9958478453469601 -0.03809913212266679 0.000708502209156436 0.008019194074878272 -0.000611324937333412 -0.005029905976174772
 0.9958478453469601 -0.03809913212266679 0.003553135443124118 0.015583048992538985 -0.0006112662143158463 -0.0050299069933533724 0.0006970460572069212 0.008020567221963686
 0.000708502209156436 0.008019194074878272 -0.0006112662143158463 -0.0050299069933533724 0.0035516124470668605 0.01558390363364873 0.995847865228722 -0.038098379501718405
 -0.000611324937333412 -0.005029905976174772 0.0006970460572069212 0.008020567221963686 0.995847865228722 -0.038098379501718405 0.003553172186412462 0.015583790159200027
0.06252605252188 0.0038524683095276157 0.01741048514788022 0.9954488112690302 -0.04240163960536058 0.0008302577888031398 0.008913036741019474 -0.00071338919370772 -0.005593957759129105
 0.9954488112690302 -0.04240163960536058 0.0038543487378134935 0.017410366820169193 -0.0007133169074907821 -0.005593959774607962 0.0008161080657223757 0.008914752283112936
 0.0008302577888031398 0.008913036741019474 -0.0007133169074907821 -0.005593959774607962 0.0038524685466238837 0.0174113189264093 0.9954488355547423 -0.04240080305351341
 -0.00071338919370772 -0.005593957759129105 0.0008161080657223757 0.008914752283112936 0.9954488355547423 -0.04240080305351341 0.003854393815773475 0.017411188318002504
0.06877865777407 0.004171365984110376 0.019254871556623178 0.9950255251370377 -0.04671853013481918 0.000962352876742228 0.009807026359335905 -0.0008240290082043277 -0.006158475165846749
 0.9950255251370377 -0.04671853013481918 0.004173640732011259 0.019254737832159426 -0.0008239417869907602 -0.00615847842879403 0.0009452232115047212 0.009809136055110034
 0.000962352876742228 0.009807026359335905 -0.0008239417869907602 -0.00615847842879403 0.004171365655216568 0.01925578778164575 0.9950255542851418 -0.046717609508729704
 -0.0008240290082043277 -0.006158475165846749 0.0009452232115047212 0.009809136055110034 0.9950255542851418 -0.046717609508729704 0.004173694993068407 0.019255639100275567
0.07503126302626001 0.0045086311967508785 0.021115968004874246 0.994577672363693 -0.05104967645631879 0.0011048784264607048 0.010701021410884227 -0.0009433379718597633 -0.006723310967332225
 0.994577672363693 -0.05104967645631879 0.004511337848638284 0.021115818284432413 -0.0009432344533208572 -0.00672331574678488 0.0010844818645913171 0.010703580914764772
 0.0011048784264607048 0.010701021410884227 -0.0009432344533208572 -0.00672331574678488 0.004508630128331153 0.021116966419684104 0.9945777068401221 -0.05104867159102889
 -0.0009433379718597633 -0.006723310967332225 0.0010844818645913171 0.010703580914764772 0.9945777068401221 -0.05104867159102889 0.004511402137637766 0.02111679871753879
0.08128386827845 0.004864588034368552 0.022993442839048014 0.9941049392640042 -0.05539492674285229 0.0012579231529309806 0.011594875837466137 -0.001071407255743186 -0.007288315967946882
 0.9941049392640042 -0.05539492674285229 0.004867764236185704 0.022993276536218816 -0.001071286087073984 -0.0072883225528611135 0.0012339721919335956 0.011597944744500422
 0.0012579231529309806 0.011594875837466137 -0.001071286087073984 -0.0072883225528611135 0.004864586034598296 0.022994523159385716 0.9941049795433057 -0.05539383745711301
 -0.001071407255743186 -0.007288315967946882 0.0012339721919335956 0.011597944744500422 0.9941049795433057 -0.05539383745711301 0.004867839394053991 0.022994335478965067
0.08753647353064001 0.00523955826473082 0.024886972205591926 0.9936070133169089 -0.05975410885537162 0.0014215734112809396 0.01248843936562273 -0.001208325527993979 -0.007853338724959155
 0.9936070133169089 -0.05975410885537162 0.005243241736503096 0.024886788745863343 -0.0012081853661018457 -0.007853347424252123 0.0013937800406385768 0.012492081255918365
 0.0014215734112809396 0.01248843936562273 -0.0012081853661018457 -0.007853347424252123 0.005239555122628122 0.024888134124201957 0.9936070598823344 -0.05975293494728537
 -0.001208325527993979 -0.007853338724959155 0.0013937800406385768 0.012492081255918365 0.9936070598823344 -0.05975293494728537 0.005243328598452169 0.02488792549697938
0.09378907878283 0.005633861273873488 0.026796236987129 0.9930835834006779 -0.0641270333698566 0.0015959130795650319 0.013381557745869977 -0.0013541788659688823 -0.008418225359025385
 0.9930835834006779 -0.0641270333698566 0.005638089822502131 0.02679603580643531 -0.00135401837762549 -0.008418236501613632 0.0015639888244349648 0.013385840228514924
 0.0015959130795650319 0.013381557745869977 -0.00135401837762549 -0.008418236501613632 0.005633856758771083 0.026797480171159835 0.9930836367452067 -0.06412577461975029
 -0.0013541788659688823 -0.008418225359025385 0.0015639888244349648 0.013385840228514924 0.9930836367452067 -0.06412577461975029 0.005638189217316104 0.026797249615858863
0.100041684035 0.00604781398172243 0.028720920558499324 0.9925343400099949 -0.06851349579155448 0.0017810234445958463 0.014274072936794864 -0.001509050664537507 -0.008982819426190274
 0.9925343400099949 -0.06851349579155448 0.006052625513390252 0.028720701101416373 -0.0015088685265610608 -0.0089828333610271 0.0017446794125231598 0.01427906769312063
 0.0017810234445958463 0.014274072936794864 -0.0015088685265610608 -0.0089828333610271 0.0060478078426024155 0.028722244650337587 0.9925344006371414 -0.06851215196129094
 -0.001509050664537507 -0.008982819426190274 0.0017446794125231598 0.01427906769312063 0.9925344006371414 -0.06851215196129094 0.006052738262273907 0.02872199117075638
0.1059090909091 0.0064544159361506325 0.03054077383737226 0.9919951821655065 -0.07264184417596867 0.0019645957556008228 0.015110911208057545 -0.0016626554632934748 -0.009512223303243013
 0.9919951821655065 -0.07264184417596867 0.006459809110564886 0.030540536730453982 -0.0016624518151428693 -0.009512240193552604 0.0019238411588870723 0.015116643216042067
 0.0019645957556008228 0.015110911208057545 -0.0016624518151428693 -0.009512240193552604 0.006454408026162922 0.030542173505408932 0.9919952500946512 -0.07264042027418109
 -0.0016626554632934748 -0.009512223303243013 0.0019238411588870723 0.015116643216042067 0.9919952500946512 -0.07264042027418109 0.006459935130063108 0.03054189759224723
0.1062942892872 0.006481730741553389 0.030660707099392948 0.9919589754609662 -0.07291327821973072 0.001976983089244515 0.015165823255070142 -0.0016730215419436948 -0.009546961830405322
 0.9919589754609662 -0.07291327821973072 0.006487163274634386 0.030660468816930856 -0.001672816441407966 -0.009546978926510291 0.0019359300199523644 0.015171606081270349
 0.001976983089244515 0.015165823255070142 -0.001672816441407966 -0.009546978926510291 0.006481722706363408 0.03066211171773425 0.9919590438854112 -0.07291184905197105
 -0.0016730215419436948 -0.009546961830405322 0.0019359300199523644 0.015171606081270349 0.9919590438854112 -0.07291184905197105 0.006487290190015357 0.030661834300174745
0.11254689453939999 0.006935923227404088 0.03261528031619468 0.9913571840864713 -0.07732615061090124 0.0021838677815388596 0.01605664349890203 -0.0018461692435447848 -0.010110490769244196
 0.9913571840864713 -0.07732615061090124 0.006942014905067346 0.03261502266305744 -0.0018459398779735116 -0.010110511415714828 0.002137816099051124 0.01606329434796674
 0.0021838677815388596 0.01605664349890203 -0.0018459398779735116 -0.010110511415714828 0.006935913002511492 0.03261676505448025 0.9913572608352046 -0.07732463583106537
 -0.0018461692435447848 -0.010110490769244196 0.002137816099051124 0.01606329434796674 0.9913572608352046 -0.07732463583106537 0.006942156789862632 0.032616462664669096
0.11879949979160001 0.007410700312131587 0.034584322441593436 0.9907286624260865 -0.08175187177196154 0.002401750364554226 0.016946365056006538 -0.002028568544169348 -0.010673241701894052
 0.9907286624260865 -0.08175187177196154 0.00741748941549383 0.03458404487299776 -0.002028313621763493 -0.010673266307947142 0.0023504102318059853 0.016953968078782956
 0.002401750364554226 0.016946365056006538 -0.002028313621763493 -0.010673266307947142 0.0074106875813082455 0.03458588687051526 0.9907287480385517 -0.08175027108600533
 -0.002028568544169348 -0.010673241701894052 0.0023504102318059853 0.016953968078782956 0.9907287480385517 -0.08175027108600533 0.007417647061635931 0.03458555845012266
0.1250521050438 0.007906367937465499 0.036567513458700504 0.99007310941023 -0.08619019013676954 0.0026307006476658287 0.017834816000138556 -0.0022202911490500675 -0.011235047335408916
 0.99007310941023 -0.08619019013676954 0.007913892898599707 0.03656721542675992 -0.0022200093890302375 -0.011235076330371827 0.0025737820229239454 0.017843459585646315
 0.0026307006476658287 0.017834816000138556 -0.0022200093890302375 -0.011235076330371827 0.007906352361626451 0.036569157123356656 0.990073204439652 -0.08618850323446317
 -0.0022202911490500675 -0.011235047335408916 0.0025737820229239454 0.017843459585646315 0.990073204439652 -0.08618850323446317 0.007914067085747753 0.036568801586082694
0.131304710296 0.008423228978104077 0.03856453047019763 0.9893902265414046 -0.09064084440579759 0.002870785298171485 0.01872182118012481 -0.002421405594353088 -0.011795737625456524
 0.9893902265414046 -0.09064084440579759 0.00843152839311306 0.03856421141976601 -0.002421095727043461 -0.011795771458770468 0.0028079979937800357 0.018731597994947547
 0.002870785298171485 0.01872182118012481 -0.002421095727043461 -0.011795771458770468 0.008423210194225395 0.03856625289437203 0.9893903315553904 -0.09063907095693295
 -0.002421405594353088 -0.011795737625456524 0.0028079979937800357 0.018731597994947547 0.9893903315553904 -0.09063907095693295 0.008431719887887271 0.03856586912143305
0.1375573155481 0.008845144524583317 0.04031381143819831 0.9887962044328032 -0.09484219881628875 0.003092728258214831 0.01958109057605474 -0.0026027201767907723 -0.012328994607422367
 0.9887962044328032 -0.09484219881628875 0.00885426102404491 0.040313476383551185 -0.002602380539530356 -0.012329033342563992 0.003023936174810407 0.019591988698594087
 0.003092728258214831 0.01958109057605474 -0.002602380539530356 -0.012329033342563992 0.00884512323518413 0.040315611765080465 0.9887963198950921 -0.09484033863106082
 -0.0026027201767907723 -0.012328994607422367 0.003023936174810407 0.019591988698594087 0.9887963198950921 -0.09484033863106082 0.008854469710492752 0.04031520517800652
0.1438099208003 0.009281957949883722 0.04205344712686524 0.9881811662617124 -0.09903248683894453 0.0033236435624453657 0.020436642031858684 -0.002791283589534413 -0.012858873092415467
 0.9881811662617124 -0.09903248683894453 0.009291930987928443 0.04205309560307489 -0.002790912857533531 -0.012858917167388049 0.003248584120806786 0.020448746304325683
 0.0033236435624453657 0.020436642031858684 -0.002790912857533531 -0.012858917167388049 0.009281933950355975 0.042055324801454845 0.9881812927391429 -0.09903053959611013
 -0.002791283589534413 -0.012858873092415467 0.003248584120806786 0.020448746304325683 0.9881812927391429 -0.09903053959611013 0.009292157454722911 0.04205489446203855
0.1500625260525 0.009733509229626005 0.04378327975483122 0.9875452763778398 -0.10321159197371409 0.003563448631567568 0.021288379985474892 -0.0029870160993492874 -0.013385283810561706
 0.9875452763778398 -0.10321159197371409 0.009744378442107734 0.043782911209593434 -0.0029866129537765825 -0.0133853336806074 0.0034818608913599076 0.021301778344785714
 0.003563448631567568 0.021288379985474892 -0.0029866129537765825 -0.0133853336806074 0.009733482305058818 0.04378523419931992 0.9875454144493832 -0.1032095573401536
 -0.0029870160993492874 -0.013385283810561706 0.0034818608913599076 0.021301778344785714 0.9875454144493832 -0.1032095573401536 0.009744623254735036 0.04378477906597871
0.15631513130469998 0.010199637125734738 0.04550315627432583 0.9868887000516788 -0.10737939839694807 0.003812059867617109 0.022136210562058233 -0.003189836950640033 -0.013908139443860337
 0.9868887000516788 -0.10737939839694807 0.01021144233487596 0.04550277006119119 -0.0031894000786168004 -0.013908195581353807 0.00372368455255749 0.022150994006760585
