! Created with skrf 1.8.0 (http://scikit-rf.org).
# GHz S RI R 50.0 
!freq ReS11 ImS11 ReS12 ImS12 ReS13 ImS13
! ReS14 ImS14
! ReS21 ImS21 ReS22 ImS22 ReS23 ImS23
! ReS24 ImS24
! ReS31 ImS31 ReS32 ImS32 ReS33 ImS33
! ReS34 ImS34
! ReS41 ImS41 ReS42 ImS42 ReS43 ImS43
! ReS44 ImS44
!
0.0 0.001512035309394 0.0 0.9984879646565 0.0 5.849416320367e-05 0.0 -5.849416369067e-05 7.163469033258034e-21
 0.9984879646565 0.0 0.001512035309423 0.0 -5.849416369139e-05 7.163469033346209e-21 5.849416320135e-05 0.0
 5.849416320367e-05 0.0 -5.849416369139e-05 7.163469033346209e-21 0.001512035326457 0.0 0.9984879646735 0.0
 -5.849416369067e-05 7.163469033258034e-21 5.849416320135e-05 0.0 0.9984879646735 0.0 0.001512035326448 0.0
0.005 0.0016267886801927852 0.0012328168933873405 0.9983427928096678 -0.003167690248110818 8.252052912789755e-05 0.0006697068661386256 -8.001700780696658e-05 -0.0004159754116114588
 0.9983427928096678 -0.003167690248110818 0.0016267868950091394 0.0012328180057604968 -8.001662986758652e-05 -0.00041597519335664196 8.252085771111665e-05 0.0006697065817851973
 8.252052912789755e-05 0.0006697068661386256 -8.001662986758652e-05 -0.00041597519335664196 0.0016267888801371558 0.0012328840951447942 0.998342793169719 -0.0031676231960437555
 -8.001700780696658e-05 -0.0004159754116114588 8.252085771111665e-05 0.0006697065817851973 0.998342793169719 -0.0031676231960437555 0.0016267874192805803 0.0012328849154669386
0.006252605252188 0.0016568605539750085 0.0015458937710003582 0.9983045132700332 -0.0039603933589161845 8.936664243381899e-05 0.0008374482624699395 -8.60850809532613e-05 -0.0005205143436273658
 0.9983045132700332 -0.0039603933589161845 0.001656857763143516 0.0015458952297467863 -8.608449225672107e-05 -0.0005205140760307921 8.936715398411748e-05 0.0008374479187242998
 8.936664243381899e-05 0.0008374482624699395 -8.608449225672107e-05 -0.0005205140760307921 0.0016568607804782404 0.0015459777824232727 0.9983045137472341 -0.0039603095441597055
 -8.60850809532613e-05 -0.0005205143436273658 8.936715398411748e-05 0.0008374479187242998 0.9983045137472341 -0.0039603095441597055 0.0016568584976873483 0.0015459788632362743
0.01250521050438 0.0018150228963411754 0.003124362686728856 0.9981018701680536 -0.007921638360677599 0.00012853207327013025 0.0016751933258572784 -0.00012046829271269946 -0.0010435924449831023
 0.9981018701680536 -0.007921638360677599 0.001815011746864645 0.0031243663060578695 -0.00012046596566008914 -0.001043591967868094 0.00012853405668771076 0.0016751927456786823
 0.00012853207327013025 0.0016751933258572784 -0.00012046596566008914 -0.001043591967868094 0.0018150232403108273 0.0031245305662353884 0.998101871518985 -0.007921470993358885
 -0.00012046829271269946 -0.0010435924449831023 0.00012853405668771076 0.0016751927456786823 0.998101871518985 -0.007921470993358885 0.0018150141351250047 0.0031245332952368745
0.01875781575657 0.001986863236930908 0.004725449774507055 0.997879786665013 -0.011893385322801119 0.00017608055933719002 0.002513828478404817 -0.0001617493546842168 -0.0015684499702548994
 0.997879786665013 -0.011893385322801119 0.0019868381712258043 0.004725456321447561 -0.00016174415542370994 -0.0015684493552389545 0.00017608488374216326 0.0025138277564879154
 0.00017608055933719002 0.002513828478404817 -0.00016174415542370994 -0.0015684493552389545 0.00198686357216007 0.0047257015674249305 0.9978797892726885 -0.011893134536619235
 -0.0001617493546842168 -0.0015684499702548994 0.00017608488374216326 0.0025138277564879154 0.9978797892726885 -0.011893134536619235 0.00198684313132531 0.004725706559023585
0.02501042100875 0.0021727126445629423 0.006346909334101317 0.9976380043862118 -0.015877563177999814 0.00023210343216686335 0.0033533993157068977 -0.0002100303777169342 -0.0020948446203732313
 0.9976380043862118 -0.015877563177999814 0.002172668111437217 0.006346919642192506 -0.00021002118274632403 -0.002094843953586752 0.00023211089220690056 0.003353398543118951
 0.00023210343216686335 0.0033533993157068977 -0.00021002118274632403 -0.002094843953586752 0.0021727128446357305 0.006347245151995974 0.997638008636114 -0.015877229100613535
 -0.0002100303777169342 -0.0020948446203732313 0.00023211089220690056 0.003353398543118951 0.997638008636114 -0.015877229100613535 0.002172676577032982 0.00634725306861912
0.03126302626094 0.002372888469951444 0.007987587166958831 0.9973762516171273 -0.019874999213908884 0.00029669254406403106 0.004193871301991167 -0.00026541058605914294 -0.0026226085911432227
 0.9973762516171273 -0.019874999213908884 0.0023728189238392526 0.007987602137202498 -0.00026539628049686986 -0.002622607973389751 0.0002967038665037813 0.004193870568308456
 0.00029669254406403106 0.004193871301991167 -0.00026539628049686986 -0.002622607973389751 0.0023728884018241604 0.007988007194581523 0.9973762578892709 -0.019874581960023428
 -0.00026541058605914294 -0.0026226085911432227 0.0002967038665037813 0.004193870568308456 0.9973762578892709 -0.019874581960023428 0.0023728318371646216 0.00798801874742112
0.037515631513130004 0.002587701215200871 0.009646731846255521 0.9970942503857144 -0.02388610774268982 0.00036993936435454394 0.005035178358094299 -0.0003279870723692035 -0.0031515999887837542
 0.9970942503857144 -0.02388610774268982 0.0025876011161272464 0.00964675244796021 -0.00032796654900635883 -0.0031515995356568034 0.00036995521193860614 0.005035177752663684
 0.00036993936435454394 0.005035178358094299 -0.00032796654900635883 -0.0031515995356568034 0.0025877007410358603 0.009647236316185833 0.9970942590555568 -0.023885607439623452
 -0.0003279870723692035 -0.0031515999887837542 0.00036995521193860614 0.005035177752663684 0.9970942590555568 -0.023885607439623452 0.0025876194302432193 0.00964725226549634
0.043768236765320004 0.0028174571857521535 0.011323785108230672 0.9967917193290179 -0.027911099640606507 0.0004519345577541893 0.005877237638479869 -0.0003978550684614307 -0.003681688054004
 0.9967917193290179 -0.027911099640606507 0.0028173210000156422 0.0113238123797597 -0.00039782722742679095 -0.0036816878959474 0.00045195553209216084 0.005877237251497575
 0.0004519345577541893 0.005877237638479869 -0.00039782722742679095 -0.0036816878959474 0.00281745616570366 0.011324374303344603 0.9967917307682892 -0.027910516425850882
 -0.0003978550684614307 -0.003681688054004 0.00045195553209216084 0.005877237251497575 0.9967917307682892 -0.027910516425850882 0.0028173456803290906 0.011324395459047404
0.050020842017509996 0.003062459728127359 0.013018295230356408 0.996468375147122 -0.03195006889898026 0.0005427677302024877 0.00671995563538816 -0.00047510804711664134 -0.004212747060104933
 0.996468375147122 -0.03195006889898026 0.0030622819285295085 0.013018330279884596 -0.0004750717955850505 -0.004212747342496556 0.0005427943735809743 0.006719955558841193
 0.0005427677302024877 0.00671995563538816 -0.0004750717955850505 -0.004212747342496556 0.003062458019439316 0.013018969473345616 0.9964683897218568 -0.03194940293084906
 -0.00047510804711664134 -0.004212747060104933 0.0005427943735809743 0.006719955558841193 0.9964683897218568 -0.03194940293084906 0.0030623139518622484 0.013018996695254012
0.055454545454549996 0.003287990279841382 0.014504750732043726 0.996170255599866 -0.035471423482476526 0.0006289506942936715 0.007452759646819371 -0.0005483120265052171 -0.00467494587652833
 0.996170255599866 -0.035471423482476526 0.003287771833680222 0.014504793495578068 -0.000548267583910461 -0.004674946671382077 0.0006289826605779134 0.00745275991675163
 0.0006289506942936715 0.007452759646819371 -0.000548267583910461 -0.004674946671382077 0.0032879878563221677 0.014505499188894596 0.9961702731927539 -0.0354706857322595
 -0.0005483120265052171 -0.00467494587652833 0.0006289826605779134 0.00745275991675163 0.9961702731927539 -0.0354706857322595 0.0032878110416605035 0.01450553241993815
0.056273447269699996 0.003323009859495237 0.014729874508759802 0.9961239334531424 -0.03600303507693679 0.0006425272505562888 0.007563231169672708 -0.0005598377450585101 -0.0047446533269973005
 0.9961239334531424 -0.03600303507693679 0.00332278492636405 0.014729918514943666 -0.0005597919971443112 -0.0047446542101991515 0.0006425600487083093 0.007563231498148681
 0.0006425272505562888 0.007563231169672708 -0.0005597919971443112 -0.0047446542101991515 0.003323007318705397 0.014730634177764018 0.9961239515243233 -0.03600228651902727
 -0.0005598377450585101 -0.0047446533269973005 0.0006425600487083093 0.007563231498148681 0.9961239515243233 -0.03600228651902727 0.003322825282615566 0.01473066837607664
0.06252605252188 0.0035994066102914553 0.016458175897085852 0.9957581093396833 -0.04006996659532042 0.0007513001080452148 0.008406957043266316 -0.0006521341496635493 -0.00527728357678801
 0.9957581093396833 -0.04006996659532042 0.0035991290323635658 0.01645823010967578 -0.0006520778263718604 -0.005277285236208822 0.0007513394913426223 0.008406957874788313
 0.0007513001080452148 0.008406957043266316 -0.0006520778263718604 -0.005277285236208822 0.003599403093808705 0.0164590214120251 0.9957581312623125 -0.04006913563017518
 -0.0006521341496635493 -0.00527728357678801 0.0007513394913426223 0.008406957874788313 0.9957581312623125 -0.04006913563017518 0.003599178724751268 0.016459063547490636
0.06877865777407 0.003891947202758364 0.0182028790581423 0.9953706177843948 -0.04415079462106529 0.0008691717909885446 0.009251021019402799 -0.0007520854614591863 -0.005810513965435206
 0.9953706177843948 -0.04415079462106529 0.003891611477949276 0.018202944798658558 -0.0007520174907521965 -0.005810516591580787 0.0008692181363211389 0.009251022456153776
 0.0008691717909885446 0.009251021019402799 -0.0007520174907521965 -0.005810516591580787 0.0038919425678744816 0.018203810884311642 0.9953706439071371 -0.04414988144665637
 -0.0007520854614591863 -0.005810513965435206 0.0008692181363211389 0.009251022456153776 0.9953706439071371 -0.04414988144665637 0.0038916715232065807 0.018203861968612917
0.07503126302626001 0.004200927134607812 0.01996368154083975 0.9949611739651014 -0.04824542183030298 0.0009962261764877478 0.01009530645244349 -0.0008597780446069883 -0.006344219468733309
 0.9949611739651014 -0.04824542183030298 0.004200527770737543 0.019963760203176105 -0.0008596973613532679 -0.006344223267259883 0.0009962798087763665 0.010095308601527993
 0.0009962261764877478 0.01009530645244349 -0.0008596973613532679 -0.006344223267259883 0.004200921240283983 0.01996470018916299 0.9949612046295344 -0.048244426659746396
 -0.0008597780446069883 -0.006344219468733309 0.0009962798087763665 0.010095308601527993 0.9949612046295344 -0.048244426659746396 0.004200599200268167 0.019964761285207782
0.08128386827845 0.004526640204835665 0.02174029289074994 0.994529493520177 -0.052353728242334543 0.0011325454284027059 0.01093969270984513 -0.0009752963670820351 -0.006878273480522361
 0.994529493520177 -0.052353728242334543 0.004526171721075833 0.021740385941740926 -0.0009752019132713538 -0.006878278672275624 0.001132606622221104 0.010939695683950947
 0.0011325454284027059 0.01093969270984513 -0.0009752019132713538 -0.006878278672275624 0.004526632913060196 0.021741398917458743 0.9945295290605065 -0.052352651304223716
 -0.0009752963670820351 -0.006878273480522361 0.001132606622221104 0.010939695683950947 0.9945295290605065 -0.052352651304223716 0.004526255580906078 0.02174147113962321
0.08753647353064001 0.004869378498062791 0.023532430595400142 0.9940752927707699 -0.05647557522348741 0.001278209899872296 0.011784055465843872 -0.001098722935187161 -0.007412547543568408
 0.9940752927707699 -0.05647557522348741 0.004868835425898182 0.023532539575335982 -0.0010986136599934135 -0.00741255436462568 0.0012782788808977418 0.011784059383925108
 0.001278209899872296 0.011784055465843872 -0.0010986136599934135 -0.00741255436462568 0.004869369674794139 0.023533624600577754 0.9940753335132752 -0.05647441676319811
 -0.001098722935187161 -0.007412547543568408 0.0012782788808977418 0.011784059383925108 0.9940753335132752 -0.05647441676319811 0.004868932777477818 0.02353370911494085
0.09378907878283 0.005229432342832069 0.025339817175660414 0.9935982889204057 -0.060610808349806054 0.0014332980385386757 0.012628266918936773 -0.0012301382237983813 -0.007946911161310879
 0.9935982889204057 -0.060610808349806054 0.0052288092267474325 0.025339943698917396 -0.0012300130836821938 -0.00794691986302744 0.0014333749850729345 0.012628271906815227
 0.0014332980385386757 0.012628266918936773 -0.0012300130836821938 -0.00794691986302744 0.005229421858654374 0.025341099804788346 0.9935983351827234 -0.06060956862797827
 -0.0012301382237983813 -0.007946911161310879 0.0014333749850729345 0.012628271906815227 0.9935983351827234 -0.06060956862797827 0.005228921147432205 0.0253411978293812
0.100041684035 0.005607090249290039 0.027162178062024398 0.9930982002378324 -0.0647592594903974 0.0015978862942075452 0.013472195959168006 -0.0013696206029605524 -0.008481231664526676
 0.9930982002378324 -0.0647592594903974 0.005606381648376993 0.027162323817443088 -0.0013694785618748615 -0.008481242513553295 0.0015979713386443325 0.013472202150179684
 0.0015978862942075452 0.013472195959168006 -0.0013694785618748615 -0.008481242513553295 0.005607077980905556 0.027163550005689346 0.9930982523285685 -0.06475793878290378
 -0.0013696206029605524 -0.008481231664526676 0.0015979713386443325 0.013472202150179684 0.9930982523285685 -0.06475793878290378 0.005606509231987905 0.02716366281069293
0.1059090909091 0.005977748179880642 0.02888564600650447 0.9926076747710805 -0.06866400209445044 0.001761041434935289 0.014263757418940244 -0.0015079148499616405 -0.008982475408404288
 0.9926076747710805 -0.06866400209445044 0.005976954425815147 0.028885811412125293 -0.0015077560136345781 -0.00898248852862586 0.0017611341591676534 0.01426376486742489
 0.001761041434935289 0.014263757418940244 -0.0015077560136345781 -0.00898248852862586 0.005977734131290022 0.02888710242728995 0.9926077326031604 -0.06866260565833249
 -0.0015079148499616405 -0.008982475408404288 0.0017611341591676534 0.01426376486742489 0.9926077326031604 -0.06866260565833249 0.005977097717279658 0.028887230304029253
0.1062942892872 0.0060026388327323295 0.028999239995054216 0.9925747462280653 -0.06892074837158989 0.0017720490279331165 0.014315708295523226 -0.0015172462620384746 -0.009015374122786036
 0.9925747462280653 -0.06892074837158989 0.0060018393215338275 0.028999406746550445 -0.0015170862915553126 -0.009015387401106247 0.0017721422582537218 0.014315715831089426
 0.0017720490279331165 0.014315708295523226 -0.0015170862915553126 -0.009015387401106247 0.0060026246638902395 0.029000701986226004 0.9925748044462107 -0.06891934697225066
 -0.0015172462620384746 -0.009015374122786036 0.0017721422582537218 0.014315715831089426 0.9925748044462107 -0.06891934697225066 0.006001983678969537 0.02900083089419544
0.11254689453939999 0.006416362726420015 0.030850729804342572 0.9920276477960939 -0.07309508376872181 0.001955858421831946 0.015158666563757904 -0.0016730891321139277 -0.009549201280575258
 0.9920276477960939 -0.07309508376872181 0.006415466896054289 0.030850919391275985 -0.0016729102116108544 -0.009549217285526155 0.0019559598831169756 0.015158675593911104
 0.001955858421831946 0.015158666563757904 -0.0016729102116108544 -0.009549217285526155 0.006416346548334174 0.03085228262079984 0.9920277124300763 -0.07309360198656771
 -0.0016730891321139277 -0.009549201280575258 0.0019559598831169756 0.015158675593911104 0.9920277124300763 -0.07309360198656771 0.006415629155222613 0.03085242900683887
0.11879949979160001 0.006848544483950118 0.032716373461814136 0.9914566274036375 -0.07728206442912347 0.0021493843902328745 0.01600093041593855 -0.0018372208063078333 -0.010082573516674855
 0.9914566274036375 -0.07728206442912347 0.006847546943900732 0.03271658779940789 -0.0018370219232204798 -0.010082592560951722 0.002149494086051005 0.01600094109988122
 0.0021493843902328745 0.01600093041593855 -0.0018370219232204798 -0.010082592560951722 0.006848526197716245 0.032718017924029195 0.9914566987313712 -0.07728050259022547
 -0.0018372208063078333 -0.010082573516674855 0.002149494086051005 0.01600094109988122 0.9914566987313712 -0.07728050259022547 0.0068477282510905875 0.03271818321591248
0.1250521050438 0.007299464477627444 0.03459589532890126 0.9908614092227389 -0.08148147980723558 0.0023526944906404443 0.016842356599596237 -0.0020097104595962743 -0.010615348819281355
 0.9908614092227389 -0.08148147980723558 0.007298359856018745 0.034596136408735496 -0.0020094906094679766 -0.010615371230994567 0.002352812384677214 0.016842369106164545
 0.0023526944906404443 0.016842356599596237 -0.0020094906094679766 -0.010615371230994567 0.007299443993804081 0.034597632304295724 0.9908614875107455 -0.08147983825022698
 -0.0020097104595962743 -0.010615348819281355 0.002352812384677214 0.016842369106164545 0.9908614875107455 -0.08147983825022698 0.007298561375965294 0.03459781798265806
0.131304710296 0.007769400788341477 0.03648901756358274 0.9902417192863604 -0.08569311064629692 0.0025658538355479875 0.017682799028994865 -0.0021906247671778364 -0.011147382774305475
 0.9902417192863604 -0.08569311064629692 0.007768183733764539 0.036489287453920966 -0.0021903829539548316 -0.011147408896932866 0.0025659798532243726 0.017682813537146118
 0.0025658538355479875 0.017682799028994865 -0.0021903829539548316 -0.011147408896932866 0.00776937802870715 0.036490847960585486 0.9902418047887127 -0.08569138972790706
 -0.0021906247671778364 -0.011147382774305475 0.0025659798532243726 0.017682813537146118 0.9902418047887127 -0.08569138972790706 0.007768406650092669 0.03649105555903774
0.1375573155481 0.008150444374203617 0.038147580060947484 0.989705511795599 -0.08966873472352091 0.0027619077206999625 0.018496952233742963 -0.0023530187057489507 -0.011653390839230879
 0.989705511795599 -0.08966873472352091 0.008149110262459814 0.03814787404043966 -0.0023527536624002193 -0.011653420709814092 0.002762047645022871 0.01849696855224718
 0.0027619077206999625 0.018496952233742963 -0.0023527536624002193 -0.011653420709814092 0.008150420131033068 0.038149504324609035 0.9897056048250598 -0.08966693474479828
 -0.0023530187057489507 -0.011653390839230879 0.002762047645022871 0.01849696855224718 0.9897056048250598 -0.08966693474479828 0.008149354794627844 0.03814972947288872
0.1438099208003 0.008544873100972688 0.0397974427722916 0.9891504799854726 -0.09363434335289578 0.0029658902094673464 0.019307923311509306 -0.002521921534090202 -0.012156468874292722
 0.9891504799854726 -0.09363434335289578 0.008543416749300587 0.039797762354400176 -0.0025216322275487 -0.012156502825522381 0.00296604496413471 0.01930794150371651
 0.0029658902094673464 0.019307923311509306 -0.0025216322275487 -0.012156502825522381 0.008544847471889702 0.03979946182101143 0.9891505807896441 -0.09363246468073654
 -0.002521921534090202 -0.012156468874292722 0.00296604496413471 0.01930794150371651 0.9891505807896441 -0.09363246468073654 0.008543683936233793 0.0397997055801474
0.1500625260525 0.008952549052614061 0.041438469279510504 0.98857676577924 -0.09758983997962731 0.003177732411104883 0.02011563297110264 -0.0026972660159049746 -0.012656540907870226
 0.98857676577924 -0.09758983997962731 0.008950965307119772 0.0414388160377491 -0.00269695141781019 -0.012656579285470163 0.003177902951407855 0.020115653091908773
 0.003177732411104883 0.02011563297110264 -0.00269695141781019 -0.012656579285470163 0.00895252215700865 0.04144058406680145 0.9885768745944801 -0.09758788299551642
 -0.0026972660159049746 -0.012656540907870226 0.003177902951407855 0.020115653091908773 0.9885768745944801 -0.09758788299551642 0.008951256195059052 0.04144084754296631
0.15631513130469998 0.00937333334192135 0.04307052728841238 0.9879845118127987 -0.10153512834821002 0.0033973646351135966 0.020920003246807366 -0.0028789840947652055 -0.013153532563989543
