! Created with skrf 1.8.0 (http://scikit-rf.org).
# GHz S RI R 50.0 
!freq ReS11 ImS11 ReS12 ImS12 ReS13 ImS13
! ReS14 ImS14
! ReS21 ImS21 ReS22 ImS22 ReS23 ImS23
! ReS24 ImS24
! ReS31 ImS31 ReS32 ImS32 ReS33 ImS33
! ReS34 ImS34
! ReS41 ImS41 ReS42 ImS42 ReS43 ImS43
! ReS44 ImS44
!
0.0 0.001771493867957 0.0 0.998228506132 0.0 6.870022261229e-05 0.0 -6.870022152986e-05 8.413350639725712e-21
 0.998228506132 0.0 0.001771493867978 0.0 -6.870022153023e-05 8.413350639771024e-21 6.870022261269e-05 0.0
 6.870022261229e-05 0.0 -6.870022153023e-05 8.413350639771024e-21 0.001771493852946 0.0 0.998228506117 0.0
 -6.870022152986e-05 8.413350639725712e-21 6.870022261269e-05 0.0 0.998228506117 0.0 0.001771493852948 0.0
0.005 0.0019067171894291345 0.0014487772119121335 0.9980572905117892 -0.0037099542616187715 9.674379017632555e-05 0.0007557779488588891 -9.382031236293316e-05 -0.0004744689264444018
 0.9980572905117892 -0.0037099542616187715 0.0019067517410802375 0.0014487570982966147 -9.381910570317443e-05 -0.00047446809518450527 9.652566911822021e-05 0.0007558610077876014
 9.674379017632555e-05 0.0007557779488588891 -9.381910570317443e-05 -0.00047446809518450527 0.0019067169561371611 0.0014487101435027947 0.998057290136146 -0.003710021312516057
 -9.382031236293316e-05 -0.0004744689264444018 9.652566911822021e-05 0.0007558610077876014 0.998057290136146 -0.003710021312516057 0.0019067512262414279 0.0014486900666063304
0.006252605252188 0.0019424025981314914 0.0018166382161454594 0.9980117823978581 -0.004638313815338519 0.00010489978086216796 0.0009450730440578936 -0.00010101440152242149 -0.0005936856325608503
 0.9980117823978581 -0.004638313815338519 0.0019424566083872108 0.0018166127004478434 -0.00010101252311674789 -0.0005936846100584473 0.0001045589896895518 0.0009451809781678677
 0.00010489978086216796 0.0009450730440578936 -0.00010101252311674789 -0.0005936846100584473 0.0019424023045509823 0.0018165543833366102 0.9980117818822952 -0.0046383976353531475
 -0.00010101440152242149 -0.0005936856325608503 0.0001045589896895518 0.0009451809781678677 0.9980117818822952 -0.0046383976353531475 0.001942455875820936 0.001816528897344
0.01250521050438 0.002131541595740789 0.003670985018049589 0.9977688029386352 -0.009277163533993707 0.0001524316740469654 0.0018903858247097326 -0.00014237836472656487 -0.001190097994634528
 0.9977688029386352 -0.009277163533993707 0.002131757254655572 0.0036709302110574027 -0.00014237095324799468 -0.001190096134660144 0.000151072719104449 0.0018906464442902794
 0.0001524316740469654 0.0018903858247097326 -0.00014237095324799468 -0.001190096134660144 0.002131540976431281 0.0036708176979368323 0.9977688014411161 -0.009277330927301099
 -0.00014237836472656487 -0.001190097994634528 0.000151072719104449 0.0018906464442902794 0.9977688014411161 -0.009277330927301099 0.0021317549010988566 0.003670762786318718
0.01875781575657 0.0023393707200975665 0.005551325670000969 0.9974992327466603 -0.01392778331851301 0.00021141137272205667 0.0028365285279756836 -0.00019292873007651005 -0.0017883449965336554
 0.9974992327466603 -0.01392778331851301 0.0023398553092232564 0.005551237487796155 -0.00019291219033435697 -0.0017883425282959602 0.00020835873797341698 0.0028369962818615897
 0.00021141137272205667 0.0028365285279756836 -0.00019291219033435697 -0.0017883425282959602 0.0023393697372741163 0.005551075082056685 0.9974992298056093 -0.013928034185031005
 -0.00019292873007651005 -0.0017883449965336554 0.00020835873797341698 0.0028369962818615897 0.9974992298056093 -0.013928034185031005 0.0023398504665602025 0.005550986489841963
0.02501042100875 0.002566333312385582 0.007454969784884104 0.9972027224012496 -0.018592367043814662 0.00028195640434644915 0.0037834974083355713 -0.0002527966802603127 -0.0023881199688277036
 0.9972027224012496 -0.018592367043814662 0.002567193903589919 0.007454843874501284 -0.0002527674567386515 -0.0023881171690442026 0.0002765344363552072 0.0037842361620742085
 0.00028195640434644915 0.0037834974083355713 -0.0002527674567386515 -0.0023881171690442026 0.002566331917266289 0.0074546361176710645 0.9972027175524197 -0.018592701335819268
 -0.0002527966802603127 -0.0023881199688277036 0.0002765344363552072 0.0037842361620742085 0.9972027175524197 -0.018592701335819268 0.002567185714740975 0.007454509312513739
0.03126302626094 0.0028128542305799237 0.009380502544845477 0.9968789064874862 -0.023271817080231842 0.00036418436920223924 0.0047312007347614345 -0.0003221089686159393 -0.002989195604939354
 0.9968789064874862 -0.023271817080231842 0.0028141977521028236 0.009380334291973701 -0.0003220635390685189 -0.0029891927982897337 0.00035571668191909634 0.004732283829327954
 0.00036418436920223924 0.0047312007347614345 -0.0003220635390685189 -0.0029891927982897337 0.002812852370211306 0.009380085995098054 0.9968788992693042 -0.02327223476362986
 -0.0003221089686159393 -0.002989195604939354 0.00035571668191909634 0.004732283829327954 0.9968788992693042 -0.02327223476362986 0.0028141853757330123 0.009379916174633898
0.037515631513130004 0.003079348486059852 0.011326978515700132 0.9965274126091904 -0.027966550425114204 0.0004582116082981847 0.005679511386675561 -0.00040098880905556074 -0.003591371385992246
 0.9965274126091904 -0.027966550425114204 0.0030812817686211936 0.01132676304814251 -0.000400923681391978 -0.0035913689453005936 0.0004460208337640005 0.005681021732548087
 0.0004582116082981847 0.005679511386675561 -0.000400923681391978 -0.0035913689453005936 0.0030793460990774226 0.01132647928754116 0.9965274025568197 -0.027967051480562135
 -0.00040098880905556074 -0.003591371385992246 0.0004460208337640005 0.005681021732548087 0.9965274025568197 -0.027967051480562135 0.003081264373480683 0.01132626138258215
0.043768236765320004 0.003366224549135848 0.01329367630573787 0.9961478650775328 -0.032676743977584084 0.0005641525670903567 0.006628282845361974 -0.0004895561680570184 -0.004194457621994189
 0.9961478650775328 -0.032676743977584084 0.003368854364560745 0.013293408494886031 -0.000489467878638702 -0.004194455968326097 0.0005475602546892294 0.006630313027382172
 0.0005641525670903567 0.006628282845361974 -0.000489467878638702 -0.004194455968326097 0.0033662215699901067 0.013293094618118634 0.9961478517262385 -0.03267732839332142
 -0.0004895561680570184 -0.004194457621994189 0.0005475602546892294 0.006630313027382172 0.9961478517262385 -0.03267732839332142 0.0033688311324149606 0.013292823293901015
0.050020842017509996 0.0036738858716463506 0.015279997185756202 0.9957398868230525 -0.03740243585166483 0.0006821193994346296 0.007577355821494584 -0.0005879278491512569 -0.004798268864611331
 0.9957398868230525 -0.03740243585166483 0.003677318967422527 0.015279671646640978 -0.0005878129618679973 -0.004798268467337713 0.0006604459942589704 0.007580008207918234
 0.0006821193994346296 0.007577355821494584 -0.0005878129618679973 -0.004798268467337713 0.0036738822305293632 0.015279333270898794 0.9957398697071265 -0.037403103625274395
 -0.0005879278491512569 -0.004798268864611331 0.0006604459942589704 0.007580008207918234 0.9957398697071265 -0.037403103625274395 0.00367728909140577 0.015279002927077807
0.055454545454549996 0.003958443186822658 0.017021696901997695 0.9953619590957197 -0.04152175391414543 0.0007944878025361087 0.008402242965114132 -0.0006814664596520844 -0.005323444708204429
 0.9953619590957197 -0.04152175391414543 0.003962661054744386 0.017021316622120246 -0.0006813256884391373 -0.005323445821517382 0.0007678460538110529 0.008405526883027415
 0.0007944878025361087 0.008402242965114132 -0.0006813256884391373 -0.005323445821517382 0.003958438910479283 0.017020961727336286 0.9953619383279697 -0.04152249413443825
 -0.0006814664596520844 -0.005323444708204429 0.0007678460538110529 0.008405526883027415 0.9953619383279697 -0.04152249413443825 0.003962624757977259 0.017020575338323417
0.056273447269699996 0.004002731641865561 0.01728541532564764 0.9953031005468267 -0.042143575077051444 0.0008122216817639999 0.008526561510494773 -0.0006962174805784276 -0.005402620699938968
 0.9953031005468267 -0.042143575077051444 0.004007074773236051 0.01728502641584651 -0.0006960725863132994 -0.0054026220767863144 0.0007847865510625089 0.008529948363530163
 0.0008122216817639999 0.008526561510494773 -0.0006960725863132994 -0.0054026220767863144 0.004002727264780665 0.017284669427823647 0.9953030791979004 -0.04214432621689126
 -0.0006962174805784276 -0.005402620699938968 0.0007847865510625089 0.008529948363530163 0.9953030791979004 -0.04214432621689126 0.0040070374569695375 0.01728427419720411
0.06252605252188 0.00435315716348905 0.01930945045046217 0.9948371295004917 -0.04690004888722998 0.000954566177778713 0.009475723401367693 -0.0008145354584022925 -0.006007327995961441
 0.9948371295004917 -0.04690004888722998 0.004358517124398151 0.019308992267849334 -0.0008143571747774243 -0.0060073317130379346 0.0009206876693378467 0.009479966987937797
 0.000954566177778713 0.009475723401367693 -0.0008143571747774243 -0.0060073317130379346 0.004353151974467352 0.019308622829610038 0.9948371034493566 -0.04690088340899755
 -0.0008145354584022925 -0.006007327995961441 0.0009206876693378467 0.009479966987937797 0.9948371034493566 -0.04690088340899755 0.004358471583202651 0.01930815657587907
0.06877865777407 0.004725554032981908 0.021351651542276886 0.9943415980715199 -0.05167169897002365 0.0011092566349955846 0.010424658367412213 -0.0009429888602007579 -0.006612203876785228
 0.9943415980715199 -0.05167169897002365 0.004732037686876304 0.021351117921702238 -0.0009427738315702425 -0.006612210548597893 0.0010682521587478406 0.010429891069303624
 0.0011092566349955846 0.010424658367412213 -0.0009427738315702425 -0.006612210548597893 0.00472554795337589 0.021350742474998557 0.994341566845796 -0.05167261689591775
 -0.0009429888602007579 -0.006612203876785228 0.0010682521587478406 0.010429891069303624 0.994341566845796 -0.05167261689591775 0.004731983145712562 0.021350198789294127
0.07503126302626001 0.005120310189875676 0.0234115865141271 0.993816132245831 -0.056458331755233605 0.001276393599199071 0.011373177373751653 -0.001081681342358628 -0.0072170590889536
 0.993816132245831 -0.056458331755233605 0.005128024499538826 0.023410971022893766 -0.0010814262399190665 -0.007217069378416366 0.0012275797258232335 0.01137954179672429
 0.001276393599199071 0.011373177373751653 -0.0010814262399190665 -0.007217069378416366 0.005120303140442549 0.02341059629365969 0.9938160953709098 -0.05645933311409991
 -0.001081681342358628 -0.0072170590889536 0.0012275797258232335 0.01137954179672429 0.9938160953709098 -0.05645933311409991 0.005127960193905805 0.02340996849011753
0.08128386827845 0.005537809894718791 0.025488835349438754 0.9932603600036747 -0.06125972524676261 0.001456074240007356 0.012321085961444517 -0.0012307130264295391 -0.007821701600461322
 0.9932603600036747 -0.06125972524676261 0.005546861952042438 0.025488131281754135 -0.0012304145484244415 -0.007821716218877214 0.0013987668133579351 0.01232873504284585
 0.001456074240007356 0.012321085961444517 -0.0012304145484244415 -0.007821716218877214 0.005537801795518399 0.02548776428473397 0.993260317001704 -0.06126081007508265
 -0.0012307130264295391 -0.007821701600461322 0.0013987668133579351 0.01232873504284585 0.993260317001704 -0.06126081007508265 0.005546787126881356 0.02548704539491556
0.08753647353064001 0.0059784336509339205 0.027582985368330495 0.9926739116642085 -0.06607563373834241 0.0016483921840184906 0.013268184603819606 -0.0013901803781092624 -0.008425936337017634
 0.9926739116642085 -0.06607563373834241 0.005988930707160641 0.027582185738446736 -0.001389835250127778 -0.008425956044063957 0.0015819064448309764 0.01327728171848325
 0.0016483921840184906 0.013268184603819606 -0.001389835250127778 -0.008425956044063957 0.005978424423090015 0.027581833785421533 0.9926738620543151 -0.06607680207887985
 -0.0013901803781092624 -0.008425936337017634 0.0015819064448309764 0.01327728171848325 0.9926738620543151 -0.06607680207887985 0.0059888446174809476 0.02758101655149965
0.09378907878283 0.00644255809555942 0.029693627851293335 0.9920564202029216 -0.07090579118270691 0.0018534373531580944 0.014214268973503951 -0.0015601760811852388 -0.009029565017360582
 0.9920564202029216 -0.07090579118270691 0.006454607590725114 0.029692725385659008 -0.0015597810565101435 -0.009029590621048461 0.0017770880720977499 0.014224988037600202
 0.0018534373531580944 0.014214268973503951 -0.0015597810565101435 -0.009029590621048461 0.006442547661085255 0.029692396094853128 0.9920563635003696 -0.07090704308306718
 -0.0015601760811852388 -0.009029565017360582 0.0017770880720977499 0.014224988037600202 0.9920563635003696 -0.07090704308306718 0.0064545095003749236 0.02969147296178487
0.100041684035 0.00693055586080278 0.03182035557744557 0.9914075215449046 -0.07574991365778383 0.0020712958069763737 0.015159130161773728 -0.0017407889076157695 -0.009632386046136636
 0.9914075215449046 -0.07574991365778383 0.006944265454041856 0.03181934270534464 -0.001740340767648405 -0.009632418402764452 0.0019843974260047637 0.015171655734559454
 0.0020712958069763737 0.015159130161773728 -0.001740340767648405 -0.009632418402764452 0.006930544144338136 0.031819044008002756 0.9914074572610759 -0.07575124917312363
 -0.0017407889076157695 -0.009632386046136636 0.0019843974260047637 0.015171655734559454 0.9914074572610759 -0.07575124917312363 0.006944154636348282 0.03181800711433269
0.1059090909091 0.007410530816700635 0.03383033028921284 0.9907697129978231 -0.08030804287961052 0.0022874595362272158 0.01604447974480241 -0.0019200065753523729 -0.010197152555288403
 0.9907697129978231 -0.08030804287961052 0.0074258963721412176 0.03382920665308926 -0.0019195056905025414 -0.010197192070576552 0.002190038274068506 0.01605887795702691
 0.0022874595362272158 0.01604447974480241 -0.0019195056905025414 -0.010197192070576552 0.007410517831503922 0.0338289441663926 0.9907696411516783 -0.08030945691493611
 -0.0019200065753523729 -0.010197152555288403 0.002190038274068506 0.01605887795702691 0.9907696411516783 -0.08030945691493611 0.007425772957993915 0.03382779308864119
0.1062942892872 0.00744279541911075 0.03396276098405912 0.9907268548444363 -0.0806077012231129 0.0023020495874167854 0.016102554858541094 -0.0019321035855141353 -0.010234194456275006
 0.9907268548444363 -0.0806077012231129 0.0074582730186877 0.033961629827250005 -0.0019315991402659143 -0.010234234470346248 0.002203916368384363 0.016117082241653903
 0.0023020495874167854 0.016102554858541094 -0.0019315991402659143 -0.010234234470346248 0.0074427823484541555 0.033961369977556145 0.9907267824865327 -0.08060912041653132
 -0.0019321035855141353 -0.010234194456275006 0.002203916368384363 0.016117082241653903 0.9907267824865327 -0.08060912041653132 0.00745814875556222 0.03396021114517107
0.11254689453939999 0.007979640913028553 0.036120434766232876 0.9900140627537259 -0.08547883934833735 0.0025457765667549087 0.01704432551046834 -0.002134200664705946 -0.01083478188352528
 0.9900140627537259 -0.08547883934833735 0.00799699470608558 0.03611917712716753 -0.0021336367532026118 -0.01083483050769819 0.0024357227465281513 0.017061060844643733
 0.0025457765667549087 0.01704432551046834 -0.0021336367532026118 -0.01083483050769819 0.007979626420027855 0.0361189647191191 0.9900139818243318 -0.08548034228576545
 -0.002134200664705946 -0.01083478188352528 0.0024357227465281513 0.017061060844643733 0.9900139818243318 -0.08548034228576545 0.0079968562884213 0.03611767544154412
0.11879949979160001 0.008541451973827958 0.038292964806400626 0.989268791683056 -0.0903630000241974 0.002802550296718999 0.017984220463393746 -0.0023471563816623636 -0.011433936567045448
 0.989268791683056 -0.0903630000241974 0.008560790457189117 0.038291572155062244 -0.002346529872601941 -0.011433994801981318 0.0026798902484604366 0.018003380822518563
 0.002802550296718999 0.017984220463393746 -0.002346529872601941 -0.011433994801981318 0.008541435995332195 0.0382914161296885 0.9892687016797461 -0.09036458678009067
 -0.0023471563816623636 -0.011433936567045448 0.0026798902484604366 0.018003380822518563 0.9892687016797461 -0.09036458678009067 0.008560637184016279 0.03828998755925713
0.1250521050438 0.009128583532198632 0.04047993533214031 0.9884906920554589 -0.09525984265765565 0.003072439859915388 0.01892201409664111 -0.0025710425238186867 -0.012031443368646654
 0.9884906920554589 -0.09525984265765565 0.009150015542092563 0.04047839879168413 -0.0025703503160151913 -0.012031512262939645 0.002936488259585807 0.018943827578938935
 0.003072439859915388 0.01892201409664111 -0.0025703503160151913 -0.012031512262939645 0.00912856601095235 0.040478308453877995 0.9884905924708444 -0.09526151331255701
 -0.0025710425238186867 -0.012031443368646654 0.002936488259585807 0.018943827578938935 0.9884905924708444 -0.09526151331255701 0.00914984672094949 0.04047673138741673
0.131304710296 0.00974138562129319 0.04268092625661976 0.9876794185570389 -0.1001690147975535 0.003355509722769501 0.019857476949682592 -0.0028059262934238436 -0.012627083810438288
 0.9876794185570389 -0.1001690147975535 0.009765020364300487 0.04267923658742163 -0.002805165316455805 -0.012627164460458558 0.0032055817212022545 0.019882182765797635
 0.003355509722769501 0.019857476949682592 -0.002805165316455805 -0.012627164460458558 0.009741366506969162 0.04267922162313734 0.9876793088779825 -0.10017076943651307
 -0.0028059262934238436 -0.012627083810438288 0.0032055817212022545 0.019882182765797635 0.9876793088779825 -0.10017076943651307 0.00976483531060278 0.042677486486395515
0.1375573155481 0.010247248726148206 0.04460943098371127 0.986967648610611 -0.10480391043744454 0.003618992468538744 0.020762951037282942 -0.0030192212719694087 -0.013193102792286518
 0.986967648610611 -0.10480391043744454 0.010273204574965463 0.04460761287333355 -0.0030183872033697355 -0.013193195407284895 0.0034547474296936537 0.020790533481571723
 0.003618992468538744 0.020762951037282942 -0.0030183872033697355 -0.013193195407284895 0.01024722903756445 0.044607648354187325 0.9869675283782131 -0.10480574906918787
 -0.0030192212719694087 -0.013193102792286518 0.0034547474296936537 0.020790533481571723 0.9869675283782131 -0.10480574906918787 0.010273001432218595 0.04460578073915606
0.1438099208003 0.010771123527885234 0.04652632048553565 0.9862303861660375 -0.10942556765048532 0.0038930853765683894 0.021663729691336953 -0.0032409817627088444 -0.01375490031100393
 0.9862303861660375 -0.10942556765048532 0.010799511570598636 0.046524366378692304 -0.003240071350567563 -0.013755005971872772 0.00371390116036174 0.02169440949276005
 0.0038930853765683894 0.021663729691336953 -0.003240071350567563 -0.013755005971872772 0.0107711034176259 0.04652446024043564 0.9862302548709923 -0.10942749035051542
 -0.0032409817627088444 -0.01375490031100393 0.00371390116036174 0.02169440949276005 0.9862302548709923 -0.10942749035051542 0.010799289451497702 0.046522452391550846
0.1500625260525 0.011312802027197472 0.048431391238287415 0.9854678440354812 -0.11403382699782785 0.004177679107471251 0.022559687582024802 -0.003471103279654373 -0.014312362397161918
 0.9854678440354812 -0.11403382699782785 0.01134373374815477 0.048429293069229155 -0.0034701132864470873 -0.014312482227300994 0.003982937973610394 0.022593693547950804
 0.004177679107471251 0.022559687582024802 -0.0034701132864470873 -0.014312482227300994 0.011312781667130305 0.04842945377013903 0.9854677011644429 -0.11403583384247144
 -0.003471103279654373 -0.014312362397161918 0.003982937973610394 0.022593693547950804 0.9854677011644429 -0.11403583384247144 0.011343491758682867 0.0484272974208124
0.15631513130469998 0.011872074467896664 0.05032444580584459 0.9846802364183104 -0.11862853061550646 0.00447266285588971 0.023450701840632682 -0.0037094799031109635 -0.014865377778324109
 0.9846802364183104 -0.11862853061550646 0.011905661757811624 0.05032219498049316 -0.0037084071060278787 -0.014865512943302692 0.004261751539644861 0.023488270762570113
