! Created with skrf 1.8.0 (http://scikit-rf.org).
# GHz S RI R 50.0 
!freq ReS11 ImS11 ReS12 ImS12 ReS13 ImS13
! ReS14 ImS14
! ReS21 ImS21 ReS22 ImS22 ReS23 ImS23
! ReS24 ImS24
! ReS31 ImS31 ReS32 ImS32 ReS33 ImS33
! ReS34 ImS34
! ReS41 ImS41 ReS42 ImS42 ReS43 ImS43
! ReS44 ImS44
!
0.0 0.001568800821218 0.0 0.9984311991617 0.0 6.074979195633e-05 0.0 -6.07497924003e-05 7.439703881189361e-21
 0.9984311991617 0.0 0.001568800821241 0.0 -6.074979240036e-05 7.439703881196708e-21 6.074979195612e-05 0.0
 6.074979195633e-05 0.0 -6.074979240036e-05 7.439703881196708e-21 0.001568800829756 0.0 0.9984311991702 0.0
 -6.07497924003e-05 7.439703881189361e-21 6.074979195612e-05 0.0 0.9984311991702 0.0 0.001568800829774 0.0
0.005 0.001688012877740001 0.0012797328450341358 0.9982803507264302 -0.003286313450144927 8.574673456349505e-05 0.0006912769266094766 -8.310532445958218e-05 -0.00043006480374940977
 0.9982803507264302 -0.003286313450144927 0.0016880296681153711 0.0012797230787658044 -8.310633597994025e-05 -0.0004300656323457339 8.564353647315993e-05 0.0006913163097778725
 8.574673456349505e-05 0.0006912769266094766 -8.310633597994025e-05 -0.0004300656323457339 0.0016880117401361146 0.001279666283657112 0.9982803503632697 -0.0032863805094655403
 -8.310532445958218e-05 -0.00043006480374940977 8.564353647315993e-05 0.0006913163097778725 0.9982803503632697 -0.0032863805094655403 0.0016880300802006494 0.001279655520150216
0.006252605252188 0.0017192999407388324 0.0016047137913346797 0.9982405038758111 -0.004108693412224879 9.29111771082222e-05 0.000864418658557652 -8.943059115530087e-05 -0.0005381405574260744
 0.9982405038758111 -0.004108693412224879 0.0017193261864879008 0.0016047013587989318 -8.943216475203212e-05 -0.0005381415801370609 9.274994076991245e-05 0.0008644697866073151
 9.29111771082222e-05 0.000864418658557652 -8.943216475203212e-05 -0.0005381415801370609 0.0017192982407835042 0.001604630597951403 0.998240503387004 -0.004108777233337442
 -8.943059115530087e-05 -0.0005381405574260744 9.274994076991245e-05 0.0008644697866073151 0.998240503387004 -0.004108777233337442 0.0017193269098977851 0.0016046169074529768
0.01250521050438 0.0018841263611768444 0.003243141482244844 0.9980291599323717 -0.00821818330556216 0.00013411790553199805 0.0017291119313033634 -0.00012539161321170947 -0.0010788944094904118
 0.9980291599323717 -0.00821818330556216 0.0018842311525869204 0.0032431143560368637 -0.00012539780967785432 -0.0010788963124823624 0.00013347496361410929 0.0017292347079598507
 0.00013411790553199805 0.0017291119313033634 -0.00012539780967785432 -0.0010788963124823624 0.001884120130654492 0.0032429754078392376 0.9980291585451123 -0.008218350693954598
 -0.00012539161321170947 -0.0010788944094904118 0.00013347496361410929 0.0017292347079598507 0.9980291585451123 -0.008218350693954598 0.0018842346126747291 0.003242945635521963
0.01875781575657 0.0020636457684553855 0.004904943177723008 0.9977969006632467 -0.012338468910020724 0.0001844653077968593 0.002594677079486313 -0.0001687453334767333 -0.0016214487730562615
 0.9977969006632467 -0.012338468910020724 0.0020638812242844695 0.004904898953188492 -0.00016875914498095854 -0.0016214513877542748 0.0001830210827957283 0.0025948961107279626
 0.0001844653077968593 0.002594677079486313 -0.00016875914498095854 -0.0016214513877542748 0.0020636321778884875 0.0049046944088526395 0.9977968979695663 -0.012338719755275854
 -0.0001687453334767333 -0.0016214487730562615 0.0001830210827957283 0.0025948961107279626 0.9977968979695663 -0.012338719755275854 0.002063889436454152 0.004904645972278432
0.02501042100875 0.0022582126870383953 0.0065877779523636016 0.9975434487379188 -0.016471539231524363 0.00024405043780106837 0.003461149300927966 -0.000219600334855245 -0.0021655467259468334
 0.9975434487379188 -0.016471539231524363 0.0022586308117600153 0.006587714097770756 -0.00021962471564779406 -0.002165549854513075 0.0002414852788507131 0.003461493134598804
 0.00024405043780106837 0.003461149300927966 -0.00021962471564779406 -0.002165549854513075 0.0022581889046138256 0.006587446655119928 0.9975434443305884 -0.01647187346067764
 -0.000219600334855245 -0.0021655467259468334 0.0002414852788507131 0.003461493134598804 0.9975434443305884 -0.01647187346067764 0.0022586457952278273 0.006587376798767158
0.03126302626094 0.002468166951265044 0.008290436790916235 0.9972685128889285 -0.020618240088781378 0.0003129708870294298 0.0043284813484762465 -0.0002780619909836635 -0.002711007527211387
 0.9972685128889285 -0.020618240088781378 0.002468819663887395 0.008290350650697477 -0.0002780998638403681 -0.00271101094218803 0.00030896477349761877 0.004328982495803789
 0.0003129708870294298 0.0043284813484762465 -0.0002780998638403681 -0.00271101094218803 0.0024681301423673876 0.008290023139673409 0.9972685063623836 -0.020618657637864166
 -0.0002780619909836635 -0.002711007527211387 0.00030896477349761877 0.004328982495803789 0.9972685063623836 -0.020618657637864166 0.002468843442875285 0.008289928937867957
0.037515631513130004 0.0026938409553663614 0.010012128086716959 0.9969717954030366 -0.024778988554402345 0.0003913237400690897 0.005196593368262643 -0.00034423325688829394 -0.0032576767784089685
 0.9969717954030366 -0.024778988554402345 0.002694780109079346 0.010012016883180893 -0.0003442875165041562 -0.0032576802226480127 0.00038555615016798347 0.005197288342462042
 0.0003913237400690897 0.005196593368262643 -0.0003442875165041562 -0.0032576802226480127 0.0026937882826614254 0.010011632265080663 0.9969717863534145 -0.024779489367914298
 -0.00034423325688829394 -0.0032576767784089685 0.00038555615016798347 0.005197288342462042 0.9969717863534145 -0.024779489367914298 0.002694814712942987 0.010011510623220667
0.043768236765320004 0.002935562446814664 0.0117522602382003 0.9966529951582072 -0.028953990288472675 0.0004792050865884992 0.006065388055305325 -0.00041821494801703464 -0.00380541127207899
 0.9966529951582072 -0.028953990288472675 0.0029368398444026183 0.011752121072529192 -0.0004182884629827328 -0.003805414458737748 0.0004713549366451933 0.006066317415443021
 0.0004792050865884992 0.006065388055305325 -0.0004182884629827328 -0.003805414458737748 0.002935491068655431 0.011751682444377704 0.9966529831817713 -0.02895457431442168
 -0.00041821494801703464 -0.00380541127207899 0.0004713549366451933 0.006066317415443021 0.9966529831817713 -0.02895457431442168 0.0029368873063764303 0.011751530099258103
0.050020842017509996 0.0031936558235611764 0.013510351777915267 0.9963118091693397 -0.03314332933779128 0.0005767097255148229 0.006934756914971304 -0.0005001058411475286 -0.004354072737911184
 0.9963118091693397 -0.03314332933779128 0.0031953232315638466 0.013510181630682785 -0.0005002014553191533 -0.0043540753504892294 0.0005664553469819752 0.006935965311915905
 0.0005767097255148229 0.006934756914971304 -0.0005002014553191533 -0.0043540753504892294 0.0031935628949390444 0.013509692226482807 0.9963117938635118 -0.03314399652649374
 -0.0005001058411475286 -0.004354072737911184 0.0005664553469819752 0.006935965311915905 0.9963117938635118 -0.03314399652649374 0.003195385589123009 0.013509505746089603
0.055454545454549996 0.0034314926787235235 0.015052448002476598 0.9959968922058852 -0.03679564204458453 0.0006693320042206575 0.007690640702169629 -0.0005777699445078534 -0.004831523043841829
 0.9959968922058852 -0.03679564204458453 0.0034335410395489054 0.015052248385612392 -0.0005778870545945038 -0.004831524877475845 0.0006567265889515567 0.007692131065714034
 0.0006693320042206575 0.007690640702169629 -0.0005778870545945038 -0.004831524877475845 0.0034313787091339635 0.015051717593099456 0.9959968736809476 -0.036796381461091245
 -0.0005777699445078534 -0.004831523043841829 0.0006567265889515567 0.007692131065714034 0.9959968736809476 -0.036796381461091245 0.003433617999642624 0.015051498529447245
0.056273447269699996 0.003468442794623294 0.015285987273008613 0.995947933500929 -0.037347012165289406 0.00068393095801137 0.0078045833405260626 -0.0005900026921661339 -0.004903524776782321
 0.995947933500929 -0.037347012165289406 0.0034705519557715844 0.015285783004292546 -0.000590123225566386 -0.004903526469149011 0.0006709500967156234 0.007806119563858931
 0.00068393095801137 0.0078045833405260626 -0.000590123225566386 -0.004903526469149011 0.0034683254672632224 0.015285246200064606 0.995947914464591 -0.03734776246465714
 -0.0005900026921661339 -0.004903524776782321 0.0006709500967156234 0.007806119563858931 0.995947914464591 -0.03734776246465714 0.003470631250400481 0.015285021983080651
0.06252605252188 0.0037602427326584413 0.01707879308068291 0.9955610638769868 -0.041564991827775004 0.0008009604213635327 0.00867474430649954 -0.0006880002142581272 -0.005453631183451905
 0.9955610638769868 -0.041564991827775004 0.003762845377926941 0.017078551429853588 -0.0006881484637251019 -0.005453631579899273 0.0007849302521837376 0.008676661331685523
 0.0008009604213635327 0.00867474430649954 -0.0006881484637251019 -0.005453631579899273 0.003760098154283479 0.01707797074069009 0.9955610407091464 -0.04156582518693226
 -0.0006880002142581272 -0.005453631183451905 0.0007849302521837376 0.008676661331685523 0.9955610407091464 -0.04156582518693226 0.0037629436539368564 0.01707770501554289
0.06877865777407 0.004069372852286604 0.01888842289291458 0.9951508961198268 -0.045797182368585376 0.0009278879477381529 0.009545111382038117 -0.0007941910318123068 -0.006004254954016669
 0.9951508961198268 -0.045797182368585376 0.004072520712941289 0.01888814047799071 -0.0007943697714904906 -0.006004253649295701 0.0009084850997254303 0.009547466417579416
 0.0009278879477381529 0.009545111382038117 -0.0007943697714904906 -0.006004253649295701 0.004069198167744128 0.018887519561055072 0.9951508684207656 -0.04579809873601881
 -0.0007941910318123068 -0.006004254954016669 0.0009084850997254303 0.009547466417579416 0.9951508684207656 -0.04579809873601881 0.004072640017850702 0.018887208384614027
0.07503126302626001 0.004396148291384674 0.02071454857770561 0.9947171264963285 -0.05004346791861627 0.0010648014364756733 0.010415551379271018 -0.0009086656202791529 -0.006555257663384789
 0.9947171264963285 -0.05004346791861627 0.004399893110145927 0.020714221894364584 -0.0009088776019125964 -0.006555254222760258 0.0010417020259584466 0.010418405913591892
 0.0010648014364756733 0.010415551379271018 -0.0009088776019125964 -0.006555254222760258 0.004395940642390446 0.02071356454684255 0.9947170938673233 -0.050044467245726365
 -0.0009086656202791529 -0.006555257663384789 0.0010417020259584466 0.010418405913591892 0.9947170938673233 -0.050044467245726365 0.004400035494244182 0.02071320380268723
0.08128386827845 0.004740882127709183 0.022556854076719816 0.9942594520037233 -0.05430370874626239 0.0012117867355099675 0.011285926791479037 -0.0010315122360457342 -0.007106499058199191
 0.9942594520037233 -0.05430370874626239 0.0047452756705115414 0.022556479496963388 -0.001031760189283011 -0.007106493017490999 0.0011846664054854304 0.01128934663944429
 0.0012117867355099675 0.011285926791479037 -0.001031760189283011 -0.007106493017490999 0.00474063865297522 0.022555789665643852 0.9942594140467093 -0.05430479097966245
 -0.0010315122360457342 -0.007106499058199191 0.0011846664054854304 0.01128934663944429 0.9942594140467093 -0.05430479097966245 0.004745443185816976 0.022555375062082755
0.08753647353064001 0.005103885352303326 0.02441503119902958 0.9937775706153871 -0.05857774541716345 0.001368927528096086 0.012156096102365524 -0.0011628168402716234 -0.007657836784105022
 0.9937775706153871 -0.05857774541716345 0.005108979419595677 0.02441460496939135 -0.001163103472841385 -0.007657827649742146 0.0013374614925360467 0.012160151451218001
 0.001368927528096086 0.012156096102365524 -0.001163103472841385 -0.007657827649742146 0.005103603188186312 0.024413886747649133 0.993777526933333 -0.05857891050382408
 -0.0011628168402716234 -0.007657836784105022 0.0013374614925360467 0.012160151451218001 0.993777526933333 -0.05857891050382408 0.0051091741197651416 0.024413413815267602
0.09378907878283 0.005485466815801401 0.026288776613144205 0.9932711815034161 -0.06286540176151054 0.001536305223670836 0.013025914013533755 -0.0013026630175053823 -0.008209126200385181
 0.9932711815034161 -0.06286540176151054 0.005491313253862009 0.026288294852553483 -0.0013029910152785255 -0.008209113449453138 0.001500168316274343 0.013030679468258062
 0.001536305223670836 0.013025914013533755 -0.0013029910152785255 -0.008209113449453138 0.005485143096016643 0.02628755248361367 0.9932711316999497 -0.06286664964826058
 -0.0013026630175053823 -0.008209126200385181 0.001500168316274343 0.013030679468258062 0.9932711316999497 -0.06286664964826058 0.005491537193632903 0.026287016572437132
0.100041684035 0.005885933151844209 0.02817778964036817 0.9927399852422717 -0.06716648704646003 0.0017139988508878248 0.013895231621967688 -0.0014511318913295584 -0.008760220250448392
 0.9927399852422717 -0.06716648704646003 0.005892583864518277 0.028177248337558063 -0.0014515039184914542 -0.008760203330734632 0.0016728655773525088 0.01390078624990975
 0.0017139988508878248 0.013895231621967688 -0.0014515039184914542 -0.008760203330734632 0.005885565008500703 0.028176486220941748 0.9927399289220189 -0.0671678176765167
 -0.0014511318913295584 -0.008760220250448392 0.0016728655773525088 0.01390078624990975 0.9927399289220189 -0.0671678176765167 0.005892839099162153 0.02817588249724417
0.1059090909091 0.006279175040248082 0.029964046783399114 0.9922186867363461 -0.07121463160554241 0.0018901959163976575 0.014710403292533519 -0.0015983664584119756 -0.00927705269029516
 0.9922186867363461 -0.07121463160554241 0.006286627746321138 0.02996344583973051 -0.001598782206162106 -0.0092770313303489 0.001844077806167969 0.014716774400339042
 0.0018901959163976575 0.014710403292533519 -0.001598782206162106 -0.0092770313303489 0.006278762600146652 0.029962669332035518 0.9922186239422836 -0.07121603983020945
 -0.0015983664584119756 -0.00927705269029516 0.001844077806167969 0.014716774400339042 0.9922186239422836 -0.07121603983020945 0.006286914217353163 0.029961997410342407
0.1062942892872 0.006305588686624456 0.030081770607090344 0.9921836840008138 -0.07148079759615206 0.0019020849529437166 0.014763896559558768 -0.0016083020370836361 -0.009310969375988494
 0.9921836840008138 -0.07148079759615206 0.006313095646477416 0.03008116561759938 -0.0016087207360781866 -0.00931094770604538 0.0018556295463665999 0.014770323934344425
 0.0019020849529437166 0.014763896559558768 -0.0016087207360781866 -0.00931094770604538 0.006305173249990222 0.03008038830815154 0.9921836207696387 -0.07148221091367575
 -0.0016083020370836361 -0.009310969375988494 0.0018556295463665999 0.014770323934344425 0.9921836207696387 -0.07148221091367575 0.006313384231504759 0.0300797117507796
0.11254689453939999 0.006744735335555468 0.0320004195793109 0.9916019817263221 -0.07580811803636195 0.0021006374838452063 0.015631753110647576 -0.0017742493927405717 -0.009861221459369896
 0.9916019817263221 -0.07580811803636195 0.006753150595659217 0.0319997466220739 -0.001774717384342421 -0.009861194428559154 0.002048533963108919 0.0156391413551531
 0.0021006374838452063 0.015631753110647576 -0.001774717384342421 -0.009861194428559154 0.006744269734670985 0.03199895883679099 0.9916019111905496 -0.07580961398338454
 -0.0017742493927405717 -0.009861221459369896 0.002048533963108919 0.0156391413551531 0.9916019111905496 -0.07580961398338454 0.006753474585963053 0.031998204233125924
0.11879949979160001 0.007203672491037323 0.03393343538528832 0.9909945843207242 -0.08014822225787523 0.002309727705989429 0.016498642311276106 -0.0019490471681317145 -0.010410821790245594
 0.9909945843207242 -0.08014822225787523 0.0072130481963745665 0.03393269003873748 -0.0019495670513891064 -0.01041078875880404 0.002251649936743673 0.01650708413978778
 0.002309727705989429 0.016498642311276106 -0.0019495670513891064 -0.01041078875880404 0.007203153853918743 0.03393189666004719 0.9909945060879907 -0.08014980077550343
 -0.0019490471681317145 -0.010410821790245594 0.002251649936743673 0.01650708413978778 0.9909945060879907 -0.08014980077550343 0.007213409646013474 0.0339310586014826
0.1250521050438 0.00768269690295675 0.03588051484614778 0.9903611998141609 -0.08450087417926858 0.002529424088370718 0.017364402040197856 -0.0021327657533052034 -0.010959613046843354
 0.9903611998141609 -0.08450087417926858 0.007693085302391734 0.035879692543836474 -0.002133340105541094 -0.010959573345925804 0.00246504584628092 0.017373994799557202
 0.002529424088370718 0.017364402040197856 -0.002133340105541094 -0.010959573345925804 0.007682122357188673 0.035878898623099335 0.9903611134928304 -0.08450253520895835
 -0.0021327657533052034 -0.010959613046843354 0.00246504584628092 0.017373994799557202 0.9903611134928304 -0.08450253520895835 0.007693486263815394 0.03587797150013174
0.131304710296 0.008182102553092601 0.03784135216087679 0.9897015385334151 -0.0888658283625551 0.0027597922056809554 0.018228867099114164 -0.0023254726255888 -0.011507435294247345
 0.9897015385334151 -0.0888658283625551 0.008193556010672988 0.037840448186707475 -0.0023261040023322527 -0.011507388225979203 0.0026887872420045035 0.018239712808886095
 0.0027597922056809554 0.018228867099114164 -0.0023261040023322527 -0.011507388225979203 0.008181469226047795 0.03783965895315262 0.9897014437329162 -0.08886757184242462
 -0.0023254726255888 -0.011507435294247345 0.0026887872420045035 0.018239712808886095 0.9897014437329162 -0.08886757184242462 0.008193998534319303 0.0378386369499442
0.1375573155481 0.008588717418206748 0.03955923614259485 0.9891288203958879 -0.09298631471598683 0.002972514780572816 0.019066178436398042 -0.002498935839042232 -0.012028392548293153
 0.9891288203958879 -0.09298631471598683 0.008601293370961879 0.03955826725853969 -0.0024996281755654214 -0.012028338052551133 0.002894716793886707 0.01907826293221266
 0.002972514780572816 0.019066178436398042 -0.0024996281755654214 -0.012028338052551133 0.008588023255114012 0.03955746612686381 0.9891287167368927 -0.09298814055750525
 -0.002498935839042232 -0.012028392548293153 0.002894716793886707 0.01907826293221266 0.9891287167368927 -0.09298814055750525 0.008601778663993136 0.03955636550629113
0.1438099208003 0.009009662338527466 0.04126783023897028 0.9885358940147795 -0.09709612544049699 0.00319383992920782 0.019899955002977216 -0.0026793373618071823 -0.012546148454719522
 0.9885358940147795 -0.09709612544049699 0.009023414100010363 0.041266793074191704 -0.0026800934306625223 -0.012546085840180687 0.0031089515283550064 0.019913371774746644
 0.00319383992920782 0.019899955002977216 -0.0026800934306625223 -0.012546085840180687 0.009008904612961879 0.041265983895405235 0.9885357811111648 -0.09709803357267793
 -0.0026793373618071823 -0.012546148454719522 0.0031089515283550064 0.019913371774746644 0.9885357811111648 -0.09709803357267793 0.00902394405592299 0.04126480022298874
0.1500625260525 0.009444785593769576 0.042966984854037715 0.9879229153379686 -0.10119515158159227 0.0034236899179340926 0.020730106515476254 -0.0028666023445955333 -0.013060619014258484
 0.9879229153379686 -0.10119515158159227 0.009459766620962958 0.04296587582502446 -0.002867424913958541 -0.013060547561425544 0.0033314155369500967 0.020744952465557496
 0.0034236899179340926 0.020730106515476254 -0.002867424913958541 -0.013060547561425544 0.009443961588411648 0.042965062680396605 0.9879227928053897 -0.1011971419305682
 -0.0028666023445955333 -0.013060619014258484 0.0033314155369500967 0.020744952465557496 0.9879227928053897 -0.1011971419305682 0.009460343121253484 0.042963791268795876
0.15631513130469998 0.009893934343125337 0.04465655489888267 0.9872900411549006 -0.10528328471287059 0.0036619860671802105 0.021556544250496548 -0.0030606549926403986 -0.013571722040281455
 0.9872900411549006 -0.10528328471287059 0.00991019824081694 0.04465537020324764 -0.0030615468262983874 -0.013571641001569124 0.00356203199414345 0.021572919656992512
