! Created with skrf 1.8.0 (http://scikit-rf.org).
# GHz S RI R 50.0 
!freq ReS11 ImS11 ReS12 ImS12 ReS13 ImS13
! ReS14 ImS14
! ReS21 ImS21 ReS22 ImS22 ReS23 ImS23
! ReS24 ImS24
! ReS31 ImS31 ReS32 ImS32 ReS33 ImS33
! ReS34 ImS34
! ReS41 ImS41 ReS42 ImS42 ReS43 ImS43
! ReS44 ImS44
!
0.0 0.001395565855271 0.0 0.9986044341119 0.0 5.342074010432e-05 0.0 -5.342074000911e-05 6.5421538260239506e-21
 0.9986044341119 0.0 0.001395565855313 0.0 -5.342074001019e-05 6.542153826156213e-21 5.342074010366e-05 0.0
 5.342074010432e-05 0.0 -5.342074001019e-05 6.542153826156213e-21 0.001395565863511 0.0 0.9986044341201 0.0
 -5.342074000911e-05 6.5421538260239506e-21 5.342074010366e-05 0.0 0.9986044341201 0.0 0.001395565863505 0.0
0.005 0.0015010803102302537 0.0011449653992763394 0.9984710149185266 -0.002923671141512848 7.418675118422852e-05 0.000570528935019422 -7.216872553781806e-05 -0.00036134037627233705
 0.9984710149185266 -0.002923671141512848 0.00150109837779218 0.0011449548136867273 -7.216989243627933e-05 -0.00036134119708187284 7.407290163235671e-05 0.0005705722058506676
 7.418675118422852e-05 0.000570528935019422 -7.216989243627933e-05 -0.00036134119708187284 0.0015010804502559143 0.001145032530838519 0.9984710152661993 -0.002923604077179588
 -7.216872553781806e-05 -0.00036134037627233705 7.407290163235671e-05 0.0005705722058506676 0.9984710152661993 -0.002923604077179588 0.0015010989292182672 0.0011450218075948245
0.006252605252188 0.001528634873866553 0.0014357132687257757 0.9984359717234695 -0.003655320834835803 8.00603857734027e-05 0.0007134528082941932 -7.740453260751268e-05 -0.00045214511571039395
 0.9984359717234695 -0.003655320834835803 0.001528663117084642 0.0014356998215895042 -7.740634901507973e-05 -0.00045214612637261713 7.988250433872297e-05 0.0007135089774687188
 8.00603857734027e-05 0.0007134528082941932 -7.740634901507973e-05 -0.00045214612637261713 0.0015286350119082298 0.0014357971523050743 0.9984359721856906 -0.003655237027230002
 -7.740453260751268e-05 -0.00045214511571039395 7.988250433872297e-05 0.0007135089774687188 0.9984359721856906 -0.003655237027230002 0.0015286638973356725 0.0014357835460102068
0.01250521050438 0.0016729973279216474 0.002901564624012708 0.9982512483453954 -0.007311542336145285 0.00011343171782168037 0.0014273545648571227 -0.00010680344784624619 -0.0009065374893469651
 0.9982512483453954 -0.007311542336145285 0.0016731101097219858 0.0029015355598976415 -0.0001068106138504099 -0.0009065393426814642 0.00011272231733658294 0.001427489207423509
 0.00011343171782168037 0.0014273545648571227 -0.0001068106138504099 -0.0009065393426814642 0.0016729973344110334 0.0029017320866799867 0.9982512496399939 -0.007311374934171078
 -0.00010680344784624619 -0.0009065374893469651 0.00011272231733658294 0.001427489207423509 0.9982512496399939 -0.007311374934171078 0.0016731126648506201 0.002901702833090086
0.01875781575657 0.0018289445982271127 0.00438839473858208 0.9980500514603209 -0.010977584566195589 0.00015360811375515843 0.0021421761626149454 -0.00014170251668537003 -0.0013625627593707203
 0.9980500514603209 -0.010977584566195589 0.001829198036050236 0.0043883477288394175 -0.0001417185081703443 -0.0013625652552042467 0.0001520144008355679 0.0021424156230264884
 0.00015360811375515843 0.0021421761626149454 -0.0001417185081703443 -0.0013625652552042467 0.0018289442096302048 0.0043886455640125424 0.9980500539544085 -0.010977333668179694
 -0.00014170251668537003 -0.0013625627593707203 0.0001520144008355679 0.0021424156230264884 0.9980500539544085 -0.010977333668179694 0.0018292033428713521 0.0043885984627734815
0.02501042100875 0.001996760682470179 0.005894155013561818 0.9978321607869868 -0.01465524894520548 0.00020066433389391225 0.0028579564413998117 -0.00018218450937983305 -0.0018200344894143076
 0.9978321607869868 -0.01465524894520548 0.001997210787077503 0.005894087590472074 -0.00018221276457318635 -0.001820037392064406 0.0001978332929956503 0.0028583309504500638
 0.00020066433389391225 0.0028579564413998117 -0.00018221276457318635 -0.001820037392064406 0.0019967596389411034 0.005894489013052061 0.9978321648446793 -0.014654914594357535
 -0.00018218450937983305 -0.0018200344894143076 0.0001978332929956503 0.0028583309504500638 0.9978321648446793 -0.014654914594357535 0.0019972198060321552 0.005894421725381234
0.03126302626094 0.0021767177389581498 0.007417803985934381 0.997597343968334 -0.018345321818465658 0.00025467581820023234 0.00357467113850732 -0.00022833017554854744 -0.0022788251328742467
 0.997597343968334 -0.018345321818465658 0.002177420443607178 0.007417713546509564 -0.00022837410157369937 -0.002278828170655933 0.0002502538756019567 0.0035752148353126348
 0.00025467581820023234 0.00357467113850732 -0.00022837410157369937 -0.002278828170655933 0.002176715788609194 0.007418220969304915 0.9975973499562546 -0.018344904031556523
 -0.00022833017554854744 -0.0022788251328742467 0.0002502538756019567 0.0035752148353126348 0.9975973499562546 -0.018344904031556523 0.002177434124353739 0.007418131022283806
0.037515631513130004 0.0023690822023101406 0.008958672290566532 0.9973453628341803 -0.02204820943821227 0.00031571793511197627 0.004292271193823106 -0.0002802188039400668 -0.0027388277128863603
 0.9973453628341803 -0.02204820943821227 0.00237009338144351 0.008958556098682187 -0.0002802817801321721 -0.002738830577914982 0.0003093508028642124 0.004293022165851947
 0.00031571793511197627 0.004292271193823106 -0.0002802817801321721 -0.002738830577914982 0.0023690790988817444 0.008959172054156686 0.9973453711203099 -0.022047708217304864
 -0.0002802188039400668 -0.0027388277128863603 0.0003093508028642124 0.004293022165851947 0.9973453711203099 -0.022047708217304864 0.00237011266145472 0.008959056843013085
0.043768236765320004 0.0025741171533970827 0.010516269380303582 0.9970759759225064 -0.025764131179535115 0.00038386562834838363 0.005010694410461008 -0.0003379284336726566 -0.003199944151408938
 0.9970759759225064 -0.025764131179535115 0.002575492637258299 0.010516124568006465 -0.00033801381344658566 -0.0031999464994840526 0.0003751982253146988 0.005011694739180971
 0.00038386562834838363 0.005010694410461008 -0.00033801381344658566 -0.0031999464994840526 0.0025741126552905383 0.010516851710413935 0.9970759868762697 -0.02576354650833734
 -0.0003379284336726566 -0.003199944151408938 0.0003751982253146988 0.005011694739180971 0.9970759868762697 -0.02576354650833734 0.0025755184420138293 0.010516708499956793
0.050020842017509996 0.0027920834248604297 0.012090203673156129 0.9967889397395733 -0.029493199327028045 0.0004591932130603168 0.005729870258881305 -0.0004015359326594479 -0.003662080457098751
 0.9967889397395733 -0.029493199327028045 0.002793879011899747 0.012090027241532958 -0.00040164704478618245 -0.003662081907607699 0.00044786962628383294 0.005731166067753684
 0.0004591932130603168 0.005729870258881305 -0.00040164704478618245 -0.003662081907607699 0.002792077295206854 0.012090868334066807 0.9967889537327204 -0.02949253118257253
 -0.0004015359326594479 -0.003662080457098751 0.00044786962628383294 0.005731166067753684 0.9967889537327204 -0.02949253118257253 0.0027939122551671157 0.012090694259718695
0.055454545454549996 0.002992205847783185 0.013471009288405384 0.9965249731392926 -0.03274458474302573 0.0005305432564901999 0.006355407801154986 -0.00046166140380058654 -0.004064447487347733
 0.9965249731392926 -0.03274458474302573 0.002994411815994591 0.013470802841843233 -0.0004617975628617764 -0.00406444782041365 0.0005166216641389874 0.006357001025290612
 0.0005305432564901999 0.006355407801154986 -0.0004617975628617764 -0.00406444782041365 0.0029921981104358364 0.013471745298988104 0.9965249900772557 -0.03274384402355685
 -0.00046166140380058654 -0.004064447487347733 0.0005166216641389874 0.006357001025290612 0.9965249900772557 -0.03274384402355685 0.002994452256318517 0.013471541976552969
0.056273447269699996 0.0030232401786959282 0.013680143335646083 0.9964840094946121 -0.033235458225191444 0.0005417742343583873 0.006449722236877039 -0.0004711170198797935 -0.004125144359425182
 0.9964840094946121 -0.033235458225191444 0.003025511646662071 0.013679932155354523 -0.00047125716918553027 -0.00412514449527887 0.0005274377053627182 0.006451363740483779
 0.0005417742343583873 0.006449722236877039 -0.00047125716918553027 -0.00412514449527887 0.003023232184028257 0.013680890082018645 0.9964840269009781 -0.03323470656524479
 -0.0004711170198797935 -0.004125144359425182 0.0005274377053627182 0.006451363740483779 0.9964840269009781 -0.03323470656524479 0.0030255532301605515 0.013680682150422955
0.06252605252188 0.0032678452212119534 0.01528579474060267 0.9961609395754365 -0.036990905755753846 0.0006316813565707706 0.0071701691643632146 -0.0005467462598440574 -0.00458904401032503
 0.9961609395754365 -0.036990905755753846 0.0032706483376741874 0.015285545552150627 -0.0005469187277358543 -0.004589042377898141 0.0006139742833614439 0.007172210718067481
 0.0006316813565707706 0.0071701691643632146 -0.0005469187277358543 -0.004589042377898141 0.003267835130793573 0.015286623305929637 0.9961609607714411 -0.03699007053020826
 -0.0005467462598440574 -0.00458904401032503 0.0006139742833614439 0.007172210718067481 0.9961609607714411 -0.03699007053020826 0.0032706991509075085 0.01528637839530032
0.06877865777407 0.00352615517846956 0.016906889609414725 0.9958194838881617 -0.04075950613244069 0.0007289862708542758 0.007891125954618633 -0.0006284970394010212 -0.005053687211881071
 0.9958194838881617 -0.04075950613244069 0.0035295457108217537 0.016906599023105953 -0.0006287050841810656 -0.005053683320954513 0.000707550221449091 0.007893626104412958
 0.0007289862708542758 0.007891125954618633 -0.0006287050841810656 -0.005053683320954513 0.0035261427642195886 0.016907799707439365 0.9958195092533244 -0.04075858728165376
 -0.0006284970394010212 -0.005053687211881071 0.000707550221449091 0.007893626104412958 0.9958195092533244 -0.04075858728165376 0.003529606631325451 0.016907514567587628
0.07503126302626001 0.0037984255869135957 0.018543176860062256 0.9954593961134863 -0.04454119799224988 0.0008337596132319209 0.008612504101456479 -0.0007164415342589316 -0.005518980930687078
 0.9954593961134863 -0.04454119799224988 0.003802459312116583 0.01854284135570199 -0.0007166883912939413 -0.005518974254401791 0.0008082353475472422 0.00861552563382251
 0.0008337596132319209 0.008612504101456479 -0.0007166883912939413 -0.005518974254401791 0.0037984106227169877 0.01854416818772458 0.9954594260306308 -0.04454019544402206
 -0.0007164415342589316 -0.005518980930687078 0.0008082353475472422 0.00861552563382251 0.9954594260306308 -0.04454019544402206 0.0038025312054090037 0.018543839439837218
0.08128386827845 0.00408491093407268 0.02019441719218279 0.9950804299175848 -0.048335899752587 0.0009460708883582946 0.009334212011096611 -0.0008106506693540147 -0.005984830970275608
 0.9950804299175848 -0.048335899752587 0.004089643648435944 0.020194033118481 -0.0008109395511190616 -0.0059848209450989315 0.0009160983866456598 0.009337822002688569
 0.0009460708883582946 0.009334212011096611 -0.0008109395511190616 -0.0059848209450989315 0.004084893194808605 0.020195489427503238 0.9950804647733607 -0.04833481342406686
 -0.0008106506693540147 -0.005984830970275608 0.0009160983866456598 0.009337822002688569 0.9950804647733607 -0.04833481342406686 0.00408972736765218 0.02019511356356861
0.08753647353064001 0.004385864661713595 0.021860379330314397 0.9946823391274123 -0.05214351331284089 0.001065988398469357 0.01005615522437881 -0.0009111940733895006 -0.006451141756065493
 0.9946823391274123 -0.05214351331284089 0.00439135219027081 0.02185994290406042 -0.0009115281694714618 -0.006451127781749539 0.001031206894945303 0.010060425091467165
 0.001065988398469357 0.01005615522437881 -0.0009115281694714618 -0.006451127781749539 0.00438584392277541 0.021861532130255042 0.99468237931237 -0.05214234311262472
 -0.0009111940733895006 -0.006451141756065493 0.001031206894945303 0.010060425091467165 0.99468237931237 -0.05214234311262472 0.004391448576161086 0.02186110551220171
0.09378907878283 0.004701539147227215 0.023540837342556686 0.9942648778872728 -0.05596392668402883 0.001193579173905558 0.010778236584744395 -0.001018140031038647 -0.006917816177518308
 0.9942648778872728 -0.05596392668402883 0.004707837353474391 0.023540344647378402 -0.0010185225080694426 -0.00691779761707387 0.001153627194734732 0.010783242132318788
 0.001193579173905558 0.010778236584744395 -0.0010185225080694426 -0.00691779761707387 0.004701515184268114 0.02354207034567571 0.9942649237965763 -0.05596267250931777
 -0.001018140031038647 -0.006917816177518308 0.001153627194734732 0.010783242132318788 0.9942649237965763 -0.05596267250931777 0.0047079472344879305 0.02354158920434759
0.100041684035 0.005032185667292785 0.02523556867518326 0.9938278008003345 -0.05979701590548399 0.0013289089062241033 0.011500356360625895 -0.0011315554317219334 -0.007384755478900777
 0.9938278008003345 -0.05979701590548399 0.00503935046251251 0.02523501566020873 -0.001131989433219403 -0.007384731658581059 0.001283424311243758 0.011506177831095143
 0.0013289089062241033 0.011500356360625895 -0.001131989433219403 -0.007384731658581059 0.005032158255039822 0.025236881500846603 0.9938278528338087 -0.05979567764290478
 -0.0011315554317219334 -0.007384755478900777 0.001283424311243758 0.011506177831095143 0.9938278528338087 -0.05979567764290478 0.0050394746544656375 0.02523634193447316
0.1059090909091 0.005356302084197142 0.026838679131205752 0.9933995918365018 -0.06340537246255878 0.0014629972867166298 0.012177933102991955 -0.0012439259573587206 -0.00782307990978339
 0.9933995918365018 -0.06340537246255878 0.0053643309832187335 0.02683806570683506 -0.0012444111474230884 -0.007823050508101188 0.0014119910020840467 0.012184597205283193
 0.0014629972867166298 0.012177933102991955 -0.0012444111474230884 -0.007823050508101188 0.005356271229221401 0.02684006649672666 0.9933996499850769 -0.06340395518161268
 -0.0012439259573587206 -0.00782307990978339 0.0014119910020840467 0.012184597205283193 0.9933996499850769 -0.06340395518161268 0.005364469334889991 0.026839468436419628
0.1062942892872 0.005378054348614648 0.026944352670904902 0.9933708630600362 -0.06364264648167847 0.0014720418818448778 0.012222412341387316 -0.001251505716989211 -0.007851859179745553
 0.9933708630600362 -0.06364264648167847 0.005386141701800095 0.026943735148914277 -0.0012519943632588217 -0.007851829389024937 0.0014206619095209851 0.012229134462756709
 0.0014720418818448778 0.012222412341387316 -0.0012519943632588217 -0.007851829389024937 0.0053780232605875255 0.026945744917725386 0.9933709216225641 -0.06364122400866637
 -0.001251505716989211 -0.007851859179745553 0.0014206619095209851 0.012229134462756709 0.9933709216225641 -0.06364122400866637 0.005386281007501917 0.02694514289024811
0.11254689453939999 0.005739394109224397 0.028666969439206724 0.9928938205743808 -0.06750067447030425 0.0016230409173334148 0.012944299913391253 -0.0013780548256011138 -0.008319025018301281
 0.9928938205743808 -0.06750067447030425 0.005748460056327055 0.02866628308461954 -0.0013786012134629965 -0.00831898850987705 0.0015654022325200963 0.012952011946944142
 0.0016230409173334148 0.012944299913391253 -0.0013786012134629965 -0.00831898850987705 0.005739359116995101 0.02866844068523763 0.9928938860767716 -0.0674991676550627
 -0.0013780548256011138 -0.008319025018301281 0.0015654022325200963 0.012952011946944142 0.9928938860767716 -0.0674991676550627 0.005748615265925593 0.028667772024168942
0.11879949979160001 0.006116452592210425 0.030403198968896226 0.9923964300858947 -0.07137094733219553 0.001781967294334696 0.013665912123681881 -0.0015112651380140873 -0.008786148910767426
 0.9923964300858947 -0.07137094733219553 0.006126553246252797 0.030402439315353406 -0.0015118723406261276 -0.008786104900555619 0.0017177060386596918 0.013674707911094857
 0.001781967294334696 0.013665912123681881 -0.0015118723406261276 -0.008786104900555619 0.006116413464562688 0.03040474877348844 0.9923965029441938 -0.07136935603167989
 -0.0015112651380140873 -0.008786148910767426 0.0017177060386596918 0.013674707911094857 0.9923965029441938 -0.07136935603167989 0.006126725136506064 0.03040400916754434
0.1250521050438 0.006509476093180774 0.03215282043343927 0.9918784492863503 -0.07525330459211825 0.0019488806953643016 0.014387139734564569 -0.0016511974194178707 -0.009253124922990835
 0.9918784492863503 -0.07525330459211825 0.0065206676536752215 0.03215198287109824 -0.0016518684859840606 -0.00925307259013514 0.0018776325400109784 0.014397117744324889
 0.0019488806953643016 0.014387139734564569 -0.0016518684859840606 -0.00925307259013514 0.006509432595730421 0.0321544483357247 0.9918785299233247 -0.07525162865358258
 -0.0016511974194178707 -0.009253124922990835 0.0018776325400109784 0.014397117744324889 0.9918785299233247 -0.07525162865358258 0.0065208569882617435 0.032153633332099904
0.131304710296 0.0069187094828700975 0.03391561162837446 0.991339636930661 -0.07914757837158579 0.0021238391397935576 0.0151078712709581 -0.0017979107618402343 -0.00971984525281784
 0.991339636930661 -0.07914757837158579 0.006931048245997718 0.0339146914007936 -0.0017986487173804455 -0.009719783739704788 0.0020452393405226976 0.015119134644179882
 0.0021238391397935576 0.0151078712709581 -0.0017986487173804455 -0.009719783739704788 0.006918661377299664 0.03391731714798101 0.9913397257758194 -0.079145817632039
 -0.0017979107618402343 -0.00971984525281784 0.0020452393405226976 0.015119134644179882 0.9913397257758194 -0.079145817632039 0.006931255775035362 0.0339164221491982
0.1375573155481 0.0072467331645666355 0.03546203536720315 0.9908774464012886 -0.08282420389453765 0.002284077750779698 0.015804960022809476 -0.0019287353573408743 -0.010163112597784636
 0.9908774464012886 -0.08282420389453765 0.007260278726564794 0.03546104754104283 -0.0019295444393567227 -0.010163041879432167 0.0021979459139827976 0.01581748676539415
 0.002284077750779698 0.015804960022809476 -0.0019295444393567227 -0.010163041879432167 0.007246679343172372 0.035463818592095235 0.9908775438279019 -0.08282235827417717
 -0.0019287353573408743 -0.010163112597784636 0.0021979459139827976 0.01581748676539415 0.9908775438279019 -0.08282235827417717 0.007260506169486933 0.035462857815221106
0.1438099208003 0.007586177688307335 0.037000965728517715 0.9903992264874169 -0.0864921529120654 0.0024507990204350313 0.01649952558458271 -0.002064798001992493 -0.010604098962375052
 0.9903992264874169 -0.0864921529120654 0.0076009869575739955 0.03699990678270025 -0.0020656814193317466 -0.01060401820585207 0.002356803167370797 0.016513409446093124
 0.0024507990204350313 0.01649952558458271 -0.0020656814193317466 -0.01060401820585207 0.007586117749489861 0.03700282621848852 0.9903993329226972 -0.08649022225319475
 -0.002064798001992493 -0.010604098962375052 0.002356803167370797 0.016513409446093124 0.9903993329226972 -0.08649022225319475 0.007601235221430424 0.037001796193502065
0.1500625260525 0.007936931930177976 0.03853229314870932 0.9899050917713648 -0.0901513534449029 0.0026239506381499854 0.01719150709399274 -0.0022060485425019092 -0.0110427476935955
 0.9899050917713648 -0.0901513534449029 0.007953061922190306 0.03853115936142236 -0.0022070094955254113 -0.011042656032981978 0.0025217605364967377 0.0172068452361102
 0.0026239506381499854 0.01719150709399274 -0.0022070094955254113 -0.011042656032981978 0.007936865458102 0.038534230446859545 0.9899052076481432 -0.09014933758503203
 -0.0022060485425019092 -0.0110427476935955 0.0025217605364967377 0.0172068452361102 0.9899052076481432 -0.09014933758503203 0.007953331912783647 0.03853312750110423
0.15631513130469998 0.008298884080939945 0.040055911463592386 0.9893951573022725 -0.09380173339460818 0.0028034797320826022 0.017880844625066512 -0.0023524362622398907 -0.01147900326659481
