! Created with skrf 1.8.0 (http://scikit-rf.org).
# GHz S RI R 50.0 
!freq ReS11 ImS11 ReS12 ImS12 ReS13 ImS13
! ReS14 ImS14
! ReS21 ImS21 ReS22 ImS22 ReS23 ImS23
! ReS24 ImS24
! ReS31 ImS31 ReS32 ImS32 ReS33 ImS33
! ReS34 ImS34
! ReS41 ImS41 ReS42 ImS42 ReS43 ImS43
! ReS44 ImS44
!
0.0 0.001791805284605 0.0 0.9982081947087 0.0 6.950087527145e-05 0.0 -6.950087389514e-05 8.511402275362704e-21
 0.9982081947087 0.0 0.00179180528458 0.0 -6.950087389524e-05 8.51140227537495e-21 6.950087527223e-05 0.0
 6.950087527145e-05 0.0 -6.950087389524e-05 8.51140227537495e-21 0.001791805287805 0.0 0.9982081947119 0.0
 -6.950087389514e-05 8.511402275362704e-21 6.950087527223e-05 0.0 0.9982081947119 0.0 0.001791805287776 0.0
0.005 0.0019286477270709797 0.001465625319083768 0.9980349251153469 -0.0037524056223072213 9.783043719789467e-05 0.0007627637537187791 -9.490984620424209e-05 -0.0004791539539222456
 0.9980349251153469 -0.0037524056223072213 0.0019286721709690555 0.0014656110896159246 -9.491181555909962e-05 -0.00047915550883959626 9.767482332849527e-05 0.0007628231340729833
 9.783043719789467e-05 0.0007627637537187791 -9.491181555909962e-05 -0.00047915550883959626 0.0019286461164306108 0.0014655590253148131 0.9980349247384948 -0.003752472686888841
 -9.490984620424209e-05 -0.0004791539539222456 9.767482332849527e-05 0.0007628231340729833 0.9980349247384948 -0.003752472686888841 0.0019286730307627503 0.0014655432550369455
0.006252605252188 0.0019647820628853536 0.0018377599823486371 0.9979888426085362 -0.004691384573526311 0.00010607129152378457 0.0009538086560929508 -0.00010219496956120811 -0.00059954618943862
 0.9979888426085362 -0.004691384573526311 0.001964820272523952 0.0018377418838067582 -0.00010219803367843087 -0.0005995481069110648 0.00010582816293641538 0.0009538858051008891
 0.00010607129152378457 0.0009538086560929508 -0.00010219803367843087 -0.0005995481069110648 0.0019647796177244036 0.0018376771468130177 0.9979888420923729 -0.004691468379500629
 -0.00010219496956120811 -0.00059954618943862 0.00010582816293641538 0.0009538858051008891 0.9979888420923729 -0.004691468379500629 0.001964821690002437 0.0018376571096949022
0.01250521050438 0.0021564253536560884 0.0037136250609532697 0.9977426345299818 -0.009383274526547485 0.00015410709805961932 0.001907857344354333 -0.00014412624018194652 -0.0012018307121418282
 0.9977426345299818 -0.009383274526547485 0.0021565779175131312 0.003713585715954726 -0.00014413831097743077 -0.001201834257068364 0.00015313763726400892 0.0019080435127736385
 0.00015410709805961932 0.001907857344354333 -0.00014413831097743077 -0.001201834257068364 0.002156416138855257 0.0037134596995968983 0.9977426330239552 -0.009383441916098243
 -0.00014412624018194652 -0.0012018307121418282 0.00015313763726400892 0.0019080435127736385 0.9977426330239552 -0.009383441916098243 0.002156584140762375 0.003713416324548627
0.01875781575657 0.0023672049390930944 0.005615741604810382 0.9974692282733045 -0.014087026870640116 0.00021372607633069585 0.0028627368915016137 -0.00019543393029198284 -0.0018059517311423015
 0.9974692282733045 -0.014087026870640116 0.002367547745079688 0.005615677632633175 -0.0001954608415908898 -0.0018059565508157533 0.0002115484869960969 0.0028630709412887476
 0.00021372607633069585 0.0028627368915016137 -0.0001954608415908898 -0.0018059565508157533 0.002367184641293505 0.005615493968376274 0.9974692253086704 -0.01408727773223673
 -0.00019543393029198284 -0.0018059517311423015 0.0002115484869960969 0.0028630709412887476 0.9974692253086704 -0.01408727773223673 0.0023675621650021427 0.0056154236405655715
0.02501042100875 0.0025975734831861874 0.007541383212301563 0.997168266821398 -0.01880485492919136 0.00028504774828718365 0.003818440123320091 -0.0002562516113689374 -0.0024115965875619073
 0.997168266821398 -0.01880485492919136 0.00259818226452091 0.007541291024237022 -0.0002562991243782348 -0.0024116022607132753 0.0002811802148630319 0.0038189677007885543
 0.00028504774828718365 0.003818440123320091 -0.0002562991243782348 -0.0024116022607132753 0.002597537795788183 0.00754105354677404 0.9971682619346045 -0.018805189206617213
 -0.0002562516113689374 -0.0024115965875619073 0.0002811802148630319 0.0038189677007885543 0.9971682619346045 -0.018805189206617213 0.0025982082792976235 0.007540952365290613
0.03126302626094 0.0028479647711667144 0.009489113411608354 0.9968393769878247 -0.02353766563776655 0.0003681915195489024 0.004774871211601418 -0.0003267082655831606 -0.003018532388241564
 0.9968393769878247 -0.02353766563776655 0.002848915151405455 0.009488989215967407 -0.0003267820809162971 -0.0030185384243959024 0.0003621517847513526 0.004775644787205529
 0.0003681915195489024 0.004774871211601418 -0.0003267820809162971 -0.0030185384243959024 0.002847909382378945 0.00948870200651203 0.996839369709312 -0.023538083282255318
 -0.0003267082655831606 -0.003018532388241564 0.0003621517847513526 0.004775644787205529 0.996839369709312 -0.023538083282255318 0.0028489561571985117 0.009488565788874161
0.037515631513130004 0.0031188024613841444 0.011457970315234722 0.9964821785656911 -0.028285874836590463 0.00046327538602863215 0.005731898606439707 -0.00040692917800894194 -0.0036265531028922995
 0.9964821785656911 -0.028285874836590463 0.0031201699872594186 0.011457810119419915 -0.0004070349418567037 -0.0036265589422527353 0.00045458057706803556 0.005732977540284476
 0.00046327538602863215 0.005731898606439707 -0.0004070349418567037 -0.0036265589422527353 0.0031187230632206183 0.011457477487970658 0.9964821684285392 -0.02828637582316655
 -0.00040692917800894194 -0.0036265531028922995 0.00045458057706803556 0.005732977540284476 0.9964821684285392 -0.02828637582316655 0.00312022938748866 0.011457301771362794
0.043768236765320004 0.0034105034572046067 0.013447218459795794 0.9960962880999413 -0.03304965536572992 0.0005704152961086272 0.006689371153679525 -0.0004970362410898901 -0.004235463485394274
 0.9960962880999413 -0.03304965536572992 0.0034123636248998275 0.013447018071310341 -0.0004971795487194876 -0.004235468498833219 0.0005585818573041265 0.006690821768761924
 0.0005704152961086272 0.006689371153679525 -0.0004971795487194876 -0.004235468498833219 0.003410395741873613 0.013446644575841027 0.9960962746365688 -0.033050239673732267
 -0.0004970362410898901 -0.004235463485394274 0.0005585818573041265 0.006690821768761924 0.9960962746365688 -0.033050239673732267 0.0034124448272957186 0.0134464246170157
0.050020842017509996 0.0037234794451473127 0.015456246266012162 0.9956813208336275 -0.03782903953988835 0.0006897247641746534 0.007647124748009396 -0.000597148029297389 -0.004845072466832459
 0.9956813208336275 -0.03782903953988835 0.0037259077240335728 0.015456001292471678 -0.0005973344273544081 -0.004845075955943299 0.0006742684466969362 0.007649020406419746
 0.0006897247641746534 0.007647124748009396 -0.0005973344273544081 -0.004845075955943299 0.003723339105613737 0.015455591738042054 0.9956813035754862 -0.03782970715450177
 -0.000597148029297389 -0.004845072466832459 0.0006742684466969362 0.007649020406419746 0.9956813035754862 -0.03782970715450177 0.0037260141405919454 0.015455322512309846
0.055454545454549996 0.0040130593410319364 0.017217796676050896 0.9952967888564483 -0.041995097969753696 0.0008033775917691281 0.008479535144083188 -0.0006923628584877327 -0.005375260832857083
 0.9952967888564483 -0.041995097969753696 0.004016042612508226 0.017217509233665686 -0.0006925911713592517 -0.005375262376336763 0.0007843790930817287 0.008481882662602696
 0.0008033775917691281 0.008479535144083188 -0.0006925911713592517 -0.005375262376336763 0.004012887153035579 0.017217072436315813 0.995296767918877 -0.04199583797492582
 -0.0006923628584877327 -0.005375260832857083 0.0007843790930817287 0.008481882662602696 0.995296767918877 -0.04199583797492582 0.004016173714836609 0.01721675609538244
0.056273447269699996 0.00405813765802561 0.017484515723708075 0.9952368918844988 -0.042623969403111264 0.0008213145773282689 0.008604985632029103 -0.0007073797895027033 -0.0054551899105468584
 0.9952368918844988 -0.042623969403111264 0.004061209513595304 0.017484221571905573 -0.0007076147775103603 -0.005455191107717422 0.0008017504632946155 0.008607406812118457
 0.0008213145773282689 0.008604985632029103 -0.0007076147775103603 -0.005455191107717422 0.0040579603884800764 0.017483781012127286 0.9952368703617043 -0.042624720315618286
 -0.0007073797895027033 -0.0054551899105468584 0.0008017504632946155 0.008607406812118457 0.9952368703617043 -0.042624720315618286 0.004061344560298896 0.017483457211286673
0.06252605252188 0.004414881259336537 0.019531534727212994 0.9947626170481583 -0.04743432434009712 0.0009652925594560946 0.009562772207649103 -0.0008278433771934882 -0.006065624863436032
 0.9947626170481583 -0.04743432434009712 0.004418672174303001 0.01953118660156486 -0.0008281324084938711 -0.006065622931928796 0.0009411351094162511 0.009565806581182118
 0.0009652925594560946 0.009562772207649103 -0.0008281324084938711 -0.006065622931928796 0.004414662755943921 0.01953072033631484 0.9947625907898165 -0.047435158552488574
 -0.0008278433771934882 -0.006065624863436032 0.0009411351094162511 0.009565806581182118 0.9947625907898165 -0.047435158552488574 0.004418839271423251 0.01953033636598425
0.06877865777407 0.004794109515047823 0.021596840592775415 0.994258113395083 -0.05225993751458643 0.0011217633644198598 0.010520296140504507 -0.0009586471651056133 -0.006676184523240163
 0.994258113395083 -0.05225993751458643 0.004798695010555491 0.021596433492838952 -0.0009589956474763991 -0.00667617855728599 0.0010925264811590598 0.010524038649286416
 0.0011217633644198598 0.010520296140504507 -0.0009589956474763991 -0.00667617855728599 0.004793845476036968 0.02159594708257231 0.9942580819286371 -0.0522608550284513
 -0.0009586471651056133 -0.006676184523240163 0.0010925264811590598 0.010524038649286416 0.9942580819286371 -0.0522608550284513 0.004798897582033894 0.02159549705852375
0.07503126302626001 0.005196217842806448 0.023679989622140137 0.9937229997504229 -0.057100606271173984 0.0012908282848804159 0.011477363077381267 -0.0010998959364356335 -0.007286673602265845
 0.9937229997504229 -0.057100606271173984 0.005201673499473454 0.023679518339421005 -0.0011003092325202496 -0.007286662627150446 0.0012560253897402646 0.011481916008969167
 0.0012908282848804159 0.011477363077381267 -0.0011003092325202496 -0.007286662627150446 0.0051959039698243085 0.023679017602149677 0.9937229626015482 -0.057101607094495375
 -0.0010998959364356335 -0.007286673602265845 0.0012560253897402646 0.011481916008969167 0.9937229626015482 -0.057101607094495375 0.005201914972833482 0.023678495346080092
0.08128386827845 0.005621597782316712 0.025780550167039246 0.9931568970994181 -0.061956099046706146 0.0014725850742857423 0.012433773134033705 -0.0012516907648214071 -0.00789689393049319
 0.9931568970994181 -0.061956099046706146 0.005627999261036363 0.025780009280852494 -0.0012521741923288785 -0.007896876902664444 0.0014317291935197199 0.012439246196118154
 0.0014725850742857423 0.012433773134033705 -0.0012521741923288785 -0.007896876902664444 0.005621229780488631 0.025779500295554987 0.9931568537916786 -0.061957183195437644
 -0.0012516907648214071 -0.00789689393049319 0.0014317291935197199 0.012439246196118154 0.9931568537916786 -0.061957183195437644 0.005628283066450371 0.025778899329830803
0.08753647353064001 0.006070636912959961 0.0278980978337466 0.9925594289457125 -0.0668261601528449 0.0016671277746500971 0.013389321260099755 -0.0014141288885842222 -0.008506644191462995
 0.9925594289457125 -0.0668261601528449 0.006078059975453793 0.02789748170637082 -0.001414687720311634 -0.008506619998634281 0.001619731633709318 0.013395831653660506
 0.0016671277746500971 0.013389321260099755 -0.001414687720311634 -0.008506619998634281 0.00607021049201311 0.0278969708235553 0.9925593790003364 -0.06682732764571886
 -0.0014141288885842222 -0.008506644191462995 0.001619731633709318 0.013395831653660506 0.9925593790003364 -0.06682732764571886 0.006078389545967013 0.02789628436525677
0.09378907878283 0.006543718735954424 0.03003221208024597 0.9919302216380682 -0.0717105131775043 0.0018745465502825165 0.014343797509968679 -0.0015873035787115194 -0.009115719762649984
 0.9919302216380682 -0.0717105131775043 0.0065522392655335444 0.030031514851155055 -0.00158794304252541 -0.009115687223915722 0.0018201226751725962 0.014351470000624122
 0.0018745465502825165 0.014343797509968679 -0.00158794304252541 -0.009115687223915722 0.006543229610881283 0.030031008700157246 0.9919301645737346 -0.07171176403523863
 -0.0015873035787115194 -0.009115719762649984 0.0018201226751725962 0.014351470000624122 0.9919301645737346 -0.07171176403523863 0.006552618036340401 0.030030229654238235
0.100041684035 0.0070412225298109865 0.032182473731098435 0.991268904675036 -0.07660886348062308 0.0020949275252176245 0.015296987268806371 -0.0017713040035679077 -0.009723912610920865
 0.991268904675036 -0.07660886348062308 0.007050916552224171 0.032181689310278795 -0.0017720292822320308 -0.009723870476888205 0.002032988349579944 0.015305954256571304
 0.0020949275252176245 0.015296987268806371 -0.0017720292822320308 -0.009723870476888205 0.007040666421683859 0.032181194798264576 0.9912688400073872 -0.0766101977341519
 -0.0017713040035679077 -0.009723912610920865 0.002032988349579944 0.015305954256571304 0.9912688400073872 -0.0766101977341519 0.007051347960393728 0.03218031574979773
0.1059090909091 0.007530622598606731 0.03421457827966699 0.9906187984464421 -0.08121789927052557 0.002313593706409469 0.016190089594528917 -0.001953890483584776 -0.010293645913482306
 0.9906187984464421 -0.08121789927052557 0.00754148710941097 0.03421370628875325 -0.001954700963772634 -0.010293593578054518 0.002244158798714556 0.01620039860705804
 0.002313593706409469 0.016190089594528917 -0.001954700963772634 -0.010293593578054518 0.007529999748941904 0.034213229244016485 0.9906187262010254 -0.08121931181085361
 -0.001953890483584776 -0.010293645913482306 0.002244158798714556 0.01620039860705804 0.9906187262010254 -0.08121931181085361 0.007541971039437582 0.034212249317459364
0.1062942892872 0.007563523186971292 0.03434846310818266 0.9905751109937656 -0.08152090008642413 0.002328352623160607 0.016248671435843545 -0.0019662150912012253 -0.010331011241592022
 0.9905751109937656 -0.08152090008642413 0.0075744668912561715 0.034347585168530065 -0.0019670313222515563 -0.010330958194493266 0.002258410600815541 0.01625907302284219
 0.002328352623160607 0.016248671435843545 -0.0019670313222515563 -0.010330958194493266 0.007562895824245064 0.03434710949782261 0.9905750382358309 -0.08152231776789452
 -0.0019662150912012253 -0.010331011241592022 0.002258410600815541 0.01625907302284219 0.9905750382358309 -0.08152231776789452 0.007574954375351197 0.03434612270337562
0.11254689453939999 0.00811099103625646 0.03652975862869382 0.9898484772494756 -0.0864462971212651 0.0025748994102583844 0.017198626591780543 -0.002172117389818487 -0.010936800673985883
 0.9898484772494756 -0.0864462971212651 0.008123260795488623 0.03652878059751736 -0.0021730296651420442 -0.010936735327833649 0.002496467132463876 0.01721061064802283
 0.0025748994102583844 0.017198626591780543 -0.0021730296651420442 -0.010936735327833649 0.008110288154891239 0.03652833127247776 0.9898483959105546 -0.08644779826608237
 -0.002172117389818487 -0.010936800673985883 0.002496467132463876 0.01721061064802283 0.9898483959105546 -0.08644779826608237 0.008123807794815219 0.03652722865057027
0.11879949979160001 0.00868399165331573 0.03872593572398124 0.9890886440840849 -0.09138471494341958 0.002834640939565908 0.01814662514492792 -0.0023890869272705628 -0.011541062449277736
 0.9890886440840849 -0.09138471494341958 0.008697664045668678 0.03872485077354204 -0.002390100292965192 -0.01154098334999817 0.0027472312565361566 0.018160347371914826
 0.002834640939565908 0.01814662514492792 -0.002390100292965192 -0.01154098334999817 0.00868320899853165 0.03872443560576111 0.9890885536703196 -0.0913862995951731
 -0.0023890869272705628 -0.011541062449277736 0.0027472312565361566 0.018160347371914826 0.9890885536703196 -0.0913862995951731 0.008698274000072177 0.03872320872642277
0.1250521050438 0.009282885663272993 0.04093656598623483 0.9882952563915877 -0.09633580105860667 0.003107645597938048 0.019092435471409326 -0.0026171950699226793 -0.012143574655440184
 0.9882952563915877 -0.09633580105860667 0.009298037492696821 0.040935367023224416 -0.0026183145257676786 -0.012143480281029075 0.003010771744423235 0.019108059463450434
 0.003107645597938048 0.019092435471409326 -0.0026183145257676786 -0.012143480281029075 0.009282018989976146 0.040934994150114576 0.9882951564048231 -0.09633746926143223
 -0.0026171950699226793 -0.012143574655440184 0.003010771744423235 0.019108059463450434 0.9882951564048231 -0.09633746926143223 0.009298713841969316 0.04093363422339679
0.131304710296 0.00990802853546796 0.04316121651550671 0.987467963575986 -0.10129919084854429 0.003393976954278661 0.020035822048436878 -0.00285650838158155 -0.01274411197015437
 0.987467963575986 -0.10129919084854429 0.009924736853086695 0.043159896169581234 -0.002857738880742715 -0.012744000730877236 0.0032871526789275624 0.02005351935160142
 0.003393976954278661 0.020035822048436878 -0.002857738880742715 -0.012744000730877236 0.009907073609654562 0.043159574058753626 0.9874678535144705 -0.10130094265477595
 -0.00285650838158155 -0.01274411197015437 0.0032871526789275624 0.02005351935160142 0.9874678535144705 -0.10130094265477595 0.009925483036283577 0.04315807192231839
0.1375573155481 0.010424810422100151 0.04511043227036735 0.9867414467760615 -0.10598532205872675 0.0036604571186725793 0.020948918430903435 -0.003073975488216407 -0.013314746080307598
 0.9867414467760615 -0.10598532205872675 0.010443159264453283 0.045109012198429284 -0.0030753245507362855 -0.013314617669435213 0.0035434363832493694 0.02096867894088145
 0.0036604571186725793 0.020948918430903435 -0.0030753245507362855 -0.013314617669435213 0.010423763830488915 0.04510871993879804 0.9867413261833617 -0.10598715744583319
 -0.003073975488216407 -0.013314746080307598 0.0035434363832493694 0.02096867894088145 0.9867413261833617 -0.10598715744583319 0.01044397781256192 0.04510709603373346
0.1438099208003 0.010960011328057222 0.04704777815437839 0.9859888781483801 -0.11065793381321276 0.0039376510023070846 0.021857212389269562 -0.0033000634422979086 -0.013881040047610944
 0.9859888781483801 -0.11065793381321276 0.010980079135442909 0.0470462525818007 -0.0033015364158719873 -0.013880892878559257 0.0038099915681303444 0.021879194553704868
 0.0039376510023070846 0.021857212389269562 -0.0033015364158719873 -0.013880892878559257 0.010958868997989072 0.04704599703821616 0.9859887465271184 -0.11065985281907534
 -0.0033000634422979086 -0.013881040047610944 0.0038099915681303444 0.021879194553704868 0.9859887465271184 -0.11065985281907534 0.010980973322019675 0.04704424381019356
0.1500625260525 0.01151341688669025 0.04897304461036761 0.9852104770518763 -0.11531686091401815 0.00422544595493323 0.022760575533340873 -0.0035346640900151996 -0.014442876455308186
 0.9852104770518763 -0.11531686091401815 0.011535282368746362 0.04897140737884629 -0.003536266308304214 -0.014442708877022979 0.004086708826557135 0.02278494358473479
 0.00422544595493323 0.022760575533340873 -0.003536266308304214 -0.014442708877022979 0.011512174764790514 0.04897119584063322 0.9852103339018582 -0.1153188635785394
 -0.0035346640900151996 -0.014442876455308186 0.004086708826557135 0.02278494358473479 0.9852103339018582 -0.1153188635785394 0.011536255455974592 0.048969305282233984
0.15631513130469998 0.012084810900506395 0.05088602834986278 0.9844064643013887 -0.11996193987509024 0.004523727800693994 0.0236588820374805 -0.0037776677809217016 -0.015000140700865045
 0.9844064643013887 -0.11996193987509024 0.012108553042943997 0.05088427290452428 -0.0037794045632008177 -0.014999950998135676 0.004373477283879505 0.023685805922833415
