! Created with skrf 1.8.0 (http://scikit-rf.org).
# GHz S RI R 50.0 
!freq ReS11 ImS11 ReS12 ImS12 ReS13 ImS13
! ReS14 ImS14
! ReS21 ImS21 ReS22 ImS22 ReS23 ImS23
! ReS24 ImS24
! ReS31 ImS31 ReS32 ImS32 ReS33 ImS33
! ReS34 ImS34
! ReS41 ImS41 ReS42 ImS42 ReS43 ImS43
! ReS44 ImS44
!
0.0 0.001685907347952 0.0 0.9983140926293 0.0 6.526030406775e-05 0.0 -6.526030397866e-05 7.992082237884925e-21
 0.9983140926293 0.0 0.001685907347968 0.0 -6.526030397892e-05 7.992082237916766e-21 6.526030406754e-05 0.0
 6.526030406775e-05 0.0 -6.526030397892e-05 7.992082237916766e-21 0.001685907359328 0.0 0.9983140926407 0.0
 -6.526030397866e-05 7.992082237884925e-21 6.526030406754e-05 0.0 0.9983140926407 0.0 0.001685907359326 0.0
0.005 0.0018143452149212704 0.0013789716434866282 0.9981515330559247 -0.003530996033306373 9.166295737028933e-05 0.0007182988975730799 -8.899743287779303e-05 -0.00045091029072773296
 0.9981515330559247 -0.003530996033306373 0.0018143499325813902 0.0013789689107149262 -8.899924302871124e-05 -0.00045091172222002496 9.16272082925513e-05 0.0007183125204089855
 9.166295737028933e-05 0.0007182988975730799 -8.899924302871124e-05 -0.00045091172222002496 0.0018143437077221844 0.0013789052950499505 0.9981515326892749 -0.0035310630988656853
 -8.899743287779303e-05 -0.00045091029072773296 9.16272082925513e-05 0.0007183125204089855 0.9981515326892749 -0.0035310630988656853 0.0018143507135372806 0.0013789011338906356
0.006252605252188 0.0018481640880698353 0.0017291195996319197 0.9981084400640481 -0.0044145870834326854 9.927464995767275e-05 0.0008982135279911446 -9.575854353036822e-05 -0.0005642125416594106
 0.9981084400640481 -0.0044145870834326854 0.0018481714624437161 0.0017291161203530918 -9.576135993997906e-05 -0.0005642143072252258 9.921879574003782e-05 0.0008982312246055322
 9.927464995767275e-05 0.0008982135279911446 -9.576135993997906e-05 -0.0005642143072252258 0.0018481617989818742 0.0017290366926278008 0.9981084395581459 -0.004414670895606443
 -9.575854353036822e-05 -0.0005642125416594106 9.921879574003782e-05 0.0008982312246055322 0.9981084395581459 -0.004414670895606443 0.001848172751008636 0.0017290314161799824
0.01250521050438 0.002026970979401716 0.003494253280274615 0.9978790058238152 -0.008829822572692773 0.00014328822004886602 0.0017967285927411895 -0.000134437877246336 -0.0011310706813155939
 0.9978790058238152 -0.008829822572692773 0.00202700042112559 0.0034942456917739454 -0.00013444897227634807 -0.0011310739500144053 0.00014306549380074975 0.0017967712347448663
 0.00014328822004886602 0.0017967285927411895 -0.00013444897227634807 -0.0011310739500144053 0.002026962399432373 0.0034940878025535543 0.9978790043682878 -0.00882998997950516
 -0.000134437877246336 -0.0011310706813155939 0.00014306549380074975 0.0017967712347448663 0.9978790043682878 -0.00882998997950516 0.0020270061408138866 0.0034940764797317613
0.01875781575657 0.002222746541213539 0.005284271675237831 0.997625484769213 -0.013256419349856597 0.00019740735531902553 0.0026961232168190765 -0.0001814230751262427 -0.0016997387273784239
 0.997625484769213 -0.013256419349856597 0.0022228126898530417 0.005284259324827588 -0.00018144781134451889 -0.0016997431831674624 0.00019690704654281451 0.0026961995666316195
 0.00019740735531902553 0.0026961232168190765 -0.00018144781134451889 -0.0016997431831674624 0.0022227276712020404 0.005284023911935707 0.9976254819144093 -0.013256670269598349
 -0.0001814230751262427 -0.0016997387273784239 0.00019690704654281451 0.0026961995666316195 0.9976254819144093 -0.013256670269598349 0.0022228259787158595 0.005284005678782273
0.02501042100875 0.0024358952349035424 0.007096634965795509 0.9973475589675205 -0.01769648695783013 0.00026173965636446206 0.0035964110113674824 -0.00023683425658399502 -0.0022699379178795164
 0.9973475589675205 -0.01769648695783013 0.00243601269640741 0.007096617183099883 -0.00023687793020097942 -0.002269943185650198 0.00026085103703270154 0.003596531297170141
 0.00026173965636446206 0.0035964110113674824 -0.00023687793020097942 -0.002269943185650198 0.0024358620862486185 0.0070963052296805496 0.9973475542683955 -0.017696821364585967
 -0.00023683425658399502 -0.0022699379178795164 0.00026085103703270154 0.003596531297170141 0.9973475542683955 -0.017696821364585967 0.002436036704425617 0.007096279136170612
0.03126302626094 0.0026668047692880283 0.00893001806247042 0.997044895344383 -0.022150906398770483 0.00033639280414191026 0.0044975223228018784 -0.0003007877416939144 -0.002841465281931554
 0.997044895344383 -0.022150906398770483 0.0026669881250228657 0.008929994160797088 -0.00030085559371963817 -0.002841470926898598 0.00033500503337246536 0.00449769824654414
 0.00033639280414191026 0.0044975223228018784 -0.00030085559371963817 -0.002841470926898598 0.002666753355718946 0.008929606713370012 0.9970448883523585 -0.02215132430339136
 -0.0003007877416939144 -0.002841465281931554 0.00033500503337246536 0.00449769824654414 0.9970448883523585 -0.02215132430339136 0.0026670260082128096 0.008929571724432742
0.037515631513130004 0.002915854123367363 0.010783543285258705 0.996717154025295 -0.026620097393347853 0.000421473492183829 0.005399354222803347 -0.0003733968714680112 -0.0034141436691948186
 0.996717154025295 -0.026620097393347853 0.002916117936762509 0.01078351256250756 -0.00037349409336218727 -0.0034141491967543598 0.00041947557811618897 0.005399598973888596
 0.000421473492183829 0.005399354222803347 -0.00037349409336218727 -0.0034141491967543598 0.002915780460904137 0.01078305074573112 0.9967171442875545 -0.02662059882849383
 -0.0003733968714680112 -0.0034141436691948186 0.00041947557811618897 0.005399598973888596 0.9967171442875545 -0.02662059882849383 0.0029161728581867602 0.010783005741368978
0.043768236765320004 0.0031834166310008615 0.012656546872783555 0.9963639917397906 -0.031104251800580966 0.0005170869106544667 0.006301785717043626 -0.00045477228946487377 -0.003987806562027672
 0.9963639917397906 -0.031104251800580966 0.0031837754525621833 0.012656508612087381 -0.0004549040265091614 -0.003987811417743727 0.0005143676965327656 0.006302113987670632
 0.0005170869106544667 0.006301785717043626 -0.0004549040265091614 -0.003987811417743727 0.003183316740729124 0.012655973628358564 0.9963639788004802 -0.031104836821123194
 -0.00045477228946487377 -0.003987806562027672 0.0005143676965327656 0.006302113987670632 0.9963639788004802 -0.031104836821123194 0.003183850585199954 0.01265591740333239
0.050020842017509996 0.003469861405861041 0.014548482482537522 0.995985063570663 -0.03560343004558231 0.000623336426516204 0.007204684035525663 -0.0005450220301517609 -0.004562291809888821
 0.995985063570663 -0.03560343004558231 0.0034703297783836348 0.01454843595264808 -0.0005451933835841387 -0.004562295379522532 0.000619784589817917 0.007205112036634305
 0.000623336426516204 0.007204684035525663 -0.0005451933835841387 -0.004562295379522532 0.0034697313136044816 0.014547829086439751 0.9959850469694627 -0.035604098724604086
 -0.0005450220301517609 -0.004562291809888821 0.000619784589817917 0.007205112036634305 0.9959850469694627 -0.035604098724604086 0.0034704283047480027 0.014547760349753983
0.055454545454549996 0.00373440933691109 0.016207635839918643 0.9956345701152631 -0.039525536623003114 0.0007243870250638134 0.007989599474346907 -0.0006307407707339996 -0.0050620798312681166
 0.9956345701152631 -0.039525536623003114 0.003734984720484722 0.016207581519132895 -0.0006309506617248785 -0.00506208173801744 0.0007200210832330756 0.00799012850118928
 0.0007243870250638134 0.007989599474346907 -0.0006309506617248785 -0.00506208173801744 0.003734249775508906 0.016206913288826473 0.9956345499540884 -0.03952627808040082
 -0.0006307407707339996 -0.0050620798312681166 0.0007200210832330756 0.00799012850118928 0.9956345499540884 -0.03952627808040082 0.0037351061694008854 0.01620683256354905
0.056273447269699996 0.0037755540564966407 0.016458873838972574 0.9955800239983507 -0.040117608402345996 0.0007403233506918817 0.008107907724032339 -0.0006442515202590905 -0.005137438567849621
 0.9955800239983507 -0.040117608402345996 0.0037761465195751175 0.01645881829465112 -0.000644467548712084 -0.005137440177416167 0.0007358274103436943 0.008108453201411962
 0.0007403233506918817 0.008107907724032339 -0.000644467548712084 -0.005137440177416167 0.003775389794173175 0.016458140910296508 0.9955800032699876 -0.04011836083362876
 -0.0006442515202590905 -0.005137438567849621 0.0007358274103436943 0.008108453201411962 0.9955800032699876 -0.04011836083362876 0.0037762716325640657 0.016458058284503346
0.06252605252188 0.004100857056852096 0.01838728867945595 0.995148527604871 -0.044646704983817016 0.0008681467474287076 0.009011308353397985 -0.0007525635371767546 -0.005713085623309154
 0.995148527604871 -0.044646704983817016 0.004101588151420338 0.018387223361524294 -0.0007528292576274483 -0.005713084539135272 0.0008625950761791981 0.009011990603702738
 0.0008681467474287076 0.009011308353397985 -0.0007528292576274483 -0.005713084539135272 0.004100654663137241 0.018386476907751238 0.99514850227807 -0.04464754127792233
 -0.0007525635371767546 -0.005713085623309154 0.0008625950761791981 0.009011990603702738 0.99514850227807 -0.04464754127792233 0.004101743054583863 0.018386378928078363
0.06877865777407 0.004446129925734927 0.02033332325506721 0.9946902295920496 -0.04919059518333336 0.0010069032680757994 0.009914731547594941 -0.0008700581416243826 -0.00628907041036549
 0.9946902295920496 -0.04919059518333336 0.004447014198228872 0.020333247390388755 -0.0008703785300440867 -0.0062890658391574 0.0010001841085671046 0.009915571434222784
 0.0010069032680757994 0.009914731547594941 -0.0008703785300440867 -0.0062890658391574 0.004445885446689228 0.02033243339944993 0.9946901991885044 -0.049191515469130136
 -0.0008700581416243826 -0.00628907041036549 0.0010001841085671046 0.009915571434222784 0.9946901991885044 -0.049191515469130136 0.00444720210561687 0.020332318512768857
0.07503126302626001 0.0048117292926189055 0.022296592490575504 0.994204786190884 -0.05374912146394827 0.0011566869987401716 0.010818017642207266 -0.0009968325948637713 -0.00686522840073984
 0.994204786190884 -0.05374912146394827 0.004812781299683414 0.02229650529187514 -0.0009972125866613425 -0.006865219489661633 0.0011486884827936708 0.01081903761086979
 0.0011566869987401716 0.010818017642207266 -0.0009972125866613425 -0.006865219489661633 0.0048114387841557815 0.02229562537886265 0.9942047502259045 -0.053750125890052375
 -0.0009968325948637713 -0.00686522840073984 0.0011486884827936708 0.01081903761086979 0.9942047502259045 -0.053750125890052375 0.004813005437494704 0.022295491942432317
0.08128386827845 0.005198008894517828 0.024276723438384756 0.993691855006501 -0.05832209986144519 0.0013175893171189896 0.011721002140269667 -0.001132981265864131 -0.007441392704497142
 0.993691855006501 -0.05832209986144519 0.005199243207035635 0.02427662410385602 -0.0011334257560667862 -0.007441378541249768 0.0013081994869095827 0.011722226234228765
 0.0013175893171189896 0.011721002140269667 -0.0011334257560667862 -0.007441378541249768 0.005197668422128385 0.024275679973073994 0.99369181298682 -0.05832318859082701
 -0.001132981265864131 -0.007441392704497142 0.0013081994869095827 0.011722226234228765 0.99369181298682 -0.05832318859082701 0.005199506813056765 0.024275526253196403
0.08753647353064001 0.005605319523786181 0.026273350775516097 0.9931510953180706 -0.06290932445260218 0.001489698754973005 0.012623516031173716 -0.001278595531269069 -0.00801739381509097
 0.9931510953180706 -0.06290932445260218 0.005606750731329525 0.026273238488290985 -0.001279109374724345 -0.008017373427990982 0.0014788055862500593 0.012624969906192473
 0.001489698754973005 0.012623516031173716 -0.001279109374724345 -0.008017373427990982 0.00560492516481635 0.026272231928675505 0.9931510467418876 -0.0629104976681119
 -0.001278595531269069 -0.00801739381509097 0.0014788055862500593 0.012624969906192473 0.9931510467418876 -0.0629104976681119 0.005607057055696801 0.026272056099194238
0.09378907878283 0.0060340089443548985 0.02828611357267847 0.9925821683517665 -0.0675105705597091 0.0016731008643597399 0.013525386038111115 -0.0014337636708091205 -0.008593059433629452
 0.9925821683517665 -0.0675105705597091 0.006035651659492722 0.028285987500135473 -0.0014343516821749627 -0.008593031791708394 0.001660592291311445 0.013527096976842904
 0.0016731008643597399 0.013525386038111115 -0.0014343516821749627 -0.008593031791708394 0.006033556788758358 0.02828492038920603 0.9925821127080171 -0.06751182846139031
 -0.0014337636708091205 -0.008593059433629452 0.001660592291311445 0.013527096976842904 0.9925821127080171 -0.06751182846139031 0.006036003964734849 0.028284720529717772
0.100041684035 0.006484421783122228 0.030314652942678003 0.9919847375329757 -0.07212559708483506 0.0018678780867711045 0.014426434808974996 -0.001598570759092562 -0.009168214357346379
 0.9919847375329757 -0.07212559708483506 0.0064862906458995695 0.03031451223550929 -0.0015992377127881392 -0.009168178370439524 0.0018536420280555951 0.014428431735020703
 0.0018678780867711045 0.014426434808974996 -0.0015992377127881392 -0.009168178370439524 0.006483907935080385 0.030313386541405102 0.9919846743000207 -0.07212693988913031
 -0.001598570759092562 -0.009168214357346379 0.0018536420280555951 0.014428431735020703 0.9919846743000207 -0.07212693988913031 0.0064866922075047075 0.0303131606355287
0.1059090909091 0.006927147799764658 0.03223225116067003 0.9913978904566426 -0.07646861549190974 0.0020610719870977835 0.015271065182893622 -0.00176206412364431 -0.009707313102147114
 0.9913978904566426 -0.07646861549190974 0.0069292422213583565 0.03223209593218842 -0.0017628094626511682 -0.009707268240224262 0.002045112939855748 0.015273358257006308
 0.0020610719870977835 0.015271065182893622 -0.0017628094626511682 -0.009707268240224262 0.006926572530543409 0.0322309171360222 0.9913978196181862 -0.07647003817983394
 -0.00176206412364431 -0.009707313102147114 0.002045112939855748 0.015273358257006308 0.9913978196181862 -0.07647003817983394 0.006929692995801343 0.03223066486704953
0.1062942892872 0.006956899404949952 0.0323586102726486 0.9913584687250159 -0.07675414826940583 0.0020741096244087033 0.015326481072160399 -0.0017730985545410147 -0.009742680411358185
 0.9913584687250159 -0.07675414826940583 0.0069590090873063466 0.032358454063747016 -0.0017738491846187722 -0.009742634930208282 0.002058034010657312 0.01532879456355962
 0.0020741096244087033 0.015326481072160399 -0.0017738491846187722 -0.009742634930208282 0.006956319984327345 0.0323572718467893 0.9913583973705876 -0.07675557620914379
 -0.0017730985545410147 -0.009742680411358185 0.002058034010657312 0.01532879456355962 0.9913583973705876 -0.07675557620914379 0.006959463194256205 0.0323570177799466
0.11254689453939999 0.007451779775033326 0.034417625887461695 0.9907030304591246 -0.08139595503209106 0.0022918713128098483 0.01622533977294304 -0.0019574253869639293 -0.01031627640778582
 0.9907030304591246 -0.08139595503209106 0.007454144984775513 0.03441745329070708 -0.0019582643868897784 -0.010316220224163111 0.002273844114905418 0.016228002075253146
 0.0022918713128098483 0.01622533977294304 -0.0019582643868897784 -0.010316220224163111 0.007451130918283089 0.034416216703042714 0.9907029504393158 -0.08139746835832751
 -0.0019574253869639293 -0.01031627640778582 0.002273844114905418 0.016228002075253146 0.9907029504393158 -0.08139746835832751 0.007454654939385821 0.03441593226034417
0.11879949979160001 0.007969397308447793 0.036491338005352814 0.9900180941557768 -0.0860507360242453 0.0025212354951117295 0.017122822193014878 -0.0021516260430498152 -0.010888818130208639
 0.9900180941557768 -0.0860507360242453 0.007972032794178891 0.036491148114071593 -0.002152558065570669 -0.0108887499770204 0.0025011447537688354 0.01712586723172015
 0.0025212354951117295 0.017122822193014878 -0.002152558065570669 -0.0108887499770204 0.007968675170601427 0.036489859404675536 0.9900180049139222 -0.0860523350030075
 -0.0021516260430498152 -0.010888818130208639 0.0025011447537688354 0.01712586723172015 0.9900180049139222 -0.0860523350030075 0.007972601912645795 0.036489542268494456
0.1250521050438 0.008510082714078167 0.038579381929034436 0.9893033343414569 -0.09071819845987716 0.002762270896986615 0.0180187360591385 -0.002355771651911117 -0.011460118337296796
 0.9893033343414569 -0.09071819845987716 0.00851300326929024 0.03857917381437612 -0.002356801308681809 -0.011460036888710045 0.002740004753182037 0.018022199451570065
 0.002762270896986615 0.0180187360591385 -0.002356801308681809 -0.011460036888710045 0.008509283469878467 0.038577835328454255 0.9893032353078622 -0.09071988337466998
 -0.002355771651911117 -0.011460118337296796 0.002740004753182037 0.018022199451570065 0.9893032353078622 -0.09071988337466998 0.008513634882308413 0.03857748307575458
0.131304710296 0.009074162830968627 0.040681389400812236 0.9885584288617705 -0.09539803879180142 0.003015042503312511 0.01891288564617261 -0.0025699295691226152 -0.012029986780614071
 0.9885584288617705 -0.09539803879180142 0.00907738329869934 0.040681162109781795 -0.0025710614304950896 -0.012029890652195485 0.0029904892293426567 0.018916804712871063
 0.003015042503312511 0.01891288564617261 -0.0025710614304950896 -0.012029890652195485 0.00907328267668602 0.04067977629087619 0.9885583194527275 -0.09539980994348107
 -0.0025699295691226152 -0.012029986780614071 0.0029904892293426567 0.018916804712871063 0.9885583194527275 -0.09539980994348107 0.009078080751136376 0.04067938639053089
0.1375573155481 0.009537354347886835 0.04252352448786331 0.9879077223323026 -0.09981632948114695 0.003249136186719617 0.019778383845701547 -0.002763719032333907 -0.01257153975990819
 0.9879077223323026 -0.09981632948114695 0.009540891429018147 0.042523283069742505 -0.0027649600192493936 -0.012571428745589714 0.0032222402730325258 0.01978275486219127
 0.003249136186719617 0.019778383845701547 -0.0027649600192493936 -0.012571428745589714 0.00953639021440622 0.04252184599553341 0.9879076020651326 -0.09981818703103519
 -0.002763719032333907 -0.01257153975990819 0.0032222402730325258 0.01978275486219127 0.9879076020651326 -0.09981818703103519 0.009541657153675118 0.04252142243468878
0.1438099208003 0.010016988986402629 0.04435508412220451 0.9872338424832945 -0.10422252767926517 0.0034926569744944407 0.020639805662821507 -0.00296522239634522 -0.013109363121167554
 0.9872338424832945 -0.10422252767926517 0.010020857882488712 0.044354827964266604 -0.0029665774426584925 -0.013109235845544112 0.0034633170201492894 0.020644662924839744
 0.0034926569744944407 0.020639805662821507 -0.0029665774426584925 -0.013109235845544112 0.010015937231890077 0.044353341759759496 0.9872337107752286 -0.10422447191819674
 -0.00296522239634522 -0.013109363121167554 0.0034633170201492894 0.020644662924839744 0.9872337107752286 -0.10422447191819674 0.010021695080339727 0.04435288235879056
0.1500625260525 0.010512884589099538 0.046175889111150815 0.9865369761717457 -0.10861649708733033 0.003745511970646363 0.021497044685608112 -0.0031743495444235877 -0.013643357381753778
 0.9865369761717457 -0.10861649708733033 0.010517100560259557 0.046175617545027775 -0.0031758235724433956 -0.013643212413691298 0.0037136273486355416 0.021502423720674027
 0.003745511970646363 0.021497044685608112 -0.0031758235724433956 -0.013643212413691298 0.010511741600781653 0.04617408445110002 0.9865368324284569 -0.10861852831514326
 -0.0031743495444235877 -0.013643357381753778 0.0037136273486355416 0.021502423720674027 0.9865368324284569 -0.10861852831514326 0.010518012435870057 0.04617358691336868
0.15631513130469998 0.01102485754515661 0.04798576561298764 0.9858173113822549 -0.11299810247702931 0.004007607079814063 0.022349996504169252 -0.0033910091612852785 -0.014173425321569908
 0.9858173113822549 -0.11299810247702931 0.011029435911814394 0.04798547791175456 -0.0033926070816900525 -0.01417326117438767 0.003973077951487984 0.02235593405503223
