! Created with skrf 1.8.0 (http://scikit-rf.org).
# GHz S RI R 50.0 
!freq ReS11 ImS11 ReS12 ImS12 ReS13 ImS13
! ReS14 ImS14
! ReS21 ImS21 ReS22 ImS22 ReS23 ImS23
! ReS24 ImS24
! ReS31 ImS31 ReS32 ImS32 ReS33 ImS33
! ReS34 ImS34
! ReS41 ImS41 ReS42 ImS42 ReS43 ImS43
! ReS44 ImS44
!
0.0 0.001672045286632 0.0 0.9983279547133 0.0 6.475257801326e-05 0.0 -6.475257863473e-05 7.929903816155938e-21
 0.9983279547133 0.0 0.001672045286621 0.0 -6.475257863503e-05 7.929903816192679e-21 6.475257801306e-05 0.0
 6.475257801326e-05 0.0 -6.475257863503e-05 7.929903816192679e-21 0.001672045282371 0.0 0.9983279547091 0.0
 -6.475257863473e-05 7.929903816155938e-21 6.475257801306e-05 0.0 0.9983279547091 0.0 0.001672045282348 0.0
0.005 0.0017993859293472438 0.0013666774751195556 0.9981667750204545 -0.00350212910590415 9.111736610523307e-05 0.0007183093711195968 -8.839246241454161e-05 -0.00044995578434462786
 0.9981667750204545 -0.00350212910590415 0.0017994084344930962 0.0013666642846675242 -8.83902353300833e-05 -0.0004499540395933288 9.099002472390288e-05 0.0007183579448606684
 9.111736610523307e-05 0.0007183093711195968 -8.83902353300833e-05 -0.0004499540395933288 0.0017993876154746885 0.0013667437292465164 0.9981667753870741 -0.003502062035384655
 -8.839246241454161e-05 -0.00044995578434462786 9.099002472390288e-05 0.0007183579448606684 0.9981667753870741 -0.003502062035384655 0.0017994074777256466 0.0013667321693181774
0.006252605252188 0.001832900676660398 0.001713710148581828 0.9981240650479242 -0.004378498959393278 9.872522795999906e-05 0.000898224005454597 -9.51219153390519e-05 -0.0005630202422788789
 0.9981240650479242 -0.004378498959393278 0.0018329358566979395 0.0017136933891966654 -9.511845010740083e-05 -0.0005630180906690988 9.85262707141211e-05 0.0008982870910746782
 9.872522795999906e-05 0.000898224005454597 -9.511845010740083e-05 -0.0005630180906690988 0.0018329032382464552 0.0017137929409611913 0.9981240655465157 -0.004378415139779492
 -9.51219153390519e-05 -0.0005630202422788789 9.85262707141211e-05 0.0008982870910746782 0.9981240655465157 -0.004378415139779492 0.001832934285962255 0.00171377823068013
0.01250521050438 0.002010011688387219 0.0034631695638306778 0.9978967681782595 -0.008757667664392055 0.00014275284612282887 0.0017967299532277382 -0.00013359905000338406 -0.001128694300860577
 0.9978967681782595 -0.008757667664392055 0.002010152168465702 0.003463133287670741 -0.0001335853973282816 -0.0011286903208848162 0.00014195949197909165 0.0017968818208800195
 0.00014275284612282887 0.0017967299532277382 -0.0001335853973282816 -0.0011286903208848162 0.0020100213775052036 0.003463334813635799 0.9978967696244104 -0.00875750027095668
 -0.00013359905000338406 -0.001128694300860577 0.00014195949197909165 0.0017968818208800195 0.9978967696244104 -0.00875750027095668 0.0020101453441506356 0.0034633027714216992
0.01875781575657 0.0022037906152086286 0.005237341646787734 0.997645763554847 -0.013148135622762147 0.00019694053760311512 0.002696103493897439 -0.00018030771397356684 -0.001696182796754474
 0.997645763554847 -0.013148135622762147 0.0022041062931403487 0.005237282844274686 -0.00018027727323631748 -0.0016961773777938146 0.00019515845335310797 0.0026963751981369114
 0.00019694053760311512 0.002696103493897439 -0.00018027727323631748 -0.0016961773777938146 0.0022038119729067365 0.005237589118145636 0.9976457663812859 -0.01314788474096447
 -0.00018030771397356684 -0.001696182796754474 0.00019515845335310797 0.0026963751981369114 0.9976457663812859 -0.01314788474096447 0.002204090518785569 0.005237536949442706
0.02501042100875 0.0024146360014104546 0.007033710111250242 0.9973707380772836 -0.017551998536981736 0.00026139515855836206 0.0035963611638185405 -0.00023536710252331218 -0.002265208181829729
 0.9973707380772836 -0.017551998536981736 0.002415196643895874 0.007033625543867374 -0.0002353133540152476 -0.0022652017860590183 0.00025822993550006176 0.0035967889454370577
 0.00026139515855836206 0.0035963611638185405 -0.0002353133540152476 -0.0022652017860590183 0.002414673571572468 0.007034039541307798 0.9973707427231455 -0.01755166421946944
 -0.00023536710252331218 -0.002265208181829729 0.00025822993550006176 0.0035967889454370577 0.9973707427231455 -0.01755166421946944 0.002415168227325386 0.007033964298521265
0.03126302626094 0.002642929880210078 0.008850963700894233 0.9970713636388688 -0.021970133573731263 0.00033622385906877247 0.004497435591202566 -0.00029889268922303393 -0.00283556947271402
 0.9970713636388688 -0.021970133573731263 0.0026438051616197622 0.008850849905071989 -0.00029880918059925276 -0.0028355626358769126 0.00033128065309968966 0.004498060907691155
 0.00033622385906877247 0.004497435591202566 -0.00029880918059925276 -0.0028355626358769126 0.002642988203336652 0.008851374788182608 0.997071370542689 -0.02196971585166393
 -0.00029889268922303393 -0.00283556947271402 0.00033128065309968966 0.004498060907691155 0.997071370542689 -0.02196971585166393 0.002643760405247028 0.00885127337488791
0.037515631513130004 0.0028890457086697924 0.01068823505437624 0.9967473053659147 -0.02640296043894901 0.0004215329421346385 0.005399225925995733 -0.000370997046724954 -0.003407091831624151
 0.9967473053659147 -0.02640296043894901 0.0028903052369795633 0.010688088342774868 -0.0003708773860572362 -0.0034070851632130796 0.0004144163175238397 0.005400095502962719
 0.0004215329421346385 0.005399225925995733 -0.0003708773860572362 -0.0034070851632130796 0.0028891293238462058 0.01068872746210082 0.9967473149676551 -0.026402459317981256
 -0.000370997046724954 -0.003407091831624151 0.0004144163175238397 0.005400095502962719 0.9967473149676551 -0.026402459317981256 0.0028902404388842094 0.010688596635205173
0.043768236765320004 0.003153351418545533 0.012544869116741814 0.9963982249770704 -0.030850672895389293 0.0005174273182805044 0.006301613176595689 -0.0004517901306762827 -0.003979611245944072
 0.9963982249770704 -0.030850672895389293 0.003155064756330612 0.012544685578403766 -0.000451627982457469 -0.003979605429240635 0.000507741178063577 0.006302779065704215
 0.0005174273182805044 0.006301613176595689 -0.000451627982457469 -0.003979605429240635 0.003153464862749429 0.012545442451556152 0.9963982377173267 -0.030850088376236984
 -0.0004517901306762827 -0.003979611245944072 0.000507741178063577 0.006302779065704215 0.9963982377173267 -0.030850088376236984 0.003154976208444279 0.012545278822461745
0.050020842017509996 0.003436210825963189 0.014420327396733 0.9960237825062283 -0.03531333443296782 0.0006240101742051135 0.007204466550836026 -0.000541379368200793 -0.004552968208291413
 0.9960237825062283 -0.03531333443296782 0.003438447508400211 0.014420102896565022 -0.0005411684506942026 -0.004552964000327922 0.0006113577372619294 0.007205986190388115
 0.0006240101742051135 0.007204466550836026 -0.0005411684506942026 -0.004552964000327922 0.0034363586347344456 0.014420981216218652 0.9960237988281718 -0.03531266650319431
 -0.000541379368200793 -0.004552968208291413 0.0006113577372619294 0.007205986190388115 0.9960237988281718 -0.03531266650319431 0.0034383314976791824 0.014420781251471188
0.055454545454549996 0.0036973720875170496 0.016065079641754403 0.9956775190019658 -0.0392036491441826 0.0007253929248976105 0.007989343899165901 -0.0006264602205718863 -0.0050517901890012595
 0.9956775190019658 -0.0392036491441826 0.0037001200345566825 0.016064816011481166 -0.0006262018600347767 -0.005051788051133732 0.0007098399233828531 0.007991221835405215
 0.0007253929248976105 0.007989343899165901 -0.0006262018600347767 -0.005051788051133732 0.003697553441591846 0.016065803000635044 0.9956775387976269 -0.03920290871398202
 -0.0006264602205718863 -0.0050517901890012595 0.0007098399233828531 0.007991221835405215 0.9956775387976269 -0.03920290871398202 0.0036999771375591287 0.01606556847701422
0.056273447269699996 0.003737984343668078 0.01631414099678917 0.9956236373338494 -0.039790925169181576 0.0007413827319036398 0.00810764657267859 -0.000639869663389 -0.005127004626245528
 0.9956236373338494 -0.039790925169181576 0.0037408138951050113 0.016313871174544234 -0.0006396037469604089 -0.0051270028577631264 0.0007253665376896865 0.008109582849254842
 0.0007413827319036398 0.00810764657267859 -0.0006396037469604089 -0.0051270028577631264 0.003738171049935045 0.01631487480195525 0.9956236576821405 -0.039790173809928206
 -0.000639869663389 -0.005127004626245528 0.0007253665376896865 0.008109582849254842 0.9956236576821405 -0.039790173809928206 0.0037406667022154834 0.01631463482325045
0.06252605252188 0.0040590293464843625 0.018225884785836494 0.9951974488762471 -0.04428336761136096 0.0008696440554550144 0.009011006804828425 -0.0007473633576505314 -0.005701562132091634
 0.9951974488762471 -0.04428336761136096 0.004062521296301389 0.018225565054404577 -0.0007470362636096249 -0.005701563707472398 0.0008498659875841549 0.009013428115224128
 0.0008696440554550144 0.009011006804828425 -0.0007470362636096249 -0.005701563707472398 0.004059259480911826 0.01822669802669942 0.9951974736985661 -0.04428253279111278
 -0.0007473633576505314 -0.005701562132091634 0.0008498659875841549 0.009013428115224128 0.9951974736985661 -0.04428253279111278 0.004062339196497638 0.018226414210363636
0.06877865777407 0.004399700354015854 0.020155162004328944 0.9947448770971746 -0.048790541992891484 0.0010088908830786316 0.009914394882784465 -0.0008639601655796391 -0.006276481087440661
 0.9947448770971746 -0.048790541992891484 0.00440392425212176 0.02015478754756874 -0.000863565765469967 -0.006276486984631804 0.0009849522063034811 0.009917375195852523
 0.0010088908830786316 0.009914394882784465 -0.000863565765469967 -0.006276486984631804 0.004399978443421402 0.02015605407430126 0.9947449068432489 -0.04878962367224052
 -0.0008639601655796391 -0.006276481087440661 0.0009849522063034811 0.009917375195852523 0.9947449068432489 -0.04878962367224052 0.004403703513806773 0.020155722450311015
0.07503126302626001 0.004760349097687238 0.02210159451508238 0.9942655829078664 -0.053312295970135544 0.0011592174750747236 0.010817653180040332 -0.0009897570953142246 -0.006851599963392939
 0.9942655829078664 -0.053312295970135544 0.004765374528845977 0.022101160285176544 -0.0009892893103708997 -0.006851611233822694 0.0011307188815984403 0.010821272098128791
 0.0011592174750747236 0.010817653180040332 -0.0009892893103708997 -0.006851611233822694 0.004760679665703096 0.022102564751038528 0.994265618031578 -0.05331129410109826
 -0.0009897570953142246 -0.006851599963392939 0.0011307188815984403 0.010821272098128791 0.994265618031578 -0.05331129410109826 0.0047651114153891 0.02210218120147185
0.08128386827845 0.005141324519438687 0.024064816307801135 0.9937592285048126 -0.057848451073209614 0.0013207154708257407 0.011720619260366666 -0.0011248483584707363 -0.007426754940550094
 0.9937592285048126 -0.057848451073209614 0.0051472211190706895 0.02406431702188146 -0.0011243011594291668 -0.007426772709029709 0.0012872571352828047 0.011724962080154583
 0.0013207154708257407 0.011720619260366666 -0.0011243011594291668 -0.007426772709029709 0.005141712084678232 0.024065863989659323 0.9937592694627969 -0.05784736559890921
 -0.0011248483584707363 -0.007426754940550094 0.0012872571352828047 0.011724962080154583 0.9937592694627969 -0.05784736559890921 0.005146911887003204 0.02406542424655518
0.08753647353064001 0.0055429727243064214 0.026044469026216023 0.9932254776635551 -0.062398807141865666 0.0014934737525199033 0.012623126202243103 -0.0012693252736200302 -0.00800177964405704
 0.9932254776635551 -0.062398807141865666 0.00554981019234156 0.026043899162659877 -0.00126869268055064 -0.0080018051086934 0.0014546553926310856 0.012628283974793666
 0.0014934737525199033 0.012623126202243103 -0.00126869268055064 -0.0080018051086934 0.005543421800314025 0.026045593375494544 0.9932255249168371 -0.062397637997363704
 -0.0012693252736200302 -0.00800177964405704 0.0014546553926310856 0.012628283974793666 0.9932255249168371 -0.062397637997363704 0.005549451092538222 0.026045093018252165
0.09378907878283 0.0059656368990388215 0.02804019876832469 0.9926639960050788 -0.06696314549662079 0.0016775783127669789 0.013525002843476193 -0.0014232761646420086 -0.008576504965838942
 0.9926639960050788 -0.06696314549662079 0.0059734850149926735 0.028039552562334348 -0.0014225522469628906 -0.008576539397914876 0.001632999255639927 0.013531072433463022
 0.0016775783127669789 0.013525002843476193 -0.0014225522469628906 -0.008576539397914876 0.005966151993250834 0.028041398947120707 0.992664050018721 -0.06696189260921612
 -0.0014232761646420086 -0.008576504965838942 0.001632999255639927 0.013531072433463022 0.992664050018721 -0.06696189260921612 0.005973072292432082 0.028040833399224644
0.100041684035 0.006409657208531956 0.030051653744962225 0.992074451242211 -0.07154123126001746 0.0018731121254711414 0.014426073969631564 -0.001586786255430538 -0.00915075895055716
 0.992074451242211 -0.07154123126001746 0.006418585846115108 0.030050925183604405 -0.0015859651320531923 -0.009150803694416022 0.0018223713784650086 0.014433158113501373
 0.0018731121254711414 0.014426073969631564 -0.0015859651320531923 -0.009150803694416022 0.0064102428216190515 0.030052928856815347 0.992074512485986 -0.07153989454778237
 -0.001586786255430538 -0.00915075895055716 0.0018223713784650086 0.014433158113501373 0.992074512485986 -0.07153989454778237 0.006418115739835116 0.030052293382117245
0.1059090909091 0.006846046603905591 0.03195317978604415 0.9914954089687276 -0.07584956037123028 0.002067065800894127 0.015270741546973193 -0.0017489902227604559 -0.00968905099011422
 0.9914954089687276 -0.07584956037123028 0.006856052842706806 0.031952368248312664 -0.0017480725775930776 -0.009689106698124022 0.0020101780441518745 0.015278876460409797
 0.002067065800894127 0.015270741546973193 -0.0017480725775930776 -0.009689106698124022 0.006846702477980347 0.031954524344287256 0.9914954774291145 -0.07584814491788407
 -0.0017489902227604559 -0.00968905099011422 0.0020101780441518745 0.015278876460409797 0.9914954774291145 -0.07584814491788407 0.006855525462308134 0.031953818797032865
0.1062942892872 0.006875370674753991 0.032078482535177665 0.9914565134128753 -0.07613281508998757 0.002080155018626351 0.015326160472590153 -0.001759937562262377 -0.00972436671920449
 0.9914565134128753 -0.07613281508998757 0.006885449816675568 0.032077665351849846 -0.0017590134017365837 -0.009724423192127494 0.002022851344361641 0.015334367835658074
 0.002080155018626351 0.015326160472590153 -0.0017590134017365837 -0.009724423192127494 0.006876031299622758 0.03207983162194247 0.9914565823616647 -0.07613139446430037
 -0.001759937562262377 -0.00972436671920449 0.002022851344361641 0.015334367835658074 0.9914565823616647 -0.07613139446430037 0.006884918559995059 0.03207912132010538
0.11254689453939999 0.007363111042676224 0.034120332747435866 0.9908098551041451 -0.08073763451647865 0.0022987835491214553 0.016225079480698602 -0.0019428087839125107 -0.010297150428910372
 0.9908098551041451 -0.08073763451647865 0.007374410795265743 0.034119420415668664 -0.001941775804740152 -0.01029722012096834 0.002234515544068867 0.01623452471308479
 0.0022987835491214553 0.016225079480698602 -0.001941775804740152 -0.01029722012096834 0.007363851163666035 0.03412175479099048 0.9908099322380697 -0.08073612987975663
 -0.0019428087839125107 -0.010297150428910372 0.002234515544068867 0.01623452471308479 0.9908099322380697 -0.08073612987975663 0.00737381461578673 0.03412096459254466
0.11879949979160001 0.007873208635483672 0.03617684999024145 0.990134151667975 -0.08535541497824192 0.002529070878573472 0.017122644478656395 -0.002135475190741349 -0.010868929251091246
 0.990134151667975 -0.08535541497824192 0.007885799243689396 0.036175835716850076 -0.0021343276616656473 -0.010869013725016186 0.002457437054999316 0.017133448269898103
 0.002529070878573472 0.017122644478656395 -0.0021343276616656473 -0.010869013725016186 0.007874032727597026 0.03617834390984636 0.9901342374731112 -0.08535382622599108
 -0.002135475190741349 -0.010868929251091246 0.002457437054999316 0.017133448269898103 0.9901342374731112 -0.08535382622599108 0.007885134363464002 0.03617746857046296
0.1250521050438 0.008405990202591253 0.038247677062262446 0.9894290814333184 -0.08998587064941424 0.0027710866507281075 0.01801866541269638 -0.0023380085125196985 -0.011439519372392532
 0.9894290814333184 -0.08998587064941424 0.00841994206436285 0.03824655378001102 -0.002336740752856641 -0.011439620263398082 0.0026916855215792846 0.018030954545085374
 0.0027710866507281075 0.01801866541269638 -0.002336740752856641 -0.011439620263398082 0.00840690273019489 0.03824924171563051 0.9894291764017902 -0.08998419766868743
 -0.0023380085125196985 -0.011439519372392532 0.0026916855215792846 0.018030954545085374 0.9894291764017902 -0.08998419766868743 0.008419204700132051 0.03824827580978308
0.131304710296 0.008961778760367176 0.04033245331512887 0.988694325913481 -0.09462870510369246 0.0030248968695295274 0.018912948791208303 -0.002550476825731504 -0.01200873400844188
 0.988694325913481 -0.09462870510369246 0.008977162441730432 0.04033121367452824 -0.0025490832058140205 -0.012008853024048817 0.0029373270364124863 0.018926856191643086
 0.0030248968695295274 0.018912948791208303 -0.0025490832058140205 -0.012008853024048817 0.008962784176498583 0.04033408749817809 0.9886944305440704 -0.09462694777283381
 -0.002550476825731504 -0.01200873400844188 0.0029373270364124863 0.018926856191643086 0.9886944305440704 -0.09462694777283381 0.008976348804954506 0.040333025412085936
0.1375573155481 0.009417623638336375 0.042159293989996155 0.9880528948041573 -0.09901195438307342 0.0032601619596809685 0.019778726806094975 -0.002742648787013941 -0.01254975948445683
 0.9880528948041573 -0.09901195438307342 0.009434513982149052 0.0421579555950149 -0.002741120831393972 -0.012549896868852377 0.0031642200304993996 0.019794239394056043
 0.0032601619596809685 0.019778726806094975 -0.002741120831393972 -0.012549896868852377 0.009418725666397306 0.04216099677557382 0.9880530095378183 -0.09901011266795327
 -0.002742648787013941 -0.01254975948445683 0.0031642200304993996 0.019794239394056043 0.9880530095378183 -0.09901011266795327 0.009433621119132686 0.04215985743666986
0.1438099208003 0.009889631585998447 0.04397571434673634 0.9873886424347893 -0.10338328244516325 0.003504921822093511 0.020640463330435305 -0.0029424797684590295 -0.013087114959493653
 0.9873886424347893 -0.10338328244516325 0.00990810000122495 0.043974271291680064 -0.0029408114086821257 -0.013087272406221744 0.003400242252875064 0.020657703422592544
 0.003504921822093511 0.020640463330435305 -0.0029408114086821257 -0.013087272406221744 0.009890834532985336 0.043977484520585926 0.9873887677670987 -0.10338135623528495
 -0.0029424797684590295 -0.013087114959493653 0.003400242252875064 0.020657703422592544 0.9873887677670987 -0.10338135623528495 0.009907124266862072 0.04397626376464738
0.1500625260525 0.010377624161336273 0.0457815388129569 0.9867017517812101 -0.10774255634546234 0.00375908492882571 0.021498052910615368 -0.0031498815760070777 -0.013620702658871749
 0.9867017517812101 -0.10774255634546234 0.010397742233183495 0.04577998485022122 -0.0031480667585598193 -0.013620881929835705 0.003645304538996082 0.021517147308321584
 0.00375908492882571 0.021498052910615368 -0.0031480667585598193 -0.013620881929835705 0.010378932315548232 0.045783375113123546 0.9867018882129951 -0.10774054552640436
 -0.0031498815760070777 -0.013620702658871749 0.003645304538996082 0.021517147308321584 0.9867018882129951 -0.10774054552640436 0.010396679986824836 0.0457820685035238
0.15631513130469998 0.01088142150922915 0.047576597058344175 0.9859924069089204 -0.11208964414121787 0.004022558584308778 0.022351392043813364 -0.0033647648530096214 -0.014150427009080428
 0.9859924069089204 -0.11208964414121787 0.010903261003664464 0.047574925590312296 -0.0033627975393659693 -0.014150629934259688 0.0038993165951300432 0.02237247198414221
