! Created with skrf 1.8.0 (http://scikit-rf.org).
# GHz S RI R 50.0 
!freq ReS11 ImS11 ReS12 ImS12 ReS13 ImS13
! ReS14 ImS14
! ReS21 ImS21 ReS22 ImS22 ReS23 ImS23
! ReS24 ImS24
! ReS31 ImS31 ReS32 ImS32 ReS33 ImS33
! ReS34 ImS34
! ReS41 ImS41 ReS42 ImS42 ReS43 ImS43
! ReS44 ImS44
!
0.0 0.001577095794188 0.0 0.9984229042058 0.0 6.086972373065e-05 0.0 -6.086972377528e-05 7.45439123863802e-21
 0.9984229042058 0.0 0.001577095794185 0.0 -6.086972377512e-05 7.454391238618425e-21 6.086972373096e-05 0.0
 6.086972373065e-05 0.0 -6.086972377512e-05 7.454391238618425e-21 0.001577095792764 0.0 0.9984229042044 0.0
 -6.086972377528e-05 7.45439123863802e-21 6.086972373096e-05 0.0 0.9984229042044 0.0 0.00157709579277 0.0
0.005 0.0016969247958466944 0.0012904198438662387 0.9982713005460476 -0.0033035009705106844 8.523932290433367e-05 0.0006685906512963914 -8.2830165235115e-05 -0.00042000180764862564
 0.9982713005460476 -0.0033035009705106844 0.00169692097432213 0.0012904219999157601 -8.2830619107945e-05 -0.00042000208239710124 8.526815788735769e-05 0.0006685797326749345
 8.523932290433367e-05 0.0006685906512963914 -8.2830619107945e-05 -0.00042000208239710124 0.001696925289229727 0.00129048676442992 0.9982713009026727 -0.0033034339073947884
 -8.2830165235115e-05 -0.00042000180764862564 8.526815788735769e-05 0.0006685797326749345 0.9982713009026727 -0.0033034339073947884 0.0016969211828305867 0.001290489194173081
0.006252605252188 0.0017283825432494275 0.0016180953368310825 0.9982312485575151 -0.00413017924634365 9.220356952125005e-05 0.000836062115627848 -8.904144756221461e-05 -0.0005255429571310182
 0.9982312485575151 -0.00413017924634365 0.0017283765699966794 0.0016180980552813287 -8.904215441375647e-05 -0.0005255432942862595 9.224862216867682e-05 0.0008360479269975209
 9.220356952125005e-05 0.000836062115627848 -8.904215441375647e-05 -0.0005255432942862595 0.0017283832503898065 0.0016181789587753122 0.9982312490505861 -0.004130095434020275
 -8.904144756221461e-05 -0.0005255429571310182 9.224862216867682e-05 0.0008360479269975209 0.9982312490505861 -0.004130095434020275 0.001728376830892973 0.0016181820328603957
0.01250521050438 0.0018941587046919948 0.003270029308445578 0.9980187842403555 -0.008261126213223585 0.00013215304505026398 0.001672483755993253 -0.00012434255033273847 -0.0010536117893939778
 0.9980187842403555 -0.008261126213223585 0.001894134862960381 0.0032700349742495333 -0.00012434534313499897 -0.0010536123938035874 0.00013233272719384643 0.0016724495467993325
 0.00013215304505026398 0.001672483755993253 -0.00012434534313499897 -0.0010536123938035874 0.001894160970832929 0.0032701961908520785 0.9980187856484991 -0.008260958789169466
 -0.00012434255033273847 -0.0010536117893939778 0.00013233272719384643 0.0016724495467993325 0.9980187856484991 -0.008260958789169466 0.001894135330961642 0.0032702027090648796
0.01875781575657 0.0020747928076949116 0.00494541309017505 0.9977852423811331 -0.012402886698257414 0.0001808124694861412 0.0025098174754692804 -0.00016688293226277992 -0.001583444220894706
 0.9977852423811331 -0.012402886698257414 0.002074739253712644 0.004945421938788941 -0.00016688917025802272 -0.0015834450061993884 0.00018121616217170239 0.002509756262565513
 0.0001808124694861412 0.0025098174754692804 -0.00016688917025802272 -0.0015834450061993884 0.0020747974812381103 0.004945662918669819 0.9977852451231803 -0.012402635716480502
 -0.00016688293226277992 -0.001583444220894706 0.00018121616217170239 0.002509756262565513 0.9977852451231803 -0.012402635716480502 0.002074739854371423 0.004945673275738569
0.02501042100875 0.0022706421213183766 0.006641894294168462 0.9975303433067344 -0.016557458714238624 0.00023827709388190494 0.003348092187345283 -0.0002167688123389966 -0.0021147954218489803
 0.9975303433067344 -0.016557458714238624 0.0022705470459872487 0.006641906562341274 -0.00021677984172530445 -0.0021147962840455813 0.0002389942511160776 0.0033479958710005754
 0.00023827709388190494 0.003348092187345283 -0.00021677984172530445 -0.0021147962840455813 0.002270650058359019 0.006642226721779541 0.9975303478114924 -0.01655712416143099
 -0.0002167688123389966 -0.0021147954218489803 0.0002389942511160776 0.0033479958710005754 0.9975303478114924 -0.01655712416143099 0.0022705476957089344 0.006642241332303505
0.03126302626094 0.0024820491587248836 0.008358257719301506 0.9972537933228073 -0.020725691707576252 0.00030464241996512056 0.004187259890678037 -0.0002741033302735192 -0.002647491324061174
 0.9972537933228073 -0.020725691707576252 0.0024819007793329276 0.008358273643601416 -0.00027412048637272626 -0.0026474921413007207 0.00030576265479972166 0.0041871192461971655
 0.00030464241996512056 0.004187259890678037 -0.00027412048637272626 -0.0026474921413007207 0.002482061212164726 0.008358672351456185 0.9972538000211332 -0.02072527351761703
 -0.0002741033302735192 -0.002647491324061174 0.00030576265479972166 0.0041871192461971655 0.9972538000211332 -0.02072527351761703 0.002481901375140178 0.008358691648764752
0.037515631513130004 0.0027093489585681583 0.01009370752551508 0.9969552922433296 -0.024908004321492358 0.00038000331562606046 0.00502724207820819 -0.00033898728293487487 -0.0031813822231174225
 0.9969552922433296 -0.024908004321492358 0.0027091355132298736 0.010093727341258317 -0.0003390118912699237 -0.0031813828555959417 0.00038161644144384517 0.0050270467430032
 0.00038000331562606046 0.00502724207820819 -0.0003390118912699237 -0.0031813828555959417 0.00270936597877382 0.010094203902216155 0.9969553015708248 -0.024907502392782124
 -0.00033898728293487487 -0.0031813822231174225 0.00038161644144384517 0.0050270467430032 0.9969553015708248 -0.024907502392782124 0.002709135933639329 0.010094228337691039
0.043768236765320004 0.002952871895245684 0.011847648781252041 0.9966345364495579 -0.029104602776921732 0.0004644535958220545 0.005867943858324586 -0.00041151938085109984 -0.0037163286638569617
 0.9966345364495579 -0.029104602776921732 0.0029525816377457825 0.011847672721749594 -0.00041155275767464154 -0.003716328953728693 0.0004666496482144365 0.0058676823175013845
 0.0004644535958220545 0.005867943858324586 -0.00041155275767464154 -0.003716328953728693 0.0029528947307969184 0.011848226374312286 0.9966345488499966 -0.02910401697462787
 -0.00041151938085109984 -0.0037163286638569617 0.0004666496482144365 0.0058676823175013845 0.9966345488499966 -0.02910401697462787 0.0029525817442183203 0.011848256416965294
0.050020842017509996 0.003212944983319719 0.013619597180802356 0.9962912204454615 -0.033315571081804954 0.0005580857629358788 0.006709259783800159 -0.0004917963383952009 -0.0042521956207530335
 0.9962912204454615 -0.033315571081804954 0.003212566178779982 0.013619625476719651 -0.0004918397909996783 -0.004252195392074529 0.0005609550116520589 0.00670891935504355
 0.0005580857629358788 0.006709259783800159 -0.0004918397909996783 -0.004252195392074529 0.0032129744783813263 0.013620255397421364 0.9962912363708623 -0.03331490123382613
 -0.0004917963383952009 -0.0042521956207530335 0.0005609550116520589 0.00670891935504355 0.9962912363708623 -0.03331490123382613 0.003212565813578571 0.013620291533659705
0.055454545454549996 0.0034526490690938625 0.015173772232464024 0.9959743087910012 -0.0369867063594544 0.0006469824869870704 0.007440799870960751 -0.0005679228428053975 -0.004718524163107541
 0.9959743087910012 -0.0369867063594544 0.0034521837898603353 0.015173804498260068 -0.0005679761064048126 -0.004718523326793346 0.0006505102599222087 0.007440379668285114
 0.0006469824869870704 0.007440799870960751 -0.0005679761064048126 -0.004718523326793346 0.003452685032010799 0.015174499973848184 0.9959743281535097 -0.03698596331218928
 -0.0005679228428053975 -0.004718524163107541 0.0006505102599222087 0.007440379668285114 0.9959743281535097 -0.03698596331218928 0.003452182870465278 0.015174541813952593
0.056273447269699996 0.003489892542497252 0.01540913473754674 0.9959250377779604 -0.03754091526625317 0.0006609908213439702 0.00755107671830092 -0.0005799128859205447 -0.004788849643805721
 0.9959250377779604 -0.03754091526625317 0.0034894134630450236 0.015409167616378675 -0.0005799677127974335 -0.004788848702459774 0.0006646237759154539 0.007550643536390525
 0.0006609908213439702 0.00755107671830092 -0.0005799677127974335 -0.004788848702459774 0.00348992953477851 0.015409872909642144 0.9959250576890957 -0.03754016117351651
 -0.0005799128859205447 -0.004788849643805721 0.0006646237759154539 0.007550643536390525 0.9959250576890957 -0.03754016117351651 0.003489412447532992 0.015409915643050909
0.06252605252188 0.003784036548851962 0.017215885421459614 0.9955356816476513 -0.041780587676646164 0.0007732581253421989 0.008393275412780437 -0.0006759617454007932 -0.005326157298594242
 0.9955356816476513 -0.041780587676646164 0.003783445469280978 0.017215923107144156 -0.0006760292362784797 -0.005326155432248007 0.0007777455367520489 0.008392734413886502
 0.0007732581253421989 0.008393275412780437 -0.0006760292362784797 -0.005326155432248007 0.0037840818684901833 0.017216702817599613 0.9955357060155836 -0.04177974910078866
 -0.0006759617454007932 -0.005326157298594242 0.0007777455367520489 0.008392734413886502 0.9955357060155836 -0.04177974910078866 0.00378344360353406 0.01721675266889991
0.06877865777407 0.0040956968169009065 0.01903950063753735 0.9951228453536911 -0.04603450143302483 0.0008949752485412578 0.009235731449334712 -0.0007800335820829331 -0.005863984243447206
 0.9951228453536911 -0.04603450143302483 0.004094982010755403 0.019039543350131867 -0.0007801150179418009 -0.005863981221491335 0.0009004081081912424 0.009235066355179556
 0.0008949752485412578 0.009235731449334712 -0.0007801150179418009 -0.005863981221491335 0.004095751284882355 0.01904039645046075 0.9951228746607407 -0.04603357810857019
 -0.0007800335820829331 -0.005863984243447206 0.0009004081081912424 0.009235066355179556 0.9951228746607407 -0.04603357810857019 0.004094979072078653 0.019040453957557792
0.07503126302626001 0.004425191078784583 0.020879650016259008 0.9946862226405424 -0.05030253957940768 0.0010262278636127952 0.010078315848720053 -0.0008922169438797051 -0.006402194647820688
 0.9946862226405424 -0.05030253957940768 0.004424340814085448 0.020879697971761858 -0.0008923135968265073 -0.006402190221329231 0.0010326974000736888 0.010077509150632885
 0.0010262278636127952 0.010078315848720053 -0.0008923135968265073 -0.006402190221329231 0.004425255505585419 0.020880623370646816 0.9946862573820171 -0.050301531205772174
 -0.0008922169438797051 -0.006402194647820688 0.0010326974000736888 0.010077509150632885 0.9946862573820171 -0.050301531205772174 0.004424336556776626 0.020880689088706276
0.08128386827845 0.004772835001473781 0.02273601529514088 0.9942255079862957 -0.05458456114838679 0.0011670996300406603 0.01092089547632679 -0.0010125981907778833 -0.006940650817357593
 0.9942255079862957 -0.05458456114838679 0.00477183753662362 0.022736068705399598 -0.0010127113240161617 -0.006940644719045327 0.0011746973041288956 0.01091992841928385
 0.0011670996300406603 0.01092089547632679 -0.0010127113240161617 -0.006940644719045327 0.004772910185289054 0.02273706524210275 0.9942255486712642 -0.05458346739523471
 -0.0010125981907778833 -0.006940650817357593 0.0011746973041288956 0.01091992841928385 0.9942255486712642 -0.05458346739523471 0.004771831689974032 0.022737139743855266
0.08753647353064001 0.005138942160284483 0.024608286080933246 0.9937403968508361 -0.058880405350840645 0.0013176720859260501 0.01176333333136241 -0.001141261418629704 -0.007479212941056852
 0.9937403968508361 -0.058880405350840645 0.005137785739718174 0.02460834515365453 -0.00114139228625754 -0.007479204885240385 0.0013264895845988395 0.01176218589797525
 0.0013176720859260501 0.01176333333136241 -0.00114139228625754 -0.007479204885240385 0.005139028884982453 0.024609411599848505 0.9937404440032278 -0.058879225856058044
 -0.001141261418629704 -0.007479212941056852 0.0013264895845988395 0.01176218589797525 0.9937404440032278 -0.058879225856058044 0.005137778007179588 0.0246094954758808
0.09378907878283 0.005523823983330166 0.026496156829738857 0.9932305858999252 -0.06318989455382068 0.00147802454326252 0.012605488760953002 -0.0012782883780589017 -0.008017738919104133
 0.9932305858999252 -0.06318989455382068 0.005522496833543755 0.026496221768655074 -0.001278438224930429 -0.008017728601679661 0.0014881537723680262 0.012604139655445096
 0.00147802454326252 0.012605488760953002 -0.001278438224930429 -0.008017728601679661 0.0055239230172283256 0.026497356828518795 0.9932306400598654 -0.06318862892331813
 -0.0012782883780589017 -0.008017738919104133 0.0014881537723680262 0.012604139655445096 0.9932306400598654 -0.06318862892331813 0.005522486891766036 0.026497450687655785
0.100041684035 0.005927789675271263 0.0283993246338667 0.9926957732100655 -0.06751283645799465 0.0016482339847073459 0.013447217626143702 -0.0014237583906538097 -0.008556084244359479
 0.9926957732100655 -0.06751283645799465 0.005926280000489016 0.02839939563895412 -0.0014239284522351448 -0.008556071342766928 0.0016597670608023225 0.013445644258443051
 0.0016482339847073459 0.013447217626143702 -0.0014239284522351448 -0.008556071342766928 0.0059279017693367715 0.028400597946522627 0.9926958349352457 -0.0675114842680973
 -0.0014237583906538097 -0.008556084244359479 0.0016597670608023225 0.013445644258443051 0.9926958349352457 -0.0675114842680973 0.0059262674978127405 0.02840070241649473
0.1059090909091 0.006324498606175435 0.030198889295965665 0.9921709018764736 -0.07158151127383075 0.0018169887536563802 0.01423657159168898 -0.0015680138840626578 -0.009060969025785574
 0.9921709018764736 -0.07158151127383075 0.006322806899056332 0.030198966172392528 -0.0015682040300581965 -0.009060953389408091 0.0018299231500332866 0.01423476606526167
 0.0018169887536563802 0.01423657159168898 -0.0015682040300581965 -0.009060953389408091 0.006324623621638333 0.03020023028203263 0.9921709712243936 -0.07158007744317468
 -0.0015680138840626578 -0.009060969025785574 0.0018299231500332866 0.01423476606526167 0.9921709712243936 -0.07158007744317468 0.006322791647438085 0.030200345297375017
0.1062942892872 0.006351146125249331 0.030317487556287784 0.9921356584630376 -0.07184902573420489 0.0018283749624235692 0.014288372432850312 -0.0015777482621218955 -0.00909410192488551
 0.9921356584630376 -0.07184902573420489 0.006349442102903198 0.030317564824154583 -0.001577939764245495 -0.009094086098092171 0.0018414042037843282 0.014286550902552679
 0.0018283749624235692 0.014288372432850312 -0.001577939764245495 -0.009094086098092171 0.006351272011191037 0.030318832945118886 0.9921357283295613 -0.07184758652961139
 -0.0015777482621218955 -0.00909410192488551 0.0018414042037843282 0.014286550902552679 0.9921357283295613 -0.07184758652961139 0.006349426658418978 0.03031894867310079
0.11254689453939999 0.006794197802799649 0.03225034336653637 0.9915499431301271 -0.07619824526530222 0.00201851949746915 0.015128802443253486 -0.0017403321939840066 -0.009631642431757294
 0.9915499431301271 -0.07619824526530222 0.006792287579380115 0.032250427090931275 -0.0017405463526441358 -0.00963162332025378 0.002033137414423511 0.015126707523779906
 0.00201851949746915 0.015128802443253486 -0.0017405463526441358 -0.00963162332025378 0.006794338191384747 0.032251759522794056 0.9915500217342871 -0.07619671855864556
 -0.0017403321939840066 -0.009631642431757294 0.002033137414423511 0.015126707523779906 0.9915500217342871 -0.07619671855864556 0.006792268781824215 0.03225188717621102
0.11879949979160001 0.007257246644634816 0.03419758855506954 0.9909383306514041 -0.08056026711665748 0.002218736980461875 0.015968353770299572 -0.0019115816934081793 -0.010168553670058002
 0.9909383306514041 -0.08056026711665748 0.007255118331200468 0.034197678927463615 -0.0019118197145718318 -0.010168530895836234 0.0022350362649623014 0.015965958893020504
 0.002218736980461875 0.015968353770299572 -0.0019118197145718318 -0.010168530895836234 0.007257402223865889 0.03419907409563131 0.9909384186105541 -0.08055865239205051
 -0.0019115816934081793 -0.010168553670058002 0.0022350362649623014 0.015965958893020504 0.9909384186105541 -0.08055865239205051 0.00725509573729584 0.034199214363069025
0.1250521050438 0.0077405919339937216 0.03615891755868157 0.9903005266096074 -0.08493485330279946 0.0024290940723262016 0.016806869462897403 -0.0020915654824978647 -0.010704680965186685
 0.9903005266096074 -0.08493485330279946 0.0077382336015877 0.0361590147690759 -0.0020918285618526764 -0.010704654131741945 0.0024471675871205177 0.016804146701390247
 0.0024290940723262016 0.016806869462897403 -0.0020918285618526764 -0.010704654131741945 0.007740763367340457 0.036160471029884074 0.9903006245634635 -0.08493315001238476
 -0.0020915654824978647 -0.010704680965186685 0.0024471675871205177 0.016804146701390247 0.9903006245634635 -0.08493315001238476 0.007738206735184797 0.03616062462210283
0.131304710296 0.008244530173585281 0.03813402214347894 0.9896362389009485 -0.08932175640395003 0.0026496546062214086 0.01764418958447643 -0.002280349406293543 -0.011239867062134277
 0.9896362389009485 -0.08932175640395003 0.008241929848780796 0.038134126381289414 -0.0022806387289885767 -0.011239835754495178 0.002669595373171658 0.017641109638837096
 0.0026496546062214086 0.01764418958447643 -0.0022806387289885767 -0.011239835754495178 0.008244718098013592 0.038135642018227216 0.9896363475128643 -0.08931996397124654
 -0.002280349406293543 -0.011239867062134277 0.002669595373171658 0.017641109638837096 0.9896363475128643 -0.08931996397124654 0.008241898199471855 0.03813580966923213
0.1375573155481 0.008655100613204802 0.039865395709708394 0.9890594803592747 -0.09346339828139111 0.002852851374169398 0.018454617335123102 -0.0024503469197189806 -0.011748450711728219
 0.9890594803592747 -0.09346339828139111 0.008652243862836171 0.03986550493250619 -0.0024506640320467697 -0.011748414875380067 0.002874704286757889 0.01845118399941704
 0.002852851374169398 0.018454617335123102 -0.0024506640320467697 -0.011748414875380067 0.008655304846205516 0.03986708108939218 0.989059600133363 -0.09346151633977921
 -0.0024503469197189806 -0.011748450711728219 0.002874704286757889 0.01845118399941704 0.989059600133363 -0.09346151633977921 0.00865220801460428 0.03986726035331627
0.1438099208003 0.009080165146342387 0.04158742760470684 0.9884623551693791 -0.0975943093258806 0.0030642396545341507 0.019261624000951334 -0.0026271330497980652 -0.012253880942603415
 0.9884623551693791 -0.0975943093258806 0.009077039522662802 0.04158754194018188 -0.0026274791871389006 -0.012253840173754305 0.0030880892671864154 0.01925781040683198
 0.0030642396545341507 0.019261624000951334 -0.0026274791871389006 -0.012253840173754305 0.009080386138412241 0.04158917694673959 0.9884624867710339 -0.09759233730485314
 -0.0026271330497980652 -0.012253880942603415 0.0030880892671864154 0.01925781040683198 0.9884624867710339 -0.09759233730485314 0.00907699911354245 0.041589368406216985
0.1500625260525 0.009519571063184795 0.043299967104617844 0.9878450203830469 -0.10171437983697451 0.00328374392747623 0.020065122765112683 -0.0028106340635310556 -0.012756075286225946
 0.9878450203830469 -0.10171437983697451 0.009516164053959482 0.043300086707287654 -0.002811010455622862 -0.01275602916527488 0.0033096743924189774 0.020060901038438616
 0.00328374392747623 0.020065122765112683 -0.002811010455622862 -0.01275602916527488 0.009519809229510479 0.043301778807104466 0.9878451644978427 -0.10171231714490803
 -0.0028106340635310556 -0.012756075286225946 0.0033096743924189774 0.020060901038438616 0.9878451644978427 -0.10171231714490803 0.009516118701487058 0.043301983086365244
0.15631513130469998 0.009973164533372323 0.04500286801261724 0.9872076338939505 -0.10582350065329219 0.0035112877516188224 0.020865028338896606 -0.0030007752952689675 -0.013254953057509313
