! Created with skrf 1.8.0 (http://scikit-rf.org).
# GHz S RI R 50.0 
!freq ReS11 ImS11 ReS12 ImS12 ReS13 ImS13
! ReS14 ImS14
! ReS21 ImS21 ReS22 ImS22 ReS23 ImS23
! ReS24 ImS24
! ReS31 ImS31 ReS32 ImS32 ReS33 ImS33
! ReS34 ImS34
! ReS41 ImS41 ReS42 ImS42 ReS43 ImS43
! ReS44 ImS44
!
0.0 0.001244916670764 0.0 0.9987550833179 0.0 4.752524476838e-05 0.0 -4.752524379153e-05 5.8201637687994835e-21
 0.9987550833179 0.0 0.001244916670723 0.0 -4.752524379032e-05 5.820163768651301e-21 4.752524476751e-05 0.0
 4.752524476838e-05 0.0 -4.752524379032e-05 5.820163768651301e-21 0.001244916673574 0.0 0.9987550833207 0.0
 -4.752524379153e-05 5.8201637687994835e-21 4.752524476751e-05 0.0 0.9987550833207 0.0 0.001244916673588 0.0
0.005 0.0013387321082740586 0.0010187335517057793 0.9986365253807366 -0.0026087053437138068 6.610418905479118e-05 0.0005247673861816598 -6.435322120787762e-05 -0.0003293003962358985
 0.9986365253807366 -0.0026087053437138068 0.0013387058780235976 0.001018748865200167 -6.435512297159375e-05 -0.00032930187999132465 6.625909355336619e-05 0.0005247085300582475
 6.610418905479118e-05 0.0005247673861816598 -6.435512297159375e-05 -0.00032930187999132465 0.0013387313544949429 0.0010188012747198104 0.9986365257189073 -0.0026086382861377757
 -6.435322120787762e-05 -0.0003293003962358985 6.625909355336619e-05 0.0005247085300582475 0.9986365257189073 -0.0026086382861377757 0.0013387073046067133 0.0010188152546556357
0.006252605252188 0.0013631337563513918 0.0012774544501087388 0.9986055330128333 -0.0032615520655110597 7.126939979343243e-05 0.000656227791806631 -6.900819848105184e-05 -0.00041206353470694485
 0.9986055330128333 -0.0032615520655110597 0.0013630927535963119 0.0012774738902201026 -6.901115764810333e-05 -0.00041206536535910786 7.151142798861765e-05 0.0006561514289511671
 7.126939979343243e-05 0.000656227791806631 -6.901115764810333e-05 -0.00041206536535910786 0.0013631324863256525 0.0012775391123389672 0.9986055334502227 -0.0032614682371995304
 -6.900819848105184e-05 -0.00041206353470694485 7.151142798861765e-05 0.0006561514289511671 0.9986055334502227 -0.0032614682371995304 0.001363094892615223 0.00127755687850017
0.01250521050438 0.0014904049187122838 0.0025819830964559877 0.9984430112544986 -0.006524093005790217 0.00010013871576722692 0.0013128976531695319 -9.49035927766211e-05 -0.0008262567819693532
 0.9984430112544986 -0.006524093005790217 0.001490241193401744 0.0025820249803510577 -9.491525339938072e-05 -0.0008262601837289007 0.00010110396405302121 0.001312715183690007
 0.00010013871576722692 0.0013128976531695319 -9.491525339938072e-05 -0.0008262601837289007 0.0014903993137381838 0.002582152181555493 0.9984430124735078 -0.006523925608222626
 -9.49035927766211e-05 -0.0008262567819693532 0.00010110396405302121 0.001312715183690007 0.9984430124735078 -0.006523925608222626 0.0014902492107588812 0.0025821906321160893
0.01875781575657 0.0016269643160454763 0.003905428332413607 0.9982673472365254 -0.00979560682437593 0.00013419471793601253 0.0019704799041193933 -0.0001252818022400898 -0.0012420081895755206
 0.9982673472365254 -0.00979560682437593 0.0016265964175474225 0.0039054958790813595 -0.00012530780499412711 -0.0012420128625273156 0.000136363277628751 0.0019701566461700925
 0.00013419471793601253 0.0019704799041193933 -0.00012530780499412711 -0.0012420128625273156 0.0016269512863932468 0.0039056817912320758 0.9982673495538343 -0.009795355928054465
 -0.0001252818022400898 -0.0012420081895755206 0.000136363277628751 0.0019701566461700925 0.9982673495538343 -0.009795355928054465 0.0016266140174971573 0.0039057440099709412
0.02501042100875 0.001773041427915376 0.0052459815615116204 0.9980783646593958 -0.013077722847145675 0.00017349899597184686 0.0026290325960209083 -0.00016021156793745008 -0.0016591552743640892
 0.9980783646593958 -0.013077722847145675 0.0017723880722739505 0.0052460781765649115 -0.00016025748665081838 -0.0016591608723481612 0.00017735132335838148 0.002628529145035355
 0.00017349899597184686 0.0026290325960209083 -0.00016025748665081838 -0.0016591608723481612 0.0017730178932289858 0.005246319360741883 0.998078368402916 -0.013077388506633219
 -0.00016021156793745008 -0.0016591552743640892 0.00017735132335838148 0.002628529145035355 0.998078368402916 -0.013077388506633219 0.0017724189670336075 0.0052464085715060674
0.03126302626094 0.0019288559818648934 0.006602734019437194 0.9978758767949437 -0.01637116485852107 0.00021811356288428227 0.0032885539856587175 -0.00019976007776528808 -0.0020775922636427206
 0.9978758767949437 -0.01637116485852107 0.0019278360106606432 0.006602863289664819 -0.0001998314311397965 -0.0020775983934913705 0.0002241309493811191 0.0032878261898606556
 0.00021811356288428227 0.0032885539856587175 -0.0001998314311397965 -0.0020775983934913705 0.0019288188575887336 0.006603156166864395 0.997875882292538 -0.01637074708704422
 -0.00019976007776528808 -0.0020775922636427206 0.0002241309493811191 0.0032878261898606556 0.997875882292538 -0.01637074708704422 0.0019278839101864878 0.0066032757280182555
0.037515631513130004 0.0020946231449043193 0.007975109848225621 0.9976596917860101 -0.019676317978667056 0.0002681004068932954 0.0039490191477124575 -0.0002439934720263118 -0.0024972334848740348
 0.9976596917860101 -0.019676317978667056 0.002093155500083839 0.0079752755386503 -0.00024409572977707148 -0.002497239706153965 0.00027676520399923374 0.003948018059313917
 0.0002681004068932954 0.0039490191477124575 -0.00024409572977707148 -0.002497239706153965 0.0020945693420942988 0.007975616360129452 0.9976596993660004 -0.01967581678069688
 -0.0002439934720263118 -0.0024972334848740348 0.00027676520399923374 0.003948018059313917 0.9976596993660004 -0.01967581678069688 0.002093224112716159 0.007975769761292677
0.043768236765320004 0.0022705555454845486 0.00936269354864266 0.9974296147699195 -0.022993401157430534 0.00032352128458886805 0.004610391105381932 -0.00029297703499253153 -0.0029180022273761126
 0.9974296147699195 -0.022993401157430534 0.0022685592498020934 0.009362899600842951 -0.0002931156214704663 -0.002918008052297741 0.0003353170244195918 0.004609062924252264
 0.00032352128458886805 0.004610391105381932 -0.0002931156214704663 -0.002918008052297741 0.0022704819701180965 0.009363284447823987 0.9974296247618181 -0.022992816530833425
 -0.00029297703499253153 -0.0029180022273761126 0.0003353170244195918 0.004609062924252264 0.9974296247618181 -0.022992816530833425 0.0022686522827891744 0.009363475307443277
0.050020842017509996 0.002456864221139828 0.010765158664467677 0.997185448930005 -0.02632253843482214 0.0003844375984836768 0.0052726254237618056 -0.0003467752758136773 -0.0033398261392693774
 0.997185448930005 -0.02632253843482214 0.002454258362326749 0.01076540919523967 -0.0003469555724467556 -0.0033398310326262707 0.0003998490589901174 0.005270911437828007
 0.0003844375984836768 0.0052726254237618056 -0.0003469555724467556 -0.0033398310326262707 0.0024567677739825485 0.010765833996578706 0.9971854616645756 -0.026321870354663886
 -0.0003467752758136773 -0.0033398261392693774 0.0003998490589901174 0.005270911437828007 0.9971854616645756 -0.026321870354663886 0.0024543795219023274 0.010766066060065057
0.055454545454549996 0.002627361984781083 0.011995816358139627 0.9969616656855774 -0.02922549986776234 0.00044188604659871485 0.005848789012509515 -0.0003974872259909443 -0.0037072062312348995
 0.9969616656855774 -0.02922549986776234 0.0026241607262837015 0.011996109020940159 -0.00039770810830154263 -0.0037072098435465646 0.00046083436918840915 0.005846688208215676
 0.00044188604659871485 0.005848789012509515 -0.00039770810830154263 -0.0037072098435465646 0.0026272431408564507 0.011996565105892086 0.9969616810744698 -0.029224759240004814
 -0.0003974872259909443 -0.0037072062312348995 0.00046083436918840915 0.005846688208215676 0.9969616810744698 -0.029224759240004814 0.0026243093386646315 0.011996836115945583
0.056273447269699996 0.0026537591149592863 0.012182232809401788 0.9969269960950234 -0.029663793858577505 0.0004509103119326503 0.0059356724681929145 -0.0004054519594902868 -0.0037626349593279347
 0.9969269960950234 -0.029663793858577505 0.0026504628315732223 0.012182532109911654 -0.00040567930643244717 -0.0037626383384847095 0.000470423549374474 0.005933508992203637
 0.0004509103119326503 0.0059356724681929145 -0.00040567930643244717 -0.0037626383384847095 0.0026536366919436252 0.01218299262457675 0.9969270119056725 -0.029663042295590695
 -0.0004054519594902868 -0.0037626349593279347 0.000470423549374474 0.005933508992203637 0.9969270119056725 -0.029663042295590695 0.002650615823741934 0.012183269762734334
0.06252605252188 0.002861449356454585 0.01361367840756782 0.996654057126126 -0.03301719068848934 0.00052299988342998 0.006599478627835865 -0.0004690701117986294 -0.004186359284307142
 0.996654057126126 -0.03301719068848934 0.002857381824682033 0.013614030942842772 -0.0004693498091218818 -0.004186360519194139 0.000547102242913412 0.006596796941318147
 0.00052299988342998 0.006599478627835865 -0.0004693498091218818 -0.004186360519194139 0.002861297847187732 0.01361452276979077 0.9966540763476883 -0.03301635559998217
 -0.0004690701117986294 -0.004186359284307142 0.000547102242913412 0.006596796941318147 0.9966540763476883 -0.03301635559998217 0.0028575703537391047 0.013614848977582642
0.06877865777407 0.0030801434217211173 0.015059281227238512 0.9963664321840253 -0.03638272280858953 0.0006007662092146642 0.007263987057531153 -0.0005376920112257809 -0.004610929819092152
 0.9963664321840253 -0.03638272280858953 0.0030752238430840646 0.015059691635944374 -0.0005380293197666457 -0.004610928232205481 0.000629946320362949 0.00726071334227414
 0.0006007662092146642 0.007263987057531153 -0.0005380293197666457 -0.004610928232205481 0.0030799597098552242 0.01506021020842097 0.9963664551538488 -0.036381804144499826
 -0.0005376920112257809 -0.004610929819092152 0.000629946320362949 0.00726071334227414 0.9963664551538488 -0.036381804144499826 0.0030754516121229303 0.015060589604017285
0.07503126302626001 0.003310049223645794 0.016518843106374664 0.9960639209283958 -0.03976036194857406 0.0006842685735653285 0.007929138135708584 -0.0006113791702609129 -0.0050362769120827384
 0.9960639209283958 -0.03976036194857406 0.003304196813079533 0.016519316200835733 -0.0006117793122719746 -0.005036271778493223 0.0007190163349633726 0.007925193413067008
 0.0006842685735653285 0.007929138135708584 -0.0006117793122719746 -0.005036271778493223 0.0033098301868446965 0.016519856789157614 0.9960639479866631 -0.03975935964890714
 -0.0006113791702609129 -0.0050362769120827384 0.0007190163349633726 0.007925193413067008 0.9960639479866631 -0.03975935964890714 0.003304467523684394 0.016520293613294185
0.08128386827845 0.0035513741609608874 0.01799217710394361 0.9957463226781471 -0.04315006248091214 0.0007735656008353778 0.008594869775717695 -0.0006901923125858962 -0.005462330238608556
 0.9957463226781471 -0.04315006248091214 0.0035445081351863834 0.017992717870506828 -0.0006906604721833676 -0.005462320785978796 0.0008143721558749083 0.008590169843913904
 0.0007735656008353778 0.008594869775717695 -0.0006906604721833676 -0.005462320785978796 0.0035511166701331634 0.017993275584485345 0.9957463541675406 -0.043148976473172944
 -0.0006901923125858962 -0.005462330238608556 0.0008143721558749083 0.008590169843913904 0.9957463541675406 -0.043148976473172944 0.003544825486601121 0.01799377420005413
0.08753647353064001 0.003804325136244014 0.019479104164995754 0.9954134365421102 -0.04655176470584052 0.0008687152108995408 0.009261117636299322 -0.0007741913448776923 -0.005889018586776689
 0.9954134365421102 -0.04655176470584052 0.003796364702106616 0.019479717764667965 -0.0007747326683394672 -0.005889003995383223 0.0009160729169009325 0.009255573007830939
 0.0008687152108995408 0.009261117636299322 -0.0007747326683394672 -0.005889003995383223 0.0038040260555935873 0.019480287545587744 0.9954134728087446 -0.04655059491265244
 -0.0007741913448776923 -0.005889018586776689 0.0009160729169009325 0.009255573007830939 0.9954134728087446 -0.04655059491265244 0.003796732391260844 0.01948085243750731
0.09378907878283 0.004069108554817928 0.020979450707762495 0.9950650615335841 -0.049965397215913775 0.000969774575011375 0.009927815273449658 -0.0008634353266553492 -0.006316269703579948
 0.9950650615335841 -0.049965397215913775 0.004059972898081861 0.020980142477125208 -0.0008640549226888294 -0.006316249106332935 0.0010241769666334212 0.009921331112711994
 0.000969774575011375 0.009927815273449658 -0.0008640549226888294 -0.006316249106332935 0.004068764742154014 0.020980719103827945 0.9950651029270265 -0.04996414354831149
 -0.0008634353266553492 -0.006316269703579948 0.0010241769666334212 0.009921331112711994 0.9950651029270265 -0.04996414354831149 0.004060394619343113 0.020981354879261366
0.100041684035 0.004345930311046286 0.02249304687721667 0.9947009966728289 -0.05339087859603736 0.0010768000732907044 0.010594894251287753 -0.0009579824371046674 -0.006744010183733959
 0.9947009966728289 -0.05339087859603736 0.004335538584682964 0.02249382232967948 -0.0009586853769354176 -0.006743982666213217 0.0011387418212606382 0.010587370312474058
 0.0010768000732907044 0.010594894251287753 -0.0009586853769354176 -0.006743982666213217 0.004345538616651755 0.022494400415526545 0.994701043546069 -0.053389540955428166
 -0.0009579824371046674 -0.006744010183733959 0.0011387418212606382 0.010587370312474058 0.994701043546069 -0.053389540955428166 0.004336018028801709 0.022495111804340526
0.1059090909091 0.004616829841095423 0.023925297541688394 0.9943449117235861 -0.05661602578407334 0.0011827077762814496 0.01122116130890493 -0.0010515790322025184 -0.007145777855357847
 0.9943449117235861 -0.05661602578407334 0.004605185858174392 0.02392615669505777 -0.0010523647602753493 -0.007145742970102493 0.0012521752802384571 0.011212565602641568
 0.0011827077762814496 0.01122116130890493 -0.0010523647602753493 -0.007145742970102493 0.004616390344445752 0.023926731099851287 0.9943449640642312 -0.05661460924824966
 -0.0010515790322025184 -0.007145777855357847 0.0012521752802384571 0.011212565602641568 0.9943449640642312 -0.05661460924824966 0.004605722823041686 0.023927517855590198
0.1062942892872 0.004634995761045039 0.024019725218131376 0.994321041079154 -0.05682811870587987 0.001189847252101039 0.011262284226592988 -0.0010578899406860206 -0.007172165386637609
 0.994321041079154 -0.05682811870587987 0.004623267074009631 0.02402059004541255 -0.0010586812581584427 -0.007172129987120882 0.0012598241178925621 0.01125361479198345
 0.001189847252101039 0.011262284226592988 -0.0010586812581584427 -0.007172129987120882 0.004634553028776047 0.024021164035563616 0.9943210937899658 -0.0568266969856131
 -0.0010578899406860206 -0.007172165386637609 0.0012598241178925621 0.01125361479198345 0.9943210937899658 -0.0568266969856131 0.0046238079287147255 0.024021955891151893
0.11254689453939999 0.004936509691662803 0.025559319662279083 0.9939249940607147 -0.06027701965012434 0.0013089707820902858 0.011929913015146027 -0.0011632141510702614 -0.007600659373403574
 0.9939249940607147 -0.06027701965012434 0.004923363097403013 0.025560279736310688 -0.0011640988426522632 -0.007600615082914605 0.0013874795689390654 0.011919986833785897
 0.0013089707820902858 0.011929913015146027 -0.0011640988426522632 -0.007600615082914605 0.0049360127575806744 0.025560843905113238 0.9939250529703224 -0.060275513736485244
 -0.0011632141510702614 -0.007600659373403574 0.0013874795689390654 0.011919986833785897 0.9939250529703224 -0.060275513736485244 0.004923969045741602 0.025561721205466147
0.11879949979160001 0.005250676279577217 0.02711166473027007 0.9935126551957878 -0.06373747653627305 0.001434224416087063 0.01259770664125035 -0.0012740103941194984 -0.008029414862633108
 0.9935126551957878 -0.06373747653627305 0.005236030764277661 0.027112726105376746 -0.001274993418873459 -0.008029360624981795 0.0015217629167991414 0.012586406868115123
 0.001434224416087063 0.01259770664125035 -0.001274993418873459 -0.008029360624981795 0.0052501219726213124 0.027113274560192212 0.9935127206706483 -0.0637358863027929
 -0.0012740103941194984 -0.008029414862633108 0.0015217629167991414 0.012586406868115123 0.9935127206706483 -0.0637358863027929 0.005236705485024773 0.027114242409346064
0.1250521050438 0.005577699047627842 0.028676594911726843 0.9930838244139306 -0.06720937805628184 0.0015656609471532692 0.013265589383834434 -0.001390332969776534 -0.008458353191534285
 0.9930838244139306 -0.06720937805628184 0.0055614735188225265 0.02867776382711327 -0.0013914192492827946 -0.008458287903372575 0.001662727889027876 0.013252793519525746
 0.0015656609471532692 0.013265589383834434 -0.0013914192492827946 -0.008458287903372575 0.005577084189139835 0.02867829050041161 0.9930838968251434 -0.06720770336942691
 -0.001390332969776534 -0.008458353191534285 0.001662727889027876 0.013252793519525746 0.9930838968251434 -0.06720770336942691 0.005562220685509589 0.028679354130233037
0.131304710296 0.005917780816435833 0.030253944156711274 0.992638302074072 -0.07069260695921833 0.0017033321665560228 0.013933483809144116 -0.0015122351131647447 -0.008887394292596586
 0.992638302074072 -0.07069260695921833 0.005899894091341526 0.030255227039333227 -0.0015134295314373784 -0.00888731680346897 0.0018104271536152658 0.0139190636401497
 0.0017033321665560228 0.013933483809144116 -0.0015134295314373784 -0.00888731680346897 0.005917102220012445 0.030255725688861732 0.9926383817978888 -0.07069084767570201
 -0.0015122351131647447 -0.008887394292596586 0.0018104271536152658 0.0139190636401497 0.9926383817978888 -0.07069084767570201 0.005900717371698337 0.030256890461181307
0.1375573155481 0.006186632307665474 0.0316372550556506 0.9922604056080845 -0.0739806739609843 0.001827483121281482 0.014579866467516054 -0.001619837423344784 -0.009295106024956621
 0.9922604056080845 -0.0739806739609843 0.0061669976784331304 0.03163863043472574 -0.001621147215516304 -0.009295016437997542 0.0019448537031253094 0.014563859651145952
 0.001827483121281482 0.014579866467516054 -0.001621147215516304 -0.009295016437997542 0.006185887403153754 0.031639122714541036 0.9922604929755411 -0.0739788300114252
 -0.001619837423344784 -0.009295106024956621 0.0019448537031253094 0.014563859651145952 0.9922604929755411 -0.0739788300114252 0.006167900204012256 0.031640366215221406
0.1438099208003 0.006464710714917425 0.03301436147837938 0.9918696605720378 -0.07726151049412187 0.0019566265681777925 0.01522436453131558 -0.0017317570836560853 -0.009701034185468532
 0.9918696605720378 -0.07726151049412187 0.006443246022005829 0.03301583395436874 -0.0017331875034840463 -0.009700931388264101 0.0020847279286133184 0.015206655509491187
 0.0019566265681777925 0.01522436453131558 -0.0017331875034840463 -0.009700931388264101 0.006463896416748121 0.03301631544590072 0.9918697559575163 -0.0772595817405606
 -0.0017317570836560853 -0.009701034185468532 0.0020847279286133184 0.015206655509491187 0.9918697559575163 -0.0772595817405606 0.0064442313558596585 0.03301764119167951
0.1500625260525 0.006751932100170865 0.03438518066506644 0.9914661539034485 -0.08053506822578688 0.002090725216420317 0.01586693660528946 -0.0018479567314499796 -0.010105136573389788
 0.9914661539034485 -0.08053506822578688 0.006728555060718072 0.03438675509033608 -0.0018495130251311254 -0.010105019409243654 0.0022300104334519607 0.01584740564183906
 0.002090725216420317 0.01586693660528946 -0.0018495130251311254 -0.010105019409243654 0.006751045322877314 0.03438722113013934 0.9914662576857479 -0.08053305452496567
 -0.0018479567314499796 -0.010105136573389788 0.0022300104334519607 0.01584740564183906 0.9914662576857479 -0.08053305452496567 0.00672962675440528 0.03438863284636039
0.15631513130469998 0.007048212089226386 0.035749632538964286 0.9910499728079643 -0.08380129837767936 0.0022297414291781526 0.016507541876211285 -0.001968398631023967 -0.010507371787878285
