! Created with skrf 1.8.0 (http://scikit-rf.org).
# GHz S RI R 50.0 
!freq ReS11 ImS11 ReS12 ImS12 ReS13 ImS13
! ReS14 ImS14
! ReS21 ImS21 ReS22 ImS22 ReS23 ImS23
! ReS24 ImS24
! ReS31 ImS31 ReS32 ImS32 ReS33 ImS33
! ReS34 ImS34
! ReS41 ImS41 ReS42 ImS42 ReS43 ImS43
! ReS44 ImS44
!
0.0 0.001333229692666 0.0 0.9986667703017 0.0 5.107724099977e-05 0.0 -5.107724117736e-05 6.2551579917131306e-21
 0.9986667703017 0.0 0.001333229692651 0.0 -5.107724117683e-05 6.2551579916482245e-21 5.107724099916e-05 0.0
 5.107724099977e-05 0.0 -5.107724117683e-05 6.2551579916482245e-21 0.001333229692657 0.0 0.9986667703017 0.0
 -5.107724117736e-05 6.2551579917131306e-21 5.107724099916e-05 0.0 0.9986667703017 0.0 0.001333229692663 0.0
0.005 0.0014339122178663418 0.001091026615289606 0.9985394815513232 -0.0027933841759943583 7.125867589404675e-05 0.0005634022001635844 -6.926058054638119e-05 -0.0003536250554548654
 0.9985394815513232 -0.0027933841759943583 0.0014339171777704165 0.0010910237080274943 -6.925779700737345e-05 -0.0003536229048243797 7.122821449255556e-05 0.0005634136369731611
 7.125867589404675e-05 0.0005634022001635844 -6.925779700737345e-05 -0.0003536229048243797 0.0014339133665244295 0.0010909586472399964 0.9985394812096984 -0.002793451244452297
 -6.926058054638119e-05 -0.0003536250554548654 7.122821449255556e-05 0.0005634136369731611 0.9985394812096984 -0.002793451244452297 0.0014339153457365974 0.0010909575377714988
0.006252605252188 0.0014601612084792265 0.0013680973890183405 0.9985061121797967 -0.0034924379696235535 7.693444142338236e-05 0.0007045354752867858 -7.432171476763855e-05 -0.00044249775521789227
 0.9985061121797967 -0.0034924379696235535 0.0014601689622608363 0.0013680937497651921 -7.431738339273186e-05 -0.00044249510251323753 7.688684600859653e-05 0.0007045503406594353
 7.693444142338236e-05 0.0007045354752867858 -7.431738339273186e-05 -0.00044249510251323753 0.0014601630750417168 0.0013680124484993974 0.998506111716445 -0.0034925217818810275
 -7.432171476763855e-05 -0.00044249775521789227 7.688684600859653e-05 0.0007045503406594353 0.998506111716445 -0.0034925217818810275 0.0014601661687501535 0.0013680110630294533
0.01250521050438 0.0015974275925340325 0.0027650884366408404 0.9983305782285937 -0.006985828338424747 0.00010900857296559693 0.0014094845348109333 -0.00010264761816413953 -0.0008872405284108871
 0.9983305782285937 -0.006985828338424747 0.0015974585587073388 0.002765081104218534 -0.00010263054865782493 -0.0008872356090512954 0.0001088187075061645 0.0014095203372463303
 0.00010900857296559693 0.0014094845348109333 -0.00010263054865782493 -0.0008872356090512954 0.0015974356409711244 0.002764918742155437 0.9983305769687936 -0.006985995724236944
 -0.00010264761816413953 -0.0008872405284108871 0.0001088187075061645 0.0014095203372463303 0.9983305769687936 -0.006985995724236944 0.0015974479898372852 0.0027649160052680053
0.01875781575657 0.001745296147360803 0.004182226165759916 0.9981399734628954 -0.010488706771436698 0.0001473688895854015 0.002115340220250375 -0.00013613507672961613 -0.001333607460361113
 0.9981399734628954 -0.010488706771436698 0.001745365737836029 0.004182215057944659 -0.0001360970103334194 -0.0013336007252709532 0.00014694222143372775 0.002115404066455687
 0.0001473688895854015 0.002115340220250375 -0.0001360970103334194 -0.0013336007252709532 0.0017453146648510544 0.004181971736489183 0.9981399710554317 -0.010488957616640674
 -0.00013613507672961613 -0.001333607460361113 0.00014694222143372775 0.002115404066455687 0.9981399710554317 -0.010488957616640674 0.0017453424027412173 0.004181967723768877
0.02501042100875 0.0019040279705407118 0.0056175611963879815 0.9979340961276885 -0.014002804383506283 0.00019208568263664425 0.00282215321767101 -0.00017486217652196016 -0.0017814162737153794
 0.9979340961276885 -0.014002804383506283 0.0019041515721976345 0.005617546211025645 -0.0001747949519771068 -0.0017814082471458396 0.00019132754477410452 0.002822253215301719
 0.00019208568263664425 0.00282215321767101 -0.0001747949519771068 -0.0017814082471458396 0.0019040612463520515 0.005617221969259677 0.9979340922272351 -0.014003138615589182
 -0.00017486217652196016 -0.0017814162737153794 0.00019132754477410452 0.002822253215301719 0.9979340922272351 -0.014003138615589182 0.0019041104890052671 0.00561721680196566
0.03126302626094 0.0020738731939420585 0.007070107182723131 0.9977127330712089 -0.017528882273136565 0.0002432299091136382 0.00352990981754781 -0.0002189051349625293 -0.0022305452973497147
 0.9977127330712089 -0.017528882273136565 0.0020740661776049237 0.007070088199570649 -0.00021880067150526928 -0.0022305365779914533 0.00024204541224327324 0.0035300550827571235
 0.0002432299091136382 0.00352990981754781 -0.00021880067150526928 -0.0022305365779914533 0.0020739255176542505 0.007069683043450856 0.9977127273346782 -0.017529299830310565
 -0.0002189051349625293 -0.0022305452973497147 0.00024204541224327324 0.0035300550827571235 0.9977127273346782 -0.017529299830310565 0.002074002367443058 0.00706967689031088
0.037515631513130004 0.002255076717332855 0.008539233770673263 0.9974756656063997 -0.021067338512343728 0.0003008725150556001 0.004238571187105733 -0.0002683388612820015 -0.00268089418446057
 0.9974756656063997 -0.021067338512343728 0.002255354443833885 0.008539210652278183 -0.0002681891499389681 -0.0026808854458025876 0.0002991665059765562 0.004238771856313452
 0.0003008725150556001 0.004238571187105733 -0.0002681891499389681 -0.0026808854458025876 0.0022551523787973176 0.008538724559605948 0.9974756576920139 -0.02106783933745745
 -0.0002683388612820015 -0.00268089418446057 0.0002991665059765562 0.004238771856313452 0.9974756576920139 -0.02106783933745745 0.0022552629283803635 0.008538717638344706
0.043768236765320004 0.0024478804342745538 0.010024481862001193 0.9972226718660596 -0.024618392823032624 0.00036508412676729567 0.004948085301069163 -0.00032323716379608025 -0.003132371971740546
 0.9972226718660596 -0.024618392823032624 0.0024482582588303066 0.010024454454214226 -0.0003230342620589358 -0.003132363962215106 0.0003627611666574581 0.004948352544023091
 0.00036508412676729567 0.004948085301069163 -0.0003230342620589358 -0.003132363962215106 0.002447983723807841 0.01002388737799649 0.9972226614330223 -0.024618976859383804
 -0.00032323716379608025 -0.003132371971740546 0.0003627611666574581 0.004948352544023091 0.9972226614330223 -0.024618976859383804 0.002448134059864485 0.010023879956639347
0.050020842017509996 0.0026525242721645295 0.011525487268435207 0.9969535279740424 -0.028182162861044885 0.000435934870553415 0.0056583918718563445 -0.00038367283290969493 -0.003584892139724723
 0.9969535279740424 -0.028182162861044885 0.0026530175483810625 0.01152545540081954 -0.0003834088613721374 -0.003584885682780284 0.00043289922354269476 0.0056587379053030995
 0.000435934870553415 0.0056583918718563445 -0.0003834088613721374 -0.003584885682780284 0.0026526594807858273 0.011524807261866454 0.9969535146827042 -0.028182830058974408
 -0.00038367283290969493 -0.003584892139724723 0.00043289922354269476 0.0056587379053030995 0.9969535146827042 -0.028182830058974408 0.0026528556870104606 0.01152479966005304
0.055454545454549996 0.0028401668612048213 0.01284246404288549 0.9967063429976681 -0.03128955611481064 0.0005029520959572795 0.006276262134483444 -0.000440746069031009 -0.003978926767364917
 0.9967063429976681 -0.03128955611481064 0.002840772938718633 0.012842428148608483 -0.00044042267413509133 -0.003978922386688776 0.000499219118774078 0.006276687384356405
 0.0005029520959572795 0.006276262134483444 -0.00044042267413509133 -0.003978922386688776 0.002840333293328946 0.012841709485248912 0.9967063269469858 -0.031290295536618704
 -0.000440746069031009 -0.003978926767364917 0.000499219118774078 0.006276687384356405 0.9967063269469858 -0.031290295536618704 0.0028405743031697807 0.012841702027054137
0.056273447269699996 0.0028692467375799244 0.013041943228970142 0.9966680087248596 -0.031758701637183 0.0005134942472956582 0.00636942476605361 -0.00044971767030479206 -0.004038370188206937
 0.9966680087248596 -0.031758701637183 0.0028698708209960165 0.01304190671496245 -0.0004493848102796079 -0.004038366182340128 0.0005096498755989258 0.006369862867649621
 0.0005134942472956582 0.00636942476605361 -0.0004493848102796079 -0.004038366182340128 0.0028694181565481532 0.013041177413370197 0.9966679922362663 -0.03175945194217542
 -0.00044971767030479206 -0.004038370188206937 0.0005096498755989258 0.006369862867649621 0.9966679922362663 -0.03175945194217542 0.002869666317171452 0.013041170003385831
0.06252605252188 0.0030982852168697085 0.014573579814935568 0.9963658880207475 -0.03534801805127755 0.0005978310381353414 0.007081113326296259 -0.0005214424871476902 -0.004492722307862631
 0.9963658880207475 -0.03534801805127755 0.0030990554683641776 0.014573538451973287 -0.000521032979064081 -0.004492721726624406 0.0005930816010154193 0.007081657848712043
 0.0005978310381353414 0.007081113326296259 -0.000521032979064081 -0.004492721726624406 0.0030984971383883164 0.014572727858719357 0.996365867997217 -0.035348851411665536
 -0.0005214424871476902 -0.004492722307862631 0.0005930816010154193 0.007081657848712043 0.996365867997217 -0.035348851411665536 0.0030988033411228797 0.014572721066681064
0.06877865777407 0.003339876146848711 0.016120151644927562 0.996046939180785 -0.03895008911767354 0.0006890132230309618 0.007793383163538198 -0.0005989170886597151 -0.004947864583432423
 0.996046939180785 -0.03895008911767354 0.0033408079358354737 0.016120105214406537 -0.0005984232308725331 -0.004947868475427639 0.0006832620788677604 0.007794049548614225
 0.0006890132230309618 0.007793383163538198 -0.0005984232308725331 -0.004947868475427639 0.003340132863122217 0.01611921317701425 0.9960469152854832 -0.038951005478713656
 -0.0005989170886597151 -0.004947864583432423 0.0006832620788677604 0.007794049548614225 0.9960469152854832 -0.038951005478713656 0.003340503202592785 0.016119207483832936
0.07503126302626001 0.003594255105181585 0.01768143008999817 0.9957109351736637 -0.042564867702529326 0.0007871079103339428 0.008506156653457022 -0.0006822102469458769 -0.005403712494820177
 0.9957109351736637 -0.042564867702529326 0.00359536381282777 0.017681378357298376 -0.0006816243949466714 -0.005403721983698117 0.0007802581207059648 0.00850696144641009
 0.0007871079103339428 0.008506156653457022 -0.0006816243949466714 -0.005403721983698117 0.003594560908741587 0.017680404696758717 0.9957109070705271 -0.04256586700901775
 -0.0006822102469458769 -0.005403712494820177 0.0007802581207059648 0.00850696144641009 0.9957109070705271 -0.04256586700901775 0.003595001489526325 0.017680400639091213
0.08128386827845 0.0038616568541843753 0.019257198092393804 0.9953576488048425 -0.046192287649621265 0.0008921812712680975 0.009219353271212 -0.0007713896679192628 -0.005860180582087136
 0.9953576488048425 -0.046192287649621265 0.003862957876432468 0.019257140806628815 -0.0007707042337284637 -0.005860196866517114 0.0008841356068050806 0.009220314134805702
 0.0008921812712680975 0.009219353271212 -0.0007707042337284637 -0.005860196866517114 0.0038620160381074202 0.019256085318188263 0.9953576161594258 -0.046193369844912006
 -0.0007713896679192628 -0.005860180582087136 0.0008841356068050806 0.009220314134805702 0.9953576161594258 -0.046193369844912006 0.0038625329782419446 0.01925608348927079
0.08753647353064001 0.004142315352867867 0.02084724658208037 0.994986852875149 -0.04983226731050941 0.0010042984778194783 0.009932889820424819 -0.0008665219538547523 -0.006317182218498513
 0.994986852875149 -0.04983226731050941 0.0041438241035679745 0.020847183475904328 -0.0008657294056723558 -0.006317206572142392 0.0009949594252871938 0.009934025549152554
 0.0010042984778194783 0.009932889820424819 -0.0008657294056723558 -0.006317206572142392 0.004142732209548465 0.0208460459284307 0.9949868153539164 -0.049833432337037326
 -0.0008665219538547523 -0.006317182218498513 0.0009949594252871938 0.009934025549152554 0.9949868153539164 -0.049833432337037326 0.0041433316436563445 0.020846046978878593
0.09378907878283 0.004436463744781115 0.022451371908795387 0.994598320318073 -0.053484712062063 0.0011235236435104142 0.010646680600210715 -0.0009676725620457571 -0.006774629447979132
 0.994598320318073 -0.053484712062063 0.00443819565863545 0.022451302698066528 -0.0009667654239955959 -0.006774663219459934 0.0011127934140363327 0.010648011134400845
 0.0011235236435104142 0.010646680600210715 -0.0009667654239955959 -0.006774663219459934 0.004436942566329413 0.022450082833787674 0.9945982775885076 -0.05348595986141055
 -0.0009676725620457571 -0.006774629447979132 0.0011127934140363327 0.010648011134400845 0.9945982775885076 -0.05348595986141055 0.004437630649179679 0.022450087472250767
0.100041684035 0.004744334331400529 0.02406937396004499 0.9941918243240006 -0.05714951614023274 0.0012499197650686134 0.01136063752783448 -0.0010749057615322222 -0.007232432869419689
 0.9941918243240006 -0.05714951614023274 0.0047463048673043445 0.024069298343422807 -0.0010738766136104657 -0.007232477482262666 0.0012377003033305788 0.011362183967730472
 0.0012499197650686134 0.01136063752783448 -0.0010738766136104657 -0.007232477482262666 0.004744879409365969 0.024067995881619418 0.9941917760550244 -0.057150846649526035
 -0.0010749057615322222 -0.007232432869419689 0.0012377003033305788 0.011362183967730472 0.9941917760550244 -0.057150846649526035 0.004745662319065155 0.02406800487550009
0.1059090909091 0.005045924568422361 0.02560014161505753 0.9937938316873149 -0.06059968394238653 0.0013751061113873276 0.012030681017923211 -0.001181120963090899 -0.007662275798424445
 0.9937938316873149 -0.06059968394238653 0.005048133109653827 0.025600059697324224 -0.0011799706231475434 -0.007662331946104273 0.00136139975429532 0.01203245029834476
 0.0013751061113873276 0.012030681017923211 -0.0011799706231475434 -0.007662331946104273 0.005046535722903959 0.025598679447477887 0.9937937779198999 -0.06060109200832903
 -0.001181120963090899 -0.007662275798424445 0.00136139975429532 0.01203245029834476 0.9937937779198999 -0.06060109200832903 0.00504741326069831 0.025598693279099926
0.1062942892872 0.005066158533764644 0.025701054749299082 0.9937671384559377 -0.06082656400685758 0.0013835486656570506 0.012074670232010688 -0.0011882845874268198 -0.0076905015529675535
 0.9937671384559377 -0.06082656400685758 0.0050683831777871965 0.02570097240770287 -0.001187126065427709 -0.007690558505559159 0.0013697416598597472 0.012076454851709134
 0.0013835486656570506 0.012074670232010688 -0.001187126065427709 -0.007690558505559159 0.005066774158432776 0.02569958704143341 0.99376708431758 -0.060827977162088015
 -0.0011882845874268198 -0.0076905015529675535 0.0013697416598597472 0.012076454851709134 0.99376708431758 -0.060827977162088015 0.005067658100434807 0.02569960121729313
0.11254689453939999 0.005402166844951973 0.02734621732900485 0.9933240367575695 -0.06451573139417902 0.0015244709383488405 0.012788686129508514 -0.0013078707939496387 -0.008148742975582626
 0.9933240367575695 -0.06451573139417902 0.005404661113330144 0.027346127925090526 -0.0013065755895889039 -0.008148813841099403 0.0015089778309242668 0.012790732390879448
 0.0015244709383488405 0.012788686129508514 -0.0013065755895889039 -0.008148813841099403 0.0054028573051670215 0.027344659321339865 0.9933239764209851 -0.0645172271302338
 -0.0013078707939496387 -0.008148742975582626 0.0015089778309242668 0.012790732390879448 0.9933239764209851 -0.0645172271302338 0.005403848515295837 0.027344679565454166
0.11879949979160001 0.005752588774988687 0.029004664947109394 0.992862293857253 -0.06821688610912299 0.0016727458902375844 0.013502590483916345 -0.0014337248060897771 -0.008607062977286594
 0.992862293857253 -0.06821688610912299 0.005755368217467987 0.029004568124570907 -0.0014322856671175699 -0.008607149403628287 0.0016554678892205927 0.013504923050384737
 0.0016727458902375844 0.013502590483916345 -0.0014322856671175699 -0.008607149403628287 0.005753358358131386 0.02900301592527528 0.9928622269951937 -0.06821846435909881
 -0.0014337248060897771 -0.008607062977286594 0.0016554678892205927 0.013504923050384737 0.9928622269951937 -0.06821846435909881 0.00575446310668864 0.02900304318389775
0.1250521050438 0.00611765279155017 0.030676200373578152 0.9923816850681471 -0.0719298886706743 0.001828431486657277 0.01421628645783418 -0.0015659056702963783 -0.009065365726649753
 0.9923816850681471 -0.0719298886706743 0.006120732994393036 0.030676095756358806 -0.0015643154007191446 -0.009065469436349173 0.0018092695775702087 0.014218931208057485
 0.001828431486657277 0.01421628645783418 -0.0015643154007191446 -0.009065469436349173 0.006118505782759148 0.030674459580107987 0.9923816113545937 -0.07193154936452954
 -0.0015659056702963783 -0.009065365726649753 0.0018092695775702087 0.014218931208057485 0.9923816113545937 -0.07193154936452954 0.006119730377883452 0.030674494859784192
0.131304710296 0.006497586254749752 0.03236062536475242 0.9918819864863946 -0.07565459281262146 0.001991584295762028 0.014929675155498968 -0.0017044710040505476 -0.00952355369882555
 0.9918819864863946 -0.07565459281262146 0.006500982844000433 0.032360512556214284 -0.0017027224643732578 -0.009523676488955914 0.0019704392541832565 0.01493265919692105
 0.001991584295762028 0.014929675155498968 -0.0017027224643732578 -0.009523676488955914 0.0064985269366957844 0.032358791996430054 0.9918819055967407 -0.07565633587945034
 -0.0017044710040505476 -0.00952355369882555 0.0019704392541832565 0.01493265919692105 0.9918819055967407 -0.07565633587945034 0.0064998777282016355 0.03235883636416929
0.1375573155481 0.006800484570694358 0.033837702559785 0.991455133338939 -0.07917073203205308 0.002140316759375474 0.01562011441059437 -0.0018275658213945667 -0.009958980187152435
 0.991455133338939 -0.07917073203205308 0.006804213890759575 0.03383758088258569 -0.001825648469462451 -0.009959122005108798 0.0021171444394322892 0.015623431051993616
 0.002140316759375474 0.01562011441059437 -0.001825648469462451 -0.009959122005108798 0.00680151667028599 0.03383577577842802 0.9914550449516102 -0.079172557389664
 -0.0018275658213945667 -0.009958980187152435 0.0021171444394322892 0.015623431051993616 0.9914550449516102 -0.079172557389664 0.006803001827703181 0.033835830050632315
0.1438099208003 0.007113866080170675 0.03530782646524566 0.9910135887399467 -0.08267879819719676 0.002295062528773356 0.016308258570618687 -0.001955599175674758 -0.010392308174633803
 0.9910135887399467 -0.08267879819719676 0.007117943919450649 0.0353076953799238 -0.001953505339998011 -0.010392470767954328 0.0022697733748411417 0.01631193230541726
 0.002295062528773356 0.016308258570618687 -0.001953505339998011 -0.010392470767954328 0.00711499377551952 0.03530580543268229 0.9910134925335382 -0.08268070576640407
 -0.001955599175674758 -0.010392308174633803 0.0022697733748411417 0.01631193230541726 0.9910134925335382 -0.08268070576640407 0.007116620012345668 0.035305870580679966
0.1500625260525 0.007437631220524503 0.03677089891995476 0.9905574555285348 -0.0861787293702692 0.002455774886155226 0.016994053870355505 -0.0020885257483181903 -0.01082348627535031
 0.9905574555285348 -0.0861787293702692 0.00744207340893547 0.036770757850824794 -0.0020862477704986174 -0.01082367146136077 0.002428279783464769 0.01699811007977031
 0.002455774886155226 0.016994053870355505 -0.0020862477704986174 -0.01082367146136077 0.007438858680751846 0.03676878276142012 0.9905573511832779 -0.08618071907086457
 -0.0020885257483181903 -0.01082348627535031 0.002428279783464769 0.01699811007977031 0.9905573511832779 -0.08618071907086457 0.0074406327663049925 0.03676885978167767
0.15631513130469998 0.007771679849792832 0.03822682485792439 0.9900868369259141 -0.08967046334853931 0.002622406638336844 0.017677447337496627 -0.0022262997323121867 -0.011252464105473552
