! Created with skrf 1.8.0 (http://scikit-rf.org).
# GHz S RI R 50.0 
!freq ReS11 ImS11 ReS12 ImS12 ReS13 ImS13
! ReS14 ImS14
! ReS21 ImS21 ReS22 ImS22 ReS23 ImS23
! ReS24 ImS24
! ReS31 ImS31 ReS32 ImS32 ReS33 ImS33
! ReS34 ImS34
! ReS41 ImS41 ReS42 ImS42 ReS43 ImS43
! ReS44 ImS44
!
0.0 0.001600820144733 0.0 0.9983991798411 0.0 6.156526460869e-05 0.0 -6.156526531938e-05 7.539570511203628e-21
 0.9983991798411 0.0 0.001600820144761 0.0 -6.156526532036e-05 7.539570511323642e-21 6.156526460993e-05 0.0
 6.156526460869e-05 0.0 -6.156526532036e-05 7.539570511323642e-21 0.001600820144758 0.0 0.9983991798411 0.0
 -6.156526531938e-05 7.539570511203628e-21 6.156526460993e-05 0.0 0.9983991798411 0.0 0.001600820144737 0.0
0.005 0.0017224684752059668 0.001314605801378514 0.9982452868032691 -0.0033528406565900316 8.548838506767134e-05 0.0006471331254618606 -8.326324135055954e-05 -0.000411604463427821
 0.9982452868032691 -0.0033528406565900316 0.0017224593455737276 0.0013146111893862905 -8.326398072494573e-05 -0.0004116050841625456 8.553536665007384e-05 0.0006471151536255769
 8.548838506767134e-05 0.0006471331254618606 -8.326398072494573e-05 -0.0004116050841625456 0.0017224681712412482 0.0013146733016829067 0.9982452871640285 -0.0033527735893822976
 -8.326324135055954e-05 -0.000411604463427821 8.553536665007384e-05 0.0006471151536255769 0.9982452871640285 -0.0033527735893822976 0.001722460366019225 0.001314677819648102
0.006252605252188 0.0017544240845057614 0.0016483975658285748 0.9982046053110523 -0.004191860569241177 9.232550138835008e-05 0.0008092427160974778 -8.940257595602148e-05 -0.0005150276678471907
 0.9982046053110523 -0.004191860569241177 0.0017544098129881045 0.0016484044297096641 -8.940372607494803e-05 -0.0005150284342803218 9.239890460783934e-05 0.0008092193891280307
 9.232550138835008e-05 0.0008092427160974778 -8.940372607494803e-05 -0.0005150284342803218 0.0017544235392131342 0.0016484819264610973 0.9982046058054235 -0.004191776754068986
 -8.940257595602148e-05 -0.0005150276678471907 9.239890460783934e-05 0.0008092193891280307 0.9982046058054235 -0.004191776754068986 0.001754411338822056 0.0016484876906394104
0.01250521050438 0.0019229413694381893 0.0033310592526770884 0.9979886604204352 -0.00838444000862676 0.0001315488168131442 0.0016189297331914193 -0.00012430692072658842 -0.0010324910813486873
 0.9979886604204352 -0.00838444000862676 0.0019228843774280586 0.0033310742982639295 -0.00012431144813929143 -0.001032492510449324 0.00013184149941004161 0.0016188737454466006
 0.0001315488168131442 0.0016189297331914193 -0.00012431144813929143 -0.001032492510449324 0.0019229386133669912 0.003331227784562167 0.9979886618254541 -0.008384272602796488
 -0.00012430692072658842 -0.0010324910813486873 0.00013184149941004161 0.0016188737454466006 0.9979886618254541 -0.008384272602796488 0.001922889906231056 0.0033312404941356604
0.01875781575657 0.0021067502614020347 0.005037444187486499 0.9977510691362192 -0.01258792444380396 0.00017932934275327372 0.0024295608101467703 -0.0001663869370161406 -0.001551680943096648
 0.9977510691362192 -0.01258792444380396 0.002106622186346032 0.005037468865272973 -0.00016639702619842262 -0.0015516829120030091 0.0001799867423836575 0.0024294609321509502
 0.00017932934275327372 0.0024295608101467703 -0.00016639702619842262 -0.0015516829120030091 0.002106743632692705 0.005037696819408567 0.9977510718771018 -0.012587673542327992
 -0.0001663869370161406 -0.001551680943096648 0.0001799867423836575 0.0024294609321509502 0.9977510718771018 -0.012587673542327992 0.0021066342029011174 0.005037717744000128
0.02501042100875 0.002306217273661895 0.006765162678275835 0.9974915442130878 -0.016804337049928838 0.00023576187534593164 0.0032411538886122178 -0.0002157477272391269 -0.0020723635422364673
 0.9974915442130878 -0.016804337049928838 0.002305989804545493 0.006765198563113825 -0.00021576553427923642 -0.0020723659066905964 0.00023692942845911374 0.0032409970632232455
 0.00023576187534593164 0.0032411538886122178 -0.00021576553427923642 -0.0020723659066905964 0.0023062050953719954 0.00676549938450478 0.9974915487084931 -0.016804002690228515
 -0.0002157477272391269 -0.0020723635422364673 0.00023692942845911374 0.0032409970632232455 0.9974915487084931 -0.016804002690228515 0.0023060107863203043 0.006765529875009902
0.03126302626094 0.0025216938095756957 0.008512978361715938 0.9972097841182777 -0.021034535870583536 0.000300941311179553 0.004053655939774844 -0.00027249140505657187 -0.002594369967837143
 0.9972097841182777 -0.021034535870583536 0.002521338672835887 0.008513027151894378 -0.0002725190623875241 -0.00259437256192297 0.0003027645837490608 0.004053427273614724
 0.000300941311179553 0.004053655939774844 -0.0002725190623875241 -0.00259437256192297 0.002521674398417143 0.008513399132893326 0.9972097907904245 -0.021034118061495684
 -0.00027249140505657187 -0.002594369967837143 0.0003027645837490608 0.004053427273614724 0.9972097907904245 -0.021034118061495684 0.002521371100630163 0.0085134406202794
0.037515631513130004 0.0027535236008650083 0.010280080084468507 0.9969054807309712 -0.025278941872333358 0.00037496183349786333 0.004866985635410217 -0.00033671777455023737 -0.0031175534508557185
 0.9969054807309712 -0.025278941872333358 0.002753012552195252 0.01028014360149802 -0.00033675739355106844 -0.0031175560869726605 0.0003775865760436268 0.004866668382359493
 0.00037496183349786333 0.004866985635410217 -0.00033675739355106844 -0.0031175560869726605 0.0027534952640468962 0.0102805849194962 0.9969054900033518 -0.025278440602245784
 -0.00033671777455023737 -0.0031175534508557185 0.0003775865760436268 0.004866668382359493 0.9969054900033518 -0.025278440602245784 0.0027530589063119713 0.010280638914129244
0.043768236765320004 0.003002045569748155 0.012065860357519855 0.9965783224638927 -0.029537760416566354 0.00045791652097055825 0.00568104633108125 -0.0004085245631298269 -0.0036417763900388513
 0.9965783224638927 -0.029537760416566354 0.003001350387611066 0.012065940546452764 -0.0004085782356085397 -0.0036417788589173743 0.0004614886911909338 0.005680621873473668
 0.00045791652097055825 0.00568104633108125 -0.0004085782356085397 -0.0036417788589173743 0.003002006605146206 0.012066449254865217 0.9965783347622487 -0.029537175662224753
 -0.0004085245631298269 -0.0036417763900388513 0.0004614886911909338 0.005680621873473668 0.9965783347622487 -0.029537175662224753 0.0030014131481347446 0.012066517346160882
0.050020842017509996 0.00326759515569915 0.013869823757811274 0.9962279958527124 -0.0338110727826058 0.0005498971004604928 0.006495731430849479 -0.00048800750062397006 -0.0041669049977325
 0.9962279958527124 -0.0338110727826058 0.0032666876360601853 0.01386992268771762 -0.0004880772998356184 -0.00416690706847322 0.0005545628685517253 0.006495179259782924
 0.0005498971004604928 0.006495731430849479 -0.0004880772998356184 -0.00416690706847322 0.0032675438521902536 0.013870496718471874 0.9962280116058965 -0.03381040450618437
 -0.00048800750062397006 -0.0041669049977325 0.0005545628685517253 0.006495179259782924 0.9962280116058965 -0.03381040450618437 0.003266769282741405 0.013870580574846775
0.055454545454549996 0.0035124527057210897 0.015451955719908676 0.9959044917193138 -0.037536484557137186 0.0006372312318457253 0.007204136241051362 -0.0005633874044015111 -0.004623890206199282
 0.9959044917193138 -0.037536484557137186 0.003511337763402063 0.015452072713447805 -0.0005634728880711179 -0.004623891726655631 0.0006429662389353275 0.00720345494350183
 0.0006372312318457253 0.007204136241051362 -0.0005634728880711179 -0.004623891726655631 0.003512389282151496 0.015452701740156382 0.995904510825709 -0.037535743652385094
 -0.0005633874044015111 -0.004623890206199282 0.0006429662389353275 0.00720345494350183 0.995904510825709 -0.037535743652385094 0.003511437835508242 0.015452800713163548
0.056273447269699996 0.0035505049941024773 0.01569154199680718 0.9958541865011905 -0.038098881025445265 0.0006509937692883094 0.007310927016615579 -0.0005752603234040397 -0.0046928066843250375
 0.9958541865011905 -0.038098881025445265 0.0035493569459347034 0.01569166186144024 -0.0005753483047371142 -0.0046928081044353915 0.0006568995127446347 0.007310224711946638
 0.0006509937692883094 0.007310927016615579 -0.0005753483047371142 -0.0046928081044353915 0.0035504396305776637 0.015692299026573462 0.9958542061410431 -0.03809812917249719
 -0.0005752603234040397 -0.0046928066843250375 0.0006568995127446347 0.007310224711946638 0.9958542061410431 -0.03809812917249719 0.0035494599567153446 0.015692400395408868
0.06252605252188 0.0038511052699951344 0.017530629205817345 0.9954565797056516 -0.04240113262038885 0.0007612950468841058 0.008126513305928722 -0.0006703747453746812 -0.005219348618282169
 0.9954565797056516 -0.04240113262038885 0.003849688510688538 0.017530772324491545 -0.0006704829468554583 -0.005219349113734662 0.0007685873382494806 0.008125636516273453
 0.0007612950468841058 0.008126513305928722 -0.0006704829468554583 -0.005219349113734662 0.0038510241158756114 0.01753147031021792 0.9954566036681116 -0.042400297124963966
 -0.0006703747453746812 -0.005219348618282169 0.0007685873382494806 0.008125636516273453 0.9954566036681116 -0.042400297124963966 0.003849815361769613 0.017531591018131936
0.06877865777407 0.004169723902579486 0.01938672720610115 0.9950348609138486 -0.046717735127083736 0.000880887646242192 0.008942365517616463 -0.0007734404061084217 -0.0057463968830505155
 0.9950348609138486 -0.046717735127083736 0.004168010254359369 0.019386896024655677 -0.0007735708487771202 -0.005746396158323949 0.0008897132361756826 0.008941287940477775
 0.000880887646242192 0.008942365517616463 -0.0007735708487771202 -0.005746396158323949 0.004169625217044917 0.019387652397323894 0.9950348896389 -0.04671681590506397
 -0.0007734404061084217 -0.0057463968830505155 0.0008897132361756826 0.008941287940477775 0.9950348896389 -0.04671681590506397 0.004168163418591089 0.019387794350502804
0.07503126302626001 0.0045066866229407365 0.02125949617725484 0.9945887160822892 -0.05104856546077722 0.0010098563555546686 0.009758354430894654 -0.0008845448067617363 -0.006273815945405558
 0.9945887160822892 -0.05104856546077722 0.004504647908839292 0.021259693269214015 -0.0008846994949460713 -0.006273813683532486 0.0010203621518369824 0.009757047793062081
 0.0010098563555546686 0.009758354430894654 -0.0008846994949460713 -0.006273813683532486 0.004506568655055253 0.021260505461275673 0.9945887500144444 -0.05104756242285278
 -0.0008845448067617363 -0.006273815945405558 0.0010203621518369824 0.009757047793062081 0.9945887500144444 -0.05104756242285278 0.004504829855194658 0.021260670646073922
0.08128386827845 0.004862316987752987 0.023148608436932575 0.9941178319726567 -0.05539347605759932 0.0011482839260708868 0.010574346763068574 -0.001003773237469903 -0.006801468310488039
 0.9941178319726567 -0.05539347605759932 0.004859925027981136 0.02314883650486453 -0.0010039541589887675 -0.006801464173106087 0.001160616969958142 0.010572780801340371
 0.0011482839260708868 0.010574346763068574 -0.0010039541589887675 -0.006801464173106087 0.004862177976777472 0.023149701825011644 0.994117871562305 -0.05539238909803883
 -0.001003773237469903 -0.006801468310488039 0.001160616969958142 0.010572780801340371 0.994117871562305 -0.05539238909803883 0.004860138221180858 0.02314989230863741
0.08753647353064001 0.005236936350165715 0.025053744149708276 0.9936218964096302 -0.05975229911694278 0.001296250964434107 0.011390205436443535 -0.0011312086988230058 -0.007329214293087238
 0.9936218964096302 -0.05975229911694278 0.0052341629585893135 0.02505400602666591 -0.0011314178251562548 -0.007329207920483288 0.001310558404353901 0.011388347878723799
 0.001296250964434107 0.011390205436443535 -0.0011314178251562548 -0.007329207920483288 0.005236774524538813 0.02505492165429064 0.9936219421121001 -0.0597511281178146
 -0.0011312086988230058 -0.007329214293087238 0.001310558404353901 0.011388347878723799 0.9936219421121001 -0.0597511281178146 0.005234409857106944 0.025055139585723918
0.09378907878283 0.005630863799712128 0.026974588266347178 0.9931005985117084 -0.06412484961971908 0.0014538358275730215 0.01220578977745298 -0.0012669318191306288 -0.007856911862313075
 0.9931005985117084 -0.06412484961971908 0.005627680779968221 0.02697488691761194 -0.0012671711054690442 -0.007856902873480025 0.0014702648910129487 0.012203606324324065
 0.0014538358275730215 0.01220578977745298 -0.0012671711054690442 -0.007856902873480025 0.005630677377494673 0.026975849900852954 0.9931006507892745 -0.06412359445152101
 -0.0012669318191306288 -0.007856911862313075 0.0014702648910129487 0.012203606324324065 0.9931006507892745 -0.06412359445152101 0.005627963836185922 0.02697609751190923
0.100041684035 0.006044416081178712 0.0289108282705119 0.9925536289053557 -0.06851092754603791 0.0016211145197560068 0.013020955672717016 -0.0014110207683741933 -0.008384416535189407
 0.9925536289053557 -0.06851092754603791 0.006040795223683991 0.02891116679531766 -0.0014112921537800284 -0.008384404527865076 0.0016398124832420636 0.013018409979465727
 0.0016211145197560068 0.013020955672717016 -0.0014112921537800284 -0.008384404527865076 0.006044203269959483 0.028912174050857234 0.9925536882264712 -0.0685095880662466
 -0.0014110207683741933 -0.008384416535189407 0.0016398124832420636 0.013018409979465727 0.9925536882264712 -0.0685095880662466 0.006041116882219795 0.028912453657452767
0.1059090909091 0.006450619615524338 0.030741508908803214 0.9920167337189131 -0.07263890962324841 0.001786969810799284 0.013785390548100627 -0.0015539089932957778 -0.008879117370189581
 0.9920167337189131 -0.07263890962324841 0.006446562222167645 0.03074188779057097 -0.0015542122494528563 -0.008879102145589061 0.0018079308587877164 0.013782470038500997
 0.001786969810799284 0.013785390548100627 -0.0015542122494528563 -0.008879102145589061 0.006450380401184985 0.030742933666323774 0.9920168000824399 -0.07263749088656742
 -0.0015539089932957778 -0.008879117370189581 0.0018079308587877164 0.013782470038500997 0.9920168000824399 -0.07263749088656742 0.006446922320675848 0.030743245479834345
0.1062942892872 0.006477907497648042 0.030862152499492444 0.9919806799250426 -0.07291031952554529 0.0017981605903895459 0.013835555691432667 -0.0015635511703571147 -0.008911581309832902
 0.9919806799250426 -0.07291031952554529 0.006473820575653529 0.030862534133120685 -0.0015638565777600399 -0.008911565860551652 0.001819274748072806 0.013832609350569177
 0.0017981605903895459 0.013835555691432667 -0.0015638565777600399 -0.008911565860551652 0.006477666494119317 0.030863582442947454 0.9919807467656916 -0.07290889558017498
 -0.0015635511703571147 -0.008911581309832902 0.001819274748072806 0.013832609350569177 0.9919807467656916 -0.07290889558017498 0.0064741832725376345 0.03086389644654768
0.11254689453939999 0.006931649800942781 0.03282824885754201 0.9913814458062011 -0.0773228001025539 0.0019850450335006384 0.014649439192264227 -0.0017245960123794663 -0.009438256620191448
 0.9913814458062011 -0.0773228001025539 0.006927068567372983 0.03282867697347108 -0.0017249373486142696 -0.009438237284338272 0.0020087226642684828 0.014646051716681376
 0.0019850450335006384 0.014649439192264227 -0.0017249373486142696 -0.009438237284338272 0.006931378791096794 0.03282976298436683 0.99138152065004 -0.07732129152479532
 -0.0017245960123794663 -0.009438256620191448 0.0020087226642684828 0.014646051716681376 0.99138152065004 -0.07732129152479532 0.006927474729215679 0.03283011387364059
0.11879949979160001 0.0074059520726497165 0.034808803817690435 0.9907556228705566 -0.08174813272005367 0.002181836187385659 0.015462452413448634 -0.001894225554105225 -0.009964290313844803
 0.9907556228705566 -0.08174813272005367 0.007400848256356526 0.03480928193001471 -0.0018946047099255155 -0.009964266625702354 0.002208224520725041 0.015458581220041267
 0.002181836187385659 0.015462452413448634 -0.0018946047099255155 -0.009964266625702354 0.0074056492312581275 0.034810402148063704 0.9907557062095 -0.08174653933366902
 -0.001894225554105225 -0.009964290313844803 0.002208224520725041 0.015458581220041267 0.9907557062095 -0.08174653933366902 0.0074013002990296435 0.03481079250074046
0.1250521050438 0.00790112059734976 0.03680350163528287 0.9901029097073173 -0.08618607049946807 0.002388599635094071 0.01627443855553173 -0.002072507235190046 -0.010489527643374184
 0.9901029097073173 -0.08618607049946807 0.007895465900156237 0.0368040334012492 -0.002072926085239438 -0.010489499116162343 0.002417845815890524 0.01627003894954741
 0.002388599635094071 0.01627443855553173 -0.002072926085239438 -0.010489499116162343 0.007900784088258695 0.03680518419520191 0.9901030020423214 -0.08618439211330237
 -0.002072507235190046 -0.010489527643374184 0.002417845815890524 0.01627003894954741 0.9901030020423214 -0.08618439211330237 0.007895966227996246 0.03680561668009103
0.131304710296 0.00841745873032822 0.03881202372656315 0.9894230073514495 -0.09063635686348223 0.0026053981055260446 0.017085237857077988 -0.002259505582186583 -0.011013811271287635
 0.9894230073514495 -0.09063635686348223 0.008411224823291338 0.03881261294935822 -0.0022599659850721042 -0.011013777397233138 0.002637649157510624 0.017080263017061694
 0.0026053981055260446 0.017085237857077988 -0.0022599659850721042 -0.011013777397233138 0.008417086706135678 0.03881379054290195 0.989423109192342 -0.09063459327668025
 -0.002259505582186583 -0.011013811271287635 0.002637649157510624 0.017080263017061694 0.989423109192342 -0.09063459327668025 0.0084117758276434 0.03881426792222945
0.1375573155481 0.008838758990053704 0.04057383475988149 0.9888321768560688 -0.0948383762919802 0.0028051183559263024 0.017869261933290168 -0.002428076090434287 -0.011511597411203521
 0.9888321768560688 -0.0948383762919802 0.00883191658873629 0.040574473308523776 -0.002428580957892453 -0.011511558135501454 0.0028404503785136904 0.017863717798824476
 0.0028051183559263024 0.017869261933290168 -0.002428580957892453 -0.011511558135501454 0.008838350533944371 0.04057568560443544 0.9888322886398588 -0.09483652740691699
 -0.002428076090434287 -0.011511597411203521 0.0028404503785136904 0.017863717798824476 0.9888322886398588 -0.09483652740691699 0.008832519859955467 0.040576199392210605
0.1438099208003 0.009274966294386155 0.042326088520248384 0.9882204381834129 -0.09902943255781427 0.0030128765415584065 0.01864988495031598 -0.00260336409592477 -0.012006229558489203
 0.9882204381834129 -0.09902943255781427 0.009267486915376379 0.042326779440360854 -0.002603915452794254 -0.012006184375362635 0.0030514235789674046 0.01864372855724506
 0.0030128765415584065 0.01864988495031598 -0.002603915452794254 -0.012006184375362635 0.009274519711933587 0.04232802338061853 0.9882205604182961 -0.0990274981829718
 -0.00260336409592477 -0.012006229558489203 0.0030514235789674046 0.01864372855724506 0.9882205604182961 -0.0990274981829718 0.009268144682542391 0.0423285756273263
0.1500625260525 0.009725923089695086 0.04406862938384144 0.9875879532179159 -0.10320941186223843 0.003228597254968748 0.01942702050421457 -0.002785295634139653 -0.012497625397049773
 0.9875879532179159 -0.10320941186223843 0.009717778221519542 0.044069375877458024 -0.0027858955024032224 -0.012497573779970393 0.0032704924152226833 0.019420207338034946
 0.003228597254968748 0.01942702050421457 -0.0027858955024032224 -0.012497573779970393 0.009725436686663673 0.04407064824786416 0.987588086419437 -0.10320739179778016
 -0.002785295634139653 -0.012497625397049773 0.0032704924152226833 0.019420207338034946 0.987588086419437 -0.10320739179778016 0.00971849269191228 0.044071241123263306
0.15631513130469998 0.010191470657903622 0.04580130638204072 0.9869348847170663 -0.10737820101266222 0.003452204165383781 0.02020058374049015 -0.0029737958007640267 -0.012985704402003157
 0.9869348847170663 -0.10737820101266222 0.010182631760892092 0.04580211180973096 -0.002974446199578659 -0.012985645803714394 0.0034975796034848452 0.020193067755672322
