! Created with skrf 1.8.0 (http://scikit-rf.org).
# GHz S RI R 50.0 
!freq ReS11 ImS11 ReS12 ImS12 ReS13 ImS13
! ReS14 ImS14
! ReS21 ImS21 ReS22 ImS22 ReS23 ImS23
! ReS24 ImS24
! ReS31 ImS31 ReS32 ImS32 ReS33 ImS33
! ReS34 ImS34
! ReS41 ImS41 ReS42 ImS42 ReS43 ImS43
! ReS44 ImS44
!
0.0 0.001200218764183 0.0 0.9987997811951 0.0 4.579796258175e-05 0.0 -4.579796289218e-05 5.60863286633775e-21
 0.9987997811951 0.0 0.001200218764198 0.0 -4.579796289302e-05 5.60863286644062e-21 4.579796258172e-05 0.0
 4.579796258175e-05 0.0 -4.579796289302e-05 5.60863286644062e-21 0.001200218784544 0.0 0.9987997812155 0.0
 -4.579796289218e-05 5.60863286633775e-21 4.579796258172e-05 0.0 0.9987997812155 0.0 0.001200218784515 0.0
0.005 0.0012905504971636756 0.0009808629759121604 0.9986856029728308 -0.0025152680991158416 6.400615336986811e-05 0.0005138570890308532 -6.211583260699273e-05 -0.0003210782218568762
 0.9986856029728308 -0.0025152680991158416 0.0012905759202749567 0.0009808480990385132 -6.211708107991999e-05 -0.0003210791110835147 6.384118797752363e-05 0.0005139196497883914
 6.400615336986811e-05 0.0005138570890308532 -6.211708107991999e-05 -0.0003210791110835147 0.0012905505404415055 0.000980930159513722 0.9986856032994378 -0.0025152010340027367
 -6.211583260699273e-05 -0.0003210782218568762 6.384118797752363e-05 0.0005139196497883914 0.9986856032994378 -0.0025152010340027367 0.0012905765282803221 0.0009809150440174342
0.006252605252188 0.001314008554323758 0.0012299770151360482 0.9986557974439927 -0.003144736611562578 6.909793798597011e-05 0.0006425793990900433 -6.661725592382078e-05 -0.0004017784804491919
 0.9986557974439927 -0.003144736611562578 0.0013140482957689043 0.001229958141380024 -6.661919925345115e-05 -0.0004017795759538833 6.884018846929454e-05 0.0006426605761467041
 6.909793798597011e-05 0.0006425793990900433 -6.661919925345115e-05 -0.0004017795759538833 0.0013140085526719175 0.001230060970834389 0.9986557978848184 -0.003144652797345138
 -6.661725592382078e-05 -0.0004017784804491919 6.884018846929454e-05 0.0006426605761467041 0.9986557978848184 -0.003144652797345138 0.0013140491760938718 0.0012300418103822393
0.01250521050438 0.0014361393313129254 0.002486119512477421 0.9984997420902831 -0.006290482015990707 9.771473532183099e-05 0.0012855504981026263 -9.1590236267095e-05 -0.0008056597364840059
 0.9984997420902831 -0.006290482015990707 0.0014362980255214826 0.00248607898797927 -9.159790234456502e-05 -0.0008056617541587223 9.668673669774982e-05 0.0012857444735666036
 9.771473532183099e-05 0.0012855504981026263 -9.159790234456502e-05 -0.0008056617541587223 0.001436138764015788 0.002486287121837628 0.9984997432837638 -0.006290314618694697
 -9.1590236267095e-05 -0.0008056597364840059 9.668673669774982e-05 0.0012857444735666036 0.9984997432837638 -0.006290314618694697 0.0014363009660923712 0.0024862461377983774
0.01875781575657 0.0015668297459052302 0.0037605653116380387 0.9983314558785659 -0.009444941713964683 0.0001317053660253331 0.0019293815615083589 -0.00012078341289588251 -0.0012110785361553258
 0.9983314558785659 -0.009444941713964683 0.0015671863462124562 0.003760500201544573 -0.00012080051978530082 -0.001211081274279677 0.00012939570785460946 0.0019297250370413229
 0.0001317053660253331 0.0019293815615083589 -0.00012080051978530082 -0.001211081274279677 0.001566828060527222 0.0037608163900496143 0.9983314581377243 -0.009444690835256486
 -0.00012078341289588251 -0.0012110785361553258 0.00012939570785460946 0.0019297250370413229 0.9983314581377243 -0.009444690835256486 0.0015671925150062432 0.0037607507573186394
0.02501042100875 0.00170629438573871 0.005051575648861881 0.9981507746792557 -0.01260969265919741 0.00017112839699189638 0.002574130406812354 -0.00015426181618151733 -0.001617877390267033
 0.9981507746792557 -0.01260969265919741 0.0017069276869080385 0.005051482889397842 -0.00015429204186551888 -0.0016178806150958277 0.0001670252024619528 0.002574664939596504
 0.00017112839699189638 0.002574130406812354 -0.00015429204186551888 -0.0016178806150958277 0.0017062910399829286 0.005051910054740599 0.9981507783196646 -0.012609358344846725
 -0.00015426181618151733 -0.001617877390267033 0.0001670252024619528 0.002574664939596504 0.9981507783196646 -0.012609358344846725 0.0017069382429544407 0.005051816816645499
0.03126302626094 0.0018547385884555103 0.006358279810806972 0.9979575244064778 -0.01578543860723894 0.00021604333878325768 0.0032197953731569573 -0.00019208902901934416 -0.002025955453892337
 0.9979575244064778 -0.01578543860723894 0.001855727265954559 0.006358156215620623 -0.00019213601860319576 -0.0020259588991125553 0.00020963376319615425 0.00322056740175881
 0.00021604333878325768 0.0032197953731569573 -0.00019213601860319576 -0.0020259588991125553 0.0018547330446260057 0.006358697399571742 0.9979575297412318 -0.015785020892812748
 -0.00019208902901934416 -0.002025955453892337 0.00020963376319615425 0.00322056740175881 0.9979575297412318 -0.015785020892812748 0.0018557433550310772 0.006358573474648806
0.037515631513130004 0.002012363405535868 0.007680128318651837 0.99775152606161 -0.01897255688857389 0.0002665099652225699 0.0038663517735662827 -0.0002343276792807346 -0.002435232051075047
 0.99775152606161 -0.01897255688857389 0.0020137860411465398 0.007679970582426513 -0.00023439504861483601 -0.0024352354175837003 0.00025727995443365235 0.0038674126691254055
 0.0002665099652225699 0.0038663517735662827 -0.00023439504861483601 -0.0024352354175837003 0.0020123551325742202 0.007680628946170134 0.997751533404524 -0.018972055795831683
 -0.0002343276792807346 -0.002435232051075047 0.00025727995443365235 0.0038674126691254055 0.997751533404524 -0.018972055795831683 0.002013808799149251 0.007680471131874014
0.043768236765320004 0.00217936752999543 0.009016726540529882 0.9975325977443322 -0.022171264747159334 0.0003225880092083492 0.0045137629879693775 -0.0002810396288586419 -0.0028456355660587828
 0.9975325977443322 -0.022171264747159334 0.002181302630856244 0.009016531241700777 -0.0002811309667298327 -0.002845638521834085 0.00031002216877944015 0.0045151691132358585
 0.0003225880092083492 0.0045137629879693775 -0.0002811309667298327 -0.002845638521834085 0.0021793560026948044 0.009017310062156822 0.9975326074098609 -0.022170680284853053
 -0.0002810396288586419 -0.0028456355660587828 0.00031002216877944015 0.0045151691132358585 0.9975326074098609 -0.022170680284853053 0.002181333183614759 0.009017115037650833
0.050020842017509996 0.002355948201556553 0.01036776592141316 0.9973005556451086 -0.025381688059674473 0.0003843369918436953 0.005161985037512418 -0.0003322860545910513 -0.003257098855434487
 0.9973005556451086 -0.025381688059674473 0.0023584742163311823 0.010367529524241095 -0.0003324049240998844 -0.003257101035437601 0.000367918514041887 0.0051637978092824496
 0.0003843369918436953 0.005161985037512418 -0.0003324049240998844 -0.003257101035437601 0.002355932900194963 0.01036843218553008 0.9973005679484944 -0.0253810202298778
 -0.0003322860545910513 -0.003257098855434487 0.000367918514041887 0.0051637978092824496 0.9973005679484944 -0.0253810202298778 0.0023585136801354714 0.010368196513801218
0.055454545454549996 0.002517331930429717 0.011553388123954171 0.9970881102625555 -0.028181211631767098 0.0004426502094428695 0.005725930106418531 -0.00038055032249520785 -0.003615483138520717
 0.9970881102625555 -0.028181211631767098 0.002520435142797407 0.011553113052252357 -0.0003806959923002869 -0.0036154843222009968 0.00042246283583538194 0.005728150117712359
 0.0004426502094428695 0.005725930106418531 -0.0003806959923002869 -0.0036154843222009968 0.002517312931526905 0.011554126166208763 0.9970881251152619 -0.028180471348516645
 -0.00038055032249520785 -0.003615483138520717 0.00042246283583538194 0.005728150117712359 0.9970881251152619 -0.028180471348516645 0.0025204832499175632 0.011553852290663608
0.056273447269699996 0.0025423016831132117 0.01173299022674002 0.9970552146105297 -0.028603895040268355 0.0004518161104082465 0.005810968820193126 -0.0003881274802766381 -0.0036695570003970382
 0.9970552146105297 -0.028603895040268355 0.002545497016625699 0.01173270908302423 -0.00038827741983566 -0.0036695580064991444 0.0004310267367606728 0.005813254773422789
 0.0004518161104082465 0.005810968820193126 -0.00038827741983566 -0.0036695580064991444 0.0025422820934781487 0.011733739074680427 0.9970552298682236 -0.028603143838291458
 -0.0003881274802766381 -0.0036695570003970382 0.0004310267367606728 0.005813254773422789 0.9970552298682236 -0.028603143838291458 0.002545546498335119 0.011733459204329947
0.06252605252188 0.002738623530739003 0.013112176989480426 0.9967963885043152 -0.03183791474231687 0.0005250841555622561 0.006460661343877556 -0.0004486237851610183 -0.004082946062872851
 0.9967963885043152 -0.03183791474231687 0.002742566557120126 0.013111847339994072 -0.0004488083090616236 -0.004082945463779774 0.0004994041616281935 0.006463492196744954
 0.0005250841555622561 0.006460661343877556 -0.0004488083090616236 -0.004082945463779774 0.0027385991427777926 0.013113008259864343 0.9967964070334274 -0.03183708015230354
 -0.0004486237851610183 -0.004082946062872851 0.0004994041616281935 0.006463492196744954 0.9967964070334274 -0.03183708015230354 0.0027426271538997043 0.013112680526502735
0.06877865777407 0.0029451087494583895 0.014505126446837283 0.9965238904561472 -0.03508374807110808 0.0006041994442920903 0.007111006456113222 -0.0005138341984359119 -0.004497202346147061
 0.9965238904561472 -0.03508374807110808 0.0029498778251479726 0.014504744422381758 -0.0005140567973554281 -0.0044971996773388355 0.0005731076407907621 0.007114459175560373
 0.0006041994442920903 0.007111006456113222 -0.0005140567973554281 -0.0044971996773388355 0.002945079057396086 0.014506039968362965 0.9965239125750668 -0.035082830073037134
 -0.0005138341984359119 -0.004497202346147061 0.0005731076407907621 0.007114459175560373 0.9965239125750668 -0.035082830073037134 0.002949950624600336 0.014505660595777452
0.07503126302626001 0.0031619518837239396 0.015911654527856568 0.9962375330472556 -0.03834137474655138 0.0006892197630448642 0.007761945303753412 -0.0005838172851121976 -0.0049122619269857245
 0.9962375330472556 -0.03834137474655138 0.003167625359667489 0.015911216150158076 -0.0005840814263774506 -0.004912256690671812 0.0006521935084489197 0.007766102171280498
 0.0006892197630448642 0.007761945303753412 -0.0005840814263774506 -0.004912256690671812 0.003161916386218058 0.015912650118460058 0.9962375590763873 -0.0383403733171206
 -0.0005838172851121976 -0.0049122619269857245 0.0006521935084489197 0.007766102171280498 0.9962375590763873 -0.0383403733171206 0.003167711440647586 0.01591221521936395
0.08128386827845 0.003389347066600618 0.017331588173932672 0.995937128456738 -0.041610757934242834 0.0007802023167831464 0.008413416639940096 -0.0006586309261262993 -0.005328060341814544
 0.995937128456738 -0.041610757934242834 0.0033960033006813694 0.0173310893561381 -0.000658940053916539 -0.005328052006874819 0.0007367175389765302 0.008418365317455196
 0.0007802023167831464 0.008413416639940096 -0.000658940053916539 -0.005328052006874819 0.0033893052654223243 0.017332665648122584 0.9959371587175717 -0.04160967303937152
 -0.0006586309261262993 -0.005328060341814544 0.0007367175389765302 0.008418365317455196 0.9959371587175717 -0.04160967303937152 0.0033961037322636917 0.01733217122473503
0.08753647353064001 0.003627488040976233 0.018764762119039175 0.99562248858096 -0.044891847418030914 0.0008772036816784636 0.009065357033863575 -0.0007383322949319563 -0.005744532371512393
 0.99562248858096 -0.044891847418030914 0.0036352054097690133 0.01876419866600799 -0.0007386898303616318 -0.005744520373457708 0.0008267349066279425 0.009071190629492276
 0.0008772036816784636 0.009065357033863575 -0.0007386898303616318 -0.005744520373457708 0.0036274394410693482 0.018765921279985977 0.9956225233967757 -0.04489067902062275
 -0.0007383322949319563 -0.005744532371512393 0.0008267349066279425 0.009071190629492276 0.9956225233967757 -0.04489067902062275 0.003635321251981609 0.018765363224283252
0.09378907878283 0.0038765681634739145 0.020211016576152752 0.9952934251384336 -0.04818458186770819 0.000980279760533259 0.009717701020970007 -0.0008229778308250524 -0.006161611887287055
 0.9952934251384336 -0.04818458186770819 0.0038854250746312518 0.020210384184422066 -0.0008233871720135672 -0.006161595628216234 0.0009223001471200595 0.009724518154693421
 0.000980279760533259 0.009717701020970007 -0.0008233871720135672 -0.006161595628216234 0.003876512272826543 0.02021225721933651 0.9952934648349256 -0.048183329924084896
 -0.0008229778308250524 -0.006161611887287055 0.0009223001471200595 0.009724518154693421 0.9952934648349256 -0.048183329924084896 0.0038855573784320717 0.020211631312967205
0.100041684035 0.004136780393555971 0.021670195541395067 0.9949497497611461 -0.051488890490695445 0.0010894857398016252 0.010370381213980338 -0.0009126232106436429 -0.006579231737238339
 0.9949497497611461 -0.051488890490695445 0.004146855297451424 0.021669489798873807 -0.0009130877326713022 -0.006579210585805381 0.0010234671192093877 0.01037828608305594
 0.0010894857398016252 0.010370381213980338 -0.0009130877326713022 -0.006579210585805381 0.004136716722681409 0.02167151745327822 0.9949497946660617 -0.05148755495174333
 -0.0009126232106436429 -0.006579231737238339 0.0010234671192093877 0.01037828608305594 0.9949497946660617 -0.05148755495174333 0.0041470051049177555 0.021670819367255092
0.1059090909091 0.004391258023622433 0.023051098170403794 0.994613789680123 -0.05460008996419386 0.0011975875393941348 0.010983096481821313 -0.0010013420951723848 -0.006971554312657993
 0.994613789680123 -0.05460008996419386 0.004402547283258936 0.02305031948588933 -0.001001861447610466 -0.006971527966235717 0.0011235436554931472 0.010992121866789419
 0.0011975875393941348 0.010983096481821313 -0.001001861447610466 -0.006971527966235717 0.004391186608188474 0.023052496143818657 0.994613839772497 -0.05459867592865566
 -0.0010013420951723848 -0.006971554312657993 0.0011235436554931472 0.010992121866789419 0.994613839772497 -0.05459867592865566 0.0044027144552685 0.023051726288548516
0.1062942892872 0.004408317274468282 0.023142145517823644 0.9945912740798435 -0.05480469426551337 0.0012048760477461637 0.011023328384169362 -0.0010073233183781006 -0.006997323664289988
 0.9945912740798435 -0.05480469426551337 0.004419688676748219 0.023141361903155425 -0.0010078463732684274 -0.006997296955669122 0.0011302889674602282 0.011032430828234232
 0.0012048760477461637 0.011023328384169362 -0.0010078463732684274 -0.006997296955669122 0.004408245335716528 0.023143548476635772 0.9945913245231093 -0.05480327507588278
 -0.0010073233183781006 -0.006997323664289988 0.0011302889674602282 0.011032430828234232 0.9945913245231093 -0.05480327507588278 0.004419857020368098 0.02314277377066827
0.11254689453939999 0.004691370905057045 0.024626714541394246 0.9942178098010521 -0.058131906874794755 0.0013265043134680558 0.011676471527307625 -0.0011071322138188542 -0.007415818241064661
 0.9942178098010521 -0.058131906874794755 0.0047041173782858825 0.024625848423095145 -0.001107717130387696 -0.007415785276933355 0.0012428180845805218 0.011686887093115243
 0.0013265043134680558 0.011676471527307625 -0.001107717130387696 -0.007415785276933355 0.004691290212567332 0.024628198316079025 0.9942178661152052 -0.0581304039739647
 -0.0011071322138188542 -0.007415818241064661 0.0012428180845805218 0.011686887093115243 0.9942178661152052 -0.0581304039739647 0.004704305281881281 0.02462734243759758
0.11879949979160001 0.004986132907127129 0.026123751411037895 0.9938291687828266 -0.061470435436111116 0.0014544233262855056 0.012329737912866049 -0.001212103099732932 -0.007834644823182793
 0.9938291687828266 -0.061470435436111116 0.005000333103450419 0.02612279804613512 -0.001212753183518691 -0.007834604871697026 0.0013611060745571258 0.012341587918604957
 0.0014544233262855056 0.012329737912866049 -0.001212753183518691 -0.007834604871697026 0.0049860429762553435 0.02612531576198704 0.9938292313031464 -0.061468848757544506
 -0.001212103099732932 -0.007834644823182793 0.0013611060745571258 0.012341587918604957 0.9938292313031464 -0.061468848757544506 0.005000541581543837 0.026124374044810866
0.1250521050438 0.005292794387562157 0.027633105087067067 0.9934251631054407 -0.06482018106600167 0.0015886849956124965 0.012983053126169883 -0.0013222882883457588 -0.008253731511356867
 0.9934251631054407 -0.06482018106600167 0.005308527051015371 0.02763205961961884 -0.0013230068214571714 -0.008253683807137223 0.0014852037153430362 0.01299646472533351
 0.0015886849956124965 0.012983053126169883 -0.0013230068214571714 -0.008253683807137223 0.005292694734704375 0.027634749764108138 0.9934252321700041 -0.06481851053922262
 -0.0013222882883457588 -0.008253731511356867 0.0014852037153430362 0.01299646472533351 0.9934252321700041 -0.06481851053922262 0.005308757109044069 0.02763371742685293
0.131304710296 0.005611545896766998 0.029154624201502027 0.9930056051411787 -0.068181039334343 0.0017293403107812072 0.013636341102506059 -0.0014377391671396753 -0.008673005123248421
 0.9930056051411787 -0.068181039334343 0.005628889875685469 0.029153481660593745 -0.0014385294080513124 -0.008672948867377791 0.0016151609214679174 0.013651447347248997
 0.0017293403107812072 0.013636341102506059 -0.0014385294080513124 -0.008672948867377791 0.005611436038708929 0.02915634894708518 0.993005681091247 -0.06817928488167463
 -0.0014377391671396753 -0.008673005123248421 0.0016151609214679174 0.013651447347248997 0.993005681091247 -0.06817928488167463 0.005629142509974418 0.029155221091111804
0.1375573155481 0.005861878983443024 0.030488691433087366 0.992651023329017 -0.07135339265779565 0.0018570922868309551 0.014268760013924747 -0.001539297503209013 -0.00907154367161334
 0.992651023329017 -0.07135339265779565 0.00588091876460021 0.03048747276129471 -0.0015401640164689426 -0.009071478941835812 0.0017319543932889573 0.014285518138407277
 0.0018570922868309551 0.014268760013924747 -0.0015401640164689426 -0.009071478941835812 0.005861757646593788 0.03049049648660022 0.9926511064743772 -0.07135155425021535
 -0.001539297503209013 -0.00907154367161334 0.0017319543932889573 0.014285518138407277 0.9926511064743772 -0.07135155425021535 0.005881195820995463 0.030489293206309335
0.1438099208003 0.006120731774194062 0.03181690820011049 0.9922844686571599 -0.07451890896796391 0.001990023150971191 0.0148993101721276 -0.0016449329171862991 -0.009468423752599415
 0.9922844686571599 -0.07451890896796391 0.006141547222557497 0.031815610117952677 -0.0016458791628793938 -0.00946834978278344 0.0018534407445330195 0.014917839692180005
 0.001990023150971191 0.0148993101721276 -0.0016458791628793938 -0.00946834978278344 0.006120598332532454 0.031818793346813375 0.9922845593367378 -0.07451698653106131
 -0.0016449329171862991 -0.009468423752599415 0.0018534407445330195 0.014917839692180005 0.9922845593367378 -0.07451698653106131 0.0061418498387091885 0.031817511336934584
0.1500625260525 0.006388027207614237 0.033139198963915414 0.9919060208918375 -0.07767754586192405 0.002128096661613566 0.015527949835949038 -0.0017546111672017597 -0.009863606753622231
 0.9919060208918375 -0.07767754586192405 0.006410698325783679 0.033137817995860776 -0.001755640598635775 -0.009863522747412048 0.0019795859068391557 0.01554837457275054
 0.002128096661613566 0.015527949835949038 -0.001755640598635775 -0.009863522747412048 0.006387881026267014 0.03314116398067243 0.9919061194473224 -0.07767553931982442
 -0.0017546111672017597 -0.009863606753622231 0.0019795859068391557 0.01554837457275054 0.9919061194473224 -0.07767553931982442 0.006411027641251349 0.03313979973558748
0.15631513130469998 0.006663687838945856 0.03445549068978234 0.9915157600218593 -0.08082926042391851 0.002271276252957871 0.016154637808187378 -0.0018682976827451465 -0.010257054785435621
