! Created with skrf 1.8.0 (http://scikit-rf.org).
# GHz S RI R 50.0 
!freq ReS11 ImS11 ReS12 ImS12 ReS13 ImS13
! ReS14 ImS14
! ReS21 ImS21 ReS22 ImS22 ReS23 ImS23
! ReS24 ImS24
! ReS31 ImS31 ReS32 ImS32 ReS33 ImS33
! ReS34 ImS34
! ReS41 ImS41 ReS42 ImS42 ReS43 ImS43
! ReS44 ImS44
!
0.0 0.001606795182755 0.0 0.9983932048172 0.0 6.202334586232e-05 0.0 -6.202334546286e-05 7.595669149350202e-21
 0.9983932048172 0.0 0.001606795182775 0.0 -6.202334546302e-05 7.595669149369795e-21 6.202334586293e-05 0.0
 6.202334586232e-05 0.0 -6.202334546302e-05 7.595669149369795e-21 0.001606795181334 0.0 0.9983932048158 0.0
 -6.202334546286e-05 7.595669149350202e-21 6.202334586293e-05 0.0 0.9983932048158 0.0 0.001606795181348 0.0
0.005 0.0017289683748438589 0.0013154095400432783 0.9982386330388273 -0.0033655675160534897 8.675038168185554e-05 0.0006766430923302393 -8.435477250056342e-05 -0.0004258459179728628
 0.9982386330388273 -0.0033655675160534897 0.0017289496946532512 0.0013154204942486861 -8.435704838645059e-05 -0.0004258476959845092 8.685246407765985e-05 0.0006766041324101975
 8.675038168185554e-05 0.0006766430923302393 -8.435704838645059e-05 -0.0004258476959845092 0.0017289674045200111 0.0013154774326826042 0.99823863339707 -0.003365500440937659
 -8.435477250056342e-05 -0.0004258459179728628 8.685246407765985e-05 0.0006766041324101975 0.99823863339707 -0.003365500440937659 0.0017289513810654444 0.0013154867535837308
0.006252605252188 0.00176107006250693 0.0016494232969252772 0.9981977597767931 -0.004207772961580189 9.38200324047559e-05 0.0008461327895077356 -9.068177378722502e-05 -0.0005328530119786327
 0.9981977597767931 -0.004207772961580189 0.0017610408617175963 0.0016494372225372464 -9.068531501662538e-05 -0.0005328552046849554 9.39795253162718e-05 0.0008460822048090483
 9.38200324047559e-05 0.0008461327895077356 -9.068531501662538e-05 -0.0005328552046849554 0.001761068479577375 0.0016495081338728534 0.9981977602710783 -0.004207689152210942
 -9.068177378722502e-05 -0.0005328530119786327 9.39795253162718e-05 0.0008460822048090483 0.9981977602710783 -0.004207689152210942 0.0017610434325692728 0.0016495200076489499
0.01250521050438 0.0019304052970618218 0.0033332714844717 0.9979807264300086 -0.008416279283783575 0.00013439211911285597 0.0016926358960752759 -0.0001266983689872641 -0.0010682458236955092
 0.9979807264300086 -0.008416279283783575 0.0019302886940363178 0.0033333017065818385 -0.00012671232173992075 -0.0010682498814506792 0.0001350281056747646 0.0016925143273794547
 0.00013439211911285597 0.0016926358960752759 -0.00012671232173992075 -0.0010682498814506792 0.0019303983991845004 0.003333440996154354 0.9979807278328896 -0.008416111900436013
 -0.0001266983689872641 -0.0010682458236955092 0.0001350281056747646 0.0016925143273794547 0.9979807278328896 -0.008416111900436013 0.0019302983951014429 0.0033334669868141024
0.01875781575657 0.0021151825522663153 0.005040955478993204 0.9977418262890255 -0.012635746454149688 0.00018383712554898986 0.002540061301040573 -0.0001701863266193029 -0.0016054083951913462
 0.9977418262890255 -0.012635746454149688 0.0021149205313527137 0.005041004593014523 -0.00017021743760351323 -0.0016054139253480915 0.00018526571955030608 0.0025398442117526795
 0.00018383712554898986 0.002540061301040573 -0.00017021743760351323 -0.0016054139253480915 0.002115166620581885 0.005041209669201758 0.9977418290213914 -0.012635495613463842
 -0.0001701863266193029 -0.0016054083951913462 0.00018526571955030608 0.0025398442117526795 0.9977418290213914 -0.012635495613463842 0.002114941922706473 0.005041252167639573
0.02501042100875 0.0023157715436570516 0.006770072627080781 0.9974807695287988 -0.016868203567149825 0.00024225314452315332 0.0033884348636024123 -0.00022125496941905663 -0.0021440902680984735
 0.9974807695287988 -0.016868203567149825 0.0023153062010505157 0.006770143434224285 -0.000221309903172718 -0.0021440968062091505 0.00024479052743452286 0.003388093720580793
 0.00024225314452315332 0.0033884348636024123 -0.000221309903172718 -0.0021440968062091505 0.002315742854981716 0.00677041157895793 0.9974807740060238 -0.0168678693519264
 -0.00022125496941905663 -0.0021440902680984735 0.00024479052743452286 0.003388093720580793 0.9974807740060238 -0.0168678693519264 0.002315343836942427 0.006770473108244711
0.03126302626094 0.002532526735389183 0.00851937851796171 0.9971972519910268 -0.021114509475450724 0.0003097383530222084 0.004237705066585016 -0.0002800103963741459 -0.0026841119243739536
 0.9971972519910268 -0.021114509475450724 0.0025318002479706053 0.008519474022293265 -0.00028009574914586796 -0.0026841189333798054 0.0003137010673323375 0.004237207317555003
 0.0003097383530222084 0.004237705066585016 -0.00028009574914586796 -0.0026841189333798054 0.002532481562841103 0.008519802380988945 0.9971972586250191 -0.02111409194759556
 -0.0002800103963741459 -0.0026841119243739536 0.0003137010673323375 0.004237207317555003 0.9971972586250191 -0.02111409194759556 0.0025318586807838253 0.008519885593234647
0.037515631513130004 0.0027657948088878888 0.010288055726620593 0.9968909629227403 -0.02537508398304821 0.0003863901636904308 0.005087789640850791 -0.0003465562340821352 -0.0032253181812002753
 0.9968909629227403 -0.02537508398304821 0.002764749414172564 0.010288179134212354 -0.00034667854088392245 -0.003225325051223087 0.00039209524323653006 0.005087098674911453
 0.0003863901636904308 0.005087789640850791 -0.00034667854088392245 -0.003225325051223087 0.002765729426603692 0.010288564697481 0.9968909721270341 -0.025374583202989288
 -0.0003465562340821352 -0.0032253181812002753 0.00039209524323653006 0.005087098674911453 0.9968909721270341 -0.025374583202989288 0.0027648332006682892 0.010288672372180572
0.043768236765320004 0.003015917549639352 0.012075491279430068 0.9965615881312189 -0.029650130306976327 0.00047230481642561466 0.005938589748030093 -0.0004209938980437271 -0.0037675640206497767
 0.9965615881312189 -0.029650130306976327 0.0030144955300173315 0.012075645998235868 -0.0004211596368480753 -0.00376757006893501 0.00048006984652848415 0.005937664850876257
 0.00047230481642561466 0.005938589748030093 -0.0004211596368480753 -0.00376757006893501 0.003015828227634019 0.012076085600337565 0.9965616003162207 -0.029649546335603787
 -0.0004209938980437271 -0.0037675640206497767 0.00048006984652848415 0.005937664850876257 0.9965616003162207 -0.029649546335603787 0.003014609226771007 0.012076220643292376
0.050020842017509996 0.0032832331793716226 0.013881184693290416 0.9962088115858013 -0.03393972696377893 0.000567577125503534 0.006789995838318845 -0.0005034226790334416 -0.0043107087449896185
 0.9962088115858013 -0.03393972696377893 0.003281376848489262 0.013881374333614872 -0.0005036382734281827 -0.004310713215928564 0.0005777202663507627 0.0067887921452850246
 0.000567577125503534 0.006789995838318845 -0.0005036382734281827 -0.004310713215928564 0.003283116186995715 0.013881864657054781 0.996208827162189 -0.033939059857852005
 -0.0005034226790334416 -0.0043107087449896185 0.0005777202663507627 0.0067887921452850246 0.996208827162189 -0.033939059857852005 0.003281525015655418 0.013882030099712986
0.055454545454549996 0.003529761797601186 0.015464877016673175 0.9958829868718699 -0.03767933372007797 0.0006580436384532374 0.007530294664037818 -0.0005816210778588742 -0.0047833398239942385
 0.9958829868718699 -0.03767933372007797 0.0035274812038014022 0.015465100094656627 -0.0005818851740743307 -0.004783342253971509 0.0006705122618119616 0.007528808993948438
 0.0006580436384532374 0.007530294664037818 -0.0005818851740743307 -0.004783342253971509 0.003529617726460832 0.015465631683437665 0.995883005726903 -0.03767859441121507
 -0.0005816210778588742 -0.0047833398239942385 0.0006705122618119616 0.007528808993948438 0.995883005726903 -0.03767859441121507 0.0035276630312660725 0.015465826103658351
0.056273447269699996 0.0035680770367317108 0.015704702835202717 0.9958323163730973 -0.03824387283787906 0.0006723002927235365 0.0076418905328776345 -0.0005939397540489493 -0.004854613110480119
 0.9958323163730973 -0.03824387283787906 0.003565728727298255 0.01570493121056409 -0.0005942115749650707 -0.004854615175650502 0.0006851402800724475 0.007640358981064031
 0.0006723002927235365 0.0076418905328776345 -0.0005942115749650707 -0.004854615175650502 0.0035679286400800317 0.015705468782778814 0.9958323357489168 -0.038243122652871386
 -0.0005939397540489493 -0.004854613110480119 0.0006851402800724475 0.007640358981064031 0.9958323357489168 -0.038243122652871386 0.0035659159264692496 0.015705667781998663
0.06252605252188 0.003870781932435973 0.01754565510722703 0.9954317853292142 -0.0425625119278952 0.0007865657548545243 0.008494150206601948 -0.0006926401568099411 -0.0053991377649842244
 0.9954317853292142 -0.0425625119278952 0.003867883984398288 0.017545926235648067 -0.000692974523742897 -0.005399136523201084 0.0008024218859530603 0.008492237486702591
 0.0007865657548545243 0.008494150206601948 -0.000692974523742897 -0.005399136523201084 0.0038705983968476557 0.017546507422927793 0.995431808912209 -0.04256167872308773
 -0.0006926401568099411 -0.0053991377649842244 0.0008024218859530603 0.008492237486702591 0.995431808912209 -0.04256167872308773 0.0038681147804859326 0.01754674326118856
0.06877865777407 0.004191678331734339 0.019403678651486435 0.9950069015046563 -0.046895548077868235 0.00091046304959592 0.009346645941348937 -0.0007996167257093706 -0.005944142319955041
 0.9950069015046563 -0.046895548077868235 0.004188173081286157 0.019403996757098172 -0.0008000199074843225 -0.005944136797343079 0.0009296551585432783 0.009344294449421815
 0.00091046304959592 0.009346645941348937 -0.0008000199074843225 -0.005944136797343079 0.004191455920764788 0.019404617766274133 0.995006929701146 -0.04689463191361803
 -0.0007996167257093706 -0.005944142319955041 0.0009296551585432783 0.009344294449421815 0.995006929701146 -0.04689463191361803 0.004188452041625456 0.01940489385204505
0.07503126302626001 0.004531094430870143 0.02127842897249121 0.9945573485269443 -0.05124285429638819 0.00104407969260885 0.010199244133934238 -0.0009149600374556052 -0.006489484772809683
 0.9945573485269443 -0.05124285429638819 0.004526924199732077 0.021278798487556344 -0.0009154382527669942 -0.00648947392287204 0.0010669281179318348 0.010196391923446744
 0.00104407969260885 0.010199244133934238 -0.0009154382527669942 -0.00648947392287204 0.004530829407299351 0.02127945536469056 0.994557381742039 -0.05124185523368707
 -0.0009149600374556052 -0.006489484772809683 0.0010669281179318348 0.010196391923446744 0.994557381742039 -0.05124185523368707 0.004527255894360651 0.02127977523341786
0.08128386827845 0.00488935616905875 0.023169573701194365 0.9940828109026628 -0.055604278940030234 0.001187501060666826 0.011051806909615627 -0.0010387583322508552 -0.007035021129334806
 0.9940828109026628 -0.055604278940030234 0.004884463253788567 0.02316999926847781 -0.0010393177499532827 -0.007035003833046905 0.0012143266065849834 0.011048387643832728
 0.001187501060666826 0.011051806909615627 -0.0010393177499532827 -0.007035003833046905 0.004889044794984115 0.023170687896793628 0.9940828495401469 -0.0556031970406932
 -0.0010387583322508552 -0.007035021129334806 0.0012143266065849834 0.011048387643832728 0.9940828495401469 -0.0556031970406932 0.004884852255284541 0.023171055211999643
0.08753647353064001 0.005266787196068519 0.025076788288294894 0.9935829742791378 -0.059979649973757376 0.001340810279902677 0.01190419241328463 -0.0011710974316837218 -0.007580605154116678
 0.9935829742791378 -0.059979649973757376 0.005261113857239559 0.025077274763851406 -0.0011717441708902958 -0.007580580220011507 0.0013719341727313678 0.011900135318159573
 0.001340810279902677 0.01190419241328463 -0.0011717441708902958 -0.007580580220011507 0.005266425733128253 0.025077990858691043 0.9935830187413971 -0.059978485303081926
 -0.0011710974316837218 -0.007580605154116678 0.0013719341727313678 0.011900135318159573 0.9935830187413971 -0.059978485303081926 0.005261564740668386 0.02507840941363751
0.09378907878283 0.0056637088094075895 0.026999752916632574 0.9930575256797282 -0.0643687780189546 0.0015040881163892596 0.012756255028230315 -0.0013120606527154612 -0.00812608819929902
 0.9930575256797282 -0.0643687780189546 0.00565719726126307 0.027000305372959332 -0.0013128007828883028 -0.008126054363569805 0.0015398319565032173 0.012751484845917538
 0.0015040881163892596 0.012756255028230315 -0.0013128007828883028 -0.008126054363569805 0.0056632935197666765 0.02700104448047901 0.9930575763679852 -0.06436753064422125
 -0.0013120606527154612 -0.00812608819929902 0.0015398319565032173 0.012751484845917538 0.9930575763679852 -0.06436753064422125 0.005657714604018794 0.027001518200199373
0.100041684035 0.006080439870980442 0.02893815025748195 0.9925061537222355 -0.06877145856448723 0.0016774128685811166 0.013607845543205849 -0.0014617287182436447 -0.008671319091151592
 0.9925061537222355 -0.06877145856448723 0.0060730322707549115 0.02893877398710465 -0.001462568259027835 -0.00867127501776548 0.0017180985790748707 0.013602282486197314
 0.0016774128685811166 0.013607845543205849 -0.001462568259027835 -0.00867127501776548 0.006079967017052529 0.02893953148472965 0.9925062110360591 -0.06877012855132593
 -0.0014617287182436447 -0.008671319091151592 0.0017180985790748707 0.013602282486197314 0.9925062110360591 -0.06877012855132593 0.006073620652284664 0.028940064428394034
0.1059090909091 0.006489796062203197 0.030770884481074047 0.9919648968136809 -0.07291503914498419 0.0018492648137470758 0.014406407599151447 -0.0016101628342079378 -0.009182594174853658
 0.9919648968136809 -0.07291503914498419 0.006481494945025984 0.030771580106079086 -0.0016111010916645032 -0.009182539215164157 0.0018948809702482015 0.014400023872890876
 0.0018492648137470758 0.014406407599151447 -0.0016111010916645032 -0.009182539215164157 0.006489265792452936 0.030772350494270302 0.9919649607072616 -0.07291363165164612
 -0.0016101628342079378 -0.009182594174853658 0.0018948809702482015 0.014400023872890876 0.9919649607072616 -0.07291363165164612 0.006482154155603116 0.030772942827093478
0.1062942892872 0.006517296705743742 0.030891663776628768 0.9919285488229548 -0.07318747363517009 0.001860860261522366 0.01445881128983914 -0.0016201796649342982 -0.009216144052552947
 0.9919285488229548 -0.07318747363517009 0.006508935143463104 0.030892364296054797 -0.0016211245860809863 -0.009216088333364793 0.0019068100334112559 0.014452370995896
 0.001860860261522366 0.01445881128983914 -0.0016211245860809863 -0.009216088333364793 0.0065167625516588746 0.030893135379480213 0.9919286131607901 -0.07318606105700975
 -0.0016201796649342982 -0.009216144052552947 0.0019068100334112559 0.014452370995896 0.9919286131607901 -0.07318606105700975 0.006509599145253182 0.03089373174325209
0.11254689453939999 0.006974592990488412 0.032859976441955506 0.9913244033936484 -0.07761659306620816 0.0020545033416181696 0.015308996255219856 -0.001787488749500111 -0.009760406656634683
 0.9913244033936484 -0.07761659306620816 0.006965219478082846 0.032860759496128385 -0.0017885449705301987 -0.009760337811532032 0.0021060395764158466 0.01530158974308168
 0.0020545033416181696 0.015308996255219856 -0.0017885449705301987 -0.009760337811532032 0.0069739938015594355 0.03286153918591879 0.9913244751521986 -0.07761509799361452
 -0.001787488749500111 -0.009760406656634683 0.0021060395764158466 0.01530158974308168 0.9913244751521986 -0.07761509799361452 0.006965963683233141 0.03286220330615295
0.11879949979160001 0.0074526396304621465 0.0348427697294284 0.990693412030154 -0.08205857548686922 0.002258412372520065 0.016158241182045834 -0.0019637283532089353 -0.01030394779950094
 0.990693412030154 -0.08205857548686922 0.007442196091484533 0.03484364129651586 -0.0019649017432132394 -0.010303864276531575 0.0023158576220957973 0.01614977480804053
 0.002258412372520065 0.016158241182045834 -0.0019649017432132394 -0.010303864276531575 0.007451971674187293 0.034844424427095504 0.990693491604579 -0.08205699799411525
 -0.0019637283532089353 -0.01030394779950094 0.0023158576220957973 0.01614977480804053 0.990693491604579 -0.08205699799411525 0.007443025084234802 0.03484516078408676
0.1250521050438 0.007951744630186892 0.03683972283072953 0.9900352716979626 -0.08651316911048207 0.0024726547315179134 0.017006383656424946 -0.0021489678855944015 -0.010846605691779851
 0.9900352716979626 -0.08651316911048207 0.007940172889087724 0.036840689127477455 -0.0021502642628364347 -0.010846505867304993 0.002536331635646374 0.016996759071969954
 0.0024726547315179134 0.017006383656424946 -0.0021502642628364347 -0.010846505867304993 0.007951004176959112 0.036841470343377834 0.9900353594819108 -0.08651150927425837
 -0.0021489678855944015 -0.010846605691779851 0.002536331635646374 0.016996759071969954 0.9900353594819108 -0.08651150927425837 0.007941091254958994 0.036842283565574716
0.131304710296 0.008472212957341591 0.03885051203289865 0.9893496819134759 -0.0909801123604343 0.002697294806494083 0.01785325819124744 -0.002343273687311883 -0.011388215861425756
 0.9893496819134759 -0.0909801123604343 0.008459454728801438 0.03885157952039916 -0.0023446988188588584 -0.011388098040308405 0.0027675260281526635 0.017842372301415606
 0.002697294806494083 0.01785325819124744 -0.0023446988188588584 -0.011388098040308405 0.008471396280715896 0.03885235327266677 0.9893497782989846 -0.09097837025811191
 -0.002343273687311883 -0.011388215861425756 0.0027675260281526635 0.017842372301415606 0.9893497782989846 -0.09097837025811191 0.008460467054189921 0.03885324814114647
0.1375573155481 0.008897292917350879 0.04061325545574129 0.988753450010481 -0.09519743610782623 0.002904243239307347 0.018672845436495 -0.002518481691197599 -0.011902837133829874
 0.988753450010481 -0.09519743610782623 0.008883286477400183 0.040614409031164374 -0.002520044228328893 -0.011902701119865402 0.002981193373088531 0.01866071079879537
 0.002904243239307347 0.018672845436495 -0.002520044228328893 -0.011902701119865402 0.008896397043563578 0.04061519119885618 0.9887535553815656 -0.09519561184169104
 -0.002518481691197599 -0.011902837133829874 0.002981193373088531 0.01866071079879537 0.9887535553815656 -0.09519561184169104 0.008884396616898925 0.040616151271517825
0.1438099208003 0.009337413137197036 0.042366335616275126 0.9881361107048621 -0.09940367909193319 0.0031195232893123084 0.019488916093192876 -0.002700680225820093 -0.012414178853182124
 0.9881361107048621 -0.09940367909193319 0.009322099553924152 0.04236758044052989 -0.002702386381099783 -0.012414022970498095 0.003203486487119952 0.019475438044410927
 0.0031195232893123084 0.019488916093192876 -0.002702386381099783 -0.012414022970498095 0.00933643448094395 0.0423683667966278 0.9881362254483074 -0.09940177275165817
 -0.002700680225820093 -0.012414178853182124 0.003203486487119952 0.019475438044410927 0.9881362254483074 -0.09940177275165817 0.009323311965326724 0.04236939554017612
0.1500625260525 0.00979241353088901 0.04410959433601994 0.9874978285230304 -0.10359872495900564 0.00334305658772101 0.020301380799569686 -0.002889792015393664 -0.012922154861793229
 0.9874978285230304 -0.10359872495900564 0.009775733753115324 0.04411093585414672 -0.002891647986861051 -0.012921977367021048 0.003434325199766245 0.02028646120553318
 0.00334305658772101 0.020301380799569686 -0.002891647986861051 -0.012921977367021048 0.009791348518767801 0.04411172192846131 0.9874979530240741 -0.1035967366349755
 -0.002889792015393664 -0.012922154861793229 0.003434325199766245 0.02028646120553318 0.9874979530240741 -0.1035967366349755 0.00977705288762106 0.04411282302530969
0.15631513130469998 0.010262132812571491 0.04584287816547269 0.9868387689002428 -0.107782458018167 0.0035747638019756394 0.02111015180638739 -0.0030857387951889258 -0.013426680886444008
 0.9868387689002428 -0.107782458018167 0.010244027666779187 0.04584432211219063 -0.003087750766178194 -0.013426479969039921 0.003673628348633044 0.021093689098356398
