! Created with skrf 1.8.0 (http://scikit-rf.org).
# GHz S RI R 50.0 
!freq ReS11 ImS11 ReS12 ImS12 ReS13 ImS13
! ReS14 ImS14
! ReS21 ImS21 ReS22 ImS22 ReS23 ImS23
! ReS24 ImS24
! ReS31 ImS31 ReS32 ImS32 ReS33 ImS33
! ReS34 ImS34
! ReS41 ImS41 ReS42 ImS42 ReS43 ImS43
! ReS44 ImS44
!
0.0 0.001798579407448 0.0 0.9982014205841 0.0 6.990594182422e-05 0.0 -6.990594186884e-05 8.561008795105585e-21
 0.9982014205841 0.0 0.001798579407379 0.0 -6.990594186745e-05 8.56100879493536e-21 6.990594182325e-05 0.0
 6.990594182422e-05 0.0 -6.990594186745e-05 8.56100879493536e-21 0.001798579411668 0.0 0.9982014205883 0.0
 -6.990594186884e-05 8.561008795105585e-21 6.990594182325e-05 0.0 0.9982014205883 0.0 0.001798579411674 0.0
0.005 0.0019360104119783784 0.0014685872159921677 0.9980274133908925 -0.003766777489722086 9.87035195283751e-05 0.0007821625844621822 -9.57581263966745e-05 -0.000488694695423633
 0.9980274133908925 -0.003766777489722086 0.001935996925114032 0.0014685951491386874 -9.576247197054959e-05 -0.0004886980365246066 9.875910492412518e-05 0.0007821411570283148
 9.87035195283751e-05 0.0007821625844621822 -9.576247197054959e-05 -0.0004886980365246066 0.001936008523360204 0.0014686556380794282 0.9980274137675034 -0.003766710426292192
 -9.57581263966745e-05 -0.000488694695423633 9.875910492412518e-05 0.0007821411570283148 0.9980274137675034 -0.003766710426292192 0.0019359995631556843 0.0014686608520989182
0.006252605252188 0.001972313676753926 0.0018414843477411531 0.9979811216315263 -0.004709352545189386 0.00010705988943183437 0.000978060622206614 -0.00010317715303654836 -0.0006114871272313073
 0.9979811216315263 -0.004709352545189386 0.0019722925945172692 0.0018414944651617422 -0.00010318391502180513 -0.0006114912454058713 0.00010714673250250344 0.0009780328175573846
 0.00010705988943183437 0.000978060622206614 -0.00010318391502180513 -0.0006114912454058713 0.001972310658765902 0.0018415698684441525 0.9979811221549543 -0.004709268726550256
 -0.00010317715303654836 -0.0006114871272313073 0.00010714673250250344 0.0009780328175573846 0.9979811221549543 -0.004709268726550256 0.001972296653325798 0.0018415765772739248
0.01250521050438 0.0021649304005266173 0.003721229404627179 0.9977337213434937 -0.00941921243778723 0.00015566375420692326 0.0019563299293920227 -0.00014591542369134155 -0.0012257762837607268
 0.9977337213434937 -0.00941921243778723 0.0021648462193616207 0.00372125171265054 -0.0001459420704525537 -0.0012257838740245524 0.00015600995654235772 0.001956263165879384
 0.00015566375420692326 0.0019563299293920227 -0.0001459420704525537 -0.0012257838740245524 0.002164917768330273 0.0037214002551771105 0.9977337228593736 -0.009419045044241348
 -0.00014591542369134155 -0.0012257762837607268 0.00015600995654235772 0.001956263165879384 0.9977337228593736 -0.009419045044241348 0.002164861856302127 0.0037214156033332393
0.01875781575657 0.0023769030230756587 0.005627329768241292 0.9974588747559698 -0.014140980489651083 0.0002158388796482717 0.002935434948297139 -0.00019826356561811634 -0.0018419259834966653
 0.9974588747559698 -0.014140980489651083 0.0023767138640037266 0.005627366587270669 -0.00019832298515129172 -0.0018419362565249473 0.00021661632973652505 0.002935315568313332
 0.0002158388796482717 0.002935434948297139 -0.00019832298515129172 -0.0018419362565249473 0.002376874194459542 0.005627585956749182 0.997458877732934 -0.014140729614821788
 -0.00019826356561811634 -0.0018419259834966653 0.00021661632973652505 0.002935315568313332 0.997458877732934 -0.014140729614821788 0.0023767485787446383 0.0056276119864872055
0.02501042100875 0.0026086877063040406 0.007557044713753138 0.997156221968648 -0.018876876159351224 0.00028770747483395314 0.003915376466207423 -0.0002603584434618506 -0.0024596117688478417
 0.997156221968648 -0.018876876159351224 0.0026083517767617258 0.007557098600700613 -0.0002604633670065 -0.0024596237793338325 0.00028908796046659373 0.003915188394980619
 0.00028770747483395314 0.003915376466207423 -0.0002604633670065 -0.0024596237793338325 0.002608636110144478 0.007557386328849213 0.9971562268817284 -0.018876541861806432
 -0.0002603584434618506 -0.0024596117688478417 0.00028908796046659373 0.003915188394980619 0.9971562268817284 -0.018876541861806432 0.002608413064515573 0.007557425189872927
0.03126302626094 0.002860721571303394 0.009508928719808685 0.99682538684517 -0.023627807014148645 0.0003713913771547944 0.004896062542813997 -0.0003323321311664825 -0.003078592806984809
 0.99682538684517 -0.023627807014148645 0.0028601971445942785 0.00950900246787559 -0.0003324951589220275 -0.003078605452198165 0.00037354674229053003 0.004895787277658295
 0.0003713913771547944 0.004896062542813997 -0.0003324951589220275 -0.003078605452198165 0.002860640633252234 0.00950935592867819 0.9968253941654978 -0.023627389319471007
 -0.0003323321311664825 -0.003078592806984809 0.00037354674229053003 0.004895787277658295 0.9968253941654978 -0.023627389319471007 0.00286029248887402 0.00950940987712815
0.037515631513130004 0.00313343150936427 0.01148201269674205 0.9964659862393208 -0.028394187448417464 0.00046701086043383753 0.005877363965428808 -0.00041431286787124765 -0.003698656484815925
 0.9964659862393208 -0.028394187448417464 0.003132676911320842 0.011482109336487058 -0.0004145464820424852 -0.0036986685042435393 0.00047011307032376827 0.005876980554860288
 0.00046701086043383753 0.005877363965428808 -0.0004145464820424852 -0.0036986685042435393 0.0031333146553189305 0.011482525720652477 0.9964659964390947 -0.028393686374179765
 -0.00041431286787124765 -0.003698656484815925 0.00047011307032376827 0.005876980554860288 0.9964659964390947 -0.028393686374179765 0.003132813789479097 0.011482597118912967
0.043768236765320004 0.003427237560293804 0.013475554840297024 0.9960776337884781 -0.03317618776590644 0.0005746840530909452 0.006859131123834566 -0.0005064253720462277 -0.004319601581009066
 0.9960776337884781 -0.03317618776590644 0.003426211160413763 0.013475677641069396 -0.0005067419443488043 -0.004319611556291574 0.0005789052204906213 0.006858616143565421
 0.0005746840530909452 0.006859131123834566 -0.0005067419443488043 -0.004319611556291574 0.0034270782157231057 0.013476153956762525 0.9960776473415658 -0.033175603320119484
 -0.0005064253720462277 -0.004319601581009066 0.0005789052204906213 0.006858616143565421 0.9960776473415658 -0.033175603320119484 0.003426397044395233 0.013476245273106978
0.050020842017509996 0.003742554461572942 0.015488937649280417 0.9956599418798153 -0.03797383709801558 0.0006945265688850433 0.00784120099869943 -0.0006087909305424668 -0.004941231328546248
 0.9956599418798153 -0.03797383709801558 0.0037412146645337124 0.015489090121121441 -0.0006092027268385193 -0.00494123768352428 0.0007000389589834478 0.007840528526486985
 0.0006945265688850433 0.00784120099869943 -0.0006092027268385193 -0.00494123768352428 0.003742346049177195 0.015489623196673928 0.9956599592604507 -0.03797316927522442
 -0.0006087909305424668 -0.004941231328546248 0.0007000389589834478 0.007840528526486985 0.9956599592604507 -0.03797316927522442 0.003741457019141355 0.015489737005404167
0.055454545454549996 0.004034362532776688 0.01725431780587617 0.995272826624055 -0.042155802532611274 0.0008086440237327423 0.0086947611817936 -0.0007061680472202037 -0.00548185045796387
 0.995272826624055 -0.042155802532611274 0.004032716625845308 0.017254499101950146 -0.0007066724774450932 -0.00548185226427827 0.000815418538696935 0.008693928832980553
 0.0008086440237327423 0.0086947611817936 -0.0007066724774450932 -0.00548185226427827 0.004034106136729142 0.017255078779383773 0.9952728477185084 -0.042155062245499614
 -0.0007061680472202037 -0.00548185045796387 0.000815418538696935 0.008693928832980553 0.9952728477185084 -0.042155062245499614 0.004033014113515838 0.017255214307764385
0.056273447269699996 0.004079792411256992 0.017521617419903605 0.9952125228368842 -0.04278707385056751 0.000826651231620877 0.00882340060276879 -0.0007215273863872136 -0.005563350031315228
 0.9952125228368842 -0.04278707385056751 0.004078097650031968 0.017521803315751615 -0.0007220465696166737 -0.0055633510321380746 0.000833627254448374 0.008822542192819261
 0.000826651231620877 0.00882340060276879 -0.0007220465696166737 -0.0055633510321380746 0.004079528352954329 0.01752238978924523 0.9952125445223886 -0.04278632264094787
 -0.0007215273863872136 -0.005563350031315228 0.000833627254448374 0.008822542192819261 0.9952125445223886 -0.04278632264094787 0.004078403935104922 0.017522528770823623
0.06252605252188 0.004439357451829034 0.01957309645379678 0.9947349897320164 -0.047615773444718915 0.0009711678458781632 0.00980554888398085 -0.0008447490761059537 -0.006185761226895541
 0.9947349897320164 -0.047615773444718915 0.004437266181460719 0.01957331977185264 -0.0008453877081739045 -0.006185754982145853 0.0009797800401250244 0.009804473541352799
 0.0009711678458781632 0.00980554888398085 -0.0008453877081739045 -0.006185754982145853 0.004439031167218052 0.019573956097930365 0.9947350162017251 -0.04761493882563483
 -0.0008447490761059537 -0.006185761226895541 0.0009797800401250244 0.009804473541352799 0.9947350162017251 -0.04761493882563483 0.004437643849889561 0.019574123039458182
0.06877865777407 0.004821651641069471 0.021642906520011204 0.994226956991299 -0.052459764812556 0.0011281829941496167 0.01078745788153494 -0.0009785667372560443 -0.006808266605307069
 0.994226956991299 -0.052459764812556 0.004819122332577345 0.021643171506476704 -0.0009793367801250268 -0.006808251066152403 0.0011386040050736382 0.010786132036702258
 0.0011281829941496167 0.01078745788153494 -0.0009793367801250268 -0.006808251066152403 0.004821256547747129 0.021643853948662133 0.994226988726838 -0.052458846754344084
 -0.0009785667372560443 -0.006808266605307069 0.0011386040050736382 0.010786132036702258 0.994226988726838 -0.052458846754344084 0.004819578830263956 0.021644051744610652
0.07503126302626001 0.005227073097805926 0.023730598374744057 0.9936880408789166 -0.05731884084528563 0.0012977998490929384 0.011768933473573598 -0.0011230873985346084 -0.007430665345602428
 0.9936880408789166 -0.05731884084528563 0.005224064232114793 0.023730909526834064 -0.0011240007147612747 -0.007430638305977007 0.001310202401683153 0.011767320957348617
 0.0012977998490929384 0.011768933473573598 -0.0011240007147612747 -0.007430638305977007 0.005226602611462244 0.023731634152755223 0.9936880783652117 -0.057317839313988324
 -0.0011230873985346084 -0.007430665345602428 0.001310202401683153 0.011767320957348617 0.9936880783652117 -0.057317839313988324 0.005224606997550096 0.02373186580592751
0.08128386827845 0.005656015970018776 0.025835734783206873 0.9931178599102914 -0.06219276535016434 0.0014801179962977064 0.012749775891874471 -0.0012784142572940117 -0.008052753695284957
 0.9931178599102914 -0.06219276535016434 0.005652486032847332 0.02583609685233061 -0.0012794826102334306 -0.00805271279208904 0.0014946748650123357 0.01274783791073559
 0.0014801179962977064 0.012749775891874471 -0.0012794826102334306 -0.00805271279208904 0.005655463504571919 0.02583685954099882 0.9931179036356823 -0.062191680297858536
 -0.0012784142572940117 -0.008052753695284957 0.0014946748650123357 0.01274783791073559 0.9931179036356823 -0.062191680297858536 0.005653122496261975 0.025837128163663382
0.08753647353064001 0.006108870348526564 0.027957885737108012 0.9925160352144988 -0.06708127782303121 0.0016752332627056334 0.01372978009707096 -0.0014446465501648706 -0.008674324699428092
 0.9925160352144988 -0.06708127782303121 0.006104777825116181 0.027958303732345393 -0.001445881603860701 -0.008674267412733153 0.0016921172383173877 0.013727475209008374
 0.0016752332627056334 0.01372978009707096 -0.001445881603860701 -0.008674267412733153 0.0061082293164085935 0.027959100157329157 0.9925160856711718 -0.06708010920214091
 -0.0014446465501648706 -0.008674324699428092 0.0016921172383173877 0.013727475209008374 0.9925160856711718 -0.06708010920214091 0.006105515407405679 0.02795940897280129
0.09378907878283 0.006586022146270825 0.030096625008607866 0.9918821908665093 -0.07198409689638954 0.001883237550135991 0.014708736068053696 -0.0016218794179412594 -0.009295168026019972
 0.9918821908665093 -0.07198409689638954 0.006581325515500694 0.0300971042005833 -0.0016232927366675717 -0.009295091679330156 0.0019026214037283521 0.014706020159021062
 0.001883237550135991 0.014708736068053696 -0.0016232927366675717 -0.009295091679330156 0.00658528595812743 0.030097929839348295 0.9918822485504987 -0.07198284464744023
 -0.0016218794179412594 -0.009295168026019972 0.0019026214037283521 0.014706020159021062 0.9918822485504987 -0.07198284464744023 0.006582171627592807 0.030098282183635656
0.100041684035 0.007087852949659627 0.0322515276690876 0.9912159541967933 -0.07690092283500449 0.0021042186719014006 0.01568642903002465 -0.0018102037664066695 -0.009915069863333266
 0.9912159541967933 -0.07690092283500449 0.007082510679302127 0.03225207359400015 -0.0018118068141377806 -0.009914971623848827 0.0021262751171995265 0.01568325529102044
 0.0021042186719014006 0.01568642903002465 -0.0018118068141377806 -0.009914971623848827 0.007087015014746706 0.03225292371919195 0.9912160196083075 -0.07689958689220243
 -0.0018102037664066695 -0.009915069863333266 0.0021262751171995265 0.01568325529102044 0.9912160196083075 -0.07689958689220243 0.007083472720953943 0.032253323043141775
0.1059090909091 0.007581549189660372 0.03428799666622728 0.9905609724288859 -0.08152730011093536 0.0023234627993608654 0.0166025461642264 -0.001997090911698174 -0.010495732147026433
 0.9905609724288859 -0.08152730011093536 0.007575563267653883 0.03428861048840086 -0.001998882336344223 -0.010495610648098525 0.002348184183675834 0.01659889780787052
 0.0023234627993608654 0.0166025461642264 -0.001998882336344223 -0.010495610648098525 0.0075806097816531245 0.03428947910745756 0.9905610455516664 -0.08152588556409607
 -0.001997090911698174 -0.010495732147026433 0.002348184183675834 0.01659889780787052 0.9905610455516664 -0.08152588556409607 0.007576640816609149 0.03428992575962028
0.1062942892872 0.007614739851292466 0.034422168218198934 0.990516956084767 -0.08183143943389803 0.0023382601918345994 0.016662639650335098 -0.00200970612519921 -0.010533812860473751
 0.990516956084767 -0.08183143943389803 0.007608710392948951 0.03442278668215714 -0.002011510264892276 -0.010533689739373768 0.002363161845386014 0.016658958555152724
 0.0023382601918345994 0.016662639650335098 -0.002011510264892276 -0.010533689739373768 0.0076137935784991815 0.03442365635880311 0.990517029729578 -0.08183001972464464
 -0.00200970612519921 -0.010533812860473751 0.002363161845386014 0.016658958555152724 0.990517029729578 -0.08183001972464464 0.0076097957524172725 0.03442410623035692
0.11254689453939999 0.008167055269131052 0.03660811917297906 0.9897848312428879 -0.0867753154694157 0.002585441265965028 0.017637144208092714 -0.0022204685042302302 -0.01115117610512319
 0.9897848312428879 -0.0867753154694157 0.00816029705320335 0.03660881625666112 -0.0022224849969264635 -0.011151024957917262 0.0026133606056459404 0.017632903491786315
 0.002585441265965028 0.017637144208092714 -0.0022224849969264635 -0.011151024957917262 0.008165994066355374 0.036609700338180735 0.9897849136312633 -0.08677381191456257
 -0.0022204685042302302 -0.01115117610512319 0.0026133606056459404 0.017632903491786315 0.9897849136312633 -0.08677381191456257 0.0081615131051352 0.036610204445086725
0.11879949979160001 0.008745166752835556 0.038808949979296334 0.989019218489836 -0.09173220584112388 0.0028458364856326288 0.018609714747889458 -0.002442568249619069 -0.011766935128464944
 0.989019218489836 -0.09173220584112388 0.008737638183261969 0.03880973204298165 -0.0024448082534729914 -0.011766752655307062 0.0028769458076183542 0.018604859386126656
 0.0028458364856326288 0.018609714747889458 -0.0024448082534729914 -0.011766752655307062 0.008743984027713349 0.03881062516776755 0.9890193101379504 -0.09173061835438541
 -0.002442568249619069 -0.011766935128464944 0.0028769458076183542 0.018604859386126656 0.9890193101379504 -0.09173061835438541 0.008738992288446169 0.03881118732051825
0.1250521050438 0.009349436782179504 0.04102422616738521 0.9882197610201481 -0.09670175248353732 0.003119515722685968 0.01958011922147093 -0.0026760778986835046 -0.01238086193346061
 0.9882197610201481 -0.09670175248353732 0.009341096232002159 0.04102509985616105 -0.0026785524679478565 -0.01238064467958578 0.0031539870970646424 0.01957459141058696
 0.003119515722685968 0.01958011922147093 -0.0026785524679478565 -0.01238064467958578 0.009348125942696663 0.04102599644301249 0.9882198624501094 -0.09670008097189904
 -0.0026760778986835046 -0.01238086193346061 0.0031539870970646424 0.01957459141058696 0.9882198624501094 -0.09670008097189904 0.00934259573581553 0.041026620578143005
0.131304710296 0.009980222558533924 0.04325350869027998 0.9873861066667471 -0.10168358510863924 0.0034065439763233713 0.020548121628281686 -0.0029210650352570937 -0.012992725035812896
 0.9873861066667471 -0.10168358510863924 0.009971028364835731 0.04325448093966031 -0.0029237851189734937 -0.01299246939190622 0.0034445492013194094 0.02054186076622307
 0.0034065439763233713 0.020548121628281686 -0.0029237851189734937 -0.01299246939190622 0.009978777012879038 0.04325537518469635 0.9873862184066026 -0.10168182947091801
 -0.0029210650352570937 -0.012992725035812896 0.0034445492013194094 0.02054186076622307 0.9873862184066026 -0.10168182947091801 0.009972680596127607 0.0432560653683461
0.1375573155481 0.010502254423611227 0.0452061026697407 0.9866536022088183 -0.10638687489277816 0.0036731662439429508 0.021485482123984257 -0.0031437427135629576 -0.013574347947156526
 0.9866536022088183 -0.10638687489277816 0.01049216266951411 0.0452071613459562 -0.0031467246900396513 -0.01357405321135012 0.0037148001929387282 0.0214784913863569
 0.0036731662439429508 0.021485482123984257 -0.0031467246900396513 -0.01357405321135012 0.010500668306945148 0.045208066546147 0.9866537247287029 -0.10638503511646621
 -0.0031437427135629576 -0.013574347947156526 0.0037148001929387282 0.0214784913863569 0.9866537247287029 -0.10638503511646621 0.010493974338472552 0.04520880786012771
0.1438099208003 0.011042905081531537 0.047146705024208944 0.985894822453398 -0.11107651780739615 0.003950492443207553 0.022418034455618647 -0.0033752523509124597 -0.014151523635756958
 0.985894822453398 -0.11107651780739615 0.011031873731808077 0.04714785584916542 -0.0033785079947694367 -0.014151186215499078 0.003995912663315837 0.022410257705196737
 0.003950492443207553 0.022418034455618647 -0.0033785079947694367 -0.014151186215499078 0.011041171932472655 0.04714876744994881 0.9858949562775183 -0.11107459380399164
 -0.0033752523509124597 -0.014151523635756958 0.003995912663315837 0.022410257705196737 0.9858949562775183 -0.11107459380399164 0.011033852036572603 0.04714956266926851
0.1500625260525 0.011601957333297504 0.049075103021216475 0.9851099897802262 -0.11575234583991406 0.0042384091769480745 0.023345651033659397 -0.0036154828354810395 -0.014724131432037183
 0.9851099897802262 -0.11575234583991406 0.011589944309576909 0.049076352004255315 -0.003619023885510896 -0.014723747590049283 0.004287772074754787 0.023337030075237113
 0.0042384091769480745 0.023345651033659397 -0.003619023885510896 -0.014723747590049283 0.011600070699314768 0.049077265211368674 0.9851101354377907 -0.11575033751956519
 -0.0036154828354810395 -0.014724131432037183 0.004287772074754787 0.023337030075237113 0.9851101354377907 -0.11575033751956519 0.011592096426271984 0.04907811727735391
0.15631513130469998 0.012179192111308102 0.05099109028083276 0.9842993280629909 -0.12041419275573255 0.004536801522041405 0.024268206856982923 -0.0038643215141575334 -0.015292053567451874
 0.9842993280629909 -0.12041419275573255 0.012166155290479307 0.05099244372214535 -0.0038681596724857038 -0.015291619422510262 0.004590262342831537 0.024258681462233454
