! Created with skrf 1.8.0 (http://scikit-rf.org).
# GHz S RI R 50.0 
!freq ReS11 ImS11 ReS12 ImS12 ReS13 ImS13
! ReS14 ImS14
! ReS21 ImS21 ReS22 ImS22 ReS23 ImS23
! ReS24 ImS24
! ReS31 ImS31 ReS32 ImS32 ReS33 ImS33
! ReS34 ImS34
! ReS41 ImS41 ReS42 ImS42 ReS43 ImS43
! ReS44 ImS44
!
0.0 0.001625605881642 0.0 0.9983743941042 0.0 6.299709400115e-05 0.0 -6.299709391211e-05 7.714918941505072e-21
 0.9983743941042 0.0 0.001625605881637 0.0 -6.29970939122e-05 7.714918941516095e-21 6.299709400076e-05 0.0
 6.299709400115e-05 0.0 -6.29970939122e-05 7.714918941516095e-21 0.001625605880228 0.0 0.9983743941027 0.0
 -6.299709391211e-05 7.714918941505072e-21 6.299709400076e-05 0.0 0.9983743941027 0.0 0.001625605880219 0.0
0.005 0.001749290616863428 0.0013267106268941683 0.9982178514490812 -0.003405135975473234 8.89229520266253e-05 0.0007116758823999382 -8.61702662350864e-05 -0.0004436050651228696
 0.9982178514490812 -0.003405135975473234 0.0017493207056185093 0.0013266930227567879 -8.616666437863437e-05 -0.00044360228771368743 8.874927403611062e-05 0.0007117420415443121
 8.89229520266253e-05 0.0007116758823999382 -8.616666437863437e-05 -0.00044360228771368743 0.0017492928831316155 0.0013267765413229615 0.9982178518121521 -0.0034050689106919353
 -8.61702662350864e-05 -0.0004436050651228696 8.874927403611062e-05 0.0007117420415443121 0.9982178518121521 -0.0034050689106919353 0.0017493191596653131 0.001326761233541426
0.006252605252188 0.0017818007965278505 0.0016636104719794501 0.9981764276502281 -0.004257241937048537 9.639073736417513e-05 0.0008899252089277394 -9.275054705715059e-05 -0.0005550791656113527
 0.9981764276502281 -0.004257241937048537 0.0017818478311532556 0.001663588128817637 -9.274494237786806e-05 -0.000555075741253324 9.61193825988451e-05 0.0008900111343432662
 9.639073736417513e-05 0.0008899252089277394 -9.274494237786806e-05 -0.000555075741253324 0.0017818042685018092 0.0016636928435403101 0.9981764281468029 -0.0042571581210128825
 -9.275054705715059e-05 -0.0005550791656113527 9.61193825988451e-05 0.0008900111343432662 0.9981764281468029 -0.0042571581210128825 0.0017818453430146993 0.0016636733794371296
0.01250521050438 0.001953357637540257 0.0033620661962538087 0.9979563032189275 -0.008515217275532495 0.00013953687022861278 0.0017801072576149911 -0.00013028799039666464 -0.001112814204673953
 0.9979563032189275 -0.008515217275532495 0.0019535454538033487 0.003362018086250566 -0.0001302659039928686 -0.001112807877781987 0.00013845478800727913 0.0017803140375361715
 0.00013953687022861278 0.0017801072576149911 -0.0001302659039928686 -0.001112807877781987 0.0019533709452198094 0.003362230613694352 0.9979563046423111 -0.008515049871862827
 -0.00013028799039666464 -0.001112814204673953 0.00013845478800727913 0.0017803140375361715 0.9979563046423111 -0.008515049871862827 0.001953534951836974 0.0033621883819889963
0.01875781575657 0.0021406676115356136 0.005084642898510409 0.9977137356108202 -0.012784273364996568 0.00019253636071713193 0.0026711454958697764 -0.0001757286863755443 -0.001672365815715639
 0.9977137356108202 -0.012784273364996568 0.002141089656807586 0.005084565302993019 -0.0001756794347688779 -0.0016723572135951454 0.00019010562622614235 0.002671515172048667
 0.00019253636071713193 0.0026711454958697764 -0.0001756794347688779 -0.0016723572135951454 0.002140697100707999 0.005084889084239078 0.9977137383909863 -0.01278402246429915
 -0.0001757286863755443 -0.001672365815715639 0.00019010562622614235 0.002671515172048667 0.9977137383909863 -0.01278402246429915 0.0021410656240674923 0.005084820590903828
0.02501042100875 0.0023441093592346087 0.006828903132253994 0.997448427971909 -0.017066458253319202 0.00025549210071081465 0.003563064669449769 -0.0002291876147608079 -0.00223346249253063
 0.997448427971909 -0.017066458253319202 0.0023448589040120297 0.006828792070387361 -0.00022910064308755813 -0.002233452358693573 0.0002511746289900473 0.0035636461642761493
 0.00025549210071081465 0.003563064669449769 -0.00022910064308755813 -0.002233452358693573 0.0023441613646371655 0.006829230786341662 0.997448432537828 -0.01706612388129946
 -0.0002291876147608079 -0.00223346249253063 0.0002511746289900473 0.0035636461642761493 0.997448432537828 -0.01706612388129946 0.002344815823388458 0.0068291323742731835
0.03126302626094 0.0025640458132885798 0.008593581760692071 0.9971600689152228 -0.021362635192299733 0.0003285074688317467 0.004455805018066654 -0.00029077622949495626 -0.0027959103245003437
 0.9971600689152228 -0.021362635192299733 0.0025652160037311677 0.00859343299528535 -0.00029064108977122204 -0.002795899519951406 0.00032176452432454184 0.004456654175093226
 0.0003285074688317467 0.004455805018066654 -0.00029064108977122204 -0.002795899519951406 0.0025641266628726646 0.008593990512179935 0.9971600756980993 -0.02136221735808194
 -0.00029077622949495626 -0.0027959103245003437 0.00032176452432454184 0.004456654175093226 0.9971600756980993 -0.02136221735808194 0.002565148357496425 0.008593858367297693
0.037515631513130004 0.0028008318376026345 0.010377845696375336 0.9968483404322439 -0.025673222838757795 0.00041168517498104974 0.005349273202060232 -0.00036060327301014035 -0.0033595420711029353
 0.9968483404322439 -0.025673222838757795 0.002802515730743463 0.010377654736122989 -0.0003604096131921492 -0.0033595315747032635 0.00040197715770065725 0.005350452854735086
 0.00041168517498104974 0.005349273202060232 -0.0003604096131921492 -0.0033595315747032635 0.0028009478531544636 0.010378335109247239 0.9968483498656164 -0.025672721528098335
 -0.00036060327301014035 -0.0033595420711029353 0.00040197715770065725 0.005350452854735086 0.9968483498656164 -0.025672721528098335 0.0028024179983437503 0.010378165263861754
0.043768236765320004 0.0030548171633554967 0.012181068657265702 0.9965129211069566 -0.029998420428271045 0.0005051267154224493 0.006243357787321921 -0.0004387750610136741 -0.00392420168652341
 0.9965129211069566 -0.029998420428271045 0.0030571077551736748 0.012180830757619032 -0.00043851261844410106 -0.003924192595111892 0.0004919130647937962 0.00624493783640941
 0.0005051267154224493 0.006243357787321921 -0.00043851261844410106 -0.003924192595111892 0.0030549746599183116 0.012181638225968024 0.9965129336266799 -0.029997835607243287
 -0.0004387750610136741 -0.00392420168652341 0.0004919130647937962 0.00624493783640941 0.9965129336266799 -0.029997835607243287 0.0030569744120781867 0.012181426560772667
0.050020842017509996 0.003326347751184355 0.014002738056647387 0.9961534877605475 -0.03433830081377873 0.0006089320426796769 0.007137935655637986 -0.0005253955784617567 -0.004489737924016278
 0.9961534877605475 -0.03433830081377873 0.0033293380013648915 0.01400244821955822 -0.0005250541757865804 -0.004489731452410498 0.0005916712047736256 0.0071399931501119835
 0.0006089320426796769 0.007137935655637986 -0.0005250541757865804 -0.004489731452410498 0.0033265530368853874 0.014003387199105618 0.9961535038054923 -0.034337632434788705
 -0.0005253955784617567 -0.004489737924016278 0.0005916712047736256 0.0071399931501119835 0.9961535038054923 -0.034337632434788705 0.003329163518268366 0.014003129444467041
0.055454545454549996 0.003576831324632862 0.015600458247235396 0.9958213753678804 -0.03812170797047768 0.0007076349754426723 0.007915649461233586 -0.0006076118510589965 -0.0049818018041150785
 0.9958213753678804 -0.03812170797047768 0.0035805050824958573 0.015600119018349463 -0.0006071936286377419 -0.004981798687398482 0.0006864164330331229 0.007918190057005588
 0.0007076349754426723 0.007915649461233586 -0.0006071936286377419 -0.004981798687398482 0.0035770832585377945 0.015601176011175059 0.9958213948361304 -0.03812096692553432
 -0.0006076118510589965 -0.0049818018041150785 0.0006864164330331229 0.007918190057005588 0.9958213948361304 -0.03812096692553432 0.0035802903534040715 0.015600874619584376
0.056273447269699996 0.003615766477351594 0.01584240932038463 0.9957697164261069 -0.03869285607874968 0.0007231993321610453 0.008032875146597507 -0.0006205664900108307 -0.005056001213859959
 0.9957697164261069 -0.03869285607874968 0.0036195493317944705 0.015842062293391735 -0.0006201360325073035 -0.005055998694840631 0.0007013487646714284 0.00803549436597945
 0.0007231993321610453 0.008032875146597507 -0.0006201360325073035 -0.005055998694840631 0.0036160258538080726 0.015843137379391217 0.9957697364394383 -0.03869210407826103
 -0.0006205664900108307 -0.005056001213859959 0.0007013487646714284 0.00803549436597945 0.9957697364394383 -0.03869210407826103 0.003619328174694098 0.015842829115854818
0.06252605252188 0.003923413496485684 0.01769968076828062 0.9953612830042257 -0.04306202259058713 0.0008480247946698249 0.008928037794379248 -0.0007243871089884943 -0.0056228419519623735
 0.9953612830042257 -0.04306202259058713 0.003928081908569831 0.01769927104284925 -0.0007238575827087686 -0.005622844836213208 0.0008210409973001776 0.008931310331472058
 0.0008480247946698249 0.008928037794379248 -0.0007238575827087686 -0.005622844836213208 0.003923733257191515 0.017700487009869776 0.995361307432794 -0.043061186889802115
 -0.0007243871089884943 -0.0056228419519623735 0.0008210409973001776 0.008931310331472058 0.995361307432794 -0.043061186889802115 0.003927808537841408 0.017700123667925675
0.06877865777407 0.004249626420373988 0.019574178643907092 0.9949278637388919 -0.04744569591048564 0.0009835025164765237 0.009823279368828009 -0.0008369543407126197 -0.006190109489940229
 0.9949278637388919 -0.04744569591048564 0.00425527337183699 0.019573700452992983 -0.0008363158113567295 -0.006190119345985615 0.0009508410791432758 0.009827304212313629
 0.0009835025164765237 0.009823279368828009 -0.0008363158113567295 -0.006190119345985615 0.004250012850528323 0.019575062255251314 0.9949278930347817 -0.047444776416583255
 -0.0008369543407126197 -0.006190109489940229 0.0009508410791432758 0.009827304212313629 0.9949278930347817 -0.047444776416583255 0.004254942242051238 0.0195746391144867
0.07503126302626001 0.004594740393440684 0.021465547617826774 0.9944691355957256 -0.05184374023607165 0.0011297243149011606 0.010718450540776718 -0.0009583626108337709 -0.006757651507042553
 0.9944691355957256 -0.05184374023607165 0.0046014589149000725 0.02146499493276063 -0.0009576052229964185 -0.006757670021160573 0.0010908399794648071 0.010723334157280658
 0.0011297243149011606 0.010718450540776718 -0.0009576052229964185 -0.006757670021160573 0.004595199769345881 0.02146650770618319 0.9944691702165317 -0.051842736842314996
 -0.0009583626108337709 -0.006757651507042553 0.0010908399794648071 0.010723334157280658 0.9944691702165317 -0.051842736842314996 0.00460106447494685 0.02146601989365051
0.08128386827845 0.00495908809910107 0.023373444482379636 0.9939847765741024 -0.05625599465870582 0.0012867796030706698 0.011613397339365292 -0.0010887037843458713 -0.007325313596344147
 0.9939847765741024 -0.05625599465870582 0.004966971290111149 0.023372811009029746 -0.0010878177611272665 -0.00732534257246728 0.001241126335708026 0.011619253754702517
 0.0012867796030706698 0.011613397339365292 -0.0010878177611272665 -0.00732534257246728 0.004959626686622207 0.02337448007491035 0.9939848169830451 -0.05625490724383127
 -0.0010887037843458713 -0.007325313596344147 0.001241126335708026 0.011619253754702517 0.9939848169830451 -0.05625490724383127 0.004966507982182917 0.02337392256284854
0.08753647353064001 0.005342999722474544 0.02529753379233717 0.9934744659803627 -0.06068227748188592 0.001454755261891745 0.012507961471211703 -0.0012280670770785157 -0.007892938995576394
 0.9934744659803627 -0.06068227748188592 0.005352140771363324 0.025296812966616452 -0.0012270427199101443 -0.007892980355185524 0.0014017863339688414 0.012514912350652859
 0.001454755261891745 0.012507961471211703 -0.0012270427199101443 -0.007892980355185524 0.005343623776534281 0.025298643831889147 0.9934745126473736 -0.06068110591348577
 -0.0012280670770785157 -0.007892938995576394 0.0014017863339688414 0.012514912350652859 0.9934745126473736 -0.06068110591348577 0.005351603031480354 0.025298011434690036
0.09378907878283 0.005746802881185567 0.027237484747775757 0.9929378846730347 -0.0651223893047496 0.0016337355158277359 0.013401980562107703 -0.0013765389628085673 -0.008460368402047535
 0.9929378846730347 -0.0651223893047496 0.0057572950853575725 0.027236669730256617 -0.0013753666515098307 -0.008460424184039623 0.0015729035919617748 0.013410155289541505
 0.0016337355158277359 0.013401980562107703 -0.0013753666515098307 -0.008460424184039623 0.005747518644441428 0.027238668097501653 0.9929379380750464 -0.06512113343381887
 -0.0013765389628085673 -0.008460368402047535 0.0015729035919617748 0.013410155289541505 0.9929379380750464 -0.06512113343381887 0.005756677342769514 0.027237955467902614
0.100041684035 0.006170822534835614 0.029192968922963063 0.9923747152905245 -0.06957611526694966 0.001823801811916362 0.014295288343279157 -0.0015342030765508837 -0.009027439849967869
 0.9923747152905245 -0.06957611526694966 0.006182759320635523 0.029192052592821194 -0.0015328732695800507 -0.009027512210515634 0.001754559044313743 0.014304824098883877
 0.001823801811916362 0.014295288343279157 -0.0015328732695800507 -0.009027512210515634 0.006171636236966346 0.029194224361062865 0.9923747759119879 -0.06957477493239161
 -0.0015342030765508837 -0.009027439849967869 0.001754559044313743 0.014304824098883877 0.9923747759119879 -0.06957477493239161 0.006182055997737548 0.029193425985628598
0.1059090909091 0.006587393732692896 0.031041818735680328 0.9918217780418931 -0.07376764313449595 0.0020123115156147455 0.015132764626079336 -0.0016905862789889329 -0.009559104011637412
 0.9918217780418931 -0.07376764313449595 0.006600771207763119 0.031040800601402876 -0.0016891000714364971 -0.00955919399474155 0.001934677433026824 0.01514370933815286
 0.0020123115156147455 0.015132764626079336 -0.0016891000714364971 -0.00955919399474155 0.006588304993150933 0.031043140635737498 0.9918218458861968 -0.07376622338031595
 -0.0016905862789889329 -0.009559104011637412 0.001934677433026824 0.01514370933815286 0.9918218458861968 -0.07376622338031595 0.006599982497991661 0.031042256629809042
0.1062942892872 0.006615380877857183 0.031163658553162756 0.9917846424651224 -0.07404322674349215 0.0020250327007672484 0.015187714804660411 -0.0017011401154966993 -0.009593988627511565
 0.9917846424651224 -0.07404322674349215 0.006628855820565544 0.031162633501311945 -0.0016996433502303406 -0.00959407983990291 0.0019468308291372344 0.015198756641338225
 0.0020250327007672484 0.015187714804660411 -0.0016996433502303406 -0.00959407983990291 0.00661629873396047 0.03116498477365578 0.9917847107988698 -0.07404180177065552
 -0.0017011401154966993 -0.009593988627511565 0.0019468308291372344 0.015198756641338225 0.9917847107988698 -0.07404180177065552 0.0066280613328438915 0.031164094967412938
0.11254689453939999 0.007080797219420617 0.03314922523908465 0.9911673530285038 -0.07852348263013009 0.0022375037193477464 0.016079086320655918 -0.0018774277377773942 -0.010159847228722006
 0.9911673530285038 -0.07852348263013009 0.007095904063395866 0.0331480837605163 -0.0018757546309839783 -0.010159959683187211 0.0021497941756830883 0.016091787238738782
 0.0022375037193477464 0.016079086320655918 -0.0018757546309839783 -0.010159959683187211 0.007081825429329941 0.03315062085148028 0.9911674295760627 -0.07852197283041755
 -0.0018774277377773942 -0.010159847228722006 0.0021497941756830883 0.016091787238738782 0.9911674295760627 -0.07852197283041755 0.007095012819680721 0.03314963375167398
0.11879949979160001 0.0075673878539283595 0.035149338935577375 0.9905225362098657 -0.08301663035260354 0.0024612872751549205 0.016969225762722723 -0.002063140459851591 -0.010724845325653987
 0.9905225362098657 -0.08301663035260354 0.007584220532914102 0.03514807302076196 -0.0020612817082545217 -0.010724981529167472 0.002363521292888134 0.01698374678311583
 0.0024612872751549205 0.016969225762722723 -0.0020612817082545217 -0.010724981529167472 0.007568532600715651 0.03515080246218955 0.9905226214820849 -0.08301503552547947
 -0.002063140459851591 -0.010724845325653987 0.002363521292888134 0.01698374678311583 0.9905226214820849 -0.08301503552547947 0.007583226934651827 0.035149712021360864
0.1250521050438 0.008075465923991302 0.037163667161210376 0.9898498838296866 -0.0875224066635992 0.0026964525312814136 0.01785795259905378 -0.002258349552872095 -0.01128880976094202
 0.9898498838296866 -0.0875224066635992 0.008094118580982983 0.03716226848679803 -0.002256295933684093 -0.011288972337006547 0.0025880812586542984 0.01787446283454163
 0.0026964525312814136 0.01785795259905378 -0.002256295933684093 -0.011288972337006547 0.008076733372427437 0.03716519703882888 0.9898499783473884 -0.08752072659440074
 -0.002258349552872095 -0.01128880976094202 0.0025880812586542984 0.01787446283454163 0.9898499783473884 -0.08752072659440074 0.008093017022691894 0.03716399701684032
0.131304710296 0.008605341276342993 0.03919187437297261 0.9891490904898201 -0.09204053828339388 0.0029430652925173666 0.018745082989794853 -0.002463122938173414 -0.011851564552095727
 0.9891490904898201 -0.09204053828339388 0.008625908284253532 0.03919033429151345 -0.0024608653099080706 -0.011851756240514875 0.002823539909940149 0.018763759714519008
 0.0029430652925173666 0.018745082989794853 -0.0024608653099080706 -0.011851756240514875 0.008606737572174408 0.03919346895018917 0.9891491947844171 -0.09203877274536505
 -0.002463122938173414 -0.011851564552095727 0.002823539909940149 0.018763759714519008 0.9891491947844171 -0.09203877274536505 0.008624693153249726 0.03919215290548877
0.1375573155481 0.009038496268197313 0.040968780524580806 0.9885387267214287 -0.0963057791035642 0.003171479498451866 0.019604221539070092 -0.0026479598841922724 -0.012386639573357068
 0.9885387267214287 -0.0963057791035642 0.009061078123437632 0.040967121342393095 -0.002645484634390289 -0.012386860711252544 0.003040525028224569 0.019625044003490983
 0.003171479498451866 0.019604221539070092 -0.002645484634390289 -0.012386860711252544 0.009040026984134005 0.040970438272536235 0.988538841243819 -0.09630392798488402
 -0.0026479598841922724 -0.012386639573357068 0.003040525028224569 0.019625044003490983 0.988538841243819 -0.09630392798488402 0.00905974452218526 0.04096903065746101
0.1438099208003 0.00948696363389052 0.04273577954755177 0.9879067256429362 -0.10055965873030333 0.0034091254497719842 0.020459484542533633 -0.002840175807052438 -0.012918232687476924
 0.9879067256429362 -0.10055965873030333 0.009511655920722535 0.04273399437712273 -0.002837473106089492 -0.012918485982258539 0.003266242551078051 0.020482615495952365
 0.0034091254497719842 0.020459484542533633 -0.002837473106089492 -0.012918485982258539 0.009488634786791253 0.04273749876886823 0.9879068509225608 -0.10055772181216283
 -0.002840175807052438 -0.012918232687476924 0.003266242551078051 0.020482615495952365 0.9879068509225608 -0.10055772181216283 0.00951019835498949 0.042735994959320095
0.1500625260525 0.009950576999533226 0.04449270781419974 0.9872532580431991 -0.10480205504391683 0.0036559165470808276 0.021310771252415962 -0.0030396879137311768 -0.013446251592386925
 0.9872532580431991 -0.10480205504391683 0.009977475547440735 0.04449078935456369 -0.0030367479561138567 -0.013446539860442457 0.003500609067629487 0.0213363793897973
 0.0036559165470808276 0.021310771252415962 -0.0030367479561138567 -0.013446539860442457 0.009952394581539997 0.04449448674267504 0.9872533946184957 -0.10480003210062079
 -0.0030396879137311768 -0.013446251592386925 0.003500609067629487 0.0213363793897973 0.9872533946184957 -0.10480003210062079 0.009975888524311428 0.04449288179299991
0.15631513130469998 0.01042916870839875 0.04623940660536604 0.9865784956911655 -0.10903284671557464 0.0039117650992127355 0.022157982721234468 -0.0032464123349619546 -0.013970606030751242
