! Created with skrf 1.8.0 (http://scikit-rf.org).
# GHz S RI R 50.0 
!freq ReS11 ImS11 ReS12 ImS12 ReS13 ImS13
! ReS14 ImS14
! ReS21 ImS21 ReS22 ImS22 ReS23 ImS23
! ReS24 ImS24
! ReS31 ImS31 ReS32 ImS32 ReS33 ImS33
! ReS34 ImS34
! ReS41 ImS41 ReS42 ImS42 ReS43 ImS43
! ReS44 ImS44
!
0.0 0.001659861469597 0.0 0.9983401384823 0.0 6.426540935566e-05 0.0 -6.426540936686e-05 7.870242787701942e-21
 0.9983401384823 0.0 0.001659861469578 0.0 -6.42654093657e-05 7.870242787559884e-21 6.42654093547e-05 0.0
 6.426540935566e-05 0.0 -6.42654093657e-05 7.870242787559884e-21 0.001659861493631 0.0 0.9983401385064 0.0
 -6.426540936686e-05 7.870242787701942e-21 6.42654093547e-05 0.0 0.9983401385064 0.0 0.001659861493666 0.0
0.005 0.0017862547428607466 0.0013567465119096362 0.998180186573057 -0.0034765871834315006 9.031905404116153e-05 0.0007133257669647913 -8.7713020361289e-05 -0.00044674828752346246
 0.998180186573057 -0.0034765871834315006 0.0017862430183481646 0.0013567533685667115 -8.771742060049168e-05 -0.00044675166494262717 9.039315552280134e-05 0.0007132977887347288
 9.031905404116153e-05 0.0007133257669647913 -8.771742060049168e-05 -0.00044675166494262717 0.0017862521161669221 0.0013566807902630257 0.9981801862036463 -0.0034766542556359955
 -8.7713020361289e-05 -0.00044674828752346246 9.039315552280134e-05 0.0007132977887347288 0.9981801862036463 -0.0034766542556359955 0.0017862449072639378 0.0013566849452490309
0.006252605252188 0.00181951406330912 0.0017012589441257797 0.9981378179869349 -0.0043465673212150216 9.780353545180656e-05 0.0008919945780167553 -9.4381741008477e-05 -0.0005590075864162063
 0.9981378179869349 -0.0043465673212150216 0.0018194957347412337 0.001701267561740214 -9.438858812904883e-05 -0.0005590117500002529 9.791931446913265e-05 0.0008919581958340983
 9.780353545180656e-05 0.0008919945780167553 -9.438858812904883e-05 -0.0005590117500002529 0.0018195100309339948 0.0017011768195363982 0.9981378174835353 -0.004346651137934512
 -9.4381741008477e-05 -0.0005590075864162063 9.791931446913265e-05 0.0008919581958340983 0.9981378174835353 -0.004346651137934512 0.0018194987620315385 0.001701182052090457
0.01250521050438 0.0019952393790006458 0.0034380233522878522 0.9979124295075631 -0.00869381930575516 0.00014094330953457477 0.0017842961540248546 -0.00013247986982218202 -0.0011206584441835318
 0.9979124295075631 -0.00869381930575516 0.0019951661821622805 0.0034380410614803705 -0.00013250685356231074 -0.001120666129566986 0.000141405089919208 0.0017842081418260269
 0.00014094330953457477 0.0017842961540248546 -0.00013250685356231074 -0.001120666129566986 0.0019952238483412414 0.0034378594124045113 0.9979124280728967 -0.008693986690077867
 -0.00013247986982218202 -0.0011206584441835318 0.000141405089919208 0.0017842081418260269 0.9979124280728967 -0.008693986690077867 0.001995178851108755 0.0034378702297185393
0.01875781575657 0.0021874438674793785 0.005199339548884705 0.9976636766368375 -0.01305231085846853 0.00019378928338077833 0.0026774927064399314 -0.00017868208838646126 -0.0016841204610546833
 0.9976636766368375 -0.01305231085846853 0.0021872793721417192 0.005199366897203433 -0.0001787422623286158 -0.0016841308935276072 0.0001948268095081568 0.002677334717419395
 0.00019378928338077833 0.0026774927064399314 -0.0001787422623286158 -0.0016841308935276072 0.0021874093827234952 0.005199094021634819 0.9976636738349538 -0.013052561704927678
 -0.00017868208838646126 -0.0016841204610546833 0.0001948268095081568 0.002677334717419395 0.9976636738349538 -0.013052561704927678 0.0021873082720355475 0.005199110724250937
0.02501042100875 0.002396520624185734 0.006982712245146746 0.9973912506241015 -0.017424125307820684 0.0002564468340574413 0.0035716066797173997 -0.00023310620236100945 -0.002249119807789552
 0.9973912506241015 -0.017424125307820684 0.002396228456434624 0.006982749835861079 -0.00023321246313075735 -0.002249132066690741 0.00025829003858423097 0.003571357352195363
 0.0002564468340574413 0.0035716066797173997 -0.00023321246313075735 -0.002249132066690741 0.002396459744646491 0.006982385380303125 0.9973912460259531 -0.01742445954836057
 -0.00023310620236100945 -0.002249119807789552 0.00025829003858423097 0.003571357352195363 0.9973912460259531 -0.01742445954836057 0.002396280176038426 0.00698240820564881
0.03126302626094 0.0026228464937252598 0.00878684249059214 0.9970948278385451 -0.021810136423208233 0.0003290213849107267 0.004466577232178447 -0.0002958663553172079 -0.0028154587737633466
 0.9970948278385451 -0.021810136423208233 0.0026223903127194402 0.008786890979088089 -0.0002960314688825538 -0.0028154717909475778 0.000331900591630879 0.004466212167446662
 0.0003290213849107267 0.004466577232178447 -0.0002960314688825538 -0.0028154717909475778 0.002622751782372062 0.008786434584728867 0.9970948210132092 -0.021810554002659056
 -0.0002958663553172079 -0.0028154587737633466 0.000331900591630879 0.004466212167446662 0.9970948210132092 -0.021810554002659056 0.0026224714351983226 0.008786463702927376
0.037515631513130004 0.002866789904261426 0.010610872111840274 0.9967740779082669 -0.026210763913779852 0.00041161743569604925 0.005362310350105616 -0.00036707385342503516 -0.0033829656768995164
 0.9967740779082669 -0.026210763913779852 0.002866133385610803 0.010610932203862023 -0.0003673104684251818 -0.0033829782362774837 0.00041576344731781374 0.0053618020792739985
 0.00041161743569604925 0.005362310350105616 -0.0003673104684251818 -0.0033829782362774837 0.0028666539294005897 0.010610383515292426 0.9967740684265489 -0.02621126478354931
 -0.00036707385342503516 -0.0033829656768995164 0.00041576344731781374 0.0053618020792739985 0.9967740684265489 -0.02621126478354931 0.0028662504930019295 0.010610419026445312
0.043768236765320004 0.0031287138925016984 0.012454153765493152 0.99642866704979 -0.030626203303289336 0.0005043380962509748 0.006258694091445177 -0.0004468374480356558 -0.003951479639105581
 0.99642866704979 -0.030626203303289336 0.003127820714876575 0.012454226216348247 -0.00044715810356454704 -0.003951490376529715 0.0005099822335718825 0.006258012038891542
 0.0005043380962509748 0.006258694091445177 -0.00044715810356454704 -0.003951490376529715 0.0031285292264881747 0.012453584883500915 0.9964286544833311 -0.03062678742116377
 -0.0004468374480356558 -0.003951479639105581 0.0005099822335718825 0.006258012038891542 0.9964286544833311 -0.03062678742116377 0.003127980388499302 0.012453626815244648
0.050020842017509996 0.0034089774961405333 0.014316155924813077 0.9960582597670598 -0.035056520870196346 0.0006072847941636459 0.007155604882058203 -0.0005352634296170178 -0.0045208443109507924
 0.9960582597670598 -0.035056520870196346 0.0034078113292322905 0.01431624153918889 -0.000535680560103537 -0.004520851714210999 0.000614658909026368 0.007154715327554718
 0.0006072847941636459 0.007155604882058203 -0.000535680560103537 -0.004520851714210999 0.0034087367143216343 0.014315507222460857 0.9960582436880022 -0.03505718819651989
 -0.0005352634296170178 -0.0045208443109507924 0.000614658909026368 0.007154715327554718 0.9960582436880022 -0.03505718819651989 0.0034080201495790617 0.014315555528013007
0.055454545454549996 0.0036677054337610772 0.01594913526048773 0.9957158033604453 -0.03891867279923972 0.000705130738764972 0.00793537314638032 -0.0006192239119063873 -0.005016210038741357
 0.9957158033604453 -0.03891867279923972 0.003666272510874154 0.01594923300627125 -0.0006197349014592728 -0.005016213201442208 0.0007141969588648901 0.007934273410212845
 0.000705130738764972 0.00793537314638032 -0.0006197349014592728 -0.005016213201442208 0.0036674098574667126 0.015948417619114343 0.9957157838807994 -0.03891941240350474
 -0.0006192239119063873 -0.005016210038741357 0.0007141969588648901 0.007934273410212845 0.9957157838807994 -0.03891941240350474 0.003666529384183877 0.015948471366755416
0.056273447269699996 0.0037079364563146117 0.016196416243659095 0.9956625198655771 -0.03950170021328138 0.0007205570611078002 0.008052910618804482 -0.0006324556351327351 -0.005090904793633926
 0.9956625198655771 -0.03950170021328138 0.003706460949618631 0.01619651587571656 -0.0006329815735321883 -0.005090907202493781 0.0007298935333332272 0.008051776659004905
 0.0007205570611078002 0.008052910618804482 -0.0006329815735321883 -0.005090907202493781 0.003707632135948904 0.016195688248337083 0.995662499845344 -0.0395024507093233
 -0.0006324556351327351 -0.005090904793633926 0.0007298935333332272 0.008051776659004905 0.995662499845344 -0.0395024507093233 0.0037067254955461433 0.016195742804960223
0.06252605252188 0.0040259435839651 0.018094515910447233 0.9952411111342154 -0.04396166783158264 0.0008442523582548765 0.008950472377024506 -0.0007385154111525263 -0.005661505961627698
 0.9952411111342154 -0.04396166783158264 0.004024122355646838 0.018094630464474747 -0.0007391623909776062 -0.005661501567906978 0.0008557840821884598 0.008949053886849532
 0.0008442523582548765 0.008950472377024506 -0.0007391623909776062 -0.005661501567906978 0.004025568306183012 0.01809370920797424 0.9952410867457395 -0.04396250146471409
 -0.0007385154111525263 -0.005661505961627698 0.0008557840821884598 0.008949053886849532 0.9952410867457395 -0.04396250146471409 0.004024449206794472 0.01809376981565149
0.06877865777407 0.004363348940201088 0.020010064371164257 0.9947936978458695 -0.04843630834136345 0.0009784659220427986 0.00984814543732312 -0.0008535415529327413 -0.006232491471887023
 0.9947936978458695 -0.04843630834136345 0.004361145566802459 0.020010194802402036 -0.0008543217096483453 -0.006232478319560353 0.0009924262856272617 0.009846399031349116
 0.0009784659220427986 0.00984814543732312 -0.0008543217096483453 -0.006232478319560353 0.004362895287949279 0.020009179613460486 0.9947936686612923 -0.048437225078246805
 -0.0008535415529327413 -0.006232491471887023 0.0009924262856272617 0.009846399031349116 0.9947936686612923 -0.048437225078246805 0.004361541300803013 0.020009245994037094
0.07503126302626001 0.004720499905422184 0.021942689641497284 0.9943199451513249 -0.052925474110111725 0.0011232906234113261 0.010745779943929683 -0.0009776302273572946 -0.006803703147674625
 0.9943199451513249 -0.052925474110111725 0.004717877911060752 0.021942836957467286 -0.000978555599063643 -0.0068036791329896045 0.0011399134815978664 0.010743658938006686
 0.0011232906234113261 0.010745779943929683 -0.000978555599063643 -0.0068036791329896045 0.004719960465290985 0.021941727545114885 0.9943199107436554 -0.052926473919344
 -0.0009776302273572946 -0.006803703147674625 0.0011399134815978664 0.010743658938006686 0.9943199107436554 -0.052926473919344 0.00471834910575106 0.021941799341646428
0.08128386827845 0.005097741181658439 0.023892031868749324 0.9938195194113586 -0.057428991648065114 0.0012788168339900987 0.011643221354762123 -0.0011108748864817105 -0.007374980577236584
 0.9938195194113586 -0.057428991648065114 0.005094664028124182 0.023892197130889095 -0.001111957414394478 -0.007374943448852905 0.0012983364776460082 0.01164067572795237
 0.0012788168339900987 0.011643221354762123 -0.001111957414394478 -0.007374943448852905 0.005097108542745881 0.02389099321556963 0.9938194793528018 -0.05743007450059592
 -0.0011108748864817105 -0.007374980577236584 0.0012983364776460082 0.01164067572795237 0.9938194793528018 -0.05743007450059592 0.005095217259118092 0.023891069992133085
0.08753647353064001 0.005495414746056092 0.025857738876606466 0.993292088482648 -0.061946666024387906 0.0014451322984516148 0.012540310759296165 -0.001253366173183965 -0.00794616085147754
 0.993292088482648 -0.061946666024387906 0.00549184582174718 0.025857923202263308 -0.001254617701605271 -0.007946108210633197 0.0014677834197137744 0.012537287116232377
 0.0014451322984516148 0.012540310759296165 -0.001254617701605271 -0.007946108210633197 0.005494681500949004 0.02585662452010936 0.9932920423455798 -0.06194783188830458
 -0.001253366173183965 -0.00794616085147754 0.0014677834197137744 0.012537287116232377 0.9932920423455798 -0.06194783188830458 0.005492487663596934 0.025856705761831737
0.09378907878283 0.005913859774293954 0.027839462998525143 0.9927373219798405 -0.06647828400268882 0.0016223220090283525 0.013436885119241515 -0.0014051918229930269 -0.00851707838589859
 0.9927373219798405 -0.06647828400268882 0.005909762384186773 0.027839667563328993 -0.0014066240991780746 -0.008517007686586671 0.0016483396635783713 0.013433326652899159
 0.0016223220090283525 0.013436885119241515 -0.0014066240991780746 -0.008517007686586671 0.005913018519573787 0.027838273857827774 0.9927372693366855 -0.06647953285025503
 -0.0014051918229930269 -0.00851707838589859 0.0016483396635783713 0.013433326652899159 0.9927372693366855 -0.06647953285025503 0.005910499409800074 0.02783835897144069
0.100041684035 0.006353412540131264 0.029836858746123372 0.9921548915157677 -0.07102361634956866 0.0018104680832146394 0.014332777456656435 -0.0015664365616983177 -0.009087564802254458
 0.9921548915157677 -0.07102361634956866 0.006348749895421325 0.02983708478673015 -0.0015680612355018723 -0.009087473351424737 0.0018400876497389068 0.014328623911717265
 0.0018104680832146394 0.014332777456656435 -0.0015680612355018723 -0.009087473351424737 0.006352455876449931 0.02983559581283861 0.9921548319384291 -0.07102494815148927
 -0.0015664365616983177 -0.009087564802254458 0.0018400876497389068 0.014328623911717265 0.9921548319384291 -0.07102494815148927 0.006349588675134664 0.02983568412748876
0.1059090909091 0.006785380348094727 0.031725148614026026 0.9915828916612129 -0.07530118499651815 0.0019970584314934294 0.015172705032920635 -0.001726386944749457 -0.009622361194475
 0.9915828916612129 -0.07530118499651815 0.00678015371990318 0.03172539598923138 -0.0017282026714473615 -0.009622247690461178 0.002030272335209601 0.01516793516489534
 0.0019970584314934294 0.015172705032920635 -0.0017282026714473615 -0.009622247690461178 0.006784308659768533 0.03172381739787553 0.9915828251876015 -0.07530259461805622
 -0.001726386944749457 -0.009622361194475 0.002030272335209601 0.01516793516489534 0.9915828251876015 -0.07530259461805622 0.00678109395849215 0.03172390803816842
0.1062942892872 0.006814406298835517 0.031849581074989024 0.9915444709299722 -0.07558241955458507 0.0020096496429666496 0.015227817003291339 -0.001737182000214408 -0.009657448856421204
 0.9915444709299722 -0.07558241955458507 0.006809141506168887 0.03184982989222365 -0.0017390106235087928 -0.009657333814209825 0.0020431067807791547 0.015223004640083592
 0.0020096496429666496 0.015227817003291339 -0.0017390106235087928 -0.009657333814209825 0.006813326831377006 0.03184824541037567 0.9915444039903565 -0.07558383428400102
 -0.001737182000214408 -0.009657448856421204 0.0020431067807791547 0.015223004640083592 0.9915444039903565 -0.07558383428400102 0.006810088607848881 0.03184833617883306
0.11254689453939999 0.007297171156556393 0.033877284058834174 0.9909057365070715 -0.08015443715051558 0.0022199426950458437 0.01612182933339425 -0.001917506528191078 -0.010226556390304899
 0.9909057365070715 -0.08015443715051558 0.0072912672072808675 0.033877557021291665 -0.001919550554247276 -0.010226414770292366 0.002257473298877167 0.016116290892468903
 0.0022199426950458437 0.01612182933339425 -0.001919550554247276 -0.010226414770292366 0.007295961495754272 0.033875876796779135 0.9909056617764088 -0.08015593478096178
 -0.001917506528191078 -0.010226556390304899 0.002257473298877167 0.016116290892468903 0.9909056617764088 -0.08015593478096178 0.007292329195669128 0.03387596919714524
0.11879949979160001 0.007802033929824764 0.0359196198562516 0.990238367187673 -0.08473940075010482 0.0024414200126337835 0.017014636475317473 -0.0021074852053575427 -0.010794710312681763
 0.990238367187673 -0.08473940075010482 0.007795453690256719 0.03591991840408213 -0.002109755988068454 -0.010794538982152655 0.0024832601661973243 0.017008301142679046
 0.0024414200126337835 0.017014636475317473 -0.002109755988068454 -0.010794538982152655 0.007800686691986577 0.03591814220468008 0.9902382842369282 -0.08474098125533842
 -0.0021074852053575427 -0.010794710312681763 0.0024832601661973243 0.017008301142679046 0.9902382842369282 -0.08474098125533842 0.007796637126392526 0.03591823534236483
0.1250521050438 0.008329317998606374 0.03797623791621955 0.9895420447758996 -0.08933703085338414 0.0026741510178577466 0.017906057014469828 -0.0023071896525993824 -0.011361730596427321
 0.9895420447758996 -0.08933703085338414 0.008322024198238917 0.03797656356570336 -0.00230969844557477 -0.011361526276697382 0.002720536944974498 0.017898850387604713
 0.0026741510178577466 0.017906057014469828 -0.00230969844557477 -0.011361526276697382 0.008327825806127648 0.03797469115728516 0.9895419531753975 -0.08933869420819651
 -0.0023071896525993824 -0.011361730596427321 0.002720536944974498 0.017898850387604713 0.9895419531753975 -0.08933869420819651 0.008323335639054533 0.0379747840675273
0.131304710296 0.008879343150238297 0.040046784332639467 0.9888164541411056 -0.0939470375154244 0.002918201664858096 0.018795906190739044 -0.0025166879419058355 -0.01192743428929035
 0.9888164541411056 -0.0939470375154244 0.00887129837179041 0.04004713868084489 -0.0025194458975083584 -0.011927193556032816 0.002969369679590313 0.018787750245356213
 0.002918201664858096 0.018795906190739044 -0.0025194458975083584 -0.011927193556032816 0.008877698632564096 0.040045169824356235 0.9888163534607638 -0.09394878369516209
 -0.0025166879419058355 -0.01192743428929035 0.002969369679590313 0.018787750245356213 0.9888163534607638 -0.09394878369516209 0.008872744369628817 0.0400452614750718
0.1375573155481 0.009330328204769093 0.04186119918890963 0.9881834372264031 -0.09829927051047847 0.0031436937715749453 0.01965742699537665 -0.0027060433095916028 -0.0124651318756075
 0.9881834372264031 -0.09829927051047847 0.00932149306154079 0.04186158088275156 -0.002709067013779033 -0.012464854251089421 0.0031997532725958175 0.019648330059635833
 0.0031436937715749453 0.01965742699537665 -0.002709067013779033 -0.012464854251089421 0.009328524561489401 0.04185951828923121 0.9881833270591106 -0.09830109945014777
 -0.0027060433095916028 -0.0124651318756075 0.0031997532725958175 0.019648330059635833 0.9881833270591106 -0.09830109945014777 0.009323079550307423 0.04185960461343019
0.1438099208003 0.009797308099620556 0.04366533094207693 0.9875279187504021 -0.10263973758392271 0.0033782668199922056 0.020515072960462892 -0.002902947465960891 -0.012999226923857066
 0.9875279187504021 -0.10263973758392271 0.009787644692564233 0.043665741691906367 -0.0029062489035336426 -0.012998909019916287 0.003439431354047755 0.020504963450555747
 0.0033782668199922056 0.020515072960462892 -0.0029062489035336426 -0.012998909019916287 0.009795338069160404 0.04366358504460832 0.9875277986707831 -0.1026416492488166
 -0.002902947465960891 -0.012999226923857066 0.003439431354047755 0.020504963450555747 0.9875277986707831 -0.1026416492488166 0.009789378107434871 0.043663665033143104
0.1500625260525 0.010280107948798162 0.045459007063139316 0.986850078252716 -0.10696830885715594 0.0036218330536471966 0.021368744246442046 -0.0031073141056521566 -0.013529623676258217
 0.986850078252716 -0.10696830885715594 0.01026957823366908 0.045459448708413834 -0.0031109052296072436 -0.01352926196855047 0.003688314792256764 0.02135754796126705
 0.0036218330536471966 0.021368744246442046 -0.0031109052296072436 -0.01352926196855047 0.010277964281915167 0.04545719761804968 0.9868499478353978 -0.1069703032115584
 -0.0031073141056521566 -0.013529623676258217 0.003688314792256764 0.02135754796126705 0.9868499478353978 -0.1069703032115584 0.010271464998248691 0.0454572702784467
0.15631513130469998 0.010778551496275855 0.047242060165373516 0.9861500963292547 -0.11128485538785916 0.0038743036087588293 0.022218342870645072 -0.0033190557914844045 -0.014056228522280752
 0.9861500963292547 -0.11128485538785916 0.010767117279359643 0.047242534680305474 -0.003322948522360866 -0.01405581935096922 0.0039463133271042125 0.02220598301999573
