! Created with skrf 1.8.0 (http://scikit-rf.org).
# GHz S RI R 50.0 
!freq ReS11 ImS11 ReS12 ImS12 ReS13 ImS13
! ReS14 ImS14
! ReS21 ImS21 ReS22 ImS22 ReS23 ImS23
! ReS24 ImS24
! ReS31 ImS31 ReS32 ImS32 ReS33 ImS33
! ReS34 ImS34
! ReS41 ImS41 ReS42 ImS42 ReS43 ImS43
! ReS44 ImS44
!
0.0 0.001168057200703 0.0 0.9988319427975 0.0 4.397180930964e-05 0.0 -4.397180960892e-05 5.384993589028071e-21
 0.9988319427975 0.0 0.001168057200699 0.0 -4.397180960827e-05 5.3849935889484686e-21 4.397180930802e-05 0.0
 4.397180930964e-05 0.0 -4.397180960827e-05 5.3849935889484686e-21 0.001168057199985 0.0 0.9988319427968 0.0
 -4.397180960892e-05 5.384993589028071e-21 4.397180930802e-05 0.0 0.9988319427968 0.0 0.00116805720001 0.0
0.005 0.0012557904262006936 0.0009645461048021823 0.9987211051607577 -0.002447349038414431 5.987886093618505e-05 0.0004341251476425997 -5.853520654556322e-05 -0.00028141903764306064
 0.9987211051607577 -0.002447349038414431 0.0012557998987072288 0.0009645406347980759 -5.8534480415227936e-05 -0.000281418535086762 5.9826213717785825e-05 0.0004341452178278932
 5.987886093618505e-05 0.0004341251476425997 -5.8534480415227936e-05 -0.000281418535086762 0.0012557901666409856 0.0009644790449508604 0.9987211048356193 -0.002447416101035822
 -5.853520654556322e-05 -0.00028141903764306064 5.9826213717785825e-05 0.0004341452178278932 0.9987211048356193 -0.002447416101035822 0.0012557995082427501 0.0009644735686846346
0.006252605252188 0.0012785526296434254 0.0012094726218436457 0.9986922099548536 -0.003059819126037181 6.429080470323514e-05 0.0005429046866546758 -6.253297336640378e-05 -0.000352139099366158
 0.9986922099548536 -0.003059819126037181 0.0012785674361670562 0.0012094656565509521 -6.253184298886943e-05 -0.00035213848054594954 6.420854740023326e-05 0.0005429307083625173
 6.429080470323514e-05 0.0005429046866546758 -6.253184298886943e-05 -0.00035213848054594954 0.0012785522998272235 0.0012093888080066614 0.9986922095229325 -0.0030599029482814132
 -6.253297336640378e-05 -0.000352139099366158 6.420854740023326e-05 0.0005429307083625173 0.9986922095229325 -0.0030599029482814132 0.0012785669024156746 0.0012093818245332213
0.01250521050438 0.0013969362479970531 0.002444335864239028 0.9985411425461078 -0.006120598614331825 8.889208334738749e-05 0.0010863810164027394 -8.460350296781265e-05 -0.0007060790420094081
 0.9985411425461078 -0.006120598614331825 0.0013969953603972672 0.0024443206400203417 -8.459904238705995e-05 -0.0007060779057709919 8.85640484683659e-05 0.0010864429824010624
 8.889208334738749e-05 0.0010863810164027394 -8.459904238705995e-05 -0.0007060779057709919 0.0013969354819518222 0.002444168536634418 0.9985411413789501 -0.006120766007118027
 -8.460350296781265e-05 -0.0007060790420094081 8.85640484683659e-05 0.0010864429824010624 0.9985411413789501 -0.006120766007118027 0.0013969937930863356 0.0024441531717873163
0.01875781575657 0.001523414081916956 0.0036969582769346707 0.9983785905062299 -0.009189828651307831 0.00011782542715947145 0.001630763571896424 -0.00011023952403041288 -0.0010614073068234175
 0.9983785905062299 -0.009189828651307831 0.0015235468907483895 0.0036969333996412493 -0.000110229568142235 -0.0010614057712938644 0.00011708850071960173 0.0016308729898315015
 0.00011782542715947145 0.001630763571896424 -0.000110229568142235 -0.0010614057712938644 0.0015234127655334247 0.0036967075876441695 0.9983785883017229 -0.009190079508637738
 -0.00011023952403041288 -0.0010614073068234175 0.00011708850071960173 0.0016308729898315015 0.9983785883017229 -0.009190079508637738 0.0015235438001445923 0.003696682340421546
0.02501042100875 0.0016581886192594975 0.004965656373266802 0.9982043993546321 -0.012269046826104003 0.0001511412839935165 0.0021760903365474977 -0.00013949626336218698 -0.0014180056918983034
 0.9982043993546321 -0.012269046826104003 0.0016584244431724119 0.004965620357275374 -0.0001394786696342684 -0.0014180038940126418 0.00014983225200477336 0.0021762602211055455
 0.0001511412839935165 0.0021760903365474977 -0.0001394786696342684 -0.0014180038940126418 0.0016581866342579243 0.0049653224340970295 0.9982043958144597 -0.012269381080454105
 -0.00013949626336218698 -0.0014180056918983034 0.00014983225200477336 0.0021762602211055455 0.9982043958144597 -0.012269381080454105 0.0016584193512613674 0.004965285708622392
0.03126302626094 0.0018014535712388149 0.00624958997209297 0.9980184050275467 -0.015358942764756071 0.00018889067127556653 0.0027223562271478773 -0.00017242792178048634 -0.0017757967364751867
 0.9980184050275467 -0.015358942764756071 0.0018018216708527435 0.006249541241859112 -0.00017240056618104596 -0.0017757948322998044 0.00018684605565158578 0.002722601106360637
 0.00018889067127556653 0.0027223562271478773 -0.00017240056618104596 -0.0017757948322998044 0.0018014507898367821 0.006249172878546784 0.9980183998514999 -0.015359360363333168
 -0.00017242792178048634 -0.0017757967364751867 0.00018684605565158578 0.002722601106360637 0.9980183998514999 -0.015359360363333168 0.0018018141051771035 0.006249122985301657
0.037515631513130004 0.0019533986282781962 0.007548231116138396 0.9978204387055413 -0.018459889170174677 0.0002311247449381368 0.003269539414975349 -0.00020908801455266795 -0.0021347173855230913
 0.9978204387055413 -0.018459889170174677 0.0019539282143139058 0.007548168006914775 -0.00020904878943563203 -0.0021347155503942798 0.00022818072348272542 0.0032698753451613433
 0.0002311247449381368 0.003269539414975349 -0.00020904878943563203 -0.0021347155503942798 0.001953394916455394 0.007547730956484005 0.9978204315948055 -0.018460390066007554
 -0.00020908801455266795 -0.0021347173855230913 0.00022818072348272542 0.0032698753451613433 0.9978204315948055 -0.018460390066007554 0.0019539177110625815 0.007547666112821248
0.043768236765320004 0.0021142113076832083 0.00886120241486082 0.9976103287359527 -0.021572103432361423 0.00027789460290946865 0.003817609323853683 -0.00024952950115597665 -0.0024947109789666844
 0.9976103287359527 -0.021572103432361423 0.00211493154718461 0.008861123173156031 -0.00024947631406314083 -0.0024947094075815435 0.00027388696550042607 0.0038180539071767635
 0.00027789460290946865 0.003817609323853683 -0.00024947631406314083 -0.0024947094075815435 0.002114206526055521 0.008860619278292231 0.9976103193936514 -0.02157268757632154
 -0.00024952950115597665 -0.0024947109789666844 0.00027388696550042607 0.0038180539071767635 0.9976103193936514 -0.02157268757632154 0.0021149176512618964 0.008860537608739878
0.050020842017509996 0.0022840778239428356 0.010188210277725556 0.9973879015781506 -0.02469571434633462 0.0003292511716899804 0.0043665299308476985 -0.00029380484028166504 -0.002855723938880956
 0.9973879015781506 -0.02469571434633462 0.0022850178448537415 0.010188113061593652 -0.00029373561313369545 -0.0028557228453622643 0.00032401529496741484 0.004367102334037346
 0.0003292511716899804 0.0043665299308476985 -0.00029373561313369545 -0.0028557228453622643 0.0022840718253304996 0.01018754424007093 0.9973878897068775 -0.024696381701520918
 -0.00029380484028166504 -0.002855723938880956 0.00032401529496741484 0.004367102334037346 0.9973878897068775 -0.024696381701520918 0.0022850001073460176 0.010187443776463126
0.055454545454549996 0.002439193779302602 0.011352630394479287 0.9971844667711118 -0.027419540058016535 0.0003776459221586324 0.004844218570228532 -0.0003354353904090434 -0.0031702424885970255
 0.9971844667711118 -0.027419540058016535 0.0024403484252281996 0.011352515993606807 -0.0003353505470692794 -0.003170241999384715 0.00037120864271726227 0.00484491884812656
 0.0003776459221586324 0.004844218570228532 -0.0003353505470692794 -0.003170241999384715 0.002439186598287463 0.01135189237740308 0.9971844524606017 -0.027420279693019217
 -0.0003354353904090434 -0.0031702424885970255 0.00037120864271726227 0.00484491884812656 0.9971844524606017 -0.027420279693019217 0.0024403269900901974 0.011351773910851537
0.056273447269699996 0.0024631835451274188 0.011529012103241329 0.9971529823378728 -0.02783079487362978 0.00038524512899472196 0.0049162613849594835 -0.0003419660113866048 -0.00321770413933771
 0.9971529823378728 -0.02783079487362978 0.002464372440561624 0.011528894982502931 -0.0003418786799379944 -0.0032177037572953867 0.0003786159628109145 0.004916982358621861
 0.00038524512899472196 0.0049162613849594835 -0.0003418786799379944 -0.0032177037572953867 0.0024631761757615417 0.011528263242636214 0.9971529676406433 -0.027831545399886182
 -0.0003419660113866048 -0.00321770413933771 0.0003786159628109145 0.004916982358621861 0.9971529676406433 -0.027831545399886182 0.0024643504197232546 0.011528141924146553
0.06252605252188 0.0026517132538308617 0.012883398273031844 0.996905395106505 -0.03097738009891084 0.0004459268468711412 0.005466760889614556 -0.00039406451740962373 -0.0035806000132506655
 0.996905395106505 -0.03097738009891084 0.002653180085505535 0.012883259229359897 -0.0003939570309040896 -0.0035806005958274245 0.00043773890763427705 0.005467652787862877
 0.0004459268468711412 0.005466760889614556 -0.0003939570309040896 -0.0035806005958274245 0.002651704353565 0.012882566666019639 0.996905377287254 -0.030978213756832112
 -0.00039406451740962373 -0.0035806000132506655 0.00043773890763427705 0.005467652787862877 0.996905377287254 -0.030978213756832112 0.0026531533465810413 0.0128824223391458
0.06877865777407 0.0028498513004050893 0.014251181394398576 0.9966449631956663 -0.03413547793848498 0.0005113463436447831 0.006017983229183418 -0.00045015137863252646 -0.003944360016028474
 0.9966449631956663 -0.03413547793848498 0.0028516251019970957 0.014251018321393387 -0.0004500216995372667 -0.0039443618359561615 0.0005014337130658488 0.006019070029448544
 0.0005113463436447831 0.006017983229183418 -0.0004500216995372667 -0.0039443618359561615 0.0028498407027156107 0.014250267114269974 0.996644941958762 -0.03413639469121885
 -0.00045015137863252646 -0.003944360016028474 0.0005014337130658488 0.006019070029448544 0.996644941958762 -0.03413639469121885 0.002851593217121494 0.014250097532746347
0.07503126302626001 0.003057781692756503 0.015632189491579733 0.9963715093089515 -0.03730507590086767 0.0005815532424801355 0.006569881099783853 -0.0005102771198468945 -0.004308932285904764
 0.9963715093089515 -0.03730507590086767 0.003059891473231118 0.015632000194721787 -0.0005101232237061283 -0.0043089356355416695 0.0005697495702205323 0.0065711884227246655
 0.0005815532424801355 0.006569881099783853 -0.0005101232237061283 -0.0043089356355416695 0.0030577692244482487 0.01563119261294565 0.9963714843592187 -0.037306075709693846
 -0.0005102771198468945 -0.004308932285904764 0.0005697495702205323 0.0065711884227246655 0.9963714843592187 -0.037306075709693846 0.003059854020831771 0.015630995437567786
0.08128386827845 0.003275688146717925 0.017026261467213647 0.9960848556768328 -0.04048614557795245 0.0006565967338433913 0.0071224053291569405 -0.0005744917535842105 -0.004674264416169438
 0.9960848556768328 -0.04048614557795245 0.003278162893260907 0.01702604366381926 -0.000574311628927713 -0.004674269607547086 0.0006427352425766868 0.00712396045863306
 0.0006565967338433913 0.0071224053291569405 -0.000574311628927713 -0.004674269607547086 0.0032756736287091566 0.01702518206239416 0.9960848267199168 -0.04048722840602659
 -0.0005744917535842105 -0.004674264416169438 0.0006427352425766868 0.00712396045863306 0.9960848267199168 -0.04048722840602659 0.0032781194583791045 0.017024954860829496
0.08753647353064001 0.003503754110837864 0.01843324396760155 0.9957848241663597 -0.04367864573340933 0.000736525540000426 0.007675505025744692 -0.0006428447604109014 -0.005040303299304664
 0.9957848241663597 -0.04367864573340933 0.0035066227918169202 0.018432995286626702 -0.000642636408671271 -0.0050403106641624855 0.000720439033149442 0.007677336928757622
 0.000736525540000426 0.007675505025744692 -0.000642636408671271 -0.0050403106641624855 0.0035037373573365564 0.01843208210818297 0.9957847909080599 -0.04367981154433029
 -0.0006428447604109014 -0.005040303299304664 0.000720439033149442 0.007677336928757622 0.9957847909080599 -0.04367981154433029 0.0035065729654632795 0.01843182235467195
0.09378907878283 0.003742162773488198 0.019852989132751145 0.9954712363765054 -0.04688252450741568 0.0008213878811297733 0.0082291276862342 -0.0007153850672510904 -0.005406995013708792
 0.9954712363765054 -0.04688252450741568 0.0037454543415044975 0.01985270711459779 -0.0007151465027799168 -0.005407004903534262 0.0008029087523725996 0.008231267032866174
 0.0008213878811297733 0.0082291276862342 -0.0007151465027799168 -0.005407004903534262 0.0037421435923883006 0.019851744893267506 0.9954711985229321 -0.04688377326167967
 -0.0007153850672510904 -0.005406995013708792 0.0008029087523725996 0.008231267032866174 0.9954711985229321 -0.04688377326167967 0.0037453977204819633 0.01985144996829292
0.100041684035 0.003991097057431355 0.021285352957633723 0.9951439137206922 -0.05009772101135622 0.0009112314426435703 0.008783219274051967 -0.0007921610239564503 -0.005774284740657009
 0.9951439137206922 -0.05009772101135622 0.003994840451941097 0.021285035053865423 -0.0007918902740168063 -0.005774297526720781 0.0008901916868762367 0.008785698457354675
 0.0009112314426435703 0.008783219274051967 -0.0007918902740168063 -0.005774297526720781 0.003991075250678735 0.02128402641110338 0.9951438709788752 -0.05009905267095063
 -0.0007921610239564503 -0.005774284740657009 0.0008901916868762367 0.008785698457354675 0.9951438709788752 -0.05009905267095063 0.003994776639224283 0.021283693600959212
0.1059090909091 0.004234431116738655 0.022640825033481412 0.9948241052371217 -0.053125074156976385 0.001000112440863783 0.009303552514832414 -0.0008681019348407624 -0.006119441406964554
 0.9948241052371217 -0.053125074156976385 0.004238624813616619 0.022640471057622888 -0.0008677991996087353 -0.006119457266153086 0.0009765166650563304 0.009306381612115742
 0.001000112440863783 0.009303552514832414 -0.0008677991996087353 -0.006119457266153086 0.004234406660561382 0.02263942131671714 0.9948240576420155 -0.05312648358019051
 -0.0008681019348407624 -0.006119441406964554 0.0009765166650563304 0.009306381612115742 0.9948240576420155 -0.05312648358019051 0.004238553896270429 0.02263905040296167
0.1062942892872 0.0042507396047978515 0.02273019404533556 0.9948026775032486 -0.05332416653189208 0.0010061033428092525 0.00933772427709769 -0.0008732203788576224 -0.006142116703224642
 0.9948026775032486 -0.05332416653189208 0.0042549637551680085 0.022729837618296226 -0.0008729154836618521 -0.006142132776606405 0.0009823345684682823 0.009340577432883483
 0.0010061033428092525 0.00933772427709769 -0.0008729154836618521 -0.006142132776606405 0.004250714968187236 0.022728785264458803 0.9948026295803719 -0.05332558105925356
 -0.0008732203788576224 -0.006142116703224642 0.0009823345684682823 0.009340577432883483 0.9948026295803719 -0.05332558105925356 0.0042548923594155135 0.022728411760790844
0.11254689453939999 0.004521272755494652 0.024187372657064943 0.9944473489889896 -0.056561785439417825 0.0011060501010407883 0.009892585752435684 -0.0009586102529617919 -0.006510434119456843
 0.9944473489889896 -0.056561785439417825 0.004526006583906809 0.024186974979497934 -0.0009582692657648171 -0.006510453891078115 0.0010793835437123251 0.00989584877899812
 0.0011060501010407883 0.009892585752435684 -0.0009582692657648171 -0.006510453891078115 0.004521245078794357 0.0241858817176607 0.9944472955930744 -0.05656328279414455
 -0.0009586102529617919 -0.006510434119456843 0.0010793835437123251 0.00989584877899812 0.9944472955930744 -0.05656328279414455 0.004525927219161859 0.02418546461692222
0.11879949979160001 0.004802878520059032 0.025656749972847136 0.9940777494706836 -0.05981049588753901 0.001211117606274619 0.010447745361822454 -0.0010483771136068898 -0.006879179166002342
 0.9940777494706836 -0.05981049588753901 0.004808150944222409 0.025656308227327847 -0.0010479981007460268 -0.006879203066648756 0.0011813841432478417 0.010451455939554547
 0.001211117606274619 0.010447745361822454 -0.0010479981007460268 -0.006879203066648756 0.004802847587066123 0.025655176949890487 0.9940776903098812 -0.059812076030448455
 -0.0010483771136068898 -0.006879179166002342 0.0011813841432478417 0.010451455939554547 0.9940776903098812 -0.059812076030448455 0.004808063230067034 0.02565471325266658
0.1250521050438 0.005095738547578771 0.027138187496879868 0.9936937003315165 -0.06307021036903283 0.0013213510854999844 0.011003143400573968 -0.0011425667472235819 -0.0072482929497221784
 0.9936937003315165 -0.06307021036903283 0.005101578483669832 0.02713769877527497 -0.0011421477882328029 -0.007248321430065951 0.0012883812512609685 0.011007341011430806
 0.0013213510854999844 0.011003143400573968 -0.0011421477882328029 -0.007248321430065951 0.005095704136364101 0.027136532466449675 0.9936936351148101 -0.06307187326037704
 -0.0011425667472235819 -0.0072482929497221784 0.0012883812512609685 0.011007341011430806 0.9936936351148101 -0.06307187326037704 0.005101482045039465 0.027136019076857337
0.131304710296 0.005400034091189722 0.028631546584946065 0.9932950231076543 -0.06634083615144448 0.0014367950723880685 0.01155871881976471 -0.001241224231433506 -0.007617715487298394
 0.9932950231076543 -0.06634083615144448 0.005406470456885325 0.028631007887714503 -0.0012407634191549653 -0.007617749017917062 0.0014004190749986082 0.011563444766611952
 0.0014367950723880685 0.01155871881976471 -0.0012407634191549653 -0.007617749017917062 0.0053999959737472975 0.028629809624660742 0.9932949515442904 -0.06634258175058465
 -0.001241224231433506 -0.007617715487298394 0.0014004190749986082 0.011563444766611952 0.9932949515442904 -0.06634258175058465 0.005406364923457215 0.028629243349498647
0.1375573155481 0.005637853073195651 0.029943434367910814 0.9929596493548811 -0.06942897781755623 0.001540856083051757 0.012095019521916203 -0.0013277994414628781 -0.007967972651570948
 0.9929596493548811 -0.06942897781755623 0.0056449175078684445 0.029942855075055584 -0.0013272941544323499 -0.007968011184595015 0.0015009870676062965 0.012100259902084255
 0.001540856083051757 0.012095019521916203 -0.0013272941544323499 -0.007968011184595015 0.005637811770311606 0.029941615155361763 0.9929595711599977 -0.06943080606869012
 -0.0013277994414628781 -0.007967972651570948 0.0015009870676062965 0.012100259902084255 0.9929595711599977 -0.06943080606869012 0.005644801746714691 0.02994100595143737
0.1438099208003 0.005883750225981166 0.03124978112784194 0.992613013512918 -0.0725106338272608 0.0016491034417525424 0.012629775209754323 -0.0014178272974338746 -0.008316816401027098
 0.992613013512918 -0.0725106338272608 0.005891472089976162 0.0312491590981412 -0.0014172755187551605 -0.008316860386796932 0.0016055861915801259 0.012635567120099968
 0.0016491034417525424 0.012629775209754323 -0.0014172755187551605 -0.008316860386796932 0.005883705636682094 0.031247879692476544 0.9926129283981361 -0.07251254468591331
 -0.0014178272974338746 -0.008316816401027098 0.0016055861915801259 0.012635567120099968 0.9926129283981361 -0.07251254468591331 0.005891345599324943 0.031247225303588016
0.1500625260525 0.0061376546535301685 0.03255051752813345 0.9922551890481595 -0.07558576750904145 0.0017615077393482788 0.013162952893416995 -0.0015112794149757707 -0.008664215296262287
 0.9922551890481595 -0.07558576750904145 0.006146063331249703 0.0325498505132315 -0.001510679131758152 -0.008664265202901398 0.001714187696386364 0.013169334770437732
 0.0017615077393482788 0.013162952893416995 -0.001510679131758152 -0.008664265202901398 0.006137606680012126 0.032548533899279426 0.9922550967259121 -0.07558776092879169
 -0.0015112794149757707 -0.008664215296262287 0.001714187696386364 0.013169334770437732 0.9922550967259121 -0.07558776092879169 0.006145925605254162 0.032547831959766516
0.15631513130469998 0.00639949513905774 0.03384557657570967 0.9918862495978943 -0.0786543416038711 0.001878039318521272 0.013694520019677458 -0.0016081271537370467 -0.009010138471153405
