! Created with skrf 1.8.0 (http://scikit-rf.org).
# GHz S RI R 50.0 
!freq ReS11 ImS11 ReS12 ImS12 ReS13 ImS13
! ReS14 ImS14
! ReS21 ImS21 ReS22 ImS22 ReS23 ImS23
! ReS24 ImS24
! ReS31 ImS31 ReS32 ImS32 ReS33 ImS33
! ReS34 ImS34
! ReS41 ImS41 ReS42 ImS42 ReS43 ImS43
! ReS44 ImS44
!
0.0 0.00143639632997 0.0 0.99856360367 0.0 5.502204360282e-05 0.0 -5.502204440241e-05 6.7382570559954954e-21
 0.99856360367 0.0 0.001436396329971 0.0 -5.502204440235e-05 6.738257055988147e-21 5.502204360318e-05 0.0
 5.502204360282e-05 0.0 -5.502204440235e-05 6.738257055988147e-21 0.001436396321437 0.0 0.9985636036615 0.0
 -5.502204440241e-05 6.7382570559954954e-21 5.502204360318e-05 0.0 0.9985636036615 0.0 0.001436396321443 0.0
0.005 0.0015451183472486505 0.0011791435390816297 0.9984261358551718 -0.0030089644111806466 7.625970641621376e-05 0.0005834446394698796 -7.430563978728553e-05 -0.00037023790290792306
 0.9984261358551718 -0.0030089644111806466 0.0015451040307935464 0.0011791518576682958 -7.430508703844293e-05 -0.0003702374286765282 7.635227618659468e-05 0.0005834094427558447
 7.625970641621376e-05 0.0005834446394698796 -7.430508703844293e-05 -0.0003702374286765282 0.0015451185453290454 0.001179076119186226 0.9984261355031693 -0.0030090314713406285
 -7.430563978728553e-05 -0.00037023790290792306 7.635227618659468e-05 0.0005834094427558447 0.9984261355031693 -0.0030090314713406285 0.0015451031355824397 0.0011790851636090166
0.006252605252188 0.001573548155471877 0.0014785621776569962 0.9983899831206505 -0.003761953407167963 8.225395405511987e-05 0.0007296060261623755 -7.970500021847632e-05 -0.0004632757374825794
 0.9983899831206505 -0.003761953407167963 0.0015735257766205384 0.0014785727408666172 -7.97041404782457e-05 -0.00046327515163026046 8.239858699964553e-05 0.0007295603329456692
 8.225395405511987e-05 0.0007296060261623755 -7.97041404782457e-05 -0.00046327515163026046 0.0015735485443429756 0.0014784779010841857 0.9983899826490932 -0.0037620372317257733
 -7.970500021847632e-05 -0.0004632757374825794 8.239858699964553e-05 0.0007295603329456692 0.9983899826490932 -0.0037620372317257733 0.0015735244557253565 0.001478489382469502
0.01250521050438 0.0017227154531867506 0.002988083778009243 0.998199145518955 -0.007524776416650477 0.00011624429860272101 0.001459686185478979 -0.00011009801930372226 -0.000928829706158187
 0.998199145518955 -0.007524776416650477 0.0017226261013293844 0.0029881065660752474 -0.00011009463581005884 -0.0009288286097051764 0.00011682109292898096 0.0014595765722155906
 0.00011624429860272101 0.001459686185478979 -0.00011009463581005884 -0.0009288286097051764 0.001722717573566961 0.002987915460566345 0.9981991441940798 -0.007524943821865983
 -0.00011009801930372226 -0.000928829706158187 0.00011682109292898096 0.0014595765722155906 0.9981991441940798 -0.007524943821865983 0.0017226213809287004 0.0029879402044357484
0.01875781575657 0.0018842058265081695 0.004519132491179959 0.9979908663026259 -0.011297641517335503 0.00015707088047318268 0.0021907164316869983 -0.0001462902940574797 -0.0013960342384530156
 0.9979908663026259 -0.011297641517335503 0.001884005064318756 0.004519169283243373 -0.0001462827551703908 -0.0013960327187562778 0.00015836666116254906 0.002190521296769539
 0.00015707088047318268 0.0021907164316869983 -0.0001462827551703908 -0.0013960327187562778 0.0018842110346194083 0.00451888021630536 0.9979908637485003 -0.011297892446279786
 -0.0001462902940574797 -0.0013960342384530156 0.00015836666116254906 0.002190521296769539 0.9979908637485003 -0.011297892446279786 0.0018839948741043405 0.004518920155251922
0.02501042100875 0.002058318807130533 0.00606959321860792 0.9977649125319651 -0.015082395404080155 0.00020481191656409966 0.0029227343861401417 -0.00018836857402879779 -0.0018646953846116455
 0.9977649125319651 -0.015082395404080155 0.002057962296411992 0.006069645895729842 -0.00018835526960052658 -0.0018646935429404202 0.0002071136678824846 0.0029224288783355093
 0.00020481191656409966 0.0029227343861401417 -0.00018835526960052658 -0.0018646935429404202 0.0020583284623362195 0.006069257074990863 0.9977649083654653 -0.015082729830159418
 -0.00018836857402879779 -0.0018646953846116455 0.0002071136678824846 0.0029224288783355093 0.9977649083654653 -0.015082729830159418 0.00205794456054881 0.006069314276133038
0.03126302626094 0.002245341504921045 0.007638387039256929 0.9975210387429959 -0.018879839971786196 0.00025954594767292876 0.0036557135578385606 -0.0002364174328269855 -0.0023346787719487135
 0.9975210387429959 -0.018879839971786196 0.002244784982855629 0.007638457580847373 -0.00023639677051376425 -0.0023346767236752976 0.00026314108209684727 0.0036552695580876465
 0.00025954594767292876 0.0036557135578385606 -0.00023639677051376425 -0.0023346767236752976 0.0022453569787536016 0.0076379671009323335 0.9975210325811399 -0.01888025791876601
 -0.0002364174328269855 -0.0023346787719487135 0.00026314108209684727 0.0036552695580876465 0.9975210325811399 -0.01888025791876601 0.002244757628055175 0.007638043762664855
0.037515631513130004 0.002445554971198829 0.009224817692703563 0.9972589934855096 -0.02269038577244839 0.0003213512110768342 0.004389602219061678 -0.0002905198533682385 -0.002805870732705111
 0.9972589934855096 -0.02269038577244839 0.002444754234470808 0.00922490817462744 -0.0002904902566822945 -0.0028058686073274956 0.0003265276914412804 0.004388988307678602
 0.0003213512110768342 0.004389602219061678 -0.0002904902566822945 -0.0028058686073274956 0.0024455776448195645 0.009224314059772056 0.9972589849415913 -0.022690887273734927
 -0.0002905198533682385 -0.002805870732705111 0.0003265276914412804 0.004388988307678602 0.9972589849415913 -0.022690887273734927 0.0024447151874262174 0.00922441251032267
0.043768236765320004 0.0026592366657026624 0.010828372719923342 0.9969785219621569 -0.02651425080708427 0.000390305349744645 0.005124335218017615 -0.0003507574336757511 -0.003278166488217779
 0.9969785219621569 -0.02651425080708427 0.0026581475583170727 0.010828485313234857 -0.00035071734083487243 -0.00327816442935351 0.0003973517487863474 0.005123516637309598
 0.000390305349744645 0.005124335218017615 -0.00035071734083487243 -0.00327816442935351 0.002659267931966238 0.010827785497398521 0.9969785106464527 -0.026514835926975577
 -0.0003507574336757511 -0.003278166488217779 0.0003973517487863474 0.005123516637309598 0.9969785106464527 -0.026514835926975577 0.0026580947475050958 0.010827908193960727
0.050020842017509996 0.002886661601240808 0.01244864125884874 0.9966793673475448 -0.030351542661017118 0.0004664852288438599 0.005859838873448957 -0.00041721046925410595 -0.003751465250596318
 0.9966793673475448 -0.030351542661017118 0.002885240003858764 0.012448778228814896 -0.00041715833235644645 -0.00375146341594439 0.00047569075580764924 0.005858777488528212
 0.0004664852288438599 0.005859838873448957 -0.00041715833235644645 -0.00375146341594439 0.002886702863831388 0.012447970569606302 0.9966793528658769 -0.03035221148165383
 -0.00041721046925410595 -0.003751465250596318 0.00047569075580764924 0.005858777488528212 0.9966793528658769 -0.03035221148165383 0.0028851713592176974 0.012448120097995058
0.055454545454549996 0.0030956741465198345 0.013870004520874644 0.9964040195521103 -0.0336972001658377 0.0005386150579037495 0.006499577822593494 -0.00048006927500901384 -0.004163513747981352
 0.9964040195521103 -0.0336972001658377 0.0030939277961909155 0.01387016458732727 -0.00048000542474632983 -0.004163512247164079 0.0005499323048456826 0.006498271810222229
 0.0005386150579037495 0.006499577822593494 -0.00048000542474632983 -0.004163512247164079 0.003095725246045768 0.013869261409394925 0.9964040019958323 -0.033697941806370965
 -0.00048006927500901384 -0.004163513747981352 0.0005499323048456826 0.006498271810222229 0.9964040019958323 -0.033697941806370965 0.003093843713032468 0.013869436455180939
0.056273447269699996 0.0031281029403697207 0.014085273705854466 0.9963612715619229 -0.034202298773485476 0.0005499668113477185 0.0065960333432887866 -0.0004899579685998237 -0.0042256678517055965
 0.9963612715619229 -0.034202298773485476 0.00312630476071963 0.014085437411412318 -0.0004898922530935158 -0.004225666413018081 0.0005616213180600145 0.006594687602005888
 0.0005499668113477185 0.0065960333432887866 -0.0004898922530935158 -0.004225666413018081 0.0031281556154203532 0.014084519690521699 0.9963612535156293 -0.03420305139501835
 -0.0004899579685998237 -0.0042256678517055965 0.0005616213180600145 0.006594687602005888 0.9963612535156293 -0.03420305139501835 0.0031262182153403936 0.014084698764972408
0.06252605252188 0.0033838323205307467 0.015737959536840422 0.9960239757753471 -0.03806650854937906 0.0006408250508400661 0.007332833962019844 -0.0005690776460604937 -0.004700675405542541
 0.9960239757753471 -0.03806650854937906 0.0033816134841396844 0.01573815243024189 -0.0005689968302912292 -0.004700674548594412 0.0006552190252043922 0.007331158854577762
 0.0006408250508400661 0.007332833962019844 -0.0005689968302912292 -0.004700674548594412 0.003383897836341977 0.01573712234549328 0.9960239537603461 -0.038067345098215806
 -0.0005690776460604937 -0.004700675405542541 0.0006552190252043922 0.007331158854577762 0.9960239537603461 -0.038067345098215806 0.003381506974626722 0.01573733380885564
0.06877865777407 0.0036541200298834202 0.01740641407765257 0.9956672207670284 -0.04194412652400612 0.000739133804191153 0.008070152011479531 -0.0006546458918593089 -0.005176388539742627
 0.9956672207670284 -0.04194412652400612 0.003651436471386032 0.01740663870437603 -0.0006545484667982564 -0.0051763884642834134 0.0007565583539097144 0.008068099029972254
 0.000739133804191153 0.008070152011479531 -0.0006545484667982564 -0.0051763884642834134 0.0036541998275395953 0.01740549387951749 0.9956671943728848 -0.0419450471430047
 -0.0006546458918593089 -0.005176388539742627 0.0007565583539097144 0.008068099029972254 0.9956671943728848 -0.0419450471430047 0.0036513079386699455 0.017405740703678993
0.07503126302626001 0.003939235098218658 0.019090370120840017 0.9952907472013209 -0.045835080684176854 0.0008449657492356726 0.00880789522108131 -0.0007467377342261679 -0.005652706900488456
 0.9952907472013209 -0.045835080684176854 0.003936042752977674 0.019090629119686398 -0.0007466222032230495 -0.0056527078202022515 0.000865712578736626 0.008805412319147948
 0.0008449657492356726 0.00880789522108131 -0.0007466222032230495 -0.0056527078202022515 0.003939330632348047 0.019089367102612192 0.995290716011379 -0.0458360855342413
 -0.0007467377342261679 -0.005652706900488456 0.000865712578736626 0.008805412319147948 0.995290716011379 -0.0458360855342413 0.003935890143531694 0.019089652389158145
0.08128386827845 0.004239445331917608 0.020789572345733694 0.9948942958518995 -0.04973927798917712 0.0009583923078046682 0.009545968105520308 -0.0008454267939870077 -0.0061295288229602585
 0.9948942958518995 -0.04973927798917712 0.0042357001273418 0.02078986844932379 -0.0008452916725646019 -0.006129530965435806 0.0009827536899284922 0.009542999658225793
 0.0009583923078046682 0.009545968105520308 -0.0008452916725646019 -0.006129530965435806 0.004239558070376829 0.02078848670965564 0.9948942594413726 -0.0497403672510683
 -0.0008454267939870077 -0.0061295288229602585 0.0009827536899284922 0.009542999658225793 0.9948942594413726 -0.0497403672510683 0.004235521393571234 0.020788813690733838
0.08753647353064001 0.004555017313170902 0.0225037734577395 0.9944776077926929 -0.05365660817600564 0.001079483573008938 0.010284272190849531 -0.0009507852332687084 -0.006606751116624394
 0.9944776077926929 -0.05365660817600564 0.004550675160458629 0.022504109493152406 -0.0009506290490151549 -0.006606754723300813 0.0011077523160426003 0.010280758954894258
 0.001079483573008938 0.010284272190849531 -0.0009506290490151549 -0.006606754723300813 0.004555148739099784 0.022502605421842365 0.9944775657298409 -0.053657782049879976
 -0.0009507852332687084 -0.006606751116624394 0.0011077523160426003 0.010280758954894258 0.9944775657298409 -0.053657782049879976 0.004550468262869581 0.02250297746141724
0.09378907878283 0.00488621637503853 0.024232731427512994 0.9940404245675688 -0.057586946468271984 0.0012083082369833357 0.01102270618719367 -0.0010628837019368467 -0.0070842689071938586
 0.9940404245675688 -0.057586946468271984 0.004881233160540444 0.02423311031723942 -0.0010627049943286006 -0.0070842742333446255 0.001240777648273461 0.01101858526149525
 0.0012083082369833357 0.01102270618719367 -0.0010627049943286006 -0.0070842742333446255 0.004886367985234453 0.02423148122864461 0.9940403764112302 -0.05758820517059704
 -0.0010628837019368467 -0.0070842689071938586 0.001240777648273461 0.01101858526149525 0.9940403764112302 -0.05758820517059704 0.004880996067285995 0.02423190182383512
0.100041684035 0.005233306556508179 0.025976207474490545 0.9935824883433744 -0.06153015554465077 0.0013449335209020214 0.011761166116098785 -0.0011817912804116754 -0.007561975527371332
 0.9935824883433744 -0.06153015554465077 0.005227638133485599 0.025976632237653497 -0.0011815886007808885 -0.0075619828420419085 0.0013818973672714515 0.011756370902894367
 0.0013449335209020214 0.011761166116098785 -0.0011815886007808885 -0.0075619828420419085 0.00523347986368082 0.02597487536426333 0.9935824336437368 -0.061531499311975456
 -0.0011817912804116754 -0.007561975527371332 0.0013818973672714515 0.011756370902894367 0.9935824336437368 -0.061531499311975456 0.00522736882262371 0.02597534814707549
0.1059090909091 0.005573700696372521 0.027625267665924897 0.9931336601415865 -0.06524201283660122 0.0014802949648012895 0.012454061125056653 -0.0012996263491071615 -0.008010327603359272
 0.9931336601415865 -0.06524201283660122 0.00556734908991587 0.02762573830970873 -0.0012993998671874632 -0.008010337040987234 0.0015217439117009843 0.012448569267861014
 0.0014802949648012895 0.012454061125056653 -0.0012993998671874632 -0.008010337040987234 0.0055738957531467 0.027623858933753347 0.9931335988833372 -0.06524343666003461
 -0.0012996263491071615 -0.008010327603359272 0.0015217439117009843 0.012448569267861014 0.9931335988833372 -0.06524343666003461 0.005567047716357764 0.027624384114263326
0.1062942892872 0.005596550546417762 0.02773396453527079 0.9931035420544854 -0.06548608702655763 0.0014894251053369485 0.012499545408433415 -0.001307575420863268 -0.008039762440641654
 0.9931035420544854 -0.06548608702655763 0.005590152726515895 0.027734438289134737 -0.0013073473322861265 -0.008039772026624103 0.001531177570874708 0.012494005574829827
 0.0014894251053369485 0.012499545408433415 -0.0013073473322861265 -0.008039772026624103 0.005596747078522024 0.027732550781041438 0.993103480351304 -0.06548751611427414
 -0.001307575420863268 -0.008039762440641654 0.001531177570874708 0.012494005574829827 0.993103480351304 -0.06548751611427414 0.005589849186330261 0.027733079520340008
0.11254689453939999 0.005976209615405898 0.02950576610608778 0.9926033295380001 -0.06945458259574627 0.0016418470611765422 0.013237734985114135 -0.0014403018867686448 -0.008517519185808207
 0.9926033295380001 -0.06945458259574627 0.005969038160371835 0.029506292067797122 -0.001440046964043681 -0.008517531339597848 0.0016886827024959654 0.01323137642526135
 0.0016418470611765422 0.013237734985114135 -0.001440046964043681 -0.008517531339597848 0.005976430916920765 0.029504270991930447 0.9926032603606376 -0.0694560972768927
 -0.0014403018867686448 -0.008517519185808207 0.0016886827024959654 0.01323137642526135 0.9926032603606376 -0.0694560972768927 0.005968698390890173 0.029504859595664512
0.11879949979160001 0.0063725435416963775 0.031291375336508526 0.9920815956652355 -0.0734354748651561 0.0018022617813938564 0.013975623324437726 -0.0015800346905840252 -0.008995133338715487
 0.9920815956652355 -0.0734354748651561 0.0063645541545246445 0.03129195682521797 -0.0015797515201752916 -0.008995148370466971 0.001854475480730307 0.013968368122293793
 0.0018022617813938564 0.013975623324437726 -0.0015797515201752916 -0.008995148370466971 0.006372791173538383 0.031289799161146985 0.9920815185316055 -0.07343707543211676
 -0.0015800346905840252 -0.008995133338715487 0.001854475480730307 0.013968368122293793 0.9920815185316055 -0.07343707543211676 0.006364176168321057 0.031290451678942795
0.1250521050438 0.006785810528951272 0.03309055430387899 0.9915380864686737 -0.07742858807345755 0.0019707299121447426 0.014713096518246588 -0.0017268360312514336 -0.00947249048893611
 0.9915380864686737 -0.07742858807345755 0.006776958845297528 0.03309119474315068 -0.001726523211228233 -0.009472508722435796 0.002028616828430349 0.014704862910978495
 0.0019707299121447426 0.014713096518246588 -0.001726523211228233 -0.009472508722435796 0.006786086069143437 0.033088897382884036 0.9915380008846753 -0.07743027483545076
 -0.0017268360312514336 -0.00947249048893611 0.002028616828430349 0.014704862910978495 0.9915380008846753 -0.07743027483545076 0.006776540668895828 0.033089618008815685
0.131304710296 0.007216267119493622 0.03490306344882133 0.9909725492661751 -0.08143373862315292 0.0021473102847534868 0.015450038324633096 -0.0018807662299421186 -0.009949474223794304
 0.9909725492661751 -0.08143373862315292 0.007206508699334456 0.034903766369297075 -0.0018804223700381573 -0.00994949599640146 0.0022111658029465393 0.015440740666740928
 0.0021473102847534868 0.015450038324633096 -0.0018804223700381573 -0.00994949599640146 0.007216572163839156 0.03490132611142733 0.9909724547249342 -0.08143551190907221
 -0.0018807662299421186 -0.009949474223794304 0.0022111658029465393 0.015440740666740928 0.9909724547249342 -0.08143551190907221 0.007206048374238037 0.034902119187213435
0.1375573155481 0.007562841617267548 0.03649319404532838 0.9904860963414089 -0.08521516627831738 0.0023086111659326287 0.01616272808329699 -0.002018362877277046 -0.010402428426556004
 0.9904860963414089 -0.08521516627831738 0.007552127741668351 0.03649394751932745 -0.0020179857782112384 -0.010402453742427471 0.0023785814563623046 0.016152383112919878
 0.0023086111659326287 0.01616272808329699 -0.0020179857782112384 -0.010402453742427471 0.007563176885601249 0.03649137682362771 0.9904859924302191 -0.08521702628314459
 -0.002018362877277046 -0.010402428426556004 0.0023785814563623046 0.016152383112919878 0.9904859924302191 -0.08521702628314459 0.0075516240221623464 0.03649223062431198
0.1438099208003 0.007921540384986379 0.03807544796415789 0.98998269545533 -0.08898749387547188 0.002476409896984919 0.016872814693785928 -0.0021614640353565494 -0.01085294882912234
 0.98998269545533 -0.08898749387547188 0.007909825833057823 0.038076254597143776 -0.0021610521779155192 -0.010852978021665282 0.002552763678843956 0.016861344428370312
 0.002476409896984919 0.016872814693785928 -0.0021610521779155192 -0.010852978021665282 0.007921907339687263 0.038073551244103714 0.9899825816681109 -0.08898944091974917
 -0.0021614640353565494 -0.01085294882912234 0.002552763678843956 0.016861344428370312 0.9899825816681109 -0.08898944091974917 0.007909276911335706 0.03807446914305272
0.1500625260525 0.008292244107645756 0.03964970722084863 0.989462469648506 -0.09275064204961071 0.0026506516271732846 0.01758023547858718 -0.0023100154945279857 -0.0113009742985614
 0.989462469648506 -0.09275064204961071 0.00827948355580501 0.039650569777808266 -0.0023095673609069924 -0.01130100771481484 0.0027336561019953203 0.01756755910472774
 0.0026506516271732846 0.01758023547858718 -0.0023095673609069924 -0.01130100771481484 0.008292644217694248 0.03964773140173249 0.9894623454684139 -0.09275267646912991
 -0.0023100154945279857 -0.0113009742985614 0.0027336561019953203 0.01756755910472774 0.9894623454684139 -0.09275267646912991 0.008278887646807278 0.03964871696051904
0.15631513130469998 0.008674832707119233 0.04121585744505684 0.9889255424956305 -0.09650453143455416 0.002831280902689583 0.018284928772849825 -0.0024639624186051623 -0.011746444938516258
