! Created with skrf 1.8.0 (http://scikit-rf.org).
# GHz S RI R 50.0 
!freq ReS11 ImS11 ReS12 ImS12 ReS13 ImS13
! ReS14 ImS14
! ReS21 ImS21 ReS22 ImS22 ReS23 ImS23
! ReS24 ImS24
! ReS31 ImS31 ReS32 ImS32 ReS33 ImS33
! ReS34 ImS34
! ReS41 ImS41 ReS42 ImS42 ReS43 ImS43
! ReS44 ImS44
!
0.0 0.001576210930695 0.0 0.9984237890665 0.0 6.079767468362e-05 0.0 -6.079767406226e-05 7.445567693595076e-21
 0.9984237890665 0.0 0.001576210930686 0.0 -6.079767406164e-05 7.44556769351915e-21 6.079767468374e-05 0.0
 6.079767468362e-05 0.0 -6.079767406164e-05 7.44556769351915e-21 0.001576210929259 0.0 0.9984237890651 0.0
 -6.079767406226e-05 7.445567693595076e-21 6.079767468374e-05 0.0 0.9984237890651 0.0 0.001576210929282 0.0
0.005 0.0016959707404017106 0.0012904410439050819 0.9982722877132918 -0.003301544650111409 8.497616901103028e-05 0.0006637234920264546 -8.26557044749347e-05 -0.0004176504436058551
 0.9982722877132918 -0.003301544650111409 0.0016959501787619945 0.00129045301079238 -8.265289795446738e-05 -0.0004176482677614112 8.511370790876185e-05 0.0006636711440632107
 8.497616901103028e-05 0.0006637234920264546 -8.265289795446738e-05 -0.0004176482677614112 0.001695971933172463 0.0012903730419529759 0.9982722873508963 -0.003301611712446742
 -8.26557044749347e-05 -0.0004176504436058551 8.511370790876185e-05 0.0006636711440632107 0.9982722873508963 -0.003301611712446742 0.0016959482689795074 0.0012903868949899514
0.006252605252188 0.001727411836620832 0.0016181185223837799 0.9982322646943645 -0.004127733264053954 9.186919468213567e-05 0.0008299788755483676 -8.883714047014732e-05 -0.0005225998404440957
 0.9982322646943645 -0.004127733264053954 0.001727379695448105 0.0016181337319970273 -8.883277344649402e-05 -0.0005225971573636076 9.208408662131297e-05 0.0008299108920539923
 9.186919468213567e-05 0.0008299788755483676 -8.883277344649402e-05 -0.0005225971573636076 0.0017274137795243 0.0016180335276103624 0.9982322642057643 -0.004127817083120423
 -8.883714047014732e-05 -0.0005225998404440957 9.208408662131297e-05 0.0008299108920539923 0.9982322642057643 -0.004127817083120423 0.0017273767877084604 0.0016180511040602146
0.01250521050438 0.0018931087782509423 0.00327004948244638 0.9980199651948567 -0.00825623199951096 0.0001313235390129014 0.001660342141887846 -0.000123963843966399 -0.0010477082548339819
 0.9980199651948567 -0.00825623199951096 0.0018929804438789658 0.003270082422274971 -0.00012394663574475837 -0.0010477032919582816 0.0001321804887276169 0.0016601786438567392
 0.0001313235390129014 0.001660342141887846 -0.00012394663574475837 -0.0010477032919582816 0.0018931170973283712 0.0032698797172161166 0.9980199637958236 -0.008256399409571919
 -0.000123963843966399 -0.0010477082548339819 0.0001321804887276169 0.0016601786438567392 0.9980199637958236 -0.008256399409571919 0.0018929693825682084 0.003269917511084735
0.01875781575657 0.0020736696751887493 0.004945411302863837 0.9977866220350203 -0.012395535748763585 0.0001792550783971913 0.002491636816930546 -0.00016628693128104946 -0.0015745733238394326
 0.9977866220350203 -0.012395535748763585 0.0020733813125463794 0.004945464650506876 -0.00016624855891669586 -0.0015745665636387068 0.00018118014641128695 0.0024913447997223634
 0.0001792550783971913 0.002491636816930546 -0.00016624855891669586 -0.0015745665636387068 0.00207368880572467 0.004945156848152942 0.9977866193092084 -0.012395786678693168
 -0.00016628693128104946 -0.0015745733238394326 0.00018118014641128695 0.0024913447997223634 0.9977866193092084 -0.012395786678693168 0.0020733568721374865 0.0049452177434690355
0.02501042100875 0.0022694512659390195 0.006641853450956917 0.9975319559113939 -0.016547641698653956 0.00023575860166292917 0.003323893586469982 -0.00021591196152659335 -0.0021029532436427772
 0.9975319559113939 -0.016547641698653956 0.002268939173759899 0.006641930018647421 -0.00021584420251754579 -0.002102945256162789 0.0002391780198336913 0.003323434754680685
 0.00023575860166292917 0.003323893586469982 -0.00021584420251754579 -0.002102945256162789 0.0022694856453613355 0.006641514340951689 0.9975319514402786 -0.01654797613995176
 -0.00021591196152659335 -0.0021029532436427772 0.0002391780198336913 0.003323434754680685 0.9975319514402786 -0.01654797613995176 0.0022688961360168842 0.006641601438417836
0.03126302626094 0.002480795570483076 0.008358161804174475 0.9972556734988939 -0.020713399276168564 0.00030092900237389895 0.004157067302293146 -0.00027294147338405923 -0.002632675960894626
 0.9972556734988939 -0.020713399276168564 0.002479996144597344 0.008358264534006624 -0.0002728361886142692 -0.0026326674047732535 0.00030626956693629166 0.0041563980382791285
 0.00030092900237389895 0.004157067302293146 -0.0002728361886142692 -0.0026326674047732535 0.002480849639217588 0.008357738065577823 0.9972556668591906 -0.020713817243847455
 -0.00027294147338405923 -0.002632675960894626 0.00030626956693629166 0.0041563980382791285 0.9972556668591906 -0.020713817243847455 0.002479929295706648 0.008357854677938896
0.037515631513130004 0.0027080371628710035 0.010093541338875977 0.9969574749755462 -0.024893227396147438 0.00037486049358958357 0.004991082750223852 -0.0003374757063491614 -0.003163593423952546
 0.9969574749755462 -0.024893227396147438 0.0027068868716234123 0.010093673299944095 -0.00033732483147353294 -0.003163585046707488 0.0003825497401295718 0.004990154060406301
 0.00037486049358958357 0.004991082750223852 -0.00033732483147353294 -0.003163585046707488 0.002708115369942399 0.010093032982879935 0.9969574657423831 -0.02489372893659438
 -0.0003374757063491614 -0.003163593423952546 0.0003825497401295718 0.004990154060406301 0.9969574657423831 -0.02489372893659438 0.002706791005602129 0.010093182632917669
0.043768236765320004 0.0029515059787629822 0.01184739780954787 0.9966370570789257 -0.02908733270944545 0.0004576462317333295 0.00582584856965127 -0.00040961285156253783 -0.0036955676731109627
 0.9966370570789257 -0.02908733270944545 0.0029499413427662422 0.011847562196028014 -0.0004094083919084201 -0.0036955603112114634 0.00046811251667081287 0.005824606023974371
 0.0004576462317333295 0.00582584856965127 -0.0004094083919084201 -0.0036955603112114634 0.0029516127804978566 0.011846804839376853 0.9966370448225543 -0.02908791789259449
 -0.00040961285156253783 -0.0036955676731109627 0.00046811251667081287 0.005824606023974371 0.9966370448225543 -0.02908791789259449 0.0029498112590319223 0.011846991259163673
0.050020842017509996 0.0032115286159513532 0.013619247537401928 0.9962941146574308 -0.03329579974035379 0.0005493780805932065 0.006661263007809449 -0.0004894491393934074 -0.004228465095832778
 0.9962941146574308 -0.03329579974035379 0.0032094861900136824 0.013619447667418093 -0.0004891831666398169 -0.004228459674710251 0.000563050613267317 0.006659646676377334
 0.0005493780805932065 0.006661263007809449 -0.0004891831666398169 -0.004228459674710251 0.003211668477565944 0.013618569947061347 0.9962940989434327 -0.03329646866057458
 -0.0004894491393934074 -0.004228465095832778 0.000563050613267317 0.006659646676377334 0.9962940989434327 -0.03329646866057458 0.003209316695070828 0.013618797077895234
0.055454545454549996 0.0034511915310270905 0.015173326020516888 0.9959775568966893 -0.03696475518113646 0.000636431420540749 0.0073877054779327685 -0.0005651552111887438 -0.004692216250775564
 0.9959775568966893 -0.03696475518113646 0.0034486823805266373 0.01517356000311276 -0.0005648293929316878 -0.004692213336885144 0.0006532395143504886 0.00738571132490727
 0.000636431420540749 0.0073877054779327685 -0.0005648293929316878 -0.004692213336885144 0.0034513637563488354 0.015172574885444679 0.9959775378203437 -0.03696549696194665
 -0.0005651552111887438 -0.004692216250775564 0.0006532395143504886 0.00738571132490727 0.9959775378203437 -0.03696549696194665 0.003448474423269796 0.015172840759070707
0.056273447269699996 0.003488428998385328 0.015408673124147244 0.9959283415896572 -0.03751863510039491 0.00065014643949331 0.007497216739835202 -0.0005770788514561323 -0.004762153618654079
 0.9959283415896572 -0.03751863510039491 0.003485845355503169 0.015408912438971713 -0.0005767435016026637 -0.004762151152674093 0.0006674552841721308 0.007495161128326349
 0.00065014643949331 0.007497216739835202 -0.0005767435016026637 -0.004762151152674093 0.0034886063947605537 0.01540791090369553 0.9959283219776871 -0.0375193878708405
 -0.0005770788514561323 -0.004762153618654079 0.0006674552841721308 0.007495161128326349 0.9959283219776871 -0.0375193878708405 0.003485631262545516 0.01540818289657624
0.06252605252188 0.0037825287282698757 0.01721529911146701 0.9955394313943003 -0.04175579175955281 0.0007600401023548809 0.008333594423182102 -0.0006725942950297724 -0.00529650116834938
 0.9955394313943003 -0.04175579175955281 0.0037793404433926437 0.017215581175335046 -0.000672181766819481 -0.005296502760756627 0.0007814161605288467 0.008331028407824424
 0.0007600401023548809 0.008333594423182102 -0.000672181766819481 -0.005296502760756627 0.003782748144736211 0.017214452242605708 0.9955394074375505 -0.041756628516175794
 -0.0006725942950297724 -0.00529650116834938 0.0007814161605288467 0.008331028407824424 0.9955394074375505 -0.041756628516175794 0.003779076574180391 0.017214773459262925
0.06877865777407 0.00409414726673043 0.01903877746165187 0.9951270776729544 -0.046007183500743815 0.0008791461334149193 0.009170275632710573 -0.0007760857560731317 -0.005831374756660467
 0.9951270776729544 -0.046007183500743815 0.004090290901525659 0.01903910596200436 -0.0007755883101195437 -0.005831381599516998 0.0009050211119384664 0.009167122395243699
 0.0008791461334149193 0.009170275632710573 -0.0007755883101195437 -0.005831381599516998 0.004094413200050314 0.019037845918694757 0.995127048917692 -0.046008104400753466
 -0.0007760857560731317 -0.005831374756660467 0.0009050211119384664 0.009167122395243699 0.995127048917692 -0.046008104400753466 0.004089972086793902 0.019038220933120985
0.07503126302626001 0.004423602014661141 0.020878778364375593 0.9946909744573179 -0.05027269405275585 0.0010075497533343217 0.0100071354526263 -0.0008876414385468051 -0.00636663991284544
 0.9946909744573179 -0.05027269405275585 0.004419014102206644 0.02087915711261161 -0.0008870513966858003 -0.006366653286953655 0.0010383561220500392 0.01000331241554208
 0.0010075497533343217 0.0100071354526263 -0.0008870513966858003 -0.006366653286953655 0.004423918973400582 0.020877762115787436 0.9946909404419783 -0.05027369927261057
 -0.0008876414385468051 -0.00636663991284544 0.0010383561220500392 0.01000331241554208 0.9946909404419783 -0.05027369927261057 0.0044186351826297435 0.020878195716247896
0.08128386827845 0.004771208329053431 0.022734984111043348 0.9942308164960538 -0.05455218316110006 0.0011453342315849943 0.01084404487870786 -0.0010073473946374853 -0.006902160310887711
 0.9942308164960538 -0.05455218316110006 0.00476582535884468 0.022735417043743607 -0.0010066571395909718 -0.006902181585705534 0.0011815051727753765 0.010839463640961961
 0.0011453342315849943 0.01084404487870786 -0.0010066571395909718 -0.006902181585705534 0.004771580834377921 0.02273388311660371 0.9942307767500411 -0.05455327289878301
 -0.0010073473946374853 -0.006902160310887711 0.0011815051727753765 0.010839463640961961 0.9942307767500411 -0.05455327289878301 0.004765381185985103 0.0227343803081761
0.08753647353064001 0.005137279497176361 0.02460708486568044 0.9937462995019886 -0.05884549076802769 0.001292580782136131 0.01168087110445476 -0.0011352874495840857 -0.007437797517932411
 0.9937462995019886 -0.05884549076802769 0.005131037899863006 0.024607576046329457 -0.0011344894247655231 -0.007437828151475402 0.0013345501332602424 0.011675437377815998
 0.001292580782136131 0.01168087110445476 -0.0011344894247655231 -0.007437828151475402 0.005137712083321486 0.02460589907819339 0.9937462535453998 -0.05884666524067113
 -0.0011352874495840857 -0.007437797517932411 0.0013345501332602424 0.011675437377815998 0.9937462535453998 -0.05884666524067113 0.005130523337479099 0.024606465085776345
0.09378907878283 0.005522126681851031 0.026494775645370394 0.9932371203755678 -0.06315243998888034 0.0014493684623817246 0.012517477729483117 -0.001271543121371984 -0.007973410825868853
 0.9932371203755678 -0.06315243998888034 0.005514962814004189 0.026495329266656886 -0.001270629830889591 -0.007973452364600984 0.0014975706532089547 0.012511091275640457
 0.0014493684623817246 0.012517477729483117 -0.001270629830889591 -0.007973452364600984 0.005522623896862645 0.026493505008050058 0.9932370677181859 -0.06315369943479512
 -0.001271543121371984 -0.007973410825868853 0.0014975706532089547 0.012511091275640457 0.9932370677181859 -0.06315369943479512 0.005514372739178195 0.02649414527994322
0.100041684035 0.005926058845452782 0.028397754103448004 0.9927029774101563 -0.0674728392921771 0.0016157740734618876 0.013353724919939023 -0.0014161935375087372 -0.008508857136417981
 0.9927029774101563 -0.0674728392921771 0.005917908974741069 0.0283983744899583 -0.0014151575462991253 -0.008508911215128097 0.0016706440584072484 0.013346279488481555
 0.0016157740734618876 0.013353724919939023 -0.0014151575462991253 -0.008508911215128097 0.005926625251795494 0.028396398551365262 0.9927029175507808 -0.06747418396867295
 -0.0014161935375087372 -0.008508857136417981 0.0016706440584072484 0.013346279488481555 0.9927029175507808 -0.06747418396867295 0.005917238279004495 0.028397118763281427
0.1059090909091 0.006322737127520788 0.030197133063581887 0.9921787691868882 -0.07153912645745307 0.0017807418392522143 0.014137999852806785 -0.001559635852522602 -0.009011035184877154
 0.9921787691868882 -0.07153912645745307 0.006313603940829038 0.030197820155842752 -0.0015584780119426117 -0.00901110259641855 0.0018422648321983726 0.014129458640390495
 0.0017807418392522143 0.014137999852806785 -0.0015584780119426117 -0.00901110259641855 0.006323372625514851 0.030195697760508875 0.9921787021029763 -0.07154055136527553
 -0.001559635852522602 -0.009011035184877154 0.0018422648321983726 0.014129458640390495 0.9921787021029763 -0.07154055136527553 0.006312852959001595 0.03019649835635231
0.1062942892872 0.006349382657886049 0.030315718872389583 0.9921435704840342 -0.07180648412640994 0.0017918720614105066 0.01418946954228056 -0.0015693153497579229 -0.00904399087854051
 0.9921435704840342 -0.07180648412640994 0.00634018294733557 0.030316410484050933 -0.0015681492837843654 -0.00904405922021597 0.0018538452476313078 0.014180852809599334
 0.0017918720614105066 0.01418946954228056 -0.0015681492837843654 -0.00904405922021597 0.006350022833152032 0.030314278331460925 0.9921435029098781 -0.07180791431006163
 -0.0015693153497579229 -0.00904399087854051 0.0018538452476313078 0.014180852809599334 0.9921435029098781 -0.07180791431006163 0.006339426538161193 0.03031508439122921
0.11254689453939999 0.006792402393982742 0.032248368293874854 0.9915586012462437 -0.07615315816644677 0.001977734419919208 0.015024565267200867 -0.001730982646197746 -0.009578663961480102
 0.9915586012462437 -0.07615315816644677 0.0067820888866631296 0.03224913572979941 -0.0017296791927622211 -0.009578748377149017 0.002047246591584755 0.015014658776487838
 0.001977734419919208 0.015024565267200867 -0.0017296791927622211 -0.009578748377149017 0.006793120931012264 0.03224684267807961 0.9915585254314853 -0.07615467415511143
 -0.001730982646197746 -0.009578663961480102 0.002047246591584755 0.015014658776487838 0.9915585254314853 -0.07615467415511143 0.006781241688376691 0.03224774073082948
0.11879949979160001 0.007255419819618852 0.03419539943455293 0.9909477732933526 -0.08051263428131923 0.0021734305930523282 0.015858862663836612 -0.00190126686250842 -0.01011272574348595
 0.9909477732933526 -0.08051263428131923 0.007243928423297285 0.03419624743754396 -0.0018998187706089017 -0.010112828132059123 0.0022509178322492112 0.01584754176619349
 0.0021734305930523282 0.015858862663836612 -0.0018998187706089017 -0.010112828132059123 0.007256221327627639 0.034193788647369494 0.9909476886987906 -0.08051423639180907
 -0.00190126686250842 -0.01011272574348595 0.0022509178322492112 0.01584754176619349 0.9909476886987906 -0.08051423639180907 0.007242985378707415 0.034194785081310616
0.1250521050438 0.007738734072198741 0.03615650730966732 0.9903107923438285 -0.0848846753012329 0.0023790273788606296 0.016692209281818516 -0.0020802366918132647 -0.010646023018776676
 0.9903107923438285 -0.0848846753012329 0.007726000543627425 0.03615744077128637 -0.0020786367726015977 -0.010646145366879193 0.0024649259833053987 0.01667934307848582
 0.0023790273788606296 0.016692209281818516 -0.0020786367726015977 -0.010646145366879193 0.007739623176910117 0.036154811243632005 0.9903106984161182 -0.08488636386892978
 -0.0020802366918132647 -0.010646023018776676 0.0024649259833053987 0.01667934307848582 0.9903106984161182 -0.08488636386892978 0.007724956615232622 0.0361559126964002
0.131304710296 0.008242641534192742 0.03813138427075021 0.9896473664085101 -0.08926903462789856 0.002594588833290222 0.01752444972935164 -0.0022679579939410273 -0.011178400014520331
 0.9896473664085101 -0.08926903462789856 0.008228601463327682 0.03813240823705348 -0.002266199121138235 -0.01117854439630978 0.0026893352310495694 0.017509901015376684
 0.002594588833290222 0.01752444972935164 -0.002266199121138235 -0.01117854439630978 0.008243622878410786 0.038129602804487524 0.989647262578882 -0.08927081000877841
 -0.0022679579939410273 -0.011178400014520331 0.0026893352310495694 0.017509901015376684 0.989647262578882 -0.08927081000877841 0.008227451634844821 0.03813081617015315
0.1375573155481 0.008653262837407407 0.03986274352309471 0.9890714288534992 -0.09340834366645095 0.0027927955888972316 0.01832988589166769 -0.0024370094357162803 -0.011684257702299847
 0.9890714288534992 -0.09340834366645095 0.00863784592398842 0.03986383959774237 -0.002435080977771239 -0.011684424330483932 0.0028966071911671848 0.018313673178562667
 0.0027927955888972316 0.01832988589166769 -0.002435080977771239 -0.011684424330483932 0.008654340289128884 0.03986087651784749 0.9890713146611632 -0.09341020606645727
 -0.0024370094357162803 -0.011684257702299847 0.0028966071911671848 0.018313673178562667 0.9890713146611632 -0.09341020606645727 0.008636585766867697 0.039862185058734005
0.1438099208003 0.009078388005731672 0.04158477336820721 0.9884751540568786 -0.09753694174773704 0.002998982716128754 0.01913199107327189 -0.0026128131927843305 -0.01218698750196265
 0.9884751540568786 -0.09753694174773704 0.009061528707053743 0.04158594522488482 -0.002610707482478324 -0.01218717842269429 0.0031122565780330913 0.01911398862444123
 0.002998982716128754 0.01913199107327189 -0.002610707482478324 -0.01218717842269429 0.009079566093529596 0.041582820719007395 0.9884750289336806 -0.0975388915146857
 -0.0026128131927843305 -0.01218698750196265 0.0031122565780330913 0.01911398862444123 0.9884750289336806 -0.0975388915146857 0.009060153339891124 0.04158422999328626
0.1500625260525 0.009517864825904755 0.043297323237167756 0.9878586985690109 -0.10165471961576909 0.0032130766364209056 0.019930681571101352 -0.0027952963072285166 -0.012686507718309635
 0.9878586985690109 -0.10165471961576909 0.009499497405367131 0.04329857479445944 -0.0027930056952910768 -0.012686725059948422 0.003336207407288479 0.019910759051292838
 0.0032130766364209056 0.019930681571101352 -0.0027930056952910768 -0.012686725059948422 0.009519148086061179 0.04329528483444701 0.9878585619337692 -0.10165675710946043
 -0.0027952963072285166 -0.012686507718309635 0.003336207407288479 0.019910759051292838 0.9878585619337692 -0.10165675710946043 0.009498001973528337 0.043296800721971763
0.15631513130469998 0.009971539971793083 0.0450002470721512 0.9872222197738608 -0.10576156853992373 0.0034350028853850044 0.020725875167877623 -0.0029843849027302418 -0.013182738414146385
 0.9872222197738608 -0.10576156853992373 0.009951598493224302 0.045001582501739155 -0.0029819017582041057 -0.013182984386872432 0.0035683827716266017 0.02070389769127766
