! Created with skrf 1.8.0 (http://scikit-rf.org).
# GHz S RI R 50.0 
!freq ReS11 ImS11 ReS12 ImS12 ReS13 ImS13
! ReS14 ImS14
! ReS21 ImS21 ReS22 ImS22 ReS23 ImS23
! ReS24 ImS24
! ReS31 ImS31 ReS32 ImS32 ReS33 ImS33
! ReS34 ImS34
! ReS41 ImS41 ReS42 ImS42 ReS43 ImS43
! ReS44 ImS44
!
0.0 0.001395353535882 0.0 0.9986046464641 0.0 5.334561349581e-05 0.0 -5.334561395093e-05 6.5329535373556815e-21
 0.9986046464641 0.0 0.001395353535884 0.0 -5.334561395089e-05 6.5329535373507824e-21 5.334561349562e-05 0.0
 5.334561349581e-05 0.0 -5.334561395089e-05 6.5329535373507824e-21 0.001395353532779 0.0 0.998604646461 0.0
 -5.334561395093e-05 6.5329535373556815e-21 5.334561349562e-05 0.0 0.998604646461 0.0 0.001395353532782 0.0
0.005 0.0015008474591882207 0.001146096429508931 0.9984712718197095 -0.002923089217801886 7.382541873294902e-05 0.0005622460089457765 -7.193026275584922e-05 -0.0003574322424387971
 0.9984712718197095 -0.002923089217801886 0.0015008453026453118 0.0011460976642292881 -7.192772673119324e-05 -0.0003574302781187836 7.384167720533518e-05 0.0005622397398278308
 7.382541873294902e-05 0.0005622460089457765 -7.192772673119324e-05 -0.0003574302781187836 0.0015008485133436395 0.001146028522351699 0.9984712714774827 -0.0029231562783396388
 -7.193026275584922e-05 -0.0003574322424387971 7.384167720533518e-05 0.0005622397398278308 0.9984712714774827 -0.0029231562783396388 0.0015008435658235345 0.0011460314509105026
0.006252605252188 0.001528399227638323 0.001437125384007489 0.9984362418188402 -0.0036545928341494166 7.959806155719923e-05 0.0007030998128674727 -7.711923580275543e-05 -0.00044725311241062697
 0.9984362418188402 -0.0036545928341494166 0.001528395857171534 0.0014371269890153223 -7.711528963996395e-05 -0.0004472506896314888 7.962346315190628e-05 0.0007030916895480913
 7.959806155719923e-05 0.0007030998128674727 -7.711528963996395e-05 -0.0004472506896314888 0.0015284009509343684 0.001437040496642656 0.9984362413589071 -0.0036546766598344774
 -7.711923580275543e-05 -0.00044725311241062697 7.962346315190628e-05 0.0007030916895480913 0.9984362413589071 -0.0036546766598344774 0.0015283932167844746 0.001437044226621405
0.01250521050438 0.0016727616272490405 0.0029043698925072465 0.9982515965987322 -0.007310080041643825 0.00011229000796754477 0.0014066835063046002 -0.00010624843702577401 -0.0008967219415739359
 0.9982515965987322 -0.007310080041643825 0.0016727481748513631 0.0029043737186374573 -0.00010623288629580345 -0.0008967174510931004 0.00011239127791382355 0.001406664173817207
 0.00011229000796754477 0.0014066835063046002 -0.00010623288629580345 -0.0008967174510931004 0.0016727690584593768 0.002904200335137734 0.9982515953063283 -0.007310247433078005
 -0.00010624843702577401 -0.0008967219415739359 0.00011239127791382355 0.001406664173817207 0.9982515953063283 -0.007310247433078005 0.0016727381716809121 0.002904208510983329
0.01875781575657 0.001828731673721949 0.00439257788668925 0.9980504984636247 -0.010975378646364352 0.0001514946150021061 0.0021112086057337043 -0.00014081710032173337 -0.0013478093311643157
 0.9980504984636247 -0.010975378646364352 0.0018287014561556632 0.0043925845691499725 -0.00014078242213425514 -0.0013478031905918366 0.0001517220461329312 0.0021111744017928706
 0.0001514946150021061 0.0021112086057337043 -0.00014078242213425514 -0.0013478031905918366 0.0018287488026039781 0.004392323674676093 0.9980504959786212 -0.01097562951790687
 -0.00014081710032173337 -0.0013478093311643157 0.0001517220461329312 0.0021111744017928706 0.9980504959786212 -0.01097562951790687 0.0018286793891354562 0.004392337101911783
0.02501042100875 0.001996593028485855 0.005899701785165472 0.997832727352022 -0.014652289731262426 0.00019728576517853718 0.00281671346993783 -0.00018090694955931642 -0.0018003331161347003
 0.997832727352022 -0.014652289731262426 0.0019965393833731256 0.005899711977843832 -0.00018084571049221813 -0.00180032581328428 0.00019768963394612985 0.0028166601829317565
 0.00019728576517853718 0.00281671346993783 -0.00018084571049221813 -0.00180032581328428 0.0019966238428896304 0.005899362889333114 0.9978327233134816 -0.014652624016197689
 -0.00018090694955931642 -0.0018003331161347003 0.00019768963394612985 0.0028166601829317565 0.9978327233134816 -0.014652624016197689 0.0019965005545516017 0.005899382458808204
0.03126302626094 0.002176617541675712 0.0074247007694131445 0.9975980511281483 -0.01834159969919957 0.00024973780161031647 0.003523175219055045 -0.00022659774541394255 -0.0022541682162863274
 0.9975980511281483 -0.01834159969919957 0.0021765338244503127 0.0074247151447240055 -0.00022650258601010902 -0.0022541603101537354 0.00025036841672585293 0.003523098086544577
 0.00024973780161031647 0.003523175219055045 -0.00022650258601010902 -0.0022541603101537354 0.0021766660285231125 0.007424277113543221 0.9975980451735812 -0.018342017352349103
 -0.00022659774541394255 -0.0022541682162863274 0.00025036841672585293 0.003523098086544577 0.9975980451735812 -0.018342017352349103 0.002176473536342256 0.007424303801360117
0.037515631513130004 0.0023690713555200105 0.008966905990834533 0.9973462318383517 -0.02204371500891413 0.0003089248968920851 0.004230546907906855 -0.00027796782435397696 -0.0027092094588017043
 0.9973462318383517 -0.02204371500891413 0.0023689509377323426 0.008966925239523565 -0.0002778314512323453 -0.0027092015798842154 0.00030983262087990897 0.004230440612170516
 0.0003089248968920851 0.004230546907906855 -0.0002778314512323453 -0.0027092015798842154 0.0023691415047856247 0.008966397454701335 0.9973462236063545 -0.02204421600339148
 -0.00027796782435397696 -0.0027092094588017043 0.00030983262087990897 0.004230440612170516 0.9973462236063545 -0.02204421600339148 0.0023688644950196707 0.008966432322628498
0.043768236765320004 0.002574217279329661 0.010525827361411354 0.9970770282383281 -0.025758855319781143 0.00037492075393984534 0.004938768837077576 -0.0003350942988734774 -0.0031653602601831306
 0.9970770282383281 -0.025758855319781143 0.002574053546991021 0.010525852192339754 -0.00033490947989001964 -0.0031653531105939325 0.00037615601356611795 0.0049386274997810994
 0.00037492075393984534 0.004938768837077576 -0.00033490947989001964 -0.0031653531105939325 0.0025743130828034563 0.010525233794984528 0.9970770173669109 -0.02575943963268842
 -0.0003350942988734774 -0.0031653602601831306 0.00037615601356611795 0.0049386274997810994 0.9970770173669109 -0.02575943963268842 0.0025739362551056772 0.010525277990960182
0.050020842017509996 0.0027923158885073624 0.012101073721077002 0.9967901970474164 -0.02948713325803322 0.0004477984308954672 0.005647773209368579 -0.00039805313056378113 -0.0036225279631185775
 0.9967901970474164 -0.02948713325803322 0.0027921022408413125 0.012101104860951735 -0.0003978126918021722 -0.0036225223166232437 0.0004494117210577264 0.005647590385876723
 0.0004477984308954672 0.005647773209368579 -0.0003978126918021722 -0.0036225223166232437 0.002792441341000932 0.012100394943996865 0.9967901831743946 -0.029487800870449617
 -0.00039805313056378113 -0.0036225279631185775 0.0004494117210577264 0.005647590385876723 0.9967901831743946 -0.029487800870449617 0.0027919494060861475 0.012100449702865747
0.055454545454549996 0.002992570479126866 0.013483009969059682 0.9965264263606641 -0.03273782511049634 0.0005167763819054353 0.006264497891253282 -0.00045756099786240884 -0.004020575682946146
 0.9965264263606641 -0.03273782511049634 0.0029923081021556814 0.013483047195504225 -0.00045726644134304735 -0.004020572026742078 0.0005187592534531924 0.006264273336974252
 0.0005167763819054353 0.006264497891253282 -0.00045726644134304735 -0.004020572026742078 0.0029927249435365744 0.01348225696964322 0.9965264095845959 -0.03273856510200588
 -0.00045756099786240884 -0.004020575682946146 0.0005187592534531924 0.006264273336974252 0.9965264095845959 -0.03273856510200588 0.0029921205679131874 0.013482321978837159
0.056273447269699996 0.0030236261024669856 0.013692313653687749 0.9964854936834059 -0.03322859353415196 0.0005276302141178358 0.006357486424452854 -0.0004669191525033985 -0.004080621536528989
 0.9964854936834059 -0.03322859353415196 0.0030233559506653383 0.013692351846870628 -0.00046661597615290425 -0.004080618238566024 0.000529672098398821 0.006357255098009472
 0.0005276302141178358 0.006357486424452854 -0.00046661597615290425 -0.004080618238566024 0.003023785201055642 0.013691549454255894 0.9964854764460769 -0.03322934443200149
 -0.0004669191525033985 -0.004080621536528989 0.000529672098398821 0.006357255098009472 0.9964854764460769 -0.03322934443200149 0.0030231628795514584 0.01369161609843296
0.06252605252188 0.0032684054982147818 0.015299253940779543 0.9961626727371723 -0.03698323442402317 0.0006144875202343845 0.007067830329670183 -0.0005417660608681878 -0.004539550321448548
 0.9961626727371723 -0.03698323442402317 0.003268072264454638 0.01529929994908178 -0.0005413930837670856 -0.004539550289121395 0.000617008628878161 0.007067542905528921
 0.0006144875202343845 0.007067830329670183 -0.0005413930837670856 -0.004539550289121395 0.0032686022431886123 0.015298404070565466 0.9961626517721335 -0.03698406860301599
 -0.0005417660608681878 -0.004539550321448548 0.000617008628878161 0.007067542905528921 0.9961626517721335 -0.03698406860301599 0.0032678342646455137 0.015298484010788302
0.06877865777407 0.003526910486716779 0.016921626707640317 0.9958214883116844 -0.04075102055939734 0.0007084408111303853 0.007778722970849294 -0.0006226663918317679 -0.00499922327913337
 0.9958214883116844 -0.04075102055939734 0.0035265076031639245 0.016921681310177593 -0.0006222166044613659 -0.004999227501198612 0.0007114918373492593 0.007778371270401107
 0.0007084408111303853 0.007778722970849294 -0.0006222166044613659 -0.004999227501198612 0.0035271488810616654 0.016920690890318193 0.9958214632549366 -0.04075193801591209
 -0.0006226663918317679 -0.00499922327913337 0.0007114918373492593 0.007778371270401107 0.9958214632549366 -0.04075193801591209 0.003526219982998568 0.01692078562647623
0.07503126302626001 0.003799396403495273 0.01855918128179091 0.9954616942783548 -0.044531891008629275 0.0008095595178539174 0.008490079067353004 -0.0007096914880265304 -0.00545954851741815
 0.9954616942783548 -0.044531891008629275 0.0037989173111723437 0.0185592452748 -0.0007091579337956493 -0.005459558054250531 0.0008131912129043326 0.00848965432232767
 0.0008095595178539174 0.008490079067353004 -0.0007091579337956493 -0.005459558054250531 0.0037996804531238134 0.018558159211292037 0.9954616647651148 -0.044532891741084754
 -0.0007096914880265304 -0.00545954851741815 0.0008131912129043326 0.00848965432232767 0.9954616647651148 -0.044532891741084754 0.0037985753802385735 0.018558270333257243
0.08128386827845 0.004086117548910534 0.020211678775348036 0.9950830444871369 -0.04832576463582645 0.0009179119702193805 0.009201810325472671 -0.0008029114579918836 -0.005920432981390221
 0.9950830444871369 -0.04832576463582645 0.004085555696718282 0.020211752972099116 -0.0008022872327687361 -0.005920448964953893 0.0009221751373166504 0.009201303172169191
 0.0009179119702193805 0.009201810325472671 -0.0008022872327687361 -0.005920448964953893 0.0040864512621636324 0.020210570109805013 0.9950830101510107 -0.04832684865047533
 -0.0008029114579918836 -0.005920432981390221 0.0009221751373166504 0.009201303172169191 0.9950830101510107 -0.04832684865047533 0.004085154765512856 0.02021069929828555
0.08753647353064001 0.004387327191735766 0.021878888327689257 0.9946852929405705 -0.052132543802881154 0.0010335653281261967 0.009913825663231084 -0.0009023951323864861 -0.006381782235383345
 0.9946852929405705 -0.052132543802881154 0.004386676035325109 0.021878973558423182 -0.0009016733841741967 -0.006381805869191901 0.0010385108157694785 0.009913226136885242
 0.0010335653281261967 0.009913825663231084 -0.0009016733841741967 -0.006381805869191901 0.004387714579889594 0.021877692694601162 0.9946852534147183 -0.052133711108185286
 -0.0009023951323864861 -0.006381782235383345 0.0010385108157694785 0.009913226136885242 0.9946852534147183 -0.052133711108185286 0.004386211416443583 0.021877841722083034
0.09378907878283 0.0047032775511329575 0.023560584429136985 0.9942681939511243 -0.05595211699347828 0.0011565855168231417 0.010626031367077462 -0.001008210015137626 -0.006843500316030633
 0.9942681939511243 -0.05595211699347828 0.004702530552154168 0.023560681541005164 -0.0010073839439420677 -0.0068435328750919965 0.0011622642113803552 0.01062532889626845
 0.0011565855168231417 0.010626031367077462 -0.0010073839439420677 -0.0068435328750919965 0.00470372262783528 0.023559301421974283 0.9942681488669434 -0.05595336760315895
 -0.001008210015137626 -0.006843500316030633 0.0011622642113803552 0.01062532889626845 0.9942681488669434 -0.05595336760315895 0.004701997559851422 0.023559472153663507
0.100041684035 0.005034219760280094 0.02525654495210387 0.9938315022816809 -0.0597843607329857 0.0012870371621973675 0.011338331212248226 -0.001120422233431325 -0.0073054896245610245
 0.9938315022816809 -0.0597843607329857 0.0050333703852727075 0.025256654809126356 -0.0011194850912071197 -0.007305532455321103 0.0012934999798378034 0.01133751461349918
 0.0012870371621973675 0.011338331212248226 -0.0011194850912071197 -0.007305532455321103 0.00503472654159731 0.025255174133567867 0.9938314512692391 -0.05978569466233004
 -0.001120422233431325 -0.0073054896245610245 0.0012934999798378034 0.01133751461349918 0.9938314512692391 -0.05978569466233004 0.005032764336052655 0.025255368528361917
0.1059090909091 0.005358631557316495 0.026860801163569033 0.9934036761955582 -0.06339191951642803 0.0014162673957095885 0.012006746850012613 -0.0012315974560818828 -0.007739175827231962
 0.9934036761955582 -0.06339191951642803 0.005357680174492333 0.02686092378148681 -0.0012305499945040582 -0.007739229585052177 0.001423512356471569 0.012005812433110807
 0.0014162673957095885 0.012006746850012613 -0.0012305499945040582 -0.007739229585052177 0.0053591998964772035 0.026859347516013335 0.9934036192821991 -0.06339333164964649
 -0.0012315974560818828 -0.007739175827231962 0.001423512356471569 0.012005812433110807 0.9934036192821991 -0.06339333164964649 0.005357001312043073 0.026859565982084967
0.1062942892872 0.005380403817794826 0.02696654967108065 0.9933749732763993 -0.0636291410228301 0.0014249835277473203 0.012050626555319245 -0.001239096484857474 -0.007767650850051807
 0.9933749732763993 -0.0636291410228301 0.0053794455370445365 0.026966673154233026 -0.0012380415755277685 -0.007767705370332013 0.0014322814059582304 0.012049684027735087
 0.0014249835277473203 0.012050626555319245 -0.0012380415755277685 -0.007767705370332013 0.005380976321878284 0.026965090571006788 0.9933749159640904 -0.0636305582904402
 -0.001239096484857474 -0.007767650850051807 0.0014322814059582304 0.012049684027735087 0.9933749159640904 -0.0636305582904402 0.005378761750084909 0.026965310682518298
0.11254689453939999 0.0057420785286878065 0.028690379134755938 0.9928983629846925 -0.06748631442651627 0.0015704864513883382 0.012762816408463641 -0.0013642959837462713 -0.008229882914116408
 0.9928983629846925 -0.06748631442651627 0.005741004815343042 0.02869051714202151 -0.0013631166633328968 -0.008229950613033967 0.0015786703400558467 0.012761735528529643
 0.0015704864513883382 0.012762816408463641 -0.0013631166633328968 -0.008229950613033967 0.005742720776068041 0.02868883124756072 0.9928982989993373 -0.06748781505639562
 -0.0013642959837462713 -0.008229882914116408 0.0015786703400558467 0.012761735528529643 0.9928982989993373 -0.06748781505639562 0.005740238613173381 0.02868907922520261
0.11879949979160001 0.006119491439577013 0.030427813775543527 0.9924014282809048 -0.07135572892181757 0.0017236062833406592 0.013474797501097298 -0.0014960824055574274 -0.008692082931392736
 0.9924014282809048 -0.07135572892181757 0.006118295768511032 0.030427967222000668 -0.0014947720823576555 -0.008692165369276304 0.0017327271353807807 0.013473565217693632
 0.0017236062833406592 0.013474797501097298 -0.0014947720823576555 -0.008692165369276304 0.006120207452359129 0.030426176563861394 0.9924013572473475 -0.07135731293936522
 -0.0014960824055574274 -0.008692082931392736 0.0017327271353807807 0.013473565217693632 0.9924013572473475 -0.07135731293936522 0.006117442476879452 0.030426454653896796
0.1250521050438 0.006512888765521753 0.03217863321742864 0.9918839269787966 -0.07523722455858964 0.0018844018238121836 0.014186464330986318 -0.0016345158306118996 -0.009154146184000875
 0.9918839269787966 -0.07523722455858964 0.006511564612405295 0.03217880303544199 -0.0016330679654141453 -0.009154244992297863 0.0018945105854975084 0.014185066960457073
 0.0018844018238121836 0.014186464330986318 -0.0016330679654141453 -0.009154244992297863 0.006513682567557546 0.032176906108443044 0.991883848519831 -0.0752388919938542
 -0.0016345158306118996 -0.009154146184000875 0.0018945105854975084 0.014185066960457073 0.991883848519831 -0.0752388919938542 0.006510619561212107 0.03217721665520723
0.131304710296 0.006922515313837881 0.0339426157102938 0.9913456179448281 -0.07913063399407602 0.0020529302609272643 0.01489770921127087 -0.0017796546868611674 -0.009615966103394394
 0.9913456179448281 -0.07913063399407602 0.00692105615399383 0.03394280284970072 -0.0017780627932302705 -0.00961608298456673 0.002064077861775616 0.014896132432669431
 0.0020529302609272643 0.01489770921127087 -0.0017780627932302705 -0.00961608298456673 0.006923390930392528 0.033940798096928876 0.9913455316811459 -0.07913238488017037
 -0.0017796546868611674 -0.009615966103394394 0.002064077861775616 0.014896132432669431 0.9913455316811459 -0.07913238488017037 0.006920014677540132 0.033941143543901306
0.1375573155481 0.007250964583252131 0.035490411025874906 0.9908839435027161 -0.08280656661630588 0.002206789566992991 0.015585429919209791 -0.001909090303339817 -0.010054461656356725
 0.9908839435027161 -0.08280656661630588 0.0072493627829018316 0.03549061012116503 -0.0019073447670150026 -0.01005459663161049 0.0022190042943490804 0.015583676794083597
 0.002206789566992991 0.015585429919209791 -0.0019073447670150026 -0.01005459663161049 0.007251925411778264 0.03548850229999038 0.990883849082008 -0.08280840094058929
 -0.001909090303339817 -0.010054461656356725 0.0022190042943490804 0.015583676794083597 0.990883849082008 -0.08280840094058929 0.007248220792070387 0.03548887869259384
0.1438099208003 0.007590859792544004 0.0370307225287308 0.990406258095533 -0.0864738354763118 0.0023668548510015876 0.016270705907750777 -0.0020437056298792194 -0.010490698320489836
 0.990406258095533 -0.0864738354763118 0.00758910864807514 0.037030934049918966 -0.0020417994767396815 -0.01049085305339164 0.00238018351175088 0.01626876338685212
 0.0023668548510015876 0.016270705907750777 -0.0020417994767396815 -0.01049085305339164 0.007591909746427254 0.03702872206308277 0.990406155141453 -0.08647575326476444
 -0.0020437056298792194 -0.010490698320489836 0.00238018351175088 0.01626876338685212 0.990406155141453 -0.08647575326476444 0.007587861586714981 0.03702913140298455
0.1500625260525 0.007942090128950918 0.0385634408188468 0.9899126760502287 -0.0901323688868736 0.0025330753749816994 0.01695347886797307 -0.002183451065999494 -0.010924620102652192
 0.9899126760502287 -0.0901323688868736 0.00794018292745121 0.038563665264141726 -0.0021813773348709304 -0.010924796323399938 0.00254756449621934 0.01695133343204125
 0.0025330753749816994 0.01695347886797307 -0.0021813773348709304 -0.010924796323399938 0.007943233115475876 0.03856134795904857 0.9899125641847459 -0.09013437016779031
 -0.002183451065999494 -0.010924620102652192 0.00254756449621934 0.01695133343204125 0.9899125641847459 -0.09013437016779031 0.007938826250141721 0.03856179233797374
0.15631513130469998 0.008304544100543768 0.04008845988654402 0.9894033121568091 -0.09378209503533098 0.0027053998593211032 0.017633691398716726 -0.002328276454610099 -0.011356172124765973
