! Created with skrf 1.8.0 (http://scikit-rf.org).
# GHz S RI R 50.0 
!freq ReS11 ImS11 ReS12 ImS12 ReS13 ImS13
! ReS14 ImS14
! ReS21 ImS21 ReS22 ImS22 ReS23 ImS23
! ReS24 ImS24
! ReS31 ImS31 ReS32 ImS32 ReS33 ImS33
! ReS34 ImS34
! ReS41 ImS41 ReS42 ImS42 ReS43 ImS43
! ReS44 ImS44
!
0.0 0.001095869210002 0.0 0.99890413079 0.0 4.143004906716e-05 0.0 -4.143004961129e-05 5.0737177644982345e-21
 0.99890413079 0.0 0.001095869210006 0.0 -4.143004961068e-05 5.073717764423531e-21 4.14300490668e-05 0.0
 4.143004906716e-05 0.0 -4.143004961068e-05 5.073717764423531e-21 0.001095869203589 0.0 0.9989041307836 0.0
 -4.143004961129e-05 5.0737177644982345e-21 4.14300490668e-05 0.0 0.9989041307836 0.0 0.001095869203623 0.0
0.005 0.0011780946401098592 0.0008986243106628769 0.9988002501880924 -0.0022967618024120496 5.727980113867422e-05 0.0004472376345464714 -5.5773256665430286e-05 -0.00028249910855596627
 0.9988002501880924 -0.0022967618024120496 0.0011780984806754322 0.0008986221195224451 -5.5773620593904915e-05 -0.00028249942733233664 5.7247441687281384e-05 0.00044724982130707415
 5.727980113867422e-05 0.0004472376345464714 -5.5773620593904915e-05 -0.00028249942733233664 0.00117809456962339 0.0008986916318848718 0.998800250511296 -0.0022966947425906957
 -5.5773256665430286e-05 -0.00028249910855596627 5.7247441687281384e-05 0.00044724982130707415 0.998800250511296 -0.0022966947425906957 0.0011780991950303408 0.0008986889157987252
0.006252605252188 0.001199385390867457 0.0011268471845952742 0.9987732273953683 -0.0028715554218195624 6.165757827017801e-05 0.0005592848510069624 -5.969780960792083e-05 -0.0003535024294614071
 0.9987732273953683 -0.0028715554218195624 0.0011993913940975477 0.0011268444260730025 -5.969837562234381e-05 -0.0003535028235275194 6.160701722138637e-05 0.0005593006717578267
 6.165757827017801e-05 0.0005592848510069624 -5.969837562234381e-05 -0.0003535028235275194 0.0011993851977199646 0.0011269313357326976 0.9987732278179592 -0.002871471600338558
 -5.969780960792083e-05 -0.0003535024294614071 6.160701722138637e-05 0.0005593006717578267 0.9987732278179592 -0.002871471600338558 0.0011993924283512647 0.0011269279130587514
0.01250521050438 0.001309866106372442 0.0022776503684453207 0.99863228974382 -0.005744116173256576 8.596855005006198e-05 0.001119027386529386 -8.129370476237507e-05 -0.0007088769768165746
 0.99863228974382 -0.005744116173256576 0.001309890070252106 0.0022776446628710164 -8.129593182261339e-05 -0.0007088777181148313 8.576686113764842e-05 0.0011190652312633063
 8.596855005006198e-05 0.001119027386529386 -8.129593182261339e-05 -0.0007088777181148313 0.001309864779389762 0.002277818447453923 0.9986322908819596 -0.005743948778710925
 -8.129370476237507e-05 -0.0007088769768165746 8.576686113764842e-05 0.0011190652312633063 0.9986322908819596 -0.005743948778710925 0.0013098936550633095 0.0022778113273111285
0.01875781575657 0.0014274942920119897 0.0034452448440650545 0.9984811846739118 -0.008624727186101945 0.00011440992973207003 0.001679624498499242 -0.0001062714287600732 -0.0010656569523073967
 0.9984811846739118 -0.008624727186101945 0.0014275481235517013 0.0034452360002262643 -0.00010627639039620452 -0.0010656579885757324 0.00011395670719036121 0.0016796914857142263
 0.00011440992973207003 0.001679624498499242 -0.00010627639039620452 -0.0010656579885757324 0.0014274908750391325 0.0034454967881508104 0.9984811868095126 -0.008624476297926195
 -0.0001062714287600732 -0.0010656569523073967 0.00011395670719036121 0.0016796914857142263 0.9984811868095126 -0.008624476297926195 0.0014275557652740148 0.0034454856738359847
0.02501042100875 0.001552450299804591 0.004628055347767261 0.9983197755355813 -0.011514840059406777 0.00014702936689750635 0.0022411309833896987 -0.00013468375044221385 -0.0014237157064128148
 0.9983197755355813 -0.011514840059406777 0.0015525458711968837 0.004628043177449135 -0.0001346925059645881 -0.0014237169787297303 0.00014622406541410328 0.002241235106056102
 0.00014702936689750635 0.0022411309833896987 -0.0001346925059645881 -0.0014237169787297303 0.0015524438359292275 0.0046283911112951675 0.998319778956016 -0.011514505730800272
 -0.00013468375044221385 -0.0014237157064128148 0.00014622406541410328 0.002241235106056102 0.998319778956016 -0.011514505730800272 0.0015525590835564309 0.004628375690794397
0.03126302626094 0.0016849065010929383 0.005825299291611151 0.9981479168559351 -0.014415109804807558 0.00018387517747289807 0.0028035521946651017 -0.00016658239170505237 -0.0017829739490956649
 0.9981479168559351 -0.014415109804807558 0.0016850556564117392 0.005825283611256026 -0.00016659598870004183 -0.0017829753917439175 0.00018261701450972254 0.0028037023254688597
 0.00018387517747289807 0.0028035521946651017 -0.00016659598870004183 -0.0017829753917439175 0.0016848960264283553 0.005825718853408379 0.9981479218480168 -0.014414692055376556
 -0.00016658239170505237 -0.0017829739490956649 0.00018261701450972254 0.0028037023254688597 0.9981479218480168 -0.014414692055376556 0.0016850759550115421 0.005825698800879226
0.037515631513130004 0.0018250316545432408 0.007036487713443393 0.9979654587653375 -0.017325893859980478 0.0002249958927611229 0.00336687444857926 -0.00020201841381070975 -0.0021433693315440518
 0.9979654587653375 -0.017325893859980478 0.0018252462139489215 0.007036468345326789 -0.00020203788942378253 -0.002143370871978893 0.0002231838008958734 0.0033670803496870997
 0.0002249958927611229 0.00336687444857926 -0.00020203788942378253 -0.002143370871978893 0.0018250161979928578 0.007036991045871977 0.9979654656163637 -0.017325392706676015
 -0.00020201841381070975 -0.0021433693315440518 0.0002231838008958734 0.0033670803496870997 0.9979654656163637 -0.017325392706676015 0.0018252751166175525 0.007036966022533857
0.043768236765320004 0.0019729926017976857 0.00826127337774162 0.9977722487538391 -0.020247403946987354 0.00027044006035056574 0.003931074261006645 -0.00024104236539473152 -0.0025048471971512868
 0.9977722487538391 -0.020247403946987354 0.0019732843647563966 0.00826125015091203 -0.00024106874713986564 -0.002504848755996371 0.0002679726607269134 0.00393134659531297
 0.00027044006035056574 0.003931074261006645 -0.00024106874713986564 -0.002504848755996371 0.001972971186512379 0.008261860460165955 0.9977722577529539 -0.020246819390598202
 -0.00024104236539473152 -0.0025048471971512868 0.0002679726607269134 0.00393134659531297 0.9977722577529539 -0.020246819390598202 0.0019733233931678684 0.008261830114991283
0.050020842017509996 0.002128955067757828 0.009499388021857852 0.9975681325315496 -0.023179768783522407 0.0003202561295358418 0.004496122170781558 -0.00028370435018880164 -0.002867356746259542
 0.9975681325315496 -0.023179768783522407 0.0021293358159184474 0.009499360772961525 -0.0002837386564821962 -0.0028673582373300124 0.0003170317164168684 0.0044964725137112355
 0.0003202561295358418 0.004496122170781558 -0.0002837386564821962 -0.0028673582373300124 0.0021289267084343096 0.00950005883391968 0.9975681439678141 -0.023179100815461533
 -0.00028370435018880164 -0.002867356746259542 0.0003170317164168684 0.0044964725137112355 0.9975681439678141 -0.023179100815461533 0.002129386493070222 0.00950002280411486
0.055454545454549996 0.0022711175705416504 0.01058600012472099 0.9973817713626694 -0.025736958425593565 0.0003671358226482872 0.004987828682908404 -0.00032377203398027004 -0.0031831884479433564
 0.9973817713626694 -0.025736958425593565 0.0022715852059065635 0.010585969254338997 -0.0003238140472926413 -0.0031831898048417413 0.00036317068411167893 0.004988256936195264
 0.0003671358226482872 0.004987828682908404 -0.0003238140472926413 -0.0031831898048417413 0.002271082370809107 0.010586743685647274 0.9973817851523296 -0.025736217954381396
 -0.00032377203398027004 -0.0031831884479433564 0.00036317068411167893 0.004988256936195264 0.9973817851523296 -0.025736217954381396 0.0022716472446397233 0.010586702412341959
0.056273447269699996 0.0022930840806154587 0.010750611554617375 0.997352954511584 -0.026123064841174548 0.0003744923790893187 0.005061984591094277 -0.0003300540536215463 -0.0032308491732261054
 0.997352954511584 -0.026123064841174548 0.0022935655805215414 0.010750580128657447 -0.0003300972942103787 -0.003230850503539243 0.00037040891146480155 0.005062425442735766
 0.0003744923790893187 0.005061984591094277 -0.0003300972942103787 -0.003230850503539243 0.0022930477848138496 0.010751366077670826 0.9973529686751549 -0.02612231344200785
 -0.0003300540536215463 -0.0032308491732261054 0.00037040891146480155 0.005062425442735766 0.9973529686751549 -0.02612231344200785 0.002293629431725449 0.01075132398917383
0.06252605252188 0.0024655442153810863 0.01201475510975697 0.9971265581169415 -0.029077333248970143 0.00043319686121257397 0.005628624848676071 -0.00038014075410194544 -0.003595276616230586
 0.9971265581169415 -0.029077333248970143 0.002466138220891065 0.012014719360797085 -0.00038019393031473976 -0.0035952776860273534 0.00042815195835765684 0.005629169646106317
 0.00043319686121257397 0.005628624848676071 -0.00038019393031473976 -0.0035952776860273534 0.002465498983451127 0.012015593323721895 0.9971265752997289 -0.029076498391622158
 -0.00038014075410194544 -0.003595276616230586 0.00042815195835765684 0.005629169646106317 0.9971265752997289 -0.029076498391622158 0.0024662167740558943 0.012015544791543407
0.06877865777407 0.0026464997370101956 0.013291650962733027 0.9968887859882154 -0.03204258983360214 0.0004964173582195412 0.006196003781112748 -0.00043401332113981333 -0.003960591549611428
 0.9968887859882154 -0.03204258983360214 0.0026472179914069265 0.013291610754562635 -0.0004340774261050294 -0.00396059225238494 0.0004903082984809001 0.006196666910806503
 0.0004964173582195412 0.006196003781112748 -0.0004340774261050294 -0.00396059225238494 0.002646444561624735 0.013292572847337447 0.9968888064837325 -0.032041671482121725
 -0.00043401332113981333 -0.003960591549611428 0.0004903082984809001 0.006196666910806503 0.9968888064837325 -0.032041671482121725 0.0026473127765669897 0.01329251747590786
0.07503126302626001 0.002836114685630042 0.014581146116988778 0.9966394801355392 -0.035018831490865904 0.0005642013446619928 0.006764080124278874 -0.0004917202078043337 -0.0043267463867985275
 0.9966394801355392 -0.035018831490865904 0.00283696892413436 0.014581101323746144 -0.0004917962266537247 -0.004326746609316893 0.0005569250664359219 0.006764876934590169
 0.0005642013446619928 0.006764080124278874 -0.0004917962266537247 -0.004326746609316893 0.002836048552007034 0.01458215164954225 0.9966395042392441 -0.035017829602707495
 -0.0004917202078043337 -0.0043267463867985275 0.0005569250664359219 0.006764876934590169 0.9966395042392441 -0.035017829602707495 0.002837081473380052 0.014582089033010866
0.08128386827845 0.0030345529275994983 0.015883098050826917 0.9963784820569659 -0.03800604039701989 0.0006365959535193848 0.007332810765046122 -0.0005533094387523533 -0.004693693218739205
 0.9963784820569659 -0.03800604039701989 0.00303555487952684 0.015883048557527785 -0.0005533983487277071 -0.004693692841072466 0.0006280490578549807 0.007333757578719633
 0.0006365959535193848 0.007332810765046122 -0.0005533983487277071 -0.004693692841072466 0.0030344748126708517 0.015884187205970075 0.9963785100660442 -0.038004954923339544
 -0.0005533094387523533 -0.004693693218739205 0.0006280490578549807 0.007333757578719633 0.9963785100660442 -0.038004954923339544 0.0030356867263659666 0.0158841169283659
0.08753647353064001 0.0032419781820328167 0.017197371764115604 0.9961056328336543 -0.04100418692098746 0.000713647945037973 0.007902150914488685 -0.0006188285948984507 -0.005061383632672577
 0.9961056328336543 -0.04100418692098746 0.003243139573183108 0.01719731746721165 -0.0006189313655005812 -0.0050613825282187115 0.0007037266996993206 0.007903265041179768
 0.000713647945037973 0.007902150914488685 -0.0006189313655005812 -0.0050613825282187115 0.0032418870546940043 0.017198544519067337 0.9961056650476211 -0.041003017801448556
 -0.0006188285948984507 -0.005061383632672577 0.0007037266996993206 0.007903265041179768 0.9961056650476211 -0.041003017801448556 0.003243292252425981 0.017198466154594978
0.09378907878283 0.003458554031392943 0.01852383767813114 0.9958207732112961 -0.04401323168426913 0.0007954036769485605 0.008472054230260765 -0.0006883247963182219 -0.005429768582580254
 0.9958207732112961 -0.04401323168426913 0.003459886586228484 0.01852377848598892 -0.0006884423893812966 -0.005429766618088125 0.0007840040214869402 0.008473353979066069
 0.0007954036769485605 0.008472054230260765 -0.0006884423893812966 -0.005429766618088125 0.0034584488524706447 0.018525094005426866 0.9958208099318244 -0.04401197885436152
 -0.0006883247963182219 -0.005429768582580254 0.0007840040214869402 0.008473353979066069 0.9958208099318244 -0.04401197885436152 0.003460061633961997 0.018525007118529436
0.100041684035 0.0036844439213606453 0.019862370081034867 0.9955237436706577 -0.04703312707621801 0.000881909075804251 0.009042472908480216 -0.0007618446833790842 -0.005798798291063628
 0.9955237436706577 -0.04703312707621801 0.0036859593652205 0.019862305914343143 -0.0007619780531317047 -0.005798795326669098 0.0008689266275188035 0.009043977600422403
 0.000881909075804251 0.009042472908480216 -0.0007619780531317047 -0.005798795326669098 0.003684323643369703 0.019863709952665946 0.9955237852025333 -0.04703179046318549
 -0.0007618446833790842 -0.005798798291063628 0.0008689266275188035 0.009043977600422403 0.9955237852025333 -0.04703179046318549 0.0036861583186567847 0.01986361409812859
0.1059090909091 0.003905034110169182 0.021129305509231942 0.9952338022706767 -0.049876798472353774 0.0009674454951106098 0.009578175245392204 -0.0008345359054047374 -0.006145634888840837
 0.9952338022706767 -0.049876798472353774 0.003906731842895143 0.021129236613678003 -0.0008346849410688092 -0.006145630853064986 0.0009528825476493551 0.009579890739374751
 0.0009674454951106098 0.009578175245392204 -0.0008346849410688092 -0.006145630853064986 0.003904898703008761 0.021130723750680088 0.9952338485967424 -0.04987538316603633
 -0.0008345359054047374 -0.006145634888840837 0.0009528825476493551 0.009579890739374751 0.9952338485967424 -0.04987538316603633 0.0039069546278248666 0.02113061906751736
0.1062942892872 0.003919811151887603 0.02121284596916952 0.9952143844924396 -0.0500638183741136 0.0009732096090490615 0.009613357748473878 -0.0008394343964749753 -0.00616842217928596
 0.9952143844924396 -0.0500638183741136 0.0039215212133639245 0.021212776761364103 -0.0008395844896314645 -0.0061684180685305685 0.0009585396698042262 0.009615087728992212
 0.0009732096090490615 0.009613357748473878 -0.0008395844896314645 -0.0061684180685305685 0.003919674718768025 0.021214269355933898 0.9952144311426364 -0.05006239789767741
 -0.0008394343964749753 -0.00616842217928596 0.0009585396698042262 0.009615087728992212 0.9952144311426364 -0.05006239789767741 0.0039217456101547565 0.021214164078974595
0.11254689453939999 0.0041648188619196665 0.022575144151259833 0.9948925358154203 -0.053105244601702004 0.0010693502573782875 0.010184658204352062 -0.0009211395549559491 -0.006538588811078634
 0.9948925358154203 -0.053105244601702004 0.004166735275203792 0.0225750698488043 -0.0009213073107500274 -0.006538583400944594 0.0010528878210989937 0.01018663485571651
 0.0010693502573782875 0.010184658204352062 -0.0009213073107500274 -0.006538583400944594 0.00416466520896928 0.022576651021706723 0.9948925878942447 -0.05310374017517623
 -0.0009211395549559491 -0.006538588811078634 0.0010528878210989937 0.01018663485571651 0.9948925878942447 -0.05310374017517623 0.004166986653448744 0.02257653585792891
0.11879949979160001 0.00441963000962552 0.023949144550657126 0.9945580376924095 -0.05615733919039251 0.001170375487735995 0.010756322425353272 -0.0010070052348277532 -0.006909245849274749
 0.9945580376924095 -0.05615733919039251 0.00442176451675449 0.02394906511338842 -0.0010071915850673584 -0.0069092389802113355 0.001152015248423423 0.01075856817907583
 0.001170375487735995 0.010756322425353272 -0.0010071915850673584 -0.0069092389802113355 0.004419458063295 0.02395073487289093 0.9945580955131842 -0.056155750719017614
 -0.0010070052348277532 -0.006909245849274749 0.001152015248423423 0.01075856817907583 0.9945580955131842 -0.056155750719017614 0.004422044414540286 0.02395060934825927
0.1250521050438 0.004684407348180399 0.025334727653749278 0.9942107301428341 -0.05922003049570475 0.0012763292259834152 0.011328297285441512 -0.0010970759461122128 -0.007280340023865951
 0.9942107301428341 -0.05922003049570475 0.0046867717015674215 0.025334643055066955 -0.0010972818152247834 -0.0072803315298163715 0.0012559655864087355 0.011330835634581466
 0.0012763292259834152 0.011328297285441512 -0.0010972818152247834 -0.0072803315298163715 0.004684216026169452 0.025336401393757438 0.994210794022508 -0.05921835787835737
 -0.0010970759461122128 -0.007280340023865951 0.0012559655864087355 0.011330835634581466 0.994210794022508 -0.05921835787835737 0.004687081656837669 0.025336265024491964
0.131304710296 0.0049593133989386026 0.026731774060949513 0.993850453203842 -0.062293242211957166 0.0013872548299233706 0.011900528409955154 -0.0011913956093741308 -0.0076518171041307075
 0.993850453203842 -0.062293242211957166 0.004961919363632869 0.026731684288033297 -0.0011916219143971055 -0.0076518068125687976 0.0013647819108057635 0.011903383921399033
 0.0013872548299233706 0.011900528409955154 -0.0011916219143971055 -0.0076518068125687976 0.0049591016095830494 0.026733531183905524 0.9938505234626512 -0.06229148534002318
 -0.0011913956093741308 -0.0076518171041307075 0.0013647819108057635 0.011903383921399033 0.9938505234626512 -0.06229148534002318 0.004962260913781467 0.02673338347629315
0.1375573155481 0.005172421210984865 0.02795755964599832 0.9935491501691861 -0.06519424796393822 0.0014867864950378938 0.012453971292937306 -0.0012736284038717246 -0.008004620612883307
 0.9935491501691861 -0.06519424796393822 0.005175282699374657 0.027957466500749657 -0.0012738766046544066 -0.008004608569781755 0.00146215554440324 0.01245713439530996
 0.0014867864950378938 0.012453971292937306 -0.0012738766046544066 -0.008004608569781755 0.005172188516528413 0.027959399948802848 0.9935492270932293 -0.06519240678341899
 -0.0012736284038717246 -0.008004620612883307 0.00146215554440324 0.01245713439530996 0.9935492270932293 -0.06519240678341899 0.005175656789334773 0.027959242651272757
0.1438099208003 0.005392681962464122 0.029178295874525036 0.9932378611216843 -0.0680893240139264 0.0015903247064678239 0.013005980742492634 -0.0013591513754749533 -0.008356117394583662
 0.9932378611216843 -0.0680893240139264 0.005395811123359484 0.02917819941154263 -0.0013594224763073248 -0.008356103434203557 0.0015634398030653144 0.01300947331475547
 0.0015903247064678239 0.013005980742492634 -0.0013594224763073248 -0.008356103434203557 0.005392427376833564 0.029180219297036344 0.9932379450296732 -0.0680873984193042
 -0.0013591513754749533 -0.008356117394583662 0.0015634398030653144 0.01300947331475547 0.9932379450296732 -0.0680873984193042 0.005396219182556479 0.02918005201451815
0.1500625260525 0.0056200341332940185 0.03039392264036378 0.9929166499246741 -0.07097844106825485 0.0016978428022575288 0.013556527376425515 -0.0014479387415015422 -0.008706278891797054
 0.9929166499246741 -0.07097844106825485 0.005623443148524557 0.030393822905462067 -0.0014482337461663368 -0.008706262841848597 0.0016686084252809865 0.013560372076914263
 0.0016978428022575288 0.013556527376425515 -0.0014482337461663368 -0.008706262841848597 0.005619756669377302 0.030395929119739557 0.9929167411380049 -0.07097643094927636
 -0.0014479387415015422 -0.008706278891797054 0.0016686084252809865 0.013560372076914263 0.9929167411380049 -0.07097643094927636 0.005623886598870028 0.030395751431416686
0.15631513130469998 0.00585441594641098 0.031604381936900044 0.9925855805660105 -0.0738615691846002 0.0018093139132512358 0.01410558216895806 -0.0015399645007441174 -0.009055077066890408
