! Created with skrf 1.8.0 (http://scikit-rf.org).
# GHz S RI R 50.0 
!freq ReS11 ImS11 ReS12 ImS12 ReS13 ImS13
! ReS14 ImS14
! ReS21 ImS21 ReS22 ImS22 ReS23 ImS23
! ReS24 ImS24
! ReS31 ImS31 ReS32 ImS32 ReS33 ImS33
! ReS34 ImS34
! ReS41 ImS41 ReS42 ImS42 ReS43 ImS43
! ReS44 ImS44
!
0.0 0.001783924165949 0.0 0.998216075811 0.0 6.939479467149e-05 0.0 -6.939479466117e-05 8.498411315928968e-21
 0.998216075811 0.0 0.001783924165939 0.0 -6.939479466096e-05 8.49841131590325e-21 6.939479467275e-05 0.0
 6.939479467149e-05 0.0 -6.939479466096e-05 8.49841131590325e-21 0.00178392417073 0.0 0.9982160758158 0.0
 -6.939479466117e-05 8.498411315928968e-21 6.939479467275e-05 0.0 0.9982160758158 0.0 0.001783924170735 0.0
0.005 0.0019201889946301699 0.001455263039514675 0.9980435267779851 -0.003736151712131099 9.828478047654735e-05 0.000785302619266836 -9.520472907788287e-05 -0.0004891600589027696
 0.9980435267779851 -0.003736151712131099 0.0019202088585083487 0.001455251466077347 -9.520732474950673e-05 -0.0004891620859996824 9.814597489392876e-05 0.0007853554245502557
 9.828478047654735e-05 0.000785302619266836 -9.520732474950673e-05 -0.0004891620859996824 0.0019201871211056891 0.0014551968978751921 0.9980435264059117 -0.0037362187809280517
 -9.520472907788287e-05 -0.0004891600589027696 9.814597489392876e-05 0.0007853554245502557 0.9980435264059117 -0.0037362187809280517 0.0019202099946844184 0.0014551834751905194
0.006252605252188 0.0019561654682455055 0.0018247856484616119 0.9979976416954263 -0.0046710661149007475 0.00010668894410245396 0.0009819820785119681 -0.00010260742242227784 -0.0006120722888145685
 0.9979976416954263 -0.0046710661149007475 0.001956196519348856 0.0018247709679352067 -0.00010261146120722276 -0.0006120747881263653 0.00010647207453883011 0.0009820507104569708
 0.00010668894410245396 0.0009819820785119681 -0.00010261146120722276 -0.0006120747881263653 0.0019561625987899404 0.0018247030075871716 0.997997641173462 -0.004671149923143787
 -0.00010260742242227784 -0.0006120722888145685 0.00010647207453883011 0.0009820507104569708 0.997997641173462 -0.004671149923143787 0.0019561983553956787 0.0018246860038576712
0.01250521050438 0.0021469406337648153 0.00368756029656384 0.9977525213004573 -0.009342667987466097 0.0001556779491835587 0.0019641319781404216 -0.00014522934489826143 -0.0012269669749699853
 0.9977525213004573 -0.009342667987466097 0.0021470646227708325 0.0036875288023701706 -0.00014524525744730036 -0.001226971590598594 0.00015481313380819004 0.0019642978290217725
 0.0001556779491835587 0.0019641319781404216 -0.00014524525744730036 -0.001226971590598594 0.002146929746361657 0.0036873953421665564 0.9977525197906003 -0.009342835393883144
 -0.00014522934489826143 -0.0012269669749699853 0.00015481313380819004 0.0019642978290217725 0.9977525197906003 -0.009342835393883144 0.0021470725383892064 0.003687359053773803
0.01875781575657 0.002356716315649091 0.005576516648071225 0.9974803747662406 -0.014026118881779799 0.0002164814234909858 0.0029470869306597626 -0.00019740265925968436 -0.00184373162463511
 0.9974803747662406 -0.014026118881779799 0.002356994930253857 0.005576466094624518 -0.00019743813863435357 -0.001843737890573516 0.00021453874610246357 0.0029473847955358
 0.0002164814234909858 0.0029470869306597626 -0.00019743813863435357 -0.001843737890573516 0.0023566922656613714 0.005576269681288468 0.9974803717939628 -0.014026369793062186
 -0.00019740265925968436 -0.00184373162463511 0.00021453874610246357 0.0029473847955358 0.9974803717939628 -0.014026369793062186 0.002357013157257131 0.00557621162118969
0.02501042100875 0.00258594219788117 0.007488939274086533 0.9971808475662043 -0.018723623861402323 0.0002892208225901416 0.003930848033769292 -0.00025926353872090206 -0.002462040969369163
 0.9971808475662043 -0.018723623861402323 0.0025864370125954386 0.007488867326782008 -0.00025932618324672757 -0.0024620483288995076 0.00028577026893892253 0.003931318739898821
 0.0002892208225901416 0.003930848033769292 -0.00025932618324672757 -0.0024620483288995076 0.0025858998496640913 0.0074886106212135595 0.9971808426581612 -0.018723958247960464
 -0.00025926353872090206 -0.002462040969369163 0.00028577026893892253 0.003931318739898821 0.9971808426581612 -0.018723958247960464 0.0025864697879953826 0.007488528123444699
0.03126302626094 0.00283504916873349 0.009423397744562906 0.9968535690839052 -0.023436086658457974 0.0003740175509793149 0.0049153222636238655 -0.00033094341122701494 -0.00308165484553817
 0.9968535690839052 -0.023436086658457974 0.002835821684832325 0.009423301985118458 -0.00033104074019702683 -0.00308166265036928 0.00036862863811294554 0.004916012708231892
 0.0003740175509793149 0.0049153222636238655 -0.00033104074019702683 -0.00308166265036928 0.0028349833934941996 0.009422987792893587 0.9968535617658828 -0.023436504519041373
 -0.00033094341122701494 -0.00308165484553817 0.00036862863811294554 0.004916012708231892 0.9968535617658828 -0.023436504519041373 0.0028358732520607412 0.009422878017553862
0.037515631513130004 0.003104458045004557 0.011378934387317052 0.9964981617318246 -0.028163921862895215 0.00047099161837711436 0.005900378804252801 -0.00041256991463176556 -0.0037023618968238738
 0.9964981617318246 -0.028163921862895215 0.003105569719991637 0.011378812316516926 -0.00041270937626747576 -0.0037023694069017133 0.00046323324319995325 0.0059013420142793975
 0.00047099161837711436 0.005900378804252801 -0.00041270937626747576 -0.0037023694069017133 0.0031043637192028598 0.01137844358513012 0.9964981515270265 -0.028164423225379296
 -0.00041256991463176556 -0.0037023618968238738 0.00046323324319995325 0.0059013420142793975 0.9964981515270265 -0.028164423225379296 0.0031056443284946146 0.01137830352000332
0.043768236765320004 0.0033945829183287183 0.013354817103443663 0.9961142446977994 -0.03290730204355007 0.0005802609883330384 0.006885866192911482 -0.000504267217889303 -0.004323962468561543
 0.9961142446977994 -0.03290730204355007 0.0033960951902754382 0.01335466614279319 -0.000504456193956942 -0.004323968852035764 0.0005697013707469746 0.00688716139147591
 0.0005802609883330384 0.006885866192911482 -0.000504456193956942 -0.004323968852035764 0.00339445492387127 0.013354245979554745 0.9961142311256129 -0.032907886946161806
 -0.000504267217889303 -0.004323962468561543 0.0005697013707469746 0.00688716139147591 0.9961142311256129 -0.032907886946161806 0.003396197096164997 0.013354072440691686
0.050020842017509996 0.0037058326860813675 0.015350437244693205 0.995701435880614 -0.037666259807260516 0.0007019411747284645 0.007871619413400359 -0.0006061561133875837 -0.0049462615612057125
 0.995701435880614 -0.037666259807260516 0.00370780699659818 0.01535025473699822 -0.0006064019221837414 -0.0049462658944852776 0.000688147850860032 0.007873312088680084
 0.0007019411747284645 0.007871619413400359 -0.0006064019221837414 -0.0049462658944852776 0.003705665911542441 0.015349786393181058 0.995701418456529 -0.037666928314731125
 -0.0006061561133875837 -0.0049462615612057125 0.000688147850860032 0.007873312088680084 0.995701418456529 -0.037666928314731125 0.0037079404632412776 0.015349576024162426
0.055454545454549996 0.0039937883960436404 0.01710030375874211 0.9953189319870823 -0.04181454643165685 0.0008178516989298625 0.008728348961382791 -0.0007030687412310115 -0.00548747511677102
 0.9953189319870823 -0.04181454643165685 0.0039962141487463465 0.017100091616644796 -0.0007033698348536608 -0.0054874768470944205 0.0008008964593555901 0.008730445158573113
 0.0008178516989298625 0.008728348961382791 -0.0007033698348536608 -0.0054874768470944205 0.003993583774664518 0.017099584168519325 0.995318910817843 -0.0418152876541817
 -0.0007030687412310115 -0.00548747511677102 0.0008008964593555901 0.008730445158573113 0.995318910817843 -0.0418152876541817 0.003996378510626986 0.01709933893226291
0.056273447269699996 0.004038611812338838 0.01736525946685459 0.9952593530620576 -0.042440737886727115 0.0008361449457912607 0.008857463391789458 -0.0007183540089033055 -0.005569065389221695
 0.9952593530620576 -0.042440737886727115 0.004041109627734377 0.017365042676221184 -0.0007186639071267142 -0.005569066657036385 0.0008186847918605628 0.008859625366700275
 0.0008361449457912607 0.008857463391789458 -0.0007186639071267142 -0.005569066657036385 0.0040384011534350395 0.01736452956284988 0.9952593312963374 -0.04244149007530671
 -0.0007183540089033055 -0.005569065389221695 0.0008186847918605628 0.008859625366700275 0.9952593312963374 -0.04244149007530671 0.004041278925886845 0.017364278833479515
0.06252605252188 0.004393320708032467 0.019398794188762947 0.9947876147035024 -0.04723061663002183 0.0009829820827436727 0.009843214933915238 -0.0008409748675989346 -0.006192179506762583
 0.9947876147035024 -0.04723061663002183 0.004396403539554317 0.0193985402997599 -0.0008413560515121462 -0.0061921766022588 0.0009614213594786357 0.009845924435687835
 0.0009829820827436727 0.009843214933915238 -0.0008413560515121462 -0.0061921766022588 0.004393061069200948 0.01939798598574157 0.9947875881016431 -0.04723145259106956
 -0.0008409748675989346 -0.006192179506762583 0.0009614213594786357 0.009845924435687835 0.9947875881016431 -0.04723145259106956 0.004396612948944916 0.019397691189825938
0.06877865777407 0.004770355903918748 0.021450581180452254 0.9942858405414955 -0.052035730369824645 0.0011425591691348765 0.010828683893504916 -0.0009741291181721863 -0.006815407711755898
 0.9942858405414955 -0.052035730369824645 0.004774085328976972 0.02145028729636897 -0.0009745887245080468 -0.006815399436583501 0.001116463580760579 0.010832025622730768
 0.0011425591691348765 0.010828683893504916 -0.0009745887245080468 -0.006815399436583501 0.004770042198804435 0.02144969550382061 0.9942858086023186 -0.05203665021687242
 -0.0009741291181721863 -0.006815407711755898 0.001116463580760579 0.010832025622730768 0.9942858086023186 -0.05203665021687242 0.004774339136832537 0.021449352756263435
0.07503126302626001 0.005170110098877807 0.023520179149847067 0.9937536520634774 -0.056855877803757345 0.0013149793975060404 0.011813673930471617 -0.0011179235478992443 -0.0074385513692697474
 0.9937536520634774 -0.056855877803757345 0.005174547780912826 0.02351984229043127 -0.0011184686542458349 -0.007438536433696838 0.0012839141618426024 0.011817739129272066
 0.0013149793975060404 0.011813673930471617 -0.0011184686542458349 -0.007438536433696838 0.005169737252062506 0.02351921690920988 0.9937536142791128 -0.05685688166103574
 -0.0011179235478992443 -0.0074385513692697474 0.0012839141618426024 0.011817739129272066 0.9937536142791128 -0.05685688166103574 0.005174850283451517 0.023518822142274867
0.08128386827845 0.005592972131705184 0.025607158845708196 0.9931906729115949 -0.06169082886888776 0.0015003423882659097 0.012797983035224815 -0.0012724611830805784 -0.00806140897872756
 0.9931906729115949 -0.06169082886888776 0.005598179840371189 0.025606775943960068 -0.0012730988081304873 -0.008061386001748853 0.0014638723156444162 0.012802869554219996
 0.0015003423882659097 0.012797983035224815 -0.0012730988081304873 -0.008061386001748853 0.005592535079828274 0.025606121027987698 0.9931906287668619 -0.06169191687888871
 -0.0012724611830805784 -0.00806140897872756 0.0014638723156444162 0.012802869554219996 0.9931906287668619 -0.06169191687888871 0.005598535342536126 0.025605669986867686
0.08753647353064001 0.006039326898605494 0.02771109828433168 0.9925965292381924 -0.06654032950373133 0.0016987440156278175 0.013781403906253358 -0.001437841162229853 -0.008683775897813325
 0.9925965292381924 -0.06654032950373133 0.006045366530239228 0.02771066618246401 -0.0014385782658277453 -0.008683743407276998 0.0016564335950495959 0.013787216270302481
 0.0016987440156278175 0.013781403906253358 -0.0014385782658277453 -0.008683743407276998 0.006038820591446091 0.027709985957232234 0.9925964782093886 -0.06654150182438176
 -0.001437841162229853 -0.008683775897813325 0.0016564335950495959 0.013787216270302481 0.9925964782093886 -0.06654150182438176 0.006045779345532237 0.02770947419476647
0.09378907878283 0.0065095552366424645 0.029831579356464525 0.9919708500304552 -0.07140410504135439 0.0019102762392995088 0.014763724241364774 -0.001614158603420658 -0.009305444163129025
 0.9919708500304552 -0.07140410504135439 0.0065164888345599055 0.02983109480124066 -0.001615002086422455 -0.009305400595881478 0.0018616897306672135 0.014770573713760837
 0.0019102762392995088 0.014763724241364774 -0.001615002086422455 -0.009305400595881478 0.006508974639082256 0.029830393670800138 0.9919707915853334 -0.07140536184430912
 -0.001614158603420658 -0.009305444163129025 0.0018616897306672135 0.014770573713760837 0.9919707915853334 -0.07140536184430912 0.00651696328603561 0.02982981654136321
0.100041684035 0.007004033780926416 0.03196818534678547 0.991313267413344 -0.07628186270202254 0.0021350269397740654 0.015744726970477182 -0.0018015044679692287 -0.009926202379784433
 0.991313267413344 -0.07628186270202254 0.007011923555706155 0.03196764498379909 -0.001802461172050444 -0.009926146081806636 0.0020797284715348982 0.0157527316155219
 0.0021350269397740654 0.015744726970477182 -0.001802461172050444 -0.009926146081806636 0.007003373873766376 0.03196692753444944 0.9913132010096994 -0.0762832041752195
 -0.0018015044679692287 -0.009926202379784433 0.0020797284715348982 0.0157527316155219 0.9913132010096994 -0.0762832041752195 0.007012463975166865 0.03196628018711134
0.1059090909091 0.007490436419868419 0.03398745728980274 0.9906668553779646 -0.08087156243787423 0.002358028255462611 0.016663898257375062 -0.0019874161800951576 -0.010507699072230451
 0.9906668553779646 -0.08087156243787423 0.00749928021223405 0.03398686141053363 -0.0019884852995761507 -0.01050762924270025 0.00229603487731344 0.016673100399403395
 0.002358028255462611 0.016663898257375062 -0.0019884852995761507 -0.01050762924270025 0.007489697540235481 0.0339861329875055 0.9906667810039691 -0.08087298355026826
 -0.0019874161800951576 -0.010507699072230451 0.00229603487731344 0.016673100399403395 0.9906667810039691 -0.08087298355026826 0.007499886483786059 0.03398541514654432
0.1062942892872 0.007523134801816941 0.03412049908543442 0.9906234169362562 -0.08117329346606877 0.0023730797566245366 0.016724190450904123 -0.0019999654216608354 -0.010545835659232219
 0.9906234169362562 -0.08117329346606877 0.0075320431519482435 0.034119899452632656 -0.002001042128978719 -0.010545764885798935 0.002310633427947973 0.016733475194791757
 0.0023730797566245366 0.016724190450904123 -0.002001042128978719 -0.010545764885798935 0.0075223905840100256 0.03411917046030768 0.9906233420218937 -0.08117471981328411
 -0.0019999654216608354 -0.010545835659232219 0.002310633427947973 0.016733475194791757 0.9906233420218937 -0.08117471981328411 0.007532653880788742 0.034118447831045
0.11254689453939999 0.008067226029379518 0.03628810154267079 0.9899009378499868 -0.08607807351622004 0.0026245139294306767 0.017701888636506236 -0.002209623693759287 -0.011164125594106556
 0.9899009378499868 -0.08607807351622004 0.008077215561557822 0.036287439062933996 -0.0022108271265457165 -0.011164038509988322 0.002554483916843783 0.017712585326277043
 0.0026245139294306767 0.017701888636506236 -0.0022108271265457165 -0.011164038509988322 0.008066392518655346 0.03628670350480985 0.9899008538613785 -0.08607958495332498
 -0.002209623693759287 -0.011164125594106556 0.002554483916843783 0.017712585326277043 0.9899008538613785 -0.08607958495332498 0.008077900950277096 0.03628590030787601
0.11879949979160001 0.00863667046504463 0.03847057075312402 0.9891454733744293 -0.09099586536339878 0.0028894041407034627 0.018677591232393556 -0.0024305569352173007 -0.011780850258603693
 0.9891454733744293 -0.09099586536339878 0.008647804015451467 0.03846984172591662 -0.0024318937553737285 -0.011780744938175302 0.002811354808458186 0.018689838692966077
 0.0028894041407034627 0.018677591232393556 -0.0024318937553737285 -0.011780744938175302 0.008635742700403185 0.03846910478417536 0.9891453797362652 -0.09099746212331701
 -0.0024305569352173007 -0.011780850258603693 0.002811354808458186 0.018689838692966077 0.9891453797362652 -0.09099746212331701 0.008648568423799638 0.03846821550260331
0.1250521050438 0.00923182618606646 0.040667480972228574 0.9883566709606122 -0.09592631875348073 0.0031678203606663718 0.019651063838616985 -0.002662838076299409 -0.012395784230925513
 0.9883566709606122 -0.09592631875348073 0.009244166840176772 0.040666681564450996 -0.0026643148847979832 -0.012395658658464728 0.0030813163748497643 0.019665007927702493
 0.0031678203606663718 0.019651063838616985 -0.0026643148847979832 -0.012395658658464728 0.009230799228805932 0.04066594863934878 0.988356567085249 -0.0959280010825972
 -0.002662838076299409 -0.012395784230925513 0.0030813163748497643 0.019665007927702493 0.988356567085249 -0.0959280010825972 0.00924501463778741 0.040664967514454746
0.131304710296 0.009853046142132735 0.04287840201920779 0.9875341825480567 -0.10086907140102558 0.0034598276942812414 0.02062206808542321 -0.002906535183902216 -0.013008698635596614
 0.9875341825480567 -0.10086907140102558 0.00986665725616066 0.0428775282548742 -0.002908158520252493 -0.013008550705427634 0.00336443414003247 0.020637861746332947
 0.0034598276942812414 0.02062206808542321 -0.002908158520252493 -0.013008550705427634 0.00985191507787058 0.0428768049745822 0.9875340678345157 -0.10087083955985357
 -0.002906535183902216 -0.013008698635596614 0.00336443414003247 0.020637861746332947 0.9875340678345157 -0.10087083955985357 0.009867592821730487 0.042875725994699874
0.1375573155481 0.010366507841995073 0.04481461088759123 0.986811901981272 -0.1055352891805404 0.003731586592599391 0.02156251457756281 -0.0031279264103211677 -0.01359145401802551
 0.986811901981272 -0.1055352891805404 0.010381458218145978 0.04481367812117332 -0.003129706135332206 -0.013591283335532976 0.003627089688523864 0.02158014796367711
 0.003731586592599391 0.02156251457756281 -0.003129706135332206 -0.013591283335532976 0.010365268481151444 0.04481295045548993 0.9868117759257138 -0.10553714329901376
 -0.0031279264103211677 -0.01359145401802551 0.003627089688523864 0.02158014796367711 0.9868117759257138 -0.10553714329901376 0.010382485033123659 0.04481178737868156
0.1438099208003 0.010898255211512753 0.046739003253268234 0.986063737451948 -0.1101880451063167 0.00401428168091499 0.022498095662928926 -0.0033581057416540824 -0.014169807122094785
 0.986063737451948 -0.1101880451063167 0.010914609380932562 0.0467380084374304 -0.003360048903965782 -0.014169611589518426 0.0039002869491930824 0.022517709839218872
 0.00401428168091499 0.022498095662928926 -0.003360048903965782 -0.014169611589518426 0.010896902803059142 0.04673728111182844 0.9860635994550515 -0.11018998543282357
 -0.0033581057416540824 -0.014169807122094785 0.0039002869491930824 0.022517709839218872 0.9860635994550515 -0.11018998543282357 0.01091573167573698 0.04673602884672565
0.1500625260525 0.01144807507615733 0.04865137071327672 0.9852899071483441 -0.11482717485776495 0.004307798913998135 0.023428681377150925 -0.003596963494947986 -0.014743638524093322
 0.9852899071483441 -0.11482717485776495 0.011465897849401907 0.048650310542916075 -0.0035990771239664543 -0.014743415958681975 0.004183914812102697 0.023450422540178612
 0.004307798913998135 0.023428681377150925 -0.0035990771239664543 -0.014743415958681975 0.01144660490023614 0.04864958860430022 0.9852897565999783 -0.11482920165079397
 -0.003596963494947986 -0.014743638524093322 0.004183914812102697 0.023450422540178612 0.9852897565999783 -0.11482920165079397 0.011467119853358756 0.04864824172106593
0.15631513130469998 0.01201575243445864 0.050551511105314646 0.9844906307150121 -0.11945251581547953 0.004612022706782537 0.024354144338775256 -0.0038443884696782622 -0.015312831657247533
 0.9844906307150121 -0.11945251581547953 0.01203510890843557 0.05055038200505544 -0.003846679575172019 -0.015312579791692246 0.004477860679898818 0.024378163752991573
