! Created with skrf 1.8.0 (http://scikit-rf.org).
# GHz S RI R 50.0 
!freq ReS11 ImS11 ReS12 ImS12 ReS13 ImS13
! ReS14 ImS14
! ReS21 ImS21 ReS22 ImS22 ReS23 ImS23
! ReS24 ImS24
! ReS31 ImS31 ReS32 ImS32 ReS33 ImS33
! ReS34 ImS34
! ReS41 ImS41 ReS42 ImS42 ReS43 ImS43
! ReS44 ImS44
!
0.0 0.001359203093673 0.0 0.9986407969063 0.0 5.197749844835e-05 0.0 -5.19774996628e-05 6.365407858973065e-21
 0.9986407969063 0.0 0.001359203093711 0.0 -5.197749966448e-05 6.365407859178806e-21 5.197749844757e-05 0.0
 5.197749844835e-05 0.0 -5.197749966448e-05 6.365407859178806e-21 0.001359203075602 0.0 0.9986407968881 0.0
 -5.19774996628e-05 6.365407858973065e-21 5.197749844757e-05 0.0 0.9986407968881 0.0 0.001359203075547 0.0
0.005 0.0014618814140165593 0.0011148872164259862 0.998510982399039 -0.0028476296796872626 7.214404629084645e-05 0.0005569708551771587 -7.021062355205441e-05 -0.00035243043480122073
 0.998510982399039 -0.0028476296796872626 0.001461890261514857 0.0011148820133973782 -7.021034808101233e-05 -0.0003524301718481336 7.209886284452733e-05 0.000556988141336551
 7.214404629084645e-05 0.0005569708551771587 -7.021034808101233e-05 -0.0003524301718481336 0.0014618821629110417 0.0011149539971378266 0.9985109827409023 -0.0028475626133425886
 -7.021062355205441e-05 -0.00035243043480122073 7.209886284452733e-05 0.000556988141336551 0.9985109827409023 -0.0028475626133425886 0.001461890189516172 0.0011149493586213415
0.006252605252188 0.001488669099463652 0.001398002428765549 0.9984769252232712 -0.0035602543953858314 7.782448326694783e-05 0.0006964996479228501 -7.529080245068026e-05 -0.00044099809979633304
 0.9984769252232712 -0.0035602543953858314 0.0014886829297329372 0.001397995791012234 -7.529037418935369e-05 -0.0004409977744306108 7.775388877780168e-05 0.0006965220653231819
 7.782448326694783e-05 0.0006964996479228501 -7.529037418935369e-05 -0.0004409977744306108 0.0014886701964165442 0.0013980858959806593 0.99847692568379 -0.0035601705626377676
 -7.529080245068026e-05 -0.00044099809979633304 7.775388877780168e-05 0.0006965220653231819 0.99847692568379 -0.0035601705626377676 0.0014886827427489523 0.0013980799743639283
0.01250521050438 0.0016288601079770908 0.0028254033581991043 0.9982976251632785 -0.007121432769177553 0.00010997257098844568 0.0013934551888581078 -0.00010375158600485925 -0.0008842067074067993
 0.9982976251632785 -0.007121432769177553 0.0016289153361634954 0.0028253887218755575 -0.00010374990313693858 -0.0008842060922927151 0.00010969107689980754 0.0013935087035008425
 0.00010997257098844568 0.0013934551888581078 -0.00010374990313693858 -0.0008842060922927151 0.0016288639376208082 0.002825569922736297 0.9982976264481732 -0.007121265362761701
 -0.00010375158600485925 -0.0008842067074067993 0.00010969107689980754 0.0013935087035008425 0.9982976264481732 -0.007121265362761701 0.0016289140258684354 0.0028255568322661873
0.01875781575657 0.001780053095608615 0.0042732865956493634 0.9981026946867253 -0.0106922294257647 0.00014849197558149251 0.0020913330915122105 -0.00013744088861005117 -0.0013290273549701216
 0.9981026946867253 -0.0106922294257647 0.0017801772051225248 0.0042732624881705854 -0.00013743714253046025 -0.0013290264902665176 0.00014785967612402344 0.002091427947688107
 0.00014849197558149251 0.0020913330915122105 -0.00013743714253046025 -0.0013290264902665176 0.0017800612842779329 0.004273536031974078 0.9981026971512081 -0.01069197849334312
 -0.00013744088861005117 -0.0013290273549701216 0.00014785967612402344 0.002091427947688107 0.9981026971512081 -0.01069197849334312 0.0017801738175183444 0.004273514439453429
0.02501042100875 0.0019425183724809377 0.005739662412042129 0.9978919245649389 -0.014274404883669324 0.00019345394939171355 0.002790176517141473 -0.00017643769235734617 -0.0017752810108224246
 0.9978919245649389 -0.014274404883669324 0.001942738795439022 0.0057396272565843065 -0.0001764310862406288 -0.0017752799421890848 0.00019233090558431047 0.0027903244556332506
 0.00019345394939171355 0.002790176517141473 -0.0001764310862406288 -0.0017752799421890848 0.0019425325525944401 0.005739994457573358 0.9978919285714284 -0.01427407044311403
 -0.00017643769235734617 -0.0017752810108224246 0.00019233090558431047 0.0027903244556332506 0.9978919285714284 -0.01427407044311403 0.0019427323726014445 0.005739962950542146
0.03126302626094 0.002116514947418256 0.007223522255204456 0.997665093898179 -0.017868731132548603 0.0002449303623889787 0.003489966892712758 -0.0002208190994118858 -0.0022228464718701694
 0.997665093898179 -0.017868731132548603 0.002116859077495086 0.007223474371584543 -0.00022080884625654524 -0.0022228452505559057 0.0002431764653758475 0.0034901811573348866
 0.0002449303623889787 0.003489966892712758 -0.00022080884625654524 -0.0022228452505559057 0.002116536751822346 0.007223936618216952 0.997665099811393 -0.017868313163622918
 -0.0002208190994118858 -0.0022228464718701694 0.0002431764653758475 0.0034901811573348866 0.997665099811393 -0.017868313163622918 0.002116848650678192 0.007223893706175152
0.037515631513130004 0.0023022964056516014 0.008724220216069632 0.9974219761285852 -0.021475610112496553 0.00030299302889396826 0.004190661468240882 -0.0002706608750298631 -0.0026716227953149873
 0.9974219761285852 -0.021475610112496553 0.002302791606007655 0.008724157820946057 -0.00027064619654246653 -0.002671621478160877 0.0003004679364363888 0.004190956819981443
 0.00030299302889396826 0.004190661468240882 -0.00027064619654246653 -0.002671621478160877 0.002302327466745855 0.008724716557016888 0.997421984315715 -0.021475108575085233
 -0.0002706608750298631 -0.0026716227953149873 0.0003004679364363888 0.004190956819981443 0.997421984315715 -0.021475108575085233 0.002302776195004017 0.008724660671894756
0.043768236765320004 0.002500113198247288 0.010241284748705079 0.9971623414671593 -0.02509526193226474 0.0003677133976475795 0.004892204736112948 -0.0003260376474625201 -0.003121517869328955
 0.9971623414671593 -0.02509526193226474 0.0025007868070834978 0.010241205955491408 -0.0003260177733832939 -0.003121516518728349 0.00036427650164007574 0.004892597469685245
 0.0003677133976475795 0.004892204736112948 -0.0003260177733832939 -0.003121516518728349 0.0025001551471588663 0.010241862691454372 0.9971623522982289 -0.025094676754701766
 -0.0003260376474625201 -0.003121517869328955 0.00036427650164007574 0.004892597469685245 0.9971623522982289 -0.025094676754701766 0.002500765419479323 0.01024179218801289
0.050020842017509996 0.0027102137065368992 0.011774340912953886 0.9968859580978942 -0.028727802562700085 0.00043916236792914206 0.005594533144783892 -0.0003870229878592553 -0.0035724436904886604
 0.9968859580978942 -0.028727802562700085 0.0027110930416856254 0.011774243731654982 -0.000386997155519607 -0.0035724423743713307 0.00043467277841654903 0.005595041106142717
 0.00043916236792914206 0.005594533144783892 -0.000386997155519607 -0.0035724423743713307 0.0027102681739330846 0.011775000028113311 0.9968859719480089 -0.028727133657939698
 -0.0003870229878592553 -0.0035724436904886604 0.00043467277841654903 0.005595041106142717 0.9968859719480089 -0.028727133657939698 0.0027110646735988655 0.011774913184123008
0.055454545454549996 0.002902965058500823 0.013119353438111613 0.9966319895322067 -0.031895097789297014 0.0005067726934918015 0.0062054617486820745 -0.00044463230193922935 -0.003965082012230989
 0.9966319895322067 -0.031895097789297014 0.0029040453486985254 0.013119238580265896 -0.0004446006779460975 -0.003965080785505125 0.0005012536380575143 0.006206085557871159
 0.0005067726934918015 0.0062054617486820745 -0.0004446006779460975 -0.003965080785505125 0.0029030317272124954 0.013120082710131075 0.9966320063138641 -0.03189435603448088
 -0.00044463230193922935 -0.003965082012230989 0.0005012536380575143 0.006206085557871159 0.9966320063138641 -0.03189435603448088 0.002904010088900594 0.013119980207277716
0.056273447269699996 0.0029328448007451564 0.013323072153697303 0.9965925928797986 -0.03237328199364224 0.00051741016394552 0.006297577404704569 -0.00045368943383447893 -0.004024314050553801
 0.9965925928797986 -0.03237328199364224 0.0029339571637398577 0.013322954490514181 -0.0004536568878178896 -0.004024312842331322 0.0005117267031351805 0.006298220009023895
 0.00051741016394552 0.006297577404704569 -0.0004536568878178896 -0.004024312842331322 0.002932913414982846 0.013323811966245817 0.9965926101283772 -0.03237252925123436
 -0.00045368943383447893 -0.004024314050553801 0.0005117267031351805 0.006298220009023895 0.9965926101283772 -0.03237252925123436 0.002933920798296541 0.013323706982530662
0.06252605252188 0.003168252147816776 0.014887199326659165 0.9962820117994409 -0.0360317051450812 0.0006025262361296833 0.00700126376299038 -0.0005261084865971459 -0.004477043256332307
 0.9962820117994409 -0.0360317051450812 0.0031696248274621884 0.014887058983582719 -0.0005260684784657458 -0.004477042234871439 0.0005955074387467489 0.007002062012880492
 0.0006025262361296833 0.00700126376299038 -0.0005260684784657458 -0.004477042234871439 0.0031683365341691055 0.014888019315421773 0.9962820328311951 -0.03603086843124119
 -0.0005261084865971459 -0.004477043256332307 0.0005955074387467489 0.007002062012880492 0.9962820328311951 -0.03603086843124119 0.0031695794343497632 0.014887894315881995
0.06877865777407 0.00341668038246088 0.016466468176382597 0.9959539802905848 -0.039703044328044806 0.0006945791785730089 0.0077055147527816635 -0.0006043505913831363 -0.004930545376991432
 0.9959539802905848 -0.039703044328044806 0.0034183406583372196 0.016466302850698347 -0.0006043023795102786 -0.004930544626566904 0.0006860832969376786 0.007706491256558983
 0.0006945791785730089 0.0077055147527816635 -0.0006043023795102786 -0.004930544626566904 0.0034167821632599235 0.016467367765240912 0.9959540054967664 -0.039702123494054456
 -0.0006043505913831363 -0.004930545376991432 0.0006860832969376786 0.007706491256558983 0.9959540054967664 -0.039702123494054456 0.0034182851939377097 0.016467220796707212
0.07503126302626001 0.003678373199980096 0.018060641392844363 0.99560826347771 -0.04338724712858388 0.0007936366556008319 0.008410249673348321 -0.0006884851082386827 -0.005384733762836942
 0.99560826347771 -0.04338724712858388 0.003680348345316926 0.018060448676446225 -0.0006884279575912551 -0.005384733373096216 0.0007835216679825306 0.008411428663319852
 0.0007936366556008319 0.008410249673348321 -0.0006884279575912551 -0.005384733373096216 0.0036784939926370985 0.018061619960227076 0.9956082932556967 -0.04338624200087691
 -0.0006884851082386827 -0.005384733762836942 0.0007835216679825306 0.008411428663319852 0.9956082932556967 -0.04338624200087691 0.003680281751526113 0.018061448992318534
0.08128386827845 0.003953573398245808 0.01966949333762866 0.9952446263715834 -0.047084241624692644 0.0008997653334849287 0.009115384910891963 -0.0007785802766097552 -0.00583952072580517
 0.9952446263715834 -0.047084241624692644 0.003955890683401105 0.019669270716339032 -0.0007785134586562703 -0.005839520791728732 0.0008878889551432013 0.009116792261559052
 0.0008997653334849287 0.009115384910891963 -0.0007785134586562703 -0.005839520791728732 0.003953714815192872 0.01967055020839604 0.9952446611264127 -0.04708315201269527
 -0.0007785802766097552 -0.00583952072580517 0.0008878889551432013 0.009116792261559052 0.9952446611264127 -0.04708315201269527 0.003955811887446685 0.01967035313315033
0.08753647353064001 0.004242522886407794 0.021292806381006016 0.9948628340339415 -0.05079393999482859 0.0010130308165172475 0.009820834156675718 -0.0008747031747743407 -0.006294817325101382
 0.9948628340339415 -0.05079393999482859 0.004245209581483415 0.021292551233795653 -0.0008746259673285772 -0.0062948179469664205 0.0009992505127839923 0.009822497402838458
 0.0010130308165172475 0.009820834156675718 -0.0008746259673285772 -0.0062948179469664205 0.004242686533667961 0.02129394082995284 0.9948628741785986 -0.050792765687063805
 -0.0008747031747743407 -0.006294817325101382 0.0009992505127839923 0.009822497402838458 0.9948628741785986 -0.050792765687063805 0.004245117495240659 0.021293715461484432
0.09378907878283 0.004545462670768634 0.022930368294153 0.9944626517226786 -0.054516241074069154 0.0011334975847150115 0.010526508567806727 -0.0009769196765056839 -0.00675053321280648
 0.9944626517226786 -0.054516241074069154 0.004548546048966927 0.022930077892143907 -0.0009768313636675575 -0.006750534496143604 0.0011176705859128322 0.010528456922514837
 0.0011334975847150115 0.010526508567806727 -0.0009768313636675575 -0.006750534496143604 0.004545650147434211 0.02293157954514378 0.994462697678512 -0.05451498183874641
 -0.0009769196765056839 -0.00675053321280648 0.0011176705859128322 0.010528456922514837 0.994462697678512 -0.05451498183874641 0.00454843956845428 0.022931323619096215
0.100041684035 0.004862632824761321 0.024581970332158927 0.9940438450222593 -0.05825103222217973 0.0012612289330937619 0.011232316888428254 -0.0010852944053759204 -0.0072065765217311836
 0.9940438450222593 -0.05825103222217973 0.004866140165224377 0.024581641837695244 -0.0010851942774033267 -0.007206578577289691 0.0012432122508501014 0.011234581260755213
 0.0012612289330937619 0.011232316888428254 -0.0010851942774033267 -0.007206578577289691 0.004862845721627066 0.024583257555295307 0.994043897219972 -0.05824968780980955
 -0.0010852944053759204 -0.0072065765217311836 0.0012432122508501014 0.011234581260755213 0.994043897219972 -0.05824968780980955 0.004866018169910091 0.02458296872825252
0.1059090909091 0.005173418738602708 0.026144408856321237 0.9936336922555971 -0.061766987984316346 0.0013877536024095429 0.011894681595990947 -0.001192649860175761 -0.007634739349890689
 0.9936336922555971 -0.061766987984316346 0.0051773487403854205 0.026144041937402846 -0.0011925380048807253 -0.007634742235444044 0.001367551908763137 0.011897272155087235
 0.0013877536024095429 0.011894681595990947 -0.0011925380048807253 -0.007634742235444044 0.005173656928656192 0.026145766570238496 0.9936337507114832 -0.061765563397780866
 -0.001192649860175761 -0.007634739349890689 0.001367551908763137 0.011897272155087235 0.9936337507114832 -0.061765563397780866 0.0051772111521097884 0.02614544466676368
0.1062942892872 0.005194272446357934 0.026247405789179022 0.9936061799654353 -0.061998190722789816 0.0013962869127377717 0.01193816553731151 -0.0011998906862406725 -0.007662853789624543
 0.9936061799654353 -0.061998190722789816 0.005198231036835472 0.026247036254673922 -0.001199778039483388 -0.007662856733340162 0.0013759373575451452 0.011940778549982036
 0.0013962869127377717 0.01193816553731151 -0.001199778039483388 -0.007662856733340162 0.005194512345376152 0.026248768102859664 0.9936062388458364 -0.06199676086385678
 -0.0011998906862406725 -0.007662853789624543 0.0013759373575451452 0.011940778549982036 0.9936062388458364 -0.06199676086385678 0.005198092389458312 0.02624844395165658
0.11254689453939999 0.0055406196063431876 0.02792646889597242 0.9931494231478937 -0.06575758484325575 0.0015387322713460154 0.012643958683565253 -0.0013207704962866628 -0.00811926989814496
 0.9931494231478937 -0.06575758484325575 0.005545056746403725 0.02792605526273214 -0.0013206446331225786 -0.008119273851098384 0.0015159064713840956 0.012646954690276628
 0.0015387322713460154 0.012643958683565253 -0.0013206446331225786 -0.008119273851098384 0.005540888079158335 0.02792790536713882 0.993149489161968 -0.06575606924784416
 -0.0013207704962866628 -0.00811926989814496 0.0015159064713840956 0.012646954690276628 0.993149489161968 -0.06575606924784416 0.005544900291800445 0.02792754338803946
0.11879949979160001 0.005901911289227845 0.02961895395695565 0.9926733418372515 -0.06952907465836228 0.0016886243950646653 0.013349598305654617 -0.0014479944140528978 -0.00857572803143102
 0.9926733418372515 -0.06952907465836228 0.0059068542932479715 0.029618493053764083 -0.0014478546428202778 -0.008575733119812263 0.0016631788160222964 0.013353013408219745
 0.0016886243950646653 0.013349598305654617 -0.0014478546428202778 -0.008575733119812263 0.005902209896807719 0.02962046359881092 0.9926734154478747 -0.06952747301817785
 -0.0014479944140528978 -0.00857572803143102 0.0016631788160222964 0.013353013408219745 0.9926734154478747 -0.06952747301817785 0.005906678858517768 0.029620061206508938
0.1250521050438 0.006278383329341061 0.03132465466882753 0.9921777040804521 -0.07331251269569417 0.0018460212502763248 0.014054984241842526 -0.0015816215677670817 -0.009032129646169635
 0.9921777040804521 -0.07331251269569417 0.006283859529116176 0.03132414321057338 -0.0015814672027065697 -0.009032136001247 0.001817812215925649 0.014058856307084625
 0.0018460212502763248 0.014054984241842526 -0.0015814672027065697 -0.009032136001247 0.006278713620185234 0.03132623644227794 0.9921777857618246 -0.07331082468260662
 -0.0015816215677670817 -0.009032129646169635 0.001817812215925649 0.014058856307084625 0.9921777857618246 -0.07331082468260662 0.006283663922192618 0.031325790968909174
0.131304710296 0.006670270340482799 0.033043363573722326 0.9916622788061203 -0.07710774445015199 0.0020109793255876523 0.014760014232569865 -0.001721709582602479 -0.009488374452889652
 0.9916622788061203 -0.07710774445015199 0.006676307088263294 0.033042798159842075 -0.0017215399437803278 -0.009488382210974915 0.001979863039436532 0.014764382908897297
 0.0020109793255876523 0.014760014232569865 -0.0017215399437803278 -0.009488382210974915 0.006670633850085046 0.03304501638698627 0.9916623690453995 -0.0771059697164982
 -0.001721709582602479 -0.009488374452889652 0.001979863039436532 0.014764382908897297 0.9916623690453995 -0.0771059697164982 0.006676090098021211 0.03304452508094775
0.1375573155481 0.0069833721065166365 0.03455111972204532 0.9912212984252724 -0.08069078312426768 0.002161555327931906 0.015441952696686622 -0.0018463528130538073 -0.009921713903152635
 0.9912212984252724 -0.08069078312426768 0.006989997737131672 0.034550509661049715 -0.0018461667461743424 -0.009921723052466273 0.0021274564652466773 0.015446808859271325
 0.002161555327931906 0.015441952696686622 -0.0018461667461743424 -0.009921723052466273 0.006983769675230324 0.034552842895934445 0.991221397615268 -0.08068892145855518
 -0.0018463528130538073 -0.009921713903152635 0.0021274564652466773 0.015446808859271325 0.991221397615268 -0.08068892145855518 0.0069897590109857044 0.034552315090612566
0.1438099208003 0.007307341349496447 0.03605171258306403 0.9907650905947679 -0.0842655133908116 0.0023182157447565743 0.01612154090008645 -0.001975989129802771 -0.010352906226206634
 0.9907650905947679 -0.0842655133908116 0.007314583369140215 0.03605105536055852 -0.0019757858779957467 -0.010352916902307444 0.0022810027344456318 0.016126920572952716
 0.0023182157447565743 0.01612154090008645 -0.0019757858779957467 -0.010352916902307444 0.007307774367946581 0.0360535050145571 0.9907651992218064 -0.08426356444992843
 -0.001975989129802771 -0.010352906226206634 0.0022810027344456318 0.016126920572952716 0.9907651992218064 -0.08426356444992843 0.0073143218234105935 0.03605293879548763
0.1500625260525 0.007642074072707096 0.037545039639985234 0.9902937626801376 -0.08783186954701365 0.0024809123772476602 0.016798723239514486 -0.002110571880025703 -0.01078189867716374
 0.9902937626801376 -0.08783186954701365 0.007649960008781911 0.03754433261733452 -0.002110350686350329 -0.010781911021178375 0.0024404543304447674 0.01680466375628874
 0.0024809123772476602 0.016798723239514486 -0.002110350686350329 -0.010781911021178375 0.0076425439104157765 0.03754690018179818 0.9902938812410675 -0.08782983297545213
 -0.002110571880025703 -0.01078189867716374 0.0024404543304447674 0.01680466375628874 0.9902938812410675 -0.08782983297545213 0.007649674551254528 0.03754629353237792
0.15631513130469998 0.007987465662721063 0.039031001586563294 0.9898074224577564 -0.09138978567695402 0.0026495965252133448 0.017473444949570306 -0.002250053900258541 -0.011208639547783696
