! Created with skrf 1.8.0 (http://scikit-rf.org).
# GHz S RI R 50.0 
!freq ReS11 ImS11 ReS12 ImS12 ReS13 ImS13
! ReS14 ImS14
! ReS21 ImS21 ReS22 ImS22 ReS23 ImS23
! ReS24 ImS24
! ReS31 ImS31 ReS32 ImS32 ReS33 ImS33
! ReS34 ImS34
! ReS41 ImS41 ReS42 ImS42 ReS43 ImS43
! ReS44 ImS44
!
0.0 0.001236364094858 0.0 0.9987636358979 0.0 4.714198339142e-05 0.0 -4.714198334754e-05 5.773227901202269e-21
 0.9987636358979 0.0 0.00123636409484 0.0 -4.714198334676e-05 5.7732279011067464e-21 4.714198339166e-05 0.0
 4.714198339142e-05 0.0 -4.714198334676e-05 5.7732279011067464e-21 0.001236364094843 0.0 0.9987636358979 0.0
 -4.714198334754e-05 5.773227901202269e-21 4.714198339166e-05 0.0 0.9987636358979 0.0 0.001236364094862 0.0
0.005 0.001329487254825155 0.001012481275760744 0.9986459347783252 -0.0025907712982186372 6.557203636743337e-05 0.0005161350745219511 -6.374621461876175e-05 -0.0003246748559894344
 0.9986459347783252 -0.0025907712982186372 0.001329498596906396 0.0010124747094839267 -6.374699104273455e-05 -0.00032467549184882677 6.548164200623603e-05 0.0005161691495323327
 6.557203636743337e-05 0.0005161350745219511 -6.374699104273455e-05 -0.00032467549184882677 0.0013294869851562898 0.0010125487238879457 0.9986459351094964 -0.0025907042380964446
 -6.374621461876175e-05 -0.0003246748559894344 6.548164200623603e-05 0.0005161691495323327 0.9986459351094964 -0.0025907042380964446 0.0013294995297543262 0.0010125413837131047
0.006252605252188 0.0013536970096773727 0.0012696119339356544 0.998615175555509 -0.0032391304908203594 7.072615389120399e-05 0.0006454332756083934 -6.8335882427411e-05 -0.0004062748033536377
 0.998615175555509 -0.0032391304908203594 0.0013537147394386683 0.001269603663377068 -6.833709031193587e-05 -0.0004062755884882408 7.058491531038605e-05 0.0006454775291419889
 7.072615389120399e-05 0.0006454332756083934 -6.833709031193587e-05 -0.0004062755884882408 0.001353696515885385 0.001269696240162532 0.9986151760013741 -0.003239046674766416
 -6.8335882427411e-05 -0.0004062748033536377 7.058491531038605e-05 0.0006454775291419889 0.9986151760013741 -0.003239046674766416 0.0013537161261477182 0.0012696869935824315
0.01250521050438 0.0014798986827316172 0.0025661153026631496 0.9984539295066817 -0.006479248575645771 9.969572469329704e-05 0.001291298233290509 -9.384924559440056e-05 -0.0008146489796449966
 0.9984539295066817 -0.006479248575645771 0.0014799694732655127 0.0025660981508519518 -9.385400236798954e-05 -0.0008146504457013373 9.913234177052937e-05 0.0012914043812914506
 9.969572469329704e-05 0.001291298233290509 -9.385400236798954e-05 -0.0008146504457013373 0.0014798961329190131 0.0025662837327835196 0.9984539307140973 -0.0064790811877696855
 -9.384924559440056e-05 -0.0008146489796449966 9.913234177052937e-05 0.0012914043812914506 0.9984539307140973 -0.0064790811877696855 0.001479974443649899 0.0025662645328985174
0.01875781575657 0.0016152002442488115 0.0038814108600016823 0.9982797292633332 -0.009728283716045023 0.00013411028614575857 0.0019380495318214062 -0.00012375094764665632 -0.0012245656851665118
 0.9982797292633332 -0.009728283716045023 0.0016153592988554875 0.0038813841966854434 -0.00012376155098528212 -0.0012245677127581166 0.00013284433602422794 0.001938238076360637
 0.00013411028614575857 0.0019380495318214062 -0.00012376155098528212 -0.0012245677127581166 0.0016151940807011354 0.003881663390014769 0.9982797315525912 -0.009728032871012812
 -0.00012375094764665632 -0.0012245656851665118 0.00013284433602422794 0.001938238076360637 0.9982797315525912 -0.009728032871012812 0.0016153700563616414 0.0038816334802746167
0.02501042100875 0.0017598282437217777 0.005213703984715692 0.9980924009993579 -0.012987855180352632 0.00017403060045898317 0.0025857402355634164 -0.00015810832061641063 -0.0016358667185615114
 0.9980924009993579 -0.012987855180352632 0.001760110685891142 0.005213667177080875 -0.00015812703965335936 -0.001635869170671087 0.00017178130854427517 0.002586034428669127
 0.00017403060045898317 0.0025857402355634164 -0.00015812703965335936 -0.001635869170671087 0.0017598169059879136 0.005214040651515066 0.9980924046900493 -0.012987520959908034
 -0.00015810832061641063 -0.0016358667185615114 0.00017178130854427517 0.002586034428669127 0.9980924046900493 -0.012987520959908034 0.0017601294370249362 0.005213999243974071
0.03126302626094 0.0019139995555641095 0.00656209365762069 0.9978917605476945 -0.016258683042750344 0.00021951821073182433 0.003234365124035941 -0.00019698719976443986 -0.0020484491434379897
 0.9978917605476945 -0.016258683042750344 0.0019144404489470227 0.006562046074965004 -0.00019701628006807466 -0.0020484518651068097 0.00021600418263260373 0.003234790985688156
 0.00021951821073182433 0.003234365124035941 -0.00019701628006807466 -0.0020484518651068097 0.001913981477648841 0.006562514537378422 0.9978917659561773 -0.016258265517338086
 -0.00019698719976443986 -0.0020484491434379897 0.00021600418263260373 0.003234790985688156 0.9978917659561773 -0.016258265517338086 0.0019144694020854492 0.006562460817210109
0.037515631513130004 0.0020779265372325583 0.007926009458988591 0.9976776186513633 -0.019541151139862028 0.00027063481780128785 0.0038838963514698298 -0.00024045241254124888 -0.002462229612383908
 0.9976776186513633 -0.019541151139862028 0.002078560899066993 0.007925950475769833 -0.00024049407871876553 -0.0024622324306289977 0.0002655739108580559 0.0038844827005280183
 0.00027063481780128785 0.0038838963514698298 -0.00024049407871876553 -0.0024622324306289977 0.0020779001484769475 0.007926514666296606 0.9976776260916894 -0.019540650369614217
 -0.00024045241254124888 -0.002462229612383908 0.0002655739108580559 0.0038844827005280183 0.9976776260916894 -0.019540650369614217 0.002078602265850466 0.007926447794513933
0.043768236765320004 0.0022518190371789877 0.009305040258649925 0.9974497830668096 -0.022835478328523152 0.00032744199779176353 0.004534294286240138 -0.0002885679654132981 -0.0028771335140499654
 0.9974497830668096 -0.022835478328523152 0.002252681849288986 0.009304969256819355 -0.0002886244227324387 -0.0028771362378451236 0.000320551252127702 0.004535072775406358
 0.00032744199779176353 0.004534294286240138 -0.0002886244227324387 -0.0028771362378451236 0.0022517827646854776 0.009305629929560987 0.9974497928529292 -0.02283489438035948
 -0.0002885679654132981 -0.0028771335140499654 0.000320551252127702 0.004535072775406358 0.9974497928529292 -0.02283489438035948 0.0022527378470631803 0.009305549044974229
0.050020842017509996 0.0024358853352614025 0.01069886339069009 0.9972080596017611 -0.02614178925698081 0.0003900010419988538 0.005185511986645823 -0.0003413971212291947 -0.0032930904850549518
 0.9972080596017611 -0.02614178925698081 0.002437011553315255 0.010698779761751015 -0.0003414705566846112 -0.0032930929053265373 0.0003809966428824775 0.005186517139194515
 0.0003900010419988538 0.005185511986645823 -0.0003414705566846112 -0.0032930929053265373 0.002435837602723941 0.010699537691749594 0.997208072046304 -0.026141122195710673
 -0.0003413971212291947 -0.0032930904850549518 0.0003809966428824775 0.005186517139194515 0.997208072046304 -0.026141122195710673 0.0024370844039694117 0.010699441912600872
0.055454545454549996 0.0026042678418234837 0.011921941275183132 0.996986564083695 -0.029024857586968825 0.0004490852723040953 0.0057520653225239925 -0.0003911838770176151 -0.00365537183209109
 0.996986564083695 -0.029024857586968825 0.002605651342065969 0.011921846187507433 -0.0003912738294377262 -0.0036553738047948913 0.00043801287379171286 0.00575329774725217
 0.0004490852723040953 0.0057520653225239925 -0.0003912738294377262 -0.0036553738047948913 0.002604208867177595 0.011922689277407422 0.9969865790907758 -0.029024118352974665
 -0.0003911838770176151 -0.00365537183209109 0.00043801287379171286 0.00575329774725217 0.9969865790907758 -0.029024118352974665 0.0026057406463181844 0.01192257982335916
0.056273447269699996 0.0026303326364096715 0.01210720991465877 0.9969522527086927 -0.02946014904894599 0.00045837284927719373 0.005837497392410565 -0.0003990024291651669 -0.0037100322072929444
 0.9969522527086927 -0.02946014904894599 0.002631757198508958 0.012107113061484081 -0.00039909501217682365 -0.0037100340969390033 0.00044697010833386053 0.005838766639795636
 0.00045837284927719373 0.005837497392410565 -0.00039909501217682365 -0.0037100340969390033 0.002630271863819096 0.012107969040428518 0.9969522681222424 -0.02945939893997381
 -0.0003990024291651669 -0.0037100322072929444 0.00044697010833386053 0.005838766639795636 0.9969522681222424 -0.02945939893997381 0.002631849128453528 0.012107857465695263
0.06252605252188 0.002835367349625674 0.013529845504597656 0.9966821658652255 -0.032790582360377005 0.000532617845208925 0.006490194526043793 -0.0004614457299770368 -0.004127891196616183
 0.9966821658652255 -0.032790582360377005 0.002837125184618671 0.013529734842913912 -0.0004615596129990769 -0.004127892310520588 0.0005185311938767864 0.006491768245982855
 0.000532617845208925 0.006490194526043793 -0.0004615596129990769 -0.004127892310520588 0.0028352919545066324 0.013530689672135644 0.9966821845571443 -0.032789749275314924
 -0.0004614457299770368 -0.004127891196616183 0.0005185311938767864 0.006491768245982855 0.9966821845571443 -0.032789749275314924 0.002837238425409905 0.01353056138270655
0.06877865777407 0.0030511952475750326 0.014966559051408602 0.9963976018373714 -0.036133084723724264 0.0006127959156067659 0.007143544207622614 -0.0005287881477442712 -0.004546600079414996
 0.9963976018373714 -0.036133084723724264 0.0030533212829232667 0.01496643401127294 -0.0005289254666095407 -0.004546600154469575 0.0005957389072531177 0.007145465762447008
 0.0006127959156067659 0.007143544207622614 -0.0005289254666095407 -0.004546600154469575 0.003051103644378367 0.01496748850878277 0.9963976241151291 -0.03613216873210151
 -0.0005287881477442712 -0.004546600079414996 0.0005957389072531177 0.007145465762447008 0.9963976241151291 -0.03613216873210151 0.003053458070917681 0.014967342568318063
0.07503126302626001 0.0032780215580385406 0.01641715545221996 0.9960983628772314 -0.039487629706200046 0.0006989663491273522 0.007797484506481882 -0.000601090072475681 -0.004966091133742604
 0.9960983628772314 -0.039487629706200046 0.0032805507277860364 0.016417015479176893 -0.0006012529467632598 -0.004966089888871733 0.0006786516674993198 0.0077998002815914845
 0.0006989663491273522 0.007797484506481882 -0.0006012529467632598 -0.004966089888871733 0.003277912159181389 0.016418170471396477 0.996098389046752 -0.039486630882752845
 -0.000601090072475681 -0.004966091133742604 0.0006786516674993198 0.0077998002815914845 0.996098389046752 -0.039486630882752845 0.003280713304563973 0.016418005927127815
0.08128386827845 0.003516051012332877 0.017881450787641192 0.9957842508787329 -0.04285417368168798 0.000791187784913189 0.008451951039740838 -0.0006784111375420487 -0.005386295985095512
 0.9957842508787329 -0.04285417368168798 0.003519018264659856 0.01788129534374151 -0.0006786016707799106 -0.005386293121279662 0.0007673272573772149 0.008454710482115664
 0.000791187784913189 0.008451951039740838 -0.0006786016707799106 -0.005386293121279662 0.00351592222844212 0.017882551665825756 0.9957842812444809 -0.04285309210511034
 -0.0006784111375420487 -0.005386295985095512 0.0007673272573772149 0.008454710482115664 0.9957842812444809 -0.04285309210511034 0.0035192088771984187 0.017882367549078605
0.08753647353064001 0.0037654878646971738 0.019359269007123082 0.9954550675067727 -0.04623265909587986 0.0008895181637816037 0.009106877179093137 -0.0007608101928578154 -0.005807145395541274
 0.9954550675067727 -0.04623265909587986 0.0037689281700069256 0.01935909757174665 -0.0007610304727282162 -0.00580714059584132 0.0008618227786016832 0.009110132835743363
 0.0008895181637816037 0.009106877179093137 -0.0007610304727282162 -0.00580714059584132 0.0037653381045960107 0.019360456066330457 0.9954551023711737 -0.0462314948494083
 -0.0007608101928578154 -0.005807145395541274 0.0008618227786016832 0.009110132835743363 0.9954551023711737 -0.0462314948494083 0.0037691490702517726 0.019360251392952946
0.09378907878283 0.004026535892599692 0.020850439542769727 0.9951106143097441 -0.04962301680466128 0.0009940146817555599 0.0097621941984001 -0.0008483452752951411 -0.006228569113688696
 0.9951106143097441 -0.04962301680466128 0.004030484251059794 0.020850251613354125 -0.0008485973737489432 -0.006228562043275153 0.0009621946084302863 0.009766001754741302
 0.0009940146817555599 0.0097621941984001 -0.0008485973737489432 -0.006228562043275153 0.004026363563539583 0.02085171313296959 0.9951106539727655 -0.0496217699731579
 -0.0008483452752951411 -0.006228569113688696 0.0009621946084302863 0.009766001754741302 0.9951106539727655 -0.0496217699731579 0.004030737695988284 0.02085148690349564
0.100041684035 0.004299398382392653 0.022354795569950323 0.9947506928180548 -0.053025167767504974 0.0011047337447341278 0.010417831382115722 -0.000941073577104255 -0.006650495765547397
 0.9947506928180548 -0.053025167767504974 0.004303889832065633 0.022354590662366874 -0.0009413595504956391 -0.006650486071727972 0.0010684983571472735 0.010422249700197029
 0.0011047337447341278 0.010417831382115722 -0.0009413595504956391 -0.006650486071727972 0.004299201891076051 0.02235615606538253 0.9947507375784811 -0.05302383844120521
 -0.000941073577104255 -0.006650495765547397 0.0010684983571472735 0.010422249700197029 0.9947507375784811 -0.05302383844120521 0.00430417808418274 0.022355907265059285
0.1059090909091 0.004566376646237482 0.023778319729432482 0.9943986997003968 -0.056228373459699124 0.0012143406919460364 0.01103330386021495 -0.001032862604767035 -0.007046821954726376
 0.9943986997003968 -0.056228373459699124 0.004571409636545339 0.023778098466063352 -0.0010331822225808902 -0.007046809462461639 0.0011736969925963863 0.011038351710937328
 0.0012143406919460364 0.01103330386021495 -0.0010331822225808902 -0.007046809462461639 0.004566156031389034 0.023779762140287052 0.9943987495135865 -0.05622696680566084
 -0.001032862604767035 -0.007046821954726376 0.0011736969925963863 0.011038351710937328 0.9943987495135865 -0.05622696680566084 0.004571732613802187 0.023779491222944583
0.1062942892872 0.004584278106188579 0.023872172686402737 0.9943751046372767 -0.056439024324171416 0.0012217309246192146 0.01107371610790023 -0.001039051412291423 -0.007072852772974877
 0.9943751046372767 -0.056439024324171416 0.004589347730691847 0.023871950335315736 -0.001039373301440067 -0.0070728400852214345 0.0011807888264456924 0.011078807264469852
 0.0012217309246192146 0.01107371610790023 -0.001039373301440067 -0.0070728400852214345 0.004584055858503239 0.023873620488845105 0.9943751547913061 -0.05643761259554603
 -0.001039051412291423 -0.007072852772974877 0.0011807888264456924 0.011078807264469852 0.9943751547913061 -0.05643761259554603 0.004589673057552662 0.023873348087468473
0.11254689453939999 0.004881377288990212 0.0254024079135903 0.9939836515324302 -0.059864491151064105 0.0013450609156322967 0.011729773907706255 -0.0011423341820040317 -0.007495566295476555
 0.9939836515324302 -0.059864491151064105 0.004887060225752409 0.02540216767246742 -0.0011426940122490625 -0.007495550225461306 0.0012991199678556932 0.011735603232048418
 0.0013450609156322967 0.011729773907706255 -0.0011426940122490625 -0.007495550225461306 0.004881127690526287 0.025403943449007524 0.9939837073739262 -0.05986299711832058
 -0.0011423341820040317 -0.007495566295476555 0.0012991199678556932 0.011735603232048418 0.9939837073739262 -0.05986299711832058 0.004887424900080286 0.025403646400526413
0.11879949979160001 0.005190897571411066 0.026945338901467778 0.993576135509954 -0.06330146601630951 0.0014747774912654552 0.012385928521886852 -0.001250976338616808 -0.00791856118085934
 0.993576135509954 -0.06330146601630951 0.005197229019682558 0.026945080342483992 -0.0012513761198705332 -0.007918541322477072 0.0014235448414745976 0.012392564633479783
 0.0014747774912654552 0.012385928521886852 -0.0012513761198705332 -0.007918541322477072 0.0051906190278410026 0.026946962623368327 0.993576197330365 -0.0632998897801037
 -0.001250976338616808 -0.00791856118085934 0.0014235448414745976 0.012392564633479783 0.993576197330365 -0.0632998897801037 0.005197635319169623 0.026946639865367994
0.1250521050438 0.005513039966229797 0.0285008033112694 0.9931523588957021 -0.06674984035882663 0.0016109334613362946 0.013042101939060368 -0.0013650313489303486 -0.008341760932072336
 0.9931523588957021 -0.06674984035882663 0.005520055195376529 0.028500526024987902 -0.0013654730756928525 -0.00834173686148549 0.00155411557482884 0.013049616784897609
 0.0016109334613362946 0.013042101939060368 -0.0013654730756928525 -0.00834173686148549 0.005512730883854799 0.02850251569784958 0.9931524269843114 -0.06674818202531543
 -0.0013650313489303486 -0.008341760932072336 0.00155411557482884 0.013049616784897609 0.9931524269843114 -0.06674818202531543 0.0055205054030413245 0.02850216615068855
0.131304710296 0.005848004812067259 0.030068638311262965 0.992712124411054 -0.07020949975675403 0.0017535806294370771 0.013698214430531127 -0.0014845516564226254 -0.00876508768147717
 0.992712124411054 -0.07020949975675403 0.00585573916981466 0.030068341906026506 -0.0014850373077787149 -0.008765058957137943 0.0016908833217666667 0.01370668332216939
 0.0017535806294370771 0.013698214430531127 -0.0014850373077787149 -0.008765058957137943 0.005847663597943432 0.030070439868040172 0.9927121990543788 -0.07020775943493356
 -0.0014845516564226254 -0.00876508768147717 0.0016908833217666667 0.01370668332216939 0.9927121990543788 -0.07020775943493356 0.005856235573598105 0.030070062433930286
0.1375573155481 0.006112218438172068 0.03144379410793018 0.9923390284439014 -0.07347538022470533 0.0018830907271683679 0.0143330659358307 -0.001589990283760535 -0.009167300836154834
 0.9923390284439014 -0.07347538022470533 0.0061207114844179745 0.03144348346536293 -0.0015905228807793577 -0.00916726750848256 0.001814378158773262 0.014342466308845841
 0.0018830907271683679 0.0143330659358307 -0.0015905228807793577 -0.00916726750848256 0.006111844162337297 0.031445685144069105 0.9923391099357304 -0.073473558020691
 -0.001589990283760535 -0.009167300836154834 0.001814378158773262 0.014342466308845841 0.9923391099357304 -0.073473558020691 0.006121255701641929 0.03144528440789982
0.1438099208003 0.00638547532673383 0.0328128222648522 0.9919532636308245 -0.0767341140721822 0.0020178396719526368 0.014965986370828709 -0.0016996579480803918 -0.00956777049962316
 0.9919532636308245 -0.0767341140721822 0.006394763209815257 0.03281249716580323 -0.0017002396355166166 -0.009567732140640115 0.0019428454171577267 0.01497638595011948
 0.0020178396719526368 0.014965986370828709 -0.0017002396355166166 -0.009567732140640115 0.0063850665185926385 0.032814803289898054 0.9919533522548849 -0.0767322101021476
 -0.0016996579480803918 -0.00956777049962316 0.0019428454171577267 0.01497638595011948 0.9919533522548849 -0.0767322101021476 0.0063953574147991 0.032814378350173846
0.1500625260525 0.006667692932733616 0.0341756416859205 0.9915549153633265 -0.07998565430857799 0.002157789531629001 0.015596932274264516 -0.0018135182798432112 -0.00996645564187918
 0.9915549153633265 -0.07998565430857799 0.0066778119107078985 0.03417530186547894 -0.001814151200242711 -0.009966411806486154 0.0020762483936974424 0.015608401225958177
 0.002157789531629001 0.015596932274264516 -0.001814151200242711 -0.009966411806486154 0.006667248130641295 0.0341777132313311 0.9915550114006337 -0.07998366869162293
 -0.0018135182798432112 -0.00996645564187918 0.0020762483936974424 0.015608401225958177 0.9915550114006337 -0.07998366869162293 0.006678458275024054 0.03417726311483659
0.15631513130469998 0.0069587882845518305 0.035532173924938314 0.9911440692890161 -0.08322995347821953 0.00230290202325664 0.01622586077591363 -0.001931534549827836 -0.010363316007334613
