! Created with skrf 1.8.0 (http://scikit-rf.org).
# GHz S RI R 50.0 
!freq ReS11 ImS11 ReS12 ImS12 ReS13 ImS13
! ReS14 ImS14
! ReS21 ImS21 ReS22 ImS22 ReS23 ImS23
! ReS24 ImS24
! ReS31 ImS31 ReS32 ImS32 ReS33 ImS33
! ReS34 ImS34
! ReS41 ImS41 ReS42 ImS42 ReS43 ImS43
! ReS44 ImS44
!
0.0 0.001675053461567 0.0 0.9983249464855 0.0 6.493632233709e-05 0.0 -6.493632244806e-05 7.952405943441709e-21
 0.9983249464855 0.0 0.001675053461563 0.0 -6.493632244771e-05 7.952405943398848e-21 6.49363223366e-05 0.0
 6.493632233709e-05 0.0 -6.493632244771e-05 7.952405943398848e-21 0.001675053488017 0.0 0.998324946512 0.0
 -6.493632244806e-05 7.952405943441709e-21 6.49363223366e-05 0.0 0.998324946512 0.0 0.001675053488027 0.0
0.005 0.0018026467183475789 0.0013680249902969276 0.9981634406616451 -0.00350841921444576 9.157662102545618e-05 0.000727375054209503 -8.877915604546829e-05 -0.00045441447285372855
 0.9981634406616451 -0.00350841921444576 0.0018026699313401888 0.001368011479928737 -8.878033455470498e-05 -0.0004544154304009667 9.142733234964028e-05 0.000727431922587694
 9.157662102545618e-05 0.000727375054209503 -8.878033455470498e-05 -0.0004544154304009667 0.001802645480908523 0.0013679584884424966 0.9981634402879198 -0.0035084862786001953
 -8.877915604546829e-05 -0.00045441447285372855 9.142733234964028e-05 0.000727431922587694 0.9981634402879198 -0.0035084862786001953 0.0018026704324930407 0.0013679438648760056
0.006252605252188 0.0018362311896338353 0.0017154045167528502 0.9981206387911642 -0.0043863631183297365 9.927042526962928e-05 0.0009095566018238895 -9.556897170332564e-05 -0.0005686007229862217
 0.9981206387911642 -0.0043863631183297365 0.0018362674753293266 0.0017153873539664016 -9.557080513401783e-05 -0.0005686019045492224 9.903717689153595e-05 0.0009096304735204012
 9.927042526962928e-05 0.0009095566018238895 -9.557080513401783e-05 -0.0005686019045492224 0.0018362293292243604 0.0017153214155266857 0.9981206382812211 -0.004386446933992934
 -9.556897170332564e-05 -0.0005686007229862217 9.903717689153595e-05 0.0009096304735204012 0.9981206382812211 -0.004386446933992934 0.0018362683336445491 0.0017153028489618296
0.01250521050438 0.002013729508271187 0.0034666297267480573 0.9978928217039656 -0.00877339832057969 0.00014382874504269497 0.0018193680621156158 -0.00013440511748037277 -0.0011398859784128852
 0.9978928217039656 -0.00877339832057969 0.002013874391989929 0.0034665926366387726 -0.00013441233768820998 -0.0011398881725564794 0.00014289862766183014 0.0018195460271958623
 0.00014382874504269497 0.0018193680621156158 -0.00013441233768820998 -0.0011398881725564794 0.0020137226536002272 0.0034664638993523677 0.9978928202440318 -0.008773565737886043
 -0.00013440511748037277 -0.0011398859784128852 0.00014289862766183014 0.0018195460271958623 0.9978928202440318 -0.008773565737886043 0.0020138784080773707 0.0034664238600166397
0.01875781575657 0.002207962342194436 0.0052426163692028994 0.9976411935445342 -0.013171754503805904 0.00019871730278097044 0.0027300336895483075 -0.00018157005966176802 -0.0017129976705541334
 0.9976411935445342 -0.013171754503805904 0.002208287893528792 0.005242556402110506 -0.00018158615364295718 -0.0017130006749974884 0.000196627957214182 0.0027303522592040472
 0.00019871730278097044 0.0027300336895483075 -0.00018158615364295718 -0.0017130006749974884 0.002207947358502012 0.005242368141662795 0.9976411906845768 -0.013172005476388284
 -0.00018157005966176802 -0.0017129976705541334 0.000196627957214182 0.0027303522592040472 0.9976411906845768 -0.013172005476388284 0.002208297365585824 0.00524230348153661
0.02501042100875 0.0024193297690295185 0.007040842065465568 0.9973654400195429 -0.01758353009750601 0.00026404400176784564 0.0036415704634427293 -0.000237184403100021 -0.002287652653237821
 0.9973654400195429 -0.01758353009750601 0.0024199079105676953 0.007040756111552005 -0.0002372128136096087 -0.002287656228749557 0.00026033295654181505 0.003642072240446128
 0.00026404400176784564 0.0036415704634427293 -0.0002372128136096087 -0.002287656228749557 0.002419303525127609 0.007040511815137085 0.9973654353046993 -0.01758386464537425
 -0.000237184403100021 -0.002287652653237821 0.00026033295654181505 0.003642072240446128 0.9973654353046993 -0.01758386464537425 0.0024199251464764823 0.007040419171545967
0.03126302626094 0.0026482152656923247 0.008859991766141198 0.9970652317999366 -0.02200960260388337 0.00033991706131853425 0.00455390953054739 -0.00030136492874343446 -0.002863646152931728
 0.9970652317999366 -0.02200960260388337 0.0026491178157755538 0.008859876560702314 -0.0003014090617440845 -0.0028636500229778403 0.0003341213192292243 0.004554643245223432
 0.00033991706131853425 0.00455390953054739 -0.0003014090617440845 -0.0028636500229778403 0.0026481746389151973 0.008859579951408661 0.99706522477411 -0.022010020784302538
 -0.00030136492874343446 -0.002863646152931728 0.0003341213192292243 0.004554643245223432 0.99706522477411 -0.022010020784302538 0.0026491451395378586 0.008859455751779162
0.037515631513130004 0.0028949936729540976 0.010699195175646783 0.9967402327926913 -0.026450391114280557 0.0004264438329637842 0.005466947801028453 -0.0003742254412706512 -0.003440800182356853
 0.9967402327926913 -0.026450391114280557 0.002896292375417659 0.010699047301721854 -0.00037428866977436755 -0.003440804033013921 0.00041809969493959736 0.005467968371302288
 0.0004264438329637842 0.005466947801028453 -0.00037428866977436755 -0.003440804033013921 0.0028949355452263354 0.010698702332211112 0.9967402229924233 -0.026450893026049818
 -0.0003742254412706512 -0.003440800182356853 0.00041809969493959736 0.005467968371302288 0.9967402229924233 -0.026450893026049818 0.0028963321236310756 0.010698542796078073
0.043768236765320004 0.0031600342595468614 0.012557794664262992 0.9963901035167567 -0.030906088326908672 0.000523730238514274 0.00638056364467428 -0.0004558770599990621 -0.004018947861217177
 0.9963901035167567 -0.030906088326908672 0.0031618008077206106 0.01255761055416778 -0.00045596272630848224 -0.00401895134119163 0.0005123732290965011 0.006381932243553723
 0.000523730238514274 0.00638056364467428 -0.00045596272630848224 -0.00401895134119163 0.003159955520931313 0.012557221409666388 0.9963900904724 -0.030906674106554382
 -0.0004558770599990621 -0.004018947861217177 0.0005123732290965011 0.006381932243553723 0.9963900904724 -0.030906674106554382 0.0031618553333540573 0.012557022549426452
0.050020842017509996 0.0034437021337883457 0.014435249360000986 0.9960145028315356 -0.035376756383728086 0.0006318804263014764 0.007294623379172412 -0.0005464283128166689 -0.004597926950286666
 0.9960145028315356 -0.035376756383728086 0.0034460081919993266 0.014435025296038746 -0.0005465397300086549 -0.004597929670963552 0.0006170452731333849 0.007296407505073657
 0.0006318804263014764 0.007294623379172412 -0.0005465397300086549 -0.004597929670963552 0.0034435996821382095 0.014434596404377489 0.996014486064157 -0.03537742619533211
 -0.0005464283128166689 -0.004597926950286666 0.0006170452731333849 0.007296407505073657 0.996014486064157 -0.03537742619533211 0.0034460798638309242 0.014434354025119759
0.055454545454549996 0.0037056267100468625 0.016081759955241488 0.9956671431245723 -0.03927404547758593 0.0007347683075315782 0.008089218959355597 -0.0006324300322555689 -0.005101627671764314
 0.9956671431245723 -0.03927404547758593 0.003708459811872139 0.016081498034348225 -0.0006325664964357467 -0.005101629388033294 0.0007165320744031945 0.008091423974154
 0.0007347683075315782 0.008089218959355597 -0.0006325664964357467 -0.005101629388033294 0.0037055011395979364 0.01608103837734792 0.9956671227256636 -0.03927478847891912
 -0.0006324300322555689 -0.005101627671764314 0.0007165320744031945 0.008091423974154 0.9956671227256636 -0.03927478847891912 0.003708548321625981 0.016080754610320463
0.056273447269699996 0.0037463589539738482 0.016331088095781172 0.9956130889698529 -0.03986237385481983 0.0007509965236207067 0.008208984460984975 -0.0006459851418785104 -0.005177576688614882
 0.9956130889698529 -0.03986237385481983 0.0037492761780574813 0.016330820210119213 -0.000646125594833634 -0.005177578224102132 0.000732217170256592 0.008211258009137593
 0.0007509965236207067 0.008208984460984975 -0.000646125594833634 -0.005177578224102132 0.0037462296972996757 0.0163303562324636 0.995613067991167 -0.03986312790002769
 -0.0006459851418785104 -0.005177576688614882 0.000732217170256592 0.008211258009137593 0.995613067991167 -0.03986312790002769 0.0037493673822705863 0.016330065931118718
0.06252605252188 0.004068363298543704 0.01824488352326697 0.9951855202350967 -0.04436286156099468 0.0008811784379911747 0.00912349724941867 -0.0007546508643440599 -0.005757736063716354
 0.9951855202350967 -0.04436286156099468 0.004071963354717463 0.018244567797281633 -0.0007548236103576599 -0.005757735950922968 0.0008579880780291566 0.009126340583441766
 0.0008811784379911747 0.00912349724941867 -0.0007548236103576599 -0.005757735950922968 0.004068204156295765 0.01824407363541683 0.9951854945458911 -0.044363700072961976
 -0.0007546508643440599 -0.005757736063716354 0.0008579880780291566 0.009126340583441766 0.9951854945458911 -0.044363700072961976 0.004072076496448409 0.018243730799163017
0.06877865777407 0.004410070844161419 0.020176236690333346 0.9947314555117132 -0.0488780979387916 0.001022523684703556 0.01003800606358449 -0.0008725261073962067 -0.006338242795426805
 0.9947314555117132 -0.0488780979387916 0.0044144254282119265 0.02017586895325596 -0.0008727343767267908 -0.006338240534118919 0.0009944548118045631 0.010041506086803783
 0.001022523684703556 0.01003800606358449 -0.0008727343767267908 -0.006338240534118919 0.0044098787496844455 0.020175349752890977 0.9947314246011865 -0.04887902118068741
 -0.0008725261073962067 -0.006338242795426805 0.0009944548118045631 0.010041506086803783 0.9947314246011865 -0.04887902118068741 0.00441456293275169 0.020174949557028643
0.07503126302626001 0.004771834434786498 0.022124767271285217 0.9942505546713718 -0.05340792875976548 0.0011751272308558347 0.010952349864557894 -0.0009997087272132022 -0.006918932701504373
 0.9942505546713718 -0.05340792875976548 0.004777015290611397 0.022124343198176917 -0.0009999557233776103 -0.006918927754379768 0.0011417117003899137 0.010956600090578932
 0.0011751272308558347 0.010952349864557894 -0.0009999557233776103 -0.006918927754379768 0.004771606335774144 0.022123804348415994 0.9942505180148586 -0.053408937027789795
 -0.0009997087272132022 -0.006918932701504373 0.0011417117003899137 0.010956600090578932 0.9942505180148586 -0.053408937027789795 0.004777179603560037 0.022123341753459865
0.08128386827845 0.005154004078059631 0.024090107067461123 0.9937424789103388 -0.05795217358680556 0.0013390813491331896 0.011866362720614207 -0.0011362937176980499 -0.0074996392871704304
 0.9937424789103388 -0.05795217358680556 0.005160083016171236 0.024089622176504736 -0.001136582617701574 -0.007499631079931438 0.001299850449057662 0.01187146334314431
 0.0013390813491331896 0.011866362720614207 -0.001136582617701574 -0.007499631079931438 0.005153736939418759 0.02408906931415425 0.9937424359692159 -0.05795326720888203
 -0.0011362937176980499 -0.0074996392871704304 0.001299850449057662 0.01187146334314431 0.9937424359692159 -0.05795326720888203 0.005160276605544855 0.02408853906231296
0.08753647353064001 0.005556926896115453 0.026071895517294483 0.9932068910471324 -0.06251063022896493 0.001514475478130296 0.012779874137451002 -0.0012823731121409806 -0.008080193477193914
 0.9932068910471324 -0.06251063022896493 0.005563975812314085 0.026071345166452993 -0.0012827070666533555 -0.008080181398618047 0.0014689600074213524 0.012785932098908952
 0.001514475478130296 0.012779874137451002 -0.0012827070666533555 -0.008080181398618047 0.005556617701506504 0.026070784183090757 0.9932068412666768 -0.06251180956132216
 -0.0012823731121409806 -0.008080193477193914 0.0014689600074213524 0.012785932098908952 0.9932068412666768 -0.06251180956132216 0.005564201168934327 0.026070180794102525
0.09378907878283 0.005980947044045629 0.028069776495985937 0.9926434557898244 -0.06708307791508346 0.0017013960871402646 0.013692709310331836 -0.0014380358799521082 -0.00866042343349331
 0.9926434557898244 -0.06708307791508346 0.0059890379375490705 0.02806915587889165 -0.0014384180132926698 -0.008660406835519153 0.0016491264405392467 0.013699838369328008
 0.0017013960871402646 0.013692709310331836 -0.0014384180132926698 -0.008660406835519153 0.005980592797586176 0.028068592921978507 0.9926433985985981 -0.06708434334550603
 -0.0014380358799521082 -0.00866042343349331 0.0016491264405392467 0.013699838369328008 0.9926433985985981 -0.06708434334550603 0.005989297576713235 0.02806791068815446
0.100041684035 0.0064264056040598885 0.030083395975017104 0.9920518399853627 -0.07166927961629975 0.00189992654408485 0.014604689318488512 -0.0016033678195444246 -0.00924015443830137
 0.9920518399853627 -0.07166927961629975 0.006435610596472951 0.030082700116170834 -0.0016038012297767462 -0.009240132636102728 0.0018404328024482853 0.014613010115887622
 0.00189992654408485 0.014604689318488512 -0.0016038012297767462 -0.009240132636102728 0.006426003332437077 0.03008214159464078 0.9920517747933011 -0.07167063156334139
 -0.0016033678195444246 -0.00924015443830137 0.0018404328024482853 0.014613010115887622 0.9920517747933011 -0.07167063156334139 0.006435907058535346 0.030081374575282635
0.1059090909091 0.006864220246703619 0.03198696321663072 0.9914707467170547 -0.07598522872706744 0.0020968567781397417 0.015459545213506547 -0.0017673818648787478 -0.009783558476633201
 0.9914707467170547 -0.07598522872706744 0.006874536421767471 0.03198619207063205 -0.001767866187255836 -0.00978353113529896 0.002030156407165947 0.015469100239958546
 0.0020968567781397417 0.015459545213506547 -0.001767866187255836 -0.00978353113529896 0.0068637702262957425 0.031985643777340186 0.9914706734632476 -0.07598666226952903
 -0.0017673818648787478 -0.009783558476633201 0.002030156407165947 0.015469100239958546 0.9914706734632476 -0.07598666226952903 0.006874869772317532 0.03198479157959491
0.1062942892872 0.006893640463239982 0.03211240026637137 0.9914317128538731 -0.07626898379278714 0.0021101469857917497 0.015515631286321148 -0.0017784514487763712 -0.00981920881843646
 0.9914317128538731 -0.07626898379278714 0.006904031816928138 0.032111624015524705 -0.0017789392076495239 -0.00981918109050242 0.00204295901119289 0.015525271409836842
 0.0021101469857917497 0.015515631286321148 -0.0017789392076495239 -0.00981918109050242 0.006893187217856175 0.032111076604269144 0.9914316390517329 -0.07627042270699594
 -0.0017784514487763712 -0.00981920881843646 0.00204295901119289 0.015525271409836842 0.9914316390517329 -0.07627042270699594 0.006904367668925309 0.032110218619293786
0.11254689453939999 0.007382986177814181 0.03415643468702361 0.990782746214746 -0.0808819257295748 0.002332134189977853 0.016425348519672343 -0.0019633658934025736 -0.010397405902498246
 0.990782746214746 -0.0808819257295748 0.00739463631477484 0.03415557271291187 -0.001963911046294489 -0.010397371490735483 0.0022567817251796783 0.016436442566892712
 0.002332134189977853 0.016425348519672343 -0.001963911046294489 -0.010397371490735483 0.007382479036311514 0.03415504336372468 0.9907826631718955 -0.08088345208875944
 -0.0019633658934025736 -0.010397405902498246 0.0022567817251796783 0.016436442566892712 0.9907826631718955 -0.08088345208875944 0.007395014151038464 0.03415408798649691
0.11879949979160001 0.007894773827311203 0.036215142530730736 0.9901046147045551 -0.08550782857458639 0.0025659614487752473 0.01733365062760347 -0.0021581867740672425 -0.01097456200087921
 0.9901046147045551 -0.08550782857458639 0.007907755347889501 0.03621418931389554 -0.002158792339905667 -0.010974520110671319 0.002481974220705514 0.017346340267268185
 0.0025659614487752473 0.01733365062760347 -0.002158792339905667 -0.010974520110671319 0.00789420989610262 0.03621368525736534 0.9901045217684178 -0.08550944288897494
 -0.0021581867740672425 -0.01097456200087921 0.002481974220705514 0.017346340267268185 0.9901045217684178 -0.08550944288897494 0.007908177791350297 0.03621262580686289
0.1250521050438 0.008429330860169365 0.03828816425380458 0.9893969959898873 -0.09014640417246209 0.0028116984434846514 0.018240343631321723 -0.0023629860923067283 -0.011550490406854328
 0.9893969959898873 -0.09014640417246209 0.008443716561912196 0.03828711407864638 -0.002363655063465409 -0.011550440207194772 0.0027186062704033084 0.018254777662859496
 0.0028116984434846514 0.018240343631321723 -0.002363655063465409 -0.011550440207194772 0.008428707276537878 0.0382866428381294 0.9893968924842961 -0.09014810697836617
 -0.0023629860923067283 -0.011550490406854328 0.0027186062704033084 0.018254777662859496 0.9893968924842961 -0.09014810697836617 0.00844418626540394 0.038285472370229355
0.131304710296 0.008986980934273268 0.040375136842911545 0.988659570977635 -0.09479735372646217 0.003069411120394659 0.019145230068656604 -0.002577832116177847 -0.01212500141055805
 0.988659570977635 -0.09479735372646217 0.009002843830779898 0.04037398378895535 -0.0025785674583139666 -0.01212494203412778 0.002966744022481507 0.019161564479812165
 0.003069411120394659 0.019145230068656604 -0.0025785674583139666 -0.01212494203412778 0.008986294868145608 0.04037355318282404 0.9886594562014305 -0.09479914559244455
 -0.002577832116177847 -0.01212500141055805 0.002966744022481507 0.019161564479812165 0.9886594562014305 -0.09479914559244455 0.009003363477731905 0.040372264480787186
0.1375573155481 0.009444488080055016 0.04220359824416069 0.9880156337118261 -0.09918813533441286 0.0033084131628046665 0.020021436448003437 -0.002772162551352281 -0.01267116132716709
 0.9880156337118261 -0.09918813533441286 0.009461907704067582 0.04220236190638512 -0.0027729688263174687 -0.012671092653807814 0.003195936275031481 0.02003965569988114
 0.0033084131628046665 0.020021436448003437 -0.0027729688263174687 -0.012671092653807814 0.009443737430242589 0.04220195376227733 0.9880155071288649 -0.09919001661737682
 -0.002772162551352281 -0.01267116132716709 0.003195936275031481 0.02003965569988114 0.9880155071288649 -0.09919001661737682 0.009462478962338757 0.04220056577419953
0.1438099208003 0.009918215503272442 0.04402159090830817 0.9873487829459995 -0.10356694042717116 0.0035570613692567205 0.020893523768684953 -0.002974237138285299 -0.013213600489439467
 0.9873487829459995 -0.10356694042717116 0.009937266156889625 0.044020266790162986 -0.002975117560401588 -0.013213521656098468 0.003434347416136414 0.020913771298910703
 0.0035570613692567205 0.020893523768684953 -0.002975117560401588 -0.013213521656098468 0.009917397618190568 0.04401988754622287 0.9873486438526509 -0.10356891168689517
 -0.002974237138285299 -0.013213600489439467 0.003434347416136414 0.020913771298910703 0.9873486438526509 -0.10356891168689517 0.009937891571351118 0.04401839451406992
0.1500625260525 0.01040798345994961 0.04582893813850133 0.9866592029885887 -0.10793363485415491 0.0038152622931916895 0.021761384166111307 -0.0031839661964508845 -0.013752219592972128
 0.9866592029885887 -0.10793363485415491 0.010428739686381014 0.045827521436706965 -0.003184923973453897 -0.013752129701536794 0.0036818868990734174 0.021783808639715838
 0.0038152622931916895 0.021761384166111307 -0.003184923973453897 -0.013752129701536794 0.010407095728333423 0.04582717791386429 0.9866590506604688 -0.10793569667009674
 -0.0031839661964508845 -0.013752219592972128 0.0036818868990734174 0.021783808639715838 0.9866590506604688 -0.10793569667009674 0.010429421820527624 0.045825573724247774
0.15631513130469998 0.010913610773872894 0.04762546852117267 0.9859470792564243 -0.1122880854962178 0.004082921285992729 0.022624911772295326 -0.0034012588572776372 -0.014286921581303083
 0.9859470792564243 -0.1122880854962178 0.010936147364475965 0.047623954114767206 -0.003402297190291744 -0.014286819698716084 0.003938463024568854 0.022649667021053723
