! Created with skrf 1.8.0 (http://scikit-rf.org).
# GHz S RI R 50.0 
!freq ReS11 ImS11 ReS12 ImS12 ReS13 ImS13
! ReS14 ImS14
! ReS21 ImS21 ReS22 ImS22 ReS23 ImS23
! ReS24 ImS24
! ReS31 ImS31 ReS32 ImS32 ReS33 ImS33
! ReS34 ImS34
! ReS41 ImS41 ReS42 ImS42 ReS43 ImS43
! ReS44 ImS44
!
0.0 0.001598649039124 0.0 0.9984013509609 0.0 6.193382383552e-05 0.0 -6.193382348117e-05 7.584705868517203e-21
 0.9984013509609 0.0 0.00159864903912 0.0 -6.193382348113e-05 7.584705868512303e-21 6.193382383738e-05 0.0
 6.193382383552e-05 0.0 -6.193382348113e-05 7.584705868512303e-21 0.001598649026325 0.0 0.9984013509481 0.0
 -6.193382348117e-05 7.584705868517203e-21 6.193382383738e-05 0.0 0.9984013509481 0.0 0.001598649026325 0.0
0.005 0.0017202205642117868 0.0013043225581974944 0.9982475112211401 -0.003348784792169995 8.736582767381124e-05 0.000702409030270352 -8.47252810366674e-05 -0.0004373618155887403
 0.9982475112211401 -0.003348784792169995 0.0017202240420448724 0.001304320455783365 -8.472553927860428e-05 -0.00043736194039546835 8.73510476206124e-05 0.0007024147401542656
 8.736582767381124e-05 0.000702409030270352 -8.472553927860428e-05 -0.00043736194039546835 0.0017202211601248265 0.0013043894214818605 0.9982475115882892 -0.003348717736169949
 -8.47252810366674e-05 -0.0004373618155887403 8.73510476206124e-05 0.0007024147401542656 0.9982475115882892 -0.003348717736169949 0.0017202241731479162 0.0013043876976265587
0.006252605252188 0.0017521553762331994 0.0016355426013982108 0.9982068364995647 -0.004186793384760818 9.465702039249218e-05 0.0008783390832287211 -9.118599641393907e-05 -0.0005472691328404418
 0.9982068364995647 -0.004186793384760818 0.001752160813220782 0.0016355399065943485 -9.118639885562944e-05 -0.0005472692851419151 9.463392891870545e-05 0.0008783464857706243
 9.465702039249218e-05 0.0008783390832287211 -9.118639885562944e-05 -0.0005472692851419151 0.0017521562313347696 0.001635626170690555 0.9982068369965308 -0.004186709564524529
 -9.118599641393907e-05 -0.0005472691328404418 9.463392891870545e-05 0.0008783464857706243 0.9982068369965308 -0.004186709564524529 0.0017521609406668337 0.0016356239625199835
0.01250521050438 0.0019205597957624527 0.003305393977459638 0.9979908858486354 -0.008374350980154658 0.00013660444143701346 0.0017569544548508968 -0.0001279817926251148 -0.0010971754895169742
 0.9979908858486354 -0.008374350980154658 0.0019205815136454378 0.0033053879041621682 -0.00012798338570952234 -0.0010971757523585964 0.0001365123881988331 0.0017569721363822263
 0.00013660444143701346 0.0017569544548508968 -0.00012798338570952234 -0.0010971757523585964 0.0019205626411286604 0.0033055607619623326 0.9979908872593191 -0.008374183567172212
 -0.0001279817926251148 -0.0010971754895169742 0.0001365123881988331 0.0017569721363822263 0.9979908872593191 -0.008374183567172212 0.0019205814375328146 0.003305555804202061
0.01875781575657 0.0021042411915075973 0.004999012176617928 0.9977532226825568 -0.012572855119752266 0.00018787474917321114 0.0026364470482213736 -0.00017243727725603617 -0.0016488913378954744
 0.9977532226825568 -0.012572855119752266 0.0021042900093269454 0.00499900197736482 -0.00017244083978659226 -0.001648891658527219 0.00018766803462828192 0.0026364784786389096
 0.00018787474917321114 0.0026364470482213736 -0.00017244083978659226 -0.001648891658527219 0.0021042471782167986 0.0049992619054672754 0.9977532254373865 -0.012572604191121852
 -0.00017243727725603617 -0.0016488913378954744 0.00018766803462828192 0.0026364784786389096 0.9977532254373865 -0.012572604191121852 0.0021042893990185297 0.004999253616038175
0.02501042100875 0.0023035666076793807 0.006714005630702756 0.9974935594932418 -0.01678432588031321 0.00024856789991081405 0.0035168484338480087 -0.00022466438531793155 -0.002202151696665503
 0.9974935594932418 -0.01678432588031321 0.002303653331401336 0.006713990496225689 -0.00022467068993582546 -0.0022021520107252026 0.00024820085545760413 0.0035168976517863867
 0.00024856789991081405 0.0035168484338480087 -0.00022467068993582546 -0.0022021520107252026 0.0023035768817330528 0.006714338032001691 0.9974935640167764 -0.016783991446729936
 -0.00022466438531793155 -0.002202151696665503 0.00024820085545760413 0.0035168976517863867 0.9974935640167764 -0.016783991446729936 0.0023036518357495202 0.006714325790294288
0.03126302626094 0.0025188878890177466 0.008449135917847395 0.9972115945316765 -0.021009618292148757 0.00031878416756553113 0.004398106588888761 -0.0002847716614788181 -0.0027567685775186455
 0.9972115945316765 -0.021009618292148757 0.002519023316078095 0.00844911497710612 -0.0002847814756747045 -0.0027567688089169718 0.00031821111482947643 0.004398178203283163
 0.00031878416756553113 0.004398106588888761 -0.0002847814756747045 -0.0027567688089169718 0.002518903598488456 0.008449550680405185 0.9972116012514831 -0.021009200335801417
 -0.0002847716614788181 -0.0027567685775186455 0.00031821111482947643 0.004398178203283163 0.9972116012514831 -0.021009200335801417 0.002519020570811613 0.008449533827583048
0.037515631513130004 0.0027505491196236505 0.010203589752897663 0.9969070195100561 -0.025249150287942217 0.00039862314214473226 0.005280136346690545 -0.0003528650631128334 -0.0033125805456704752
 0.9969070195100561 -0.025249150287942217 0.0027507440415673674 0.01020356207257668 -0.0003528791497169338 -0.003312580606486542 0.00039779837692852793 0.005280235540926939
 0.00039862314214473226 0.005280136346690545 -0.0003528791497169338 -0.003312580606486542 0.0027505714157344224 0.010204086521906786 0.9969070288589382 -0.02524864876630026
 -0.0003528650631128334 -0.0033125805456704752 0.00039779837692852793 0.005280235540926939 0.9969070288589382 -0.02524864876630026 0.0027507396702814214 0.010204064360982135
0.043768236765320004 0.002998889497588028 0.011976757412351628 0.996579522739701 -0.0295031242073817 0.00048818324994824775 0.006162834765545322 -0.0004290482469606668 -0.003869437361165869
 0.996579522739701 -0.0295031242073817 0.0029991547018377368 0.011976721996490473 -0.0004290673643268115 -0.0038694371515812587 0.0004870610366623547 0.006162967302394077
 0.00048818324994824775 0.006162834765545322 -0.0004290673643268115 -0.0038694371515812587 0.0029989195297904637 0.011977335789635783 0.9965795351525271 -0.02950253905258135
 -0.0004290482469606668 -0.003869437361165869 0.0004870610366623547 0.006162967302394077 0.9965795351525271 -0.02950253905258135 0.0029991483117583284 0.011977307585388156
0.050020842017509996 0.003264244655463777 0.013768141202329161 0.9962287907194046 -0.03377161825734207 0.0005875614652252375 0.007046087464417882 -0.0005134226645466132 -0.004427193655980424
 0.9962287907194046 -0.03377161825734207 0.0032645909266492776 0.01376809699181011 -0.0005134475666051314 -0.0044271930642153885 0.0005860960370899141 0.007046259691251894
 0.0005875614652252375 0.007046087464417882 -0.0005134475666051314 -0.0044271930642153885 0.003264283573634842 0.013768800741123082 0.9962288066371487 -0.03377094938097477
 -0.0005134226645466132 -0.004427193655980424 0.0005860960370899141 0.007046259691251894 0.9962288066371487 -0.03377094938097477 0.0032645821114253323 0.013768765720015189
0.055454545454549996 0.0035089229058115528 0.015339366098300493 0.9959048799626495 -0.03749286172891803 0.0006819717184012717 0.007814015845982226 -0.0005934760212070015 -0.004912519726736392
 0.9959048799626495 -0.03749286172891803 0.003509348383752314 0.015339313335336226 -0.0005935065592379533 -0.004912518702719379 0.0006801708361137096 0.007814228177428231
 0.0006819717184012717 0.007814015845982226 -0.0005935065592379533 -0.004912518702719379 0.0035089704782976555 0.015340095770561828 0.9959048992884643 -0.037492120005684824
 -0.0005934760212070015 -0.004912519726736392 0.0006801708361137096 0.007814228177428231 0.9959048992884643 -0.037492120005684824 0.0035093371184057873 0.015340054167373498
0.056273447269699996 0.0035469473412857704 0.015577310506292647 0.9958545090877896 -0.03805463139448358 0.0006968531003572958 0.007929771744810878 -0.0006060875782677612 -0.004985705829044094
 0.9958545090877896 -0.03805463139448358 0.0035473854623646736 0.015577256378266839 -0.0006061190145766328 -0.0049857047312847225 0.0006949986626479907 0.007929990598835
 0.0006968531003572958 0.007929771744810878 -0.0006061190145766328 -0.0049857047312847225 0.003546996293208141 0.015578050712663672 0.9958545289567086 -0.038053878685779176
 -0.0006060875782677612 -0.004985705829044094 0.0006949986626479907 0.007929990598835 0.9958545289567086 -0.038053878685779176 0.003547373799669999 0.015578008062757939
0.06252605252188 0.003847327771859796 0.01740387708102978 0.9954563632526774 -0.04235210796313765 0.0008161516387428958 0.008813758302498469 -0.0007071400330085643 -0.00554483035606077
 0.9954563632526774 -0.04235210796313765 0.0038478685249644902 0.01740381184831352 -0.0007071787486961549 -0.005544828616410177 0.000813862374737339 0.008814031315986117
 0.0008161516387428958 0.008813758302498469 -0.0007071787486961549 -0.005544828616410177 0.0038473879027126155 0.017404697411934667 0.9954563875253769 -0.04235127129054988
 -0.0007071400330085643 -0.00554483035606077 0.000813862374737339 0.008814031315986117 0.9954563875253769 -0.04235127129054988 0.003847853576537057 0.01740464628262444
0.06877865777407 0.004165713813306016 0.019247480334661133 0.9950340388517915 -0.04666395235593677 0.0009455485883093765 0.009697912265540246 -0.0008166748058469865 -0.006104422778257681
 0.9950340388517915 -0.04666395235593677 0.004166367980782996 0.01924740274506591 -0.0008167215414732138 -0.006104420248681492 0.0009427786666277932 0.009698247570927255
 0.0009455485883093765 0.009697912265540246 -0.0008167215414732138 -0.006104420248681492 0.0041657862642203065 0.019248380195364654 0.9950340679878226 -0.04666303156944041
 -0.0008166748058469865 -0.006104422778257681 0.0009427786666277932 0.009698247570927255 0.9950340679878226 -0.04666303156944041 0.00416634929197825 0.019248319697095197
0.07503126302626001 0.004502431058492102 0.021107777985778436 0.9945872221139899 -0.050990038298786185 0.0010851333504523723 0.010582093844928437 -0.0009347843385625229 -0.006664337083983901
 0.9945872221139899 -0.050990038298786185 0.004503209423631835 0.021107686721416736 -0.0009348398301291146 -0.006664333604251786 0.0010818369336300041 0.010582500179796313
 0.0010851333504523723 0.010582093844928437 -0.0009348398301291146 -0.006664333604251786 0.004502516966012077 0.021108756734597486 0.9945872565808702 -0.050989033224879
 -0.0009347843385625229 -0.006664337083983901 0.0010818369336300041 0.010582500179796313 0.9945872565808702 -0.050989033224879 0.004503186522380366 0.02110868593864259
0.08128386827845 0.004857802838127484 0.02298443986342158 0.994115600159249 -0.05533021500099423 0.0012349930957735826 0.011466158786403483 -0.0010615586620091085 -0.007224425294862335
 0.994115600159249 -0.05533021500099423 0.004858716185630697 0.022984333539928476 -0.0010616236406862125 -0.007224420692509381 0.0012311243499106203 0.011466645498313324
 0.0012349930957735826 0.011466158786403483 -0.0010616236406862125 -0.007224420692509381 0.004857903332548154 0.022985496803701815 0.9941156404328877 -0.0553291254503914
 -0.0010615586620091085 -0.007224425294862335 0.0012311243499106203 0.011466645498313324 0.9941156404328877 -0.0553291254503914 0.004858688582548426 0.022985414741695003
0.08753647353064001 0.005232150189013888 0.02487714360805472 0.9936188612585495 -0.05968431141048748 0.0013952126457142237 0.012349958683835288 -0.0011970853130454568 -0.007784537196404149
 0.9936188612585495 -0.05968431141048748 0.0052332093060364696 0.02487702077381113 -0.0011971605051514782 -0.007784531286687452 0.0013907257509125754 0.012350535734899566
 0.0013952126457142237 0.012349958683835288 -0.0011971605051514782 -0.007784531286687452 0.0052322663935933785 0.02487827799436981 0.9936189078244406 -0.05968313717189348
 -0.0011970853130454568 -0.007784537196404149 0.0013907257509125754 0.012350535734899566 0.9936189078244406 -0.05968313717189348 0.005233176493087299 0.024878183657901114
0.09378907878283 0.005625791792565078 0.02678557161506489 0.9930966950688314 -0.06405213923351223 0.0015658743576695228 0.013233341217143025 -0.001341449247058402 -0.008344520150081847
 0.9930966950688314 -0.06405213923351223 0.005627007468989141 0.02678543075028859 -0.0013415353738300488 -0.008344512735939013 0.0015607235190093968 0.013234019188546753
 0.0015658743576695228 0.013233341217143025 -0.0013415353738300488 -0.008344512735939013 0.005625924822204082 0.026786782649584603 0.9930967484223747 -0.06405088007693327
 -0.001341449247058402 -0.008344520150081847 0.0015607235190093968 0.013234019188546753 0.9930967484223747 -0.06405088007693327 0.0056269689194142665 0.02678667498974961
0.100041684035 0.006039043890836556 0.028709408788748253 0.9925487928482192 -0.06843349515045372 0.001747058012582479 0.014116150331301168 -0.0014947327466639394 -0.008904218970815957
 0.9925487928482192 -0.06843349515045372 0.006040426920056671 0.028709248304604324 -0.001494830524085302 -0.008904209842836637 0.0017411974719064441 0.014116940427432842
 0.001747058012582479 0.014116150331301168 -0.001494830524085302 -0.008904209842836637 0.00603919485080978 0.028710695622659058 0.9925488534957868 -0.0684321508259025
 -0.0014947327466639394 -0.008904218970815957 0.0017411974719064441 0.014116940427432842 0.9925488534957868 -0.0684321508259025 0.006040382087589867 0.028710573549420006
0.1059090909091 0.006444952162667294 0.030528460445618234 0.992010964649628 -0.07255704377532127 0.001926717957248501 0.014943909374108348 -0.0016467561695544329 -0.009429037986272657
 0.992010964649628 -0.07255704377532127 0.006446502054826611 0.030528280043376353 -0.0016468655262735137 -0.009429027048554155 0.0019201498631518498 0.014944815436372985
 0.001926717957248501 0.014943909374108348 -0.0016468655262735137 -0.009429027048554155 0.006445120944327986 0.030529817589032133 0.9920110326129217 -0.07255561928707259
 -0.0016467561695544329 -0.009429037986272657 0.0019201498631518498 0.014944815436372985 0.9920110326129217 -0.07255561928707259 0.006446450811759031 0.030529680961855096
0.1062942892872 0.0064722201872915415 0.03064834086378058 0.9919748476601079 -0.07282816247167805 0.0019388407043306587 0.01499822638609069 -0.0016570153280695311 -0.009463475839961285
 0.9919748476601079 -0.07282816247167805 0.006473781366708094 0.030648159101406544 -0.001657125466749072 -0.00946346477635516 0.0019322247521481577 0.014999140438588023
 0.0019388407043306587 0.01499822638609069 -0.001657125466749072 -0.00946346477635516 0.006472390172411686 0.030649702594417218 0.9919749161198557 -0.07282673271183285
 -0.0016570153280695311 -0.009463475839961285 0.0019322247521481577 0.014999140438588023 0.9919749161198557 -0.07282673271183285 0.006473729684927236 0.0306495649760486
0.11254689453939999 0.006925631735346092 0.03260205312160483 0.9913745545677443 -0.0772359124058055 0.0021412967303191554 0.01587940627418019 -0.0018283736451805042 -0.010022130256742753
 0.9913745545677443 -0.0772359124058055 0.006927381866984944 0.032601848351060454 -0.0018284968501273682 -0.010022117023318892 0.002133879718698261 0.015880456745643545
 0.0021412967303191554 0.01587940627418019 -0.0018284968501273682 -0.010022117023318892 0.006925821828315058 0.03260348879572593 0.991374631370122 -0.07723439692281392
 -0.0018283736451805042 -0.010022130256742753 0.002133879718698261 0.015880456745643545 0.991374631370122 -0.07723439692281392 0.006927322748571207 0.03260333445809996
0.11879949979160001 0.007399586817186273 0.03457022939443464 0.9907476108221666 -0.08165650504786028 0.002354497483156892 0.01675952353126278 -0.0020088813925768782 -0.010580019004164342
 0.9907476108221666 -0.08165650504786028 0.007401536708001855 0.0345699998136336 -0.0020090183629727686 -0.010580003354313092 0.0023462338386764235 0.016760723518726525
 0.002354497483156892 0.01675952353126278 -0.0020090183629727686 -0.010580003354313092 0.0073997980875228474 0.03457173800612279 0.9907476965110653 -0.0816549035355143
 -0.0020088813925768782 -0.010580019004164342 0.0023462338386764235 0.016760723518726525 0.9907476965110653 -0.0816549035355143 0.007401469544501445 0.034571565731934
0.1250521050438 0.007894390814740056 0.0365525512860231 0.9900937160457061 -0.08608969015887794 0.0025785113432358242 0.0176384084290046 -0.0021986092070179703 -0.011136976139110957
 0.9900937160457061 -0.08608969015887794 0.007896551277329716 0.036552295019566944 -0.002198760636080554 -0.011136957813789086 0.0025693555804225587 0.017639771667197376
 0.0025785113432358242 0.0176384084290046 -0.002198760636080554 -0.011136957813789086 0.007894624317756352 0.03655413177706602 0.9900938111791684 -0.08608800229239083
 -0.0021986092070179703 -0.011136976139110957 0.0025693555804225587 0.017639771667197376 0.9900938111791684 -0.08608800229239083 0.007896475438116729 0.036553940305029835
0.131304710296 0.008410346075700693 0.038548697552103446 0.9894125724123609 -0.09053520779360891 0.0028134035720134543 0.01851588806420902 -0.002397624568456265 -0.011692832992969542
 0.9894125724123609 -0.09053520779360891 0.008412727928497371 0.03854841265011621 -0.0023977911431747627 -0.011692811720705113 0.002803310307064757 0.01851742892847899
 0.0028134035720134543 0.01851588806420902 -0.0023977911431747627 -0.011692811720705113 0.008410602850595748 0.03855034881226998 0.9894126775631933 -0.09053343322948501
 -0.002397624568456265 -0.011692832992969542 0.002803310307064757 0.01851742892847899 0.9894126775631933 -0.09053343322948501 0.008412642760184257 0.038550136836214645
0.1375573155481 0.008831485047699122 0.04029750338914805 0.988820200686523 -0.09473182053993684 0.0030302526300693784 0.01936574827843944 -0.0025770210849664055 -0.012221388079805896
 0.988820200686523 -0.09473182053993684 0.008834098611432356 0.0402971941678545 -0.002577203615802623 -0.012221363818868545 0.003019196592069263 0.019367464870046192
 0.0030302526300693784 0.01936574827843944 -0.002577203615802623 -0.012221363818868545 0.008831765275157766 0.04029922487447487 0.9888203163204595 -0.09472995907649398
 -0.0025770210849664055 -0.012221388079805896 0.003019196592069263 0.019367464870046192 0.9888203163204595 -0.09472995907649398 0.008834004508336397 0.04029899643777697
0.1438099208003 0.009267498318256974 0.04203669710309412 0.9882068757721094 -0.0989173982744884 0.0032558516290989484 0.020211936785438995 -0.002763583784247558 -0.012746589443066966
 0.9882068757721094 -0.0989173982744884 0.009270354308272888 0.042036362062212604 -0.002763782971904786 -0.012746561930919652 0.003243791211146855 0.02021384230215761
 0.0032558516290989484 0.020211936785438995 -0.002763782971904786 -0.012746561930919652 0.009267802860069925 0.04203848770928225 0.988207002461487 -0.09891544957690553
 -0.002763583784247558 -0.012746589443066966 0.003243791211146855 0.02021384230215761 0.988207002461487 -0.09891544957690553 0.009270250773883453 0.04203824187232075
0.1500625260525 0.009718226615257366 0.043766121762997184 0.9875727614219095 -0.10309182516116161 0.0034901189451575646 0.021054359319314396 -0.0029572334431703803 -0.013268348570781126
 0.9875727614219095 -0.10309182516116161 0.009721335742435765 0.0437657593314937 -0.0029574499839537774 -0.01326831753477502 0.0034770128707416617 0.021056467426870243
 0.0034901189451575646 0.021054359319314396 -0.0029574499839537774 -0.01326831753477502 0.009718556307946562 0.043767980345433145 0.9875728997516553 -0.10308978888098991
 -0.0029572334431703803 -0.013268348570781126 0.0034770128707416617 0.021056467426870243 0.9875728997516553 -0.10308978888098991 0.009721222270880705 0.043767716117055155
0.15631513130469998 0.010183509464392391 0.04548562515595901 0.986918022304199 -0.10725498602628612 0.0037329719386044163 0.02189292328794913 -0.0031578898191318558 -0.013786578892501462
