! Created with skrf 1.8.0 (http://scikit-rf.org).
# GHz S RI R 50.0 
!freq ReS11 ImS11 ReS12 ImS12 ReS13 ImS13
! ReS14 ImS14
! ReS21 ImS21 ReS22 ImS22 ReS23 ImS23
! ReS24 ImS24
! ReS31 ImS31 ReS32 ImS32 ReS33 ImS33
! ReS34 ImS34
! ReS41 ImS41 ReS42 ImS42 ReS43 ImS43
! ReS44 ImS44
!
0.0 0.001347665371904 0.0 0.9986523346281 0.0 5.190685602827e-05 0.0 -5.190685623894e-05 6.356756534681969e-21
 0.9986523346281 0.0 0.001347665371921 0.0 -5.190685623986e-05 6.356756534794637e-21 5.190685602865e-05 0.0
 5.190685602827e-05 0.0 -5.190685623986e-05 6.356756534794637e-21 0.001347665365985 0.0 0.9986523346221 0.0
 -5.190685623894e-05 6.356756534681969e-21 5.190685602865e-05 0.0 0.9986523346221 0.0 0.001347665365953 0.0
0.005 0.0014495254370270423 0.0010981797334262131 0.9985235275691783 -0.0028238453319913005 7.318041935244634e-05 0.0006004354097497466 -7.091212953000486e-05 -0.0003720030323838491
 0.9985235275691783 -0.0028238453319913005 0.0014495394218290297 0.0010981715879854659 -7.091579373885707e-05 -0.00037200584864199393 7.308199120459563e-05 0.0006004728260457401
 7.318041935244634e-05 0.0006004354097497466 -7.091579373885707e-05 -0.00037200584864199393 0.0014495232331503672 0.0010981137870682822 0.9985235272378045 -0.00282391240047779
 -7.091212953000486e-05 -0.0003720030323838491 7.308199120459563e-05 0.0006004728260457401 0.9985235272378045 -0.00282391240047779 0.0014495409684564776 0.001098103402327518
0.006252605252188 0.0014760926173065052 0.0013770871219404251 0.998489739686176 -0.003530522343756832 7.918572755829178e-05 0.0007508307788353496 -7.621208458214841e-05 -0.0004655001723407219
 0.998489739686176 -0.003530522343756832 0.0014761144778684177 0.0013770767604744764 -7.621778645698126e-05 -0.0004655036457218509 7.903194078338534e-05 0.0007508793400301773
 7.918572755829178e-05 0.0007508307788353496 -7.621778645698126e-05 -0.0004655036457218509 0.0014760892292796134 0.0013770047103819026 0.998489739225398 -0.0035306061630311623
 -7.621208458214841e-05 -0.0004655001723407219 7.903194078338534e-05 0.0007508793400301773 0.998489739225398 -0.0035306061630311623 0.0014761169531789862 0.0013769915445374218
0.01250521050438 0.0016150887381275107 0.0027834131031536607 0.9983118861952018 -0.007062014322678738 0.0001132413100220003 0.00150198366572758 -0.00010592954474617252 -0.0009333808728988469
 0.9983118861952018 -0.007062014322678738 0.0016151760241780672 0.0027833905929315656 -0.00010595201657776194 -0.0009333873099820357 0.00011262799826555125 0.0015020999452972999
 0.0001132413100220003 0.00150198366572758 -0.00010595201657776194 -0.0009333873099820357 0.0016150757716529738 0.0027832485881622514 0.9983118849195304 -0.007062181733273967
 -0.00010592954474617252 -0.0009333808728988469 0.00011262799826555125 0.0015020999452972999 0.9983118849195304 -0.007062181733273967 0.0016151864790380401 0.002783220389775861
0.01875781575657 0.0017649274082931134 0.0042101260633993455 0.998118574554698 -0.010603107327126222 0.0001541464597331693 0.002254012518473481 -0.0001411449025038106 -0.0014029490455680729
 0.998118574554698 -0.010603107327126222 0.0017651235365560068 0.0042100895509928175 -0.00014119501839502408 -0.0014029578501211705 0.00015276861039051757 0.002254219050199751
 0.0001541464597331693 0.002254012518473481 -0.00014119501839502408 -0.0014029578501211705 0.0017648986833448711 0.004209879695746981 0.9981185721018943 -0.010603358241237981
 -0.0001411449025038106 -0.0014029490455680729 0.00015276861039051757 0.002254219050199751 0.9981185721018943 -0.010603358241237981 0.0017651474568284285 0.004209834447669901
0.02501042100875 0.0019258758014358876 0.005655250651085024 0.9979095981782173 -0.014155548978963891 0.00020197558758090932 0.0030069757406322455 -0.0001819413913185814 -0.0018740030790909675
 0.9979095981782173 -0.014155548978963891 0.0019262240950100994 0.005655198231535969 -0.00018202989750886635 -0.00187401355722607 0.00019952798865272375 0.003007298300222336
 0.00020197558758090932 0.0030069757406322455 -0.00018202989750886635 -0.00187401355722607 0.0019258251569105433 0.005654922693500149 0.9979095941946328 -0.014155883377090759
 -0.0001819413913185814 -0.0018740030790909675 0.00019952798865272375 0.003007298300222336 0.9979095941946328 -0.014155883377090759 0.001926266973370048 0.005654858248191931
0.03126302626094 0.002098189868388658 0.007117785634530758 0.9976847389185941 -0.017720105513555094 0.000256803952914121 0.0037608596677250286 -0.000228400125824551 -0.0023464093428888244
 0.9976847389185941 -0.017720105513555094 0.002098733579741712 0.007117715355052552 -0.00022853766295805812 -0.0023464207016041547 0.0002529809003907372 0.003761327290605805
 0.000256803952914121 0.0037608596677250286 -0.00022853766295805812 -0.0023464207016041547 0.0020981111451394566 0.007117376413777582 0.9976847330436055 -0.01772052339261165
 -0.000228400125824551 -0.0023464093428888244 0.0002529809003907372 0.003761327290605805 0.9976847330436055 -0.01772052339261165 0.0020988009042123964 0.0071172904970528824
0.037515631513130004 0.002282120170595113 0.00859708980535532 0.9974437730346426 -0.021297175823582995 0.00031870685373406547 0.004515622544564574 -0.0002806007421829148 -0.0028200581944093296
 0.9974437730346426 -0.021297175823582995 0.0022829024974127714 0.008596999667632391 -0.00028079785680992737 -0.0028200695411068916 0.0003132020146028621 0.00451626755921583
 0.00031870685373406547 0.004515622544564574 -0.00028079785680992737 -0.0028200695411068916 0.0022820072176239544 0.008596599701643785 0.9974437649071641 -0.021297677208105024
 -0.0002806007421829148 -0.0028200581944093296 0.0003132020146028621 0.00451626755921583 0.9974437649071641 -0.021297677208105024 0.002282999759953795 0.00859648991426816
0.043768236765320004 0.002477914147230346 0.010092695100832574 0.997186473594447 -0.024886978276773452 0.0003877592564929367 0.005271207909690916 -0.00033862163913968404 -0.0032948505832923903
 0.997186473594447 -0.024886978276773452 0.002478978244614382 0.010092583062902342 -0.0003388887904967407 -0.0032948609255741557 0.00038026559858204983 0.005272065975821788
 0.0003877592564929367 0.005271207909690916 -0.0003388887904967407 -0.0032948609255741557 0.0024777608181765784 0.010092124561920057 0.997186462849793 -0.024887563205548607
 -0.00033862163913968404 -0.0032948505832923903 0.00038026559858204983 0.005272065975821788 0.997186462849793 -0.024887563205548607 0.0024791109398311995 0.01009198838041657
0.050020842017509996 0.0026858171724906087 0.011604229362049464 0.9969126116714574 -0.028489627895631604 0.00046403558300117843 0.0060275501127712225 -0.00040254007533903704 -0.0037706925244760056
 0.9969126116714574 -0.028489627895631604 0.0026872061638669727 0.01160409333984539 -0.00040288763988153106 -0.0037707007700467595 0.0004542453397333284 0.00602866026153801
 0.00046403558300117843 0.0060275501127712225 -0.00040288763988153106 -0.0037707007700467595 0.0026856173282367923 0.011603578894762743 0.9969125979432186 -0.028490296430986283
 -0.00040254007533903704 -0.0037706925244760056 0.0004542453397333284 0.00602866026153801 0.9969125979432186 -0.028490296430986283 0.0026873797919883826 0.01160341367184437
0.055454545454549996 0.0028765146580495477 0.012930489667653278 0.9966609878197608 -0.031630912741017814 0.0005362460142663968 0.006685393166258465 -0.0004629358284125561 -0.004184994753503121
 0.9966609878197608 -0.031630912741017814 0.002878220996491764 0.01293033107808957 -0.0004633616393592251 -0.004185000212267099 0.0005242094434538981 0.006686756729969759
 0.0005362460142663968 0.006685393166258465 -0.0004633616393592251 -0.004185000212267099 0.002876269408796197 0.0129297702123801 0.996660971197697 -0.03163165398779085
 -0.0004629358284125561 -0.004184994753503121 0.0005242094434538981 0.006686756729969759 0.996660971197697 -0.03163165398779085 0.0028784346667533865 0.012929577505609668
0.056273447269699996 0.0029060731087441863 0.013131378418935807 0.9966219570397126 -0.03210517421056765 0.0005476095648214004 0.00678457702822704 -0.00047243220424089563 -0.004247492376968717
 0.9966219570397126 -0.03210517421056765 0.0029078300957979027 0.013131216287512203 -0.00047287047863000495 -0.0042474973335879344 0.0005352142211380338 0.0067859817034304866
 0.0005476095648214004 0.00678457702822704 -0.00047287047863000495 -0.0042474973335879344 0.002905820615250357 0.01313064860505618 0.9966219399571605 -0.03210592642323931
 -0.00047243220424089563 -0.004247492376968717 0.0005352142211380338 0.0067859817034304866 0.9966219399571605 -0.03210592642323931 0.0029080501614570926 0.01313045156972982
0.06252605252188 0.0031389246095343023 0.014673865269320768 0.9963142786209613 -0.03573362201978977 0.0006385541338063233 0.007542211531069398 -0.0005483730747456162 -0.004725159362502566
 0.9963142786209613 -0.03573362201978977 0.0031410926815962316 0.014673674863901878 -0.0005489122779682138 -0.0047251597379524835 0.000623244426047187 0.0075439566308022395
 0.0006385541338063233 0.007542211531069398 -0.0005489122779682138 -0.0047251597379524835 0.003138613339151142 0.014673056752467542 0.9963142578094896 -0.035734458002910044
 -0.0005483730747456162 -0.004725159362502566 0.000623244426047187 0.0075439566308022395 0.9963142578094896 -0.035734458002910044 0.0031413646955049455 0.014672825009777773
0.06877865777407 0.0033846132917214056 0.0162314376289338 0.9959893448044591 -0.03937494378017886 0.0007369413295290372 0.008300372388308424 -0.0006304366155129856 -0.0052036026708196246
 0.9959893448044591 -0.03937494378017886 0.0033872355351169015 0.016231216745679757 -0.0006310868903793853 -0.00520359707290777 0.0007184072550581234 0.008302507306793019
 0.0007369413295290372 0.008300372388308424 -0.0006310868903793853 -0.00520359707290777 0.003384237123413364 0.016230551123403245 0.9959893198851428 -0.039375863641220074
 -0.0006304366155129856 -0.0052036026708196246 0.0007184072550581234 0.008302507306793019 0.9959893198851428 -0.039375863641220074 0.003387565014370003 0.016230281653968323
0.07503126302626001 0.0036433798256210004 0.01780386006552607 0.9956469236863433 -0.04302908741579635 0.000842842218947827 0.009058974818703075 -0.0007186956068572361 -0.005682730899004958
 0.9956469236863433 -0.04302908741579635 0.003646499332501694 0.017803606462105624 -0.0007194670210457127 -0.0056827178355714925 0.0008207730530303146 0.009061552488162249
 0.000842842218947827 0.009058974818703075 -0.0007194670210457127 -0.0056827178355714925 0.003642932645333977 0.01780289635621339 0.995646894275063 -0.04303009127744331
 -0.0007186956068572361 -0.005682730899004958 0.0008207730530303146 0.009061552488162249 0.995646894275063 -0.04303009127744331 0.00364689180104295 0.017802586015552003
0.08128386827845 0.003915463976399562 0.019390908749178665 0.99528678326415 -0.04669598151288833 0.0009563268229514728 0.009817930865490923 -0.0008132216453597468 -0.006162451680353703
 0.99528678326415 -0.04669598151288833 0.003919123853729303 0.019390620145136154 -0.0008141241921133532 -0.0061624295592896785 0.0009304111409843088 0.0098210077979068
 0.0009563268229514728 0.009817930865490923 -0.0008141241921133532 -0.0061624295592896785 0.003914939677937398 0.019389868691235122 0.9952867489716845 -0.046697069514201626
 -0.0008132216453597468 -0.006162451680353703 0.0009304111409843088 0.0098210077979068 0.9952867489716845 -0.046697069514201626 0.003919584843278391 0.01938951420875982
0.08753647353064001 0.004201104613150412 0.02099236782813246 0.9949086916006031 -0.05037553889165213 0.001077464046938523 0.010577149655987305 -0.0009140851033716106 -0.006642671428972436
 0.9949086916006031 -0.05037553889165213 0.004205347991802743 0.020992041904914167 -0.000915128701978434 -0.006642638558248987 0.0010473897515337024 0.010580785984656546
 0.001077464046938523 0.010577149655987305 -0.000915128701978434 -0.006642638558248987 0.004200497098427313 0.02099125235217436 0.9949086520315885 -0.05037671118355353
 -0.0009140851033716106 -0.006642671428972436 0.0010473897515337024 0.010580785984656546 0.9949086520315885 -0.05037671118355353 0.004205883041698726 0.020990850330031105
0.09378907878283 0.004500539694878721 0.022608026835900946 0.994512416967076 -0.054067659149589234 0.0012063216146318393 0.011336537587049719 -0.0010213550847985935 -0.007123295161225031
 0.994512416967076 -0.054067659149589234 0.004505409738471718 0.022607661236721446 -0.0010225495808345742 -0.007123249748943977 0.0011717759661748976 0.011340797107880008
 0.0012063216146318393 0.011336537587049719 -0.0010225495808345742 -0.007123249748943977 0.004499842874459715 0.022606836942868327 0.9945123717195768 -0.05406891590082532
 -0.0010213550847985935 -0.007123295161225031 0.0011717759661748976 0.011340797107880008 0.9945123717195768 -0.05406891590082532 0.004506024396289203 0.02260638385441318
0.100041684035 0.00481400623983188 0.02423767878748049 0.9940977279732621 -0.057772230518671704 0.001342966003392237 0.012095998467911519 -0.00113509937830914 -0.007604226362599465
 0.9940977279732621 -0.057772230518671704 0.004819546153875283 0.024237271116892098 -0.0011364545437516959 -0.0076041665170432865 0.0013036356538236352 0.01210094868040541
 0.001342966003392237 0.012095998467911519 -0.0011364545437516959 -0.0076041665170432865 0.0048132140341782086 0.02423641555394419 0.994097676638643 -0.05777357191125505
 -0.00113509937830914 -0.007604226362599465 0.0013036356538236352 0.01210094868040541 0.994097676638643 -0.05777357191125505 0.0048202459761198515 0.02423590774204497
0.1059090909091 0.005121133078655011 0.025779478151868682 0.9936916329606799 -0.06125979365346482 0.0014783323657050155 0.012808650433839656 -0.001247783837224351 -0.008055721530192255
 0.9936916329606799 -0.06125979365346482 0.005127340935075885 0.025779028788087827 -0.0012492985957617711 -0.00805564633118666 0.0014342265850781088 0.012814313512031883
 0.0014783323657050155 0.012808650433839656 -0.0012492985957617711 -0.00805564633118666 0.0051202458437897645 0.025778147140797306 0.9936915755356012 -0.061261214652638736
 -0.001247783837224351 -0.008055721530192255 0.0014342265850781088 0.012814313512031883 0.9936915755356012 -0.061261214652638736 0.005128125736714058 0.02577758453263998
0.1062942892872 0.005141740283742768 0.025881118750089138 0.9936643936876367 -0.06148913125099133 0.0014874623815497724 0.01285543362221737 -0.0012553844077710617 -0.008085366898254405
 0.9936643936876367 -0.06148913125099133 0.00514799332444603 0.025880666573319396 -0.0012569099409444227 -0.008085290627958418 0.0014430334108406532 0.012861145770047626
 0.0014874623815497724 0.01285543362221737 -0.0012569099409444227 -0.008085290627958418 0.005140846623522154 0.025879783326334026 0.9936643358498753 -0.061490557482761
 -0.0012553844077710617 -0.008085366898254405 0.0014430334108406532 0.012861145770047626 0.9936643358498753 -0.061490557482761 0.005148783876826078 0.025879217001384472
0.11254689453939999 0.00548397682855402 0.027538142744747873 0.9932121837512431 -0.06521823067677297 0.0016398745457980824 0.013614741976416725 -0.0013822751816409814 -0.00856661694018081
 0.9932121837512431 -0.06521823067677297 0.005490986312498736 0.02753764358675002 -0.0013839807071257648 -0.008566522154012374 0.0015900325008997322 0.013621291087647983
 0.0016398745457980824 0.013614741976416725 -0.0013839807071257648 -0.008566522154012374 0.0054829756554722366 0.027536736356195936 0.993212118986205 -0.06521974196071972
 -0.0013822751816409814 -0.00856661694018081 0.0015900325008997322 0.013621291087647983 0.993212118986205 -0.06521974196071972 0.00549187316994075 0.027536107593756444
0.11879949979160001 0.0058409497837552705 0.02920854689617476 0.9927408684861251 -0.06895939001739852 0.0018002648597843737 0.014373820126211594 -0.0015158352404503984 -0.009047874919341097
 0.9927408684861251 -0.06895939001739852 0.0058487590967851106 0.029207998240333974 -0.0015177303088183109 -0.00904775942659187 0.0017446947958099156 0.014381285052970613
 0.0018002648597843737 0.014373820126211594 -0.0015177303088183109 -0.00904775942659187 0.005839835051390074 0.029207070844616805 0.9927407963612462 -0.06896098658104033
 -0.0015158352404503984 -0.009047874919341097 0.0017446947958099156 0.014381285052970613 0.9927407963612462 -0.06896098658104033 0.0058497478441344826 0.029206375582981288
0.1250521050438 0.006212891902424821 0.03089212675197268 0.9922502190005273 -0.07271246303241094 0.0019686941927598524 0.015132562395319914 -0.0016561266034496149 -0.009529037488544057
 0.9922502190005273 -0.07271246303241094 0.00622154450902354 0.030891526038640007 -0.001658220690968372 -0.009528898999043918 0.0019070807160920518 0.015141025853036016
 0.0019686941927598524 0.015132562395319914 -0.001658220690968372 -0.009528898999043918 0.006211657577262194 0.03089058241786137 0.9922501390742765 -0.07271414511618936
 -0.0016561266034496149 -0.009529037488544057 0.0019070807160920518 0.015141025853036016 0.9922501390742765 -0.07271414511618936 0.006222640741500398 0.03088981645509403
0.131304710296 0.0066000347122935855 0.03258867674468023 0.9917400072918859 -0.07647729652740054 0.002145221858529866 0.01589086088654791 -0.0018032097142267529 -0.010009999496300725
 0.9917400072918859 -0.07647729652740054 0.006609574165359995 0.0325880213693103 -0.0018055122225263565 -0.010009835620527976 0.0020772491717877353 0.015900409492614124
 0.002145221858529866 0.01589086088654791 -0.0018055122225263565 -0.010009835620527976 0.006598674774499014 0.0325870655832003 0.9917399191131839 -0.07647906438919275
 -0.0018032097142267529 -0.010009999496300725 0.0020772491717877353 0.015900409492614124 0.9917399191131839 -0.07647906438919275 0.006610783488598797 0.032586224574025525
0.1375573155481 0.006909239653492684 0.03407518671256623 0.9913034019384328 -0.08003085716114945 0.0023066397215685845 0.016625489836702388 -0.001933957900288478 -0.010467493675386732
 0.9913034019384328 -0.08003085716114945 0.006919713744781517 0.03407449129599407 -0.0019364826720391758 -0.010467304471086089 0.0022321513545760117 0.01663610282684973
 0.0023066397215685845 0.016625489836702388 -0.0019364826720391758 -0.010467304471086089 0.006907748507791913 0.034073510211282444 0.9913033051305424 -0.08003271094761659
 -0.001933957900288478 -0.010467493675386732 0.0022321513545760117 0.01663610282684973 0.9913033051305424 -0.08003271094761659 0.006921041210503144 0.03407260680450804
0.1438099208003 0.007229150265651207 0.035554579038368235 0.9908517415686875 -0.0835761591308119 0.0024746013971428784 0.01735763814725186 -0.002069960326963057 -0.010922752287297603
 0.9908517415686875 -0.0835761591308119 0.0072406033350314964 0.03555384210856622 -0.002072717456765726 -0.010922535431026916 0.0023933098178595224 0.017369394020940652
 0.0024746013971428784 0.01735763814725186 -0.002072717456765726 -0.010922535431026916 0.007227521987484545 0.03555283871565727 0.9908516356820352 -0.08357809909357955
 -0.002069960326963057 -0.010922752287297603 0.0023933098178595224 0.017369394020940652 0.9908516356820352 -0.08357809909357955 0.007242054464497194 0.035551869624092465
0.1500625260525 0.00755966340331332 0.03702675198995861 0.990385132669346 -0.08711313704245141 0.002649056050951376 0.018087246787096438 -0.002211168206120658 -0.011375719860851
 0.990385132669346 -0.08711313704245141 0.0075721399043369875 0.03702597196527538 -0.002214167770647163 -0.011375472936475943 0.0025606751964462396 0.018100226891347507
 0.002649056050951376 0.018087246787096438 -0.002214167770647163 -0.011375472936475943 0.007557892085748586 0.03702494942536766 0.9903850172461698 -0.08711516344348874
 -0.002211168206120658 -0.011375719860851 0.0025606751964462396 0.018100226891347507 0.9903850172461698 -0.08711516344348874 0.007573720222757748 0.03702391117764478
0.15631513130469998 0.007900675299029427 0.03849160702581185 0.9899036821458516 -0.09064172529509486 0.0028299523204182637 0.018814257593072477 -0.0023575322132625503 -0.011826342020758043
