! Created with skrf 1.8.0 (http://scikit-rf.org).
# GHz S RI R 50.0 
!freq ReS11 ImS11 ReS12 ImS12 ReS13 ImS13
! ReS14 ImS14
! ReS21 ImS21 ReS22 ImS22 ReS23 ImS23
! ReS24 ImS24
! ReS31 ImS31 ReS32 ImS32 ReS33 ImS33
! ReS34 ImS34
! ReS41 ImS41 ReS42 ImS42 ReS43 ImS43
! ReS44 ImS44
!
0.0 0.0015458690534 0.0 0.9984541309352 0.0 5.983601339522e-05 0.0 -5.983601348397e-05 7.327798238688172e-21
 0.9984541309352 0.0 0.001545869053447 0.0 -5.983601348483e-05 7.327798238793492e-21 5.983601339594e-05 0.0
 5.983601339522e-05 0.0 -5.983601348483e-05 7.327798238793492e-21 0.001545869059095 0.0 0.9984541309409 0.0
 -5.983601348397e-05 7.327798238688172e-21 5.983601339594e-05 0.0 0.9984541309409 0.0 0.001545869059097 0.0
0.005 0.00166328282788898 0.0012607874232136416 0.998305578392468 -0.0032384308860142915 8.44024500528371e-05 0.0006822544944397248 -8.184817703338886e-05 -0.00042422350462158415
 0.998305578392468 -0.0032384308860142915 0.0016632820188871413 0.00126078796732125 -8.184854942737272e-05 -0.00042422385184250777 8.439919718683133e-05 0.000682255651370149
 8.44024500528371e-05 0.0006822544944397248 -8.184854942737272e-05 -0.00042422385184250777 0.0016632826952989875 0.001260854811008376 0.9983055787583913 -0.0032383638300522715
 -8.184817703338886e-05 -0.00042422350462158415 8.439919718683133e-05 0.000682255651370149 0.9983055787583913 -0.0032383638300522715 0.001663282873768804 0.0012608546812940158
0.006252605252188 0.0016940808037772398 0.0015809612584400722 0.9982663660660435 -0.004048831752920532 9.14189786503945e-05 0.0008531380061457325 -8.806733587055555e-05 -0.0005308328458778074
 0.9982663660660435 -0.004048831752920532 0.0016940795387454205 0.0015809619699155121 -8.806791485790343e-05 -0.0005308332752998462 9.141389537356293e-05 0.0008531395210520495
 9.14189786503945e-05 0.0008531380061457325 -8.806791485790343e-05 -0.0005308332752998462 0.0016940805052502643 0.0015810454880684451 0.9982663665474775 -0.004048747939349079
 -8.806733587055555e-05 -0.0005308328458778074 9.141389537356293e-05 0.0008531395210520495 0.9982663665474775 -0.004048747939349079 0.00169408078473964 0.0015810453451407583
0.01250521050438 0.0018562305568721044 0.0031951760874446454 0.9980585479939595 -0.008098482676307498 0.00013164685066656125 0.0017065664959913097 -0.0001233771068854205 -0.0010642580695774402
 0.9980585479939595 -0.008098482676307498 0.0018562254977617552 0.0031951778380721243 -0.00012337938271525213 -0.0010642588786640296 0.00013162654969732399 0.0017065702589220185
 0.00013164685066656125 0.0017065664959913097 -0.00012337938271525213 -0.0010642588786640296 0.001856228818922176 0.003195344327109661 0.9980585493819418 -0.0080983152550893
 -0.0001233771068854205 -0.0010642580695774402 0.00013162654969732399 0.0017065702589220185 0.9980585493819418 -0.0080983152550893 0.0018562299420374323 0.003195344236653359
0.01875781575657 0.002032673837152156 0.00483245942453873 0.9978304173843647 -0.01215881121638929 0.00018061304613407802 0.002560881706581815 -0.00016587494382563802 -0.0015994751059275746
 0.9978304173843647 -0.01215881121638929 0.0020326624532729745 0.004832462585562179 -0.00016588001079732476 -0.0015994762374565983 0.00018056736931170898 0.0025608885801474473
 0.00018061304613407802 0.002560881706581815 -0.00016588001079732476 -0.0015994762374565983 0.002032669490100208 0.004832711536383331 0.9978304200874085 -0.012158560248856922
 -0.00016587494382563802 -0.0015994751059275746 0.00018056736931170898 0.0025608885801474473 0.9978304200874085 -0.012158560248856922 0.002032672027644611 0.004832711703412183
0.02501042100875 0.0022237555722425155 0.0064905089649435485 0.9975817046372193 -0.01623178228389699 0.00023841224205983 0.0034161240754535093 -0.00021566675047506305 -0.00213623317122328
 0.9975817046372193 -0.01623178228389699 0.0022237353302350005 0.006490513951782975 -0.00021567568721088073 -0.002136234559278388 0.00023833097915759808 0.00341613505231789
 0.00023841224205983 0.0034161240754535093 -0.00021567568721088073 -0.002136234559278388 0.002223747438481421 0.0064908448146585454 0.9975817090707395 -0.016231447764430793
 -0.00021566675047506305 -0.00213623317122328 0.00023833097915759808 0.00341613505231789 0.9975817090707395 -0.016231447764430793 0.0022237519693000894 0.006490845455094275
0.03126302626094 0.002429806410329176 0.0081681379857313 0.9973121264586478 -0.020318234399755032 0.0003051395662695651 0.004272252600915692 -0.0002728553552545441 -0.002674356921617776
 0.9973121264586478 -0.020318234399755032 0.0024297747741434104 0.008168145258647883 -0.0002728692273431768 -0.0026743584914597487 0.0003050124437123626 0.004272268806492168
 0.0003051395662695651 0.004272252600915692 -0.0002728692273431768 -0.0026743584914597487 0.002429793299568416 0.008168557419001493 0.9973121330428265 -0.02031781627919969
 -0.0002728553552545441 -0.002674356921617776 0.0003050124437123626 0.004272268806492168 0.9973121330428265 -0.02031781627919969 0.0024298004116964193 0.008168558760103795
0.037515631513130004 0.0026511498073348754 0.009864571282432106 0.9970213931800973 -0.024418583697474128 0.00038088965437531606 0.00512919414988212 -0.0003375412897258554 -0.003213697151034968
 0.9970213931800973 -0.024418583697474128 0.0026511042388188293 0.009864581347266185 -0.000337561151115694 -0.003213698819127379 0.00038070632780723093 0.00512921684527909
 0.00038088965437531606 0.00512919414988212 -0.000337561151115694 -0.003213698819127379 0.002651130515532826 0.009865074117887566 0.9970214023409633 -0.02441808189019291
 -0.0003375412897258554 -0.003213697151034968 0.00038070632780723093 0.00512921684527909 0.9970214023409633 -0.02441808189019291 0.0026511408070831874 0.009865076398340465
0.043768236765320004 0.0028881047665695867 0.011579230882796767 0.9967092117306318 -0.02853303813946606 0.00046575621088404434 0.005986858439597514 -0.0004098230620614805 -0.003754115813600105
 0.9967092117306318 -0.02853303813946606 0.0028880427266829217 0.01157924429157487 -0.00040984995599983154 -0.0037541174876269717 0.00046550625963610463 0.005986889024759055
 0.00046575621088404434 0.005986858439597514 -0.00040984995599983154 -0.0037541174876269717 0.002888078073602559 0.011579816905244213 0.9967092238993612 -0.02853245253006324
 -0.0004098230620614805 -0.003754115813600105 0.00046550625963610463 0.005986889024759055 0.9967092238993612 -0.02853245253006324 0.002888092153479358 0.011579820375452994
0.050020842017509996 0.0031409871071893087 0.013311647512777218 0.9963752871411429 -0.03266168597943404 0.0005598317421040554 0.006845144235524484 -0.0004897972574130582 -0.00429547983159733
 0.9963752871411429 -0.03266168597943404 0.0031409060567178697 0.013311664864393686 -0.0004898322169998608 -0.004295481410532831 0.0005595046642955437 0.006845184252452647
 0.0005598317421040554 0.006845144235524484 -0.0004898322169998608 -0.004295481410532831 0.0031409517764300573 0.013312316472380717 0.9963753027558964 -0.03266101642360394
 -0.0004897972574130582 -0.00429547983159733 0.0005595046642955437 0.006845184252452647 0.9963753027558964 -0.03266101642360394 0.003140970265236283 0.013312321394414203
0.055454545454549996 0.0033739278755400104 0.014831275974961249 0.9960672086082616 -0.036261143545252346 0.0006491358471489828 0.0075914407304358425 -0.0005656180284943523 -0.004766607450031279
 0.9960672086082616 -0.036261143545252346 0.0033738282430344317 0.014831297276228906 -0.0005656608288739927 -0.004766608857548957 0.0006487331491059908 0.007591490308996579
 0.0006491358471489828 0.0075914407304358425 -0.0005656608288739927 -0.004766608857548957 0.0033738840209972644 0.014832016780859493 0.9960672275798581 -0.03626040089669006
 -0.0005656180284943523 -0.004766607450031279 0.0006487331491059908 0.007591490308996579 0.9960672275798581 -0.03626040089669006 0.0033739068548165932 0.01483202318657029
0.056273447269699996 0.003410110113616698 0.015061417120226253 0.9960193234330686 -0.03680453916841271 0.0006632073661521231 0.00770394238577381 -0.0005775585589274163 -0.00483765806995828
 0.9960193234330686 -0.03680453916841271 0.003410007514546443 0.01506143906102631 -0.0005776026076086189 -0.004837659444106886 0.0006627925746599652 0.007703993521882697
 0.0006632073661521231 0.00770394238577381 -0.0005776026076086189 -0.004837659444106886 0.0034100648916888464 0.015062168733580506 0.996019342940268 -0.036803785491978186
 -0.0005775585589274163 -0.00483765806995828 0.0006627925746599652 0.007703993521882697 0.996019342940268 -0.036803785491978186 0.0034100884223566496 0.015062175381313242
0.06252605252188 0.0036957848838059873 0.01682817698925018 0.9956410242097699 -0.04096155717315817 0.0007759726616012669 0.008563137499445888 -0.0006731997287538488 -0.005380519670594969
 0.9956410242097699 -0.04096155717315817 0.003695658200220587 0.016828204213684087 -0.0006732538805835149 -0.00538052072165216 0.0007754594799880611 0.008563201591050833
 0.0007759726616012669 0.008563137499445888 -0.0006732538805835149 -0.00538052072165216 0.0036957284988433535 0.01682901093940907 0.9956410480645491 -0.040960719172091015
 -0.0006731997287538488 -0.005380519670594969 0.0007754594799880611 0.008563201591050833 0.9956410480645491 -0.040960719172091015 0.003695757717783753 0.016829019598535506
0.06877865777407 0.003998320508515006 0.018611591493116197 0.9952400930828023 -0.04513266115972287 0.0008982155370519201 0.009422608944876273 -0.0007768115658486324 -0.0059239330711382265
 0.9952400930828023 -0.04513266115972287 0.003998167208116833 0.018611624744308594 -0.0007768768258012917 -0.0059239336722389626 0.000897593196021774 0.00942268798072377
 0.0008982155370519201 0.009422608944876273 -0.0007768768258012917 -0.0059239336722389626 0.00399825166938044 0.01861250742620988 0.9952401217503006 -0.04513173860370724
 -0.0007768115658486324 -0.0059239330711382265 0.000897593196021774 0.00942268798072377 0.9952401217503006 -0.04513173860370724 0.003998287237175551 0.01861251839430754
0.07503126302626001 0.004318024152256274 0.020411343062066493 0.9948162340040327 -0.049317742966869346 0.0010300221132671977 0.0102822314917887 -0.0008884828499795275 -0.006467765384228509
 0.9948162340040327 -0.049317742966869346 0.0043178417074017225 0.020411383132417964 -0.0008885602141403595 -0.006467765400000907 0.001029279746886169 0.01028232761677871
 0.0010300221132671977 0.0102822314917887 -0.0008885602141403595 -0.006467765400000907 0.004317941547863995 0.02041234059266466 0.9948162679602448 -0.04931673559414685
 -0.0008884828499795275 -0.006467765384228509 0.001029279746886169 0.01028232761677871 0.9948162679602448 -0.04931673559414685 0.004317984140083435 0.020412354179202962
0.08128386827845 0.004655201074774476 0.022227126179197317 0.9943691515413291 -0.05351667105608921 0.0011714766129091124 0.011141875737197505 -0.0010083002760792425 -0.007011881997955258
 0.9943691515413291 -0.05351667105608921 0.004654986963973167 0.022227173910936888 -0.0010083907318034807 -0.007011881284578658 0.0011706032553489881 0.011141991256143444
 0.0011714766129091124 0.011141875737197505 -0.0010083907318034807 -0.007011881284578658 0.004655103372617762 0.022228204884525954 0.9943691912741666 -0.053515578579470674
 -0.0010083002760792425 -0.007011881997955258 0.0011706032553489881 0.011141991256143444 0.9943691912741666 -0.053515578579470674 0.004655153680961891 0.022228221410843508
0.08753647353064001 0.005010154608774143 0.02405864322901985 0.9938985511148335 -0.05772929461438498 0.0013226612554901188 0.0120014084131048 -0.0011363483822813087 -0.007556146299401504
 0.9938985511148335 -0.05772929461438498 0.005009906317919432 0.024058699514773352 -0.0011364529083603347 -0.007556144704651833 0.0013216458375161296 0.012001545794660735
 0.0013226612554901188 0.0120014084131048 -0.0011364529083603347 -0.007556144704651833 0.005010040454584146 0.024059802652020897 0.9938985971253729 -0.05772811671852023
 -0.0011363483822813087 -0.007556146299401504 0.0013216458375161296 0.012001545794660735 0.9938985971253729 -0.05772811671852023 0.005010099187444701 0.024059822451421464
0.09378907878283 0.005383186110938985 0.025905601523628172 0.9934041392097879 -0.06195544648514963 0.0014836561551780493 0.012860692607104363 -0.0012727094735676713 -0.00810041949055842
 0.9934041392097879 -0.06195544648514963 0.00538290113493232 0.025905667306915188 -0.0012728290403630491 -0.008100416853858029 0.001482487500836502 0.012860854487719321
 0.0014836561551780493 0.012860692607104363 -0.0012728290403630491 -0.008100416853858029 0.005383054127113388 0.025906841173536727 0.993404192012827 -0.06195418282623283
 -0.0012727094735676713 -0.00810041949055842 0.001482487500836502 0.012860854487719321 0.993404192012827 -0.06195418282623283 0.005383122010726418 0.025906864591172682
0.100041684035 0.005774594891899168 0.02776771114179151 0.9928856235714684 -0.06619494529170673 0.0016545392211961077 0.013719587935139926 -0.001417463541731879 -0.00864456045727581
 0.9928856235714684 -0.06619494529170673 0.005774270736020618 0.027767787417581704 -0.0014175991112552815 -0.008644556609747743 0.0016532060445015122 0.013719777123251951
 0.0016545392211961077 0.013719587935139926 -0.0014175991112552815 -0.008644556609747743 0.005774443676974912 0.027769030492662612 0.9928856836972467 -0.06619359549946195
 -0.001417463541731879 -0.00864456045727581 0.0016532060445015122 0.013719777123251951 0.9928856836972467 -0.06619359549946195 0.005774521456380014 0.02776905788554549
0.1059090909091 0.006158869205915934 0.02952862621433292 0.9923768704897988 -0.07018523151609544 0.0018239554120995922 0.014525088451238398 -0.0015610023559426065 -0.009154930973677856
 0.9923768704897988 -0.07018523151609544 0.006158506025699664 0.029528713287344566 -0.001561153809933376 -0.009154925828970682 0.0018224574833300188 0.014525305975670573
 0.0018239554120995922 0.014525088451238398 -0.001561153809933376 -0.009154925828970682 0.006158698647723739 0.02953001984789454 0.9923769379835856 -0.0701838005353713
 -0.0015610023559426065 -0.009154930973677856 0.0018224574833300188 0.014525305975670573 0.9923769379835856 -0.0701838005353713 0.006158786408529948 0.02953005130636773
0.1062942892872 0.006184678131054236 0.029644683288870044 0.99234271338898 -0.07044759704646351 0.0018353860593825087 0.014577950674570248 -0.0015706881830311074 -0.009188425683456443
 0.99234271338898 -0.07044759704646351 0.006184312312664504 0.029644771104021545 -0.0015708407090520564 -0.009188420447970462 0.0018338769611669658 0.01457817015480621
 0.0018353860593825087 0.014577950674570248 -0.0015708407090520564 -0.009188420447970462 0.006184506258486501 0.029646081781368724 0.992342781383701 -0.07044616072272099
 -0.0015706881830311074 -0.009188425683456443 0.0018338769611669658 0.01457817015480621 0.992342781383701 -0.07044616072272099 0.0061845946986545 0.02964611351833745
0.11254689453939999 0.006613730780528562 0.03153622905480831 0.9917751194701458 -0.07471319636795515 0.002026269875438732 0.015435633880748003 -0.0017324585135655782 -0.009731869187321171
 0.9917751194701458 -0.07471319636795515 0.006613320830300304 0.031536329508613854 -0.0017326289417122565 -0.00973186237854067 0.002024573339842817 0.015435886818255138
 0.002026269875438732 0.015435633880748003 -0.0017326289417122565 -0.00973186237854067 0.006613536797628374 0.03153770609607216 0.9917751958971766 -0.07471167308739388
 -0.0017324585135655782 -0.009731869187321171 0.002024573339842817 0.015435886818255138 0.9917751958971766 -0.07471167308739388 0.0066136366840182 0.03153774255773972
0.11879949979160001 0.00706204545883335 0.033442058448810076 0.9911825544103379 -0.07899152742803733 0.0022272613782644687 0.016292487478592348 -0.0019028470833925954 -0.01027474248829707
 0.9911825544103379 -0.07899152742803733 0.0070615889226288186 0.03344217269341626 -0.00190303635118207 -0.010274733912727839 0.002225365769789233 0.01629277722354168
 0.0022272613782644687 0.016292487478592348 -0.00190303635118207 -0.010274733912727839 0.007061827885688634 0.03344361341235334 0.9911826398514094 -0.07898991673879534
 -0.0019028470833925954 -0.01027474248829707 0.002225365769789233 0.01629277722354168 0.9911826398514094 -0.07898991673879534 0.007061940025798789 0.03344365499102163
0.1250521050438 0.007529912338217888 0.035361879633945964 0.9905647327569702 -0.0832823647055767 0.002438428684553946 0.017148358348463726 -0.002081923789308564 -0.010816894585509143
 0.9905647327569702 -0.0832823647055767 0.007529406778726383 0.035362008874787014 -0.002082132826269094 -0.01081688404154303 0.0024363222448217864 0.01714868844059938
 0.002438428684553946 0.017148358348463726 -0.002082132826269094 -0.01081688404154303 0.007529669666970504 0.0353635118610596 0.9905648278134799 -0.08328066612858892
 -0.002081923789308564 -0.010816894585509143 0.0024363222448217864 0.01714868844059938 0.9905648278134799 -0.08328066612858892 0.007529794891175751 0.035363558960661554
0.131304710296 0.008017619026271447 0.03729539832248757 0.9899213711712612 -0.08758547358649812 0.002659837223694055 0.01800309040466455 -0.0022697557868422377 -0.011358171949476385
 0.9899213711712612 -0.08758547358649812 0.008017062024691936 0.03729554381868275 -0.0022699855145086765 -0.011358159227435091 0.002657508068104777 0.018003464578075425
 0.002659837223694055 0.01800309040466455 -0.0022699855145086765 -0.011358159227435091 0.008017349720067296 0.03729710712284818 0.9899214764651378 -0.08758368661550112
 -0.0022697557868422377 -0.011358171949476385 0.002657508068104777 0.018003464578075425 0.9899214764651378 -0.08758368661550112 0.008017488882719227 0.03729716015881483
0.1375573155481 0.008414130019563829 0.03898936250152695 0.9893635529577701 -0.091647535446091 0.002863778014638249 0.018831017293097378 -0.0024386441731495878 -0.011872927148934016
 0.9893635529577701 -0.091647535446091 0.008413520281596566 0.038989522565929885 -0.0024388961322977004 -0.011872912242084534 0.002861222695049376 0.01883143511299974
 0.002863778014638249 0.018831017293097378 -0.0024388961322977004 -0.011872912242084534 0.008413833537465117 0.03899114694916863 0.9893636689690214 -0.09164565976133827
 -0.0024386441731495878 -0.011872927148934016 0.002861222695049376 0.01883143511299974 0.9893636689690214 -0.09164565976133827 0.008413986872308037 0.03899120412439034
0.1438099208003 0.008824601420663745 0.04067427850471455 0.988786091324204 -0.09569919240125037 0.0030759602467098847 0.01965557971843688 -0.0026142933371937197 -0.012384592940785005
 0.988786091324204 -0.09569919240125037 0.008823936755637458 0.0406744541498639 -0.0026145685491550403 -0.012384575638785686 0.0030731682233771087 0.019656044597088577
 0.0030759602467098847 0.01965557971843688 -0.0026145685491550403 -0.012384575638785686 0.008824276363323471 0.040676137825240294 0.9887862186758319 -0.09569722750292045
 -0.0026142933371937197 -0.012384592940785005 0.0030731682233771087 0.019656044597088577 0.9887862186758319 -0.09569722750292045 0.008824444645843315 0.04067619936505477
0.1500625260525 0.009248887251942586 0.042350002134506584 0.9881891364301093 -0.09974034062651488 0.0032963103888274297 0.02047669281431978 -0.0027966315814812303 -0.012893088637904343
 0.9881891364301093 -0.09974034062651488 0.009248165499503034 0.04235019441141234 -0.0027969310673672965 -0.012893068721726086 0.0032932710978455203 0.02047720830586873
 0.0032963103888274297 0.02047669281431978 -0.0027969310673672965 -0.012893068721726086 0.009248532203115094 0.042351935522984226 0.9881892757623583 -0.09973828599508164
 -0.0027966315814812303 -0.012893088637904343 0.0032932710978455203 0.02047720830586873 0.9881892757623583 -0.09973828599508164 0.009248716224155984 0.04235200166174607
0.15631513130469998 0.009686840478500323 0.044016393538167116 0.9875728392219253 -0.10377087672999653 0.003524754033767005 0.021294273168631122 -0.0029855863148905135 -0.013398335273102803
 0.9875728392219253 -0.10377087672999653 0.009686059509762973 0.04401660353573949 -0.0029859110955297945 -0.013398312514996484 0.0035214568846363733 0.021294842969868416
