! Created with skrf 1.8.0 (http://scikit-rf.org).
# GHz S RI R 50.0 
!freq ReS11 ImS11 ReS12 ImS12 ReS13 ImS13
! ReS14 ImS14
! ReS21 ImS21 ReS22 ImS22 ReS23 ImS23
! ReS24 ImS24
! ReS31 ImS31 ReS32 ImS32 ReS33 ImS33
! ReS34 ImS34
! ReS41 ImS41 ReS42 ImS42 ReS43 ImS43
! ReS44 ImS44
!
0.0 0.001524025798387 0.0 0.9984759742016 0.0 5.873719800017e-05 0.0 -5.873719861091e-05 7.19323222697333e-21
 0.9984759742016 0.0 0.001524025798399 0.0 -5.873719861181e-05 7.193232227083547e-21 5.873719800136e-05 0.0
 5.873719800017e-05 0.0 -5.873719861181e-05 7.193232227083547e-21 0.001524025794144 0.0 0.9984759741973 0.0
 -5.873719861091e-05 7.19323222697333e-21 5.873719800136e-05 0.0 0.9984759741973 0.0 0.001524025794107 0.0
0.005 0.0016396654520432555 0.0012471428738296114 0.9983296890082779 -0.0031924465738377007 8.220933336578091e-05 0.0006454586035173208 -7.986248582780023e-05 -0.00040545415089538914
 0.9983296890082779 -0.0031924465738377007 0.0016396735849835316 0.0012471381712515512 -7.986115240433588e-05 -0.00040545321241797 8.216256578388786e-05 0.0006454764287820973
 8.220933336578091e-05 0.0006454586035173208 -7.986115240433588e-05 -0.00040545321241797 0.0016396653428462757 0.00124707572911123 0.998329688646234 -0.0031925136329636742
 -7.986248582780023e-05 -0.00040545415089538914 8.216256578388786e-05 0.0006454764287820973 0.998329688646234 -0.0031925136329636742 0.0016396729773333106 0.001247071204803578
0.006252605252188 0.00166997656604248 0.0015638354019364916 0.9982911065643344 -0.003991341485111265 8.890264043552312e-05 0.0008071379725427602 -8.581722065993719e-05 -0.0005073424232044336
 0.9982911065643344 -0.003991341485111265 0.0016699892788171928 0.0015638294313562867 -8.581514505348964e-05 -0.0005073412678763125 8.882957045327836e-05 0.000807161113884787
 8.890264043552312e-05 0.0008071379725427602 -8.581514505348964e-05 -0.0005073412678763125 0.0016699764825523018 0.0015637514768603914 0.9982911060859684 -0.003991425313729523
 -8.581722065993719e-05 -0.0005073424232044336 8.882957045327836e-05 0.000807161113884787 0.9982911060859684 -0.003991425313729523 0.0016699884171334286 0.0015637457148667579
0.01250521050438 0.0018294381394542139 0.0031604425172577885 0.9980868065812419 -0.007983501331787641 0.00012722089213852765 0.001614646970079659 -0.00011955137737244623 -0.0010171531242065145
 0.9980868065812419 -0.007983501331787641 0.0018294888940057618 0.0031604296409528843 -0.00011954318911311902 -0.001017151009269171 0.00012692950844277748 0.0016147025232087114
 0.00012722089213852765 0.001614646970079659 -0.00011954318911311902 -0.001017151009269171 0.001829438338540547 0.003160275039141434 0.9980868052089232 -0.0079836687447384
 -0.00011955137737244623 -0.0010171531242065145 0.00012692950844277748 0.0016147025232087114 0.9980868052089232 -0.0079836687447384 0.0018294860028221318 0.0031602624379985854
0.01875781575657 0.0020027558173667 0.004779791806612937 0.9978628223105959 -0.011986198469582885 0.00017378042811762916 0.002423067102177765 -0.00016004279579836045 -0.001528702574814634
 0.9978628223105959 -0.011986198469582885 0.002002869850170741 0.004779771010360059 -0.00016002452383795623 -0.0015286997365035245 0.0001731258720973201 0.00242316613952782
 0.00017378042811762916 0.002423067102177765 -0.00016002452383795623 -0.0015286997365035245 0.0020027566760515408 0.004779541021902613 0.9978628196473918 -0.011986449404523706
 -0.00016004279579836045 -0.001528702574814634 0.0001731258720973201 0.00242316613952782 0.9978628196473918 -0.011986449404523706 0.002002863798838121 0.004779520426419466
0.02501042100875 0.0021902648632291825 0.006419620470056109 0.9976188919444828 -0.016001374809910027 0.00022867101054033478 0.003232432977749227 -0.00020739135162537982 -0.002041761200305971
 0.9976188919444828 -0.016001374809910027 0.002190467351740237 0.00641959066954847 -0.00020735906845908427 -0.002041757919131646 0.0002275083718691092 0.0032325883094801665
 0.00022867101054033478 0.003232432977749227 -0.00020735906845908427 -0.002041757919131646 0.0021902667457444013 0.006419286632495755 0.9976188875845102 -0.016001709254459835
 -0.00020739135162537982 -0.002041761200305971 0.0002275083718691092 0.0032325883094801665 0.9976188875845102 -0.016001709254459835 0.0021904570190703237 0.0064192568169947105
0.03126302626094 0.0023922866761629026 0.0080787650112639 0.99735474020947 -0.020029862653619793 0.0002919828815463299 0.004042705099580841 -0.00026169416702584496 -0.0025561679663331487
 0.99735474020947 -0.020029862653619793 0.0023926027529893785 0.008078725053910085 -0.00026164398131165345 -0.0025561645676454004 0.00029016706311094174 0.0040429312832423675
 0.0002919828815463299 0.004042705099580841 -0.00026164398131165345 -0.0025561645676454004 0.002392289941225695 0.008078348402738206 0.9973547337433561 -0.02003028062504866
 -0.00026169416702584496 -0.0025561679663331487 0.00029016706311094174 0.0040429312832423675 0.9973547337433561 -0.02003028062504866 0.0023925870324707672 0.008078308072292232
0.037515631513130004 0.0026091357226968154 0.00975646755920963 0.9970700855130085 -0.02407207830826116 0.00036380588367461913 0.004853814684131169 -0.0003230463023923091 -0.0030717855585436103
 0.9970700855130085 -0.02407207830826116 0.0026095904847272854 0.009756416224770232 -0.0003229743552122914 -0.0030717824127303567 0.00036119154105920516 0.004854128041951907
 0.00036380588367461913 0.004853814684131169 -0.0003229743552122914 -0.0030717824127303567 0.0026091407269875403 0.009755968488806726 0.99707007652945 -0.024072579854703843
 -0.0003230463023923091 -0.0030717855585436103 0.00036119154105920516 0.004854128041951907 0.99707007652945 -0.024072579854703843 0.002609568287202095 0.009755916279797236
0.043768236765320004 0.0028411222223850936 0.01145216475161176 0.9967646428448176 -0.028128233134185714 0.000444229044942774 0.005665677291139222 -0.00039154100444784354 -0.0035884867530305564
 0.9967646428448176 -0.028128233134185714 0.0028417407379601593 0.011452100752678725 -0.00039144346722649317 -0.0035884842756507755 0.00044067055766857554 0.00566609592963929
 0.000444229044942774 0.005665677291139222 -0.00039144346722649317 -0.0035884842756507755 0.0028411293210649654 0.011451583562709781 0.9967646309286826 -0.02812881832787282
 -0.00039154100444784354 -0.0035884867530305564 0.00044067055766857554 0.00566609592963929 0.9967646309286826 -0.02812881832787282 0.0028417109907401313 0.011451518043146522
0.050020842017509996 0.0030885533948608527 0.013165400479202562 0.9964381252437648 -0.0321984207280171 0.0005333403290865265 0.00647819845433404 -0.00046726979503344584 -0.0041061487876812314
 0.9964381252437648 -0.0321984207280171 0.0030893607102231812 0.01316532246143428 -0.0004671428682324402 -0.00410614743955806 0.0005286917892205625 0.006478742284925662
 0.0005333403290865265 0.00647819845433404 -0.0004671428682324402 -0.00410614743955806 0.0030885629410876015 0.013164737554259566 0.9964381099742787 -0.03219908966083434
 -0.00046726979503344584 -0.0041061487876812314 0.0005286917892205625 0.006478742284925662 0.9964381099742787 -0.03219908966083434 0.003089322355867384 0.013164657223827295
0.055454545454549996 0.0033163583646313058 0.014668192349362232 0.9961370324327616 -0.035746949228807966 0.0006179039400877716 0.007184759933506471 -0.0005390251712709754 -0.004556699072697667
 0.9961370324327616 -0.035746949228807966 0.0033173500801472328 0.014668100996836313 -0.0005388696402430281 -0.0045566991153809236 0.0006121893915660404 0.007185430147901461
 0.0006179039400877716 0.007184759933506471 -0.0005388696402430281 -0.0045566991153809236 0.00331637032478874 0.014667458730947503 0.9961370139032427 -0.0357476910268088
 -0.0005390251712709754 -0.004556699072697667 0.0006121893915660404 0.007185430147901461 0.9961370139032427 -0.0357476910268088 0.003317303400456506 0.014667364257866381
0.056273447269699996 0.003351734096475804 0.014895783081346634 0.9960902446577196 -0.03628265965583529 0.0006312264589604893 0.007291276439256387 -0.0005503224890318313 -0.00462465060932428
 0.9960902446577196 -0.03628265965583529 0.0033527552410750595 0.014895689623354066 -0.000550162401283963 -0.004624650896611497 0.0006253416691095703 0.007291967199258188
 0.0006312264589604893 0.007291276439256387 -0.000550162401283963 -0.004624650896611497 0.0033517464436070986 0.01489503883810865 0.9960902256088451 -0.0362834124432944
 -0.0005503224890318313 -0.00462465060932428 0.0006253416691095703 0.007291967199258188 0.9960902256088451 -0.0362834124432944 0.0033527072393067362 0.014894942128073936
0.06252605252188 0.0036309671641644734 0.016642961791321065 0.9957207125149805 -0.040380916939227685 0.0007379727743997702 0.00810480377145308 -0.0006407871769239881 -0.0051438713539637805
 0.9957207125149805 -0.040380916939227685 0.0036322271561734514 0.016642851404580463 -0.0006405901846228051 -0.005143873828198488 0.0007307052532208309 0.008105665045254149
 0.0007379727743997702 0.00810480377145308 -0.0006405901846228051 -0.005143873828198488 0.003630982667250678 0.01664213668356869 0.995720689254407 -0.04038175371989894
 -0.0006407871769239881 -0.0051438713539637805 0.0007307052532208309 0.008105665045254149 0.995720689254407 -0.04038175371989894 0.0036321684840182607 0.016642021956609705
0.06877865777407 0.003926553596735428 0.018406612695985453 0.9953292401360011 -0.044493122030221315 0.0008536631124534904 0.008918668138861848 -0.0007387501850095088 -0.0056636894566380255
 0.9953292401360011 -0.044493122030221315 0.003928077448031295 0.018406483824505816 -0.0007385125719785205 -0.005663694714800585 0.0008448661044881045 0.008919725379107369
 0.0008536631124534904 0.008918668138861848 -0.0007385125719785205 -0.005663694714800585 0.003926572612920371 0.01840570722151244 0.9953292122247644 -0.044494042958021965
 -0.0007387501850095088 -0.0056636894566380255 0.0008448661044881045 0.008919725379107369 0.9953292122247644 -0.044494042958021965 0.00392800710006336 0.018405572771260537
0.07503126302626001 0.004238792638489296 0.020186429849981393 0.9949155390524593 -0.04861917563607739 0.0009783796972830155 0.009732752973652954 -0.0008442960244633068 -0.0061839820859349425
 0.9949155390524593 -0.04861917563607739 0.0042406053596705665 0.02018628086978859 -0.000844014101864362 -0.006183990770479798 0.0009679061865895315 0.00973403352233666
 0.0009783796972830155 0.009732752973652954 -0.000844014101864362 -0.006183990770479798 0.004238815528226716 0.020185444541392754 0.9949155060434979 -0.04862018088945713
 -0.0008442960244633068 -0.0061839820859349425 0.0009679061865895315 0.00973403352233666 0.9949155060434979 -0.04862018088945713 0.004240522348331639 0.020185288592028637
0.08128386827845 0.004567981804027816 0.02198211934493797 0.9944793212701143 -0.05275895559307961 0.0011122030385183196 0.01054693784294548 -0.0009575073310380975 -0.006704624773932417
 0.9944793212701143 -0.05275895559307961 0.004570108409275196 0.02198194856347641 -0.0009571774373334213 -0.006704637572830463 0.0010999057649838848 0.01054847095234566
 0.0011122030385183196 0.01054693784294548 -0.0009571774373334213 -0.006704637572830463 0.004568008932564334 0.021981054772283164 0.9944792827080476 -0.05276004537259716
 -0.0009575073310380975 -0.006704624773932417 0.0010999057649838848 0.01054847095234566 0.9944792827080476 -0.05276004537259716 0.0045700117660479106 0.02198087547777391
0.08753647353064001 0.004914416862174251 0.02379339521618862 0.9940202994948052 -0.056912320908061406 0.0012552118342996359 0.011361098721155097 -0.0010784647987472737 -0.007225491168980552
 0.9940202994948052 -0.056912320908061406 0.0049168823743161285 0.02379320087146868 -0.0010780832998700009 -0.007225508815726376 0.0012409433122344844 0.011362915574608478
 0.0012552118342996359 0.011361098721155097 -0.0010780832998700009 -0.007225508815726376 0.004914448600675487 0.023792251993790682 0.9940202549152178 -0.05691349542947455
 -0.0010784647987472737 -0.007225491168980552 0.0012409433122344844 0.011362915574608478 0.9940202549152178 -0.05691349542947455 0.004916771149605393 0.02379204743719884
0.09378907878283 0.005278391793052859 0.025619976525381272 0.9935381873349596 -0.061079114628702115 0.0014074828768427712 0.012175108192359013 -0.0012072471100670749 -0.007746452863165779
 0.9935381873349596 -0.061079114628702115 0.0052812212481091626 0.025619756785084914 -0.0012068103994897488 -0.007746476136808518 0.0013910954154079242 0.01217724192471241
 0.0014074828768427712 0.012175108192359013 -0.0012068103994897488 -0.007746476136808518 0.005278428519301067 0.02561875530367198 0.9935381362631929 -0.06108037413124443
 -0.0012072471100670749 -0.007746452863165779 0.0013910954154079242 0.01217724192471241 0.9935381362631929 -0.06108037413124443 0.005281094512104296 0.02561852349610117
0.100041684035 0.005660198723871515 0.027461585212698182 0.9930326994863251 -0.06525916594998661 0.0015690909603357141 0.012988835604780187 -0.0013439308624904449 -0.008267379272339696
 0.9930326994863251 -0.06525916594998661 0.0056634171761835534 0.02746133817295656 -0.001343435361524319 -0.008267408997470782 0.001550436685734211 0.012991321322652708
 0.0015690909603357141 0.012988835604780187 -0.001343435361524319 -0.008267408997470782 0.00566024082427687 0.027460286682755793 0.9930326414374462 -0.06526051069166054
 -0.0013439308624904449 -0.008267379272339696 0.001550436685734211 0.012991321322652708 0.9930326414374462 -0.06526051069166054 0.005663274019644781 0.027460025562298793
0.1059090909091 0.0060349605725577675 0.029203160299889813 0.9925368397840335 -0.06919359547365315 0.001729299735112562 0.013752056828012619 -0.0014794466773202356 -0.008756063061171052
 0.9925368397840335 -0.06919359547365315 0.006038566864524836 0.029202885846172092 -0.0014788927780047408 -0.008756099630872254 0.0017083836648384813 0.01375490654992845
 0.001729299735112562 0.013752056828012619 -0.0014788927780047408 -0.008756099630872254 0.006035008075190821 0.02920178988752845 0.9925367747362784 -0.06919502045619248
 -0.0014794466773202356 -0.008756063061171052 0.0017083836648384813 0.01375490654992845 0.9925367747362784 -0.06919502045619248 0.006038407490403158 0.029201499318590975
0.1062942892872 0.006060127852012022 0.029317944487017737 0.9925035519067987 -0.06945229178774884 0.001740108790485234 0.013802147191274648 -0.0014885904927672705 -0.008788137555167322
 0.9925035519067987 -0.06945229178774884 0.006063760378853006 0.029317668171202908 -0.0014880326507746755 -0.008788174601927523 0.0017190396694065622 0.013805021992920502
 0.001740108790485234 0.013802147191274648 -0.0014880326507746755 -0.008788174601927523 0.006060175721749165 0.02931656937948037 0.9925034863840569 -0.06945372204641456
 -0.0014885904927672705 -0.008788137555167322 0.0017190396694065622 0.013805021992920502 0.9925034863840569 -0.06945372204641456 0.00606359991306506 0.02931627680994454
0.11254689453939999 0.006478467354177676 0.03118877759731358 0.9919504619815166 -0.07365829797729115 0.0019206068947087997 0.014614906170528104 -0.001641298199447021 -0.009308592556366535
 0.9919504619815166 -0.07365829797729115 0.0064825390608429755 0.031188469954457034 -0.0016406744941639638 -0.00930863784042568 0.00189697475909926 0.01461820916544814
 0.0019206068947087997 0.014614906170528104 -0.0016406744941639638 -0.00930863784042568 0.006478521399354783 0.03118732668084533 0.9919503884760568 -0.07365981405199158
 -0.001641298199447021 -0.009308592556366535 0.00189697475909926 0.01461820916544814 0.9919503884760568 -0.07365981405199158 0.0064823604190999175 0.031187000450267528
0.11879949979160001 0.006915503289110757 0.03307380687660268 0.9913731486827497 -0.07787698020492208 0.0021106535332640255 0.015426972832997642 -0.0018021238637645379 -0.009828606770440378
 0.9913731486827497 -0.07787698020492208 0.006920039313610586 0.0330734657798028 -0.0018014308016793303 -0.009828661252965104 0.002084310106353313 0.015430745161137419
 0.0021106535332640255 0.015426972832997642 -0.0018014308016793303 -0.009828661252965104 0.00691556392752539 0.0330722809614211 0.9913730666726918 -0.07787858241210512
 -0.0018021238637645379 -0.009828606770440378 0.002084310106353313 0.015430745161137419 0.9913730666726918 -0.07787858241210512 0.00691984165121028 0.033071918780534754
0.1250521050438 0.007371519492297063 0.034972752988969964 0.9907713327264213 -0.08210812474285367 0.0023103146109440236 0.01623820461431761 -0.001971134969572691 -0.010348040323121204
 0.9907713327264213 -0.08210812474285367 0.007376545010393928 0.03497237623346587 -0.001970369086250431 -0.010348105010751204 0.0022811115341277587 0.01624248946486949
 0.0023103146109440236 0.01623820461431761 -0.001970369086250431 -0.010348105010751204 0.007371587154616125 0.03497115292261723 0.9907712416757697 -0.08210981342039539
 -0.001971134969572691 -0.010348040323121204 0.0022811115341277587 0.01624248946486949 0.9907712416757697 -0.08210981342039539 0.0073763275054198295 0.03497075242300977
0.131304710296 0.007846797464415519 0.03688533432602049 0.9901447367235412 -0.08635150904075095 0.00251965358923878 0.017048456165262814 -0.0021483965222779625 -0.010866750961619409
 0.9901447367235412 -0.08635150904075095 0.007852337694434667 0.036884919627206324 -0.0021475543827404594 -0.01086682690640318 0.00248744245000587 0.017053298795097878
 0.00251965358923878 0.017048456165262814 -0.0021475543827404594 -0.01086682690640318 0.007846872595640935 0.03688366099604984 0.9901446360821144 -0.08635328454497763
 -0.0021483965222779625 -0.010866750961619409 0.00248744245000587 0.017053298795097878 0.9901446360821144 -0.08635328454497763 0.007852099548717401 0.03688321972821797
0.1375573155481 0.008232301471369007 0.038562061777162024 0.9896024413830148 -0.09035758835204453 0.0027123302637301967 0.01783268584710758 -0.0023076114900875896 -0.011359690339809825
 0.9896024413830148 -0.09035758835204453 0.008238384196192322 0.038561615532902084 -0.002306688255160556 -0.011359777637869179 0.00267703627726386 0.0178380791796701
 0.0027123302637301967 0.01783268584710758 -0.002306688255160556 -0.011359777637869179 0.008232385426405388 0.038560315405248964 0.98960233070578 -0.09035945089572196
 -0.0023076114900875896 -0.011359690339809825 0.00267703627726386 0.0178380791796701 0.98960233070578 -0.09035945089572196 0.008238123515869665 0.03855984072255338
0.1438099208003 0.008631363749713261 0.040230008281046635 0.9890410857677041 -0.09435356152232656 0.002912793144124146 0.01861375943055002 -0.0024731960920013002 -0.011849738828577224
 0.9890410857677041 -0.09435356152232656 0.008638014656276753 0.04022952871802588 -0.002472188115938978 -0.01184983850831249 0.002874281127503725 0.01861974485710331
 0.002912793144124146 0.01861375943055002 -0.002472188115938978 -0.01184983850831249 0.008631457159161174 0.04022818973112045 0.9890409645048599 -0.09435551145526665
 -0.0024731960920013002 -0.011849738828577224 0.002874281127503725 0.01861974485710331 0.9890409645048599 -0.09435551145526665 0.00863773047808006 0.040227679816288976
0.1500625260525 0.009043844557142557 0.04188903576922042 0.988460813622231 -0.09833933064484293 0.003120973838550151 0.01939159789880169 -0.0026450839662121597 -0.012336821726852382
 0.988460813622231 -0.09833933064484293 0.00905108939245917 0.041888521009621475 -0.002643987614558267 -0.012336934857480754 0.0030791094099638524 0.01939821832015609
 0.003120973838550151 0.01939159789880169 -0.002643987614558267 -0.012336934857480754 0.009043948076473211 0.04188714593603868 0.9884606812113017 -0.09834136833078165
 -0.0026450839662121597 -0.012336821726852382 0.0030791094099638524 0.01939821832015609 0.9884606812113017 -0.09834136833078165 0.009050780762552026 0.041886598870399215
0.15631513130469998 0.009469603169431257 0.04353901034172788 0.9878617694095921 -0.10231479813230039 0.003336803154234738 0.020166123568662764 -0.002823207939576574 -0.012820865903996247
 0.9878617694095921 -0.10231479813230039 0.00947746774206431 0.04353845840071882 -0.0028220195893854357 -0.012820993595252773 0.0032914527451601535 0.020173423379469962
