! Created with skrf 1.8.0 (http://scikit-rf.org).
# GHz S RI R 50.0 
!freq ReS11 ImS11 ReS12 ImS12 ReS13 ImS13
! ReS14 ImS14
! ReS21 ImS21 ReS22 ImS22 ReS23 ImS23
! ReS24 ImS24
! ReS31 ImS31 ReS32 ImS32 ReS33 ImS33
! ReS34 ImS34
! ReS41 ImS41 ReS42 ImS42 ReS43 ImS43
! ReS44 ImS44
!
0.0 0.001489869576337 0.0 0.9985101304237 0.0 5.764421317536e-05 0.0 -5.764421313156e-05 7.059380110093277e-21
 0.9985101304237 0.0 0.00148986957633 0.0 -5.764421313094e-05 7.059380110017349e-21 5.764421317592e-05 0.0
 5.764421317536e-05 0.0 -5.764421313094e-05 7.059380110017349e-21 0.001489869562117 0.0 0.9985101304095 0.0
 -5.764421313156e-05 7.059380110093277e-21 5.764421317592e-05 0.0 0.9985101304095 0.0 0.001489869562141 0.0
0.005 0.0016028856205435383 0.0012140132125222948 0.9983671600174303 -0.00312130791831618 8.142578337774638e-05 0.0006650829914848072 -7.8919932323801e-05 -0.00041226013790458333
 0.9983671600174303 -0.00312130791831618 0.0016028900341991193 0.0012140106307577839 -7.891692582767794e-05 -0.0004122578115445454 8.140476842470422e-05 0.0006650909314434969
 8.142578337774638e-05 0.0006650829914848072 -7.891692582767794e-05 -0.0004122578115445454 0.0016028868895743718 0.0012139451834510537 0.9983671596653044 -0.003121374967312576
 -7.8919932323801e-05 -0.00041226013790458333 8.140476842470422e-05 0.0006650909314434969 0.9983671596653044 -0.003121374967312576 0.0016028880617170475 0.001213944560985908
0.006252605252188 0.0016324831841073586 0.001522321161773216 0.9983294864526854 -0.00390240726255829 8.819567726316397e-05 0.0008316648167529515 -8.491096847823513e-05 -0.000515867588364629
 0.9983294864526854 -0.00390240726255829 0.001632490083710135 0.0015223179127251917 -8.490629022458433e-05 -0.000515864719412949 8.816284253474976e-05 0.0008316751337091355
 8.819567726316397e-05 0.0008316648167529515 -8.490629022458433e-05 -0.000515864719412949 0.0016324852431044152 0.0015222361063924816 0.9983294859771096 -0.003902491088762336
 -8.491096847823513e-05 -0.000515867588364629 8.816284253474976e-05 0.0008316751337091355 0.9983294859771096 -0.003902491088762336 0.001632487074958183 0.001522235314233213
0.01250521050438 0.0017880402744755778 0.0030767779005830987 0.9981301974747441 -0.007805688924511759 0.0001268905239363375 0.0016636156324656797 -0.00011881796422191836 -0.0010342921655394442
 0.9981301974747441 -0.007805688924511759 0.001788067828654784 0.0030767711755450744 -0.00011879952876641208 -0.0010342868539202632 0.00012675956257976372 0.0016636404808721356
 0.0001268905239363375 0.0016636156324656797 -0.00011879952876641208 -0.0010342868539202632 0.0017880490523959993 0.00307660800182255 0.9981301961267265 -0.007805856309438326
 -0.00011881796422191836 -0.0010342921655394442 0.00012675956257976372 0.0016636404808721356 0.9981301961267265 -0.007805856309438326 0.0017880563600863977 0.0030766062951027226
0.01875781575657 0.0019568723934949377 0.004653561751157575 0.9979120216100398 -0.011719358909054955 0.00017381660535504596 0.002496447800627028 -0.0001594683987654207 -0.001554491462725175
 0.9979120216100398 -0.011719358909054955 0.00195693431604151 0.004653551278432146 -0.00015942728818181981 -0.0015544842137584724 0.00017352235595310812 0.0024964921895992004
 0.00017381660535504596 0.002496447800627028 -0.00015942728818181981 -0.0015544842137584724 0.0019568925551668327 0.00465330700150814 0.9979120190078582 -0.011719609760889463
 -0.0001594683987654207 -0.001554491462725175 0.00017352235595310812 0.0024964921895992004 0.9979120190078582 -0.011719609760889463 0.0019569089629133045 0.004653304294998447
0.02501042100875 0.00213930175289342 0.006250463699794485 0.9976747077191361 -0.01564532198853658 0.000229063098841571 0.0033302086268873024 -0.0002069621300090682 -0.002076225786250267
 0.9976747077191361 -0.01564532198853658 0.0021394117358038657 0.0062504491689981834 -0.00020688953297598857 -0.0020762171933768137 0.0002285403343242194 0.0033302783352537188
 0.000229063098841571 0.0033302086268873024 -0.00020688953297598857 -0.0020762171933768137 0.002139337952140027 0.0062501240325893385 0.997674703473749 -0.015645656233210188
 -0.0002069621300090682 -0.002076225786250267 0.0002285403343242194 0.0033302783352537188 0.997674703473749 -0.015645656233210188 0.0021393670697277237 0.006250120279727447
0.03126302626094 0.0023356371840243624 0.007866350537650574 0.9974179915677878 -0.019584397402006404 0.0002927197532301598 0.004164865293334068 -0.000261396199089726 -0.0025993300945869125
 0.9974179915677878 -0.019584397402006404 0.002335808904896518 0.00786633160066361 -0.00026128339254218795 -0.0025993208404864313 0.00029190311736763106 0.004164966875510008
 0.0002927197532301598 0.004164865293334068 -0.00026128339254218795 -0.0025993208404864313 0.0023356940760079683 0.007865925831716488 0.997417985293115 -0.019584814978599922
 -0.000261396199089726 -0.0025993300945869125 0.00029190311736763106 0.004164966875510008 0.997417985293115 -0.019584814978599922 0.0023357395024096676 0.007865921025722644
0.037515631513130004 0.0025461808657305882 0.009500486107410843 0.9971416027560464 -0.023536997549547023 0.00036487597547711723 0.005000353496970833 -0.00032286557898205347 -0.0031236653594190703
 0.9971416027560464 -0.023536997549547023 0.002546427992591976 0.00950046237872779 -0.0003227039187314248 -0.003123656216371244 0.0003636999517982721 0.005000494292141812
 0.00036487597547711723 0.005000353496970833 -0.0003227039187314248 -0.003123656216371244 0.0025462631061817977 0.00949997618761141 0.9971415940674595 -0.02353749840953267
 -0.00032286557898205347 -0.0031236653594190703 0.0003636999517982721 0.005000494292141812 0.9971415940674595 -0.02353749840953267 0.002546328432528675 0.009499970362533224
0.043768236765320004 0.0027712309329022307 0.011152324746996992 0.9968452675291172 -0.027503334481199276 0.0004456204100556914 0.0058365922260203125 -0.0003914634406873766 -0.003649103788473125
 0.9968452675291172 -0.027503334481199276 0.0027715671282950048 0.01115229580365301 -0.0003912443558579226 -0.0036490956184703615 0.00044401930472213514 0.00583678036835221
 0.0004456204100556914 0.0058365922260203125 -0.0003912443558579226 -0.0036490956184703615 0.0027713431765845594 0.01115172939171654 0.996845256041088 -0.027503918580490026
 -0.0003914634406873766 -0.003649103788473125 0.00044401930472213514 0.00583678036835221 0.996845256041088 -0.027503918580490026 0.002771431989187547 0.01115172262349684
0.050020842017509996 0.0030110826798019747 0.012821425922949692 0.9965287101856866 -0.03148350519427326 0.0005350406872284049 0.006673489875501837 -0.00046728125296577485 -0.004175522710743499
 0.9965287101856866 -0.03148350519427326 0.0030115216040077727 0.012821391304430859 -0.0004669962423840335 -0.004175516465544232 0.0005329486192882851 0.006673734304851098
 0.0005350406872284049 0.006673489875501837 -0.0004669962423840335 -0.004175516465544232 0.003011229583580862 0.012820744866675053 0.9965286955153602 -0.031484172490320594
 -0.00046728125296577485 -0.004175522710743499 0.0005329486192882851 0.006673734304851098 0.9965286955153602 -0.031484172490320594 0.003011345466922698 0.01282073727406733
0.055454545454549996 0.003231769561442418 0.014285650561682158 0.9962369744628526 -0.03495364870183478 0.0006198626271683499 0.007401237521885061 -0.0005391024916239742 -0.004633699352310699
 0.9962369744628526 -0.03495364870183478 0.003232308854246915 0.01428561060792855 -0.0005387533378573471 -0.004633695622495635 0.0006172902450850757 0.0074015387606176045
 0.0006198626271683499 0.007401237521885061 -0.0005387533378573471 -0.004633695622495635 0.0032319503671194966 0.014284894778207572 0.9962369567155329 -0.034954388265395445
 -0.0005391024916239742 -0.004633699352310699 0.0006172902450850757 0.0074015387606176045 0.9962369567155329 -0.034954388265395445 0.003232092687503097 0.014284886599536266
0.056273447269699996 0.003266029187837876 0.014507412338025844 0.9961916539148439 -0.035477533457548636 0.0006332232450987757 0.007510947236508806 -0.0005504088083397849 -0.004702801590746937
 0.9961916539148439 -0.035477533457548636 0.0032665845016657115 0.014507371546029539 -0.000550049438090105 -0.00470279831188641 0.0006305741411392434 0.0075112577094123886
 0.0006332232450987757 0.007510947236508806 -0.000550049438090105 -0.00470279831188641 0.00326621540769719 0.014506645270535036 0.9961916356785673 -0.03547828390968909
 -0.0005504088083397849 -0.004702801590746937 0.0006305741411392434 0.0075112577094123886 0.9961916356785673 -0.03547828390968909 0.0032663619472689054 0.014506637015977193
0.06252605252188 0.003536361658659613 0.01620994689454501 0.9958338213413509 -0.039485392781949985 0.0007402531891474896 0.008348859152863805 -0.0006409342108411131 -0.005230820378700181
 0.9958338213413509 -0.039485392781949985 0.0035370470264281303 0.016209899392664446 -0.0006404921126547015 -0.005230821197478669 0.0007369807806404753 0.008349246253718547
 0.0007402531891474896 0.008348859152863805 -0.0006404921126547015 -0.005230821197478669 0.0035365918513109774 0.016209093464259097 0.9958337991564699 -0.039486226347574316
 -0.0006409342108411131 -0.005230820378700181 0.0007369807806404753 0.008349246253718547 0.9958337991564699 -0.039486226347574316 0.0035367726363706325 0.01620908475477004
0.06877865777407 0.003822369593082369 0.017928718954829184 0.9954549349205003 -0.043507020097308655 0.0008562141736210736 0.00918711549723088 -0.0007389438405444055 -0.005759458544932373
 0.9954549349205003 -0.043507020097308655 0.0038231986850664366 0.017928664168151455 -0.0007384107105957033 -0.005759464682383571 0.0008522519966153272 0.009187590649569928
 0.0008562141736210736 0.00918711549723088 -0.0007384107105957033 -0.005759464682383571 0.0038226484151121696 0.017927778760993225 0.9954549084046537 -0.043507936739221785
 -0.0007389438405444055 -0.005759458544932373 0.0008522519966153272 0.009187590649569928 0.9954549084046537 -0.043507936739221785 0.0038228670418657155 0.017927769848916968
0.07503126302626001 0.00412434087666225 0.01966343564706274 0.9950547172426497 -0.04754232438746912 0.0009811882937372618 0.010025601803837738 -0.0008445223061961955 -0.0062885944615580025
 0.9950547172426497 -0.04754232438746912 0.004125327371713027 0.01966337296169562 -0.0008438899043289531 -0.006288607228428553 0.0009764696898104512 0.010026177281684636
 0.0009811882937372618 0.010025601803837738 -0.0008438899043289531 -0.006288607228428553 0.004124672984038719 0.019662408245493843 0.9950546860139614 -0.04754332406773531
 -0.0008445223061961955 -0.0062885944615580025 0.0009764696898104512 0.010026177281684636 0.9950546860139614 -0.04754332406773531 0.00412493305867504 0.01966239942921324
0.08128386827845 0.004442561807202609 0.0214138160579697 0.994632891283797 -0.051591192442622676 0.0011152559861561655 0.010864199688034672 -0.0009577523881501241 -0.0068181050014556
 0.994632891283797 -0.051591192442622676 0.0044437193953261655 0.02141374482053931 -0.0009570125373876621 -0.006818125798146994 0.0011097141045043515 0.010864888627369392
 0.0011152559861561655 0.010864199688034672 -0.0009570125373876621 -0.006818125798146994 0.004442951855700369 0.021412700962363227 0.9946328549609744 -0.05159227512076295
 -0.0009577523881501241 -0.0068181050014556 0.0011097141045043515 0.010864888627369392 0.9946328549609744 -0.05159227512076295 0.0044432569973403375 0.021412692586992438
0.08753647353064001 0.004777317083397527 0.023179587241684365 0.9941891806198889 -0.055653492799961166 0.0012584959336562611 0.011702787139644732 -0.0010787149757346844 -0.0073478652678075325
 0.9941891806198889 -0.055653492799961166 0.004778659468153417 0.023179506758713855 -0.0010778595619431626 -0.007347895584335555 0.001252063734334168 0.011703603549806815
 0.0012584959336562611 0.011702787139644732 -0.0010778595619431626 -0.007347895584335555 0.004777769727160731 0.0231783839168587 0.9941891388217092 -0.05565465843919535
 -0.0010787149757346844 -0.0073478652678075325 0.001252063734334168 0.011703603549806815 0.9941891388217092 -0.05565465843919535 0.004778123571296737 0.023178376374799383
0.09378907878283 0.005128889766532476 0.02496048134785947 0.9937233096182602 -0.05972907856963758 0.0014109849736561185 0.012541238741618463 -0.001207488999755774 -0.007877748402639898
 0.9937233096182602 -0.05972907856963758 0.005130430667679016 0.02496039088510441 -0.0012065099715639685 -0.007877789818563073 0.0014035952312165827 0.012542197516828354
 0.0014109849736561185 0.012541238741618463 -0.0012065099715639685 -0.007877789818563073 0.005129409658526864 0.024959189213961872 0.993723261963982 -0.05973032713231004
 -0.001207488999755774 -0.007877748402639898 0.0014035952312165827 0.012542197516828354 0.993723261963982 -0.05973032713231004 0.005129815859882561 0.02495918294543133
0.100041684035 0.005497561223587923 0.02675623352997104 0.9932350036126233 -0.06381778948559176 0.0015727980080834797 0.013379425832823453 -0.0013441513622789848 -0.008407625455938834
 0.9932350036126233 -0.06381778948559176 0.0054993143794907695 0.02675613231165713 -0.0013430407310413169 -0.008407679640290109 0.0015643833162319555 0.013380542763670622
 0.0015727980080834797 0.013379425832823453 -0.0013430407310413169 -0.008407679640290109 0.0054981530147276995 0.026754851963030315 0.993234949721765 -0.06381912093215106
 -0.0013441513622789848 -0.008407625455938834 0.0015643833162319555 0.013380542763670622 0.993234949721765 -0.06381912093215106 0.005498615250814953 0.026754847456442826
0.1059090909091 0.005859320520891363 0.028454635082216555 0.9927561321507458 -0.06766639503774141 0.0017331873951078702 0.014165617603595925 -0.0014796355109514352 -0.008904736554676267
 0.9927561321507458 -0.06766639503774141 0.005861285368992315 0.02845452302771351 -0.001478394174607868 -0.008904804318447156 0.0017237494349178334 0.014166898116698943
 0.0017331873951078702 0.014165617603595925 -0.001478394174607868 -0.008904804318447156 0.005859984009924636 0.028453168980991345 0.9927560720620919 -0.06766780422797622
 -0.0014796355109514352 -0.008904736554676267 0.0017237494349178334 0.014166898116698943 0.9927560720620919 -0.06766780422797622 0.005860502196441173 0.028453166615316702
0.1062942892872 0.005883611055625231 0.028566580369486776 0.9927239890672137 -0.0679194534455537 0.001744007915623691 0.014217216637287927 -0.0014887768632212842 -0.0089373652928854
 0.9927239890672137 -0.0679194534455537 0.005885590225756656 0.028566467577535948 -0.0014875267031310144 -0.008937434004094955 0.0017345006921711712 0.01421850842224792
 0.001744007915623691 0.014217216637287927 -0.0014875267031310144 -0.008937434004094955 0.005884279394741598 0.028565108697763353 0.9927239285599728 -0.06792086773769705
 -0.0014887768632212842 -0.0089373652928854 0.0017345006921711712 0.01421850842224792 0.9927239285599728 -0.06792086773769705 0.005884801369119223 0.02856510649015182
0.11254689453939999 0.006287317015821169 0.030391258672070553 0.992189993733259 -0.07203388768433636 0.0019246854639734037 0.015054476369200875 -0.0016414381259245246 -0.009466834530242236
 0.992189993733259 -0.07203388768433636 0.00628953598331603 0.03039113344516618 -0.0016400405742236503 -0.009466919616034124 0.001914017956366184 0.015055960626105052
 0.0019246854639734037 0.015054476369200875 -0.0016400405742236503 -0.009466919616034124 0.006288066548593698 0.030389696176594184 0.9921899262295636 -0.07203538478402573
 -0.0016414381259245246 -0.009466834530242236 0.001914017956366184 0.015055960626105052 0.9921899262295636 -0.07203538478402573 0.006288651994294259 0.03038969685385303
0.11879949979160001 0.006708954918023394 0.03223000452988673 0.9916327467979685 -0.07616089968642845 0.002114899223756631 0.01589106732265826 -0.0018022055202996472 -0.009995897492826917
 0.9916327467979685 -0.07616089968642845 0.006711427492187756 0.03222986596254617 -0.0018006527775447302 -0.009996000890112766 0.002103003515076862 0.015892762600203034
 0.002114899223756631 0.01589106732265826 -0.0018006527775447302 -0.009996000890112766 0.00670979028704078 0.032228350444571036 0.9916326719184194 -0.07616247955536293
 -0.0018022055202996472 -0.009995897492826917 0.002103003515076862 0.015892762600203034 0.9916326719184194 -0.07616247955536293 0.006710442969981643 0.03222835464167007
0.1250521050438 0.007148798540055236 0.03408255258463403 0.9910519790325245 -0.08030028790363501 0.0023147154823308755 0.01672684894778442 -0.0019711470854697636 -0.01052441618858289
 0.9910519790325245 -0.08030028790363501 0.007151538558893673 0.03408239972613449 -0.001969431415817866 -0.01052453992337933 0.0023015234977504634 0.016728774736976395
 0.0023147154823308755 0.01672684894778442 -0.001969431415817866 -0.01052453992337933 0.007149724383701547 0.03408080609637363 0.9910518963975434 -0.08030195050275445
 -0.0019711470854697636 -0.01052441618858289 0.0023015234977504634 0.016728774736976395 0.9910518963975434 -0.08030195050275445 0.0071504481065965825 0.034080814497382796
0.131304710296 0.007607119519934245 0.03594863543972823 0.9904474229338426 -0.08445184232927753 0.0025241981585504263 0.017561677921489497 -0.0021483284509495305 -0.011052250294287375
 0.9904474229338426 -0.08445184232927753 0.007610140852839848 0.035948467292979236 -0.002146442182653614 -0.011052396481524847 0.0025096416719933056 0.017563854667067072
 0.0025241981585504263 0.017561677921489497 -0.002146442182653614 -0.011052396481524847 0.00760814047257404 0.03594679568570669 0.9904473321646067 -0.08445358762097761
 -0.0021483284509495305 -0.011052250294287375 0.0025096416719933056 0.017563854667067072 0.9904473321646067 -0.08445358762097761 0.007608939078049515 0.035946809023920334
0.1375573155481 0.007978045037096137 0.037583374403651094 0.9899249941025298 -0.0883706303821301 0.0027167642341540533 0.018370472249232155 -0.0023071907264202982 -0.011554324113274115
 0.9899249941025298 -0.0883706303821301 0.007981361986501729 0.03758319156721481 -0.0023051224680661793 -0.011554492868915654 0.0027008107742089583 0.01837289658035589
 0.0027167642341540533 0.018370472249232155 -0.0023051224680661793 -0.011554492868915654 0.007979165095754769 0.0375814405226104 0.9899248948336882 -0.08837245829573334
 -0.0023071907264202982 -0.011554324113274115 0.0027008107742089583 0.01837289658035589 0.9899248948336882 -0.08837245829573334 0.007980044103787031 0.03758146106191455
0.1438099208003 0.008361974639204661 0.0392096359836279 0.9893842660462567 -0.09227964140240959 0.0029171172403787966 0.019176131378511384 -0.002472421058778377 -0.012053540151872828
 0.9893842660462567 -0.09227964140240959 0.00836560117463786 0.039209437494860104 -0.0024701625605511226 -0.012053733551452525 0.00289970482994591 0.01917882196748258
 0.0029171172403787966 0.019176131378511384 -0.0024701625605511226 -0.012053733551452525 0.008363198315860916 0.03920760708261958 0.9893841579025837 -0.09228155189110687
 -0.002472421058778377 -0.012053540151872828 0.00289970482994591 0.01917882196748258 0.9893841579025837 -0.09228155189110687 0.008364161906055977 0.03920763563107529
0.1500625260525 0.008758775246248641 0.040827288842478375 0.988825375868011 -0.09617878312247122 0.003125189842961637 0.01997857704843712 -0.0026439540941082425 -0.012549824521213797
 0.988825375868011 -0.09617878312247122 0.008762725367937478 0.04082707368732656 -0.0026414971227746117 -0.0125500447237177 0.0031062567734099593 0.019981553265264025
 0.003125189842961637 0.01997857704843712 -0.0026414971227746117 -0.0125500447237177 0.008760107041151464 0.04082516399177257 0.9888252584749985 -0.09618077613806288
 -0.0026439540941082425 -0.012549824521213797 0.0031062567734099593 0.019981553265264025 0.9888252584749985 -0.09618077613806288 0.008761159446410217 0.040825201376971834
0.15631513130469998 0.009168312855469164 0.0424362056375698 0.9882484613470363 -0.10006796350645542 0.0033409139236922295 0.020777732284176568 -0.002821723683477769 -0.013043104877767386
