! Created with skrf 1.8.0 (http://scikit-rf.org).
# GHz S RI R 50.0 
!freq ReS11 ImS11 ReS12 ImS12 ReS13 ImS13
! ReS14 ImS14
! ReS21 ImS21 ReS22 ImS22 ReS23 ImS23
! ReS24 ImS24
! ReS31 ImS31 ReS32 ImS32 ReS33 ImS33
! ReS34 ImS34
! ReS41 ImS41 ReS42 ImS42 ReS43 ImS43
! ReS44 ImS44
!
0.0 0.001012170065923 0.0 0.9989878299341 0.0 3.828050032332e-05 0.0 -3.82805007454e-05 4.688009270761198e-21
 0.9989878299341 0.0 0.001012170065896 0.0 -3.828050074486e-05 4.688009270695067e-21 3.828050032315e-05 0.0
 3.828050032332e-05 0.0 -3.828050074486e-05 4.688009270695067e-21 0.001012170049574 0.0 0.9989878299178 0.0
 -3.82805007454e-05 4.688009270761198e-21 3.828050032315e-05 0.0 0.9989878299178 0.0 0.00101217004958 0.0
0.005 0.0010879900056712294 0.0008260082297480765 0.9988920503341989 -0.0021218550060298474 5.340681868305658e-05 0.0004375263036699838 -5.189214722767656e-05 -0.00027206244106463956
 0.9988920503341989 -0.0021218550060298474 0.0010879880486107261 0.0008260093220529172 -5.189247648062577e-05 -0.0002720626460790204 5.3428996294454086e-05 0.0004375180495031273
 5.340681868305658e-05 0.0004375263036699838 -5.189247648062577e-05 -0.0002720626460790204 0.001087990397716391 0.0008260752085585023 0.9988920506505383 -0.00212178794993346
 -5.189214722767656e-05 -0.00027206244106463956 5.3428996294454086e-05 0.0004375180495031273 0.9988920506505383 -0.00212178794993346 0.0010879882904910293 0.0008260764576362348
0.006252605252188 0.0011075761741480904 0.0010358146551479868 0.9988672002284816 -0.002652884657406532 5.7554640090494434e-05 0.0005471318602782979 -5.5598092746173065e-05 -0.0003404509276035939
 0.9988672002284816 -0.002652884657406532 0.0011075731150659981 0.001035815997670781 -5.559860549820874e-05 -0.0003404511796323615 5.758929356861117e-05 0.000547121132289384
 5.7554640090494434e-05 0.0005471318602782979 -5.559860549820874e-05 -0.0003404511796323615 0.0011075767076565183 0.001035898380477984 0.9988672006434097 -0.0026528008321417863
 -5.5598092746173065e-05 -0.0003404509276035939 5.758929356861117e-05 0.000547121132289384 0.9988672006434097 -0.0026528008321417863 0.0011075734131274029 0.0010358999274568683
0.01250521050438 0.001208940048832772 0.0020938709688360464 0.9987379741062639 -0.005306793640164455 8.042402713384106e-05 0.0010946538085299443 -7.588886161560021e-05 -0.0006827566619547496
 0.9987379741062639 -0.005306793640164455 0.001208927839301792 0.0020938734158367275 -7.58908873177495e-05 -0.0006827571203744855 8.056229831220643e-05 0.0010946280451520018
 8.042402713384106e-05 0.0010946538085299443 -7.58908873177495e-05 -0.0006827571203744855 0.0012089416181612724 0.002094038123872068 0.9987379751959429 -0.005306626257020865
 -7.588886161560021e-05 -0.0006827566619547496 8.056229831220643e-05 0.0010946280451520018 0.9987379751959429 -0.005306626257020865 0.0012089284576195657 0.0020940410666547907
0.01875781575657 0.0013164189916767145 0.003167550355314222 0.9986000371761565 -0.007968248860307272 0.00010693073363947287 0.0016429871652906545 -9.920118682990678e-05 -0.001026438469728796
 0.9986000371761565 -0.007968248860307272 0.0013163915699851523 0.0031675536505624494 -9.920571149831236e-05 -0.0010264390818168214 0.00010724153597908421 0.0016429414789981887
 0.00010693073363947287 0.0016429871652906545 -9.920571149831236e-05 -0.0010264390818168214 0.0013164221078412934 0.0031678008318615763 0.9986000392020599 -0.007967998010730443
 -9.920118682990678e-05 -0.001026438469728796 0.00010724153597908421 0.0016429414789981887 0.9986000392020599 -0.007967998010730443 0.001316392527144985 0.003167805008125242
0.02501042100875 0.001430168722327592 0.004255403328835524 0.9984532725451164 -0.01063860003011032 0.00013711726872948872 0.0021921974164172543 -0.00012558265347985763 -0.0013713717162633881
 0.9984532725451164 -0.01063860003011032 0.00143012004642122 0.0042554071928974455 -0.00012559065400602996 -0.0013713724213222332 0.000137669663203604 0.0021921263630899582
 0.00013711726872948872 0.0021921974164172543 -0.00012559065400602996 -0.0013713724213222332 0.0014301739025017665 0.004255737029558308 0.998453275767925 -0.01063826580609256
 -0.00012558265347985763 -0.0013713717162633881 0.000137669663203604 0.0021921263630899582 0.998453275767925 -0.01063826580609256 0.0014301213556378845 0.004255742260932389
0.03126302626094 0.001550337863424196 0.005356713667996701 0.9982975553651238 -0.013318460474874071 0.00017102678143432286 0.002742298802709681 -0.00015507988629172352 -0.001717481284414819
 0.9982975553651238 -0.013318460474874071 0.0015502619067354676 0.0053567177965088 -0.00015509233220200924 -0.001717482013620972 0.0001718900408622107 0.002742196377378725
 0.00017102678143432286 0.002742298802709681 -0.00015509233220200924 -0.001717482013620972 0.0015503456297777257 0.00535713053382498 0.9982975600432435 -0.013318042941384044
 -0.00015507988629172352 -0.001717481284414819 0.0001718900408622107 0.002742196377378725 0.9982975600432435 -0.013318042941384044 0.001550263574541088 0.005357136624434531
0.037515631513130004 0.0016770718732641444 0.006471036923387906 0.9981327568108569 -0.016008168594100734 0.00020870266191610207 0.0032932859732005067 -0.00018773893427086617 -0.002064709912879846
 0.9981327568108569 -0.016008168594100734 0.0016769626219085255 0.0064710409860195064 -0.00018775678857225429 -0.0020647105892054236 0.00020994630238653608 0.0032931456032312344
 0.00020870266191610207 0.0032932859732005067 -0.00018775678857225429 -0.0020647105892054236 0.0016770827547360051 0.006471536909141281 0.9981327632022992 -0.016007667813401894
 -0.00018773893427086617 -0.002064709912879846 0.00020994630238653608 0.0032931456032312344 0.9981327632022992 -0.016007667813401894 0.001676964650380735 0.0064715436446980724
0.043768236765320004 0.0018105145707453536 0.007598059982601793 0.9979587456507801 -0.018707928262254484 0.0002501883661514238 0.003845143604286377 -0.00022360542180213568 -0.002413008566683509
 0.9979587456507801 -0.018707928262254484 0.0018103660211635393 0.007598063622117574 -0.000223629641481953 -0.002413009104841879 0.0002518821643269265 0.0038449581416907155
 0.0002501883661514238 0.003845143604286377 -0.000223629641481953 -0.002413009104841879 0.0018105291022434983 0.007598643046688262 0.9979587540120475 -0.018707344304125288
 -0.00022360542180213568 -0.002413008566683509 0.0002518821643269265 0.0038449581416907155 0.9979587540120475 -0.018707344304125288 0.001810368407477993 0.007598650193683661
0.050020842017509996 0.0019508088518264343 0.008737543006516113 0.997775389008981 -0.021417866856776116 0.000295527318634721 0.0043978503736207385 -0.00026272461774992775 -0.0027623324523843914
 0.997775389008981 -0.021417866856776116 0.0019506150087834021 0.008737545837970739 -0.0002627561541202745 -0.002762332758780578 0.0002977413216296592 0.004397612087053709
 0.000295527318634721 0.0043978503736207385 -0.0002627561541202745 -0.002762332758780578 0.0019508275736133702 0.008738209124704467 0.9977753995944149 -0.02141719978464297
 -0.00026272461774992775 -0.0027623324523843914 0.0002977413216296592 0.004397612087053709 0.9977753995944149 -0.02141719978464297 0.0019506177446337947 0.008738216429814021
0.055454545454549996 0.0020784037263850276 0.00973775502090421 0.9976083527406651 -0.02378121462559648 0.0003380912076280054 0.004878839276295274 -0.00029939689504993895 -0.0030667050623788086
 0.9976083527406651 -0.02378121462559648 0.002078165658155842 0.009737756815478813 -0.00029943555816536264 -0.0030667050848835146 0.0003408143855196362 0.004878548346087217
 0.0003380912076280054 0.004878839276295274 -0.00029943555816536264 -0.0030667050848835146 0.002078426533789146 0.009738493299138782 0.9976083654651642 -0.023780475381702897
 -0.00029939689504993895 -0.0030667050623788086 0.0003408143855196362 0.004878548346087217 0.9976083654651642 -0.023780475381702897 0.0020781686883136496 0.009738500520064646
0.056273447269699996 0.0020980970712361565 0.009889290967553005 0.9975825527941501 -0.02413806368373697 0.00034476285125631926 0.004951380899739468 -0.00030514146620771207 -0.003112639067580085
 0.9975825527941501 -0.02413806368373697 0.002097851946007069 0.009889292577608679 -0.00030518126510674094 -0.0031126390402820836 0.0003475673822905491 0.004951081466324867
 0.00034476285125631926 0.004951380899739468 -0.00030518126510674094 -0.0031126390402820836 0.0020981205304932467 0.009890040119259737 0.99758256585759 -0.024137313568348084
 -0.00030514146620771207 -0.003112639067580085 0.0003475673822905491 0.004951081466324867 0.99758256585759 -0.024137313568348084 0.0020978550195398515 0.009890047308715039
0.06252605252188 0.0022525212621921434 0.011053137974998859 0.9973801019668553 -0.026868565616204595 0.0003979381570624803 0.0055057068129824825 -0.0003509006011540251 -0.0034638871193945955
 0.9973801019668553 -0.026868565616204595 0.002252218870648786 0.011053137921139614 -0.0003509496030861419 -0.0034638866480845125 0.0004014038180702288 0.0055053373100118945
 0.0003979381570624803 0.0055057068129824825 -0.0003509496030861419 -0.0034638866480845125 0.0022525500121614974 0.011053970151177709 0.9973801177603896 -0.026867732527591715
 -0.0003509006011540251 -0.0034638871193945955 0.0004014038180702288 0.0055053373100118945 0.9973801177603896 -0.026867732527591715 0.0022522222658907434 0.011053976930261123
0.06877865777407 0.0024142232682169613 0.012228937942975596 0.9971679007202762 -0.02960939639014711 0.0004550962548025962 0.006060797384686715 -0.0004000463491076448 -0.0038160358850342383
 0.9971679007202762 -0.02960939639014711 0.002413857629476361 0.01222893575289686 -0.00040010548938269387 -0.0038160348509735298 0.00045929392719044925 0.006060348281302097
 0.0004550962548025962 0.006060797384686715 -0.00040010548938269387 -0.0038160348509735298 0.0024142578683641895 0.012229853141470728 0.9971679194942237 -0.029608480402208426
 -0.0004000463491076448 -0.0038160358850342383 0.00045929392719044925 0.006060348281302097 0.9971679194942237 -0.029608480402208426 0.0024138613263098314 0.012229859193959284
0.07503126302626001 0.002583344823457039 0.013416558679443169 0.996945812609592 -0.032360562479418944 0.0005162799585966529 0.006616619927946536 -0.0004526227260533129 -0.004169044801278096
 0.996945812609592 -0.032360562479418944 0.002582909957719383 0.013416553850489834 -0.00045269293477482166 -0.004169043077280047 0.0005212808023636285 0.006616081076748678
 0.0005162799585966529 0.006616619927946536 -0.00045269293477482166 -0.004169043077280047 0.0025833858397935608 0.01341755690431866 0.9969458346130424 -0.032359563670616695
 -0.0004526227260533129 -0.004169044801278096 0.0005212808023636285 0.006616081076748678 0.9969458346130424 -0.032359563670616695 0.002582913933000121 0.013417561892043831
0.08128386827845 0.002760027602299048 0.014615877939102729 0.9967137006533704 -0.035122057007517214 0.000581531850819408 0.007173140062024478 -0.0005086734301199704 -0.004522873190804569
 0.9967137006533704 -0.035122057007517214 0.0027595175293293737 0.01461586993764608 -0.0005087556322538204 -0.0045228706411938975 0.0005874073027217408 0.007172500690695919
 0.000581531850819408 0.007173140062024478 -0.0005087556322538204 -0.0045228706411938975 0.00276007560713545 0.014616959202095688 0.9967137261333965 -0.03512097545918442
 -0.0005086734301199704 -0.004522873190804569 0.0005874073027217408 0.007172500690695919 0.9967137261333965 -0.03512097545918442 0.00275952175668625 0.014616962764536385
0.08753647353064001 0.002944413246919891 0.015826780701934804 0.99647142741203 -0.03789386243389915 0.0006508942576082577 0.0077303218911358215 -0.0005682418311141122 -0.004877480074728975
 0.99647142741203 -0.03789386243389915 0.0029438219845821165 0.015826768962809424 -0.0005683369465173466 -0.004877476555315176 0.000657716028368622 0.007729570594036362
 0.0006508942576082577 0.0077303218911358215 -0.0005683369465173466 -0.004877476555315176 0.002944468819141801 0.015827945019988528 0.9964714566140636 -0.037892698232690494
 -0.0005682418311141122 -0.004877480074728975 0.000657716028368622 0.007729570594036362 0.9964714566140636 -0.037892698232690494 0.002943826434675093 0.015827946773788865
0.09378907878283 0.0031366433821931154 0.01704915722887103 0.9962188550556452 -0.04067595246368821 0.0007244092254185987 0.008288128133557296 -0.0006313709583765226 -0.005232824035390488
 0.9962188550556452 -0.04067595246368821 0.0031359649444680604 0.01704914115489011 -0.000631479901765274 -0.005232819393436371 0.0007322492961526031 0.008287252863354468
 0.0007244092254185987 0.008288128133557296 -0.000631479901765274 -0.005232819393436371 0.003136707107215561 0.01705040462471565 0.9962188882233434 -0.04067470570091457
 -0.0006313709583765226 -0.005232824035390488 0.0007322492961526031 0.008287252863354468 0.9962188882233434 -0.04067470570091457 0.003135969585487629 0.01705040416335801
0.100041684035 0.0033368596197290976 0.018282901626276004 0.9959558454218173 -0.04346829344928119 0.0008021184984123805 0.008846520214625384 -0.0006981034870119772 -0.005588863115906625
 0.9959558454218173 -0.04346829344928119 0.003336088015011775 0.01828288058773747 -0.0006982271679449699 -0.005588857190101215 0.0008110491166553738 0.008845508273913647
 0.0008021184984123805 0.008846520214625384 -0.0006982271679449699 -0.005588857190101215 0.003336932089337357 0.01828423212958291 0.9959558827965646 -0.04346696421959976
 -0.0006981034870119772 -0.005588863115906625 0.0008110491166553738 0.008845508273913647 0.9959558827965646 -0.04346696421959976 0.0033360928127607976 0.018284229023018624
0.1059090909091 0.003532130726969617 0.01945088695145769 0.9956994228672097 -0.04609789691201284 0.0008788919841542948 0.009371009335575413 -0.0007640398314913419 -0.005923562320755262
 0.9956994228672097 -0.04609789691201284 0.0035312662392215023 0.019450860652179203 -0.000764178164670786 -0.005923555035818064 0.0008889119070057738 0.009369857009518938
 0.0008788919841542948 0.009371009335575413 -0.000764178164670786 -0.005923555035818064 0.003532211946624808 0.019452295474172834 0.9956994644077121 -0.04609649038628283
 -0.0007640398314913419 -0.005923562320755262 0.0008889119070057738 0.009369857009518938 0.9956994644077121 -0.04609649038628283 0.003531271151210831 0.019452289473007492
0.1062942892872 0.003545203554442823 0.019527910775466402 0.995682260067128 -0.04627084542736805 0.0008840634968544355 0.009405458335251983 -0.0007684817227764789 -0.005945554744857552
 0.995682260067128 -0.04627084542736805 0.003544332783921071 0.019527884109746322 -0.0007686210456422647 -0.005945547365286549 0.0008941571717650914 0.009404296368197134
 0.0008840634968544355 0.009405458335251983 -0.0007686210456422647 -0.005945547365286549 0.0035452853670717554 0.019529324420918738 0.9956823018884028 -0.046269433830745055
 -0.0007684817227764789 -0.005945554744857552 0.0008941571717650914 0.009404296368197134 0.9956823018884028 -0.046269433830745055 0.003544337702190321 0.019529318215260296
0.11254689453939999 0.0037618167563077706 0.020784083506314707 0.9953979603146912 -0.049083562912754425 0.0009702852954289598 0.009964901524269976 -0.0008425475862017172 -0.006302855677821167
 0.9953979603146912 -0.049083562912754425 0.0037608408122995368 0.020784050517374777 -0.0008427034501804094 -0.006302846665941806 0.0009816147928226235 0.009963575508277011
 0.0009702852954289598 0.009964901524269976 -0.0008427034501804094 -0.006302846665941806 0.0037619085172421523 0.020785580333910002 0.9953980068198293 -0.049082069053877686
 -0.0008425475862017172 -0.006302855677821167 0.0009816147928226235 0.009963575508277011 0.9953980068198293 -0.049082069053877686 0.0037608458133273196 0.02078557055114823
0.11879949979160001 0.00398684075780922 0.022051319949070173 0.9951028072979944 -0.05190639551430639 0.001060824602192827 0.01052480767914173 -0.0009203425957475959 -0.006660721951287403
 0.9951028072979944 -0.05190639551430639 0.003985753621748668 0.022051279907136314 -0.0009205158947571416 -0.006660711119906035 0.0010734629389875247 0.010523302916555708
 0.001060824602192827 0.01052480767914173 -0.0009205158947571416 -0.006660711119906035 0.003986943078670585 0.022052900004806735 0.9951028587218624 -0.05190481950192051
 -0.0009203425957475959 -0.006660721951287403 0.0010734629389875247 0.010523302916555708 0.9951028587218624 -0.05190481950192051 0.003985758666106477 0.022052886142520465
0.1250521050438 0.004220417037236887 0.02332952103082968 0.9947966620023091 -0.054739288407307594 0.001155721737427331 0.011085133595691937 -0.001001907850356812 -0.007019108848190316
 0.9947966620023091 -0.054739288407307594 0.0042192126778958575 0.023329473172053403 -0.0010020994729986012 -0.00701909600143698 0.0011697421758418154 0.011083434705550095
 0.001155721737427331 0.011085133595691937 -0.0010020994729986012 -0.00701909600143698 0.004220530536462221 0.02333118436665637 0.9947967185774556 -0.054737630354110396
 -0.001001907850356812 -0.007019108848190316 0.0011697421758418154 0.011083434705550095 0.9947967185774556 -0.054737630354110396 0.004219217725156656 0.023331165897853258
0.131304710296 0.004462686999991737 0.024618588055988336 0.9944793853050293 -0.0575821827224018 0.0012550166124698735 0.011645834995402641 -0.001087284011591776 -0.007377970866824206
 0.9944793853050293 -0.0575821827224018 0.004461359372019461 0.024618531582096394 -0.0010874948411302469 -0.007377955800134277 0.001270492653836265 0.011643925905176758
 0.0012550166124698735 0.011645834995402641 -0.0010874948411302469 -0.007377955800134277 0.0044628123028233125 0.024620334726879082 0.9944794472613656 -0.05758044274787649
 -0.001087284011591776 -0.007377970866824206 0.001270492653836265 0.011643925905176758 0.9944794472613656 -0.05758044274787649 0.004461364380801066 0.024620311099736055
0.1375573155481 0.004648463130797364 0.025748700361048676 0.9942161793678389 -0.06026526157132726 0.001343343632138027 0.012188718369132543 -0.001161085314968582 -0.007719130420856585
 0.9942161793678389 -0.06026526157132726 0.004647004698802961 0.025748637012678627 -0.0011613164920108976 -0.007719113175819422 0.0013603055015539965 0.012186606356767505
 0.001343343632138027 0.012188718369132543 -0.0011613164920108976 -0.007719113175819422 0.0046486002170802255 0.025750530705657006 0.99421624694805 -0.060263439779216735
 -0.001161085314968582 -0.007719130420856585 0.0013603055015539965 0.012186606356767505 0.99421624694805 -0.060263439779216735 0.004647010254842372 0.025750503339041098
0.1438099208003 0.004840380550496836 0.026874317897721652 0.9939444011540514 -0.06294304058576171 0.0014352149698124482 0.01273035899784772 -0.0012378417775508821 -0.008059148183857242
 0.9939444011540514 -0.06294304058576171 0.004838784987703227 0.026874247143801516 -0.0012380942240540103 -0.008059128568066794 0.001453728659738998 0.012728029885354068
 0.0014352149698124482 0.01273035899784772 -0.0012380942240540103 -0.008059128568066794 0.004840529938338347 0.02687623201458859 0.9939444745864007 -0.0629411370997562
 -0.0012378417775508821 -0.008059148183857242 0.001453728659738998 0.012728029885354068 0.9939444745864007 -0.0629411370997562 0.004838791162893729 0.0268762005702322
0.1500625260525 0.005038387929302854 0.027995390550321183 0.9936641040842945 -0.06561549832073313 0.0015306082521112242 0.013270733138833226 -0.0013175314892245418 -0.008398000133209864
 0.9936641040842945 -0.06561549832073313 0.00503664887957873 0.027995311844519054 -0.0013178061251523543 -0.008397977946769273 0.0015507394744215448 0.013268172253277971
 0.0015306082521112242 0.013270733138833226 -0.0013178061251523543 -0.008397977946769273 0.005038550135751498 0.027997388545573678 0.9936641835947182 -0.0656135132674693
 -0.0013175314892245418 -0.008398000133209864 0.0015507394744215448 0.013268172253277971 0.9936641835947182 -0.0656135132674693 0.005036655752916473 0.027997352675723237
0.15631513130469998 0.005242433747864355 0.02911187003973843 0.9933753416559634 -0.06828261262618876 0.0016295009517817492 0.01380981730999563 -0.0014001323711917031 -0.008735662682256114
