! Created with skrf 1.8.0 (http://scikit-rf.org).
# GHz S RI R 50.0 
!freq ReS11 ImS11 ReS12 ImS12 ReS13 ImS13
! ReS14 ImS14
! ReS21 ImS21 ReS22 ImS22 ReS23 ImS23
! ReS24 ImS24
! ReS31 ImS31 ReS32 ImS32 ReS33 ImS33
! ReS34 ImS34
! ReS41 ImS41 ReS42 ImS42 ReS43 ImS43
! ReS44 ImS44
!
0.0 0.001801952374329 0.0 0.99819804762 0.0 6.980539373949e-05 0.0 -6.980539320595e-05 8.548695135288907e-21
 0.99819804762 0.0 0.001801952374308 0.0 -6.980539320567e-05 8.548695135254616e-21 6.980539373791e-05 0.0
 6.980539373949e-05 0.0 -6.980539320567e-05 8.548695135254616e-21 0.001801952355847 0.0 0.9981980476015 0.0
 -6.980539320595e-05 8.548695135288907e-21 6.980539373791e-05 0.0 0.9981980476015 0.0 0.001801952355846 0.0
0.005 0.0019395793128772528 0.0014758271658096877 0.9980237866941793 -0.0037735113414590453 9.798112641088656e-05 0.0007544660622082408 -9.511945867080907e-05 -0.0004759778181598819
 0.9980237866941793 -0.0037735113414590453 0.0019396054743881614 0.001475811913425246 -9.512136869117344e-05 -0.00047597932788062187 9.780384326421571e-05 0.0007545335264876389
 9.798112641088656e-05 0.0007544660622082408 -9.512136869117344e-05 -0.00047597932788062187 0.0019395777288487425 0.0014757608647894833 0.9980237863149072 -0.0037735784057473707
 -9.511945867080907e-05 -0.0004759778181598819 9.780384326421571e-05 0.0007545335264876389 0.9980237863149072 -0.0037735784057473707 0.0019396063129632354 0.001475744098328329
0.006252605252188 0.001975929889296934 0.0018505419019901454 0.9979774286195896 -0.004717769273033135 0.00010618213720324901 0.0009434373580016161 -0.00010237880516411583 -0.0005955687718887343
 0.9979774286195896 -0.004717769273033135 0.001975970784528921 0.0018505225556157856 -0.00010238177693146092 -0.0005955706336306016 0.00010590515082133862 0.0009435250447698011
 0.00010618213720324901 0.0009434373580016161 -0.00010238177693146092 -0.0005955706336306016 0.00197592747696607 0.0018504590485935316 0.9979774280908402 -0.004717853092924249
 -0.00010237880516411583 -0.0005955687718887343 0.00010590515082133862 0.0009435250447698011 0.9979774280908402 -0.004717853092924249 0.0019759721602327284 0.001850437796796887
0.01250521050438 0.0021687724784695273 0.003739368749813116 0.9977296804701578 -0.009436019762766056 0.00015401111002417715 0.0018871450943283377 -0.0001441692350094615 -0.0011938403985577105
 0.9977296804701578 -0.009436019762766056 0.0021689357732005052 0.0037393272299774036 -0.00014418094181705652 -0.0011938438403749656 0.00015290657522746957 0.0018873570461628365
 0.00015401111002417715 0.0018871450943283377 -0.00014418094181705652 -0.0011938438403749656 0.0021687634294652418 0.0037392034357488614 0.9977296789438318 -0.009436187187126325
 -0.0001441692350094615 -0.0011938403985577105 0.00015290657522746957 0.0018873570461628365 0.9977296789438318 -0.009436187187126325 0.002168941864473866 0.0037391579500046603
0.01875781575657 0.002380954601228017 0.005654560978928748 0.9974544575761238 -0.014166167936992395 0.00021340993631903624 0.0028316919797872846 -0.0001953154154233607 -0.0017939335885192192
 0.9974544575761238 -0.014166167936992395 0.002381321531869477 0.005654494252968163 -0.00019534151486199543 -0.001793938267498013 0.0002109287858041747 0.0028320727875593807
 0.00021340993631903624 0.0028316919797872846 -0.00019534151486199543 -0.001793938267498013 0.0023809346838217613 0.005654313563731262 0.9974544545623496 -0.014166418924020072
 -0.0001953154154233607 -0.0017939335885192192 0.0002109287858041747 0.0028320727875593807 0.9974544545623496 -0.014166418924020072 0.0023813356639787917 0.00565424057532877
0.02501042100875 0.0026129333135405477 0.0075933754351705076 0.9971513993208602 -0.018910437161591583 0.0002844979728790739 0.003777065289356035 -0.00025595046260272545 -0.0023955397066573033
 0.9971513993208602 -0.018910437161591583 0.002613584960368571 0.007593280295384932 -0.00025599654164737163 -0.0023955452129660218 0.0002800910234328865 0.003777667332133186
 0.0002844979728790739 0.003777065289356035 -0.00025599654164737163 -0.0023955452129660218 0.0026128983119506717 0.007593046349709505 0.9971513943332999 -0.018910771737346597
 -0.00025595046260272545 -0.0023955397066573033 0.0002800910234328865 0.003777667332133186 0.9971513943332999 -0.018910771737346597 0.002613610475949581 0.007592942336832037
0.03126302626094 0.002865146606583067 0.00955436582873782 0.9968201288110311 -0.02366973724997533 0.00036739442069652894 0.004723165977166278 -0.00032620292412283283 -0.0029984275212432856
 0.9968201288110311 -0.02366973724997533 0.002866163944870803 0.009554238898912952 -0.00032627451078595687 -0.002998433377517203 0.00036051189650661714 0.004724049471496609
 0.00036739442069652894 0.004723165977166278 -0.00032627451078595687 -0.002998433377517203 0.00286509231165082 0.009553955595667104 0.9968201213562676 -0.023670155488403902
 -0.00032620292412283283 -0.0029984275212432856 0.00036051189650661714 0.004724049471496609 0.9968201213562676 -0.023670155488403902 0.00286620419732128 0.009553816789477173
0.037515631513130004 0.003138022234900728 0.011536562927525388 0.9964602621069628 -0.02844448421687063 0.00046221703016146145 0.005669860136961072 -0.0004061976542780859 -0.003602391772655268
 0.9964602621069628 -0.02844448421687063 0.0031394861713199434 0.011536400666268478 -0.0004063002234372831 -0.0036023974338823222 0.0004523083668794571 0.005671093214550729
 0.00046221703016146145 0.005669860136961072 -0.0004063002234372831 -0.0036023974338823222 0.003137944447463209 0.011536072175296369 0.9964602516857923 -0.028444986226700924
 -0.0004061976542780859 -0.003602391772655268 0.0004523083668794571 0.005671093214550729 0.9964602516857923 -0.028444986226700924 0.0031395445296216427 0.011535894562272315
0.043768236765320004 0.0034319811080172507 0.01353922508511665 0.9960714120229776 -0.03323484968536897 0.000569081473227382 0.006616994650411949 -0.0004960560991358908 -0.00420723756459352
 0.9960714120229776 -0.03323484968536897 0.003433972511596459 0.013539023787503372 -0.0004961950760453668 -0.004207242418132172 0.0005555952423313159 0.006618653444476171
 0.000569081473227382 0.006616994650411949 -0.0004961950760453668 -0.004207242418132172 0.0034318756383849955 0.013538654536268633 0.9960713981269125 -0.03323543562249751
 -0.0004960560991358908 -0.00420723756459352 0.0005555952423313159 0.006618653444476171 0.9960713981269125 -0.03323543562249751 0.0034340523596006075 0.013538433858851236
0.050020842017509996 0.0037474388398566595 0.015561735136456199 0.9956531900900705 -0.03804086392584734 0.0006881009486076746 0.007564403684888706 -0.000595896373845235 -0.004812773913694702
 0.9956531900900705 -0.03804086392584734 0.003750038569402467 0.01556149093472409 -0.0005960771362595307 -0.004812777279341455 0.000670484845919265 0.007566572419769717
 0.0006881009486076746 0.007564403684888706 -0.0005960771362595307 -0.004812777279341455 0.00374730151034468 0.015561085624286692 0.995653172201041 -0.038041533977542605
 -0.000595896373845235 -0.004812773913694702 0.000670484845919265 0.007566572419769717 0.995653172201041 -0.038041533977542605 0.0037501433085597893 0.015560817380350967
0.055454545454549996 0.004039360248948584 0.017335053345119564 0.9952655872347097 -0.04223009933383656 0.0008014896957277728 0.008387817794889547 -0.0006908562825333321 -0.005339416463448237
 0.9952655872347097 -0.04223009933383656 0.0040425543112419145 0.017334768590505895 -0.0006910776894127763 -0.005339417931248942 0.0007798354112812808 0.008390504436451897
 0.0008014896957277728 0.008387817794889547 -0.0006910776894127763 -0.005339417931248942 0.004039191849887568 0.017334335969537235 0.9952655654460165 -0.04223084266520165
 -0.0006908562825333321 -0.005339416463448237 0.0007798354112812808 0.008390504436451897 0.9952655654460165 -0.04223084266520165 0.004042683458210235 0.017334022541514282
0.056273447269699996 0.004084806517867976 0.017603549808514394 0.9952052077460466 -0.04286246638513246 0.0008193858926001633 0.008511911877020887 -0.0007058332440278018 -0.005418810621614414
 0.9952052077460466 -0.04286246638513246 0.004088095448243879 0.01760325867161408 -0.0007060611236318807 -0.005418811751683416 0.0007970867662104569 0.008514682958851686
 0.0008193858926001633 0.008511911877020887 -0.0007060611236318807 -0.005418811751683416 0.004084633164322703 0.017602822272347714 0.9952051853345822 -0.04286322077539062
 -0.0007058332440278018 -0.005418810621614414 0.0007970867662104569 0.008514682958851686 0.9952051853345822 -0.04286322077539062 0.0040882284984876645 0.017602501713685128
0.06252605252188 0.004444491086389842 0.019664171912679475 0.9947270771443619 -0.047699533441043086 0.0009630437405513572 0.009459336109925028 -0.0008259780611623491 -0.006025156562151683
 0.9947270771443619 -0.047699533441043086 0.004448550133629314 0.019663829644923643 -0.0008262583444490591 -0.006025154641572183 0.0009355076445407636 0.009462810217352765
 0.0009630437405513572 0.009459336109925028 -0.0008262583444490591 -0.006025154641572183 0.004444277559909956 0.01966336739633905 0.9947270496680933 -0.04770037243282125
 -0.0008259780611623491 -0.006025156562151683 0.0009355076445407636 0.009462810217352765 0.9947270496680933 -0.04770037243282125 0.004448714935050411 0.01966298952609046
0.06877865777407 0.00482689552034809 0.02174313376842098 0.9942184117603736 -0.0525518949347533 0.0011191787183523108 0.0104064865841681 -0.0009564386692914339 -0.006631618683853605
 0.9942184117603736 -0.0525518949347533 0.004831805666855625 0.021742736007285664 -0.0009567765981656704 -0.006631612830283067 0.0010858509855451962 0.010410772758460866
 0.0011191787183523108 0.0104064865841681 -0.0009567765981656704 -0.006631612830283067 0.0048266376894126155 0.02174225343147646 0.9942183786630537 -0.05255281881940893
 -0.0009564386692914339 -0.006631618683853605 0.0010858509855451962 0.010410772758460866 0.9942183786630537 -0.05255281881940893 0.004832005680876765 0.021741813000690502
0.07503126302626001 0.005232418871486787 0.023839986716330457 0.9936788268747005 -0.0574193446238607 0.0012878916513739845 0.011353167512492462 -0.0010973192953136987 -0.007238001398476043
 0.9936788268747005 -0.0574193446238607 0.005238261190310674 0.023839528929217025 -0.0010977200674129632 -0.007237990662408138 0.0012482169799306066 0.011358383246557894
 0.0012878916513739845 0.011353167512492462 -0.0010977200674129632 -0.007237990662408138 0.005232112623862457 0.023839031823380305 0.9936787875843295 -0.05742035373223724
 -0.0010973192953136987 -0.007238001398476043 0.0012482169799306066 0.011358383246557894 0.9936787875843295 -0.05742035373223724 0.005238499901034302 0.023838523326655967
0.08128386827845 0.005661456238015251 0.025954294137608858 0.9931079399861859 -0.06230164713953495 0.0014692797838813138 0.012299177605144778 -0.0012487204286476814 -0.007844106188647016
 0.9931079399861859 -0.06230164713953495 0.005668311917715598 0.025953771617694254 -0.0012491891975357926 -0.007844089553535051 0.0014227023352924688 0.012305448931307165
 0.0014692797838813138 0.012299177605144778 -0.0012491891975357926 -0.007844089553535051 0.005661097483045336 0.02595326606612497 0.9931078939134126 -0.06230274183459507
 -0.0012487204286476814 -0.007844106188647016 0.0014227023352924688 0.012305448931307165 0.9931078939134126 -0.06230274183459507 0.005668592833248561 0.025952683736236857
0.08753647353064001 0.006114398679050879 0.02808562664298034 0.9925053711728453 -0.06719854278566258 0.0016634366065963536 0.013244310419591891 -0.0014107386929371572 -0.008449731361353253
 0.9925053711728453 -0.06719854278566258 0.006122349048029984 0.02808503450408231 -0.0014112805680824476 -0.008449707743741439 0.0016094001128933914 0.013251771995673909
 0.0016634366065963536 0.013244310419591891 -0.0014112805680824476 -0.008449707743741439 0.006113983349501573 0.028084526882875487 0.9925053177097931 -0.06719972346325868
 -0.0014107386929371572 -0.008449731361353253 0.0016094001128933914 0.013251771995673909 0.9925053177097931 -0.06719972346325868 0.006122675701780575 0.0280838646844328
0.09378907878283 0.0065916330935445735 0.03023355864485369 0.9918707434240799 -0.07210975096664018 0.0018704516886485613 0.014188354631822359 -0.001583466713398965 -0.009054671890242477
 0.9918707434240799 -0.07210975096664018 0.006600759645070352 0.030232891815246785 -0.001584086760170845 -0.009054640139893563 0.0018083995673345956 0.014197149825527276
 0.0018704516886485613 0.014188354631822359 -0.001584086760170845 -0.009054640139893563 0.006591157148480635 0.030232388797051125 0.991870681942883 -0.07211101805712591
 -0.001583466713398965 -0.009054671890242477 0.0018083995673345956 0.014197149825527276 0.991870681942883 -0.07211101805712591 0.006601135596988288 0.03023164041924792
0.100041684035 0.007093542074275625 0.03239766585947101 0.9912036829498201 -0.07703497269726274 0.0020904105139266985 0.01513109425576415 -0.0017669929801316614 -0.009658719320342074
 0.9912036829498201 -0.07703497269726274 0.007103926490514842 0.03239691907475914 -0.0017676962195367313 -0.00965867822039912 0.0020197859896602735 0.0151413752270286
 0.0020904105139266985 0.01513109425576415 -0.0017676962195367313 -0.00965867822039912 0.007093001500726424 0.03239642763636511 0.9912036128009566 -0.07703632666519439
 -0.0017669929801316614 -0.009658719320342074 0.0020197859896602735 0.0151413752270286 0.9912036128009566 -0.07703632666519439 0.007104355328727325 0.03239558648454702
0.1059090909091 0.00758730855141026 0.03444278368640388 0.9905478903528293 -0.08166923526000491 0.0023086631561518283 0.016014372565210586 -0.0019491088788777264 -0.010224552760126595
 0.9905478903528293 -0.08166923526000491 0.007598947819969134 0.03444195690546124 -0.001949894712659913 -0.01022450172063733 0.002229487900411377 0.016026194071473075
 0.0023086631561518283 0.016014372565210586 -0.001949894712659913 -0.01022450172063733 0.007586703708452016 0.034441482959458376 0.9905478114588823 -0.0816706712037197
 -0.0019491088788777264 -0.010224552760126595 0.002229487900411377 0.016026194071473075 0.9905478114588823 -0.0816706712037197 0.0075994295753986215 0.03444054849025079
0.1062942892872 0.007620503739733954 0.03457752343553687 0.9905038194737672 -0.0819738924989078 0.00232339431987742 0.01607230882771884 -0.0019614017092094553 -0.010261661718611545
 0.9905038194737672 -0.0819738924989078 0.007632227917234107 0.03457669123031548 -0.0019621931177470743 -0.010261609985743431 0.0022436405523414828 0.016084236608950895
 0.00232339431987742 0.01607230882771884 -0.0019621931177470743 -0.010261609985743431 0.007619894555464167 0.0345762186650817 0.9905037399845058 -0.0819753338389052
 -0.0019614017092094553 -0.010261661718611545 0.0022436405523414828 0.016084236608950895 0.9905037399845058 -0.0819753338389052 0.007632713258829164 0.03457527785138092
0.11254689453939999 0.008172891553901064 0.036772704541197916 0.9897707865156709 -0.08692617985023166 0.0025694799391264194 0.01701177356934816 -0.0021667727021325222 -0.010863283656842814
 0.9897707865156709 -0.08692617985023166 0.008186037628121893 0.03677178123980686 -0.0021676572114793075 -0.010863219941399563 0.0024800401560647408 0.017025518143416928
 0.0025694799391264194 0.01701177356934816 -0.0021676572114793075 -0.010863219941399563 0.008172209809584897 0.036771335159438194 0.9897706969884958 -0.08692770909442758
 -0.0021667727021325222 -0.010863283656842814 0.0024800401560647408 0.017025518143416928 0.9897706969884958 -0.08692770909442758 0.008186583120751512 0.03677028749228171
0.11879949979160001 0.008751074133508133 0.03898277927023064 0.9890042216657716 -0.09189149033206405 0.002828739643035388 0.01794925953542067 -0.002383181204183144 -0.011463366220870637
 0.9890042216657716 -0.09189149033206405 0.00876572450387187 0.038981758976212075 -0.00238416370079062 -0.011463289107086608 0.0027290572784416465 0.01796499991124305
 0.002828739643035388 0.01794925953542067 -0.00238416370079062 -0.011463289107086608 0.008750315915273522 0.03898134733136414 0.9890041213770531 -0.09189310803976841
 -0.002383181204183144 -0.011463366220870637 0.0027290572784416465 0.01796499991124305 0.9890041213770531 -0.09189310803976841 0.00876633382704694 0.0389801853038608
0.1250521050438 0.009355415046746918 0.041207313801552424 0.9882037668527129 -0.09686946653241389 0.0031012409871147032 0.018884533753253677 -0.0026106977625616574 -0.012061687039413372
 0.9882037668527129 -0.09686946653241389 0.00937165240160109 0.041206190386077625 -0.002611783087370646 -0.012061595045579304 0.002990759823863084 0.01890245803878038
 0.0031012409871147032 0.018884533753253677 -0.002611783087370646 -0.012061595045579304 0.009354576478819508 0.041205821470464886 0.9882036550511188 -0.09687117329726735
 -0.0026106977625616574 -0.012061687039413372 0.002990759823863084 0.01890245803878038 0.9882036550511188 -0.09687117329726735 0.009372329267955335 0.04120453724770538
0.131304710296 0.009986272605294099 0.0434458697303028 0.9873690686068556 -0.10185973879382683 0.003387046658507446 0.019817359357785256 -0.00284938808430008 -0.01265802032849987
 0.9873690686068556 -0.10185973879382683 0.010004179947074978 0.04344463681935974 -0.0028505810322528398 -0.012657911907153367 0.003265210975473444 0.019837664830375735
 0.003387046658507446 0.019817359357785256 -0.0028505810322528398 -0.012657911907153367 0.009985349851987783 0.043444319285127805 0.9873689445111116 -0.10186153524075305
 -0.00284938808430008 -0.01265802032849987 0.003265210975473444 0.019837664830375735 0.9873689445111116 -0.10186153524075305 0.010004928103208497 0.0434429046903073
0.1375573155481 0.010508029158469163 0.045407717391991044 0.9866358168088477 -0.1065714661940974 0.0036531236093558265 0.020719926561553446 -0.003066365785081964 -0.013224480049139523
 0.9866358168088477 -0.1065714661940974 0.010527696754116451 0.0454063939433589 -0.003067673647123385 -0.013224354895071401 0.0035196591827544956 0.020742602042116264
 0.0036531236093558265 0.020719926561553446 -0.003067673647123385 -0.013224354895071401 0.010507019096820273 0.0454061106366336 0.9866356798261707 -0.10657335271103711
 -0.003066365785081964 -0.013224480049139523 0.0035196591827544956 0.020742602042116264 0.9866356798261707 -0.10657335271103711 0.010528518910403347 0.04540458342365894
0.1438099208003 0.011048393454564502 0.047357586555844704 0.9858762541022643 -0.11126955662253254 0.003929892021849282 0.021617672082547734 -0.003291936704538723 -0.013786591742898376
 0.9858762541022643 -0.11126955662253254 0.011069905816965181 0.0473561673837937 -0.003293364658177565 -0.013786448311152949 0.0037842945478959514 0.02164289973012682
 0.003929892021849282 0.021617672082547734 -0.003293364658177565 -0.013786448311152949 0.011047292434191806 0.047355925827278364 0.9858761034479943 -0.11127153382205543
 -0.003291936704538723 -0.013786591742898376 0.0037842945478959514 0.02164289973012682 0.9858761034479943 -0.11127153382205543 0.011070805583810402 0.04735427901899921
0.1500625260525 0.011607148448461136 0.049295265114312155 0.9850906025019783 -0.11595384260273016 0.00421723857417843 0.022510466762906446 -0.003525992276958237 -0.014344237859391975
 0.9850906025019783 -0.11595384260273016 0.011630590420784952 0.04929374465412006 -0.0035275454853601934 -0.014344074542519151 0.004059007446823742 0.022538435391117783
 0.00421723857417843 0.022510466762906446 -0.0035275454853601934 -0.014344074542519151 0.011605952866158988 0.049293552840454745 0.9850904373665538 -0.11595591111863042
 -0.003525992276958237 -0.014344237859391975 0.004059007446823742 0.022538435391117783 0.9850904373665538 -0.11595591111863042 0.011631571430172604 0.049291779009543284
0.15631513130469998 0.012184075236851928 0.05122054730965674 0.984279085500823 -0.12062415841174888 0.00451504840334749 0.02339818404018427 -0.0037684224310288064 -0.014897303676896767
 0.984279085500823 -0.12062415841174888 0.012209532000728978 0.05121891960242256 -0.0037701060427537247 -0.014897118805204392 0.004343686779658229 0.023429089037103244
