! Created with skrf 1.8.0 (http://scikit-rf.org).
# GHz S RI R 50.0 
!freq ReS11 ImS11 ReS12 ImS12 ReS13 ImS13
! ReS14 ImS14
! ReS21 ImS21 ReS22 ImS22 ReS23 ImS23
! ReS24 ImS24
! ReS31 ImS31 ReS32 ImS32 ReS33 ImS33
! ReS34 ImS34
! ReS41 ImS41 ReS42 ImS42 ReS43 ImS43
! ReS44 ImS44
!
0.0 0.001616401369423 0.0 0.9983835986306 0.0 6.258727172784e-05 0.0 -6.258727154999e-05 7.664730177106146e-21
 0.9983835986306 0.0 0.001616401369441 0.0 -6.258727154997e-05 7.664730177103697e-21 6.258727172731e-05 0.0
 6.258727172784e-05 0.0 -6.258727154997e-05 7.664730177103697e-21 0.001616401358043 0.0 0.9983835986192 0.0
 -6.258727154999e-05 7.664730177106146e-21 6.258727172731e-05 0.0 0.9983835986192 0.0 0.001616401358061 0.0
0.005 0.0017393540583271045 0.0013199400482449574 0.998227996438163 -0.0033858451365279645 8.818248527176491e-05 0.0007027436286498841 -8.551350881791772e-05 -0.00043876882497448935
 0.998227996438163 -0.0033858451365279645 0.0017393744185579673 0.0013199281050608278 -8.551259151657677e-05 -0.0004387680660164437 8.807525578257334e-05 0.0007027847087630618
 8.818248527176491e-05 0.0007027436286498841 -8.551259151657677e-05 -0.0004387680660164437 0.0017393551547837474 0.0013200066304124144 0.9982279967918373 -0.003385778071240586
 -8.551350881791772e-05 -0.00043876882497448935 8.807525578257334e-05 0.0007027847087630618 0.9982279967918373 -0.003385778071240586 0.001739374027032717 0.0013199956525457648
0.006252605252188 0.0017716646540850301 0.0016551184343063085 0.9981868342771733 -0.004233124803889518 9.554032246157124e-05 0.000878758954827905 -9.201841123711356e-05 -0.0005490272040683811
 0.9981868342771733 -0.004233124803889518 0.0017716964805914925 0.0016551032031368422 -9.2016984281249e-05 -0.0005490262672035203 9.537278976884743e-05 0.0008788122685153602
 9.554032246157124e-05 0.000878758954827905 -9.2016984281249e-05 -0.0005490262672035203 0.0017716663111085743 0.0016552016500321854 0.9981868347727628 -0.004233040977580175
 -9.201841123711356e-05 -0.0005490272040683811 9.537278976884743e-05 0.0008788122685153602 0.9981868347727628 -0.004233040977580175 0.0017716958106964412 0.0016551876376115313
0.01250521050438 0.001942126468426991 0.00334489048177844 0.9979681731222152 -0.008466989417766725 0.00013797483685543645 0.0017578003478807224 -0.00012909787484186516 -0.001100683506667786
 0.9979681731222152 -0.008466989417766725 0.0019422535525798527 0.003344856948698066 -0.00012909225658642987 -0.00110068176255077 0.0001373068521422262 0.001757928254060327
 0.00013797483685543645 0.0017578003478807224 -0.00012909225658642987 -0.00110068176255077 0.001942132528970607 0.0033450565717757434 0.9979681745386764 -0.008466822027718346
 -0.00012909787484186516 -0.001100683506667786 0.0001373068521422262 0.001757928254060327 0.9979681745386764 -0.008466822027718346 0.0019422503072170402 0.003345025612536226
0.01875781575657 0.0021281736396747387 0.005058655762010027 0.9977273331025892 -0.01271188405726343 0.00018999049049591956 0.0026377145836074347 -0.0001739431249123427 -0.0016541461993249034
 0.9977273331025892 -0.01271188405726343 0.0021284592061618793 0.005058600596679158 -0.0001739306033544196 -0.001654143801775074 0.0001884901635266785 0.0026379427284197203
 0.00018999049049591956 0.0026377145836074347 -0.0001739306033544196 -0.001654143801775074 0.002128186841991697 0.005058904522421694 0.99772733585744 -0.012711633193255224
 -0.0001739431249123427 -0.0016541461993249034 0.0001884901635266785 0.0026379427284197203 0.99772733585744 -0.012711633193255224 0.002128451469193516 0.005058853470677792
0.02501042100875 0.002330180688068417 0.006793993135130515 0.9974640206441013 -0.016969847447491918 0.0002516886709698603 0.0035185283202694645 -0.00022666745562784172 -0.002209149638548357
 0.9974640206441013 -0.016969847447491918 0.002330687832948441 0.006793912765192872 -0.00022664535356869747 -0.0022091467684759807 0.0002490241288187157 0.00351888656044759
 0.0002516886709698603 0.0035185283202694645 -0.00022664535356869747 -0.0022091467684759807 0.0023302037818747896 0.006794324362629806 0.997464025164633 -0.016969513164344734
 -0.00022666745562784172 -0.002209149638548357 0.0002490241288187157 0.00351888656044759 0.997464025164633 -0.016969513164344734 0.002330673692586747 0.006794249877083933
0.03126302626094 0.002548506632790849 0.008549647074394758 0.9971779277455529 -0.021241740431344306 0.0003231711842616905 0.004400185343113934 -0.0002873807357521191 -0.0027655043142328665
 0.9971779277455529 -0.021241740431344306 0.0025492983556368496 0.008549537687472587 -0.0002873464049130768 -0.0027655011799242036 0.00031901026144033054 0.004400707766905441
 0.0003231711842616905 0.004400185343113934 -0.0002873464049130768 -0.0027655011799242036 0.002548542362801815 0.008550060540491277 0.9971779344517416 -0.021241322774163365
 -0.0002873807357521191 -0.0027655043142328665 0.00031901026144033054 0.004400707766905441 0.9971779344517416 -0.021241322774163365 0.002549275886567838 0.008549959086790262
0.037515631513130004 0.002783502540132059 0.010324791694037671 0.9968687397945108 -0.02552798188074112 0.0004045391777896163 0.005282596514330528 -0.0003561902058013621 -0.003323046904013734
 0.9968687397945108 -0.02552798188074112 0.0027846417648219354 0.010324649238365232 -0.00035614102372855816 -0.0033230437411911717 0.00039854928051707284 0.005283321480985824
 0.0004045391777896163 0.005282596514330528 -0.00035614102372855816 -0.0033230437411911717 0.0027835536543110596 0.01032528715599289 0.9968687491079072 -0.02552748087360842
 -0.0003561902058013621 -0.003323046904013734 0.00039854928051707284 0.005283321480985824 0.9968687491079072 -0.02552748087360842 0.0027846090362929833 0.010325155007784196
0.043768236765320004 0.0030355144465631606 0.012118806788869186 0.9965361387627351 -0.02982877258606728 0.0004958926278830424 0.006165654980979948 -0.00043320075990453834 -0.0038816250746083075
 0.9965361387627351 -0.02982877258606728 0.003037064037339 0.01211862697298166 -0.0004331341281196564 -0.003881622146417088 0.0004877406726341471 0.006166625165901696
 0.0004958926278830424 0.006165654980979948 -0.0004331341281196564 -0.003881622146417088 0.0030355836957063134 0.012119383968947081 0.9965361511061053 -0.0298281882522369
 -0.00043320075990453834 -0.0038816250746083075 0.0004877406726341471 0.006166625165901696 0.9965361511061053 -0.0298281882522369 0.003037019113001856 0.012119217208338095
0.050020842017509996 0.00330488470323905 0.01393118527541717 0.9961798048278625 -0.03414418774259901 0.0005973300293288481 0.007049242453743754 -0.0005185150412876014 -0.0044410912163568815
 0.9961798048278625 -0.03414418774259901 0.0033069074789779844 0.013930963567383997 -0.0005184283840986974 -0.004441088813324241 0.0005866824207172872 0.007050504895888589
 0.0005973300293288481 0.007049242453743754 -0.0005184283840986974 -0.004441088813324241 0.0033049748394687315 0.013931843870986378 0.9961798206241214 -0.03414352009392546
 -0.0005185150412876014 -0.0044410912163568815 0.0005866824207172872 0.007050504895888589 0.9961798206241214 -0.03414352009392546 0.0033068484153883147 0.013931638388381726
0.055454545454549996 0.0035533363489191694 0.015520767962450157 0.9958506167975669 -0.03790628871896746 0.000693746826867258 0.00781743817765313 -0.0005994774136479699 -0.0049278920257263235
 0.9958506167975669 -0.03790628871896746 0.0035558213272931993 0.015520505980756858 -0.0005993712790573893 -0.004927890336257201 0.0006806591032092464 0.007818996226946357
 0.000693746826867258 0.00781743817765313 -0.0005993712790573893 -0.004927890336257201 0.0035534468728696676 0.015521497041962748 0.995850635938816 -0.03790554867100385
 -0.0005994774136479699 -0.0049278920257263235 0.0006806591032092464 0.007818996226946357 0.995850635938816 -0.03790554867100385 0.0035557483930058536 0.015521254422071607
0.056273447269699996 0.003591952661843365 0.015761487754879615 0.9957994173402109 -0.03847422231706006 0.0007089481755423989 0.007933232290682527 -0.0006122334528720752 -0.005001299377287323
 0.9957994173402109 -0.03847422231706006 0.0035945114082858317 0.015761219381110556 -0.0006121242165216109 -0.005001297817283026 0.0006954708081439337 0.007934838440973504
 0.0007089481755423989 0.007933232290682527 -0.0006121242165216109 -0.005001297817283026 0.0035920664386647817 0.01576222743297682 0.9957994370131726 -0.038473471358879005
 -0.0006122334528720752 -0.005001299377287323 0.0006954708081439337 0.007934838440973504 0.9957994370131726 -0.038473471358879005 0.003594436255608036 0.015761978926653906
0.06252605252188 0.003897055033418438 0.017609317552520192 0.9953946554678059 -0.04281881594166364 0.0008308419795888914 0.008817491204039771 -0.0007144541291221295 -0.005562103579257126
 0.9953946554678059 -0.04281881594166364 0.003900212514873714 0.017608997496275498 -0.0007143197811795595 -0.005562103207444507 0.0008142002555390982 0.00881949697401466
 0.0008308419795888914 0.008817491204039771 -0.0007143197811795595 -0.005562103207444507 0.0038971952055145104 0.01761013794668647 0.9953946794428128 -0.04281798167552223
 -0.0007144541291221295 -0.005562103579257126 0.0008142002555390982 0.00881949697401466 0.9953946794428128 -0.04281798167552223 0.003900119317270086 0.017609841921898513
0.06877865777407 0.004220526068675748 0.019474305816795625 0.9949651986677733 -0.047177867753495285 0.0009631043222580663 0.009701880275406916 -0.0008252728811966736 -0.006123356831161107
 0.9949651986677733 -0.047177867753495285 0.004224345039502743 0.019473928816138526 -0.0008251109101526906 -0.0061233580199372755 0.0009429631800684163 0.00970434608580572
 0.0009631043222580663 0.009701880275406916 -0.0008251109101526906 -0.0061233580199372755 0.004220695390964489 0.019475206530757506 0.9949652273710858 -0.047176950172943564
 -0.0008252728811966736 -0.006123356831161107 0.0009429631800684163 0.00970434608580572 0.9949652273710858 -0.047176950172943564 0.0042242318345568205 0.019474858298491122
0.07503126302626001 0.004562697633968292 0.02135610209796105 0.9945107270570387 -0.051551245759942035 0.001105825913978017 0.010586255610336645 -0.0009447831278332141 -0.006684910508395248
 0.9945107270570387 -0.051551245759942035 0.004567240849250954 0.021355662643466413 -0.0009445910427504637 -0.006684913657348017 0.0010818498660381038 0.010589246439387941
 0.001105825913978017 0.010586255610336645 -0.0009445910427504637 -0.006684913657348017 0.004562898861736592 0.02135708269976339 0.9945107609165188 -0.051550244855897785
 -0.0009447831278332141 -0.006684910508395248 0.0010818498660381038 0.010589246439387941 0.9945107609165188 -0.051550244855897785 0.004567105669150092 0.021356677375086675
0.08128386827845 0.004923899220226737 0.023254368057460742 0.9940309217202138 -0.05593879307974078 0.0012590951654048907 0.01147046878377601 -0.0010730758171093023 -0.0072466139475741995
 0.9940309217202138 -0.05593879307974078 0.004929229446736559 0.023253860389425753 -0.0010728511474287737 -0.007246619483421953 0.001230948341696006 0.011474054214932474
 0.0012590951654048907 0.01147046878377601 -0.0010728511474287737 -0.007246619483421953 0.004924135108241618 0.023255428082628822 0.9940309611656921 -0.05593770883688688
 -0.0010730758171093023 -0.0072466139475741995 0.001230948341696006 0.011474054214932474 0.9940309611656921 -0.05593770883688688 0.004929070317755827 0.023254960582623992
0.08753647353064001 0.005304457907443974 0.02516877314280445 0.9935254649778987 -0.060340332225017834 0.00142299806434759 0.01235436715410027 -0.0012102393408531754 -0.007808314178661957
 0.9935254649778987 -0.060340332225017834 0.005310637933944876 0.02516819124818011 -0.0012099796361684494 -0.007808322555209407 0.0013903442616827791 0.012358621423254388
 0.00142299806434759 0.01235436715410027 -0.0012099796361684494 -0.007808322555209407 0.005304731209341896 0.025169912092268053 0.9935255104410993 -0.060339164623453796
 -0.0012102393408531754 -0.007808314178661957 0.0013903442616827791 0.012358621423254388 0.9935255104410993 -0.060339164623453796 0.005310452877134119 0.02516937713354291
0.09378907878283 0.00570469829844679 0.027098991484437458 0.9929940406275745 -0.06475566816845682 0.0015976180563549234 0.013237794095702783 -0.001356359444481746 -0.008369855745175783
 0.9929940406275745 -0.06475566816845682 0.00571179094686311 0.02709832909316926 -0.0013560622745143044 -0.008369867443246576 0.0015601207922097415 0.013242796137565951
 0.0015976180563549234 0.013237794095702783 -0.0013560622745143044 -0.008369867443246576 0.005705011766555036 0.027100208825275026 0.9929940925423916 -0.06475441718242936
 -0.001356359444481746 -0.008369855745175783 0.0015601207922097415 0.013242796137565951 0.9929940925423916 -0.06475441718242936 0.005711577977896046 0.027099600921087062
0.100041684035 0.006124942431790697 0.029044699637917247 0.9924363341668316 -0.06918459057230139 0.0017830359285371674 0.014120589183100187 -0.0015115191331358652 -0.008931080579116978
 0.9924363341668316 -0.06918459057230139 0.006133010567071082 0.02904395021903138 -0.0015111820875807003 -0.008931096106511346 0.001740358498549256 0.014126422676880135
 0.0017830359285371674 0.014120589183100187 -0.0015111820875807003 -0.008931096106511346 0.006125298815971845 0.029045994799170232 0.9924363929696818 -0.0691832561740278
 -0.0015115191331358652 -0.008931080579116978 0.001740358498549256 0.014126422676880135 0.9924363929696818 -0.0691832561740278 0.006132767696689531 0.029045308256084305
0.1059090909091 0.006537774690091523 0.030884340698662784 0.9918888040360416 -0.07335282190996509 0.0019669210191769447 0.014948277963421724 -0.001665412899375444 -0.009457299328471239
 0.9918888040360416 -0.07335282190996509 0.0065468154392239325 0.030883503437393933 -0.0016650362604563424 -0.009457318935097422 0.0019190761800143214 0.014954972057529707
 0.0019669210191769447 0.014948277963421724 -0.0016650362604563424 -0.009457318935097422 0.006538173844939903 0.03088570833647427 0.9918888697018836 -0.07335140920726162
 -0.001665412899375444 -0.009457299328471239 0.0019190761800143214 0.014954972057529707 0.9918888697018836 -0.07335140920726162 0.006546542696168029 0.030884942633512224
0.1062942892872 0.006565509676601572 0.031005574875902026 0.9918520330035947 -0.07362687547526757 0.00197932969437804 0.015002588336808982 -0.0016757985759280722 -0.009491827921091775
 0.9918520330035947 -0.07362687547526757 0.006574616217747415 0.031004731633012636 -0.0016754192644564405 -0.009491847812527003 0.0019311352333161091 0.015009341750841182
 0.00197932969437804 0.015002588336808982 -0.0016754192644564405 -0.009491847812527003 0.006565911723953921 0.031006947251867194 0.9918520991334345 -0.07362545763127494
 -0.0016757985759280722 -0.009491827921091775 0.0019311352333161091 0.015009341750841182 0.9918520991334345 -0.07362545763127494 0.0065743414518909145 0.031006176165922036
0.11254689453939999 0.007026716616553934 0.03298129390225222 0.9912408266571628 -0.07808228656500604 0.002186574481344142 0.015883623947090388 -0.001849275007008612 -0.010051934269160437
 0.9912408266571628 -0.07808228656500604 0.007036924546637284 0.0329803497687177 -0.0018488510592650435 -0.010051959086212035 0.0021325260270741294 0.015891390582671746
 0.002186574481344142 0.015883623947090388 -0.0018488510592650435 -0.010051959086212035 0.007027167070706185 0.03298274285144341 0.9912409005559554 -0.07808078523671737
 -0.001849275007008612 -0.010051934269160437 0.0021325260270741294 0.015891390582671746 0.9912409005559554 -0.07808078523671737 0.007036615886989901 0.0329818811039261
0.11879949979160001 0.007508876923232149 0.034971531840621246 0.9906024069529268 -0.0825505761842323 0.00240484241829302 0.016763524980665415 -0.0020320226264238317 -0.010611233351809421
 0.9906024069529268 -0.0825505761842323 0.007520249300356768 0.034970479474160175 -0.0020315516920059486 -0.01061126368284928 0.0023446029787485586 0.016772403014728664
 0.00240484241829302 0.016763524980665415 -0.0020315516920059486 -0.01061126368284928 0.0075093785236013426 0.03497305668462793 0.9906024890655799 -0.08254899132874481
 -0.0020320226264238317 -0.010611233351809421 0.0023446029787485586 0.016772403014728664 0.9906024890655799 -0.08254899132874481 0.007519904744295775 0.03497209793730187
0.1250521050438 0.008012301222069794 0.03697596145125408 0.9899364682122669 -0.08703148611678681 0.002634202525071082 0.017642117078387393 -0.0022241124989483964 -0.011169556117014017
 0.9899364682122669 -0.08703148611678681 0.008024901189805655 0.03697479322808818 -0.002223592247456244 -0.011169592577162511 0.0025674351473038296 0.017652209605107674
 0.002634202525071082 0.017642117078387393 -0.002223592247456244 -0.011169592577162511 0.008012856703251123 0.03697756147352242 0.9899365589869398 -0.08702981768780288
 -0.0022241124989483964 -0.011169556117014017 0.0025674351473038296 0.017652209605107674 0.9899365589869398 -0.08702981768780288 0.008024518730594142 0.03697649916342739
0.131304710296 0.00853729695234683 0.03899425250187795 0.9892427074384689 -0.09152474822819316 0.002874720602025127 0.01851922264451056 -0.002425612452654993 -0.011726730736790234
 0.9892427074384689 -0.09152474822819316 0.008551187750127977 0.0389929605104592 -0.0024250405737484266 -0.011726773967842 0.002801088444047663 0.018530637715799356
 0.002874720602025127 0.01851922264451056 -0.0024250405737484266 -0.011726773967842 0.008537909043324883 0.03899592694899986 0.9892428073268006 -0.09152299617432134
 -0.002425612452654993 -0.011726730736790234 0.002801088444047663 0.018530637715799356 0.9892428073268006 -0.09152299617432134 0.00855076537738554 0.038994754282651076
0.1375573155481 0.008966215338486577 0.040762687762592814 0.9886388264485904 -0.09576658033745361 0.0030971954618135905 0.019368563792491505 -0.00260740832287315 -0.01225644268715952
 0.9886388264485904 -0.09576658033745361 0.008981464430905485 0.04076129292078813 -0.0026067812314236787 -0.012256492759290867 0.0030165210217149192 0.019381288613507745
 0.0030971954618135905 0.019368563792491505 -0.0026067812314236787 -0.012256492759290867 0.008966885941954482 0.04076443626723955 0.988638935863385 -0.09576474466922824
 -0.00260740832287315 -0.01225644268715952 0.0030165210217149192 0.019381288613507745 0.988638935863385 -0.09576474466922824 0.008981001034512178 0.040763174620876454
0.1438099208003 0.00941029488502317 0.0425213255455611 0.9880135523572556 -0.09999717575241227 0.003328658069550445 0.020214148519052993 -0.00279646378648404 -0.012782745500475718
 0.9880135523572556 -0.09999717575241227 0.009426966264559451 0.0425198218230007 -0.0027957789716559715 -0.012782803051791228 0.003240633435338051 0.02022828240209195
 0.003328658069550445 0.020214148519052993 -0.0027957789716559715 -0.012782803051791228 0.009411026574075994 0.0425231473769242 0.988013671746607 -0.0999952564271759
 -0.00279646378648404 -0.012782745500475718 0.003240633435338051 0.02022828240209195 0.988013671746607 -0.0999952564271759 0.009426459992540744 0.0425217917964511
0.1500625260525 0.009869371993217213 0.044270004687427464 0.9873670531627443 -0.1042164148460025 0.00356902466599358 0.02105587990114195 -0.0029926981192293614 -0.013305549067735097
 0.9873670531627443 -0.1042164148460025 0.009887529764176771 0.04426838572738526 -0.0029919530741137224 -0.01330561476245339 0.0034733438695503894 0.02107152579283587
 0.00356902466599358 0.02105587990114195 -0.0029919530741137224 -0.01330561476245339 0.00987016732584141 0.04427189908519806 0.9873671829772458 -0.10421441182192372
 -0.0029926981192293614 -0.013305549067735097 0.0034733438695503894 0.02107152579283587 0.9873671829772458 -0.10421441182192372 0.009886978772145885 0.04427044433056625
0.15631513130469998 0.01034328181566275 0.04600856885432697 0.986699497813221 -0.1084241787272008 0.0038182104485499765 0.021893662745823668 -0.003196029555605259 -0.01382476526214422
 0.986699497813221 -0.1084241787272008 0.010362990197972 0.046006827967772355 -0.0031952217773261503 -0.01382483979046 0.0037145694976859905 0.02191092718741757
