! Created with skrf 1.8.0 (http://scikit-rf.org).
# GHz S RI R 50.0 
!freq ReS11 ImS11 ReS12 ImS12 ReS13 ImS13
! ReS14 ImS14
! ReS21 ImS21 ReS22 ImS22 ReS23 ImS23
! ReS24 ImS24
! ReS31 ImS31 ReS32 ImS32 ReS33 ImS33
! ReS34 ImS34
! ReS41 ImS41 ReS42 ImS42 ReS43 ImS43
! ReS44 ImS44
!
0.0 0.001809554567678 0.0 0.9981904454124 0.0 7.023645667317e-05 0.0 -7.023645658452e-05 8.601485173968446e-21
 0.9981904454124 0.0 0.001809554567671 0.0 -7.02364565844e-05 8.60148517395375e-21 7.023645667343e-05 0.0
 7.023645667317e-05 0.0 -7.02364565844e-05 8.60148517395375e-21 0.001809554577629 0.0 0.9981904454224 0.0
 -7.023645658452e-05 8.601485173968446e-21 7.023645667343e-05 0.0 0.9981904454224 0.0 0.001809554577631 0.0
0.005 0.0019478070842385254 0.0014796829458419323 0.9980153657750571 -0.0037895395915518624 9.902587345739889e-05 0.0007732708289943102 -9.599115290739368e-05 -0.00048532721493165155
 0.9980153657750571 -0.0037895395915518624 0.001947850906416169 0.0014796574154319145 -9.599154406879946e-05 -0.00048532758550647883 9.875012660875332e-05 0.0007733759553666476
 9.902587345739889e-05 0.0007732708289943102 -9.599154406879946e-05 -0.00048532758550647883 0.001947806150632198 0.0014796162749986222 0.9980153653924208 -0.0037896066518878302
 -9.599115290739368e-05 -0.00048532721493165155 9.875012660875332e-05 0.0007733759553666476 0.9980153653924208 -0.0037896066518878302 0.0019478510877546731 0.0014795899787004652
0.006252605252188 0.0019843288951298305 0.0018553864066313678 0.9979687758584795 -0.004737807936505403 0.00010742709959718102 0.0009669439162325979 -0.00010338443698839528 -0.0006072700014066842
 0.9979687758584795 -0.004737807936505403 0.0019843973965998603 0.001855353980512425 -0.00010338504510518224 -0.0006072704596968137 0.00010699627631188867 0.0009670805241476148
 0.00010742709959718102 0.0009669439162325979 -0.00010338504510518224 -0.0006072704596968137 0.001984327505873957 0.0018553030864743114 0.9979687753307406 -0.004737891757035028
 -0.00010338443698839528 -0.0006072700014066842 0.00010699627631188867 0.0009670805241476148 0.9979687753307406 -0.004737891757035028 0.0019843977513212614 0.0018552696884594569
0.01250521050438 0.0021781149905516235 0.003749231732917627 0.9977197090272145 -0.009476097289096362 0.00015653449914027095 0.0019340971193526043 -0.00014598597727364225 -0.0012173036314269187
 0.9977197090272145 -0.009476097289096362 0.0021783885112870408 0.0037491616940713173 -0.00014598836693047884 -0.0012173044942882089 0.0001548165850928024 0.0019344270480473845
 0.00015653449914027095 0.0019340971193526043 -0.00014598836693047884 -0.0012173044942882089 0.0021781100180722855 0.0037490654896964485 0.997719707497608 -0.00947626471764025
 -0.00014598597727364225 -0.0012173036314269187 0.0001548165850928024 0.0019344270480473845 0.997719707497608 -0.00947626471764025 0.0021783905195021554 0.0037489933455533793
0.01875781575657 0.002391391671149346 0.005669559652601836 0.997442896287402 -0.014226333058891276 0.00021767831527922348 0.0029020557771977924 -0.00019818324609623532 -0.0018291811006291227
 0.997442896287402 -0.014226333058891276 0.002392006277330504 0.005669446400631969 -0.00019818856551228595 -0.0018291823049742723 0.00021381948306786576 0.002902648249319312
 0.00021767831527922348 0.0029020557771977924 -0.00019818856551228595 -0.0018291823049742723 0.002391380907537415 0.005669310839982572 0.9974428932614492 -0.01422658405284149
 -0.00019818324609623532 -0.0018291811006291227 0.00021381948306786576 0.002902648249319312 0.9974428932614492 -0.01422658405284149 0.0023920112324087215 0.005669194142631242
0.02501042100875 0.0026246200304158593 0.007613611672943799 0.9971379738235987 -0.018990745458093563 0.0002909804994248777 0.0038708076484794706 -0.0002601125374266375 -0.002442582000449001
 0.9971379738235987 -0.018990745458093563 0.0026257115210693944 0.007613449240926201 -0.0002601219179423194 -0.0024425834725210994 0.00028412683857292193 0.0038717440371242836
 0.0002909804994248777 0.0038708076484794706 -0.0002601219179423194 -0.0024425834725210994 0.0026246012820843752 0.0076132807030346045 0.9971379688131403 -0.01899108004272745
 -0.0002601125374266375 -0.002442582000449001 0.00028412683857292193 0.0038717440371242836 0.9971379688131403 -0.01899108004272745 0.002625720742081782 0.007613113234417499
0.03126302626094 0.0028782418805650026 0.0095799319395191 0.9968045614823259 -0.023770245118179368 0.00037656299549217973 0.004840250225530379 -0.00033190539042247057 -0.003057267008685116
 0.9968045614823259 -0.023770245118179368 0.0028799458705937473 0.009579714003033264 -0.0003319199492980302 -0.0030572686639796847 0.0003658597633390867 0.004841624128731397
 0.00037656299549217973 0.004840250225530379 -0.0003319199492980302 -0.0030572686639796847 0.002878212957829632 0.009579519295186863 0.9968045539928101 -0.023770663374822625
 -0.00033190539042247057 -0.003057267008685116 0.0003658597633390867 0.004841624128731397 0.9968045539928101 -0.023770663374822625 0.002879960692737347 0.009579294434794288
0.037515631513130004 0.003152688644529778 0.011567543717710242 0.9964422720709679 -0.028565246558419886 0.0004745463128413093 0.0058102445682285345 -0.00041368950648586477 -0.003673024079809
 0.9964422720709679 -0.028565246558419886 0.0031551406245085966 0.01156726359858376 -0.0004137103485571144 -0.003673025823093419 0.00045913762434844114 0.005812161928636467
 0.0004745463128413093 0.0058102445682285345 -0.0004137103485571144 -0.003673025823093419 0.00315264736293271 0.011567049968791121 0.9964422615989534 -0.028565748608825076
 -0.00041368950648586477 -0.003673024079809 0.00045913762434844114 0.005812161928636467 0.9964422615989534 -0.028565748608825076 0.0031551623989279427 0.011566760696968426
0.043768236765320004 0.003448384769566783 0.013575698796109838 0.9960507151861405 -0.03337591871965576 0.0005850488394818667 0.006780631697162546 -0.0005055890494056352 -0.00428965209187248
 0.9960507151861405 -0.03337591871965576 0.003451720154060247 0.013575349463977305 -0.0005056172679594988 -0.004289653817247791 0.0005640775453665389 0.006783210935634052
 0.0005850488394818667 0.006780631697162546 -0.0005056172679594988 -0.004289653817247791 0.003448328952516302 0.01357512460249212 0.9960507012191846 -0.03337650472346023
 -0.0005055890494056352 -0.00428965209187248 0.0005640775453665389 0.006783210935634052 0.9960507012191846 -0.03337650472346023 0.0034517502505716086 0.013574763501241984
0.050020842017509996 0.003765749286832424 0.01560377392379976 0.9956294991959083 -0.03820228846423009 0.0007081864130050621 0.007751239385614493 -0.000607724728964331 -0.004906954104209704
 0.9956294991959083 -0.03820228846423009 0.003770103458783112 0.015603347995649181 -0.000607761406399909 -0.004906955695168624 0.0006807940785544122 0.007754611539998686
 0.0007081864130050621 0.007751239385614493 -0.000607761406399909 -0.004906955695168624 0.00376567676828347 0.015603120037082845 0.9956294812115851 -0.038202958617777595
 -0.000607724728964331 -0.004906954104209704 0.0006807940785544122 0.007754611539998686 0.9956294812115851 -0.038202958617777595 0.0037701432676965616 0.01560267928906122
0.055454545454549996 0.004059467998557356 0.017381982412783603 0.995239058719698 -0.04240925004440051 0.0008255457193392491 0.008594764750854833 -0.0007048878649618622 -0.005443803390835644
 0.995239058719698 -0.04240925004440051 0.004064817481458666 0.01738148364928052 -0.0007049327643826398 -0.005443804762178518 0.0007918751830170549 0.008598942296773613
 0.0008255457193392491 0.008594764750854833 -0.0007049327643826398 -0.005443804762178518 0.0040593792161078895 0.01738125995400619 0.9952390368105064 -0.042409993512939524
 -0.0007048878649618622 -0.005443803390835644 0.0007918751830170549 0.008598942296773613 0.9952390368105064 -0.042409993512939524 0.004064866876103899 0.017380743329907983
0.056273447269699996 0.004105196584645139 0.017651219988713763 0.9951782324416392 -0.04304429133972864 0.0008440720112985109 0.008721885494153179 -0.0007202137824187894 -0.005524734081536465
 0.9951782324416392 -0.04304429133972864 0.004110704936383228 0.017650709727105723 -0.0007202599907374115 -0.005524735411032332 0.0008093989558735418 0.008726194359939028
 0.0008440720112985109 0.008721885494153179 -0.0007202599907374115 -0.005524735411032332 0.004105105210652242 0.017650487253259798 0.9951782099054665 -0.04304504587552247
 -0.0007202137824187894 -0.005524734081536465 0.0008093989558735418 0.008726194359939028 0.9951782099054665 -0.04304504587552247 0.004110755869132601 0.01764995863930138
0.06252605252188 0.004467136793092523 0.01971753408968987 0.9946965240581515 -0.047901799457064846 0.0009928154976935064 0.009692379831688053 -0.0008431699090229229 -0.006142795100974812
 0.9946965240581515 -0.047901799457064846 0.004473934766669905 0.0197169313992762 -0.0008432267102251403 -0.006142796031482541 0.0009500008756325905 0.00969778210276318
 0.0009928154976935064 0.009692379831688053 -0.0008432267102251403 -0.006142796031482541 0.004467024424499964 0.01971672344113074 0.9946964964227223 -0.04790263864551338
 -0.0008431699090229229 -0.006142795100974812 0.0009500008756325905 0.00969778210276318 0.9946964964227223 -0.04790263864551338 0.004473998257305293 0.01971609833619991
0.06877865777407 0.004851975956022069 0.02180224288595236 0.9941839845864933 -0.05277463810003803 0.001154523401009149 0.010662525274386905 -0.0009767031741871454 -0.006760938310860429
 0.9941839845864933 -0.05277463810003803 0.0048601990816777435 0.02180153930879183 -0.0009767716205012426 -0.006760938694445675 0.0011027053111958528 0.010669190682981375
 0.001154523401009149 0.010662525274386905 -0.0009767716205012426 -0.006760938694445675 0.004851840469764489 0.021801355353469314 0.9941839512890558 -0.052775562247534664
 -0.0009767031741871454 -0.006760938310860429 0.0011027053111958528 0.010669190682981375 0.9941839512890558 -0.052775562247534664 0.004860276587729153 0.021800624721260688
0.07503126302626001 0.005260116074681067 0.023904892059884664 0.9936402264644134 -0.057662596232196016 0.0013292987135633321 0.011632118497570164 -0.001120919897115822 -0.007378962286703414
 0.9936402264644134 -0.057662596232196016 0.005269900009971073 0.023904078768976204 -0.0011210010313152615 -0.007378961965061644 0.001267614331359413 0.011640229952588838
 0.0013292987135633321 0.011632118497570164 -0.0011210010313152615 -0.007378961965061644 0.005259955367346703 0.02390392876768867 0.9936401869265649 -0.057663605679702364
 -0.001120919897115822 -0.007378962286703414 0.001267614331359413 0.011640229952588838 0.9936401869265649 -0.057663605679702364 0.005269993014322902 0.023903083153763084
0.08128386827845 0.005691955074285051 0.026025039314134253 0.9930648644450285 -0.06256543348030405 0.0015172407021471356 0.012600950480411188 -0.0012759225267817225 -0.007996662624522624
 0.9930648644450285 -0.06256543348030405 0.0057034356421602475 0.02602410710570858 -0.001276017382313202 -0.007996661429052702 0.0014448264288469527 0.012610704203831561
 0.0015172407021471356 0.012600950480411188 -0.001276017382313202 -0.007996661429052702 0.005691767063491182 0.026024001479451817 0.9930648180703101 -0.06256652860550443
 -0.0012759225267817225 -0.007996662624522624 0.0014448264288469527 0.012610704203831561 0.9930648180703101 -0.06256652860550443 0.00570354565396181 0.026023031002798416
0.08753647353064001 0.006147886715728259 0.028162249536661434 0.9924575159652391 -0.06748288496157198 0.0017184447274382012 0.013568806873938364 -0.0014418095100941866 -0.008613831681592922
 0.9924575159652391 -0.06748288496157198 0.006161199943254285 0.028161188820809216 -0.001441919111325086 -0.008613829433439349 0.0016344363538694719 0.013580412534766325
 0.0017184447274382012 0.013568806873938364 -0.001441919111325086 -0.008613829433439349 0.00614766934296521 0.02816113847224387 0.9924574621377902 -0.06748406617631156
 -0.0014418095100941866 -0.008613831681592922 0.0016344363538694719 0.013580412534766325 0.9924574621377902 -0.06748406617631156 0.006161328498961573 0.028160032815393133
0.09378907878283 0.006628300470437754 0.030316091362553158 0.991817801481845 -0.07241466472640862 0.0019330020687441456 0.014535468286103276 -0.0016186751552225798 -0.00923025841088693
 0.991817801481845 -0.07241466472640862 0.006643582627057784 0.03031489215221184 -0.0016188005175567443 -0.009230254920988399 0.0018365349511753456 0.0145491491316066
 0.0019330020687441456 0.014535468286103276 -0.0016188005175567443 -0.009230254920988399 0.00662805170319953 0.030314908476620262 0.9918177395649334 -0.07241593247656397
 -0.0016186751552225798 -0.00923025841088693 0.0018365349511753456 0.0145491491316066 0.9918177395649334 -0.07241593247656397 0.006643731291762478 0.030313656874158726
0.100041684035 0.007133581369849397 0.03248613466622896 0.9911453447866128 -0.0773604682832395 0.0021609997534469375 0.015500710510084828 -0.001806609491058155 -0.009845728263253407
 0.9911453447866128 -0.0773604682832395 0.007150969005525532 0.03248478656467696 -0.0018067516210336532 -0.00984572333238923 0.0020512089996655644 0.01551670349408129
 0.0021609997534469375 0.015500710510084828 -0.0018067516210336532 -0.00984572333238923 0.007133299204205989 0.03248488146123467 0.9911452741209661 -0.07736182304975875
 -0.001806609491058155 -0.009845728263253407 0.0020512089996655644 0.01551670349408129 0.9911452741209661 -0.07736182304975875 0.007151139374567093 0.03248347268671187
0.1059090909091 0.00763068923486093 0.03453684150480197 0.9904842048846266 -0.08201404899373269 0.002387248887843498 0.016404993448990025 -0.001993109101962502 -0.010422216931667805
 0.9904842048846266 -0.08201404899373269 0.007650177114278666 0.034535343851459024 -0.0019932678742756826 -0.010422210458424569 0.0022641686556209694 0.0164233839561633
 0.002387248887843498 0.016404993448990025 -0.0019932678742756826 -0.010422210458424569 0.007630373933778892 0.034535523763535865 0.9904841253883994 -0.08201548588382973
 -0.001993109101962502 -0.010422216931667805 0.0022641686556209694 0.0164233839561633 0.9904841253883994 -0.08201548588382973 0.007650369329472343 0.03453395686573079
0.1062942892872 0.0076641098337113175 0.03467194868416558 0.9904397733042756 -0.08231997450600634 0.0024025203892134236 0.016464304720571612 -0.0020056981241213467 -0.01046002313290116
 0.9904397733042756 -0.08231997450600634 0.0076837398180903274 0.034670440870704165 -0.0020058580195863288 -0.01046001655174564 0.00227854105461737 0.01648286062843924
 0.0024025203892134236 0.016464304720571612 -0.0020058580195863288 -0.01046001655174564 0.007663792297115046 0.034670626757367595 0.9904396932065502 -0.08232141680385166
 -0.0020056981241213467 -0.01046002313290116 0.00227854105461737 0.01648286062843924 0.9904396932065502 -0.08232141680385166 0.007683933518113914 0.03466904910853962
0.11254689453939999 0.008220261486129747 0.036873100597061885 0.9897007183805077 -0.0872928470954286 0.0026576419995798534 0.01742601764213678 -0.0022160220940431654 -0.011072921342141872
 0.9897007183805077 -0.0872928470954286 0.008242271046933217 0.03687142181103026 -0.002216200744226344 -0.011072912891285288 0.0025186092910623576 0.017447401212371382
 0.0026576419995798534 0.01742601764213678 -0.002216200744226344 -0.011072912891285288 0.008219906639698626 0.03687171164026226 0.9897006281419947 -0.0872943774733918
 -0.0022160220940431654 -0.011072921342141872 0.0025186092910623576 0.017447401212371382 0.9897006281419947 -0.0872943774733918 0.008242489737421371 0.03686995292265415
0.11879949979160001 0.008802406958241816 0.03908915444001724 0.9889278155609462 -0.09227873572598716 0.002926437861438896 0.018385611706444087 -0.0024376577278019413 -0.011684197648762159
 0.9889278155609462 -0.09227873572598716 0.008826933720031365 0.03908729296307557 -0.0024378561134418297 -0.01168418709874148 0.0027714873491593807 0.018410101748550782
 0.002926437861438896 0.018385611706444087 -0.0024378561134418297 -0.01168418709874148 0.008802012899249832 0.039087700239888966 0.9889277144451394 -0.09228035476570769
 -0.0024376577278019413 -0.011684197648762159 0.0027714873491593807 0.018410101748550782 0.9889277144451394 -0.09228035476570769 0.00882717909401147 0.03908574774866046
0.1250521050438 0.009410911682620164 0.04131967025356296 0.9881207048630818 -0.0972772769660015 0.0032089763449329347 0.01934284519697738 -0.002670676493783928 -0.012293623277549149
 0.9881207048630818 -0.0972772769660015 0.009438093705601667 0.04131761389013652 -0.002670895587167691 -0.012293610388908933 0.003037244181139597 0.019370734705471807
 0.0032089763449329347 0.01934284519697738 -0.002670895587167691 -0.012293610388908933 0.009410476547197255 0.04131815269226318 0.9881205921047955 -0.09727898528064233
 -0.002670676493783928 -0.012293623277549149 0.003037244181139597 0.019370734705471807 0.9881205921047955 -0.09727898528064233 0.009438367491477712 0.0413159931921896
0.131304710296 0.010046135681215216 0.04356420342020514 0.9872790310451292 -0.10228809502649533 0.0035053207553347823 0.02029747239131643 -0.0029151448556426216 -0.01290096596604172
 0.9872790310451292 -0.10228809502649533 0.010076111500066142 0.04356193947608636 -0.0029153856207340244 -0.012900950489338177 0.003315943900027472 0.02032906865565395
 0.0035053207553347823 0.02029747239131643 -0.0029153856207340244 -0.012900950489338177 0.010045657647104854 0.04356262447275601 0.9872789058485257 -0.10228989326238457
 -0.0029151448556426216 -0.01290096596604172 0.003315943900027472 0.02032906865565395 0.9872789058485257 -0.10228989326238457 0.010076415463002883 0.04356024417649335
0.1375573155481 0.010571710745983525 0.04553064418836657 0.9865392335881747 -0.10701897689962689 0.003781637793680322 0.021221495649894572 -0.0031374523025780527 -0.013478097504290177
 0.9865392335881747 -0.10701897689962689 0.010604630669732003 0.045528207082346485 -0.0031377163750711764 -0.013478079392880345 0.003574182740342575 0.021256782378832616
 0.003781637793680322 0.021221495649894572 -0.0031377163750711764 -0.013478079392880345 0.010571188828728083 0.04552900519267158 0.9865390953524562 -0.10702086546419333
 -0.0031374523025780527 -0.013478097504290177 0.003574182740342575 0.021256782378832616 0.9865390953524562 -0.10702086546419333 0.010604965398963377 0.045526438352165285
0.1438099208003 0.011116020877579857 0.04748498360057802 0.9857728807119412 -0.11173608384108151 0.004069072954229208 0.022140525451437368 -0.0033685678182845805 -0.014050767961480436
 0.9857728807119412 -0.11173608384108151 0.011152025846584042 0.047482363078406344 -0.0033688562706151266 -0.014050746959982027 0.0038427551895243014 0.022179786618677505
 0.004069072954229208 0.022140525451437368 -0.0033688562706151266 -0.014050746959982027 0.011115453466056779 0.04748328656246358 0.9857727286371613 -0.11173806336988286
 -0.0033685678182845805 -0.014050767961480436 0.0038427551895243014 0.022179786618677505 0.9857727286371613 -0.11173806336988286 0.011152392947332154 0.04748052190489979
0.1500625260525 0.011678845687620603 0.04942700666238901 0.9849801977202104 -0.11643924535447524 0.004367508761064769 0.023054427359959443 -0.0036083796868690322 -0.014618856345820254
 0.9849801977202104 -0.11643924535447524 0.011718077147504564 0.049424191783953624 -0.003608693591342579 -0.014618832187880229 0.004121549459019188 0.023097957338349632
 0.004367508761064769 0.023054427359959443 -0.003608693591342579 -0.014618832187880229 0.01167823122090801 0.049425253663110756 0.984980030980525 -0.11644131650513588
 -0.0036083796868690322 -0.014618856345820254 0.004121549459019188 0.023097957338349632 0.984980030980525 -0.11644131650513588 0.011718478246673469 0.04942227919368301
0.15631513130469998 0.012259962882099434 0.05135650482731676 0.9841614114351438 -0.12112829277550052 0.004676826134447526 0.023963069633900828 -0.0038567746376241877 -0.01518224458985096
 0.9841614114351438 -0.12112829277550052 0.01230256279677638 0.051353483943245334 -0.003857115066465107 -0.015182216998118926 0.004410452256333996 0.0240111730720654
