! Created with skrf 1.8.0 (http://scikit-rf.org).
# GHz S RI R 50.0 
!freq ReS11 ImS11 ReS12 ImS12 ReS13 ImS13
! ReS14 ImS14
! ReS21 ImS21 ReS22 ImS22 ReS23 ImS23
! ReS24 ImS24
! ReS31 ImS31 ReS32 ImS32 ReS33 ImS33
! ReS34 ImS34
! ReS41 ImS41 ReS42 ImS42 ReS43 ImS43
! ReS44 ImS44
!
0.0 0.001366804352858 0.0 0.9986331956152 0.0 5.241051949888e-05 0.0 -5.241051975432e-05 6.418437525877712e-21
 0.9986331956152 0.0 0.001366804352799 0.0 -5.241051975309e-05 6.41843752572708e-21 5.241051949783e-05 0.0
 5.241051949888e-05 0.0 -5.241051975309e-05 6.41843752572708e-21 0.001366804368812 0.0 0.9986331956312 0.0
 -5.241051975432e-05 6.418437525877712e-21 5.241051949783e-05 0.0 0.9986331956312 0.0 0.001366804368821 0.0
0.005 0.001470103454883206 0.0011187906035962484 0.9985025828408403 -0.002863597925962063 7.31389616161108e-05 0.0005760017276418861 -7.106912981731162e-05 -0.00036188782971596155
 0.9985025828408403 -0.002863597925962063 0.0014701151658827335 0.001118783748676906 -7.106980537464731e-05 -0.0003618882807711115 7.306116826107789e-05 0.0005760312291574558
 7.31389616161108e-05 0.0005760017276418861 -7.106980537464731e-05 -0.0003618882807711115 0.0014701031265779672 0.0011187234956862157 0.9985025825067053 -0.0028636649898745124
 -7.106912981731162e-05 -0.00036188782971596155 7.306116826107789e-05 0.0005760312291574558 0.9985025825067053 -0.0028636649898745124 0.0014701148350956888 0.0011187167379699899
0.006252605252188 0.0014970592422851737 0.0014029069785903654 0.9984683055572378 -0.0035802188287760027 7.898888697684588e-05 0.0007202901677649551 -7.627347790704279e-05 -0.00045283516857387346
 0.9984683055572378 -0.0035802188287760027 0.0014970775489539037 0.0014028982878878066 -7.627452967243259e-05 -0.00045283572343422665 7.886733987276069e-05 0.0007203284696412077
 7.898888697684588e-05 0.0007202901677649551 -7.627452967243259e-05 -0.00045283572343422665 0.0014970587925060095 0.0014028230987705903 0.9984683050977674 -0.003580302651988904
 -7.627347790704279e-05 -0.00045283516857387346 7.886733987276069e-05 0.0007203284696412077 0.9984683050977674 -0.003580302651988904 0.0014970770945564441 0.0014028145415477652
0.01250521050438 0.001638166222278662 0.0028353924488039852 0.9982877853117035 -0.007161370231041982 0.00011215584020654606 0.001440988649289244 -0.00010546045752101941 -0.0009079497916844173
 0.9982877853117035 -0.007161370231041982 0.0016382393255565885 0.002835373844111755 -0.00010546460928036485 -0.0009079508032865555 0.00011167108044536864 0.00144108050325669
 0.00011215584020654606 0.001440988649289244 -0.00010546460928036485 -0.0009079508032865555 0.0016381649810370575 0.002835224930352028 0.998287784020697 -0.007161537647845008
 -0.00010546045752101941 -0.0009079497916844173 0.00011167108044536864 0.00144108050325669 0.998287784020697 -0.007161537647845008 0.001638238051068594 0.002835206715242514
0.01875781575657 0.0017904056387581517 0.004288485180433916 0.9980914303772778 -0.010752198539279485 0.00015198346984971278 0.002162592471436973 -0.00014005527722189438 -0.0013647080538908072
 0.9980914303772778 -0.010752198539279485 0.0017905699123731604 0.004288455360727143 -0.00014006454555842896 -0.0013647094049130466 0.00015089436997015667 0.0021627558350858353
 0.00015198346984971278 0.002162592471436973 -0.00014006454555842896 -0.0013647094049130466 0.0017904032912588982 0.004288234153037306 0.9980914278933163 -0.010752449500308143
 -0.00014005527722189438 -0.0013647080538908072 0.00015089436997015667 0.0021627558350858353 0.9980914278933163 -0.010752449500308143 0.0017905674603668474 0.0042882051100476696
0.02501042100875 0.001954051022582021 0.005760181745859454 0.9978790289825709 -0.014354472806821375 0.00019854515179203156 0.0028851481121681204 -0.0001801394970936046 -0.00182292067002267
 0.9978790289825709 -0.014354472806821375 0.001954342770141052 0.005760139345853916 -0.00018015587788805298 -0.0018229222220522245 0.0001966103958342423 0.0028854035481010658
 0.00019854515179203156 0.0028851481121681204 -0.00018015587788805298 -0.0018229222220522245 0.001954047264553847 0.005759847359696878 0.9978790249382596 -0.014354807310836427
 -0.0001801394970936046 -0.00182292067002267 0.0001966103958342423 0.0028854035481010658 0.9978790249382596 -0.014354807310836427 0.0019543387766550106 0.00575980626375322
0.03126302626094 0.0021293644499885637 0.007249465713578683 0.9976503575875231 -0.01796896758656247 0.0002519149527970459 0.003608636364660242 -0.0002257926694475326 -0.002282459963472919
 0.9976503575875231 -0.01796896758656247 0.002129819924257035 0.0072494093067388635 -0.00022581814152071718 -0.002282461556718318 0.000248892805713321 0.0036090070560834933
 0.0002519149527970459 0.003608636364660242 -0.00022581814152071718 -0.002282461556718318 0.0021293589915481184 0.0072490481444044685 0.997650351611767 -0.01796938567552374
 -0.0002257926694475326 -0.002282459963472919 0.000248892805713321 0.0036090070560834933 0.997650351611767 -0.01796938567552374 0.002129814023200344 0.007248993718632638
0.037515631513130004 0.0023166024910166103 0.008755685397408062 0.997405186970999 -0.02159608512739305 0.0003121668953979216 0.0043330123214839495 -0.00027709291541395617 -0.002743219868939866
 0.997405186970999 -0.02159608512739305 0.0023172579067900242 0.008755613497680458 -0.00027712944233308957 -0.002743221322092217 0.0003078150950190151 0.004333524099854352
 0.0003121668953979216 0.0043330123214839495 -0.00027712944233308957 -0.002743221322092217 0.0023165950578960003 0.008755184852857135 0.9974051786890885 -0.021596586880331205
 -0.00027709291541395617 -0.002743219868939866 0.0003078150950190151 0.004333524099854352 0.9974051786890885 -0.021596586880331205 0.002317249731790182 0.00875511577059364
0.043768236765320004 0.0025160185158299877 0.0102783644733678 0.9971432846785628 -0.025236044695635652 0.0003793746160747781 0.005058217531539442 -0.00033411714184830235 -0.0032051037651765362
 0.9971432846785628 -0.025236044695635652 0.002516910060139458 0.010278275536373015 -0.00033416667301822226 -0.0032051048753171255 0.000373450317092718 0.005058898907991189
 0.0003793746160747781 0.005058217531539442 -0.00033416667301822226 -0.0032051048753171255 0.0025160088489149133 0.010277781204599908 0.9971432737099418 -0.025236630217223728
 -0.00033411714184830235 -0.0032051037651765362 0.000373450317092718 0.005058898907991189 0.9971432737099418 -0.025236630217223728 0.0025168992440229116 0.010277696090874594
0.050020842017509996 0.002727863769150605 0.011817123724525695 0.996864416240996 -0.0288889607663566 0.0004536111663633968 0.00578418501185963 -0.0003969411260083242 -0.003668019454606404
 0.996864416240996 -0.0288889607663566 0.002729027609658391 0.011817016148484242 -0.0003970055972631097 -0.003668019997132625 0.00044587091193778187 0.005785067210235746
 0.0004536111663633968 0.00578418501185963 -0.0003970055972631097 -0.003668019997132625 0.0027278516260183803 0.011816458025871645 0.9968644021998128 -0.028889630187382696
 -0.0003969411260083242 -0.003668019454606404 0.00044587091193778187 0.005785067210235746 0.9968644021998128 -0.028889630187382696 0.0027290137869172447 0.011816355458520231
0.055454545454549996 0.002922251716408417 0.013167161230281702 0.9966081094444943 -0.03207401632730888 0.0005238894414723306 0.006415635198422008 -0.00045630520819944337 -0.0040710750461736885
 0.9966081094444943 -0.03207401632730888 0.0029236815543188573 0.01316703611143087 -0.0004563842247890476 -0.0040710748961302265 0.0005143728660993503 0.006416719406964175
 0.0005238894414723306 0.006415635198422008 -0.0004563842247890476 -0.0040710748961302265 0.0029222372374031807 0.013166424167710014 0.9966080924142054 -0.03207475878861489
 -0.00045630520819944337 -0.0040710750461736885 0.0005143728660993503 0.006416719406964175 0.9966080924142054 -0.03207475878861489 0.0029236648229302694 0.013166305241719745
0.056273447269699996 0.002952387932812557 0.013371642631118228 0.9965683458845795 -0.032554881369385294 0.0005349488754890949 0.0065108417135251615 -0.0004656395425619105 -0.0041318766907099055
 0.9965683458845795 -0.032554881369385294 0.002953860226097791 0.013371514757503668 -0.00046572087662529436 -0.004131876419270468 0.0005251485855317374 0.006511958704184299
 0.0005349488754890949 0.0065108417135251615 -0.00046572087662529436 -0.004131876419270468 0.0029523730877397264 0.013370894837589324 0.9965683283777612 -0.032555634849512446
 -0.0004656395425619105 -0.0041318766907099055 0.0005251485855317374 0.006511958704184299 0.9965683283777612 -0.032555634849512446 0.002953843032705249 0.013370773348191709
0.06252605252188 0.0031898394336733584 0.01494163824855 0.9962548369880108 -0.036233809148751836 0.0006234592447845821 0.0072381098699441275 -0.0005402859604320086 -0.0045965858251404155
 0.9962548369880108 -0.036233809148751836 0.0031916563324352358 0.014941488362573413 -0.0005403860671255137 -0.004596584471579872 0.0006113542149692735 0.007239498403985647
 0.0006234592447845821 0.0072381098699441275 -0.0005403860671255137 -0.004596584471579872 0.003189821679386313 0.014940808736564287 0.9962548156159164 -0.0362346468758554
 -0.0005402859604320086 -0.0045965858251404155 0.0006113542149692735 0.007239498403985647 0.9962548156159164 -0.0362346468758554 0.0031916354082764417 0.014940666811104977
0.06877865777407 0.003440465617326858 0.0165268526110215 0.9959236524100399 -0.03992571389806861 0.0007192128589933853 0.007965907798593547 -0.000620952822707047 -0.00506205700371004
 0.9959236524100399 -0.03992571389806861 0.003442663278054326 0.016526678941849424 -0.0006210735991638618 -0.00506205427801098 0.0007045577675278424 0.007967607442234235
 0.0007192128589933853 0.007965907798593547 -0.0006210735991638618 -0.00506205427801098 0.003440444765197897 0.016525941801424037 0.995923626764514 -0.03992663608537732
 -0.000620952822707047 -0.00506205700371004 0.0007045577675278424 0.007967607442234235 0.995923626764514 -0.03992663608537732 0.003442638266844837 0.016525777880812897
0.07503126302626001 0.00370451283894141 0.018127044752215958 0.9955745547346625 -0.043630540481092585 0.0008222793069617521 0.008694150416831671 -0.0007077114169533803 -0.005528199650709136
 0.9955745547346625 -0.043630540481092585 0.003707127428745365 0.018126845473115476 -0.0007078547475970198 -0.005528195240946879 0.0008048282271017495 0.008696203585836296
 0.0008222793069617521 0.008694150416831671 -0.0007078547475970198 -0.005528195240946879 0.0037044887195680424 0.01812605310721985 0.9955745243984796 -0.04363154737025918
 -0.0007077114169533803 -0.005528199650709136 0.0008048282271017495 0.008696203585836296 0.9955745243984796 -0.04363154737025918 0.0037070979796907026 0.01812586558752616
0.08128386827845 0.003982226504598103 0.01974198538750228 0.9952073064714778 -0.04734821409313005 0.0009327271101056138 0.009422749574526148 -0.000800631837097708 -0.005994922139006449
 0.9952073064714778 -0.04734821409313005 0.003985294208383504 0.019741758615691867 -0.0008007995937235314 -0.005994915711295907 0.0009122335267821875 0.009425201568587609
 0.0009327271101056138 0.009422749574526148 -0.0008007995937235314 -0.005994915711295907 0.0039821989687413096 0.019740913417143204 0.9952072710171771 -0.04734930594788023
 -0.000800631837097708 -0.005994922139006449 0.0009122335267821875 0.009425201568587609 0.9952072710171771 -0.04734930594788023 0.003985259976762036 0.019740700649787134
0.08753647353064001 0.0042738510777890265 0.02137145324216141 0.9948216702224167 -0.0510786438792022 0.0010506236531857048 0.01015161429734215 -0.0008997829420195946 -0.006462131552155026
 0.9948216702224167 -0.0510786438792022 0.004277408105319551 0.02137119703852742 -0.0008999769837523768 -0.006462122750612556 0.0010268404834619133 0.010154513334333747
 0.0010506236531857048 0.01015161429734215 -0.0008999769837523768 -0.006462122750612556 0.004273819997611995 0.021370301495430774 0.9948216292122692 -0.05107982099423771
 -0.0008997829420195946 -0.006462131552155026 0.0010268404834619133 0.010154513334333747 0.9948216292122692 -0.05107982099423771 0.004277368754163997 0.021370061787058307
0.09378907878283 0.004579630064850474 0.02301523241976931 0.9944174088311502 -0.05482172551491963 0.0011760351189719395 0.010880650952065746 -0.0010052323095992007 -0.006929733527229692
 0.9944174088311502 -0.05482172551491963 0.004583712657677469 0.02301494478836326 -0.0010054544827796607 -0.006929721973935719 0.0011487147351954543 0.010884048202126944
 0.0011760351189719395 0.010880650952065746 -0.0010054544827796607 -0.006929721973935719 0.004579595334215625 0.023014001492105546 0.994417361815665 -0.05482298820830743
 -0.0010052323095992007 -0.006929733527229692 0.0011487147351954543 0.010884048202126944 0.994417361815665 -0.05482298820830743 0.004583667858706564 0.023013733104269393
0.100041684035 0.004899805982254823 0.024673110478170536 0.993994285516191 -0.05857734308267122 0.0013090264239089674 0.011609763377359486 -0.0011170461886409434 -0.007397632135144125
 0.993994285516191 -0.05857734308267122 0.004904450420970212 0.024672789365496838 -0.0011172983267890364 -0.007397617430104067 0.0012779206794858416 0.011613712996736157
 0.0013090264239089674 0.011609763377359486 -0.0011172983267890364 -0.007397617430104067 0.0048997675183047335 0.024671801007057653 0.9939942320335493 -0.05857869170029057
 -0.0011170461886409434 -0.007397632135144125 0.0012779206794858416 0.011613712996736157 0.9939942320335493 -0.05857869170029057 0.004904399855863203 0.02467150215574243
0.1059090909091 0.0052135660961437486 0.026241488490936535 0.9935798639669533 -0.06211288093015039 0.0014407750986087477 0.012293939175492092 -0.0012278179114955108 -0.00783688823714669
 0.9935798639669533 -0.06211288093015039 0.005218770805474641 0.02624113403995034 -0.0012280998246024526 -0.007836870191046418 0.0014058910702991654 0.012298459078934234
 0.0014407750986087477 0.012293939175492092 -0.0012280998246024526 -0.007836870191046418 0.005213524074303004 0.026240105935321185 0.9935798039833983 -0.06211431051472224
 -0.0012278179114955108 -0.00783688823714669 0.0014058910702991654 0.012298459078934234 0.9935798039833983 -0.06211431051472224 0.005218714549485289 0.02623977683349928
0.1062942892872 0.005234620312219355 0.026344876974238852 0.9935520639954613 -0.062345370482448974 0.0014496611551728209 0.012338852980596473 -0.001235289448707997 -0.007865729797754751
 0.9935520639954613 -0.062345370482448974 0.005239862923555938 0.026344520268345512 -0.0012355733723710717 -0.0078657115188707 0.0014145214123850748 0.012343412145266327
 0.0014496611551728209 0.012338852980596473 -0.0012355733723710717 -0.0078657115188707 0.005234578055397356 0.026343489643345895 0.9935520035701163 -0.062346805393602656
 -0.001235289448707997 -0.007865729797754751 0.0014145214123850748 0.012343412145266327 0.9935520035701163 -0.062346805393602656 0.005239806284695252 0.026343158498243157
0.11254689453939999 0.00558431344922465 0.028030322361063783 0.9930905086028817 -0.06612567249322615 0.0015980015085183155 0.013067818815868782 -0.0013600255282066552 -0.008333927226914119
 0.9930905086028817 -0.06612567249322615 0.0055901906130697695 0.02802992789043018 -0.001360343044815392 -0.008333904929960506 0.0015585786682885431 0.013073047754797092
 0.0015980015085183155 0.013067818815868782 -0.001360343044815392 -0.008333904929960506 0.005584267365010538 0.028028857894720927 0.9930904407455815 -0.06612719409612251
 -0.0013600255282066552 -0.008333927226914119 0.0015585786682885431 0.013073047754797092 0.9930904407455815 -0.06612719409612251 0.0055901276054178065 0.02802849257832415
0.11879949979160001 0.005949124638500524 0.029729237113440558 0.992609384401549 -0.0699181056098443 0.0017541082264552685 0.01379655764980355 -0.001491316381323922 -0.008802123378750821
 0.992609384401549 -0.0699181056098443 0.005955672795345643 0.029728802645609363 -0.0014916692850561496 -0.008802096597349826 0.0017101527598601806 0.013802519677921544
 0.0017541082264552685 0.01379655764980355 -0.0014916692850561496 -0.008802096597349826 0.005949074717686506 0.029727696283166672 0.9926093086073058 -0.06991971432485443
 -0.001491316381323922 -0.008802123378750821 0.0017101527598601806 0.013802519677921544 0.9926093086073058 -0.06991971432485443 0.005955603136962166 0.02972729486958012
0.1250521050438 0.006329291909497442 0.031441411051008596 0.9921084572919894 -0.07372251868561008 0.0019180405370802238 0.014524964013405936 -0.00162922242361331 -0.009270215425136837
 0.9921084572919894 -0.07372251868561008 0.006336547567754726 0.03144093429097893 -0.0016296124951965727 -0.009270183670745464 0.0018693025184553511 0.014531725564214988
 0.0019180405370802238 0.014524964013405936 -0.0016296124951965727 -0.009270183670745464 0.006329238169631301 0.03143979466890258 0.9921083730402103 -0.07372421496154805
 -0.00162922242361331 -0.009270215425136837 0.0018693025184553511 0.014531725564214988 0.9921083730402103 -0.07372421496154805 0.006336470991651498 0.03143935518244726
0.131304710296 0.006725052004285717 0.03316663278277222 0.9915874941187212 -0.07753875345718092 0.002089856092789766 0.01525293025181985 -0.0017738024770401124 -0.009738098730426793
 0.9915874941187212 -0.07753875345718092 0.006733051747452664 0.03316611137123241 -0.0017742314835841129 -0.00973806149232131 0.0020360852341652063 0.015260560909628585
 0.002089856092789766 0.01525293025181985 -0.0017742314835841129 -0.00973806149232131 0.006724994490267091 0.03316494170419157 0.9915874008716234 -0.07754053776843547
 -0.0017738024770401124 -0.009738098730426793 0.0020360852341652063 0.015260560909628585 0.9915874008716234 -0.07754053776843547 0.006732968002405356 0.03316446211778749
0.1375573155481 0.0070415505018520145 0.034679497298088904 0.991141381097518 -0.08114137687169456 0.002246928947422405 0.015957425850796486 -0.0019024973445525186 -0.010182711114540405
 0.991141381097518 -0.08114137687169456 0.007050333562056034 0.034678940064177835 -0.0019029676884064486 -0.010182668380566544 0.002188003402243793 0.015965909740196772
 0.002246928947422405 0.015957425850796486 -0.0019029676884064486 -0.010182668380566544 0.007041488290611437 0.034677732686976895 0.9911412784397148 -0.08114324951833918
 -0.0019024973445525186 -0.010182711114540405 0.002188003402243793 0.015965909740196772 0.9911412784397148 -0.08114324951833918 0.007050243155154738 0.03467722129304861
0.1438099208003 0.0073690364813869215 0.03618511069767997 0.9906798499771866 -0.08473559209572501 0.002410355603683218 0.016659462078947765 -0.0020363511815892454 -0.010625098729904275
 0.9906798499771866 -0.08473559209572501 0.007378639948769925 0.036184515945719 -0.0020368647249503304 -0.01062505000593825 0.002346047813421439 0.016668862325923312
 0.002410355603683218 0.016659462078947765 -0.0020368647249503304 -0.01062505000593825 0.0073689694826187795 0.03618327350357312 0.9906797373707917 -0.08473755354666927
 -0.0020363511815892454 -0.010625098729904275 0.002346047813421439 0.016668862325923312 0.9906797373707917 -0.08473755354666927 0.007378542789229365 0.03618272885352241
0.1500625260525 0.007707403969696112 0.037683368555268035 0.9902030101410342 -0.08832133153969336 0.00258008548839767 0.017358980094450936 -0.0021753153388515377 -0.011065206487907054
 0.9902030101410342 -0.08832133153969336 0.007717865021682717 0.03768273448166686 -0.002175873938644867 -0.011065151260265652 0.002510169042554762 0.01736936212287725
 0.00258008548839767 0.017358980094450936 -0.002175873938644867 -0.011065151260265652 0.007707332108350644 0.03768145976530548 0.9902028870339133 -0.08832338228406518
 -0.0021753153388515377 -0.011065206487907054 0.002510169042554762 0.01736936212287725 0.9902028870339133 -0.08832338228406518 0.007717761043339159 0.03768088030990711
0.15631513130469998 0.008056546352808142 0.03917416970656001 0.9897109714053378 -0.09189852743639641 0.0027560674931060942 0.018055921939680683 -0.002319340626373798 -0.011502980392170379
