! Created with skrf 1.8.0 (http://scikit-rf.org).
# GHz S RI R 50.0 
!freq ReS11 ImS11 ReS12 ImS12 ReS13 ImS13
! ReS14 ImS14
! ReS21 ImS21 ReS22 ImS22 ReS23 ImS23
! ReS24 ImS24
! ReS31 ImS31 ReS32 ImS32 ReS33 ImS33
! ReS34 ImS34
! ReS41 ImS41 ReS42 ImS42 ReS43 ImS43
! ReS44 ImS44
!
0.0 0.001345047905891 0.0 0.9986549520565 0.0 5.118373678651e-05 0.0 -5.118373688685e-05 6.268199954688117e-21
 0.9986549520565 0.0 0.001345047905888 0.0 -5.118373688638e-05 6.268199954630558e-21 5.118373678689e-05 0.0
 5.118373678651e-05 0.0 -5.118373688638e-05 6.268199954630558e-21 0.001345047924707 0.0 0.9986549520753 0.0
 -5.118373688685e-05 6.268199954688117e-21 5.118373678689e-05 0.0 0.9986549520753 0.0 0.001345047924729 0.0
0.005 0.0014465811697151195 0.0011075027465383242 0.9985266185610467 -0.00281778160683592 7.032732858890034e-05 0.0005230964201902956 -6.8655044528035e-05 -0.00033554738180728734
 0.9985266185610467 -0.00281778160683592 0.0014465720112226727 0.0011075081483263788 -6.865535071966595e-05 -0.000335547665084795 7.038164996396518e-05 0.0005230757777262372
 7.032732858890034e-05 0.0005230964201902956 -6.865535071966595e-05 -0.000335547665084795 0.0014465810855077144 0.0011075700952213488 0.9985266188980924 -0.0028177145440277437
 -6.8655044528035e-05 -0.00033554738180728734 7.038164996396518e-05 0.0005230757777262372 0.9985266188980924 -0.0028177145440277437 0.0014465727665401585 0.0011075749231703276
0.006252605252188 0.0014730610558499706 0.0013887246688231113 0.9984929690530902 -0.0035229366708732415 7.569410679845536e-05 0.0006541533381302329 -7.351281154812925e-05 -0.00041986696183857333
 0.9984929690530902 -0.0035229366708732415 0.0014730467390189305 0.0013887315263240883 -7.351328763790977e-05 -0.00041986731221262303 7.577898012184922e-05 0.0006541265457693398
 7.569410679845536e-05 0.0006541533381302329 -7.351328763790977e-05 -0.00041986731221262303 0.0014730608576244144 0.0013888088453058378 0.9984929695138085 -0.0035228528558125943
 -7.351281154812925e-05 -0.00041986696183857333 7.577898012184922e-05 0.0006541265457693398 0.9984929695138085 -0.0035228528558125943 0.0014730478538639979 0.0013888149751513348
0.01250521050438 0.001611587852201976 0.0028065127077403483 0.9983159255183576 -0.0070467823477920535 0.00010593163767318513 0.0013088490151332028 -0.00010067228657316732 -0.0008418212703092825
 0.9983159255183576 -0.0070467823477920535 0.0016115306779942052 0.0028065274913654523 -0.00010067415825324172 -0.000841821931057321 0.00010627012218461592 0.0013087848486982906
 0.00010593163767318513 0.0013088490151332028 -0.00010067415825324172 -0.000841821931057321 0.001611586480541263 0.0028066808684299315 0.9983159267853685 -0.007046614947560559
 -0.00010067228657316732 -0.0008418212703092825 0.00010627012218461592 0.0013087848486982906 0.9983159267853685 -0.007046614947560559 0.0016115345626453923 0.0028066940846885246
0.01875781575657 0.0017608990075679805 0.004244550013918319 0.998123623924159 -0.010580137829774279 0.00014196335663375939 0.0019644991921951745 -0.00013273829742595843 -0.001265330311981941
 0.998123623924159 -0.010580137829774279 0.001760770522553297 0.004244573887688989 -0.00013274246505954086 -0.001265331237687754 0.0001427237973546432 0.0019643852064932955
 0.00014196335663375939 0.0019644991921951745 -0.00013274246505954086 -0.001265331237687754 0.001760895488966182 0.004244802089016454 0.9981236263507879 -0.010579886946126112
 -0.00013273829742595843 -0.001265330311981941 0.0001427237973546432 0.0019643852064932955 0.9981236263507879 -0.010579886946126112 0.0017607788412026377 0.004244823417735409
0.02501042100875 0.0019212588982335502 0.005700871924711486 0.9979158597774078 -0.014124747434790115 0.00018385669497553248 0.0026211409443603903 -0.00016978521724582814 -0.0016902328967022672
 0.9979158597774078 -0.014124747434790115 0.0019210307004707372 0.005700906137958793 -0.0001697925684924443 -0.0016902340354813545 0.00018520755515921244 0.0026209629044389436
 0.00018385669497553248 0.0026211409443603903 -0.0001697925684924443 -0.0016902340354813545 0.0019212522510318121 0.00570120789633138 0.9979158637156684 -0.014124413111377555
 -0.00016978521724582814 -0.0016902328967022672 0.00018520755515921244 0.0026209629044389436 0.9979158637156684 -0.014124413111377555 0.0019210451186330354 0.005701238423715191
0.03126302626094 0.002092920838349543 0.007174484183485134 0.997692417059859 -0.01768137799672377 0.00023167948035217981 0.0032787565998748233 -0.00021188575406702717 -0.0021164189608910253
 0.997692417059859 -0.01768137799672377 0.0020925645632990826 0.007174530069043212 -0.00021189716599250762 -0.002116420254295581 0.00023378950437140711 0.003278498470964075
 0.00023167948035217981 0.0032787565998748233 -0.00021189716599250762 -0.002116420254295581 0.00209291006987991 0.007174904038624891 0.9976924228591555 -0.017680960266132063
 -0.00021188575406702717 -0.0021164189608910253 0.00023378950437140711 0.003278498470964075 0.9976924228591555 -0.017680960266132063 0.0020925867463135925 0.007174944908904913
0.037515631513130004 0.002276132874371028 0.008664751221142289 0.9974530741563482 -0.02125043052903254 0.0002854994200476761 0.003937307008874712 -0.000259111425587107 -0.002543796295315199
 0.9974530741563482 -0.02125043052903254 0.0022756201858949317 0.008664810194477252 -0.000259127765896605 -0.002543797678319653 0.0002885377101313463 0.003936950937718047
 0.0002854994200476761 0.003937307008874712 -0.000259127765896605 -0.002543797678319653 0.002276116985855826 0.008665254963775508 0.9974530821680051 -0.02124992940058477
 -0.000259111425587107 -0.002543796295315199 0.0002885377101313463 0.003936950937718047 0.9974530821680051 -0.02124992940058477 0.0022756518032958873 0.008665307378135624
0.043768236765320004 0.002471140029273494 0.01017121000797566 0.9971976062306959 -0.024832126311289126 0.00034538385665122435 0.004596741660813519 -0.00031153273558249037 -0.002972280419503257
 0.9971976062306959 -0.024832126311289126 0.002470442613201137 0.010171283566720877 -0.0003115548633101247 -0.00297228182053161 0.000349519913120233 0.0045962679543719
 0.00034538385665122435 0.004596741660813519 -0.0003115548633101247 -0.00297228182053161 0.0024711180144321157 0.010171797644304776 0.99719761680759 -0.024831541785931256
 -0.00031153273558249037 -0.002972280419503257 0.000349519913120233 0.0045962679543719 0.99719761680759 -0.024831541785931256 0.0024704853374579415 0.010171862859944852
0.050020842017509996 0.002678185353197067 0.011693493129242456 0.996925786410041 -0.02842658375008284 0.00041139962246463155 0.005257002846126792 -0.0003692192415527375 -0.0034017904115361767
 0.996925786410041 -0.02842658375008284 0.0026772749116242187 0.011693582852963893 -0.00036924800757917044 -0.0034017917524844093 0.0004168033647199411 0.005256389949072823
 0.00041139962246463155 0.005257002846126792 -0.00036924800757917044 -0.0034017917524844093 0.002678156197184425 0.01169416466709298 0.9969257999056551 -0.028425915820973473
 -0.0003692192415527375 -0.0034017904115361767 0.0004168033647199411 0.005256389949072823 0.9969257999056551 -0.028425915820973473 0.0026773304167342837 0.011694243996660025
0.055454545454549996 0.0028680781681656073 0.013029013124034585 0.9966761097856237 -0.03156068277083847 0.00047380015721023194 0.00583141236347866 -0.0004236798728772305 -0.003775819035311589
 0.9966761097856237 -0.03156068277083847 0.0028669596286053766 0.01302911824192625 -0.00042371509270994206 -0.0037758202555778267 0.0004804438846449941 0.00583065953632938
 0.00047380015721023194 0.00583141236347866 -0.00042371509270994206 -0.0037758202555778267 0.002868041976348719 0.013029757584087323 0.996676126106158 -0.03155994234811573
 -0.0004236798728772305 -0.003775819035311589 0.0004804438846449941 0.00583065953632938 0.996676126106158 -0.03155994234811573 0.0028670276023506293 0.013029850287731215
0.056273447269699996 0.0028975104719518984 0.013231291016157009 0.9966373864692483 -0.03203385608434139 0.0004836129353339564 0.005918027714699854 -0.0004322395759261683 -0.0038322468418365667
 0.9966373864692483 -0.03203385608434139 0.002896358718359965 0.013231398566228467 -0.0004322758232930247 -0.003832248038113899 0.0004904547110473403 0.0059172521863780575
 0.0004836129353339564 0.005918027714699854 -0.0004322758232930247 -0.003832248038113899 0.0028974731525449383 0.013232046467800256 0.9966374032389095 -0.03203310473405102
 -0.0004322395759261683 -0.0038322468418365667 0.0004904547110473403 0.0059172521863780575 0.9966374032389095 -0.03203310473405102 0.0028964286811375708 0.013232141278806562
0.06252605252188 0.0031293558919349854 0.014784331183792588 0.9963321772732138 -0.03565395208456354 0.0005620893170522818 0.006579749389629547 -0.0005006614411748599 -0.004263570653090872
 0.9963321772732138 -0.03565395208456354 0.00312793454680061 0.014784458303400921 -0.0005007060054293281 -0.00426357161364064 0.0005705399038027446 0.006578785880712485
 0.0005620893170522818 0.006579749389629547 -0.0005007060054293281 -0.00426357161364064 0.003129309378475502 0.014785170563878607 0.9963321976735994 -0.035653117287213786
 -0.0005006614411748599 -0.004263570653090872 0.0005705399038027446 0.006578785880712485 0.9963321976735994 -0.035653117287213786 0.0031280206448428593 0.014785282278419753
0.06877865777407 0.003373961170085735 0.01635236585821004 0.9960099290878642 -0.03928684836426318 0.0006468935234399384 0.00724209763741242 -0.0005745515909954184 -0.004695682485448643
 0.9960099290878642 -0.03928684836426318 0.0033722419562197082 0.016352514372577627 -0.000574605300334769 -0.0046956831127962576 0.0006571241249799002 0.007240918866428948
 0.0006468935234399384 0.00724209763741242 -0.000574605300334769 -0.0046956831127962576 0.003373904424218016 0.016353289182577717 0.9960099534778982 -0.03928593008682235
 -0.0005745515909954184 -0.004695682485448643 0.0006571241249799002 0.007240918866428948 0.9960099534778982 -0.03928593008682235 0.0033723458689519487 0.016353419276998727
0.07503126302626001 0.0036315650074604114 0.017935164116482577 0.9956704118164782 -0.042932497180463595 0.0007380894804425296 0.007904999291101018 -0.0006539758033400774 -0.005128502250718136
 0.9956704118164782 -0.042932497180463595 0.0036295196463174053 0.01793533593303892 -0.0006540394788229048 -0.005128502440998208 0.0007502717191123083 0.007903576020903929
 0.0007380894804425296 0.007904999291101018 -0.0006540394788229048 -0.005128502440998208 0.003631496982245913 0.017936171406032028 0.9956704405569222 -0.042931495378882675
 -0.0006539758033400774 -0.005128502250718136 0.0007502717191123083 0.007903576020903929 0.9956704405569222 -0.042931495378882675 0.0036296430533574067 0.01793632141082968
0.08128386827845 0.003902405292025339 0.019532506674306192 0.9953133951883624 -0.04659083158862195 0.0008357402252490182 0.008568378529726708 -0.0007389988469903335 -0.005561948852353694
 0.9953133951883624 -0.04659083158862195 0.0039000054993368763 0.019532703783062145 -0.0007390733026537648 -0.005561948495345532 0.0008500461312004909 0.008566679543983113
 0.0008357402252490182 0.008568378529726708 -0.0007390733026537648 -0.005561948495345532 0.0039023249331372888 0.019533597949066502 0.9953134286430154 -0.04658974621383974
 -0.0007389988469903335 -0.005561948852353694 0.0008500461312004909 0.008566679543983113 0.9953134286430154 -0.04658974621383974 0.003900150081538379 0.019533769448825154
0.08753647353064001 0.004186719110686717 0.02114418226297645 0.9949386489184774 -0.05026176901044229 0.0009399078495968587 0.009232157075023865 -0.0008296844443065083 -0.0059959399903496795
 0.9949386489184774 -0.05026176901044229 0.004183936592533096 0.021144406737032533 -0.0008297704873365185 -0.005995938969505165 0.0009565098476182702 0.009230149154782305
 0.0009399078495968587 0.009232157075023865 -0.0008297704873365185 -0.005995938969505165 0.004186625355327331 0.021145357543350455 0.9949386874535232 -0.05026060000726688
 -0.0008296844443065083 -0.0059959399903496795 0.0009565098476182702 0.009230149154782305 0.9949386874535232 -0.05026060000726688 0.004184104030032563 0.021145552176885518
0.09378907878283 0.004484742737628502 0.022769985044896763 0.9945459428466265 -0.05394521376581519 0.0010506534446331696 0.009896254332488304 -0.0009260952312198187 -0.006430392024096501
 0.9945459428466265 -0.05394521376581519 0.004481549186459142 0.022770239041029476 -0.0009261936619917025 -0.006430390216584164 0.0010697243389641649 0.009893902232839077
 0.0010506534446331696 0.009896254332488304 -0.0009261936619917025 -0.006430390216584164 0.004484634514591759 0.02277124435696654 0.9945459868311248 -0.05394396106765938
 -0.0009260952312198187 -0.006430392024096501 0.0010697243389641649 0.009893902232839077 0.9945459868311248 -0.05394396106765938 0.004481741158826165 0.022771463817461292
0.100041684035 0.004796711606743507 0.024409712720080162 0.9941350470631306 -0.05764105891629976 0.00116803704719304 0.010560587493162597 -0.001028292714468935 -0.006865219876919259
 0.9941350470631306 -0.05764105891629976 0.0047930786974252244 0.02440999847940114 -0.0010284043266740196 -0.006865217153643582 0.0011897500046820404 0.010557853920035028
 0.00116803704719304 0.010560587493162597 -0.0010284043266740196 -0.006865217153643582 0.004796587837013887 0.0244110560909741 0.9941350968695271 -0.057639722449936426
 -0.001028292714468935 -0.006865219876919259 0.0011897500046820404 0.010557853920035028 0.9941350968695271 -0.057639722449936426 0.0047932968835101295 0.024411302126376547
0.1059090909091 0.0051023532979094545 0.02596090941647018 0.9937327171296387 -0.06112039168538475 0.0012842788109179162 0.011184132618946852 -0.001129510909858573 -0.0072735243902420435
 0.9937327171296387 -0.06112039168538475 0.00509828231713537 0.025961227096375918 -0.0011296356074200682 -0.007273520684665789 0.0013086288645395626 0.011181005309263777
 0.0012842788109179162 0.011184132618946852 -0.0011296356074200682 -0.007273520684665789 0.005102213950791426 0.0259623316916071 0.9937327727413561 -0.061118976540673234
 -0.001129510909858573 -0.0072735243902420435 0.0013086288645395626 0.011181005309263777 0.9937327727413561 -0.061118976540673234 0.0050985266275043245 0.02596260430364213
0.1062942892872 0.005122860272997373 0.02606316509978389 0.9937057320250393 -0.06134918764424225 0.001292117586450977 0.011225071616697918 -0.0011363372275254838 -0.007300336961771217
 0.9937057320250393 -0.06134918764424225 0.005118759658832383 0.026063484948663417 -0.0011364628082478783 -0.007300333187414773 0.001316646118062808 0.011221917203821909
 0.001292117586450977 0.011225071616697918 -0.0011364628082478783 -0.007300333187414773 0.005122719869468486 0.02606459255569439 0.9937057880295512 -0.061347767331897285
 -0.0011363372275254838 -0.007300336961771217 0.001316646118062808 0.011221917203821909 0.9937057880295512 -0.061347767331897285 0.005119005735952021 0.02606486696915191
0.11254689453939999 0.005463422364478262 0.02773014300912059 0.9932577686665822 -0.06506947430597869 0.0014229528309797352 0.011889619692623116 -0.0012502878848871712 -0.007735655131308009
 0.9932577686665822 -0.06506947430597869 0.005458825673295826 0.02773049936006548 -0.0012504282146666996 -0.007735650164351969 0.001450470772212287 0.011886002978705226
 0.0014229528309797352 0.011889619692623116 -0.0012504282146666996 -0.007735650164351969 0.005463264231620173 0.027731654580531107 0.9932578312488164 -0.06506797006019038
 -0.0012502878848871712 -0.007735655131308009 0.001450470772212287 0.011886002978705226 0.9932578312488164 -0.06506797006019038 0.005459101316472063 0.027731959230986092
0.11879949979160001 0.005818630526653761 0.02941044743575637 0.9927909285034227 -0.06880178524184277 0.0015605993361368438 0.012554142693682822 -0.0013702025352977753 -0.008171084638487147
 0.9927909285034227 -0.06880178524184277 0.005813509356558651 0.02941084278853913 -0.0013703583881868524 -0.00817107833125183 0.0015912808260369294 0.012550020099714964
 0.0015605993361368438 0.012554142693682822 -0.0013703583881868524 -0.00817107833125183 0.005818453560787628 0.029412043154372083 0.9927909980471123 -0.06880019696871259
 -0.0013702025352977753 -0.008171084638487147 0.0015912808260369294 0.012550020099714964 0.9927909980471123 -0.06880019696871259 0.005813816238383654 0.02941237995724639
0.1250521050438 0.006188716361871543 0.031103878854034542 0.9923049837340787 -0.07254597941390223 0.0017051123914255284 0.01321854961875762 -0.001496137713979544 -0.008606534110230579
 0.9923049837340787 -0.07254597941390223 0.006183042277322228 0.03110431579689589 -0.0014963098575923113 -0.008606526308901182 0.001739131850638535 0.013213875425662373
 0.0017051123914255284 0.01321854961875762 -0.0014963098575923113 -0.008606526308901182 0.006188519450880764 0.0311055587536212 0.992305060627254 -0.07254430701231362
 -0.001496137713979544 -0.008606534110230579 0.001739131850638535 0.013213875425662373 0.992305060627254 -0.07254430701231362 0.006183382067181873 0.031105929681746664
0.131304710296 0.006573910363837295 0.03281023668275447 0.9917997073399342 -0.0763019089134423 0.0018565459680935244 0.013882747530952392 -0.001628148593857473 -0.009041910528784251
 0.9917997073399342 -0.0763019089134423 0.006567654891682879 0.03281071789373829 -0.0016283377894404727 -0.00904190107343703 0.0018940780759488685 0.013877473857371488
 0.0018565459680935244 0.013882747530952392 -0.0016283377894404727 -0.00904190107343703 0.006573692387392822 0.0328120007986382 0.991799791975091 -0.07630015227577934
 -0.001628148593857473 -0.009041910528784251 0.0018940780759488685 0.013877473857371488 0.991799791975091 -0.07630015227577934 0.00656802925526126 0.03281240788318797
0.1375573155481 0.0068812266115182204 0.03430824038192196 0.9913681174589168 -0.07984825888008171 0.0019942008418850545 0.01452452031898978 -0.0017454943061988224 -0.009455037269361945
 0.9913681174589168 -0.07984825888008171 0.006874360059693317 0.034308758956601015 -0.0017457018190586335 -0.009455026170802634 0.0020353319188980224 0.014518658529609034
 0.0019942008418850545 0.01452452031898978 -0.0017457018190586335 -0.009455026170802634 0.00688098725156905 0.03431008850177753 0.991368210186862 -0.07984641796245567
 -0.0017454943061988224 -0.009455037269361945 0.0020353319188980224 0.014518658529609034 0.991368210186862 -0.07984641796245567 0.006874769936303058 0.034310524797421985
0.1438099208003 0.007199209293554758 0.03579923551792226 0.9909216500412625 -0.08338647805013259 0.002137397597000718 0.015164133682650764 -0.001867531778308705 -0.009866147961563263
 0.9909216500412625 -0.08338647805013259 0.007191702970186628 0.03579979353760427 -0.0018677584512971801 -0.00986613506130272 0.002182286694512744 0.015157640358086814
 0.002137397597000718 0.015164133682650764 -0.0018677584512971801 -0.00986613506130272 0.007198947563818219 0.0358011676463032 0.9909217512522798 -0.08338455274990514
 -0.001867531778308705 -0.009866147961563263 0.002182286694512744 0.015157640358086814 0.9909217512522798 -0.08338455274990514 0.007192149888967933 0.03580163463464457
0.1500625260525 0.00752775783787724 0.03728312284893229 0.9904604089533136 -0.08691650397605143 0.0022860921842716344 0.01580153761028809 -0.0019942176414591206 -0.010275193794953827
 0.9904604089533136 -0.08691650397605143 0.007519583011397255 0.03728372250386973 -0.00199446431728731 -0.010275178927983809 0.002334897571994423 0.015794367749451303
 0.0022860921842716344 0.01580153761028809 -0.00199446431728731 -0.010275178927983809 0.007527472753693969 0.03728513898932261 0.9904605190415533 -0.08691449418695761
 -0.0019942176414591206 -0.010275193794953827 0.002334897571994423 0.015794367749451303 0.9904605190415533 -0.08691449418695761 0.007520068489495169 0.037285638238965246
0.15631513130469998 0.007866771095591541 0.03875980624797154 0.9899844984383348 -0.09043827394661079 0.0024402401074390435 0.016436682849994735 -0.0021255080622055536 -0.010682126907985803
