! Created with skrf 1.8.0 (http://scikit-rf.org).
# GHz S RI R 50.0 
!freq ReS11 ImS11 ReS12 ImS12 ReS13 ImS13
! ReS14 ImS14
! ReS21 ImS21 ReS22 ImS22 ReS23 ImS23
! ReS24 ImS24
! ReS31 ImS31 ReS32 ImS32 ReS33 ImS33
! ReS34 ImS34
! ReS41 ImS41 ReS42 ImS42 ReS43 ImS43
! ReS44 ImS44
!
0.0 0.001620936529419 0.0 0.9983790634705 0.0 6.267857233032e-05 0.0 -6.267857073217e-05 7.675911102228297e-21
 0.9983790634705 0.0 0.001620936529409 0.0 -6.267857073229e-05 7.675911102242993e-21 6.267857233167e-05 0.0
 6.267857233032e-05 0.0 -6.267857073229e-05 7.675911102242993e-21 0.001620936510948 0.0 0.998379063452 0.0
 -6.267857073217e-05 7.675911102228297e-21 6.267857233167e-05 0.0 0.998379063452 0.0 0.001620936510925 0.0
0.005 0.00174424495263569 0.001325330898851367 0.9982230383769346 -0.0033952323569803383 8.795331889565415e-05 0.0006935399879295456 -8.54520369073592e-05 -0.00043475579024135965
 0.9982230383769346 -0.0033952323569803383 0.0017442303471992614 0.001325339501944154 -8.545031804949722e-05 -0.00043475456714847703 8.804246657213291e-05 0.0006935059763149403
 8.795331889565415e-05 0.0006935399879295456 -8.545031804949722e-05 -0.00043475456714847703 0.0017442457113394242 0.0013253977888175357 0.9982230387456343 -0.0033951652935623523
 -8.54520369073592e-05 -0.00043475579024135965 8.804246657213291e-05 0.0006935059763149403 0.9982230387456343 -0.0033951652935623523 0.0017442303167133392 0.0013254067297506535
0.006252605252188 0.0017766577016478597 0.0016618695710047926 0.9981817606021616 -0.004244859768794438 9.519154478373733e-05 0.000867256407424999 -9.191311002772844e-05 -0.0005440031800112658
 0.9981817606021616 -0.004244859768794438 0.0017766348703013117 0.0016618805249421502 -9.191043456910589e-05 -0.0005440016742168241 9.5330828589762e-05 0.000867212243123835
 9.519154478373733e-05 0.000867256407424999 -9.191043456910589e-05 -0.0005440016742168241 0.0017766588102512545 0.0016619531783031976 0.9981817611019144 -0.004244775948133738
 -9.191311002772844e-05 -0.0005440031800112658 9.5330828589762e-05 0.000867212243123835 0.9981817611019144 -0.004244775948133738 0.0017766347463495072 0.0016619645389344578
0.01250521050438 0.0019477080135639653 0.0033584635333201635 0.9979624637941167 -0.00849044582610098 0.0001367939716391521 0.0017348449504927836 -0.00012874005846144415 -0.0010905993078435187
 0.9979624637941167 -0.00849044582610098 0.0019476168389971837 0.003358487463366426 -0.00012872950538564862 -0.0010905965514648767 0.00013734937434331667 0.0017347387589628927
 0.0001367939716391521 0.0017348449504927836 -0.00012872950538564862 -0.0010905965514648767 0.0019477118587475026 0.0033586305294826904 0.9979624652210645 -0.008490278407392634
 -0.00012874005846144415 -0.0010905993078435187 0.00013734937434331667 0.0017347387589628927 0.9979624652210645 -0.008490278407392634 0.0019476157807942315 0.0033586551197207636
0.01875781575657 0.002134475868560357 0.005079093737579009 0.9977208897093859 -0.012747074213678366 0.00018758582885654434 0.002603339842884031 -0.00017327585426849942 -0.0016389864890485083
 0.9977208897093859 -0.012747074213678366 0.0021342709773935404 0.005079132814831169 -0.0001732523076988257 -0.0016389827925268553 0.00018883340887993725 0.0026031501210456126
 0.00018758582885654434 0.002603339842884031 -0.0001732523076988257 -0.0016389827925268553 0.002134484060792052 0.005079343986656916 0.9977208924964409 -0.012746823260915655
 -0.00017327585426849942 -0.0016389864890485083 0.00018883340887993725 0.0026031501210456126 0.9977208924964409 -0.012746823260915655 0.0021342681880994023 0.005079383831598087
0.02501042100875 0.002337337337683583 0.00682133225767434 0.9974567434088715 -0.017016788446983625 0.0002476677979720348 0.003472767482142685 -0.00022563285583666206 -0.0021889038506342482
 0.9974567434088715 -0.017016788446983625 0.0023369734383234283 0.006821388787980771 -0.00022559125712311187 -0.002188899584513899 0.00024988366351840613 0.003472469209390349
 0.0002476677979720348 0.003472767482142685 -0.00022559125712311187 -0.002188899584513899 0.002337351467344409 0.006821665618468544 0.9974567479902599 -0.01701645395407455
 -0.00022563285583666206 -0.0021889038506342482 0.00024988366351840613 0.003472469209390349 0.9974567479902599 -0.01701645395407455 0.002336968125997014 0.00682172288312336
0.03126302626094 0.0025566529578489967 0.008583919751996927 0.9971697154762672 -0.02130045112093753 0.00031714065378548554 0.004343073701058604 -0.00028592003911613123 -0.002740164390937571
 0.9971697154762672 -0.02130045112093753 0.0025560848160088765 0.008583996173575172 -0.0002858553772440369 -0.0027401599865489613 0.00032060121249901605 0.00434263832006422
 0.00031714065378548554 0.004343073701058604 -0.0002858553772440369 -0.0027401599865489613 0.00255667459826429 0.008584336035989949 0.9971697222913917 -0.021300033053770075
 -0.00028592003911613123 -0.002740164390937571 0.00032060121249901605 0.00434263832006422 0.9971697222913917 -0.021300033053770075 0.0025560761941829857 0.008584413022419283
0.037515631513130004 0.0027927753057759006 0.010366027585795775 0.9968594898722329 -0.025598481725107577 0.00039610436210777 0.005214172311957131 -0.0003542437772944212 -0.003292606456276512
 0.9968594898722329 -0.025598481725107577 0.002791957728632909 0.010366126467935553 -0.00035415108413060817 -0.00329260240597073 0.00040108642855535856 0.0052135676948544965
 0.00039610436210777 0.005214172311957131 -0.00035415108413060817 -0.00329260240597073 0.0027928060092867572 0.010366526567223157 0.9968594993624641 -0.02559798001118687
 -0.0003542437772944212 -0.003292606456276512 0.00040108642855535856 0.0052135676948544965 0.9968594993624641 -0.02559798001118687 0.0027919450107243096 0.010366625713236401
0.043768236765320004 0.0030460519171874693 0.012167033323174542 0.9965257471303809 -0.029911081079367595 0.0004846576466592764 0.006085959875834744 -0.0004307081106751092 -0.003846078986361825
 0.9965257471303809 -0.029911081079367595 0.003044939740219342 0.012167157365897031 -0.0004305824582546956 -0.0038460758436604163 0.0004914384884989989 0.006085150285912194
 0.0004846576466592764 0.006085959875834744 -0.0004305824582546956 -0.0038460758436604163 0.0030460932190301514 0.01216761472979158 0.996525759744546 -0.029910495616853543
 -0.0004307081106751092 -0.003846078986361825 0.0004914384884989989 0.006085150285912194 0.996525759744546 -0.029910495616853543 0.003044922142165451 0.012167738608422251
0.050020842017509996 0.0033168266380565956 0.013986427909294318 0.9961681659897362 -0.03423832407844016 0.0005828977195082379 0.006958321805774915 -0.0005154148368491091 -0.004400435426491281
 0.9961681659897362 -0.03423832407844016 0.00331537471390923 0.013986579943230376 -0.0005152513357432938 -0.004400433806170697 0.0005917550715079277 0.006957267857476737
 0.0005828977195082379 0.006958321805774915 -0.0005152513357432938 -0.004400433806170697 0.00331688005275516 0.013987091418697847 0.9961681821814816 -0.03423765473963357
 -0.0005154148368491091 -0.004400435426491281 0.0005917550715079277 0.006957267857476737 0.9961681821814816 -0.03423765473963357 0.0033153514492799243 0.013987242738168284
0.055454545454549996 0.003566613463518979 0.015582127067933245 0.995837807307508 -0.03801071898345089 0.0006762123946147735 0.007716802062395 -0.0005957987630889528 -0.004882793169137934
 0.995837807307508 -0.03801071898345089 0.0035648296291584457 0.015582305827577516 -0.0005955984286912374 -0.004882793418711716 0.000687100209833425 0.007715500908910221
 0.0006762123946147735 0.007716802062395 -0.0005955984286912374 -0.004882793418711716 0.0035666786202758834 0.015582861627449844 0.9958378269838116 -0.0380099766285395
 -0.0005957987630889528 -0.004882793169137934 0.000687100209833425 0.007715500908910221 0.9958378269838116 -0.0380099766285395 0.0035648008006513355 0.01558303909846464
0.056273447269699996 0.0036054403089670756 0.015823770139042622 0.9957864243628485 -0.038580205151948814 0.000690920084035794 0.007831135368589686 -0.00060846352045274 -0.004955530744979209
 0.9957864243628485 -0.038580205151948814 0.0036036034971211805 0.015823953125746307 -0.0006082573187702395 -0.004955531323136356 0.0007021321419515181 0.007829793986856987
 0.000690920084035794 0.007831135368589686 -0.0006082573187702395 -0.004955531323136356 0.0036055073325219748 0.015824515379259833 0.9957864445948855 -0.03857945178244916
 -0.00060846352045274 -0.004955530744979209 0.0007021321419515181 0.007829793986856987 0.9957864445948855 -0.03857945178244916 0.003603573778455593 0.015824696983283374
0.06252605252188 0.003912231126361232 0.017678661607712014 0.9953801999861053 -0.042936663246461455 0.0008088183739608407 0.008704271330628774 -0.0007099514611611038 -0.005511219810967085
 0.9953801999861053 -0.042936663246461455 0.003909964283360098 0.017678878640309988 -0.0007096977439524593 -0.005511223325075703 0.0008226637758379172 0.008702595710080929
 0.0008088183739608407 0.008704271330628774 -0.0007096977439524593 -0.005511223325075703 0.0039123132339394006 0.017679488156971963 0.9953802247289301 -0.04293582566522046
 -0.0007099514611611038 -0.005511219810967085 0.0008226637758379172 0.008702595710080929 0.9953802247289301 -0.04293582566522046 0.003909927318889439 0.017679703025474173
0.06877865777407 0.004237534822021996 0.019550731791682714 0.994949170891535 -0.04730759668251275 0.0009366842118410059 0.009577594955035906 -0.0008199736388470173 -0.006067356425915194
 0.994949170891535 -0.04730759668251275 0.004234792792018398 0.019550986095833653 -0.0008196676278221075 -0.006067363674847091 0.0009534420097405615 0.009575534519348727
 0.0009366842118410059 0.009577594955035906 -0.0008196676278221075 -0.006067363674847091 0.004237633467999298 0.01955163917809089 0.9949492006250414 -0.04730667468201173
 -0.0008199736388470173 -0.006067356425915194 0.0009534420097405615 0.009575534519348727 0.9949492006250414 -0.04730667468201173 0.00423474778464174 0.019551890428263507
0.07503126302626001 0.004581684738455312 0.02143962858825028 0.9944930157793503 -0.051692872558205885 0.0010746070792814096 0.010450966637192749 -0.0009386226440389099 -0.0066237927224607335
 0.9944930157793503 -0.051692872558205885 0.004578422343910108 0.021439923523478045 -0.0009382595974403281 -0.006623804566525694 0.0010945567040180413 0.010448466998833688
 0.0010746070792814096 0.010450966637192749 -0.0009382595974403281 -0.006623804566525694 0.004581801355361339 0.021440616288360324 0.9944930509938819 -0.05169186590576767
 -0.0009386226440389099 -0.0066237927224607335 0.0010945567040180413 0.010448466998833688 0.9944930509938819 -0.05169186590576767 0.004578368489570384 0.02144090717611985
0.08128386827845 0.004945011837771332 0.023345012018468423 0.9940114143281383 -0.05609233299608107 0.0012226741946607873 0.011324242331461037 -0.001065988598399091 -0.007180378777843712
 0.9940114143281383 -0.05609233299608107 0.004941183870139147 0.023345351079799438 -0.001065563811057024 -0.007180396138790664 0.001246095415261511 0.011321245251932958
 0.0012226741946607873 0.011324242331461037 -0.001065563811057024 -0.007180396138790664 0.004945147835739545 0.0233460794571548 0.9940114555251833 -0.05609124143392903
 -0.001065988598399091 -0.007180378777843712 0.001246095415261511 0.011321245251932958 0.9940114555251833 -0.05609124143392903 0.004941120356331949 0.023346413378904647
0.08753647353064001 0.005327844665111731 0.025266549884862204 0.9935040474633532 -0.06050579944182469 0.0013809703951338397 0.012197273861672114 -0.0012021590692163422 -0.007736962349685991
 0.9935040474633532 -0.06050579944182469 0.005323405876089491 0.025266936704838983 -0.0012016678727669909 -0.0077369862107006205 0.0014081432735572202 0.012193717212334206
 0.0013809703951338397 0.012197273861672114 -0.0012016678727669909 -0.0077369862107006205 0.005328001431083441 0.025267696435925975 0.9935040951566878 -0.060504622686433654
 -0.0012021590692163422 -0.007736962349685991 0.0014081432735572202 0.012193717212334206 0.9935040951566878 -0.060504622686433654 0.005323331879966026 0.02526807693072363
0.09378907878283 0.005730509282427705 0.027203914664052257 0.9929705976000551 -0.0649330757348941 0.001549578021827623 0.013069909146932755 -0.001347218979050122 -0.008293388702724091
 0.9929705976000551 -0.0649330757348941 0.005725414374242257 0.027204353015152945 -0.001346656742122726 -0.008293420108422432 0.0015807828639852815 0.013065726870587584
 0.001549578021827623 0.013069909146932755 -0.001346656742122726 -0.008293420108422432 0.005730688179531326 0.02720513964919692 0.99297065231699 -0.06493181347809412
 -0.001347218979050122 -0.008293388702724091 0.0015807828639852815 0.013065726870587584 0.99297065231699 -0.06493181347809412 0.005725329061763689 0.02720557040129669
0.100041684035 0.006153329179746857 0.029156781236368508 0.9924107488675306 -0.06937395034982774 0.0017285768073154273 0.01394199237725357 -0.0015012505115134269 -0.008849500492190944
 0.9924107488675306 -0.06937395034982774 0.00614753279662921 0.02915727503366171 -0.0015006126401478494 -0.008849540548583402 0.0017640941111291423 0.013937114450459673
 0.0017285768073154273 0.01394199237725357 -0.0015006126401478494 -0.008849540548583402 0.006153531546471901 0.029158083925731364 0.9924108111495563 -0.06937260225822063
 -0.0015012505115134269 -0.008849500492190944 0.0017640941111291423 0.013937114450459673 0.9924108111495563 -0.06937260225822063 0.006147435320295388 0.02915856876755611
0.1059090909091 0.006568717627809035 0.031003149103166126 0.9918611010451184 -0.07355340724793129 0.0019060674650989316 0.014759705966920925 -0.0016540230810894404 -0.009370923809066914
 0.9918611010451184 -0.07355340724793129 0.006562221674183932 0.031003698621378344 -0.0016533100902697178 -0.00937097304378282 0.0019458867890457107 0.014754107994968636
 0.0019060674650989316 0.014759705966920925 -0.0016533100902697178 -0.00937097304378282 0.0065689432127115956 0.031004523999009465 0.9918611709325451 -0.07355197828495987
 -0.0016540230810894404 -0.009370923809066914 0.0019458867890457107 0.014754107994968636 0.9918611709325451 -0.07355197828495987 0.0065621119995621525 0.031005063218712454
0.1062942892872 0.006596625170399597 0.031124825180859836 0.9918241873200375 -0.07382819807941753 0.0019180437641551575 0.014813364160748932 -0.0016643330155107008 -0.009405137682296586
 0.9918241873200375 -0.07382819807941753 0.006590081888958361 0.031125378485227978 -0.0016636149534881887 -0.009405187556750055 0.0019581541642875767 0.014807716557017786
 0.0019180437641551575 0.014813364160748932 -0.0016636149534881887 -0.009405187556750055 0.006596852319537334 0.03112620479228198 0.9918242577242735 -0.07382676379536249
 -0.0016643330155107008 -0.009405137682296586 0.0019581541642875767 0.014807716557017786 0.9918242577242735 -0.07382676379536249 0.0065899713867162224 0.031126747707691037
0.11254689453939999 0.007060715273268318 0.03310772147970578 0.9912106011396252 -0.07829558131647008 0.0021180530752198026 0.015683861639775417 -0.0018365429063325884 -0.009960137502502414
 0.9912106011396252 -0.07829558131647008 0.0070533795936822 0.03310833850128098 -0.0018357401356930904 -0.009960198423676679 0.002163037285523565 0.015677366293650442
 0.0021180530752198026 0.015683861639775417 -0.0018357401356930904 -0.009960198423676679 0.0070609684912583135 0.03310917717981925 0.9912106802392072 -0.0782940604570843
 -0.0018365429063325884 -0.009960137502502414 0.002163037285523565 0.015677366293650442 0.9912106802392072 -0.0782940604570843 0.00705325518665261 0.0331097823079683
0.11879949979160001 0.007545914585728709 0.03510514350661605 0.9905696808315544 -0.08277585105972081 0.002328675984070515 0.016553318598463835 -0.0020179535664724612 -0.010514334419314824
 0.9905696808315544 -0.08277585105972081 0.007537740922367289 0.035105828608770324 -0.0020170616079502367 -0.010514407677104218 0.0023788147377620003 0.016545893370595605
 0.002328675984070515 0.016553318598463835 -0.0020170616079502367 -0.010514407677104218 0.007546195131779785 0.03510667440910965 0.9905697692173084 -0.08277424321884908
 -0.0020179535664724612 -0.010514334419314824 0.0023788147377620003 0.016545893370595605 0.9905697692173084 -0.08277424321884908 0.007537601713958367 0.03510734604852732
0.1250521050438 0.008052535148684382 0.03711676224105548 0.9899011194149868 -0.08726874770210148 0.0025499806870281703 0.01742156555492689 -0.002208635244439024 -0.011067560130439101
 0.9899011194149868 -0.08726874770210148 0.008043477821042908 0.0371175199447092 -0.002207649658057527 -0.011067647075851162 0.0026055546744531643 0.017413124198180422
 0.0025499806870281703 0.01742156555492689 -0.002207649658057527 -0.011067647075851162 0.008052844253934972 0.037118367408730216 0.9899012176963868 -0.08726705244860364
 -0.002208635244439024 -0.011067560130439101 0.0026055546744531643 0.017413124198180422 0.9899012176963868 -0.08726705244860364 0.008043322894941137 0.03711911002198136
0.131304710296 0.008580885805781997 0.03914224563588441 0.9892046126109767 -0.09177400167409547 0.002782032225143269 0.018288429851687833 -0.0024086549535488506 -0.011619643567829522
 0.9892046126109767 -0.09177400167409547 0.008570899029074243 0.039143080624300795 -0.0024075713391687984 -0.011619745612925654 0.0028433220296510296 0.018278881978302467
 0.002782032225143269 0.018288429851687833 -0.0024075713391687984 -0.011619745612925654 0.00858122467222907 0.0391439240800568 0.9892047214167107 -0.0917722185526943
 -0.0024086549535488506 -0.011619643567829522 0.0028433220296510296 0.018278881978302467 0.9892047214167107 -0.0917722185526943 0.008570727447485304 0.03914474229882291
0.1375573155481 0.009012885857353815 0.04091740861983284 0.9885982977756776 -0.09602733868760711 0.0029960326647327437 0.019127612734421203 -0.002589152381554236 -0.012144359100763101
 0.9885982977756776 -0.09602733868760711 0.009001921378961318 0.04091830695236413 -0.0025879644772727525 -0.012144476431530849 0.0030631804966138277 0.019116969142987557
 0.0029960326647327437 0.019127612734421203 -0.0025879644772727525 -0.012144476431530849 0.009013256890045233 0.04091915885072859 0.9885984176005185 -0.09602546741912345
 -0.002589152381554236 -0.012144359100763101 0.0030631804966138277 0.019116969142987557 0.9885984176005185 -0.09602546741912345 0.009001731235044658 0.04092003994598802
0.1438099208003 0.009460177409604245 0.042682736207841354 0.9879704955166448 -0.10026940157550501 0.0032186511215106187 0.019963142618826958 -0.0027768517093626544 -0.012665679201529875
 0.9879704955166448 -0.10026940157550501 0.00944818896728114 0.04268370141500637 -0.0027755548367747345 -0.012665813205112354 0.0032919124320177446 0.01995132033623053
 0.0032186511215106187 0.019963142618826958 -0.0027755548367747345 -0.012665813205112354 0.009460581987484968 0.042684557117488774 0.987970626990127 -0.10026744171338207
 -0.0027768517093626544 -0.012665679201529875 0.0032919124320177446 0.01995132033623053 0.987970626990127 -0.10026744171338207 0.009447979116143278 0.042685504710552075
0.1500625260525 0.009922596194834944 0.044438066274313 0.9873213746324025 -0.10450007010953029 0.003449805863574065 0.020794926086220425 -0.002971672470403423 -0.013183514216969375
 0.9873213746324025 -0.10450007010953029 0.00990953742209817 0.044439102095185375 -0.002970261966770577 -0.013183666335599281 0.0035294344046668926 0.02078183912321795
 0.003449805863574065 0.020794926086220425 -0.002970261966770577 -0.013183666335599281 0.00992303568326529 0.04443995670896945 0.9873215184007023 -0.1044980211901338
 -0.002971672470403423 -0.013183514216969375 0.0035294344046668926 0.02078183912321795 0.9873215184007023 -0.1044980211901338 0.009909306686429564 0.04444097463974679
0.15631513130469998 0.010399976695263035 0.046183241540639464 0.9866511048752691 -0.10871922480532806 0.003689414143580945 0.02162287141533364 -0.003173533157964983 -0.013697776469921864
 0.9866511048752691 -0.10871922480532806 0.010385801118591324 0.04618435192809287 -0.0031720043766401535 -0.013697948200487987 0.0037756619388085535 0.02160843080156895
