! Created with skrf 1.8.0 (http://scikit-rf.org).
# GHz S RI R 50.0 
!freq ReS11 ImS11 ReS12 ImS12 ReS13 ImS13
! ReS14 ImS14
! ReS21 ImS21 ReS22 ImS22 ReS23 ImS23
! ReS24 ImS24
! ReS31 ImS31 ReS32 ImS32 ReS33 ImS33
! ReS34 ImS34
! ReS41 ImS41 ReS42 ImS42 ReS43 ImS43
! ReS44 ImS44
!
0.0 0.001396466397693 0.0 0.9986035335824 0.0 5.365697687647e-05 0.0 -5.365697447807e-05 6.571084204649964e-21
 0.9986035335824 0.0 0.001396466397682 0.0 -5.365697447768e-05 6.571084204602204e-21 5.365697687544e-05 0.0
 5.365697687647e-05 0.0 -5.365697447768e-05 6.571084204602204e-21 0.001396466403374 0.0 0.9986035335881 0.0
 -5.365697447807e-05 6.571084204649964e-21 5.365697687544e-05 0.0 0.9986035335881 0.0 0.001396466403382 0.0
0.005 0.001502094735351028 0.001141966260435963 0.9984699549165058 -0.0029257671066498948 7.509044345009747e-05 0.0005956000078706114 -7.290559435134744e-05 -0.0003731568881190119
 0.9984699549165058 -0.0029257671066498948 0.0015021129209362286 0.0011419556036226409 -7.290582628854093e-05 -0.0003731570035628465 7.497936682309917e-05 0.0005956422468102652
 7.509044345009747e-05 0.0005956000078706114 -7.290582628854093e-05 -0.0003731570035628465 0.0015020952785837947 0.0011420331679817485 0.9984699552610393 -0.002925700035526347
 -7.290559435134744e-05 -0.0003731568881190119 7.497936682309917e-05 0.0005956422468102652 0.9984699552610393 -0.002925700035526347 0.0015021130648205862 0.001142022837529626
0.006252605252188 0.0015296809150448498 0.001431969696586877 0.9984348649928646 -0.0036579427350143176 8.1158131205692e-05 0.0007447932451763417 -7.828661656083402e-05 -0.0004669362891124791
 0.9984348649928646 -0.0036579427350143176 0.001529709342792629 0.0014319561600698086 -7.828697798742646e-05 -0.0004669364301746412 8.098458255281858e-05 0.0007448480717526276
 8.1158131205692e-05 0.0007447932451763417 -7.828697798742646e-05 -0.0004669364301746412 0.0015296816921681982 0.0014320533006038328 0.9984348654589326 -0.003657858920189133
 -7.828661656083402e-05 -0.0004669362891124791 8.098458255281858e-05 0.0007448480717526276 0.9984348654589326 -0.003657858920189133 0.0015297094947541543 0.0014320401836740904
0.01250521050438 0.0016742201377025485 0.0028941347779517378 0.998249867535714 -0.007316805362722017 0.00011565984732984047 0.001489968298301335 -0.00010853023064064648 -0.0009362138315685316
 0.998249867535714 -0.007316805362722017 0.001674333656557459 0.002894105533939785 -0.00010853166114869656 -0.0009362140777140899 0.00011496773494607405 0.001490099692534372
 0.00011565984732984047 0.001489968298301335 -0.00010853166114869656 -0.0009362140777140899 0.001674222681035875 0.002894301677820225 0.998249868830617 -0.007316637971661434
 -0.00010853023064064648 -0.0009362138315685316 0.00011496773494607405 0.001490099692534372 0.998249868830617 -0.007316637971661434 0.0016743336893836694 0.0028942733946458136
0.01875781575657 0.0018303763980794714 0.0043773231608124135 0.9980483279707684 -0.010985518156035537 0.00015723764058340472 0.00223604265603511 -0.00014447598498320622 -0.00140716610100329
 0.9980483279707684 -0.010985518156035537 0.0018306314925529879 0.004377275884504359 -0.0001444791837267148 -0.0014071664078779131 0.00015568278720689391 0.002236276300998049
 0.00015723764058340472 0.00223604265603511 -0.0001444791837267148 -0.0014071664078779131 0.0018303817080324745 0.004377573174341547 0.9980483304628732 -0.010985267283631367
 -0.00014447598498320622 -0.00140716610100329 0.00015568278720689391 0.002236276300998049 0.9980483304628732 -0.010985267283631367 0.0018306311328177905 0.004377527539239944
0.02501042100875 0.0019984346297426537 0.005879482592697389 0.9978300253151665 -0.014665883578162555 0.00020596854274181235 0.002983062747285926 -0.00018620957414056656 -0.0018795933504803812
 0.9978300253151665 -0.014665883578162555 0.0019988876769994235 0.005879414825116443 -0.00018621523475565967 -0.0018795936648133538 0.00020320656794628372 0.0029834281166069617
 0.00020596854274181235 0.002983062747285926 -0.00018621523475565967 -0.0018795936648133538 0.001998443705390924 0.005879815547353087 0.9978300293662834 -0.01466554929183698
 -0.00018620957414056656 -0.0018795933504803812 0.00020320656794628372 0.0029834281166069617 0.9978300293662834 -0.01466554929183698 0.0019988866364902378 0.005879750257845666
0.03126302626094 0.0021786678679040416 0.0073995691996473064 0.9975947264907434 -0.01835868770980879 0.00026193033344308234 0.0037310062775393867 -0.00023381452312635695 -0.00235336018701176
 0.9975947264907434 -0.01835868770980879 0.002179375167349846 0.007399478351444023 -0.00023382333474368882 -0.002353360446492212 0.00025761632617526194 0.0037315366564743646
 0.00026193033344308234 0.0037310062775393867 -0.00023382333474368882 -0.002353360446492212 0.0021786817149302656 0.007399984934750685 0.9975947324639954 -0.018358270046948708
 -0.00023381452312635695 -0.00235336018701176 0.00025761632617526194 0.0037315366564743646 0.9975947324639954 -0.018358270046948708 0.002179373150816275 0.007399897575795947
0.037515631513130004 0.0023713433834373983 0.008936911642205243 0.9973421926072177 -0.02206433603756547 0.0003252007301974676 0.004479824023076949 -0.0002873728025137227 -0.0028283537631624044
 0.9973421926072177 -0.02206433603756547 0.0023723611755234126 0.008936794995644438 -0.0002873854501461969 -0.0028283538963777277 0.00031898909740106046 0.004480556547189011
 0.0003252007301974676 0.004479824023076949 -0.0002873854501461969 -0.0028283538963777277 0.002371363013631989 0.008937409988744432 0.9973422008672588 -0.022063835025493965
 -0.0002873728025137227 -0.0028283537631624044 0.00031898909740106046 0.004480556547189011 0.9973422008672588 -0.022063835025493965 0.002372357880997217 0.008937298034860867
0.043768236765320004 0.0025767250643537205 0.010491017619253237 0.9970721814976247 -0.025783046886569568 0.00039585701510132 0.005229452541507067 -0.0003469650558757761 -0.0033044710566798724
 0.9970721814976247 -0.025783046886569568 0.002578109545508963 0.010490872329376488 -0.0003469822206946986 -0.003304470983044731 0.000387401405544949 0.0052304282408710935
 0.00039585701510132 0.005229452541507067 -0.0003469822206946986 -0.003304470983044731 0.0025767514923584 0.010491598389690136 0.9970721924077042 -0.025782462552431547
 -0.0003469650558757761 -0.0033044710566798724 0.000387401405544949 0.0052304282408710935 0.9970721924077042 -0.025782462552431547 0.002578104661036762 0.010491459206570916
0.050020842017509996 0.0027950745189815013 0.012061493870587456 0.996784448978604 -0.029514931352279897 0.00047397581663762304 0.005979819422008307 -0.0004126706884979596 -0.0037816136126634895
 0.996784448978604 -0.029514931352279897 0.0027968818541432095 0.012061316965986061 -0.00041269304788859316 -0.003781613242372733 0.00046292908441215847 0.005981083267682938
 0.00047397581663762304 0.005979819422008307 -0.00041269304788859316 -0.003781613242372733 0.002795108764361225 0.012062156877408345 0.9967844629027773 -0.029514263704139506
 -0.0004126706884979596 -0.0037816136126634895 0.00046292908441215847 0.005981083267682938 0.9967844629027773 -0.029514263704139506 0.0027968750606565747 0.012061987722893698
0.055454545454549996 0.0029955601237068898 0.013439319950907141 0.9965198181340597 -0.03276878530807839 0.0005479828094847327 0.006632449541756728 -0.00047479644565280647 -0.0041970226526447186
 0.9965198181340597 -0.03276878530807839 0.002997780528321261 0.013439113061151486 -0.00047482386648928015 -0.00419702194442143 0.0005344017613795021 0.0066340034138476734
 0.0005479828094847327 0.006632449541756728 -0.00047482386648928015 -0.00419702194442143 0.0029956019933380343 0.01344005425193559 0.9965198349738206 -0.032768045268596044
 -0.00047479644565280647 -0.0041970226526447186 0.0005344017613795021 0.0066340034138476734 0.9965198349738206 -0.032768045268596044 0.002997771810531718 0.013439856741244578
0.056273447269699996 0.0030266516546688005 0.013648006951957534 0.9964787495880157 -0.03326003245973641 0.0005596329593572446 0.0067308458537298586 -0.0004845678944434991 -0.004259684969774943
 0.9964787495880157 -0.03326003245973641 0.0030289379881596637 0.013647795335255966 -0.0004845961220372105 -0.004259684203755834 0.0005456471513468103 0.006732446805324282
 0.0005596329593572446 0.0067308458537298586 -0.0004845961220372105 -0.004259684203755834 0.0030266947403988476 0.013648751984541232 0.9964787668910005 -0.03325928150954344
 -0.0004845678944434991 -0.004259684969774943 0.0005456471513468103 0.006732446805324282 0.9964787668910005 -0.03325928150954344 0.0030289289585780214 0.013648550009403276
0.06252605252188 0.0032717149937946254 0.015250261638643615 0.9961548370654503 -0.03701834669600588 0.0006529033479729919 0.007482448040324232 -0.0005627336517453503 -0.004738589242725146
 0.9961548370654503 -0.03701834669600588 0.0032745364605477533 0.015250012086500448 -0.000562768417443539 -0.004738587972594174 0.0006356297071652547 0.007484439094027265
 0.0006529033479729919 0.007482448040324232 -0.000562768417443539 -0.004738587972594174 0.003271767947529633 0.01525108847374802 0.996154858113495 -0.0370175124487776
 -0.0005627336517453503 -0.004738589242725146 0.0006356297071652547 0.007484439094027265 0.996154858113495 -0.0370175124487776 0.00327452486123655 0.015250850722019213
0.06877865777407 0.0035305218494652213 0.01686798805491173 0.9958124646929503 -0.04078983681830566 0.0007538608701455386 0.008234538043328962 -0.0006472436999334735 -0.005218230278489065
 0.9958124646929503 -0.04078983681830566 0.00353393458478553 0.016867697217930414 -0.0006472856698647327 -0.005218228386499923 0.0007329498498419261 0.008236976280145674
 0.0007538608701455386 0.008234538043328962 -0.0006472856698647327 -0.005218228386499923 0.0035305857008580193 0.01686889645807316 0.9958124898520292 -0.040788919270445326
 -0.0006472436999334735 -0.005218230278489065 0.0007329498498419261 0.008236976280145674 0.9958124898520292 -0.040788919270445326 0.0035339200733513804 0.016868619867219034
0.07503126302626001 0.0038033284142752906 0.018500933530536914 0.9954513855534889 -0.04457443993790143 0.0008625783104156425 0.008987024313825904 -0.0007381725062263093 -0.005698511126983969
 0.9954513855534889 -0.04457443993790143 0.003807388563897032 0.01850059793279391 -0.0007382223426347512 -0.005698508486007903 0.0008376795968825329 0.008989970947739779
 0.0008625783104156425 0.008987024313825904 -0.0007382223426347512 -0.005698508486007903 0.0038034041962406564 0.018501923249168 0.9954514151911499 -0.04457343908391454
 -0.0007381725062263093 -0.005698511126983969 0.0008376795968825329 0.008989970947739779 0.9954514151911499 -0.04457343908391454 0.0038073707914972332 0.0185016046498144
0.08128386827845 0.0040903897995674225 0.02014885715686697 0.9950713527418149 -0.04837207290691903 0.000979127270941588 0.009739812051140476 -0.0008355932245489285 -0.006179333687592798
 0.9950713527418149 -0.04837207290691903 0.0040951535295015795 0.020148473195140168 -0.0008356515857860359 -0.006179330161059308 0.0009498898123108672 0.00974333247713435
 0.000979127270941588 0.009739812051140476 -0.0008356515857860359 -0.006179330161059308 0.004090478547729602 0.020149927922052273 0.9950713872270244 -0.04837098873730918
 -0.0008355932245489285 -0.006179333687592798 0.0009498898123108672 0.00974333247713435 0.9950713872270244 -0.04837098873730918 0.004095132140085812 0.020149564037599224
0.08753647353064001 0.004391960039939717 0.02181152604008591 0.9946721195441343 -0.052182636011279336 0.0011035780970105576 0.01049280344868728 -0.0009395776492001221 -0.006660598471516951
 0.9946721195441343 -0.052182636011279336 0.004397483545787133 0.021811089982852153 -0.0009396451895667905 -0.006660593913393614 0.0010696501372421487 0.010496967290448123
 0.0011035780970105576 0.01049280344868728 -0.0009396451895667905 -0.006660593913393614 0.00439206279167402 0.02181267756774381 0.9946721592468242 -0.05218146851113913
 -0.0009395776492001221 -0.006660598471516951 0.0010696501372421487 0.010496967290448123 0.9946721592468242 -0.05218146851113913 0.0043974581763262955 0.021812265013550134
0.09378907878283 0.00470829207166171 0.023488712612686292 0.9942534395941148 -0.0560060156083598 0.0012359998044050317 0.011245897878059949 -0.0010501961655373896 -0.007142204428965741
 0.9942534395941148 -0.0560060156083598 0.004714631588831846 0.023488220598792787 -0.0010502735351723654 -0.007142198683733451 0.001197028921906972 0.011250779035340464
 0.0012359998044050317 0.011245897878059949 -0.0010502735351723654 -0.007142198683733451 0.004708409866010626 0.023489944600387783 0.9942534848861045 -0.05600476476043411
 -0.0010501961655373896 -0.007142204428965741 0.001197028921906972 0.011250779035340464 0.9942534848861045 -0.05600476476043411 0.004714601869742315 0.023489479882646835
0.100041684035 0.005039637696182204 0.025180192665940557 0.993815067016823 -0.059842086047320525 0.0013764600102959808 0.011998992019651442 -0.0011675176967503027 -0.007624048833082132
 0.993815067016823 -0.059842086047320525 0.005046849509090423 0.025179640702972208 -0.0011676055415735555 -0.007624041735697929 0.00133209315963511 0.012004668715174714
 0.0013764600102959808 0.011998992019651442 -0.0011676055415735555 -0.007624041735697929 0.005039771573653676 0.025181504796258594 0.9938151182713851 -0.05984075182832077
 -0.0011675176967503027 -0.007624048833082132 0.00133209315963511 0.012004668715174714 0.9938151182713851 -0.05984075182832077 0.005046815064142064 0.025180984310705406
0.1059090909091 0.005364448381536643 0.026780268983434 0.9933855721449968 -0.06345325226071707 0.0015156368861821662 0.012705596429598894 -0.0012837678940088811 -0.008076332508049039
 0.9933855721449968 -0.06345325226071707 0.005372529994111113 0.026779657014943215 -0.0012838661522458757 -0.008076323983211195 0.0014658848849022639 0.012712094687741843
 0.0015156368861821662 0.012705596429598894 -0.0012838661522458757 -0.008076323983211195 0.005364598298188566 0.026781656013468283 0.9933856293360425 -0.06345183978375703
 -0.0012837678940088811 -0.008076332508049039 0.0014658848849022639 0.012712094687741843 0.9933856293360425 -0.06345183978375703 0.005372490766358528 0.026781079817720356
0.1062942892872 0.0053862475293979745 0.026885743866781053 0.993356756560743 -0.06369071110841037 0.0015250248640267259 0.012751979968866315 -0.001291609649490107 -0.008106027191456306
 0.993356756560743 -0.06369071110841037 0.005394387981594204 0.026885127829133198 -0.0012917086110423707 -0.008106018567336146 0.001474908421242182 0.012758534794759656
 0.0015250248640267259 0.012751979968866315 -0.0012917086110423707 -0.008106018567336146 0.005386398531124729 0.026887135803355527 0.9933568141531606 -0.06368929349285152
 -0.001291609649490107 -0.008106027191456306 0.001474908421242182 0.012758534794759656 0.9933568141531606 -0.06368929349285152 0.005394348427964219 0.02688655583346513
0.11254689453939999 0.005748370942198566 0.02860514462668177 0.9928782637244967 -0.0675517450941746 0.001681758979465416 0.01350475332007051 -0.0014225378573949905 -0.008588033183367715
 0.9928782637244967 -0.0675517450941746 0.00575749644567644 0.028604460253260657 -0.0014226485726825317 -0.008588022848372004 0.001625538789955596 0.01351227328370477
 0.001681758979465416 0.01350475332007051 -0.0014226485726825317 -0.008588022848372004 0.0057485401096291355 0.028606616017956013 0.992878328031876 -0.06755024405037306
 -0.0014225378573949905 -0.008588033183367715 0.001625538789955596 0.01351227328370477 0.992878328031876 -0.06755024405037306 0.005757451394450726 0.028605972732923667
0.11879949979160001 0.006126255992621917 0.030338173221583525 0.9923793448768212 -0.07142503367324968 0.0018467253677329442 0.014257201233908697 -0.0015603665232232868 -0.009069958617040472
 0.9923793448768212 -0.07142503367324968 0.006136423038022481 0.030337416113236464 -0.0015604896246131645 -0.00906994637744834 0.0017840467968602838 0.014265777803175842
 0.0018467253677329442 0.014257201233908697 -0.0015604896246131645 -0.00906994637744834 0.006126444367398881 0.03033972369567889 0.99237941627874 -0.0714234491682904
 -0.0015603665232232868 -0.009069958617040472 0.0017840467968602838 0.014265777803175842 0.99237941627874 -0.0714234491682904 0.006136372094301515 0.030339013148055708
0.1250521050438 0.0065201493526759555 0.03208460708378987 0.9918597573739519 -0.07531041455643266 0.0020199853706039136 0.015009210497980006 -0.001705158159854353 -0.009551693397159305
 0.9918597573739519 -0.07531041455643266 0.006531414518925021 0.032083772700349115 -0.001705294274931455 -0.009551679049662816 0.0019504933564377552 0.015018939645857399
 0.0020199853706039136 0.015009210497980006 -0.001705294274931455 -0.009551679049662816 0.006520357975654062 0.032086236252047526 0.9918598362518667 -0.075308746552437
 -0.001705158159854353 -0.009551693397159305 0.0019504933564377552 0.015018939645857399 0.9918598362518667 -0.075308746552437 0.006531357281590448 0.032085454374970644
0.131304710296 0.00693029622966704 0.03384422225127219 0.9913192596739623 -0.07920771801917834 0.0022015985937600562 0.015760665577305575 -0.0018569735305470109 -0.01003312550609934
 0.9913192596739623 -0.07920771801917834 0.0069427161939767034 0.033843305908287644 -0.0018571232819449004 -0.010033108837796654 0.00212493770217247 0.015771647825779694
 0.0022015985937600562 0.015760665577305575 -0.0018571232819449004 -0.010033108837796654 0.0069305261407127585 0.03384592970713038 0.9913193464121085 -0.0792059664743797
 -0.0018569735305470109 -0.01003312550609934 0.00212493770217247 0.015771647825779694 0.9913193464121085 -0.0792059664743797 0.006942652256243733 0.03384507231120147
0.1375573155481 0.007259220541093517 0.03538692000459396 0.9908553617739256 -0.08288681701134205 0.0023680198570538175 0.016488071360374654 -0.0019923608289331178 -0.010490712415021499
 0.9908553617739256 -0.08288681701134205 0.007272855332114411 0.03538593696462643 -0.001992524951421342 -0.010490693412102119 0.002284013596286427 0.01650028518046696
 0.0023680198570538175 0.016488071360374654 -0.001992524951421342 -0.010490693412102119 0.0072594719666853715 0.03538870577144386 0.990855456727339 -0.08288498193256295
 -0.0019923608289331178 -0.010490712415021499 0.002284013596286427 0.01650028518046696 0.990855456727339 -0.08288498193256295 0.007272785155724406 0.03538778784015109
0.1438099208003 0.007599591262384462 0.03692208633858406 0.990375374015095 -0.08655719556456792 0.002541180719445761 0.01721286647494304 -0.0021331774711234115 -0.010945942410503324
 0.990375374015095 -0.08655719556456792 0.0076144981820728255 0.03692103317517461 -0.0021333566005557613 -0.010945920868929678 0.002449505502609256 0.017226403223354638
 0.002541180719445761 0.01721286647494304 -0.0021333566005557613 -0.010945920868929678 0.007599865093941571 0.036923950046119744 0.9903754775650976 -0.08655527691651967
 -0.0021331774711234115 -0.010945942410503324 0.002449505502609256 0.017226403223354638 0.9903754775650976 -0.08655527691651967 0.0076144215101534895 0.036922968576458694
0.1500625260525 0.007951296386255333 0.03844961078787794 0.9898794119059194 -0.09021878067465047 0.0027210269238758223 0.017934987757158252 -0.002279371420323014 -0.011398756518180085
 0.9898794119059194 -0.09021878067465047 0.007967532846300838 0.038448483877151725 -0.0022795661892243716 -0.011398732226053908 0.0026213608889509243 0.017949942110964612
 0.0027210269238758223 0.017934987757158252 -0.0022795661892243716 -0.011398732226053908 0.007951593504831232 0.03845155205314324 0.9898795244356432 -0.09021677842055037
 -0.002279371420323014 -0.011398756518180085 0.0026213608889509243 0.017949942110964612 0.9898795244356432 -0.09021677842055037 0.00796744942726281 0.0384505038584648
0.15631513130469998 0.008314223204950113 0.03996938631279528 0.9893675914364896 -0.0938714992388516 0.002907503628353757 0.018654373009897415 -0.002430890050749551 -0.011849096944643533
