! Created with skrf 1.8.0 (http://scikit-rf.org).
# GHz S RI R 50.0 
!freq ReS11 ImS11 ReS12 ImS12 ReS13 ImS13
! ReS14 ImS14
! ReS21 ImS21 ReS22 ImS22 ReS23 ImS23
! ReS24 ImS24
! ReS31 ImS31 ReS32 ImS32 ReS33 ImS33
! ReS34 ImS34
! ReS41 ImS41 ReS42 ImS42 ReS43 ImS43
! ReS44 ImS44
!
0.0 0.001503556372325 0.0 0.998496443605 0.0 5.79328561671e-05 0.0 -5.793285598946e-05 7.094728665295676e-21
 0.998496443605 0.0 0.001503556372312 0.0 -5.793285598904e-05 7.094728665244241e-21 5.793285616667e-05 0.0
 5.79328561671e-05 0.0 -5.793285598904e-05 7.094728665244241e-21 0.001503556377986 0.0 0.9984964436106 0.0
 -5.793285598946e-05 7.094728665295676e-21 5.793285616667e-05 0.0 0.9984964436106 0.0 0.001503556377999 0.0
0.005 0.0016175860302914305 0.0012300136605812495 0.9983521988854059 -0.0031497228297651175 8.112410919131936e-05 0.0006387853292336567 -7.878150246998762e-05 -0.0004008967575835148
 0.9983521988854059 -0.0031497228297651175 0.0016175993656610923 0.0012300058112058093 -7.87806182326947e-05 -0.0004008960292261471 8.104114875987471e-05 0.000638816817009752
 8.112410919131936e-05 0.0006387853292336567 -7.87806182326947e-05 -0.0004008960292261471 0.0016175870900239904 0.0012300802661357115 0.9983521992422849 -0.0031496557661321602
 -7.878150246998762e-05 -0.0004008967575835148 8.104114875987471e-05 0.000638816817009752 0.9983521992422849 -0.0031496557661321602 0.001617599015094275 0.0012300733291366384
0.006252605252188 0.0016474572564797259 0.0015423608400814124 0.9983141787630305 -0.003937929164449144 8.773345059706457e-05 0.000798792785985975 -8.465078079087176e-05 -0.0005016412768642101
 0.9983141787630305 -0.003937929164449144 0.0016474781028886284 0.0015423508983164076 -8.464940523179996e-05 -0.0005016403777228493 8.760383108352094e-05 0.000798833683499347
 8.773345059706457e-05 0.000798792785985975 -8.464940523179996e-05 -0.0005016403777228493 0.0016474588376452555 0.001542444083867487 0.9983141792452779 -0.003937845340644473
 -8.465078079087176e-05 -0.0005016412768642101 8.760383108352094e-05 0.000798833683499347 0.9983141792452779 -0.003937845340644473 0.0016474774786144981 0.0015424352935834522
0.01250521050438 0.001804500500942138 0.0031170844047906025 0.9981129946214456 -0.007876695912366985 0.00012555017536919127 0.0015979520189002246 -0.00011786058953340629 -0.0010057359129486316
 0.9981129946214456 -0.007876695912366985 0.001804583751631294 0.0031170632088806053 -0.00011785517318262604 -0.0010057342378568359 0.00012503323818179493 0.001598050365351122
 0.00012555017536919127 0.0015979520189002246 -0.00011785517318262604 -0.0010057342378568359 0.0018045062508914053 0.0031172505439672343 0.9981129959783309 -0.007876528519161336
 -0.00011786058953340629 -0.0010057359129486316 0.00012503323818179493 0.001598050365351122 0.9981129959783309 -0.007876528519161336 0.0018045806817884504 0.003117231775138867
0.01875781575657 0.0019750227003114515 0.004714278681545129 0.997892645645128 -0.011825893280696937 0.00017146932426057577 0.002398015564167568 -0.0001576630563688871 -0.0015115616146176313
 0.997892645645128 -0.011825893280696937 0.001975209787849602 0.004714244809103288 -0.00015765098405641395 -0.0015115593084547903 0.00017030797625880122 0.002398191066950897
 0.00017146932426057577 0.002398015564167568 -0.00015765098405641395 -0.0015115593084547903 0.001975035209931995 0.004714527506475902 0.99789264827486 -0.011825642380262444
 -0.0001576630563688871 -0.0015115616146176313 0.00017030797625880122 0.002398191066950897 0.99789264827486 -0.011825642380262444 0.0019752024522365543 0.004714497503465467
0.02501042100875 0.0021593508307164947 0.0063317149623454885 0.9976528767747673 -0.015787441112949892 0.0002255786148728591 0.0031990192587076686 -0.0002041558242348547 -0.002018892776220042
 0.9976528767747673 -0.015787441112949892 0.002159683116294262 0.006331666897219936 -0.00020413451395372804 -0.0020188900083029353 0.00022351560343405964 0.003199294674054494
 0.0002255786148728591 0.0031990192587076686 -0.00020413451395372804 -0.0020188900083029353 0.0021593726858028027 0.00633204622556683 0.9976528810711032 -0.01578710675240169
 -0.0002041558242348547 -0.002018892776220042 0.00022351560343405964 0.003199294674054494 0.9976528810711032 -0.01578710675240169 0.002159669683430936 0.006332003680056687
0.03126302626094 0.0023577983197157746 0.007968249301200311 0.997393419702294 -0.019762164576031395 0.0002879663222450822 0.0040009253767629045 -0.00025743385757760805 -0.0025275719659434187
 0.997393419702294 -0.019762164576031395 0.002358317116552585 0.007968185436667063 -0.0002574007548279971 -0.002527568930344819 0.00028474399855139495 0.004001326528321829
 0.0002879663222450822 0.0040009253767629045 -0.0002574007548279971 -0.002527568930344819 0.002357832109485707 0.007968662739461587 0.9973934260636583 -0.019761746765036635
 -0.00025743385757760805 -0.0025275719659434187 0.00028474399855139495 0.004001326528321829 0.9973934260636583 -0.019761746765036635 0.0023582957505383145 0.007968606293947595
0.037515631513130004 0.002570671863113107 0.009623138094885469 0.9971139998892024 -0.02375047851940362 0.0003587203794078596 0.004803667166525472 -0.00031759013246410227 -0.003037465383940824
 0.9971139998892024 -0.02375047851940362 0.0025714184509048757 0.009623056735279389 -0.00031754270725857286 -0.003037462299560582 0.0003540805928165532 0.004804222976950349
 0.0003587203794078596 0.004803667166525472 -0.00031754270725857286 -0.003037462299560582 0.0025707201759254217 0.009623633404343555 0.9971140087147308 -0.02374997725457638
 -0.00031759013246410227 -0.003037465383940824 0.0003540805928165532 0.004804222976950349 0.9971140087147308 -0.02374997725457638 0.0025713873071498863 0.00962356165416507
0.043768236765320004 0.002798274051317779 0.011295829782548056 0.9968143393985107 -0.027752595706481902 0.000437927961826171 0.005607162385322184 -0.00038471587984024514 -0.0035484493249220124
 0.9968143393985107 -0.027752595706481902 0.0027992896885954935 0.011295729144106243 -0.000384651624936509 -0.003548446435482588 0.00043161200987842924 0.005607904911765703
 0.000437927961826171 0.005607162385322184 -0.000384651624936509 -0.003548446435482588 0.002798339474065018 0.011296406626488504 0.9968143510881693 -0.027752010963137872
 -0.00038471587984024514 -0.0035484493249220124 0.00043161200987842924 0.005607904911765703 0.9968143510881693 -0.027752010963137872 0.002799246913102718 0.011296318121332688
0.050020842017509996 0.0030409045941776898 0.012985878766696619 0.9964941583275828 -0.03176861282250839 0.0005256752382695163 0.006411318885145779 -0.0004589006740292207 -0.004060404592919164
 0.9964941583275828 -0.03176861282250839 0.0030422305284208096 0.012985756978074138 -0.0004588171037220546 -0.0040604021669520905 0.0005174238461716558 0.0064122833563652615
 0.0005256752382695163 0.006411318885145779 -0.0004588171037220546 -0.0040604021669520905 0.0030409897135649164 0.012986536767393083 0.9964941732849233 -0.03176794456236744
 -0.0004589006740292207 -0.004060404592919164 0.0005174238461716558 0.0064122833563652615 0.9964941732849233 -0.03176794456236744 0.003042174259512689 0.012986430012283747
0.055454545454549996 0.0032641938226674852 0.01446838106779784 0.9961990278139878 -0.03526996091479758 0.0006089315903984553 0.007110615318493976 -0.0005291706571613465 -0.004506006849522367
 0.9961990278139878 -0.03526996091479758 0.0032658229107183404 0.014468239311375114 -0.0005290682985631544 -0.0045060050636539775 0.0005987872329328717 0.007111803768232422
 0.0006089315903984553 0.007110615318493976 -0.0005290682985631544 -0.0045060050636539775 0.0032642981582276416 0.0144691092573955 0.9961990459407705 -0.035269220034170365
 -0.0005291706571613465 -0.004506006849522367 0.0005987872329328717 0.007111803768232422 0.9961990459407705 -0.035269220034170365 0.003265753396968783 0.014468985394296995
0.056273447269699996 0.003298860951402583 0.014692903159258577 0.9961531756513285 -0.035798552658419566 0.00062204719208885 0.007216037364698775 -0.000540232454745759 -0.004573213752528998
 0.9961531756513285 -0.035798552658419566 0.003300538428156359 0.014692758261690938 -0.000540127103990209 -0.00457321208334543 0.0006116005103836375 0.007217262218929619
 0.00062204719208885 0.007216037364698775 -0.000540127103990209 -0.00457321208334543 0.0032989683522333412 0.014693641898660096 0.9961531942826949 -0.035797800828424056
 -0.000540232454745759 -0.004573213752528998 0.0006116005103836375 0.007217262218929619 0.9961531942826949 -0.035797800828424056 0.0033004667957007364 0.014693515354695156
0.06252605252188 0.0035724386707488903 0.01641656155566503 0.9957911097768054 -0.039842387268841824 0.000727127484074994 0.008021212874126488 -0.0006287975089356598 -0.005086759630988663
 0.9957911097768054 -0.039842387268841824 0.0035745089433198555 0.016416391502717603 -0.000628667932882427 -0.005086759036634095 0.0007142250980672001 0.008022739797141102
 0.000727127484074994 0.008021212874126488 -0.000628667932882427 -0.005086759036634095 0.0035725709357256772 0.01641738056638558 0.9957911324914703 -0.03984155180967334
 -0.0006287975089356598 -0.005086759630988663 0.0007142250980672001 0.008022739797141102 0.9957911324914703 -0.03984155180967334 0.0035744200679079415 0.016417232651234237
0.06877865777407 0.0038619315687163577 0.018156539178056885 0.9954076789424904 -0.04390005176426418 0.0008409983332834318 0.008826735713780582 -0.000724680435130206 -0.005600924429839699
 0.9954076789424904 -0.04390005176426418 0.003864435905848899 0.018156341835284657 -0.0007245242085505227 -0.005600925253065546 0.0008253792803448396 0.008828609676992838
 0.0008409983332834318 0.008826735713780582 -0.0007245242085505227 -0.005600925253065546 0.0038620912777279984 0.018157437955435157 0.9954077061543388 -0.0438991325978826
 -0.000724680435130206 -0.005600924429839699 0.0008253792803448396 0.008828609676992838 0.9954077061543388 -0.0438991325978826 0.0038643278998308477 0.018157267043454543
0.07503126302626001 0.004167631815020158 0.019912539100237353 0.9950026015274877 -0.04797145302513566 0.0009637404092531486 0.00963249201749319 -0.0008279640949285467 -0.006115589156065907
 0.9950026015274877 -0.04797145302513566 0.004170611509911047 0.01991231224449833 -0.000827778811972736 -0.006115591764291372 0.0009451432032587677 0.009634761315921853
 0.0009637404092531486 0.00963249201749319 -0.000827778811972736 -0.006115591764291372 0.004167821543937835 0.01991351709310811 0.9950026336541269 -0.047970450063587584
 -0.0008279640949285467 -0.006115589156065907 0.0009451432032587677 0.009634761315921853 0.9950026336541269 -0.047970450063587584 0.004170482476214789 0.019913321515262913
0.08128386827845 0.0044898299610483675 0.02168427640713581 0.9945755963062854 -0.05205647548575678 0.0010954327336667447 0.01043836413082133 -0.000938729555219009 -0.006630633262378199
 0.9945755963062854 -0.05205647548575678 0.004493326339302832 0.021684017725593814 -0.0009385128291059255 -0.0066306380476546 0.0010735953935468042 0.010441080420790293
 0.0010954327336667447 0.01043836413082133 -0.0009385128291059255 -0.0066306380476546 0.004490052281325278 0.021685333022104368 0.9945756337702817 -0.052055388626479904
 -0.000938729555219009 -0.006630633262378199 0.0010735953935468042 0.010441080420790293 0.9945756337702817 -0.052055388626479904 0.004493174372216403 0.021685111065579965
0.08753647353064001 0.004828814926518785 0.023471474153207585 0.9941263826659359 -0.05615498512358955 0.0012361525853401844 0.011244230886860182 -0.0010570560253189655 -0.0071459343942775035
 0.9941263826659359 -0.05615498512358955 0.004832869354800796 0.023471181242094474 -0.001056805488231618 -0.007145941773244156 0.00121081266813694 0.0112474492232548
 0.0012361525853401844 0.011244230886860182 -0.001056805488231618 -0.007145941773244156 0.00482907240426911 0.02347260875121764 0.9941264258950068 -0.05615381425249802
 -0.0010570560253189655 -0.0071459343942775035 0.00121081266813694 0.0112474492232548 0.9941264258950068 -0.05615381425249802 0.004832692539221881 0.0234723586587147
0.09378907878283 0.005184873960769606 0.025273860477395126 0.9936546808007022 -0.06026683229689009 0.0013859754091596764 0.012049967801726132 -0.0011830207899061634 -0.007661368221717649
 0.9936546808007022 -0.06026683229689009 0.005189527854667907 0.025273530840501122 -0.0011827340927986721 -0.007661378635568267 0.0013568700457640684 0.012053746675011327
 0.0013859754091596764 0.012049967801726132 -0.0011827340927986721 -0.007661378635568267 0.005185169155561298 0.025275072370421856 0.9936547302281593 -0.06026557729128613
 -0.0011830207899061634 -0.007661368221717649 0.0013568700457640684 0.012053746675011327 0.9936547302281593 -0.06026557729128613 0.005189324266145205 0.02527479233921391
0.100041684035 0.005558292583737147 0.02709116648626735 0.9931602118909887 -0.06439185381900218 0.001544974726083091 0.012855447232235008 -0.0013166991390738169 -0.008176808313341813
 0.9931602118909887 -0.06439185381900218 0.005563587416350104 0.027090797533087765 -0.0013163739516209813 -0.008176822227781513 0.001511840660686235 0.01285984860479629
 0.001544974726083091 0.012855447232235008 -0.0013163739516209813 -0.008176822227781513 0.0055586280481948825 0.027092454942111058 0.9931602679562309 -0.06439051454256221
 -0.0013166991390738169 -0.008176808313341813 0.001511840660686235 0.01285984860479629 0.9931602679562309 -0.06439051454256221 0.00556335512125329 0.027092143122745514
0.1059090909091 0.0059247474679651685 0.02880984640223671 0.9926752515290327 -0.06827457503455045 0.0017025883675997279 0.01361095368915711 -0.001449222765368636 -0.008660385333361286
 0.9926752515290327 -0.06827457503455045 0.005930681531143292 0.028809438113040334 -0.0014488593559934518 -0.008660402978090415 0.001665434056006565 0.01361599868971523
 0.0017025883675997279 0.01361095368915711 -0.0014488593559934518 -0.008660402978090415 0.005925123035626845 0.028811205998212894 0.9926753142286736 -0.06827315654304335
 -0.001449222765368636 -0.008660385333361286 0.001665434056006565 0.01361599868971523 0.9926753142286736 -0.06827315654304335 0.005930420531092013 0.028810862624038352
0.1062942892872 0.005949354512575707 0.028923124664652102 0.9926426982690204 -0.06852987451054465 0.001713222046266477 0.013660538488115197 -0.0014581642953291776 -0.008692126060655904
 0.9926426982690204 -0.06852987451054465 0.0059553318225547365 0.028922713708311048 -0.0014577983058406637 -0.008692143965864638 0.0016757956774032976 0.013665627830209345
 0.001713222046266477 0.013660538488115197 -0.0014577983058406637 -0.008692143965864638 0.0059497327912402375 0.028924488906267743 0.9926427614180724 -0.06852845081357412
 -0.0014581642953291776 -0.008692126060655904 0.0016757956774032976 0.013665627830209345 0.9926427614180724 -0.06852845081357412 0.005955068877862081 0.028924143401054907
0.11254689453939999 0.006358341577593584 0.030769467666380685 0.992101863578579 -0.07268070837676442 0.0018907867815493942 0.014465107935840738 -0.0016074873395752276 -0.009207190615544633
 0.992101863578579 -0.07268070837676442 0.006365042977679525 0.030769011921180055 -0.0016070782549627357 -0.00920721302613715 0.0018488042061398683 0.01447095426083048
 0.0018907867815493942 0.014465107935840738 -0.0016070782549627357 -0.00920721302613715 0.006358765205867789 0.03077090686810988 0.9921019342643796 -0.07267920009980446
 -0.0016074873395752276 -0.009207190615544633 0.0018488042061398683 0.01447095426083048 0.9921019342643796 -0.07267920009980446 0.006364747430902142 0.030770525729135783
0.11879949979160001 0.006785533629386691 0.03262992736362861 0.9915374329279223 -0.07684415953190951 0.0020777361597604303 0.015269019080285674 -0.0017647371352041083 -0.009721868854678083
 0.9915374329279223 -0.07684415953190951 0.006793000814781722 0.03262942394232768 -0.0017642826810151013 -0.009721896309652535 0.002030933218643188 0.01527569497939494
 0.0020777361597604303 0.015269019080285674 -0.0017642826810151013 -0.009721896309652535 0.006786005132686322 0.0326314406523046 0.9915375116109232 -0.07684256650439444
 -0.0017647371352041083 -0.009721868854678083 0.002030933218643188 0.01527569497939494 0.9915375116109232 -0.07684256650439444 0.00679267070363544 0.03263102187924737
0.1250521050438 0.00723120843897729 0.03450423410583723 0.9909491330386971 -0.08102002291978502 0.002274135139332446 0.016072132635895416 -0.0019299802510344705 -0.010236025359558606
 0.9909491330386971 -0.08102002291978502 0.007239483195692931 0.034503680016580086 -0.0019294781714064952 -0.010236058422269744 0.002222247464815633 0.016079714312127912
 0.002274135139332446 0.016072132635895416 -0.0019294781714064952 -0.010236058422269744 0.007231730331746972 0.03450582056277327 0.9909492201874592 -0.08101834495787569
 -0.0019299802510344705 -0.010236025359558606 0.002222247464815633 0.016079714312127912 0.9909492201874592 -0.08101834495787569 0.007239116548331459 0.03450536210032312
0.131304710296 0.00769564159273604 0.03639211612217239 0.9903366923924439 -0.0852080848967223 0.0024800463240559167 0.01687430659611924 -0.0021032808836301243 -0.010749522403245117
 0.9903366923924439 -0.0852080848967223 0.007704765805937942 0.036391508265093256 -0.0021027289413224856 -0.010749561661347289 0.0024228093893745076 0.01688287389759601
 0.0024800463240559167 0.01687430659611924 -0.0021027289413224856 -0.010749561661347289 0.007696216377324474 0.03639377478062356 0.990336788483695 -0.0852063218056309
 -0.0021032808836301243 -0.010749522403245117 0.0024228093893745076 0.01688287389759601 0.990336788483695 -0.0852063218056309 0.007704360640776666 0.03639327451554927
0.1375573155481 0.00807168143069166 0.03804715329848546 0.9898073058084049 -0.08916187486559916 0.0026695251272637666 0.017650743230948545 -0.002258767481770904 -0.011237532572920261
 0.9898073058084049 -0.08916187486559916 0.008081698988480835 0.0380465000219803 -0.002258162225357254 -0.011237578059291053 0.002606810464609518 0.01766028279942149
 0.0026695251272637666 0.017650743230948545 -0.002258162225357254 -0.011237578059291053 0.00807231086546317 0.03804888355685397 0.9898074112516951 -0.08916002654899949
 -0.002258767481770904 -0.011237532572920261 0.002606810464609518 0.01766028279942149 0.9898074112516951 -0.08916002654899949 0.008081254187956138 0.038048350246620635
0.1438099208003 0.008460924215890618 0.03969361869288974 0.9892593497102525 -0.09310578636175401 0.002866663824724247 0.018424082457311607 -0.002420475639207469 -0.01172273179899911
 0.9892593497102525 -0.09310578636175401 0.00847187741361048 0.039692917512349074 -0.002419814639604334 -0.011722784094361756 0.0027982312705845903 0.018434667169210894
 0.002866663824724247 0.018424082457311607 -0.002419814639604334 -0.011722784094361756 0.008461610651566268 0.0396954195849453 0.9892594649802859 -0.09310385263293759
 -0.002420475639207469 -0.01172273179899911 0.0027982312705845903 0.018434667169210894 0.9892594649802859 -0.09310385263293759 0.00847139113912551 0.03969485169524724
0.1500625260525 0.008863234841669038 0.0413313789911465 0.9886929631603192 -0.09703972565225019 0.003071395748186483 0.019194246734002322 -0.002588341117092494 -0.012205047719051303
 0.9886929631603192 -0.09703972565225019 0.008875166073946849 0.04133062727053919 -0.002587621948497021 -0.012205107427824834 0.0029970065638774226 0.019205952114840125
 0.003071395748186483 0.019194246734002322 -0.002587621948497021 -0.012205107427824834 0.008863980608625342 0.041333249514900076 0.988693088739016 -0.09703770631631103
 -0.002588341117092494 -0.012205047719051303 0.0029970065638774226 0.019205952114840125 0.988693088739016 -0.09703770631631103 0.008874636488055936 0.04133264539540794
0.15631513130469998 0.009278477267014782 0.04296030492512929 0.9881082859011986 -0.10096359925131834 0.003283653450399284 0.01996115980697266 -0.0027622988961752575 -0.01268440948368097
 0.9881082859011986 -0.10096359925131834 0.009291429030460008 0.042959499872717036 -0.0027615191360860275 -0.012684477233908923 0.003203070343573973 0.019974064003451628
