! Created with skrf 1.8.0 (http://scikit-rf.org).
# GHz S RI R 50.0 
!freq ReS11 ImS11 ReS12 ImS12 ReS13 ImS13
! ReS14 ImS14
! ReS21 ImS21 ReS22 ImS22 ReS23 ImS23
! ReS24 ImS24
! ReS31 ImS31 ReS32 ImS32 ReS33 ImS33
! ReS34 ImS34
! ReS41 ImS41 ReS42 ImS42 ReS43 ImS43
! ReS44 ImS44
!
0.0 0.001514084051929 0.0 0.9984859159314 0.0 5.847982236659e-05 0.0 -5.84798220554e-05 7.16171268948524e-21
 0.9984859159314 0.0 0.001514084051937 0.0 -5.847982205594e-05 7.161712689551371e-21 5.847982236645e-05 0.0
 5.847982236659e-05 0.0 -5.847982205594e-05 7.161712689551371e-21 0.001514084060298 0.0 0.9984859159397 0.0
 -5.84798220554e-05 7.16171268948524e-21 5.847982236645e-05 0.0 0.9984859159397 0.0 0.00151408406027 0.0
0.005 0.0016289778807792772 0.0012362958725333926 0.9983405740391228 -0.003171872337459932 8.220847474716268e-05 0.0006586780939250971 -7.979599717333427e-05 -0.0004109460265258892
 0.9983405740391228 -0.003171872337459932 0.0016289745684299186 0.0012362977172374044 -7.979871664684885e-05 -0.0004109480063353618 8.22380335331299e-05 0.0006586670842490182
 8.220847474716268e-05 0.0006586780939250971 -7.979871664684885e-05 -0.0004109480063353618 0.0016289773842024814 0.001236363355030785 0.998340574396359 -0.0031718052842606833
 -7.979599717333427e-05 -0.0004109460265258892 8.22380335331299e-05 0.0006586670842490182 0.998340574396359 -0.0031718052842606833 0.001628975771704021 0.0012363643336285256
0.006252605252188 0.0016590877956412311 0.001550247670020155 0.998302249326606 -0.003965621016174934 8.896382270465062e-05 0.0008236622838253745 -8.58037501641325e-05 -0.0005142185260706267
 0.998302249326606 -0.003965621016174934 0.0016590826178529221 0.001550249932210187 -8.580798276140596e-05 -0.0005142209649308257 8.90100086192599e-05 0.0008236479502298184
 8.896382270465062e-05 0.0008236622838253745 -8.580798276140596e-05 -0.0005142209649308257 0.0016590869444998758 0.0015503320121827491 0.9983022498099564 -0.003965537198955657
 -8.58037501641325e-05 -0.0005142185260706267 8.90100086192599e-05 0.0008236479502298184 0.9983022498099564 -0.003965537198955657 0.0016590844230061953 0.001550333207841097
0.01250521050438 0.0018174573343675872 0.0031330939241983155 0.9980993651582368 -0.00793208251921586 0.000127578961597247 0.0016476565201037797 -0.00011983409863473531 -0.0010309590095013402
 0.9980993651582368 -0.00793208251921586 0.001817436664571043 0.0031330979965182287 -0.00011985078989721476 -0.0010309634927712532 0.00012776323355606831 0.0016476217228166771
 0.000127578961597247 0.0016476565201037797 -0.00011985078989721476 -0.0010309634927712532 0.0018174533815296877 0.0031332622485483906 0.9980993665277704 -0.007931915108241521
 -0.00011983409863473531 -0.0010309590095013402 0.00012776323355606831 0.0016476217228166771 0.9980993665277704 -0.007931915108241521 0.001817443299295998 0.0031332643399656604
0.01875781575657 0.0019895341089267316 0.004738571388184734 0.9978770143310157 -0.011909045268131578 0.00017441438267176855 0.002472554024300639 -0.0001606751279620059 -0.001549460756043098
 0.9978770143310157 -0.011909045268131578 0.0019894876747722124 0.004738576789858711 -0.0001607123655112803 -0.0015494668104508147 0.0001748285500465198 0.002472491499265375
 0.00017441438267176855 0.002472554024300639 -0.0001607123655112803 -0.0015494668104508147 0.0019895248160217453 0.004738823444746116 0.9978770169869476 -0.011908794330320084
 -0.0001606751279620059 -0.001549460756043098 0.0001748285500465198 0.002472491499265375 0.9978770169869476 -0.011908794330320084 0.0019895021346004248 0.00473882607522949
0.02501042100875 0.0021756497066749564 0.006364432202260413 0.9976349380230624 -0.015898440390549946 0.00022956026289757005 0.003298396409620557 -0.00020842770090908266 -0.002069487160010279
 0.9976349380230624 -0.015898440390549946 0.0021755672586171015 0.006364438414726194 -0.00020849348087498954 -0.0020694942255575313 0.0002302963049632902 0.003298297784699338
 0.00022956026289757005 0.003298396409620557 -0.00020849348087498954 -0.0020694942255575313 0.002175632849477641 0.0063647677490828196 0.9976349423717902 -0.01589810593617441
 -0.00020842770090908266 -0.002069487160010279 0.0002302963049632902 0.003298297784699338 0.9976349423717902 -0.01589810593617441 0.00217559252192767 0.006364770499831536
0.03126302626094 0.002376121994299329 0.00800952119531763 0.9973728640614535 -0.01990109617385012 0.0002931072043349744 0.004125147752732092 -0.00026318984432292726 -0.0025908735692452625
 0.9973728640614535 -0.01990109617385012 0.002375993296218081 0.008009527659914823 -0.0002632920869688933 -0.002590880998168788 0.00029425735325261046 0.004125003536944875
 0.0002931072043349744 0.004125147752732092 -0.0002632920869688933 -0.002590880998168788 0.0023760953544746753 0.008009939977514459 0.9973728705097943 -0.019900678177114137
 -0.00026318984432292726 -0.0025908735692452625 0.00029425735325261046 0.004125003536944875 0.9973728705097943 -0.019900678177114137 0.002376032319527406 0.008009942365533351
0.037515631513130004 0.0025912619854671706 0.009673086394562682 0.9970905140037627 -0.02391742749444643 0.0003651453804098688 0.004952741567995573 -0.000325057479501531 -0.003113480315063133
 0.9970905140037627 -0.02391742749444643 0.002591076808037398 0.00967309251088082 -0.00032520403703182417 -0.0031134873714185694 0.0003668021607486797 0.004952541136993851
 0.0003651453804098688 0.004952741567995573 -0.00032520403703182417 -0.0031134873714185694 0.0025912233509821376 0.00967358813484611 0.9970905229625447 -0.02391692590264497
 -0.000325057479501531 -0.003113480315063133 0.0003668021607486797 0.004952541136993851 0.9970905229625447 -0.02391692590264497 0.0025911325291577037 0.00967358961137147
0.043768236765320004 0.0028213765028298663 0.011354569192964542 0.9967876060143063 -0.027947645580646708 0.00044576413478588696 0.005781095095036675 -0.00039412468394910767 -0.0036371784261341276
 0.9967876060143063 -0.027947645580646708 0.0028211246177707434 0.011354574317732529 -0.0003943233451382046 -0.0036371842856017184 0.00044802038415801544 0.005780826675356231
 0.00044576413478588696 0.005781095095036675 -0.0003943233451382046 -0.0036371842856017184 0.002821323666477301 0.011355153586373148 0.9967876178990485 -0.027947060319253494
 -0.00039412468394910767 -0.0036371784261341276 0.00044802038415801544 0.005780826675356231 0.9967876178990485 -0.027947060319253494 0.002821199955457235 0.011355153535631839
0.050020842017509996 0.003066769410060353 0.013053517639425223 0.9964638563133029 -0.03199184465134527 0.0005350517367522957 0.0066101152023873375 -0.0004704837895690542 -0.004161843727504774
 0.9964638563133029 -0.03199184465134527 0.0030664405848234667 0.013053521085609468 -0.00047074228258908604 -0.004161847477250073 0.0005380006166532339 0.006609765855083559
 0.0005350517367522957 0.0066101152023873375 -0.00047074228258908604 -0.004161847477250073 0.0030667001676457166 0.013054184362045185 0.9964638715443175 -0.03199117561515198
 -0.0004704837895690542 -0.004161843727504774 0.0005380006166532339 0.006609765855083559 0.9964638715443175 -0.03199117561515198 0.0030665384384423685 0.01305418210007256
0.055454545454549996 0.003292665447218349 0.014543837198200859 0.9961653607683417 -0.03551774715305355 0.0006197531531117689 0.007331022156326554 -0.000542834495091659 -0.004618484276504779
 0.9961653607683417 -0.03551774715305355 0.0032922614414608235 0.014543838593116209 -0.0005431512143121726 -0.004618485382694732 0.0006233798638746172 0.0073305910547779955
 0.0006197531531117689 0.007331022156326554 -0.0005431512143121726 -0.004618485382694732 0.0032925801586255014 0.014544575180242018 0.996165379253044 -0.03551700521411868
 -0.000542834495091659 -0.004618484276504779 0.0006233798638746172 0.0073305910547779955 0.996165379253044 -0.03551700521411868 0.003292381201473081 0.014544570387432893
0.056273447269699996 0.0033277422474601638 0.014769543880732686 0.9961189800323484 -0.03605004440379421 0.0006330952098628258 0.007439701278572562 -0.0005542254033281601 -0.004687353954694731
 0.9961189800323484 -0.03605004440379421 0.0033273262401957025 0.014769544916770617 -0.0005545513975741176 -0.004687354593282761 0.0006368302107462848 0.007439256882580062
 0.0006330952098628258 0.007439701278572562 -0.0005545513975741176 -0.004687354593282761 0.003327654396470391 0.014770292577034674 0.9961189990357363 -0.03604929146955082
 -0.0005542254033281601 -0.004687353954694731 0.0006368302107462848 0.007439256882580062 0.9961189990357363 -0.03604929146955082 0.0033274494894578433 0.01477028735064014
0.06252605252188 0.00360459457300046 0.016502300756037414 0.9957526917795301 -0.0401222133515315 0.0007399801927969842 0.00826974683182524 -0.0006454383929716912 -0.005213587162490841
 0.9957526917795301 -0.0401222133515315 0.0036040811273947222 0.016502298605295142 -0.0006458395002424842 -0.00521358359981589 0.0007445951348077514 0.008269192067138059
 0.0007399801927969842 0.00826974683182524 -0.0006458395002424842 -0.00521358359981589 0.0036044859115393338 0.016503131045211724 0.9957527149878828 -0.04012137637149205
 -0.0006454383929716912 -0.005213587162490841 0.0007445951348077514 0.008269192067138059 0.9957527149878828 -0.04012137637149205 0.0036042326321391897 0.016503122031127797
0.06877865777407 0.003897624140291027 0.01825146784996391 0.9953647060445178 -0.04420828270699083 0.0008557908211398544 0.009100140436914757 -0.0007442098489708947 -0.005740420790395221
 0.9953647060445178 -0.04420828270699083 0.0038970029808056386 0.01825146169023174 -0.0007446936241771549 -0.005740411847622396 0.0008613798525051491 0.009099458767622134
 0.0008557908211398544 0.009100140436914757 -0.0007446936241771549 -0.005740411847622396 0.003897492465951719 0.01825237932381252 0.9953647338982656 -0.044207361511118315
 -0.0007442098489708947 -0.005740420790395221 0.0008613798525051491 0.009099458767622134 0.9953647338982656 -0.044207361511118315 0.0038971855807796293 0.018252365627828466
0.07503126302626001 0.004207126984716855 0.02001674264449954 0.9949547375159838 -0.048308155169336876 0.0009806096196019025 0.009930766345116615 -0.0008506250342573454 -0.0062677310689244255
 0.9949547375159838 -0.048308155169336876 0.004206387811520123 0.02001673160775341 -0.0008511989758163081 -0.006267715478458075 0.0009872672127601166 0.009929940002393485
 0.0009806096196019025 0.009930766345116615 -0.0008511989758163081 -0.006267715478458075 0.004206970093011288 0.02001773486740663 0.9949547704632002 -0.04830714956540407
 -0.0008506250342573454 -0.0062677310689244255 0.0009872672127601166 0.009929940002393485 0.9949547704632002 -0.04830714956540407 0.004206604325548619 0.020017715523679792
0.08128386827845 0.004533397447892482 0.021797834640784802 0.9945225013404978 -0.05242171074680898 0.0011145174011787321 0.01076150489186636 -0.0009647673250600717 -0.006795392632529187
 0.9945225013404978 -0.05242171074680898 0.004532529932123806 0.02179781781288248 -0.0009654388750822422 -0.00679536903798343 0.0011223383472784038 0.010760514856920445
 0.0011145174011787321 0.01076150489186636 -0.0009654388750822422 -0.00679536903798343 0.004533213131505182 0.021798907147190905 0.994522539838773 -0.052420620523004294
 -0.0009647673250600717 -0.006795392632529187 0.0011223383472784038 0.010760514856920445 0.994522539838773 -0.052420620523004294 0.0045327831577981524 0.02179888111772684
0.08753647353064001 0.0048767281624530565 0.023594461283139946 0.9940677133454683 -0.056548810781549046 0.0012575931714993488 0.011592232781669468 -0.0010867181448982709 -0.0073232782596932035
 0.9940677133454683 -0.056548810781549046 0.004875721940950654 0.02359443770385641 -0.0010874946890774334 -0.0073232452158902344 0.0012666725738239787 0.01159105876868244
 0.0012575931714993488 0.011592232781669468 -0.0010874946890774334 -0.0073232452158902344 0.004876514209359985 0.023595613581621606 0.9940677578615021 -0.05654763570251449
 -0.0010867181448982709 -0.0073232782596932035 0.0012666725738239787 0.01159105876868244 0.9940677578615021 -0.05654763570251449 0.004876014653995979 0.023595579755718278
0.09378907878283 0.005237410010602837 0.025406345057414445 0.9935900902389306 -0.0606893008049763 0.0014099140350350718 0.012422823301980267 -0.001216556895371413 -0.007851258688669288
 0.9935900902389306 -0.0606893008049763 0.005236254681172031 0.025406313720437036 -0.0012174457628814602 -0.007851214661638304 0.0014203473010262972 0.01242144374105042
 0.0014099140350350718 0.012422823301980267 -0.0012174457628814602 -0.007851214661638304 0.0052371642035434025 0.025407576628031826 0.9935901412503905 -0.06068804061479669
 -0.001216556895371413 -0.007851258688669288 0.0014203473010262972 0.01242144374105042 0.9935901412503905 -0.06068804061479669 0.005236589634927812 0.02540753382193533
0.100041684035 0.005615732062081472 0.027233211362149037 0.9930893497921592 -0.06484301262578396 0.0015715551041951205 0.013253146478745962 -0.00135436088257558 -0.008379202496338606
 0.9930893497921592 -0.06484301262578396 0.005614417178096876 0.027233171215344614 -0.0013553693456969619 -0.00837914586334902 0.0015834379369327918 0.013251538498830791
 0.0015715551041951205 0.013253146478745962 -0.0013553693456969619 -0.00837914586334902 0.0056154521765969636 0.027234521657178903 0.9930894077878065 -0.0648416670474365
 -0.00135436088257558 -0.008379202496338606 0.0015834379369327918 0.013251538498830791 0.9930894077878065 -0.0648416670474365 0.005614797102708043 0.027234468613865675
0.1059090909091 0.005987046596351592 0.028960914613963454 0.9925981827037745 -0.06875269519734546 0.0017317798099135916 0.014031955041002851 -0.0014909865628580804 -0.008874469409652828
 0.9925981827037745 -0.06875269519734546 0.005985572442469347 0.02896086520258132 -0.001492113816858185 -0.008874399392412876 0.0017451102029801412 0.014030110739213272
 0.0017317798099135916 0.014031955041002851 -0.001492113816858185 -0.008874399392412876 0.005986732701682184 0.02896229826000933 0.9925982477087167 -0.06875126922137903
 -0.0014909865628580804 -0.008874469409652828 0.0017451102029801412 0.014030110739213272 0.9925982477087167 -0.06875126922137903 0.005985997029222042 0.028962234401480245
0.1062942892872 0.006011981497588146 0.02907478690446841 0.9925652110112609 -0.06900976589851689 0.0017425894091157702 0.014083069208114939 -0.0015002052419481437 -0.008906976005720449
 0.9925652110112609 -0.06900976589851689 0.006010496563196946 0.02907473685015419 -0.001501340515734867 -0.008906905055315254 0.0017560177975879392 0.014081208620076521
 0.0017425894091157702 0.014083069208114939 -0.001501340515734867 -0.008906905055315254 0.00601166530122563 0.029076175347718388 0.9925652764919882 -0.06900833463488208
 -0.0015002052419481437 -0.008906976005720449 0.0017560177975879392 0.014081208620076521 0.9925652764919882 -0.06900833463488208 0.006010924164879872 0.02907611073670805
0.11254689453939999 0.006426443520951049 0.030930798481803343 0.9920173943000751 -0.0731893693120659 0.0019230878087681854 0.014912455356419769 -0.00165416286054593 -0.009434443230286327
 0.9920173943000751 -0.0731893693120659 0.006424777985655472 0.030930737377229896 -0.0016554321023327908 -0.009434356162336606 0.0019381580177404896 0.014910316636071137
 0.0019230878087681854 0.014912455356419769 -0.0016554321023327908 -0.009434356162336606 0.006426088772239198 0.030932264472740018 0.9920174677797798 -0.07318785204210763
 -0.00165416286054593 -0.009434443230286327 0.0019381580177404896 0.014910316636071137 0.9920174677797798 -0.07318785204210763 0.006425255946315538 0.030932186890183972
0.11879949979160001 0.006859401263485641 0.03280097203058586 0.9914456216178168 -0.07738162151679405 0.002113118902424305 0.0157411658500833 -0.0018163042983674535 -0.009961465833406676
 0.9914456216178168 -0.07738162151679405 0.006857544516729692 0.032800898688625825 -0.001817714607147954 -0.00996136075919857 0.002129927461513535 0.015738722121294322
 0.002113118902424305 0.0157411658500833 -0.001817714607147954 -0.00996136075919857 0.0068590057099939435 0.03280251493893065 0.991445703624296 -0.07738001790159359
 -0.0018163042983674535 -0.009961465833406676 0.002129927461513535 0.015738722121294322 0.991445703624296 -0.07738001790159359 0.006858075493120566 0.03280242290763839
0.1250521050438 0.007311135679988272 0.034685031873671036 0.9908496166327098 -0.08158631185938073 0.0023127489421310168 0.016569058752112585 -0.0019866977078005703 -0.010487903106435293
 0.9908496166327098 -0.08158631185938073 0.007309077046260474 0.0346849450635046 -0.001988256123739228 -0.010487778048753477 0.0023313926343485774 0.01656628177002456
 0.0023127489421310168 0.016569058752112585 -0.001988256123739228 -0.010487778048753477 0.007310697057822632 0.03468665104490087 0.9908497077082559 -0.081584621536901
 -0.0019866977078005703 -0.010487903106435293 0.0023313926343485774 0.01656628177002456 0.9908497077082559 -0.081584621536901 0.007309663669259478 0.03468654301464977
0.131304710296 0.007781925440512681 0.03658270012968142 0.9902291048716653 -0.08580322096138303 0.002522041745030742 0.01739598933272251 -0.0021654087530040464 -0.011013611957985739
 0.9902291048716653 -0.08580322096138303 0.007779654173504763 0.036582598577804326 -0.002167122256678885 -0.01101346485124704 0.0025426175945978562 0.01739284946703906
 0.002522041745030742 0.01739598933272251 -0.002167122256678885 -0.01101346485124704 0.007781441472428344 0.03658439488221783 0.9902292055740253 -0.08580144354996276
 -0.0021654087530040464 -0.011013611957985739 0.0025426175945978562 0.01739284946703906 0.9902292055740253 -0.08580144354996276 0.007780299047156847 0.036584269230129904
0.1375573155481 0.008163665671941813 0.03824570144504036 0.9896922374293503 -0.08978401728525437 0.002714408034356464 0.018196770276224915 -0.0023258234171449547 -0.011513440034959903
 0.9896922374293503 -0.08978401728525437 0.008161169249503431 0.038245588859247365 -0.002327702027875682 -0.011513270713751352 0.00273695598387292 0.018193272296042253
 0.002714408034356464 0.018196770276224915 -0.002327702027875682 -0.011513270713751352 0.008163133063348387 0.03824747193102053 0.9896923482059732 -0.08978215255528313
 -0.0023258234171449547 -0.011513440034959903 0.00273695598387292 0.018193272296042253 0.9896923482059732 -0.08978215255528313 0.008161876188048926 0.038247330575389905
0.1438099208003 0.008558821688214834 0.039900001150373524 0.9891365193472651 -0.09375479210642008 0.002914543118987685 0.018994400213744742 -0.002492660832780216 -0.012010362437049362
 0.9891365193472651 -0.09375479210642008 0.008556088965770155 0.03989987679241217 -0.0024947119931989998 -0.012010168879608 0.002939150223899264 0.018990517136993935
 0.002914543118987685 0.018994400213744742 -0.0024947119931989998 -0.012010168879608 0.00855823795790663 0.03990184673451718 0.9891366407554689 -0.09375283968301895
 -0.002492660832780216 -0.012010362437049362 0.002939150223899264 0.018990517136993935 0.9891366407554689 -0.09375283968301895 0.008556860755158643 0.0399016884166385
0.1500625260525 0.008967255521349898 0.04154546290289438 0.98856209269378 -0.09771544888159381 0.0031223787309173174 0.019788800587329958 -0.0026658542702624978 -0.012504303959850306
 0.98856209269378 -0.09771544888159381 0.008964275271400231 0.04154532602456864 -0.0026680854025978445 -0.012504084063926911 0.003149131617332774 0.01978450443565364
 0.0031223787309173174 0.019788800587329958 -0.0026680854025978445 -0.012504084063926911 0.008966618163088776 0.0415473829291804 0.9885622253043373 -0.0977134083749043
 -0.0026658542702624978 -0.012504303959850306 0.003149131617332774 0.01978450443565364 0.9885622253043373 -0.0977134083749043 0.008965114686646177 0.04154720635293308
0.15631513130469998 0.009388828236269159 0.04318195448586563 0.9879691002488722 -0.10166589136551524 0.003337845802558659 0.02057989416201824 -0.002845336183455957 -0.01299519098105437
 0.9879691002488722 -0.10166589136551524 0.009385589145771494 0.04318180433144145 -0.002847754689155908 -0.012994942564363832 0.0033668306631699247 0.020575155968784203
