! Created with skrf 1.8.0 (http://scikit-rf.org).
# GHz S RI R 50.0 
!freq ReS11 ImS11 ReS12 ImS12 ReS13 ImS13
! ReS14 ImS14
! ReS21 ImS21 ReS22 ImS22 ReS23 ImS23
! ReS24 ImS24
! ReS31 ImS31 ReS32 ImS32 ReS33 ImS33
! ReS34 ImS34
! ReS41 ImS41 ReS42 ImS42 ReS43 ImS43
! ReS44 ImS44
!
0.0 0.001809145575207 0.0 0.9981908544133 0.0 7.07501977077e-05 0.0 -7.075019806912e-05 8.664400360438905e-21
 0.9981908544133 0.0 0.001809145575144 0.0 -7.075019806789e-05 8.664400360288274e-21 7.075019770765e-05 0.0
 7.07501977077e-05 0.0 -7.075019806789e-05 8.664400360288274e-21 0.001809145576684 0.0 0.9981908544148 0.0
 -7.075019806912e-05 8.664400360438905e-21 7.075019770765e-05 0.0 0.9981908544148 0.0 0.001809145576682 0.0
0.005 0.0019475068463359053 0.0014694310617491648 0.9980156150776105 -0.003789248549976314 0.00010120914714902064 0.0008385521312586915 -9.783245960527495e-05 -0.0005158571019038177
 0.9980156150776105 -0.003789248549976314 0.00194751237832925 0.0014694278544399614 -9.783352204890413e-05 -0.0005158579817610677 0.0001011737085806975 0.0008385657116274857
 0.00010120914714902064 0.0008385521312586915 -9.783352204890413e-05 -0.0005158579817610677 0.0019475056232045086 0.0014693645616679477 0.9980156146946921 -0.003789315610733787
 -9.783245960527495e-05 -0.0005158571019038177 0.0001011737085806975 0.0008385657116274857 0.9980156146946921 -0.003789315610733787 0.0019475128540991855 0.001469360253518045
0.006252605252188 0.001984067681453324 0.0018425764810516064 0.9979689690205925 -0.004737447717768575 0.00011008113761784945 0.001048549567679742 -0.00010562248333633939 -0.0006454842340416234
 0.9979689690205925 -0.004737447717768575 0.0019840763286447767 0.0018425723869158338 -0.00010562413607107992 -0.0006454853199306359 0.00011002576963161365 0.0010485672045578017
 0.00011008113761784945 0.001048549567679742 -0.00010562413607107992 -0.0006454853199306359 0.001984065845083663 0.0018424933708840938 0.9979689684976509 -0.0047375315452399475
 -0.00010562248333633939 -0.0006454842340416234 0.00011002576963161365 0.0010485672045578017 0.9979689684976509 -0.0047375315452399475 0.0019840771488360102 0.0018424878869336217
0.01250521050438 0.0021781198466199075 0.003723700285681389 0.9977195249129072 -0.009475424350036237 0.00016185659774559726 0.0020971335965432013 -0.00015059293141401637 -0.001293959406046845
 0.9977195249129072 -0.009475424350036237 0.002178154368711728 0.003723691245668452 -0.0001505994382055929 -0.0012939614239846292 0.00016163584020631124 0.0020971760907379225
 0.00016185659774559726 0.0020971335965432013 -0.0001505994382055929 -0.0012939614239846292 0.002178113057781706 0.0037235345108441215 0.9977195233680348 -0.009475591797293247
 -0.00015059293141401637 -0.001293959406046845 0.00016163584020631124 0.0020971760907379225 0.9977195233680348 -0.009475591797293247 0.002178158203744941 0.0037235225339010535
0.01875781575657 0.00239178244889543 0.005631378012190478 0.997442172391763 -0.014225402081051075 0.00022620373597674785 0.003146470965627861 -0.00020581363598717544 -0.001944364375077576
 0.997442172391763 -0.014225402081051075 0.002391860010125267 0.005631363131639354 -0.00020582813701864317 -0.001944367139704263 0.00022570791756224403 0.0031465471415811474
 0.00022620373597674785 0.003146470965627861 -0.00020582813701864317 -0.001944367139704263 0.0023917676136078064 0.005631129994762487 0.9974421693333306 -0.014225653152684283
 -0.00020581363598717544 -0.001944364375077576 0.00022570791756224403 0.0031465471415811474 0.9974421693333306 -0.014225653152684283 0.0023918690792401453 0.0056311104130777395
0.02501042100875 0.0026255180265982057 0.007562843876157077 0.9971365466336458 -0.018989608337119747 0.00030325132208740225 0.004196569295928666 -0.00027142994324718604 -0.002596339430310341
 0.9971365466336458 -0.018989608337119747 0.0026256557500928908 0.00756282222251487 -0.0002714555378406664 -0.0025963427214860456 0.0003023707925512193 0.004196689532312062
 0.00030325132208740225 0.004196569295928666 -0.0002714555378406664 -0.0025963427214860456 0.002625492058228083 0.007562514153693295 0.9971365415608581 -0.018989943110313975
 -0.00027142994324718604 -0.002596339430310341 0.0003023707925512193 0.004196689532312062 0.9971365415608581 -0.018989943110313975 0.0026256722878972936 0.007562485759680084
0.03126302626094 0.002879769674938514 0.009516636024531212 0.9968022665370516 -0.023768949473734768 0.0003931279053877023 0.005247331102692882 -0.00034758185842782944 -0.0032496201811716466
 0.9968022665370516 -0.023768949473734768 0.0028799846537499608 0.009516606628447595 -0.00034762161183364733 -0.003249623743677202 0.0003917529380988025 0.0052475073408360905
 0.0003931279053877023 0.005247331102692882 -0.00034762161183364733 -0.003249623743677202 0.002879729493544715 0.009516225252379015 0.9968022589360926 -0.023769368096665824
 -0.00034758185842782944 -0.0032496201811716466 0.0003917529380988025 0.0052475073408360905 0.9968022589360926 -0.023769368096665824 0.0028800109113392225 0.009516186743021588
0.037515631513130004 0.003154969950057815 0.011491772149811265 0.9964389440557948 -0.028563835115536635 0.0004959603933214385 0.00629861680706242 -0.0004344051273188781 -0.0039039745960209697
 0.9964389440557948 -0.028563835115536635 0.003155279254318974 0.01149173400566385 -0.0004344620741790174 -0.0039039781395202276 0.0004939811448144653 0.006298862565523422
 0.0004959603933214385 0.00629861680706242 -0.0004344620741790174 -0.0039039781395202276 0.003154912491166464 0.011491281110417466 0.9964389334039402 -0.02856433779861224
 -0.0004344051273188781 -0.0039039745960209697 0.0004939811448144653 0.006298862565523422 0.9964389334039402 -0.02856433779861224 0.003155317508673108 0.011491231087045672
0.043768236765320004 0.003451544295596108 0.0134874986158582 0.9960461880560346 -0.03337442897345366 0.0006118733620343038 0.007350263912627137 -0.000532031599136952 -0.004559183878710205
 0.9960461880560346 -0.03337442897345366 0.0034519649788503294 0.013487450682078055 -0.0005321087455425441 -0.0045591870778106764 0.0006091798563009116 0.007350594303567791
 0.0006118733620343038 0.007350263912627137 -0.0005321087455425441 -0.0045591870778106764 0.003451466508420314 0.01348692822636928 0.9960461738161455 -0.03337501598257857
 -0.000532031599136952 -0.004559183878710205 0.0006091798563009116 0.007350594303567791 0.9960461738161455 -0.03337501598257857 0.003452017531443759 0.013486865193999116
0.050020842017509996 0.0037699125999321533 0.015503186794915687 0.9956236063099575 -0.038200752451628635 0.0007409886283211491 0.008402094948055418 -0.0006405893311848063 -0.005215034585494648
 0.9956236063099575 -0.038200752451628635 0.0037704617049192594 0.015503127994124106 -0.000640689655989204 -0.005215037079812778 0.0007374707540242845 0.008402526694356417
 0.0007409886283211491 0.008402094948055418 -0.000640689655989204 -0.005215037079812778 0.003769811450791531 0.015502538108360445 0.995623587928719 -0.03820142410758875
 -0.0006405893311848063 -0.005215034585494648 0.0007374707540242845 0.008402526694356417 0.995623587928719 -0.03820142410758875 0.003770530885056757 0.015502460474895478
0.055454545454549996 0.00406460616578811 0.01727066031053484 0.9952318432611519 -0.04240769547331198 0.0008640078885493186 0.009316171167265788 -0.0007439034124246536 -0.005785345045956259
 0.9952318432611519 -0.04240769547331198 0.004065280709910576 0.017270591163067478 -0.0007440262787647413 -0.0057853466080084615 0.0008596840879728492 0.009316705839482851
 0.0008640078885493186 0.009316171167265788 -0.0007440262787647413 -0.0057853466080084615 0.004064482266242346 0.01726994454091651 0.9952318208175098 -0.04240844099470456
 -0.0007439034124246536 -0.005785345045956259 0.0008596840879728492 0.009316705839482851 0.9952318208175098 -0.04240844099470456 0.004065366254645721 0.017269852849430008
0.056273447269699996 0.004110489964282338 0.01753828219893604 0.9951708067046526 -0.04304273546585476 0.0008834249323450118 0.009453921373539943 -0.000760202582554951 -0.005871314786456823
 0.9951708067046526 -0.04304273546585476 0.004111184528619789 0.017538211417787816 -0.0007603290383676104 -0.005871316180704588 0.0008789724481865732 0.009454472826141602
 0.0008834249323450118 0.009453921373539943 -0.0007603290383676104 -0.005871316180704588 0.004110362439419177 0.01753755640179999 0.9951707836103784 -0.043043492147232736
 -0.000760202582554951 -0.005871314786456823 0.0008789724481865732 0.009454472826141602 0.9951707836103784 -0.043043492147232736 0.00411127269530958 0.017537462476935883
0.06252605252188 0.0044736870866166276 0.019592276512847912 0.9946873980731317 -0.04790024436813141 0.0010392976786879563 0.01050554575552183 -0.000890991748881612 -0.006527811968033215
 0.9946873980731317 -0.04790024436813141 0.004474544147847414 0.019592192601823575 -0.000891147262611257 -0.006527811832109925 0.0010338002239996767 0.010506236910752738
 0.0010392976786879563 0.01050554575552183 -0.000891147262611257 -0.006527811832109925 0.0044735301950669425 0.019591474933151165 0.9946873696737953 -0.047901086503746235
 -0.000890991748881612 -0.006527811968033215 0.0010338002239996767 0.010506236910752738 0.9946873696737953 -0.047901086503746235 0.004474653692867422 0.0195913629271408
0.06877865777407 0.004859910427881395 0.0216646909487406 0.994172990812672 -0.05277309856049912 0.0012087187085108942 0.011556763075097645 -0.0010330732646652086 -0.0071843118119143705
 0.994172990812672 -0.05277309856049912 0.0048609470286058235 0.021664592721630797 -0.0010332607379543945 -0.007184309680995318 0.0012020658176597554 0.011557615591906201
 0.0012087187085108942 0.011556763075097645 -0.0010332607379543945 -0.007184309680995318 0.0048597212049418925 0.021663815050557353 0.994172956494412 -0.05277402663515995
 -0.0010330732646652086 -0.0071843118119143705 0.0012020658176597554 0.011557615591906201 0.994172956494412 -0.05277402663515995 0.004861080379492365 0.021663683072733725
0.07503126302626001 0.005269562253940481 0.02375506568880561 0.9936271973844171 -0.05766108103062973 0.0013917960912929617 0.012607361579676502 -0.0011865594849655497 -0.007840597441252588
 0.9936271973844171 -0.05766108103062973 0.00527079544711394 0.023754951922114097 -0.0011867817945103892 -0.007840592815897376 0.0013838772109176273 0.012608398796637376
 0.0013917960912929617 0.012607361579676502 -0.0011867817945103892 -0.007840592815897376 0.005269337762863124 0.023754117074635844 0.9936271565077435 -0.057662095582965305
 -0.0011865594849655497 -0.007840597441252588 0.0013838772109176273 0.012608398796637376 0.9936271565077435 -0.057662095582965305 0.005270955068092883 0.02375396313174629
0.08128386827845 0.005703040595586508 0.02586295288370201 0.99304963273578 -0.06256394534389126 0.0015886339276584348 0.013657123371022012 -0.0013515585551765641 -0.008496448941476211
 0.99304963273578 -0.06256394534389126 0.005704487449184603 0.02586282231578467 -0.0013518185528555034 -0.008496441287720405 0.0015793384361697546 0.013658370323075687
 0.0015886339276584348 0.013657123371022012 -0.0013518185528555034 -0.008496441287720405 0.005702777931804175 0.02586193329508551 0.9930495846349238 -0.06256504696582148
 -0.0013515585551765641 -0.008496448941476211 0.0015793384361697546 0.013658370323075687 0.9930495846349238 -0.06256504696582148 0.005704675845312895 0.02586175528947975
0.08753647353064001 0.006160739156953955 0.027987911817289254 0.9924399146760944 -0.0674814204812485 0.001799332161061164 0.01470582483204274 -0.0015281742710878021 -0.009151643053629853
 0.9924399146760944 -0.0674814204812485 0.0061624167598328975 0.027987763147216026 -0.001528474784180867 -0.009151631803078453 0.0017885493901897698 0.014707308266862696
 0.001799332161061164 0.01470582483204274 -0.001528474784180867 -0.009151631803078453 0.006160435450393624 0.02798682313725524 0.992439858655294 -0.06748260981532375
 -0.0015281742710878021 -0.009151643053629853 0.0017885493901897698 0.014707308266862696 0.992439858655294 -0.06748260981532375 0.006162636477875117 0.02798661886479448
0.09378907878283 0.006643047185768007 0.03012950547261155 0.9917976642178411 -0.07241321428844608 0.002023986394821798 0.015753236954781143 -0.0017165059337502942 -0.009805952977974394
 0.9917976642178411 -0.07241321428844608 0.006644972652302091 0.0301293373589814 -0.0017168497649490493 -0.009805937527910622 0.0020116056524152846 0.015754985348865998
 0.002023986394821798 0.015753236954781143 -0.0017168497649490493 -0.009805937527910622 0.006642699604557313 0.030128349720791623 0.9917975995498443 -0.07241449203256993
 -0.0017165059337502942 -0.009805952977974394 0.0020116056524152846 0.015754985348865998 0.9917975995498443 -0.07241449203256993 0.006645226284169267 0.030128116868654013
0.100041684035 0.007150349318215881 0.032287298021247426 0.9911225058964995 -0.07735901601520832 0.002262687713134837 0.0167991256042234 -0.001916648200055491 -0.010459148253667689
 0.9911225058964995 -0.07735901601520832 0.0071525397936913005 0.0322871090806333 -0.0019170381274937636 -0.010459127967163532 0.002248598307624128 0.016801169178478747
 0.002262687713134837 0.0167991256042234 -0.0019170381274937636 -0.010459127967163532 0.007149955071921017 0.03228607735962229 0.9911224318201808 -0.07736038291641806
 -0.001916648200055491 -0.010459148253667689 0.002248598307624128 0.016801169178478747 0.9911224318201808 -0.07736038291641806 0.007152829978710769 0.03228581350376751
0.1059090909091 0.0076494688589106566 0.03432650135715692 0.9904586809798157 -0.08201257495315778 0.002499536269742991 0.017778982716541044 -0.002115282214801076 -0.011070880416432909
 0.9904586809798157 -0.08201257495315778 0.0076519236422935505 0.034326291575518635 -0.0021157179033849385 -0.011070854981770522 0.002483742815187267 0.01778133233893313
 0.002499536269742991 0.017778982716541044 -0.0021157179033849385 -0.011070854981770522 0.00764902832396693 0.03432522187387998 0.9904585973500829 -0.08201402624534909
 -0.002115282214801076 -0.011070880416432909 0.002483742815187267 0.01778133233893313 0.9904585973500829 -0.08201402624534909 0.007652250573646966 0.03432492661829333
0.1062942892872 0.007683025404474301 0.0344608529536852 0.9904140680746425 -0.08231849822682755 0.0025155225058775526 0.017843251738554625 -0.002128690930362054 -0.01111099469388044
 0.9904140680746425 -0.08231849822682755 0.007685498069783369 0.034460641758984153 -0.002129129707499759 -0.011110968899891624 0.002499613771663876 0.017845622473507513
 0.0025155225058775526 0.017843251738554625 -0.002129129707499759 -0.011110968899891624 0.007682581747008999 0.034459569683208846 0.9904139837924053 -0.08231995508413745
 -0.002128690930362054 -0.01111099469388044 0.002499613771663876 0.017845622473507513 0.9904139837924053 -0.08231995508413745 0.00768582749750842 0.034459272285730945
0.11254689453939999 0.00824145031861505 0.03664973166578277 0.9896719832335923 -0.08729131827369804 0.0027825722954735992 0.01888537160209331 -0.0023527190345989267 -0.011761254360419695
 0.9896719832335923 -0.08729131827369804 0.008244222396209045 0.036649496744157434 -0.0023532093903431326 -0.011761222353916825 0.0027647336197163777 0.018888103252602765
 0.0027825722954735992 0.01888537160209331 -0.0023532093903431326 -0.011761222353916825 0.00824095455182076 0.03664838822528739 0.9896718879089035 -0.087292865938406
 -0.0023527190345989267 -0.011761254360419695 0.0027647336197163777 0.018888103252602765 0.9896718879089035 -0.087292865938406 0.008244593807983092 0.03664805463148249
0.11879949979160001 0.0088259937584769 0.0388534923705483 0.9888958882567888 -0.09227711944946748 0.003063913566918247 0.019925236901226516 -0.002588812317131365 -0.012409685567669089
 0.9888958882567888 -0.09227711944946748 0.008829082516821898 0.03885323220138118 -0.002589356955563891 -0.01240964660974765 0.003044034416961606 0.019928365010743125
 0.003063913566918247 0.019925236901226516 -0.002589356955563891 -0.01240964660974765 0.00882544323537092 0.038852091339820385 0.9888957810119847 -0.09227875882116329
 -0.002588812317131365 -0.012409685567669089 0.003044034416961606 0.019928365010743125 0.9888957810119847 -0.09227875882116329 0.008829498709488235 0.0388517187750622
0.1250521050438 0.009437020036398514 0.041071689259698334 0.9880854247066808 -0.09727553191407905 0.0033596175994686653 0.020962594966461058 -0.002837045321171617 -0.01305604291286079
 0.9880854247066808 -0.09727553191407905 0.009440442795594407 0.041071402272060846 -0.0028376469216130295 -0.013055996230828978 0.003337587551439715 0.020966156880694718
 0.0033596175994686653 0.020962594966461058 -0.0028376469216130295 -0.013055996230828978 0.009436412164623948 0.04107023335724946 0.9880853046203502 -0.09727726394176335
 -0.002837045321171617 -0.01305604291286079 0.003337587551439715 0.020966156880694718 0.9880853046203502 -0.09727726394176335 0.009440906622927975 0.041069818923617336
0.131304710296 0.010074887862870401 0.04330387184128126 0.9872402390966603 -0.10228617345552307 0.003669750300892221 0.0219971889084787 -0.0030974871734759974 -0.01370007732484382
 0.9872402390966603 -0.10228617345552307 0.010078661999811826 0.043303556411258305 -0.003098148390202446 -0.01370002211239712 0.0036454590690686356 0.022001223788596258
 0.003669750300892221 0.0219971889084787 -0.003098148390202446 -0.01370002211239712 0.010074220108333738 0.04330236392503959 0.9872401052014985 -0.10228799913561264
 -0.0030974871734759974 -0.01370007732484382 0.0036454590690686356 0.022001223788596258 0.9872401052014985 -0.10228799913561264 0.01007917637593306 0.04330190459770834
0.1375573155481 0.010603294570778885 0.0452569359165209 0.9864967103511081 -0.10701581430647511 0.00395846379617765 0.023000175905147364 -0.0033343252748273 -0.014312961379814842
 0.9864967103511081 -0.10701581430647511 0.010607439690953761 0.04525659868798848 -0.0033350502511955136 -0.014312897489470913 0.003931853758041366 0.023004681631449034
 0.00395846379617765 0.023000175905147364 -0.0033350502511955136 -0.014312897489470913 0.010602565111878818 0.045255378213268006 0.9864965619630451 -0.10701773430342504
 -0.0033343252748273 -0.014312961379814842 0.003931853758041366 0.023004681631449034 0.9864965619630451 -0.10701773430342504 0.010608006328030193 0.045254880028574807
0.1438099208003 0.011150522179810236 0.047197780202538134 0.9857265052001324 -0.1117315425985154 0.004258785461887241 0.0239979458512456 -0.003580564559291698 -0.014921091373906703
 0.9857265052001324 -0.1117315425985154 0.01115505608702001 0.04719742005855087 -0.003581356181075745 -0.014921017998033076 0.0042297560159122345 0.02400295863546123
 0.004258785461887241 0.0239979458512456 -0.003581356181075745 -0.014921017998033076 0.01114972869407711 0.04719617565609338 0.985726341342822 -0.11173355790133911
 -0.003580564559291698 -0.014921091373906703 0.0042297560159122345 0.02400295863546123 0.985726341342822 -0.11173355790133911 0.011155677770944552 0.047195636144320555
0.1500625260525 0.011716346959983862 0.049126186563253696 0.9849298527682421 -0.11643318414321592 0.004570591721828555 0.02499035888276577 -0.0038360851546659093 -0.01552433728115326
 0.9849298527682421 -0.11643318414321592 0.011721287526439939 0.049125802304754836 -0.0038369463013212452 -0.01552425357927178 0.004539043001026006 0.02499591626140271
 0.004570591721828555 0.02499035888276577 -0.0038369463013212452 -0.01552425357927178 0.011715487189855905 0.049124538232525466 0.9849296724258744 -0.11643529577404076
 -0.0038360851546659093 -0.01552433728115326 0.004539043001026006 0.02499591626140271 0.9849296724258744 -0.11643529577404076 0.0117219670884005 0.049123954788958604
0.15631513130469998 0.012300543211002254 0.05104194342622831 0.9841069837747259 -0.12112056670406603 0.004893757310218354 0.025977277973298577 -0.004100765505322024 -0.016122572246119557
 0.9841069837747259 -0.12112056670406603 0.012305908378918783 0.05104153376884373 -0.0041016990500235655 -0.016122477344975513 0.0048595901952821 0.025983418791561436
