! Created with skrf 1.8.0 (http://scikit-rf.org).
# GHz S RI R 50.0 
!freq ReS11 ImS11 ReS12 ImS12 ReS13 ImS13
! ReS14 ImS14
! ReS21 ImS21 ReS22 ImS22 ReS23 ImS23
! ReS24 ImS24
! ReS31 ImS31 ReS32 ImS32 ReS33 ImS33
! ReS34 ImS34
! ReS41 ImS41 ReS42 ImS42 ReS43 ImS43
! ReS44 ImS44
!
0.0 0.001413454645966 0.0 0.998586545354 0.0 5.435853099494e-05 0.0 -5.435853100572e-05 6.657000100250716e-21
 0.998586545354 0.0 0.00141345464595 0.0 -5.435853100551e-05 6.657000100224998e-21 5.435853099412e-05 0.0
 5.435853099494e-05 0.0 -5.435853100551e-05 6.657000100224998e-21 0.001413454640361 0.0 0.9985865453484 0.0
 -5.435853100572e-05 6.657000100250716e-21 5.435853099412e-05 0.0 0.9985865453484 0.0 0.001413454640353 0.0
0.005 0.001520431035391539 0.001155564001270238 0.9984512707654927 -0.0029612536230837015 7.607524256343808e-05 0.0006053389883877241 -7.391602012137511e-05 -0.0003788993883551761
 0.9984512707654927 -0.0029612536230837015 0.0015204233482788217 0.0011555684458579112 -7.391627963522036e-05 -0.00037889952361230437 7.61083835026283e-05 0.0006053261223315453
 7.607524256343808e-05 0.0006053389883877241 -7.391627963522036e-05 -0.00037889952361230437 0.0015204308792438831 0.0011554967889071367 0.9984512704187257 -0.002961320674456142
 -7.391602012137511e-05 -0.0003788993883551761 7.61083835026283e-05 0.0006053261223315453 0.9984512704187257 -0.002961320674456142 0.0015204228091428836 0.001155501551695544
0.006252605252188 0.0015483868306424137 0.0014490197617655135 0.9984157157748299 -0.0037023078424584426 8.221076149837617e-05 0.0007569713013625808 -7.939005552435581e-05 -0.00047412160074389276
 0.9984157157748299 -0.0037023078424584426 0.001548374815383444 0.0014490254743375417 -7.939045987000403e-05 -0.0004741217661941367 8.226253840092332e-05 0.0007569546430542471
 8.221076149837617e-05 0.0007569713013625808 -7.939045987000403e-05 -0.0004741217661941367 0.0015483866641629867 0.0014489357251566285 0.9984157153098762 -0.0037023916703229497
 -7.939005552435581e-05 -0.00047412160074389276 8.226253840092332e-05 0.0007569546430542471 0.9984157153098762 -0.0037023916703229497 0.0015483740493613335 0.0014489418473805243
0.01250521050438 0.001694964728137951 0.002928582533246838 0.998228153811701 -0.007405526634752572 0.000117033662233531 0.0015143285234835281 -0.00011019262394824061 -0.0009506136683698125
 0.998228153811701 -0.007405526634752572 0.0016949167644995922 0.0029285955514189903 -0.00011019422374294829 -0.0009506139592049252 0.00011724005001526929 0.0015142889990417512
 0.000117033662233531 0.0015143285234835281 -0.00011019422374294829 -0.0009506139592049252 0.0016949646265365453 0.002928414647288045 0.9982281525123409 -0.007405694015756613
 -0.00011019262394824061 -0.0009506136683698125 0.00011724005001526929 0.0015142889990417512 0.9982281525123409 -0.007405694015756613 0.0016949142543074332 0.0029284286083391875
0.01875781575657 0.001853487431013758 0.004429401552159483 0.9980236411821531 -0.011118692430938873 0.0001589052926067855 0.0022726006450265097 -0.00014685673811077346 -0.00142879506909675
 0.9980236411821531 -0.011118692430938873 0.0018533796790118498 0.004429423585596688 -0.00014686031456366124 -0.0014287954359748596 0.00015936871898484717 0.0022725308561558893
 0.0001589052926067855 0.0022726006450265097 -0.00014686031456366124 -0.0014287954359748596 0.0018534876361378718 0.004429149811538056 0.9980236386836501 -0.01111894324886411
 -0.00014685673811077346 -0.00142879506909675 0.00015936871898484717 0.0022725308561558893 0.9980236386836501 -0.01111894324886411 0.0018533744428223325 0.004429173462155006
0.02501042100875 0.002024246352566526 0.0059493964871388 0.9978019515783075 -0.014843626594686795 0.00020790457268284664 0.0030318360694377164 -0.00018947030473148493 -0.0019084606819805882
 0.9978019515783075 -0.014843626594686795 0.0020240550384127 0.005949429358752304 -0.00018947663270026233 -0.001908461065666535 0.00020872738997345673 0.003031727487188843
 0.00020790457268284664 0.0030318360694377164 -0.00018947663270026233 -0.001908461065666535 0.002024247115584159 0.005949060820897207 0.9978019475206263 -0.014843960764994533
 -0.00018947030473148493 -0.0019084606819805882 0.00020872738997345673 0.003031727487188843 0.9978019475206263 -0.014843960764994533 0.002024046089052668 0.005949096142595
0.03126302626094 0.0022075207781674026 0.007487507580579976 0.9975628464179468 -0.01858112162183051 0.0002641109490791531 0.003792013079244294 -0.00023811897006216297 -0.0023894709822593974
 0.9975628464179468 -0.01858112162183051 0.0022072221842213656 0.007487553226323313 -0.0002381288191427407 -0.0023894713134839374 0.000265395538141994 0.003791856041615136
 0.0002641109490791531 0.003792013079244294 -0.0002381288191427407 -0.0023894713134839374 0.002207522354077701 0.007487087887811885 0.9975628404405291 -0.018581539055867204
 -0.00023811897006216297 -0.0023894709822593974 0.000265395538141994 0.003791856041615136 0.9975628404405291 -0.018581539055867204 0.002207208524081194 0.007487136993040217
0.037515631513130004 0.0024035840937202163 0.009043052043909174 0.9973060812372181 -0.02233158468744788 0.00032760367610922176 0.004553082485508192 -0.0002928867544058196 -0.0028717093906485552
 0.9973060812372181 -0.02233158468744788 0.0024031545522403964 0.009043112513207502 -0.0002929008894876912 -0.0028717095900399553 0.00032945249437776094 0.004552866188648623
 0.00032760367610922176 0.004553082485508192 -0.0002929008894876912 -0.0028717095900399553 0.002403586744061643 0.009042548184910494 0.9973060729823359 -0.022332085301228384
 -0.0002928867544058196 -0.0028717093906485552 0.00032945249437776094 0.004552866188648623 0.9973060729823359 -0.022332085301228384 0.0024031351760128127 0.009042613317722267
0.043768236765320004 0.0026127061994784266 0.010615528194293632 0.9970314082687926 -0.02609523344436895 0.0003984614811021657 0.005314980585477788 -0.00035385628527716446 -0.00335506931047645
 0.9970314082687926 -0.02609523344436895 0.002612122088331638 0.010615605650289359 -0.0003538754668200928 -0.0033550692884842946 0.0004009770864851103 0.005314693072875279
 0.0003984614811021657 0.005314980585477788 -0.0003538754668200928 -0.0033550692884842946 0.002612710191433529 0.010614940002218382 0.9970313973812224 -0.02609581714676297
 -0.00035385628527716446 -0.00335506931047645 0.0004009770864851103 0.005314693072875279 0.9970313973812224 -0.02609581714676297 0.002612095982399303 0.010615023538934641
0.050020842017509996 0.0028351546365827326 0.012204534518897917 0.9967385777343797 -0.02987217689180674 0.0004767623667461399 0.006077634520716869 -0.00042110888600616265 -0.0038394487644251084
 0.9967385777343797 -0.02987217689180674 0.002834392376019755 0.012204631238871328 -0.0004211338701828486 -0.0038394484212638208 0.00048004742928853966 0.006077262671554576
 0.0004767623667461399 0.006077634520716869 -0.0004211338701828486 -0.0038394484212638208 0.00283516024203092 0.012203861793753398 0.9967385638613909 -0.029872843590486173
 -0.00042110888600616265 -0.0038394487644251084 0.00048004742928853966 0.006077262671554576 0.9967385638613909 -0.029872843590486173 0.0028343585178175253 0.012203966243728834
0.055454545454549996 0.0030394981250834465 0.013598587707582047 0.9964691580167816 -0.033165284480229124 0.0005509128330656905 0.006740956204466433 -0.0004847182554644752 -0.004261139501480312
 0.9964691580167816 -0.033165284480229124 0.0030385619283561176 0.013598703106981178 -0.00048474889313790826 -0.004261138790184425 0.0005549500476705661 0.006740499495281643
 0.0005509128330656905 0.006740956204466433 -0.00048474889313790826 -0.004261138790184425 0.0030395053570570654 0.01359784133687836 0.9964691412650558 -0.033166023224797295
 -0.0004847182554644752 -0.004261139501480312 0.0005549500476705661 0.006740499495281643 0.9964691412650558 -0.033166023224797295 0.003038520495927321 0.013597966102890616
0.056273447269699996 0.0030711951697163955 0.01380972993402317 0.9964273385962871 -0.03366245504972969 0.0005625834705897969 0.0068409648979311346 -0.0004947246035070945 -0.004324747770072416
 0.9964273385962871 -0.03366245504972969 0.0030702312194789924 0.013809848309889003 -0.0004947561422647819 -0.004324746995665784 0.0005667407760686937 0.006840494415084636
 0.0005625834705897969 0.0068409648979311346 -0.0004947561422647819 -0.004324746995665784 0.0030712026650022775 0.013808972447242456 0.996427321387992 -0.033663204646491425
 -0.0004947246035070945 -0.004324747770072416 0.0005667407760686937 0.006840494415084636 0.996427321387992 -0.033663204646491425 0.00307018857765882 0.013809100453622573
0.06252605252188 0.003321092108928988 0.015430811940398593 0.9960974390503867 -0.037466060738272335 0.00065600095522877 0.007604887234914458 -0.000574782202056914 -0.004810866892453101
 0.9960974390503867 -0.037466060738272335 0.0033199029655720464 0.015430954479232033 -0.0005748210431724462 -0.004810865566380831 0.0006611334040678189 0.0076043026327839046
 0.00065600095522877 0.007604887234914458 -0.0005748210431724462 -0.004810865566380831 0.0033211017741851074 0.015429969437882945 0.9960974181594311 -0.03746689312591171
 -0.000574782202056914 -0.004810866892453101 0.0006611334040678189 0.0076043026327839046 0.9960974181594311 -0.03746689312591171 0.0033198504992619613 0.0154301237785083
0.06877865777407 0.0035851084820654982 0.01706750361006888 0.9957486268730982 -0.04128295252797984 0.0007570899145778859 0.00836931281737923 -0.0006613591390155129 -0.005297706388268753
 0.9957486268730982 -0.04128295252797984 0.0035836706768079952 0.017067672934669445 -0.0006614060260234322 -0.005297704379715621 0.0007633005171313192 0.008368597409672333
 0.0007570899145778859 0.00836931281737923 -0.0006614060260234322 -0.005297704379715621 0.0035851206006305035 0.017066575806289456 0.9957486019556503 -0.041283867596126074
 -0.0006613591390155129 -0.005297706388268753 0.0007633005171313192 0.008368597409672333 0.9957486019556503 -0.041283867596126074 0.0035836073358254355 0.017066759394608663
0.07503126302626001 0.0038635061269091686 0.018719545314772906 0.9953806496913846 -0.045113062951027814 0.0008659242897251279 0.00913414924549485 -0.0007545315289250312 -0.005785165663148801
 0.9953806496913846 -0.045113062951027814 0.003861796223349358 0.018719744164325702 -0.000754587201080731 -0.005785162830858153 0.0008733161588967264 0.009133285133051224
 0.0008659242897251279 0.00913414924549485 -0.000754587201080731 -0.005785162830858153 0.003863520985096374 0.01871853189894627 0.9953806204068621 -0.04511406057992826
 -0.0007545315289250312 -0.005785165663148801 0.0008733161588967264 0.009133285133051224 0.9953806204068621 -0.04511406057992826 0.0038617209481520112 0.01871874778496656
0.08128386827845 0.004156545727173707 0.02038668924144421 0.9949932551984583 -0.0489563039283933 0.0009825767906974437 0.009899300797130754 -0.000854374099900477 -0.006273142915169353
 0.9949932551984583 -0.0489563039283933 0.004154540319508107 0.020386920472242193 -0.0008544392921772743 -0.006273139107391383 0.0009912531326998607 0.009898268855820314
 0.0009825767906974437 0.009899300797130754 -0.0008544392921772743 -0.006273139107391383 0.004156563613317908 0.020385589873881983 0.9949932212096992 -0.04895738399249856
 -0.000854374099900477 -0.006273142915169353 0.0009912531326998607 0.009898268855820314 0.9949932212096992 -0.04895738399249856 0.004154452040167413 0.020385841245256997
0.08753647353064001 0.004464486813688095 0.022068695584265673 0.9945861913388105 -0.052812570523646914 0.00110711882146215 0.010664668684106525 -0.0009609601454839042 -0.006761534888475932
 0.9945861913388105 -0.052812570523646914 0.004462162524362905 0.022068962170523367 -0.0009610355883797467 -0.0067615299429364655 0.0011171829248463284 0.010663448552823283
 0.00110711882146215 0.010664668684106525 -0.0009610355883797467 -0.0067615299429364655 0.004464508017837007 0.022067509900107786 0.9945861523122694 -0.05281373288785388
 -0.0009609601454839042 -0.006761534888475932 0.0011171829248463284 0.010663448552823283 0.9945861523122694 -0.05281373288785388 0.004462060161386982 0.0220678000831859
0.09378907878283 0.004787587741272177 0.02376532983057059 0.9941592064706424 -0.05668174360638389 0.0012396204079463808 0.011430151234297034 -0.00107436147183672 -0.007250236704259889
 0.9941592064706424 -0.05668174360638389 0.004784921219338976 0.02376563486519764 -0.0010744478913746365 -0.0072502304481077496 0.0012511756313286413 0.011428721303152471
 0.0012396204079463808 0.011430151234297034 -0.0010744478913746365 -0.0072502304481077496 0.004787612554542125 0.023764057436123063 0.9941591620769381 -0.056682988129735934
 -0.00107436147183672 -0.007250236704259889 0.0012511756313286413 0.011428721303152471 0.9941591620769381 -0.056682988129735934 0.004784803682715521 0.02376438989717263
0.100041684035 0.00512610564846933 0.02547636076760047 0.993712049515193 -0.060563691798380365 0.001380150127214484 0.012195644030308655 -0.0011946483426793775 -0.0077391417385550875
 0.993712049515193 -0.060563691798380365 0.005123073567522913 0.025476707463220196 -0.0011947464602482711 -0.007739133988332639 0.0013932998858480553 0.012193981428939068
 0.001380150127214484 0.012195644030308655 -0.0011947464602482711 -0.007739133988332639 0.005126134362706768 0.025475001244073463 0.9937119994290445 -0.060565018330290106
 -0.0011946483426793775 -0.0077391417385550875 0.0013932998858480553 0.012193981428939068 0.9937119994290445 -0.060565018330290106 0.005122939757079142 0.02547537959048482
0.1059090909091 0.00545801831622993 0.027094871081974132 0.9932738708041272 -0.06421798075724426 0.0015193836171793545 0.012913891818173182 -0.0013138483263041446 -0.008198015496114219
 0.9932738708041272 -0.06421798075724426 0.005454622002095963 0.027095259901351282 -0.0013139580731111513 -0.008198006167531899 0.0015341237708510233 0.012911988947207818
 0.0015193836171793545 0.012913891818173182 -0.0013139580731111513 -0.008198006167531899 0.005458050956427058 0.027093429390152104 0.993273815084446 -0.06421938410362003
 -0.0013138483263041446 -0.008198015496114219 0.0015341237708510233 0.012911988947207818 0.993273815084446 -0.06421938410362003 0.005454471910311955 0.02709385420286253
0.1062942892872 0.005480296403525821 0.02720155898584618 0.9932444700937139 -0.06445827292712289 0.0015287750378214751 0.012961040016822321 -0.0013218894217785987 -0.00822814153475783
 0.9932444700937139 -0.06445827292712289 0.0054768754599658215 0.02720195067575244 -0.0013219999540309453 -0.00822813209636379 0.00154362278920562 0.012959120602896751
 0.0015287750378214751 0.012961040016822321 -0.0013219999540309453 -0.00822813209636379 0.005480329310523562 0.027200111884790937 0.9932444139944115 -0.06445968131194924
 -0.0013218894217785987 -0.00822814153475783 0.00154362278920562 0.012959120602896751 0.9932444139944115 -0.06445968131194924 0.00547672426493224 0.027200539866389737
0.11254689453939999 0.005850414541206955 0.02894069572904393 0.9927562186588055 -0.0683653351363115 0.0016855606108401114 0.013726229585809645 -0.0014561517137317657 -0.008717125741845933
 0.9927562186588055 -0.0683653351363115 0.00584658145233357 0.028941135868313844 -0.0014562753724671 -0.008717114410505334 0.001702209839450908 0.01372402793378855
 0.0016855606108401114 0.013726229585809645 -0.0014562753724671 -0.008717114410505334 0.005850451932185654 0.028939160576573746 0.992756156230193 -0.0683668252092606
 -0.0014561517137317657 -0.008717125741845933 0.001702209839450908 0.01372402793378855 0.992756156230193 -0.0683668252092606 0.0058464117510940335 0.028939642087053137
0.11879949979160001 0.006236713191290224 0.030693542001843693 0.9922470466200516 -0.07228471774323542 0.0018505706612138833 0.014491100649099392 -0.0015975005034613095 -0.009205982068908167
 0.9922470466200516 -0.07228471774323542 0.006232444693587138 0.03069403416847469 -0.0015976379955029486 -0.009205968629139586 0.0018691248625019837 0.014488590039150128
 0.0018505706612138833 0.014491100649099392 -0.0015976379955029486 -0.009205968629139586 0.0062367553566595475 0.030691918296813076 0.9922469775511626 -0.07228628933215789
 -0.0015975005034613095 -0.009205982068908167 0.0018691248625019837 0.014488590039150128 0.9922469775511626 -0.07228628933215789 0.006232255353838924 0.030692457375172382
0.1250521050438 0.006639444001260423 0.032459867866018226 0.9917167064657054 -0.0762162519114679 0.0020238672796839105 0.01525553869726885 -0.0017459992943695782 -0.009694596256961523
 0.9917167064657054 -0.0762162519114679 0.0066347168485205174 0.03246041576220384 -0.0017461513213721841 -0.00969458048256426 0.0020444299432570896 0.015252691104506829
 0.0020238672796839105 0.01525553869726885 -0.0017461513213721841 -0.00969458048256426 0.006639491229632762 0.032458155080160644 0.9917166304507061 -0.07621790483687439
 -0.0017459992943695782 -0.009694596256961523 0.0020444299432570896 0.015252691104506829 0.9917166304507061 -0.07621790483687439 0.006634506727054136 0.032458755912195124
0.131304710296 0.007058857054036636 0.034239441869597396 0.9911649518822977 -0.08015976119522886 0.002205510764580189 0.016019426854548238 -0.0019017097457619033 -0.010182852058684065
 0.9911649518822977 -0.08015976119522886 0.007053648015477487 0.03424004932308875 -0.001901877004146777 -0.010182833712694 0.0022281853567914537 0.01601621293845326
 0.002205510764580189 0.016019426854548238 -0.001901877004146777 -0.010182833712694 0.007058909631899953 0.03423763944798077 0.9911648686207616 -0.08016149526991374
 -0.0019017097457619033 -0.010182852058684065 0.0022281853567914537 0.01601621293845326 0.9911648686207616 -0.08016149526991374 0.007053415957602869 0.03423830636803964
0.1375573155481 0.0073959662413373515 0.03579953083910507 0.9906908072855038 -0.08388246345076397 0.00237159824164193 0.01675894105532788 -0.002040712057273643 -0.010646957607625677
 0.9906908072855038 -0.08388246345076397 0.007390249318693015 0.03580018580365506 -0.0020408953862391522 -0.010646936672179237 0.0023964458887246283 0.016755366736584728
 0.00237159824164193 0.01675894105532788 -0.0020408953862391522 -0.010646936672179237 0.007396023616646572 0.035797638621923256 0.9906907164558518 -0.08388427850276942
 -0.002040712057273643 -0.010646957607625677 0.0023964458887246283 0.016755366736584728 0.9906907164558518 -0.08388427850276942 0.00738999503845011 0.03579835929650319
0.1438099208003 0.007744834429416063 0.037351922833185 0.9902001856468707 -0.08759626434866855 0.0025443954526783706 0.017495823167652604 -0.0021852884834027086 -0.011108631017080985
 0.9902001856468707 -0.08759626434866855 0.007738585963114721 0.03735262796118913 -0.0021854885977606667 -0.011108607264255702 0.0025715119209161587 0.017491861623772257
 0.0025443954526783706 0.017495823167652604 -0.0021854885977606667 -0.011108607264255702 0.0077448967325760044 0.037349940274754405 0.9902000869532555 -0.08759816018119493
 -0.0021852884834027086 -0.011108631017080985 0.0025715119209161587 0.017491861623772257 0.9902000869532555 -0.08759816018119493 0.007738308445704429 0.03735071779071682
0.1500625260525 0.008105346137373346 0.03889650369180798 0.98969320607685 -0.09130108770187163 0.0027238472617201466 0.018230009868485428 -0.002335385022709527 -0.011567811095228269
 0.98969320607685 -0.09130108770187163 0.00809854245864628 0.0388972617652828 -0.0023356026339623353 -0.011567784288194972 0.0027533278031634154 0.01822563329566824
 0.0027238472617201466 0.018230009868485428 -0.0023356026339623353 -0.011567784288194972 0.008105413486025408 0.038894430223051106 0.9896930992286579 -0.09130306411267054
 -0.002335385022709527 -0.011567811095228269 0.0027533278031634154 0.01822563329566824 0.9896930992286579 -0.09130306411267054 0.008098240688277013 0.038895267811800506
0.15631513130469998 0.00847738515037635 0.04043316276968899 0.9891699881970412 -0.09499685727728882 0.0029098979348378207 0.018961438828479005 -0.002490947055489106 -0.012024437882938057
