! Created with skrf 1.8.0 (http://scikit-rf.org).
# GHz S RI R 50.0 
!freq ReS11 ImS11 ReS12 ImS12 ReS13 ImS13
! ReS14 ImS14
! ReS21 ImS21 ReS22 ImS22 ReS23 ImS23
! ReS24 ImS24
! ReS31 ImS31 ReS32 ImS32 ReS33 ImS33
! ReS34 ImS34
! ReS41 ImS41 ReS42 ImS42 ReS43 ImS43
! ReS44 ImS44
!
0.0 0.001660882994269 0.0 0.9983391170057 0.0 6.428644077927e-05 0.0 -6.428644009193e-05 7.872818308716015e-21
 0.9983391170057 0.0 0.001660882994253 0.0 -6.42864400911e-05 7.87281830861437e-21 6.428644078041e-05 0.0
 6.428644077927e-05 0.0 -6.42864400911e-05 7.87281830861437e-21 0.001660882980657 0.0 0.9983391169921 0.0
 -6.428644009193e-05 7.872818308716015e-21 6.428644078041e-05 0.0 0.9983391169921 0.0 0.001660882980685 0.0
0.005 0.0017873532799820954 0.0013578864554612121 0.9981790690875821 -0.003478769041778086 9.02908037003976e-05 0.00071130253837049 -8.770263627438573e-05 -0.0004458730592937857
 0.9981790690875821 -0.003478769041778086 0.00178733963738814 0.001357894491654122 -8.770293347654813e-05 -0.00044587335321069876 9.036606791058993e-05 0.0007112737639194853
 9.02908037003976e-05 0.00071130253837049 -8.770293347654813e-05 -0.00044587335321069876 0.0017873531628491124 0.0013579538518361987 0.9981790694613131 -0.0034787019758325366
 -8.770263627438573e-05 -0.0004458730592937857 9.036606791058993e-05 0.0007112737639194853 0.9981790694613131 -0.0034787019758325366 0.0017873404906809842 0.0013579612157992179
0.006252605252188 0.0018206339143297069 0.0017026867054762906 0.9981366741667184 -0.004349294835821447 9.776081144901975e-05 0.0008894655599726628 -9.436284035776508e-05 -0.0005579118273633184
 0.9981366741667184 -0.004349294835821447 0.0018206125882251685 0.0017026969397507374 -9.436330230627206e-05 -0.0005579121911192383 9.787840295608587e-05 0.0008894282005648756
 9.776081144901975e-05 0.0008894655599726628 -9.436330230627206e-05 -0.0005579121911192383 0.0018206336478993525 0.0017027709469896266 0.9981366746682864 -0.0043492110085503145
 -9.436284035776508e-05 -0.0005579118273633184 9.787840295608587e-05 0.0008894282005648756 0.9981366746682864 -0.0043492110085503145 0.0018206138397198802 0.0017027803277348908
0.01250521050438 0.001996477797917791 0.003440894983681454 0.9979111403323063 -0.008699270941820705 0.00014081554128713903 0.0017792443284773691 -0.00013241445247089525 -0.0011184585998545364
 0.9979111403323063 -0.008699270941820705 0.001996392636001513 0.0034409173746886724 -0.0001324162666256241 -0.001118459288110018 0.00014128442047178105 0.0017791545133495799
 0.00014081554128713903 0.0017792443284773691 -0.0001324162666256241 -0.001118459288110018 0.001996476171005481 0.0034410632137372946 0.9979111417846637 -0.008699103522842894
 -0.00013241445247089525 -0.0011184585998545364 0.00014128442047178105 0.0017791545133495799 0.9979111417846637 -0.008699103522842894 0.001996397085858488 0.003441083752292605
0.01875781575657 0.002188821480089593 0.005203664721059457 0.997662218786016 -0.013060489171449597 0.0001935551087655364 0.0026699194829958306 -0.00017856320512112358 -0.0016808125760206978
 0.997662218786016 -0.013060489171449597 0.0021886301042783173 0.0052037013602936775 -0.00017856724189464171 -0.0016808135437625226 0.0001946082782838976 0.0026697589705637057
 0.0001935551087655364 0.0026699194829958306 -0.00017856724189464171 -0.0016808135437625226 0.002188817373347626 0.005203916819408439 0.9976622216270434 -0.013060238191880704
 -0.00017856320512112358 -0.0016808125760206978 0.0001946082782838976 0.0026697589705637057 0.9976622216270434 -0.013060238191880704 0.002188639683600081 0.005203950424949167
0.02501042100875 0.00239805841916606 0.006988499086723785 0.9973896004665761 -0.01743503388749933 0.00025608476929343045 0.0035615121875778024 -0.00023292659126948403 -0.002244700759869528
 0.9973896004665761 -0.01743503388749933 0.0023977185297274785 0.006988552222023833 -0.00023293370779534499 -0.0022447019553084252 0.00025795523971554004 0.00356125969685483
 0.00025608476929343045 0.0035615121875778024 -0.00023293370779534499 -0.0022447019553084252 0.0023980507115102896 0.006988834899996776 0.9973896051494666 -0.017434699339330405
 -0.00023292659126948403 -0.002244700759869528 0.00025795523971554004 0.00356125969685483 0.9973896051494666 -0.017434699339330405 0.002397735179803229 0.0069888836017585505
0.03126302626094 0.002624565815170763 0.008794098249350901 0.9970929614327245 -0.02182377921566829 0.0003285098010186664 0.004453960819941517 -0.0002956184568971586 -0.0028099257696248985
 0.9970929614327245 -0.02182377921566829 0.002624035168422411 0.008794170283171882 -0.00029562949929268424 -0.0028099271341343146 0.000331430802649895 0.004453592014382218
 0.0003285098010186664 0.004453960819941517 -0.00029562949929268424 -0.0028099271341343146 0.002624553363093495 0.008794517609213317 0.9970929684080375 -0.02182336103354873
 -0.0002956184568971586 -0.0028099257696248985 0.000331430802649895 0.004453592014382218 0.9970929684080375 -0.02182336103354873 0.002624060820561402 0.008794583554287496
0.037515631513130004 0.0028687124393192934 0.01061960341036298 0.996771970998075 -0.026227144949375298 0.0004109345424804941 0.005347170767310568 -0.0003667498146420061 -0.0033763160672221648
 0.996771970998075 -0.026227144949375298 0.002867948833426656 0.010619696899184503 -0.00036676561923888957 -0.0033763175353590186 0.000415139616381196 0.00534665822592344
 0.0004109345424804941 0.005347170767310568 -0.00036676561923888957 -0.0033763175353590186 0.002868694086495658 0.010620106104711579 0.9967719807257438 -0.026226643039293097
 -0.0003667498146420061 -0.0033763160672221648 0.000415139616381196 0.00534665822592344 0.9967719807257438 -0.026226643039293097 0.0028679854183370434 0.010620191557037563
0.043768236765320004 0.0031308616639339755 0.012464366717014763 0.996426295066351 -0.03064532656458839 0.0005034619286478394 0.006241029572043966 -0.0004464291227275649 -0.00394371083235977
 0.996426295066351 -0.03064532656458839 0.0031298229272953295 0.01246448437147778 -0.00044645051682305845 -0.003943712331913292 0.0005091849656713383 0.006240342756736264
 0.0005034619286478394 0.006241029572043966 -0.00044645051682305845 -0.003943712331913292 0.003130836235840224 0.012464952509320051 0.996426308012184 -0.03064474078463618
 -0.0004464291227275649 -0.00394371083235977 0.0005091849656713383 0.006240342756736264 0.996426308012184 -0.03064474078463618 0.003129872369579655 0.012465059849206522
0.050020842017509996 0.0034113728538940798 0.014327856202590913 0.9960555978294945 -0.03507839020666766 0.0006061932007760054 0.007135413199058117 -0.0005347623756758031 -0.00451195371648695
 0.9960555978294945 -0.03507839020666766 0.0034100168349844736 0.014328000888006022 -0.0005347901780690269 -0.0045119551685394235 0.000613668452848411 0.0071345184204299325
 0.0006061932007760054 0.007135413199058117 -0.0005347901780690269 -0.0045119551685394235 0.003411339157824721 0.014328524805710513 0.9960556144678873 -0.03507772039315851
 -0.0005347623756758031 -0.00451195371648695 0.000613668452848411 0.0071345184204299325 0.9960556144678873 -0.03507772039315851 0.003410081052678651 0.014328656529787246
0.055454545454549996 0.0036703343521566254 0.01596213235282643 0.9957128689984363 -0.038942931551825155 0.0007038337916720867 0.00791298313485704 -0.0006186351844283136 -0.005006342452296376
 0.9957128689984363 -0.038942931551825155 0.0036686683820298612 0.015962302976629386 -0.0006186692144742651 -0.005006343793811278 0.0007130222896712339 0.007911877796245668
 0.0007038337916720867 0.00791298313485704 -0.0006186692144742651 -0.005006343793811278 0.0036702924873929193 0.01596287266106758 0.9957128892384342 -0.03894218854840263
 -0.0006186351844283136 -0.005006342452296376 0.0007130222896712339 0.007911877796245668 0.9957128892384342 -0.03894218854840263 0.0036687469914990748 0.015963027693742523
0.056273447269699996 0.0037106020715878016 0.016209609102402687 0.9956595427851798 -0.03952631930393594 0.0007192276938286997 0.008030189109561504 -0.0006318531095596006 -0.005080889794533347
 0.9956595427851798 -0.03952631930393594 0.0037088866301158946 0.0162097838395108 -0.0006318881309370507 -0.0050808911135163115 0.0007286897688507442 0.008029049492110389
 0.0007192276938286997 0.008030189109561504 -0.0006318881309370507 -0.0050808911135163115 0.003710558895507591 0.016210360196221785 0.9956595636000668 -0.03952556525396502
 -0.0006318531095596006 -0.005080889794533347 0.0007286897688507442 0.008029049492110389 0.9956595636000668 -0.03952556525396502 0.0037089675331224447 0.016210518917580546
0.06252605252188 0.004028902442676253 0.018109206221133944 0.9952377934185498 -0.04398904013452367 0.0008426626611299601 0.00892521796425402 -0.0007378023653389372 -0.005650363892314565
 0.9952377934185498 -0.04398904013452367 0.004026785441167518 0.01810941418723334 -0.0007378454086011072 -0.005650364986068371 0.0008543465065523865 0.008923793411473077
 0.0008426626611299601 0.00892521796425402 -0.0007378454086011072 -0.005650364986068371 0.00402884855454146 0.01811003944021686 0.9952378189048207 -0.043988201618438964
 -0.0007378023653389372 -0.005650363892314565 0.0008543465065523865 0.008923793411473077 0.9952378189048207 -0.043988201618438964 0.004026884929880104 0.01811022788902392
0.06877865777407 0.004366624335950591 0.020026256622783973 0.9947900137027925 -0.048466437076432896 0.0009765931218078095 0.009820354638287166 -0.0008527086257590547 -0.006220219608023872
 0.9947900137027925 -0.048466437076432896 0.004364063631460409 0.020026501153129636 -0.0008527604862581083 -0.006220220377847531 0.000990734000344878 0.00981860179792601
 0.0009765931218078095 0.009820354638287166 -0.0008527604862581083 -0.006220220377847531 0.00436655848207507 0.020027171565751862 0.9947900443670876 -0.048465513828563504
 -0.0008527086257590547 -0.006220219608023872 0.000990734000344878 0.00981860179792601 0.9947900443670876 -0.048465513828563504 0.004364183594661825 0.02002739259007797
0.07503126302626001 0.004724115433683622 0.021960387954042027 0.9943158684949323 -0.05295836223060924 0.0011211117187464304 0.010715448882415617 -0.0009766677388866499 -0.006790298693799129
 0.9943158684949323 -0.05295836223060924 0.004721068870031461 0.021960672543541206 -0.0009767292046343535 -0.006790299034516923 0.0011379451782511766 0.010713321111995393
 0.0011211117187464304 0.010715448882415617 -0.0009767292046343535 -0.006790299034516923 0.0047240363375906464 0.02196138417932751 0.9943159048569107 -0.052957353953905106
 -0.0009766677388866499 -0.006790298693799129 0.0011379451782511766 0.010713321111995393 0.9943159048569107 -0.052957353953905106 0.004721211183031949 0.02196164074619687
0.08128386827845 0.005101720731611702 0.023911239993631483 0.9938150238653433 -0.05746464182513801 0.0012763085860958792 0.01161034576455157 -0.001109772830047256 -0.007360440663437056
 0.9938150238653433 -0.05746464182513801 0.005098146131131108 0.023911568298902973 -0.0011098446818781668 -0.007360440463447746 0.0012960704245291886 0.011607793097355797
 0.0012763085860958792 0.01161034576455157 -0.0011098446818781668 -0.007360440463447746 0.005101627093729105 0.023912317016030613 0.9938150664595065 -0.05746354819487446
 -0.001109772830047256 -0.007360440663437056 0.0012960704245291886 0.011607793097355797 0.9938150664595065 -0.05746354819487446 0.0050983126550090555 0.023912612212991985
0.08753647353064001 0.005499782494942669 0.025878460198786417 0.9932871473878938 -0.06198508062999856 0.0014422712204342858 0.012504885991053325 -0.001252114208002009 -0.007930482527238165
 0.9932871473878938 -0.06198508062999856 0.005495637651243868 0.025878836040414573 -0.0012521972197770406 -0.007930481668559803 0.0014651974472423138 0.012501855102667735
 0.0014422712204342858 0.012504885991053325 -0.0012521972197770406 -0.007930481668559803 0.005499672990378509 0.025879617496268586 0.9932871967639566 -0.061983901287386886
 -0.001252114208002009 -0.007930482527238165 0.0014651974472423138 0.012501855102667735 0.9932871967639566 -0.061983901287386886 0.00549583022945697 0.025879954533130023
0.09378907878283 0.005918640179499218 0.027861700533015784 0.9927319083990808 -0.0665194650983647 0.00161908435598336 0.013398906142919413 -0.0014037792657963211 -0.008500258619001094
 0.9927319083990808 -0.0665194650983647 0.005913882849327821 0.027862127898236427 -0.001403874204493944 -0.008500256977329078 0.0016454111502183428 0.013395340318324865
 0.00161908435598336 0.013398906142919413 -0.001403874204493944 -0.008500256977329078 0.005918513457793216 0.027862937543163352 0.9927319651238067 -0.0665181996544994
 -0.0014037792657963211 -0.008500258619001094 0.0016454111502183428 0.013395340318324865 0.9927319651238067 -0.0665181996544994 0.005914103307170494 0.02786331975407374
0.100041684035 0.006358630332506022 0.02986061514130245 0.992148978240627 -0.07106756566866783 0.0018068298420037259 0.01429223886300925 -0.0015648523781953202 -0.009069600479234805
 0.992148978240627 -0.07106756566866783 0.006353218228159659 0.029861098186992466 -0.0015649600040353357 -0.009069597923985035 0.00183679350757474 0.014288077964373971
 0.0018068298420037259 0.01429223886300925 -0.0015649600040353357 -0.009069597923985035 0.006358485015809346 0.029861931261433546 0.9921490428987254 -0.07106621370503503
 -0.0015648523781953202 -0.009069600479234805 0.00183679350757474 0.014288077964373971 0.9921490428987254 -0.07106621370503503 0.006353468370190558 0.029862362107338197
0.1059090909091 0.0067910313105423005 0.0317503323715999 0.9915764844937476 -0.07534773328071723 0.0019930221930015567 0.015129759257061273 -0.00172463135240351 -0.009603319920514762
 0.9915764844937476 -0.07534773328071723 0.006784966263676294 0.031750871602095276 -0.0017247515693328327 -0.009603316383645734 0.0020266136622348893 0.015124982173206748
 0.0019930221930015567 0.015129759257061273 -0.0017247515693328327 -0.009603316383645734 0.006790867266625805 0.03175172214708881 0.9915765571458286 -0.07534629971788193
 -0.00172463135240351 -0.009603319920514762 0.0020266136622348893 0.015124982173206748 0.9915765571458286 -0.07534629971788193 0.006785245882468875 0.03175220189491853
0.1062942892872 0.006820086474338471 0.031874858603186826 0.9915380304867745 -0.07562913849753322 0.0020055865217762027 0.015184713009030727 -0.0017354147965519707 -0.009638336779967081
 0.9915380304867745 -0.07562913849753322 0.006813977255992777 0.03187540165912772 -0.0017355358631642274 -0.009638333174315861 0.0020394234403331318 0.015179893444269035
 0.0020055865217762027 0.015184713009030727 -0.0017355358631642274 -0.009638333174315861 0.0068199211569860575 0.03187625319324577 0.9915381036826151 -0.07562769956364063
 -0.0017354147965519707 -0.009638336779967081 0.0020394234403331318 0.015179893444269035 0.9915381036826151 -0.07562769956364063 0.006814258864367315 0.03187673626474594
0.11254689453939999 0.007303338968883882 0.03390408461356947 0.9908987411638192 -0.08020392677371728 0.002215430112921691 0.016076153781298386 -0.0019155445417737944 -0.010206293282492679
 0.9908987411638192 -0.08020392677371728 0.007296490236905372 0.033904692186119925 -0.0019156797962620598 -0.010206288483425302 0.002253376694650622 0.01607060847333719
 0.002215430112921691 0.016076153781298386 -0.0019156797962620598 -0.010206288483425302 0.007303152215694575 0.033905556994174954 0.9908988235226024 -0.0802024003897472
 -0.0019155445417737944 -0.010206293282492679 0.002253376694650622 0.01607060847333719 0.9908988235226024 -0.0802024003897472 0.007296805069432344 0.03390609601459299
0.11879949979160001 0.007808714883122429 0.03594794495370597 0.9902307889616659 -0.08479166175082849 0.002436433088978284 0.016966382836382098 -0.002105316295764647 -0.010773292816727887
 0.9902307889616659 -0.08479166175082849 0.0078010841702742615 0.035948621729839904 -0.002105466478774553 -0.010773286675073213 0.002478725721254732 0.016960041193386566
 0.002436433088978284 0.016966382836382098 -0.002105466478774553 -0.010773286675073213 0.0078085052281465575 0.03594949440748976 0.9902308811303161 -0.0847900474070897
 -0.002105316295764647 -0.010773292816727887 0.002478725721254732 0.016960041193386566 0.9902308811303161 -0.0847900474070897 0.007801433958153484 0.03595009323646194
0.1250521050438 0.008336537838098313 0.0380060886850105 0.9895338554399502 -0.0893920635667828 0.002668664561673735 0.01785521839056118 -0.0023048012920472848 -0.011339155278806306
 0.9895338554399502 -0.0893920635667828 0.008328082601842446 0.03800683953669018 -0.0023049671379118536 -0.011339147639299343 0.002715539555901124 0.01784800627690292
 0.002668664561673735 0.01785521839056118 -0.0023049671379118536 -0.011339147639299343 0.008336303783936582 0.03800771445662627 0.9895339580891129 -0.08939036072449948
 -0.0023048012920472848 -0.011339155278806306 0.002715539555901124 0.01784800627690292 0.9895339580891129 -0.08939036072449948 0.008328469048133676 0.03800837709396745
0.131304710296 0.00888712785461776 0.0400781615108071 0.9888076252318111 -0.09400484190476481 0.002912190164087628 0.018742475315863896 -0.002514067205658209 -0.011903697643890496
 0.9888076252318111 -0.09400484190476481 0.008877805469518938 0.04007899149972623 -0.002514249442478112 -0.011903688345168298 0.0029638837008891064 0.018734315024171826
 0.002912190164087628 0.018742475315863896 -0.002514249442478112 -0.011903688345168298 0.0088868678709832 0.04007986280982735 0.9888077390568076 -0.09400304999404277
 -0.002514067205658209 -0.011903697643890496 0.0029638837008891064 0.018734315024171826 0.9888077390568076 -0.09400304999404277 0.008878230246909855 0.04008059339986764
0.1375573155481 0.009338605153450813 0.041893999898860994 0.9881740389953744 -0.09835973544854175 0.003137183406197086 0.019601419149786994 -0.0027032370449721734 -0.012440252914628957
 0.9881740389953744 -0.09835973544854175 0.00932837076577 0.04189489642765815 -0.0027034369419160964 -0.012440241941948808 0.0031938173298576562 0.0195923187043158
 0.003137183406197086 0.019601419149786994 -0.0027034369419160964 -0.012440241941948808 0.009338318790274032 0.04189577566797953 0.9881741645275133 -0.09835785411250006
 -0.0027032370449721734 -0.012440252914628957 0.0031938173298576562 0.0195923187043158 0.9881741645275133 -0.09835785411250006 0.009328834750587713 0.041896561531007126
0.1438099208003 0.009806096534510375 0.04369954700342326 0.9875179294910411 -0.10270285340487441 0.0033712343837406203 0.020456482714798822 -0.0028999464172914722 -0.01297320414826425
 0.9875179294910411 -0.10270285340487441 0.009794907100302461 0.043700514035383484 -0.0029001647905601245 -0.012973191336659433 0.003433024054859597 0.02044637062758322
 0.0033712343837406203 0.020456482714798822 -0.0029001647905601245 -0.012973191336659433 0.009805782408996598 0.04370139635735557 0.9875180674278722 -0.10270088208280898
 -0.0028999464172914722 -0.01297320414826425 0.003433024054859597 0.02044637062758322 0.9875180674278722 -0.10270088208280898 0.00979541177746331 0.043702240605952236
0.1500625260525 0.010289426873660537 0.045494630130624644 0.986839476496316 -0.107034065727324 0.0036142552279856154 0.021307565900491793 -0.0031041089333580067 -0.01350245553905646
 0.986839476496316 -0.107034065727324 0.010277239264726587 0.045495671848859984 -0.0031043465995467317 -0.01350244071646803 0.0036814145649305104 0.02129636807540384
 0.0036142552279856154 0.021307565900491793 -0.0031043465995467317 -0.01350244071646803 0.010289083583716111 0.04549655214785457 0.9868396275564907 -0.10703200383873007
 -0.0031041089333580067 -0.01350245553905646 0.0036814145649305104 0.02129636807540384 0.9868396275564907 -0.10703200383873007 0.01027778608030883 0.04549745808336533
0.15631513130469998 0.010788419674593392 0.04727908173659786 0.9861388608472281 -0.11135324330953497 0.0038661569585688826 0.022154570460640358 -0.0033156370688220567 -0.014027913431097013
 0.9861388608472281 -0.11135324330953497 0.010775190675851701 0.0472802025486449 -0.0033158948449624292 -0.014027896418417002 0.003938898412738939 0.022142210223405213
