! Created with skrf 1.8.0 (http://scikit-rf.org).
# GHz S RI R 50.0 
!freq ReS11 ImS11 ReS12 ImS12 ReS13 ImS13
! ReS14 ImS14
! ReS21 ImS21 ReS22 ImS22 ReS23 ImS23
! ReS24 ImS24
! ReS31 ImS31 ReS32 ImS32 ReS33 ImS33
! ReS34 ImS34
! ReS41 ImS41 ReS42 ImS42 ReS43 ImS43
! ReS44 ImS44
!
0.0 0.001366874733064 0.0 0.9986331252668 0.0 5.259313376444e-05 0.0 -5.259313327542e-05 6.4408012322873255e-21
 0.9986331252668 0.0 0.001366874733085 0.0 -5.259313327575e-05 6.4408012323277384e-21 5.259313376375e-05 0.0
 5.259313376444e-05 0.0 -5.259313327575e-05 6.4408012323277384e-21 0.001366874732083 0.0 0.9986331252658 0.0
 -5.259313327542e-05 6.4408012322873255e-21 5.259313376375e-05 0.0 0.9986331252658 0.0 0.001366874732087 0.0
0.005 0.0014702237190681222 0.001115488055550287 0.9985024424582216 -0.0028639358703444126 7.38785111135449e-05 0.0005982231439280456 -7.168765797367668e-05 -0.00037230463311718634
 0.9985024424582216 -0.0028639358703444126 0.0014702251834828259 0.0011154872154485252 -7.169027409146373e-05 -0.0003723066605313323 7.386035064837666e-05 0.0005982300360138858
 7.38785111135449e-05 0.0005982231439280456 -7.169027409146373e-05 -0.0003723066605313323 0.0014702219561655804 0.0011154218633047334 0.998502442118883 -0.0028640029275596116
 -7.168765797367668e-05 -0.00037230463311718634 7.386035064837666e-05 0.0005982300360138858 0.998502442118883 -0.0028640029275596116 0.0014702262718623153 0.001115419296698795
0.006252605252188 0.0014971952921164682 0.0013987812658391885 0.9984681432277356 -0.0035806426995446897 7.988195087275447e-05 0.0007480688268256791 -7.701759641198119e-05 -0.00046587445641164954
 0.9984681432277356 -0.0035806426995446897 0.0014971975810510114 0.0013987801894008657 -7.702166720194481e-05 -0.00046587695715988574 7.985357631787952e-05 0.0007480777747137598
 7.988195087275447e-05 0.0007480688268256791 -7.702166720194481e-05 -0.00046587695715988574 0.001497192602453815 0.0013986985286996295 0.9984681427637281 -0.003580726523177363
 -7.701759641198119e-05 -0.00046587445641164954 7.985357631787952e-05 0.0007480777747137598 0.9984681427637281 -0.003580726523177363 0.0014971993492423415 0.001398695287001763
0.01250521050438 0.0016384008404826907 0.0028271769421063767 0.9982874867526743 -0.007162235777494246 0.00011389998649719345 0.0014964920487717508 -0.00010693078467739235 -0.0009341126515432854
 0.9982874867526743 -0.007162235777494246 0.0016384099778408406 0.002827174535514913 -0.00010694682652680972 -0.0009341172888950274 0.0001137868219192368 0.0014965135051945378
 0.00011389998649719345 0.0014964920487717508 -0.00010694682652680972 -0.0009341172888950274 0.0016383906628650038 0.0028270117972580776 0.9982874854654945 -0.007162403170315468
 -0.00010693078467739235 -0.0009341126515432854 0.0001137868219192368 0.0014965135051945378 0.9982874854654945 -0.007162403170315468 0.0016384176105435871 0.0028270049675246135
0.01875781575657 0.0017907722459983393 0.004276209309037516 0.9980909509261685 -0.010753528145688527 0.00015472138584851825 0.002245809692020139 -0.00014241929118226213 -0.0014040325088789214
 0.9980909509261685 -0.010753528145688527 0.0017907927732273862 0.004276205331541694 -0.0001424550647106752 -0.0014040388564237366 0.00015446714331643225 0.0022458478476135115
 0.00015472138584851825 0.002245809692020139 -0.0001424550647106752 -0.0014040388564237366 0.0017907497957310426 0.004275961954661048 0.9980909484590135 -0.01075377904722277
 -0.00014241929118226213 -0.0014040325088789214 0.00015446714331643225 0.0022458478476135115 0.9980909484590135 -0.01075377904722277 0.00179081036328626 0.004275951135799272
0.02501042100875 0.0019545835576634937 0.005743872814684509 0.9978783235669673 -0.01435628903155374 0.0002024214238573051 0.0029960763673854145 -0.0001835672547176953 -0.0018754331857945051
 0.9978783235669673 -0.01435628903155374 0.0019546200039711435 0.005743867040369369 -0.000183630428413019 -0.0018754407469210716 0.00020196977571563423 0.0029961360186312735
 0.0002024214238573051 0.0029960763673854145 -0.000183630428413019 -0.0018754407469210716 0.001954544050714126 0.00574354350008514 0.9978783195574253 -0.014356623391132408
 -0.0001835672547176953 -0.0018754331857945051 0.00020196977571563423 0.0029961360186312735 0.9978783195574253 -0.014356623391132408 0.001954651639788083 0.005743528241996016
0.03126302626094 0.002130097344362726 0.007229149517914172 0.9976493807203117 -0.01797129250309764 0.0002570760491103589 0.00374727601446952 -0.00023045667110849772 -0.002348180315441899
 0.9976493807203117 -0.01797129250309764 0.002130154229786566 0.007229141736269487 -0.00023055483736875732 -0.0023481885222951214 0.0002563705766739577 0.003747362566919313
 0.0002570760491103589 0.00374727601446952 -0.00023055483736875732 -0.0023481885222951214 0.002130036001965114 0.007228738521416851 0.9976493748066069 -0.017971710302100933
 -0.00023045667110849772 -0.002348180315441899 0.0002563705766739577 0.003747362566919313 0.9976493748066069 -0.017971710302100933 0.002130204003634477 0.007228718325664068
0.037515631513130004 0.0023175706477157813 0.008731386427152394 0.9974038927551478 -0.021598940075422495 0.00031876114291189963 0.0044993649785505345 -0.0002831680225560337 -0.0028221629214942485
 0.9974038927551478 -0.021598940075422495 0.002317652485147506 0.00873137644385788 -0.00028330870588460605 -0.0028221711346606703 0.0003177453136512615 0.0044994844528211215
 0.00031876114291189963 0.0044993649785505345 -0.00028330870588460605 -0.0028221711346606703 0.0023174826951943843 0.008730894066378855 0.9974038845750699 -0.02159944131758788
 -0.0002831680225560337 -0.0028221629214942485 0.0003177453136512615 0.0044994844528211215 0.9974038845750699 -0.02159944131758788 0.0023177244942296825 0.008730868386235352
0.043768236765320004 0.0025172572923410743 0.010250106007555385 0.9971416268184031 -0.02523945014213617 0.00038755217525371133 0.005252285118503171 -0.0003417805147693185 -0.0032972803015436413
 0.9971416268184031 -0.02523945014213617 0.0025173685894569722 0.010250093645043557 -0.00034197117673029305 -0.003297287809915067 0.0003861693322152107 0.005252444157089304
 0.00038755217525371133 0.005252285118503171 -0.00034197117673029305 -0.003297287809915067 0.0025171379578700177 0.010249532645652102 0.9971416160082546 -0.025240034847854448
 -0.0003417805147693185 -0.0032972803015436413 0.0003861693322152107 0.005252444157089304 0.9971416160082546 -0.025240034847854448 0.0025174669356249463 0.01024950088586231
0.050020842017509996 0.0027294089585444044 0.011784927871654494 0.9968623480544709 -0.028892936221023135 0.0004635240055432058 0.006005969211266787 -0.00040637217009285154 -0.0037734366148323944
 0.9968623480544709 -0.028892936221023135 0.0027295542194878918 0.011784912969723805 -0.00040662021252117623 -0.003773442635556952 0.0004617173631933286 0.006006175085702036
 0.0004635240055432058 0.006005969211266787 -0.00040662021252117623 -0.003773442635556952 0.0027292534724643203 0.011784273923140253 0.9968623342480201 -0.028893604422200233
 -0.00040637217009285154 -0.0037734366148323944 0.0004617173631933286 0.006006175085702036 0.9968623342480201 -0.028893604422200233 0.002729683009177694 0.011784235439628182
0.055454545454549996 0.002924092580256903 0.013131560722542015 0.9966056464709142 -0.03207850219618703 0.0005354350929714142 0.006661506881430354 -0.00046741981735627 -0.004188001867481049
 0.9966056464709142 -0.03207850219618703 0.0029242710132835483 0.013131543497625651 -0.00046772369161816657 -0.004188005903887983 0.0005332139393972356 0.0066617598570186355
 0.0005354350929714142 0.006661506881430354 -0.00046772369161816657 -0.004188005903887983 0.0029239018062465253 0.01313083712154824 0.9966056297612524 -0.032079242989596836
 -0.00046741981735627 -0.004188001867481049 0.0005332139393972356 0.0066617598570186355 0.9966056297612524 -0.032079242989596836 0.0029244295987209553 0.013130792233632919
0.056273447269699996 0.0029542757448122246 0.013335530340497153 0.9965658203174595 -0.03255944532963405 0.0005467507447775268 0.006760343608224723 -0.0004770198585356376 -0.004250538219727165
 0.9965658203174595 -0.03255944532963405 0.0029544594719088484 0.01333551275690705 -0.0004773326257299347 -0.0042505418981891325 0.0005444633888917885 0.006760604226343596
 0.0005467507447775268 0.006760343608224723 -0.0004773326257299347 -0.0042505418981891325 0.0029540793405627595 0.013334796273051053 0.9965658031458697 -0.03256019706853033
 -0.0004770198585356376 -0.004250538219727165 0.0005444633888917885 0.006760604226343596 0.9965658031458697 -0.03256019706853033 0.0029546228172905985 0.013334750372517835
0.06252605252188 0.00319210647699829 0.014901629315773471 0.9962518066315751 -0.03623897905092442 0.0006373056484857827 0.007515329686482242 -0.0005537992971970701 -0.004728492218283307
 0.9962518066315751 -0.03623897905092442 0.0031923331723782192 0.014901608926697247 -0.000554184077449378 -0.004728492628098407 0.0006344805385014355 0.007515653599738456
 0.0006373056484857827 0.007515329686482242 -0.000554184077449378 -0.004728492628098407 0.003191864391291799 0.014900815650199989 0.9962517857235956 -0.0362398143808318
 -0.0005537992971970701 -0.004728492218283307 0.0006344805385014355 0.007515653599738456 0.9962517857235956 -0.0362398143808318 0.003192535191746598 0.014900761589626261
0.06877865777407 0.003443148880558974 0.01648296567752891 0.9959200695185811 -0.03993150607507712 0.0007352610270671299 0.008270844718894188 -0.0006367850310710297 -0.005207205584349228
 0.9959200695185811 -0.03993150607507712 0.0034434230475131173 0.016482942378069167 -0.0006372490576992676 -0.005207201727383245 0.0007318410003235695 0.008271241129647323
 0.0007352610270671299 0.008270844718894188 -0.0006372490576992676 -0.005207201727383245 0.0034428563534495264 0.01648207298256896 0.9959200444996205 -0.039932425066196285
 -0.0006367850310710297 -0.005207205584349228 0.0007318410003235695 0.008271241129647323 0.9959200444996205 -0.039932425066196285 0.00344366786577712 0.01648200996869342
0.07503126302626001 0.0037076496705748152 0.01807929729174591 0.995570371244754 -0.043636970133843316 0.0008406881660548443 0.009026802422299276 -0.0007260504027068792 -0.005686584615944496
 0.995570371244754 -0.043636970133843316 0.003707975815417668 0.0180792709963173 -0.0007266008548819066 -0.005686575422331781 0.0008366159433229937 0.009027281191059871
 0.0008406881660548443 0.009026802422299276 -0.0007266008548819066 -0.005686575422331781 0.0037073019460640197 0.01807832619509894 0.9955703417367601 -0.04363797286288369
 -0.0007260504027068792 -0.005686584615944496 0.0008366159433229937 0.009027281191059871 0.9955703417367601 -0.04363797286288369 0.003708267564007827 0.01807825338377822
0.08128386827845 0.003985854592489327 0.019690393699898372 0.9952024740221824 -0.047355295255231515 0.000953657252423316 0.009783113325165186 -0.0008216675146070647 -0.006166534570821669
 0.9952024740221824 -0.047355295255231515 0.003986237226244351 0.019690364342636154 -0.0008223115178553438 -0.006166518898988705 0.0009488754446094456 0.009783684977776758
 0.000953657252423316 0.009783113325165186 -0.0008223115178553438 -0.006166518898988705 0.0039854469188577235 0.01968934487968988 0.9952024396430859 -0.047356381814576305
 -0.0008216675146070647 -0.006166534570821669 0.0009488754446094456 0.009783684977776758 0.9952024396430859 -0.047356381814576305 0.0039865800435327295 0.019689261375310598
0.08753647353064001 0.004278008428960219 0.021316032433634148 0.9948161401780147 -0.051086389395968906 0.0010742373051899471 0.010539685022211231 -0.0009237071861617991 -0.006646959417808947
 0.9948161401780147 -0.051086389395968906 0.004278452068857151 0.021315999968701416 -0.0009244518127043336 -0.0066469360545202555 0.0010686884208522772 0.01054036075692254
 0.0010742373051899471 0.010539685022211231 -0.0009244518127043336 -0.0066469360545202555 0.004277536059539891 0.021314906629028445 0.9948161005416863 -0.0510875598836541
 -0.0009237071861617991 -0.006646959417808947 0.0010686884208522772 0.01054036075692254 0.9948161005416863 -0.0510875598836541 0.004278850100621594 0.02131481148375922
0.09378907878283 0.004584354983392828 0.02295599639189897 0.9944111323030044 -0.05483014701429272 0.0012024961081206914 0.01129642235761355 -0.001032238907322319 -0.007127761662412069
 0.9944111323030044 -0.05483014701429272 0.0045848641544964115 0.022955960793811982 -0.001033091176245236 -0.007127729322808976 0.0011961225617369807 0.01129721405204382
 0.0012024961081206914 0.01129642235761355 -0.001033091176245236 -0.007127729322808976 0.004583813176574667 0.02295479439608347 0.9944110870185241 -0.05483140154172289
 -0.001032238907322319 -0.007127761662412069 0.0011961225617369807 0.01129721405204382 0.9944110870185241 -0.05483140154172289 0.004585321553904152 0.022954686609097795
0.100041684035 0.004905137046665169 0.024610071912280897 0.9939872133868337 -0.058586450951815555 0.0013385001444943183 0.012053227562868064 -0.001147330789127429 -0.00760884222069397
 0.9939872133868337 -0.058586450951815555 0.004905716283585206 0.024610033176097074 -0.0011482976665096055 -0.007608799548353528 0.0013312442652112537 0.012054147780877562
 0.0013385001444943183 0.012053227562868064 -0.0011482976665096055 -0.007608799548353528 0.004904521067128904 0.024608794575191408 0.9939871620583954 -0.0585877896415637
 -0.001147330789127429 -0.00760884222069397 0.0013312442652112537 0.012054147780877562 0.9939871620583954 -0.0585877896415637 0.00490623721173402 0.024608673091909835
0.1059090909091 0.0052195012751043825 0.026174892078982586 0.9935720003961303 -0.06212264120654552 0.0014732277368777328 0.012763381414623331 -0.0012613581246415375 -0.008060448685686816
 0.9935720003961303 -0.06212264120654552 0.005220150395790285 0.026174850411965433 -0.0012624388382428907 -0.008060395019813898 0.0014650913631257883 0.012764434282286762
 0.0014732277368777328 0.012763381414623331 -0.0012624388382428907 -0.008060395019813898 0.005218811391275042 0.026173544866495545 0.993571943031214 -0.062124058994810175
 -0.0012613581246415375 -0.008060448685686816 0.0014650913631257883 0.012764434282286762 0.993571943031214 -0.062124058994810175 0.005220734730225494 0.026173409522854
0.1062942892872 0.005240596352364171 0.026278047315019967 0.9935441469431439 -0.06235517384580685 0.001482314532748089 0.012810000362668283 -0.0012690495121900941 -0.008090100328159775
 0.9935441469431439 -0.06235517384580685 0.005241250201205972 0.026278005456503207 -0.001270137911082877 -0.008090045895151015 0.0014741185739262494 0.012811062361100495
 0.001482314532748089 0.012810000362668283 -0.001270137911082877 -0.008090045895151015 0.005239901471195243 0.026276695544739208 0.9935440891695163 -0.06235659683079542
 -0.0012690495121900941 -0.008090100328159775 0.0014741185739262494 0.012811062361100495 0.9935440891695163 -0.06235659683079542 0.005241838826942334 0.026276559255899456
0.11254689453939999 0.0055909735218346275 0.02795971179906555 0.9930816971276047 -0.06613617919294337 0.0016340029630394566 0.013566638058533032 -0.0013974602735234397 -0.008571433474069414
 0.9930816971276047 -0.06613617919294337 0.005591706541684025 0.027959666854828234 -0.001398677053860821 -0.00857136578102512 0.001624809112026138 0.013567855793771602
 0.0016340029630394566 0.013566638058533032 -0.001398677053860821 -0.00857136578102512 0.00559019501737243 0.027958286561073346 0.9930816325016638 -0.06613768661774433
 -0.0013974602735234397 -0.008571433474069414 0.001624809112026138 0.013567855793771602 0.9930816325016638 -0.06613768661774433 0.0055923670419999166 0.027958134301824582
0.11879949979160001 0.005956508002647605 0.02965485456970612 0.9925996288512863 -0.06992932218485752 0.0017936276341916164 0.014323035597272242 -0.0015326267318526584 -0.00905273735400555
 0.9925996288512863 -0.06992932218485752 0.00595732476727703 0.02965480659725316 -0.001533978700293578 -0.009052654830207068 0.0017833780227063366 0.014324423731698118
 0.0017936276341916164 0.014323035597272242 -0.001533978700293578 -0.009052654830207068 0.00595564116128862 0.029653356891974868 0.9925995569602348 -0.06993091420114826
 -0.0015326267318526584 -0.00905273735400555 0.0017833780227063366 0.014324423731698118 0.9925995569602348 -0.06993091420114826 0.005958061327819099 0.029653187440893593
0.1250521050438 0.0063374380010203755 0.03136326416044784 0.992097707891164 -0.07373445035322854 0.001961249190947005 0.015079085630525119 -0.001674610951980329 -0.009533905834726467
 0.992097707891164 -0.07373445035322854 0.006338343100788746 0.03136321323821018 -0.0016761048617129112 -0.009533806838189919 0.001949885905743311 0.015080659538825487
 0.001961249190947005 0.015079085630525119 -0.0016761048617129112 -0.009533806838189919 0.006336478117460917 0.03136169512569915 0.9920976283151817 -0.07373612712807116
 -0.001674610951980329 -0.009533905834726467 0.001949885905743311 0.015080659538825487 0.9920976283151817 -0.07373612712807116 0.006339159915391402 0.0313615072037375
0.131304710296 0.0067340004086837236 0.03308472787722127 0.9915757009959616 -0.07755140409614854 0.002136926661464394 0.01583467856417538 -0.0018234733479818314 -0.01001483093244559
 0.9915757009959616 -0.07755140409614854 0.006734998452410209 0.033084674104448764 -0.0018251158984835419 -0.010014713750028435 0.002124391755543172 0.015836454339415485
 0.002136926661464394 0.01583467856417538 -0.0018251158984835419 -0.010014713750028435 0.006732942787206127 0.033083088631952924 0.9915756133086104 -0.07755316580344145
 -0.0018234733479818314 -0.01001483093244559 0.002124391755543172 0.015836454339415485 0.9915756133086104 -0.07755316580344145 0.006735899723670261 0.0330828809013446
0.1375573155481 0.007051357485647923 0.03459345409256626 0.9911284787761363 -0.08115435884422659 0.0022973999725464365 0.01656644332347772 -0.0019559707334072364 -0.010472143530385135
 0.9911284787761363 -0.08115435884422659 0.007052453944820126 0.03459340017521247 -0.0019577718445062983 -0.01047200818441076 0.002283665524746141 0.016568417181471312
 0.0022973999725464365 0.01656644332347772 -0.0019577718445062983 -0.01047200818441076 0.00705019796560725 0.034591745690828256 0.9911283826082508 -0.08115620557419989
 -0.0019559707334072364 -0.010472143530385135 0.002283665524746141 0.016568417181471312 0.9911283826082508 -0.08115620557419989 0.007053443237813231 0.034591519466720136
0.1438099208003 0.007379730740629367 0.036094901153352545 0.9906657997359495 -0.08474887434671473 0.002464364356199936 0.017295703291358582 -0.002093787169771131 -0.010927170824255395
 0.9906657997359495 -0.08474887434671473 0.007380930387361631 0.03609484736561176 -0.002095754043970133 -0.01092701564557571 0.0024493778039067038 0.017297889806954167
 0.002464364356199936 0.017295703291358582 -0.002095754043970133 -0.01092701564557571 0.007378464735376332 0.03609312477450726 0.990665694663031 -0.08475080626900727
 -0.002093787169771131 -0.010927170824255395 0.0024493778039067038 0.017297889806954167 0.990665694663031 -0.08475080626900727 0.0073820118021728 0.036092878857380106
0.1500625260525 0.0077190136216515074 0.037588963912776746 0.9901877738991866 -0.08833488224676384 0.0026377681222369814 0.01802239875403047 -0.0022368725154242753 -0.011379855894480087
 0.9901877738991866 -0.08833488224676384 0.007720321251694861 0.03758891053077364 -0.0022390123426004266 -0.011379679147258258 0.0026214772206490794 0.018024813021979953
 0.0026377681222369814 0.01802239875403047 -0.0022390123426004266 -0.011379679147258258 0.007717636559544074 0.037587120783335363 0.9901876594908372 -0.08833689953785352
 -0.0022368725154242753 -0.011379855894480087 0.0026214772206490794 0.018024813021979953 0.9901876594908372 -0.08833689953785352 0.007721498889514005 0.037586853915932306
0.15631513130469998 0.00806909892535274 0.03907554050580338 0.9896945117335559 -0.09191231402228148 0.00281755903310617 0.018746470898502378 -0.002385176069241789 -0.011830142952314627
