! Created with skrf 1.8.0 (http://scikit-rf.org).
# GHz S RI R 50.0 
!freq ReS11 ImS11 ReS12 ImS12 ReS13 ImS13
! ReS14 ImS14
! ReS21 ImS21 ReS22 ImS22 ReS23 ImS23
! ReS24 ImS24
! ReS31 ImS31 ReS32 ImS32 ReS33 ImS33
! ReS34 ImS34
! ReS41 ImS41 ReS42 ImS42 ReS43 ImS43
! ReS44 ImS44
!
0.0 0.001555120914705 0.0 0.9984448790597 0.0 6.023812999668e-05 0.0 -6.023812990871e-05 7.377043297932415e-21
 0.9984448790597 0.0 0.001555120914713 0.0 -6.023812990902e-05 7.377043297970378e-21 6.023812999865e-05 0.0
 6.023812999668e-05 0.0 -6.023812990902e-05 7.377043297970378e-21 0.001555120927507 0.0 0.9984448790725 0.0
 -6.023812990871e-05 7.377043297932415e-21 6.023812999865e-05 0.0 0.9984448790725 0.0 0.001555120927495 0.0
0.005 0.0016732643948097403 0.0012678485128989987 0.9982953886185908 -0.0032577448576977604 8.51045942848889e-05 0.0006900149477589422 -8.247096073280363e-05 -0.00042851399702406953
 0.9982953886185908 -0.0032577448576977604 0.0016732773416376105 0.0012678409856747433 -8.247188968924555e-05 -0.0004285147633661478 8.502971411046286e-05 0.0006900436222659971
 8.51045942848889e-05 0.0006900149477589422 -8.247188968924555e-05 -0.0004285147633661478 0.0016732632955311856 0.0012677819400235713 0.9982953882541836 -0.003257811907503597
 -8.247096073280363e-05 -0.00042851399702406953 8.502971411046286e-05 0.0006900436222659971 0.9982953882541836 -0.003257811907503597 0.0016732777151269211 0.001267773460546701
0.006252605252188 0.0017042599952483098 0.001589816656495618 0.9982559165621265 -0.004072977890703321 9.222220060396898e-05 0.0008628395427142057 -8.875693476085565e-05 -0.0005362017702186423
 0.9982559165621265 -0.004072977890703321 0.001704280232583557 0.0015898070482184457 -8.875837986969221e-05 -0.0005362027162173559 9.210520918503914e-05 0.0008628767510017169
 9.222220060396898e-05 0.0008628395427142057 -8.875837986969221e-05 -0.0005362027162173559 0.0017042583567736167 0.0015897334421381487 0.9982559160728399 -0.004073061707867129
 -8.875693476085565e-05 -0.0005362017702186423 9.210520918503914e-05 0.0008628767510017169 0.9982559160728399 -0.004073061707867129 0.00170428089726494 0.0015897226321212282
0.01250521050438 0.0018674868640026331 0.003213079584771626 0.9980466525518197 -0.008146769220544404 0.00013311006570457818 0.001725948451424184 -0.00012447007750611782 -0.0010750195235829194
 0.9980466525518197 -0.008146769220544404 0.0018675676619155544 0.003213058358986765 -0.00012447576751611485 -0.001075021285360798 0.00013264358859034438 0.0017260376231957092
 0.00013311006570457818 0.001725948451424184 -0.00012447576751611485 -0.001075021285360798 0.001867480886980284 0.0032129134734184403 0.9980466511695903 -0.008146936617655661
 -0.00012447007750611782 -0.0010750195235829194 0.00013264358859034438 0.0017260376231957092 0.9980466511695903 -0.008146936617655661 0.0018675708954463718 0.0032128897151045715
0.01875781575657 0.0020451612822136307 0.004859540218359961 0.9978168246902773 -0.012231289876536633 0.0001829961095930854 0.002589930410944557 -0.00016748888917304173 -0.001615639048745298
 0.9978168246902773 -0.012231289876536633 0.002045342819733627 0.004859505236049278 -0.0001675015711601071 -0.001615641472615843 0.00018194835368403383 0.0025900892411703557
 0.0001829961095930854 0.002589930410944557 -0.0001675015711601071 -0.001615641472615843 0.002045148258449948 0.0048592914282490855 0.9978168220021053 -0.012231540754069707
 -0.00016748888917304173 -0.001615639048745298 0.00018194835368403383 0.0025900892411703557 0.9978168220021053 -0.012231540754069707 0.002045350519823763 0.004859252408253324
0.02501042100875 0.0022376321570731984 0.006526880327508765 0.9975661601928414 -0.016328514427793126 0.00024197633803713117 0.003454824327796662 -0.00021792087379889514 -0.0021578048167970767
 0.9975661601928414 -0.016328514427793126 0.0022379545190434474 0.006526829330661443 -0.00021794325982027728 -0.002157807722704941 0.0002401155019060134 0.0034550733413872214
 0.00024197633803713117 0.003454824327796662 -0.00021794325982027728 -0.002157807722704941 0.0022376093859622233 0.0065265490700568704 0.9975661557943367 -0.016328848730983114
 -0.00021792087379889514 -0.0021578048167970767 0.0002401155019060134 0.0034550733413872214 0.9975661557943367 -0.016328848730983114 0.0022379685976421917 0.0065264923122924255
0.03126302626094 0.00244523394329359 0.008213903937644458 0.9972943724890736 -0.02043928418178218 0.00031014729837231333 0.00432058633564898 -0.0002758703788813408 -0.002701337934008567
 0.9972943724890736 -0.02043928418178218 0.002445737141507261 0.00821383455128275 -0.00027590515199565305 -0.0027013411152108082 0.0003072413530232746 0.0043209489015346115
 0.00031014729837231333 0.00432058633564898 -0.00027590515199565305 -0.0027013411152108082 0.002445198718528647 0.008213490440348697 0.997294365971241 -0.02043970187802594
 -0.0002758703788813408 -0.002701337934008567 0.0003072413530232746 0.0043209489015346115 0.997294365971241 -0.02043970187802594 0.0024457595125804603 0.008213413307768168
0.037515631513130004 0.0026682937909730154 0.009919829003762499 0.9970011686054024 -0.024564015449643418 0.0003876050637656451 0.005187139877150169 -0.00034143938401298067 -0.003246086060505374
 0.9970011686054024 -0.024564015449643418 0.002669017778122746 0.00991973873679403 -0.0003414892013726116 -0.0032460892835052663 0.00038342165462146966 0.005187642235067604
 0.0003876050637656451 0.005187139877150169 -0.0003414892013726116 -0.0032460892835052663 0.0026682434070938667 0.009919333518004038 0.9970011595611276 -0.0245645165211746
 -0.00034143938401298067 -0.003246086060505374 0.00038342165462146966 0.005187642235067604 0.9970011595611276 -0.0245645165211746 0.0026690503646122554 0.009919233212920308
0.043768236765320004 0.002907134312190988 0.011644071841219397 0.9966862521684824 -0.028702915045561085 0.00047444475520727245 0.006054390938536737 -0.000414727784172145 -0.0037919081789864603
 0.9966862521684824 -0.028702915045561085 0.0029081189931497243 0.011643958086913143 -0.00041479527891962777 -0.003791911183533988 0.00046875115581434596 0.006055062229853458
 0.00047444475520727245 0.006054390938536737 -0.00041479527891962777 -0.003791911183533988 0.0029070660614901236 0.011643494650686469 0.9966862401886339 -0.02870349948147312
 -0.000414727784172145 -0.0037919081789864603 0.00046875115581434596 0.006055062229853458 0.9966862401886339 -0.02870349948147312 0.002908163723657191 0.011643368214665037
0.050020842017509996 0.003162074859245269 0.013386158046684611 0.9963493249240074 -0.03285606929451893 0.0005707602554538102 0.006922234346961417 -0.0004958334907975495 -0.004338668303738008
 0.9963493249240074 -0.03285606929451893 0.003163360100994407 0.013386018082883745 -0.0004959212733369238 -0.004338670802860415 0.0005633233490030181 0.0069231066471142425
 0.0005707602554538102 0.006922234346961417 -0.0004959212733369238 -0.004338670802860415 0.003161986033552186 0.01338549946459638 0.9963493095989611 -0.03285673709402418
 -0.0004958334907975495 -0.004338668303738008 0.0005633233490030181 0.0069231066471142425 0.9963493095989611 -0.03285673709402418 0.0031634189110015328 0.013385343778000887
0.055454545454549996 0.0033969471730262487 0.01491425605214446 0.9960384170860345 -0.036476871517260256 0.0006622286938988276 0.007676809836534481 -0.0005727399841011063 -0.004814477088882236
 0.9960384170860345 -0.036476871517260256 0.0033985259651402823 0.014914091011029003 -0.0005728475002816048 -0.004814478894986731 0.0006530871762091794 0.0076778851723074215
 0.0006622286938988276 0.007676809836534481 -0.0005728475002816048 -0.004814478894986731 0.003396838267403634 0.014913527019627842 0.9960383985200348 -0.03647761176582503
 -0.0005727399841011063 -0.004814477088882236 0.0006530871762091794 0.0076778851723074215 0.9960383985200348 -0.03647761176582503 0.0033985985878038916 0.01491334325410883
0.056273447269699996 0.0034334321819750246 0.015145678773994383 0.9959900876392045 -0.037023487686412115 0.0006766440075793947 0.007790556852130263 -0.0005848524521174022 -0.004886232409027431
 0.9959900876392045 -0.037023487686412115 0.0034350578221870416 0.015145509762989902 -0.0005849631109362848 -0.004886234089062217 0.0006672302843316905 0.007791665203763709
 0.0006766440075793947 0.007790556852130263 -0.0005849631109362848 -0.004886234089062217 0.0034333200728380174 0.015144939145864058 0.9959900685578164 -0.037024238856558464
 -0.0005848524521174022 -0.004886232409027431 0.0006672302843316905 0.007791665203763709 0.9959900685578164 -0.037024238856558464 0.003435132654140301 0.015144750927095784
0.06252605252188 0.0037215207740934533 0.016922266694966187 0.9956082406976652 -0.04120512684846677 0.0007921868535947701 0.00865923883509259 -0.0006818786334618092 -0.005434466734491899
 0.9956082406976652 -0.04120512684846677 0.0037235266296486227 0.016922065683160785 -0.0006820147357907898 -0.005434467255121059 0.0007805624199305475 0.008660621281455597
 0.0007921868535947701 0.00865923883509259 -0.0006820147357907898 -0.005434467255121059 0.0037213826725582028 0.01692144639806842 0.9956082174470678 -0.041205961405141385
 -0.0006818786334618092 -0.005434466734491899 0.0007805624199305475 0.008660621281455597 0.9956082174470678 -0.041205961405141385 0.0037236194318381044 0.01692122220265542
0.06877865777407 0.004026653054749515 0.01871558166511366 0.9952034845345478 -0.04540090481673335 0.0009174778969008951 0.009528155322680608 -0.0007870039740220132 -0.005983236789416227
 0.9952034845345478 -0.04540090481673335 0.004029078929786378 0.018715345582515436 -0.0007871680662420754 -0.0059832357837204045 0.0009034084918386161 0.009529852941039401
 0.0009174778969008951 0.009528155322680608 -0.0007871680662420754 -0.0059832357837204045 0.004026486252481474 0.018714681112477365 0.9952034566997334 -0.045401822781162796
 -0.0007870039740220132 -0.005983236789416227 0.0009034084918386161 0.009529852941039401 0.9952034566997334 -0.045401822781162796 0.004029191657209794 0.01871441733177512
0.07503126302626001 0.00434913944814485 0.020525301647126425 0.994775519972381 -0.049610710054445284 0.0010526043790953005 0.010397176637418553 -0.000900318328224379 -0.00653240672636641
 0.994775519972381 -0.049610710054445284 0.004352025142302216 0.02052502730640976 -0.0009005129362862112 -0.0065324038008520244 0.0010358553965572925 0.010399233572322692
 0.0010526043790953005 0.010397176637418553 -0.0009005129362862112 -0.0065324038008520244 0.004348941238010335 0.02052432128481855 0.9947754871364355 -0.04961171145630013
 -0.000900318328224379 -0.00653240672636641 0.0010358553965572925 0.010399233572322692 0.9947754871364355 -0.04961171145630013 0.004352159755920413 0.0205240141446096
0.08128386827845 0.004689288402982132 0.022351116661943917 0.9943240485018724 -0.053834407448006646 0.0011976515641397706 0.011266168838386777 -0.0010219093987591005 -0.007081838928886092
 0.9943240485018724 -0.053834407448006646 0.004692673718951082 0.02235080075742366 -0.001022137028334486 -0.007081833663540127 0.0011779880800072435 0.011268632334652499
 0.0011976515641397706 0.011266168838386777 -0.001022137028334486 -0.007081833663540127 0.00468905607961847 0.02235005697314147 0.9943240102456073 -0.05383549232179571
 -0.0010219093987591005 -0.007081838928886092 0.0011779880800072435 0.011268632334652499 0.9943240102456073 -0.05383549232179571 0.004692832186269732 0.022349702531875078
0.08753647353064001 0.0050474063692209845 0.024192724615930097 0.9938487725229231 -0.058071842432308486 0.0013527026287725422 0.012134994028453536 -0.0011518626624104538 -0.007631393738043092
 0.9938487725229231 -0.058071842432308486 0.005051331120879406 0.024192363722189605 -0.001152125799150683 -0.007631385686368289 0.0013298894313034325 0.012137914463834451
 0.0013527026287725422 0.012134994028453536 -0.001152125799150683 -0.007631385686368289 0.005047137229334253 0.02419158611866309 0.993848728424019 -0.05807301082005563
 -0.0011518626624104538 -0.007631393738043092 0.0013298894313034325 0.012137914463834451 0.993848728424019 -0.05807301082005563 0.005051515414882441 0.024191180265475495
0.09378907878283 0.005423797746175098 0.026049828316788207 0.9933493955605885 -0.06232284393312684 0.0015178385563299867 0.013003510583746781 -0.0012902612913405674 -0.008180929262142755
 0.9933493955605885 -0.06232284393312684 0.005428301766263887 0.02604941888700827 -0.0012905624009917954 -0.008180917951203973 0.001491640179788461 0.01300694150115281
 0.0015178385563299867 0.013003510583746781 -0.0012905624009917954 -0.008180917951203973 0.005423489089803355 0.026048611563779234 0.9933493451942177 -0.06232409588491281
 -0.0012902612913405674 -0.008180929262142755 0.001491640179788461 0.01300694150115281 0.9933493451942177 -0.06232409588491281 0.005428513866003608 0.0260481500162866
0.100041684035 0.005818764810238728 0.02792213328430438 0.9928256224643514 -0.06658722652075923 0.0016931380329642668 0.013871573327441123 -0.0014371860710060917 -0.008730301247652695
 0.9928256224643514 -0.06658722652075923 0.005823887958136466 0.027921671648446868 -0.0014375275994848457 -0.008730286178122423 0.0016633187939512272 0.013875571466700428
 0.0016931380329642668 0.013871573327441123 -0.0014375275994848457 -0.008730286178122423 0.005818413940795534 0.027920838869758935 0.9928255654021504 -0.06658856208832666
 -0.0014371860710060917 -0.008730301247652695 0.0016633187939512272 0.013875571466700428 0.9928255654021504 -0.06658856208832666 0.005824129847966169 0.027920317171533714
0.1059090909091 0.006206561217585068 0.029692656932840854 0.9923116673608914 -0.07060089085837243 0.0018669496224125615 0.014685613089402793 -0.0015828836283385674 -0.009245549199898848
 0.9923116673608914 -0.07060089085837243 0.006212301633780683 0.029692142857429073 -0.0015832652925403987 -0.009245530125714498 0.0018335180765054835 0.014690197985662052
 0.0018669496224125615 0.014685613089402793 -0.0015832652925403987 -0.009245530125714498 0.006206168287253379 0.029691290211662287 0.9923116036228782 -0.07060230494616059
 -0.0015828836283385674 -0.009245549199898848 0.0018335180765054835 0.014690197985662052 0.9923116036228782 -0.07060230494616059 0.006212573288124309 0.029690707857803537
0.1062942892872 0.0062326076269189215 0.02980934611956953 0.9922771595956075 -0.07086479201162872 0.0018786773456762511 0.014739033670418912 -0.0015927153155053872 -0.0092793629889222
 0.9922771595956075 -0.07086479201162872 0.006238389796734204 0.029808828482028045 -0.0015930996889766934 -0.009279343635114753 0.0018450013816064884 0.01474365899948404
 0.0018786773456762511 0.014739033670418912 -0.0015930996889766934 -0.009279343635114753 0.006232211852297964 0.029807974671082867 0.9922770954057385 -0.07086621125675086
 -0.0015927153155053872 -0.0092793629889222 0.0018450013816064884 0.01474365899948404 0.9922770954057385 -0.07086621125675086 0.006238663466413065 0.029807388188867804
0.11254689453939999 0.0066656239516724195 0.03171117324782398 0.9917037150053638 -0.07515533070241014 0.002074530281805576 0.015605739725992029 -0.0017569247806477387 -0.009827965269667237
 0.9917037150053638 -0.07515533070241014 0.006672105079932449 0.0317105956850591 -0.001757354405528626 -0.009827941079597726 0.0020367615915456547 0.015611055471615528
 0.002074530281805576 0.015605739725992029 -0.001757354405528626 -0.009827941079597726 0.006665180584945106 0.03170972543232747 0.9917036432524396 -0.07515683369143146
 -0.0017569247806477387 -0.009827965269667237 0.0020367615915456547 0.015611055471615528 0.9917036432524396 -0.07515683369143146 0.006672412524658594 0.03170906935297081
0.11879949979160001 0.007118109121613772 0.03362731994519197 0.9911049986078657 -0.07945862232756913 0.0022807680291470527 0.016471536408129893 -0.0019298875758642967 -0.010375956326834902
 0.9911049986078657 -0.07945862232756913 0.007125329195273858 0.03362667840281386 -0.001930364838852168 -0.01037592672225528 0.002238670515444003 0.016477609085883416
 0.0022807680291470527 0.016471536408129893 -0.001930364838852168 -0.01037592672225528 0.007117615481704187 0.0336257964663723 0.9911049188523376 -0.07946020913411762
 -0.0019298875758642967 -0.010375956326834902 0.002238670515444003 0.016477609085883416 0.9911049188523376 -0.07946020913411762 0.00712567241501306 0.03362506579346787
0.1250521050438 0.007590355939307326 0.03555748957781689 0.9904807223476757 -0.08377443681078296 0.0024974590771078137 0.017336265520556702 -0.0021116740746175444 -0.010923181829644529
 0.9904807223476757 -0.08377443681078296 0.007598355003725018 0.035556779867523584 -0.002112201342680257 -0.010923146206098371 0.0024507965907850215 0.01734316496419387
 0.0024974590771078137 0.017336265520556702 -0.002112201342680257 -0.010923146206098371 0.007589809351810893 0.035555891179929126 0.9904806341456774 -0.0837761075123806
 -0.0021116740746175444 -0.010923181829644529 0.0024507965907850215 0.01734316496419387 0.9904806341456774 -0.0837761075123806 0.007598736003346565 0.03555508073013703
0.131304710296 0.00808265455182278 0.03750138299276899 0.9898306003652487 -0.08810253487227401 0.002724669118455113 0.018199765834770003 -0.002302351824111457 -0.011469484875832096
 0.9898306003652487 -0.08810253487227401 0.00809147271859776 0.037500600788848384 -0.0023029314444205887 -0.011469442602679538 0.00267320550407331 0.01820756522496573
 0.002724669118455113 0.018199765834770003 -0.0023029314444205887 -0.011469442602679538 0.008082052349678797 0.03749971045656397 0.9898305032683324 -0.08810428955462947
 -0.002302351824111457 -0.011469484875832096 0.00267320550407331 0.01820756522496573 0.9898305032683324 -0.08810428955462947 0.008091893507528623 0.037498814855652526
0.1375573155481 0.008483111098701177 0.039204275782996595 0.9892665735887749 -0.09218813477635619 0.002934290526011138 0.01903625804183041 -0.0024738747921292034 -0.011989065570412513
 0.9892665735887749 -0.09218813477635619 0.008492792721580522 0.03920343621772326 -0.002474510392153522 -0.0119890165989154 0.002877901686604581 0.01904494690175085
 0.002934290526011138 0.01903625804183041 -0.002474510392153522 -0.0119890165989154 0.008482451404034922 0.03920252952631858 0.9892664671929955 -0.09218997345606746
 -0.0024738747921292034 -0.011989065570412513 0.002877901686604581 0.01904494690175085 0.9892664671929955 -0.09218997345606746 0.008493254437694392 0.039201563466561305
0.1438099208003 0.008897668642136005 0.04089801810266299 0.9886826689855692 -0.09626321383738977 0.0031523901096546275 0.019869286849370654 -0.0026522629972526466 -0.012505497741692722
 0.9886826689855692 -0.09626321383738977 0.008908254594565783 0.04089711814555255 -0.002652957126247424 -0.012505441447167316 0.0030908601291379286 0.019878932265860877
 0.0031523901096546275 0.019869286849370654 -0.002652957126247424 -0.012505441447167316 0.00889694894064455 0.04089619889147169 0.9886825528456076 -0.09626513659035128
 -0.0026522629972526466 -0.012505497741692722 0.0030908601291379286 0.019878932265860877 0.9886825528456076 -0.09626513659035128 0.008908759095259568 0.04089515833302248
0.1500625260525 0.009326178729349955 0.04258246348128477 0.9880790392065861 -0.1003276659839218 0.003378891981884083 0.020698764255079587 -0.0028374431096802014 -0.013018698935505708
 0.9880790392065861 -0.1003276659839218 0.009337709978611525 0.042581499923671884 -0.00283819831329122 -0.013018634667719962 0.0033120062337131137 0.020709435769568515
 0.003378891981884083 0.020698764255079587 -0.00283819831329122 -0.013018634667719962 0.00932539652269798 0.04258057210946271 0.9880789128735321 -0.10032967288960742
 -0.0028374431096802014 -0.013018698935505708 0.0033120062337131137 0.020709435769568515 0.9880789128735321 -0.10032967288960742 0.009338259114967681 0.04257945279657267
0.15631513130469998 0.009768491821022855 0.044257469861836506 0.9874558377150671 -0.10438138562260252 0.003613719340930466 0.0215246037644861 -0.003029340879829476 -0.013528588466649134
