! Created with skrf 1.8.0 (http://scikit-rf.org).
# GHz S RI R 50.0 
!freq ReS11 ImS11 ReS12 ImS12 ReS13 ImS13
! ReS14 ImS14
! ReS21 ImS21 ReS22 ImS22 ReS23 ImS23
! ReS24 ImS24
! ReS31 ImS31 ReS32 ImS32 ReS33 ImS33
! ReS34 ImS34
! ReS41 ImS41 ReS42 ImS42 ReS43 ImS43
! ReS44 ImS44
!
0.0 0.001770386934839 0.0 0.9982296130538 0.0 6.849934480651e-05 0.0 -6.849934445103e-05 8.388750292564591e-21
 0.9982296130538 0.0 0.001770386934857 0.0 -6.849934445184e-05 8.388750292663787e-21 6.849934480689e-05 0.0
 6.849934480651e-05 0.0 -6.849934445184e-05 8.388750292663787e-21 0.001770386934858 0.0 0.9982296130538 0.0
 -6.849934445103e-05 8.388750292564591e-21 6.849934480689e-05 0.0 0.9982296130538 0.0 0.001770386934839 0.0
0.005 0.0019054994641733575 0.0014507896827007588 0.998058567604769 -0.003707473395369213 9.591967437090007e-05 0.0007360253721166261 -9.320666860041584e-05 -0.0004651231638227672
 0.998058567604769 -0.003707473395369213 0.0019055091091479072 0.0014507840674492629 -9.32097844119261e-05 -0.0004651255776886448 9.585084997128826e-05 0.0007360516314692051
 9.591967437090007e-05 0.0007360253721166261 -9.32097844119261e-05 -0.0004651255776886448 0.0019054973607077164 0.0014507236717911545 0.9980585672240485 -0.003707540458166297
 -9.320666860041584e-05 -0.0004651231638227672 9.585084997128826e-05 0.0007360516314692051 0.9980585672240485 -0.003707540458166297 0.0019055104563088753 0.0014507159561997424
0.006252605252188 0.0019411570590790134 0.0018191484030732053 0.9980131100778454 -0.004635211227274566 0.00010386868693004566 0.0009203829586664645 -0.00010027679189131519 -0.0005819877474667364
 0.9980131100778454 -0.004635211227274566 0.0019411721355823447 0.0018191412492654776 -0.00010028164014558735 -0.0005819907232407362 0.00010376115664397725 0.0009204170746886835
 0.00010386868693004566 0.0009203829586664645 -0.00010028164014558735 -0.0005819907232407362 0.001941153851631522 0.0018190659020113891 0.9980131095637284 -0.004635295050543762
 -0.00010027679189131519 -0.0005819877474667364 0.00010376115664397725 0.0009204170746886835 0.9980131095637284 -0.004635295050543762 0.0019411743229688185 0.001819056111763034
0.01250521050438 0.002130156381614999 0.0036759529248807997 0.9977704311335021 -0.009270945602955966 0.00015006256116710737 0.0018410794273036684 -0.00014089755616292487 -0.0011666336981935735
 0.9977704311335021 -0.009270945602955966 0.0021302165773973286 0.0036759372656844395 -0.00014091665991096075 -0.0011666391890758794 0.0001496337865531615 0.001841161729022604
 0.00015006256116710737 0.0018410794273036684 -0.00014091665991096075 -0.0011666391890758794 0.002130144125932006 0.00367578827545128 0.997770429636486 -0.009271113000827624
 -0.00014089755616292487 -0.0011666336981935735 0.0001496337865531615 0.001841161729022604 0.997770429636486 -0.009271113000827624 0.00213022587607778 0.0036757671968643438
0.01875781575657 0.002337843527491411 0.00555871201714063 0.9975012419776395 -0.013918427412960501 0.0002071949762634672 0.002762647449292941 -0.00019049529949812535 -0.0017530880321321351
 0.9975012419776395 -0.013918427412960501 0.0023379787811581474 0.005558686427429149 -0.00019053789676960056 -0.0017530954769453865 0.00020623185865704675 0.0027627950639193557
 0.0002071949762634672 0.002762647449292941 -0.00019053789676960056 -0.0017530954769453865 0.002337816400280037 0.00555846549043909 0.9975012390325181 -0.013918678303109212
 -0.00019049529949812535 -0.0017530880321321351 0.00020623185865704675 0.0027627950639193557 0.9975012390325181 -0.013918678303109212 0.0023380001115875025 0.005558431444629691
0.02501042100875 0.0025646607284865773 0.007464739316029103 0.9972051939710764 -0.018579849923768772 0.00027538119067277667 0.003685081741495562 -0.00024919845170499915 -0.002341055848423006
 0.9972051939710764 -0.018579849923768772 0.002564900914160895 0.007464702306702617 -0.0002492736676039043 -0.0023410645762960004 0.0002736706155699237 0.0036853147621352914
 0.00027538119067277667 0.003685081741495562 -0.0002492736676039043 -0.0023410645762960004 0.0025646129170516243 0.007464411223151991 0.99720518911501 -0.01858018426654864
 -0.00024919845170499915 -0.002341055848423006 0.0002736706155699237 0.0036853147621352914 0.99720518911501 -0.01858018426654864 0.002564939199952912 0.007464362364612906
0.03126302626094 0.002811031840673693 0.009392622802787569 0.9968819224919021 -0.023256116211806798 0.000354736282116872 0.004608293511410631 -0.00031713117279058014 -0.0029303173437692956
 0.9968819224919021 -0.023256116211806798 0.0028114067858156094 0.009392572823211673 -0.0003172480381109097 -0.002930326573102792 0.00035206493184497653 0.004608635014410901
 0.000354736282116872 0.004608293511410631 -0.0003172480381109097 -0.002930326573102792 0.0028109575354755383 0.009392213512833928 0.9968819152583455 -0.02325653399277616
 -0.00031713117279058014 -0.0029303173437692956 0.00035206493184497653 0.004608635014410901 0.9968819152583455 -0.02325653399277616 0.002811466951063182 0.009392147831238167
0.037515631513130004 0.003077370941929545 0.011341419393840242 0.9965310559127913 -0.027947644516368136 0.00044537399545699086 0.005532160311833802 -0.00039441419340615144 -0.0035206779881359566
 0.9965310559127913 -0.027947644516368136 0.0030779104406242403 0.011341354833091639 -0.0003945816541041626 -0.0035206868263440994 0.0004415282715981672 0.005532636385465331
 0.00044537399545699086 0.005532160311833802 -0.0003945816541041626 -0.0035206868263440994 0.0030772643377186028 0.011340929344071106 0.9965310458329354 -0.02794814573681559
 -0.00039441419340615144 -0.0035206779881359566 0.0004415282715981672 0.005532636385465331 0.9965310458329354 -0.02794814573681559 0.0030779974123786 0.011340844664609282
0.043768236765320004 0.003364085637681816 0.013310409861041537 0.9961522192893119 -0.0326546132505248 0.0005474061794957601 0.006456541214456211 -0.0004811650933029752 -0.004111953385496124
 0.9961522192893119 -0.0326546132505248 0.0033648194615314275 0.013310329048835383 -0.0004813920159740763 -0.004111960828982366 0.0005421721725136353 0.006457180990985167
 0.0005474061794957601 0.006456541214456211 -0.0004813920159740763 -0.004111960828982366 0.0033639409360975768 0.013309839558267464 0.9961522058937049 -0.032655197927061994
 -0.0004811650933029752 -0.004111953385496124 0.0005421721725136353 0.006457180990985167 0.9961522058937049 -0.032655197927061994 0.00336493817316844 0.013309733541176823
0.050020842017509996 0.003671578577048846 0.015298997550879566 0.995745036262664 -0.0373770622129787 0.0006609424325210017 0.007381283089234747 -0.0005774983788943935 -0.004703963034308249
 0.995745036262664 -0.0373770622129787 0.0036725364847939187 0.015298898758109938 -0.0005777935541552274 -0.004703967968502898 0.000654105916435177 0.007382118778324467
 0.0006609424325210017 0.007381283089234747 -0.0005777935541552274 -0.004703967968502898 0.0036713899843358665 0.015298347570931538 0.9957450190783004 -0.03737773037888626
 -0.0005774983788943935 -0.004703963034308249 0.000654105916435177 0.007382118778324467 0.9957450190783004 -0.03737773037888626 0.003672691874185466 0.0152982177105993
0.055454545454549996 0.003955983286130112 0.017042647763769955 0.9953678686129069 -0.04149354879649874 0.0007690348225329776 0.008185079141815594 -0.0006690836053307722 -0.005218894145537905
 0.9953678686129069 -0.04149354879649874 0.0039571600947573655 0.017042531895564053 -0.0006694451759343898 -0.0052188959077869145 0.0007606314614539656 0.008186113658562737
 0.0007690348225329776 0.008185079141815594 -0.0006694451759343898 -0.0052188959077869145 0.003955751850387719 0.017041929065802815 0.995367847749473 -0.041494289555288076
 -0.0006690836053307722 -0.005218894145537905 0.0007606314614539656 0.008186113658562737 0.995367847749473 -0.041494289555288076 0.003957351372427648 0.017041776320376744
0.056273447269699996 0.004000248205759427 0.01730665866421229 0.9953091302056499 -0.04211494224344422 0.0007860898402485884 0.00830622369526499 -0.0006835254704457685 -0.005296527283290144
 0.9953091302056499 -0.04211494224344422 0.004001459953119803 0.017306540103145706 -0.0006838976151993266 -0.0052965284827318 0.000777436282736845 0.008307290617814747
 0.0007860898402485884 0.00830622369526499 -0.0006838976151993266 -0.0052965284827318 0.004000009934564779 0.017305929655572327 0.9953091087565139 -0.04211569394599036
 -0.0006835254704457685 -0.005296527283290144 0.000777436282736845 0.008307290617814747 0.9953091087565139 -0.04211569394599036 0.004001656963480183 0.01730577327930234
0.06252605252188 0.004350489148522632 0.0193329149444019 0.9948441250032478 -0.04686814247636587 0.0009229527596488397 0.009231193392928428 -0.0007993546438247848 -0.005889465673542915
 0.9948441250032478 -0.04686814247636587 0.004351984496805527 0.019332774768496437 -0.0007998124025726287 -0.00588946180197999 0.0009122673422501399 0.009232530014902412
 0.0009229527596488397 0.009231193392928428 -0.0007998124025726287 -0.00588946180197999 0.004350195417467096 0.019332107635354395 0.9948440988089935 -0.046868977770590826
 -0.0007993546438247848 -0.005889465673542915 0.0009122673422501399 0.009232530014902412 0.9948440988089935 -0.046868977770590826 0.004352228076792444 0.019331921901671253
0.06877865777407 0.004722692383253002 0.021377317390887822 0.9943496456304574 -0.051636506577265505 0.0010716326290309507 0.010156016179043608 -0.0009250909452427904 -0.0064825959657928665
 0.9943496456304574 -0.051636506577265505 0.004724501108428067 0.02137715369435032 -0.0009256428910325244 -0.006482585576292315 0.0010587002745153559 0.010157664145089415
 0.0010716326290309507 0.010156016179043608 -0.0009256428910325244 -0.006482585576292315 0.004722337418789872 0.021376432582649586 0.9943496142065229 -0.051637425533663454
 -0.0009250909452427904 -0.0064825959657928665 0.0010587002745153559 0.010157664145089415 0.9943496142065229 -0.051637425533663454 0.004724796212587767 0.02137621447940799
0.07503126302626001 0.005117245295009813 0.02343943594510198 0.9938253186151677 -0.05641984301569903 0.0012322277926442328 0.011080510356293104 -0.0010608360905902396 -0.007075733541943392
 0.9938253186151677 -0.05641984301569903 0.005119397196652419 0.023439246762174213 -0.0010614907254779345 -0.007075715077027656 0.0012168331981097867 0.011082514522972238
 0.0012322277926442328 0.011080510356293104 -0.0010614907254779345 -0.007075715077027656 0.005116823332288095 0.023438474517847706 0.993825281472733 -0.05642084571510503
 -0.0010608360905902396 -0.007075733541943392 0.0012168331981097867 0.011082514522972238 0.993825281472733 -0.05642084571510503 0.005119748785712406 0.023438220859921425
0.08128386827845 0.005534531653964199 0.02551885263455172 0.9932707724305816 -0.06121793188996056 0.0014048333353627463 0.012004488996151218 -0.0012066883539206634 -0.007668691022013156
 0.9932707724305816 -0.06121793188996056 0.005537056563853672 0.02551863593828191 -0.001207454109124819 -0.0076686628138012344 0.0013867610096029684 0.01200689746465793
 0.0014048333353627463 0.012004488996151218 -0.001207454109124819 -0.0076686628138012344 0.005534036937016584 0.025517815546187865 0.9932707290748091 -0.06121901842558927
 -0.0012066883539206634 -0.007668691022013156 0.0013867610096029684 0.01200689746465793 0.9932707290748091 -0.06121901842558927 0.005537469604300234 0.025517522972799904
0.08753647353064001 0.005974931540179589 0.027615156838071583 0.9926856378384122 -0.06603052964068327 0.0015895409239444897 0.012927760272065304 -0.0013627424485332807 -0.008261278020022323
 0.9926856378384122 -0.06603052964068327 0.005977859331362488 0.027614910538940753 -0.0013636276844636547 -0.008261238290384191 0.0015685752283485768 0.012930624420286193
 0.0015895409239444897 0.012927760272065304 -0.0013636276844636547 -0.008261238290384191 0.005974358323580776 0.027614045126943716 0.992685587768895 -0.06603170011630612
 -0.0013627424485332807 -0.008261278020022323 0.0015685752283485768 0.012930624420286193 0.992685587768895 -0.06603170011630612 0.005978338795699004 0.027613710098707764
0.09378907878283 0.006438821234025977 0.02972794191390726 0.9920695482028432 -0.07085737241268474 0.0017864386521520214 0.013850127718298272 -0.001529089403723568 -0.008853300983612632
 0.9920695482028432 -0.07085737241268474 0.006442181829571727 0.02972766385791568 -0.0015301024097514164 -0.008853247844346442 0.0017623638446030555 0.013853502232257215
 0.0017864386521520214 0.013850127718298272 -0.0015301024097514164 -0.008853247844346442 0.006438163783545335 0.029726756698158302 0.9920694909123757 -0.07085862694390156
 -0.001529089403723568 -0.008853300983612632 0.0017623638446030555 0.013853502232257215 0.9920694909123757 -0.07085862694390156 0.00644273269604829 0.029726375493749364
0.100041684035 0.006926573080737261 0.0318568027418775 0.9914221397825591 -0.07569817851361686 0.0019956108895833316 0.014771390433990773 -0.0017058164373553973 -0.00944456309804786
 0.9914221397825591 -0.07569817851361686 0.006930396462726688 0.03185649070841232 -0.0017069654314972953 -0.00944449455106313 0.0019682111711406404 0.01477533333846132
 0.0019956108895833316 0.014771390433990773 -0.0017069654314972953 -0.00944449455106313 0.006925825675183375 0.03185554522109544 0.9914220747574347 -0.07569951722705796
 -0.0017058164373553973 -0.00944456309804786 0.0019682111711406404 0.01477533333846132 0.9914220747574347 -0.07569951722705796 0.006931023715880288 0.031855113933563745
0.1059090909091 0.007406306917744056 0.03386877239656123 0.9907858103225701 -0.08025319614502613 0.0022031321370976193 0.015634710338072413 -0.0018811708169900413 -0.009998529665143143
 0.9907858103225701 -0.08025319614502613 0.007410591904439362 0.03386842639758504 -0.0018824548317568912 -0.009998444744694534 0.0021724160678717732 0.015639242390074925
 0.0022031321370976193 0.015634710338072413 -0.0018824548317568912 -0.009998444744694534 0.00740546990781141 0.033867448189808524 0.9907857375653418 -0.08025461397902402
 -0.0018811708169900413 -0.009998529665143143 0.0021724160678717732 0.015639242390074925 0.9907857375653418 -0.08025461397902402 0.007411295377048759 0.033866966182337185
0.1062942892872 0.0074385553366885975 0.03400133387572858 0.9907430520084793 -0.08055265027418576 0.002217138132656258 0.015691343255853862 -0.0018930068265112314 -0.010034864231363254
 0.9907430520084793 -0.08055265027418576 0.007442871555089672 0.03400098557494181 -0.0018942999549639483 -0.010034778168887721 0.002186197696282054 0.015695915944279826
 0.002217138132656258 0.015691343255853862 -0.0018942999549639483 -0.010034778168887721 0.007437712268694366 0.034000005331163034 0.9907429787276035 -0.08055407330794899
 -0.0018930068265112314 -0.010034864231363254 0.002186197696282054 0.015695915944279826 0.9907429787276035 -0.08055407330794899 0.007443580185377046 0.03399951986386345
0.11254689453939999 0.007975132001026217 0.036161128148837596 0.9900319277502916 -0.0854204754667618 0.00245109685757502 0.016609776909612035 -0.002090739776228678 -0.010624000910838156
 0.9900319277502916 -0.0854204754667618 0.007979971182677036 0.03616074121871464 -0.002092185112763246 -0.010623895115665657 0.0024163999392994673 0.016615044172991016
 0.00245109685757502 0.016609776909612035 -0.002092185112763246 -0.010623895115665657 0.00797418757807809 0.036159729946146454 0.9900318456841986 -0.08542198296831442
 -0.002090739776228678 -0.010624000910838156 0.0024163999392994673 0.016615044172991016 0.9900318456841986 -0.08542198296831442 0.007980766186371342 0.036159186008304825
0.11879949979160001 0.008536662636097357 0.03833577559583448 0.9892884135749024 -0.09030132842030358 0.0026975593754205345 0.017526478145055552 -0.0022990902868536547 -0.011211766325871885
 0.9892884135749024 -0.09030132842030358 0.00854205499395145 0.03833534759873055 -0.0023006958323480383 -0.011211638471541349 0.0026588903070327995 0.017532508200035938
 0.0026975593754205345 0.017526478145055552 -0.0023006958323480383 -0.011211638471541349 0.008535611182158854 0.03833430918489622 0.9892883221857608 -0.09030292054728799
 -0.0022990902868536547 -0.011211766325871885 0.0026588903070327995 0.017532508200035938 0.9892883221857608 -0.09030292054728799 0.008542941372740823 0.03833370228677601
0.1250521050438 0.009123502179246715 0.04052486261802724 0.9885121599993709 -0.09519487090391088 0.0029565936882898717 0.018441229863743903 -0.0025181290214529805 -0.011797950348436078
 0.9885121599993709 -0.09519487090391088 0.009129478021036284 0.040524391037024925 -0.002519902702976552 -0.011797797999566177 0.0029137369520262834 0.018448094379690652
 0.0029565936882898717 0.018441229863743903 -0.002519902702976552 -0.011797797999566177 0.009122338035873714 0.0405233295281747 0.9885120587401227 -0.09519654782953503
 -0.0025181290214529805 -0.011797950348436078 0.0029137369520262834 0.018448094379690652 0.9885120587401227 -0.09519654782953503 0.009130460782598587 0.04052265497584181
0.131304710296 0.009736000747808749 0.042727971311681316 0.9877028217390565 -0.1001007528602142 0.0032282633473062856 0.019353811241168903 -0.002747922172285361 -0.012382339569538778
 0.9877028217390565 -0.1001007528602142 0.009742590485441087 0.042727453546284044 -0.002749871842559628 -0.012382160182065532 0.0031810036322334374 0.019361585366212564
 0.0032282633473062856 0.019353811241168903 -0.002749871842559628 -0.012382160182065532 0.009734718275821645 0.04272637316276806 0.9877027100533377 -0.10010251476263096
 -0.002747922172285361 -0.012382339569538778 0.0031810036322334374 0.019361585366212564 0.9877027100533377 -0.10010251476263096 0.009743674642754154 0.04272562605252962
0.1375573155481 0.010241653211170059 0.044659088722702585 0.9869929743064579 -0.10473285251845477 0.0034805982092597086 0.02023670540177507 -0.0029565581877617863 -0.012937403551382502
 0.9869929743064579 -0.10473285251845477 0.010248890568965753 0.04465853489390248 -0.002958695635205474 -0.012937196648884467 0.003428826839062545 0.020245384173047866
 0.0034805982092597086 0.02023670540177507 -0.002958695635205474 -0.012937196648884467 0.010240247457522857 0.04465742688818969 0.9869928517141899 -0.10473469947092091
 -0.0029565581877617863 -0.012937403551382502 0.003428826839062545 0.020245384173047866 0.9869928517141899 -0.10473469947092091 0.010250080310842033 0.044656615345154804
0.1438099208003 0.010765327484191067 0.04657863457203615 0.9862577024196985 -0.10935176608947215 0.0037430715523830075 0.021115076109137574 -0.0031734675407207908 -0.01348833507896589
 0.9862577024196985 -0.10935176608947215 0.010773243522292326 0.04657804280165969 -0.00317580121897436 -0.013488098128929558 0.0036865927294073095 0.021124728885741698
 0.0037430715523830075 0.021115076109137574 -0.00317580121897436 -0.013488098128929558 0.010763792957932995 0.046576910700812 0.9862575683671068 -0.10935369826052473
 -0.0031734675407207908 -0.01348833507896589 0.0036865927294073095 0.021124728885741698 0.9862575683671068 -0.10935369826052473 0.010774543721447174 0.04657603050613841
0.1500625260525 0.011306816986089414 0.048486406307280745 0.9854972175847404 -0.1139573354130437 0.004015577891187632 0.021988803480207975 -0.003398548104796947 -0.014035022955075808
 0.9854972175847404 -0.1139573354130437 0.011315442881766759 0.048485774578587826 -0.0034010864431107775 -0.01403475332275142 0.0039541972387508026 0.021999502152245245
 0.004015577891187632 0.021988803480207975 -0.0034010864431107775 -0.01403475332275142 0.011305148221797864 0.04848462211259543 0.9854970715099397 -0.11395935297792789
 -0.003398548104796947 -0.014035022955075808 0.0039541972387508026 0.021999502152245245 0.9854970715099397 -0.11395935297792789 0.01131685840657378 0.048483668814316865
0.15631513130469998 0.011865913405171515 0.050382207415570035 0.9847117326736294 -0.11854940386940963 0.004298010331672605 0.022857770008056787 -0.0036316963555730105 -0.01457735861219448
 0.9847117326736294 -0.11854940386940963 0.01187528045554695 0.05038153356778392 -0.0036344477584502035 -0.01457705356108324 0.004231534919161986 0.022869588966082915
