! Created with skrf 1.8.0 (http://scikit-rf.org).
# GHz S RI R 50.0 
!freq ReS11 ImS11 ReS12 ImS12 ReS13 ImS13
! ReS14 ImS14
! ReS21 ImS21 ReS22 ImS22 ReS23 ImS23
! ReS24 ImS24
! ReS31 ImS31 ReS32 ImS32 ReS33 ImS33
! ReS34 ImS34
! ReS41 ImS41 ReS42 ImS42 ReS43 ImS43
! ReS44 ImS44
!
0.0 0.001596871707176 0.0 0.998403128268 0.0 6.195772240589e-05 0.0 -6.195772276069e-05 7.587632686133813e-21
 0.998403128268 0.0 0.001596871707169 0.0 -6.195772276086e-05 7.58763268615463e-21 6.195772240509e-05 0.0
 6.195772240589e-05 0.0 -6.195772276086e-05 7.58763268615463e-21 0.001596871715882 0.0 0.9984031282767 0.0
 -6.195772276069e-05 7.587632686133813e-21 6.195772240509e-05 0.0 0.9984031282767 0.0 0.001596871715861 0.0
0.005 0.001718322934559081 0.0013011588932303202 0.9982494325058183 -0.0033451022314667164 8.769063343464257e-05 0.0007133879286755481 -8.49551012103573e-05 -0.00044238403175666965
 0.9982494325058183 -0.0033451022314667164 0.0017183299197429448 0.001301154836486486 -8.495840633837177e-05 -0.00044238658633535913 8.764489863170479e-05 0.000713405483452958
 8.769063343464257e-05 0.0007133879286755481 -8.495840633837177e-05 -0.00044238658633535913 0.001718320803422052 0.001301092896382629 0.9982494321463763 -0.0033451692983451427
 -8.49551012103573e-05 -0.00044238403175666965 8.764489863170479e-05 0.000713405483452958 0.9982494321463763 -0.0033451692983451427 0.0017183313332010308 0.001301086698596951
0.006252605252188 0.0017502248465402137 0.0016315837595978044 0.998208795893853 -0.004182190254846928 9.507439580940914e-05 0.0008920626989988057 -9.147555334788818e-05 -0.0005535559221141443
 0.998208795893853 -0.004182190254846928 0.0017502357649213228 0.0016315785529038456 -9.148069625904822e-05 -0.0005535590720012627 9.500294128756707e-05 0.0008920854747895329
 9.507439580940914e-05 0.0008920626989988057 -9.148069625904822e-05 -0.0005535590720012627 0.0017502215862040486 0.0016315012803550385 0.9982087954035646 -0.004182274075715543
 -9.147555334788818e-05 -0.0005535559221141443 9.500294128756707e-05 0.0008920854747895329 0.9982087954035646 -0.004182274075715543 0.001750238046362712 0.0016314933887311657
0.01250521050438 0.001918448367667961 0.0032974588643566124 0.9979930478752487 -0.008365155865160269 0.00013758707874108093 0.0017843662234068253 -0.00012861904562394774 -0.001109790404706746
 0.9979930478752487 -0.008365155865160269 0.0019184919572107428 0.003297447088886914 -0.00012863931190253543 -0.0011097962282599157 0.00013730218829096326 0.0017844207905782688
 0.00013758707874108093 0.0017843662234068253 -0.00012863931190253543 -0.0011097962282599157 0.0019184358969946095 0.003297294220617078 0.9979930464708435 -0.008365323247026322
 -0.00012861904562394774 -0.001109790404706746 0.00013730218829096326 0.0017844207905782688 0.9979930464708435 -0.008365323247026322 0.0019185016260406386 0.0032972769583240716
0.01875781575657 0.0021019207386296463 0.004987092184257933 0.9977556082437196 -0.012559070167029512 0.00018959527767039102 0.0026775329172797954 -0.00017350579307289052 -0.001667852182845953
 0.9977556082437196 -0.012559070167029512 0.0021020186726617178 0.004987072416288827 -0.00017355098545213056 -0.001667860109578298 0.0001889554318576998 0.00267763012953264
 0.00018959527767039102 0.0026775329172797954 -0.00017355098545213056 -0.001667860109578298 0.0021018931328960965 0.0049868455720135626 0.9977556055147414 -0.012559321013144187
 -0.00017350579307289052 -0.001667852182845953 0.0001889554318576998 0.00267763012953264 0.9977556055147414 -0.012559321013144187 0.002102040836514618 0.004986817303203273
0.02501042100875 0.0023010085717663975 0.0066980939485154515 0.997496189872219 -0.016765951267822383 0.00025120001884432647 0.0035715979472224157 -0.00022624913944511616 -0.0022274705248929018
 0.997496189872219 -0.016765951267822383 0.002301182470020849 0.0066980647071701056 -0.00022632894267235676 -0.0022274798801793336 0.0002500637301093792 0.0035717504267347567
 0.00025120001884432647 0.0035715979472224157 -0.00022632894267235676 -0.0022274798801793336 0.0023009599041402045 0.00669776558650282 0.9974961854013256 -0.016766285500776117
 -0.00022624913944511616 -0.0022274705248929018 0.0002500637301093792 0.0035717504267347567 0.9974961854013256 -0.016766285500776117 0.0023012222256102288 0.006697724527887539
0.03126302626094 0.0025160632845691753 0.008429226537337747 0.9972144914097244 -0.02098665322890555 0.000322502743674366 0.004466510308707129 -0.000286958962681594 -0.002788454210114799
 0.9972144914097244 -0.02098665322890555 0.0025163347239848624 0.008429186285511451 -0.0002870829634548581 -0.0027884642139873682 0.0003207284278135342 0.004466732453480736
 0.000322502743674366 0.004466510308707129 -0.0002870829634548581 -0.0027884642139873682 0.002515987632667106 0.008428816661846295 0.997214484782198 -0.02098707079613764
 -0.000286958962681594 -0.002788454210114799 0.0003207284278135342 0.004466732453480736 0.997214484782198 -0.02098707079613764 0.0025163971687035772 0.008428760883378749
0.037515631513130004 0.00274742853341644 0.010179677083896064 0.9969102049779498 -0.025221593403160113 0.00040360424865975534 0.005362184888212423 -0.0003557425149525096 -0.003350639474033057
 0.9969102049779498 -0.025221593403160113 0.002747819056407231 0.010179624228970768 -0.0003559202121838129 -0.003350649240850601 0.00040105017095998924 0.005362492887331335
 0.00040360424865975534 0.005362184888212423 -0.0003559202121838129 -0.003350649240850601 0.0027473199787156773 0.010179185979962695 0.9969101957815201 -0.025222094246371916
 -0.0003557425149525096 -0.003350639474033057 0.00040105017095998924 0.005362492887331335 0.9969101957815201 -0.025222094246371916 0.0027479092891438354 0.010179113404572329
0.043768236765320004 0.0029954430820927774 0.011948836131332723 0.9965830193025234 -0.02947097370800503 0.0004946041878805088 0.006258518299862067 -0.0004327047172718197 -0.0039138741810907825
 0.9965830193025234 -0.02947097370800503 0.0029959742023040834 0.011948769025613655 -0.00043294552802164736 -0.003913882719421441 0.0004911284410479312 0.006258930151102499
 0.0004946041878805088 0.006258518299862067 -0.00043294552802164736 -0.003913882719421441 0.002995295706351866 0.01194826411198761 0.9965830071251512 -0.02947155778467466
 -0.0004327047172718197 -0.0039138741810907825 0.0004911284410479312 0.006258930151102499 0.9965830071251512 -0.02947155778467466 0.002996097321522037 0.01194817251482774
0.050020842017509996 0.003260442126025882 0.013736206130860714 0.9962326213056516 -0.03373487205601056 0.0005956007702399221 0.0071553954300255275 -0.0005179482635988727 -0.004478011292503447
 0.9962326213056516 -0.03373487205601056 0.0032611353340436305 0.013736123071857254 -0.0005182615269584984 -0.0044780175051142256 0.0005910612692565895 0.0071559309583330375
 0.0005956007702399221 0.0071553954300255275 -0.0005182615269584984 -0.0044780175051142256 0.0032602500123962174 0.013735553558125797 0.9962326057360895 -0.03373553931921321
 -0.0005179482635988727 -0.004478011292503447 0.0005910612692565895 0.0071559309583330375 0.9962326057360895 -0.03373553931921321 0.003261296438817518 0.013735440565519121
0.055454545454549996 0.003504785963248172 0.015303938789171282 0.995909019778972 -0.03745211984378612 0.0006915633862009441 0.007935154559089474 -0.000598831049520931 -0.004968883666051812
 0.995909019778972 -0.03745211984378612 0.003505637469192219 0.015303840441248629 -0.0005992148021961108 -0.004968886884298262 0.0006859839262248453 0.007935815100006894
 0.0006915633862009441 0.007935154559089474 -0.0005992148021961108 -0.004968886884298262 0.003504550165511718 0.015303216540181895 0.9959090009274028 -0.03745285936270899
 -0.000598831049520931 -0.004968883666051812 0.0006859839262248453 0.007935815100006894 0.9959090009274028 -0.03745285936270899 0.0035058357252334468 0.015303082910113841
0.056273447269699996 0.0035427579693256047 0.015541356559392663 0.9958586970545404 -0.0380132871677702 0.0007066905440516543 0.008052692648722796 -0.000611573638298175 -0.005042905671442491
 0.9958586970545404 -0.0380132871677702 0.0035436347374834826 0.015541255790043578 -0.000611968617855211 -0.005042908355321274 0.0007009450317081598 0.008053373525002037
 0.0007066905440516543 0.008052692648722796 -0.000611968617855211 -0.005042908355321274 0.003542515200952428 0.015540623837043972 0.9958586776817626 -0.03801403757429166
 -0.000611573638298175 -0.005042905671442491 0.0007009450317081598 0.008053373525002037 0.9958586776817626 -0.03801403757429166 0.00354383892684984 0.015540486925314434
0.06252605252188 0.0038427203780249416 0.017363899230774953 0.9954609323904743 -0.04230616319522864 0.0008279682235053928 0.00895027958655856 -0.0007136790914404938 -0.00560841232751786
 0.9954609323904743 -0.04230616319522864 0.003843802165417211 0.017363778939368475 -0.0007141649770199157 -0.005608410173905691 0.0008208742824251559 0.008951129346423302
 0.0008279682235053928 0.00895027958655856 -0.0007141649770199157 -0.005608410173905691 0.00384242103854739 0.017363086805183718 0.9954609088037908 -0.042306996705478155
 -0.0007136790914404938 -0.00560841232751786 0.0008208742824251559 0.008951129346423302 0.9954609088037908 -0.042306996705478155 0.0038440545383644623 0.017362923299301503
0.06877865777407 0.004160656760713538 0.019203473577836992 0.9950390133903588 -0.04661340437866769 0.0009595265406992256 0.009848020192150473 -0.0008243605872705576 -0.006174385385904248
 0.9950390133903588 -0.04661340437866769 0.00416196501765069 0.019203331897960977 -0.000824946496045474 -0.006174376980369947 0.0009509416104372974 0.00984906425456914
 0.0009595265406992256 0.009848020192150473 -0.000824946496045474 -0.006174376980369947 0.004160294934825907 0.019202581947987435 0.9950389851799611 -0.046614320947563966
 -0.0008243605872705576 -0.006174385385904248 0.0009509416104372974 0.00984906425456914 0.9950389851799611 -0.046614320947563966 0.0041622706735251844 0.019202389019934617
0.07503126302626001 0.004496892245568582 0.02105973733604543 0.99459262672753 -0.05093488430763471 0.0011014561101650873 0.010745773414107606 -0.0009437117390462854 -0.006740677437514992
 0.99459262672753 -0.05093488430763471 0.0044984484183909984 0.021059572346153264 -0.0009444067162689443 -0.006740661260013524 0.0010912375078583273 0.010747039099742844
 0.0011014561101650873 0.010745773414107606 -0.0009444067162689443 -0.006740661260013524 0.004496462018985115 0.021058767042408347 0.9945925934842594 -0.050935883896629855
 -0.0009437117390462854 -0.006740677437514992 0.0010912375078583273 0.010747039099742844 0.9945925934842594 -0.050935883896629855 0.004498812456367081 0.021058541709461195
0.08128386827845 0.004851749691617859 0.022932360331063134 0.9941214599717617 -0.05527045208387982 0.0012538453035584062 0.011643393659523818 -0.0010718237323507844 -0.00730713911836853
 0.9941214599717617 -0.05527045208387982 0.0048535752270392665 0.022932170054095445 -0.00107263675177283 -0.007307113543334221 0.001241850247511772 0.0116449102087562
 0.0012538453035584062 0.011643393659523818 -0.00107263675177283 -0.007307113543334221 0.004851245150746994 0.022931311965918025 0.9941214212866103 -0.05527153465150313
 -0.0010718237323507844 -0.00730713911836853 0.001241850247511772 0.0116449102087562 0.9941214212866103 -0.05527153465150313 0.004854002745189804 0.02293105108871915
0.08753647353064001 0.005225549656202615 0.024821020196205627 0.9936252018495837 -0.059619936560968034 0.0014167801287980732 0.012540731120424352 -0.0012087852426532308 -0.007873618827075076
 0.9936252018495837 -0.059619936560968034 0.005227666006252307 0.02482080259877711 -0.0012097252067446327 -0.00787358212350909 0.001402865764589944 0.012542529710965849
 0.0014167801287980732 0.012540731120424352 -0.0012097252067446327 -0.00787358212350909 0.005224964888948567 0.02481989440098823 0.9936251573138364 -0.05962110206624282
 -0.0012087852426532308 -0.007873618827075076 0.001402865764589944 0.012542529710965849 0.9936251573138364 -0.05962110206624282 0.005228162101543437 0.024819594681434
0.09378907878283 0.005618610333420171 0.026725399316611387 0.9931035424779449 -0.06398314936338992 0.0015903441139280693 0.01343763201541772 -0.0013546823473096095 -0.00843996253319459
 0.9931035424779449 -0.06398314936338992 0.005621038959396855 0.02672515230827852 -0.0013557580872028516 -0.008439912864784793 0.0015743675421861518 0.013439745779475612
 0.0015903441139280693 0.01343763201541772 -0.0013557580872028516 -0.008439912864784793 0.005617939429387136 0.02672419678166993 0.9931034916833879 -0.06398439776708241
 -0.0013546823473096095 -0.00843996253319459 0.0015743675421861518 0.013439745779475612 0.9931034916833879 -0.06398439776708241 0.00562160872757653 0.026723854760632094
0.100041684035 0.006031247470615814 0.028645182579968592 0.9925561735810612 -0.0683598871065202 0.0017746181931892638 0.014333938776701497 -0.0015095984340326599 -0.009006013646649574
 0.9925561735810612 -0.0683598871065202 0.006034009847949206 0.02864490401215735 -0.0015108187094166306 -0.009005949071889723 0.001756436499271073 0.01433640281764978
 0.0017746181931892638 0.014333938776701497 -0.0015108187094166306 -0.009005949071889723 0.006030484521137556 0.02864390404948333 0.992556116119733 -0.06836121836703637
 -0.0015095984340326599 -0.009006013646649574 0.001756436499271073 0.01433640281764978 0.992556116119733 -0.06836121836703637 0.006034658382507069 0.02864351610431544
0.1059090909091 0.006436547264307883 0.030460425490285704 0.9920188703762685 -0.07247909914674705 0.0019573503054891904 0.015174343697327291 -0.001663245254225726 -0.00953678465816392
 0.9920188703762685 -0.07247909914674705 0.006439642380223307 0.03046011530018011 -0.0016646090638286323 -0.009536704236001272 0.0019369693728390805 0.015177170132223488
 0.0019573503054891904 0.015174343697327291 -0.0016646090638286323 -0.009536704236001272 0.00643569256859607 0.030459076368631394 0.9920188062882616 -0.07248050812257928
 -0.001663245254225726 -0.00953678465816392 0.0019369693728390805 0.015177170132223488 0.9920188062882616 -0.07248050812257928 0.006440369459144893 0.030458641885797142
0.1062942892872 0.006463774268059529 0.030580055706809346 0.9919827886934394 -0.07274993304414319 0.001969680594872247 0.015229490199923446 -0.001673614106866786 -0.009571612930722739
 0.9919827886934394 -0.07274993304414319 0.00646689189096722 0.030579743371484336 -0.0016749876057444604 -0.009571531403041799 0.0019491508801136282 0.01523234160846591
 0.001969680594872247 0.015229490199923446 -0.0016749876057444604 -0.009571531403041799 0.006462913367140148 0.03057870197644422 0.9919827241577428 -0.07275134712070434
 -0.001673614106866786 -0.009571612930722739 0.0019491508801136282 0.01523234160846591 0.9919827241577428 -0.07275134712070434 0.006467624283042834 0.03057826431833024
0.11254689453939999 0.006916501267904996 0.03252970396281298 0.9913830833545354 -0.07715305834124819 0.002175606730921835 0.0161241215695051 -0.0018468070899434188 -0.01013659844625555
 0.9913830833545354 -0.07715305834124819 0.006919995653635967 0.032529355591095405 -0.0018483424282400682 -0.010136497814184273 0.0021525861450537786 0.01612739943925726
 0.002175606730921835 0.0161241215695051 -0.0018483424282400682 -0.010136497814184273 0.006915536512533022 0.03252827588220833 0.9913830113373515 -0.07715455519228345
 -0.0018468070899434188 -0.01013659844625555 0.0021525861450537786 0.01612739943925726 0.9913830113373515 -0.07715455519228345 0.006920816991730956 0.03252778455324115
0.11879949979160001 0.007389736233060436 0.03449381116874091 0.9907567552977609 -0.08156902305700531 0.0023924690872839174 0.01701766476775105 -0.002029252129793853 -0.010700805518794716
 0.9907567552977609 -0.08156902305700531 0.007393628926764288 0.03449342442925298 -0.0020309578509359427 -0.010700683526109842 0.002366814862145553 0.0170214102102297
 0.0023924690872839174 0.01701766476775105 -0.0020309578509359427 -0.010700683526109842 0.007388661723249811 0.03449230964080818 0.9907566753919341 -0.081570602641785
 -0.002029252129793853 -0.010700805518794716 0.002366814862145553 0.0170214102102297 0.9907566753919341 -0.081570602641785 0.007394544295387519 0.03449176051099254
0.1250521050438 0.007883784017822366 0.036472058918766634 0.990103504632979 -0.0859975769274056 0.0026203371153435415 0.017909948370914367 -0.0022210208964040692 -0.011264066725580254
 0.990103504632979 -0.0859975769274056 0.007888096597091793 0.03647163141572258 -0.0022229054708421824 -0.011263921011520796 0.0025919065999163993 0.01791420452990417
 0.0026203371153435415 0.017909948370914367 -0.0022229054708421824 -0.011263921011520796 0.007882593857512301 0.036470484902769475 0.9901034164315131 -0.08599923920368652
 -0.0022210208964040692 -0.011264066725580254 0.0025919065999163993 0.01791420452990417 0.9901034164315131 -0.08599923920368652 0.007889111076843694 0.036469873666662884
0.131304710296 0.0083989464335993 0.038464125963205045 0.9894230340269399 -0.09043845999121337 0.0028592771241322443 0.01880079773936584 -0.0024221818837277223 -0.011826211895557874
 0.9894230340269399 -0.09043845999121337 0.008403700512700195 0.03846365523436274 -0.0024242537082376546 -0.011826039995016878 0.0028279278203013768 0.01880560980463214
 0.0028592771241322443 0.01880079773936584 -0.0024242537082376546 -0.011826039995016878 0.008397634731037551 0.038462480471361304 0.9894229371234335 -0.09044020491964835
 -0.0024221818837277223 -0.011826211895557874 0.0028279278203013768 0.01880560980463214 0.9894229371234335 -0.09044020491964835 0.008404819179704493 0.038461802644640365
0.1375573155481 0.008819428637814224 0.04020891381171406 0.9888311901420426 -0.09463050467661704 0.003080003649998591 0.019663885643358192 -0.0026034871893160032 -0.01236091016166817
 0.9888311901420426 -0.09463050467661704 0.008824648491766469 0.04020841086975143 -0.002605758770420634 -0.012360711810072091 0.003045659635508635 0.01966924772425424
 0.003080003649998591 0.019663885643358192 -0.002605758770420634 -0.012360711810072091 0.008817990139694521 0.040207197769723375 0.988831084146289 -0.09463233217802289
 -0.0026034871893160032 -0.01236091016166817 0.003045659635508635 0.01966924772425424 0.988831084146289 -0.09463233217802289 0.008825875748637104 0.04020646244497881
0.1438099208003 0.0092547553558253 0.041944090089846155 0.9882184148366459 -0.09881151686063332 0.0033096469373736 0.02052326358134105 -0.002792040550421843 -0.012892228110255893
 0.9882184148366459 -0.09881151686063332 0.00926046306803916 0.04194355340463142 -0.002794520919110181 -0.012892000875266575 0.0032721779539447095 0.020529217148389626
 0.0033096469373736 0.02052326358134105 -0.002794520919110181 -0.012892000875266575 0.009253184289453998 0.04194230452213419 0.9882182993466907 -0.09881342688410176
 -0.002792040550421843 -0.012892228110255893 0.0032721779539447095 0.020529217148389626 0.9882182993466907 -0.09881342688410176 0.009261803862394481 0.041941508101162116
0.1500625260525 0.009704767316024472 0.04366949779960985 0.9875848718080416 -0.10298138061877286 0.0035481245269624235 0.02137883629925884 -0.0029877621249847462 -0.013420076406564278
 0.9875848718080416 -0.10298138061877286 0.009710985023216481 0.0436689257427576 -0.0029904602910634263 -0.013419817758006547 0.0035074012321919725 0.02138542431719955
 0.0035481245269624235 0.02137883629925884 -0.0029904602910634263 -0.013419817758006547 0.009703057919105258 0.04366764377170022 0.9875847464224066 -0.1029833731112768
 -0.0029877621249847462 -0.013420076406564278 0.0035074012321919725 0.02138542431719955 0.9875847464224066 -0.1029833731112768 0.009712444290358089 0.04366678247413532
0.15631513130469998 0.010169304039885942 0.04538498465802569 0.986930725671795 -0.1071399806955661 0.0037953529377272683 0.022230510227083777 -0.003190571045170964 -0.013944367673164712
 0.986930725671795 -0.1071399806955661 0.010176053933947816 0.04538437549996707 -0.003193495996945364 -0.013944074983424573 0.0037512469222326953 0.022237777135833393
