! Created with skrf 1.8.0 (http://scikit-rf.org).
# GHz S RI R 50.0 
!freq ReS11 ImS11 ReS12 ImS12 ReS13 ImS13
! ReS14 ImS14
! ReS21 ImS21 ReS22 ImS22 ReS23 ImS23
! ReS24 ImS24
! ReS31 ImS31 ReS32 ImS32 ReS33 ImS33
! ReS34 ImS34
! ReS41 ImS41 ReS42 ImS42 ReS43 ImS43
! ReS44 ImS44
!
0.0 0.001349220963212 0.0 0.998650779034 0.0 5.175399517905e-05 0.0 -5.175399455711e-05 6.33803637774543e-21
 0.998650779034 0.0 0.001349220963195 0.0 -5.175399455662e-05 6.338036377685422e-21 5.175399517815e-05 0.0
 5.175399517905e-05 0.0 -5.175399455662e-05 6.338036377685422e-21 0.001349220961775 0.0 0.9986507790325 0.0
 -5.175399455711e-05 6.33803637774543e-21 5.175399517815e-05 0.0 0.9986507790325 0.0 0.001349220961786 0.0
0.005 0.00145114842258824 0.001103410581894471 0.9985218929205301 -0.002826937898749372 7.238917353295999e-05 0.0005745276705704093 -7.026509102884652e-05 -0.0003599739741828134
 0.9985218929205301 -0.002826937898749372 0.0014511756950228636 0.0011033946329294395 -7.026266064796815e-05 -0.00035997208841467366 7.222048283891007e-05 0.0005745916649125979
 7.238917353295999e-05 0.0005745276705704093 -7.026266064796815e-05 -0.00035997208841467366 0.001451150099669131 0.0011034768254410115 0.9985218932604878 -0.0028268708372720143
 -7.026509102884652e-05 -0.0003599739741828134 7.222048283891007e-05 0.0005745916649125979 0.9985218932604878 -0.0028268708372720143 0.0014511746899593461 0.001103462504849094
0.006252605252188 0.0014777308958621536 0.0013836278439175846 0.9984880868155958 -0.00353438698278728 7.821956643419054e-05 0.0007184440960694886 -7.54237705651524e-05 -0.00045044240289081273
 0.9984880868155958 -0.00353438698278728 0.0014777735283858521 0.001383607639520872 -7.541998880399302e-05 -0.00045044007677735295 7.795599795333906e-05 0.0007185271732880816
 7.821956643419054e-05 0.0007184440960694886 -7.541998880399302e-05 -0.00045044007677735295 0.0014777334425721065 0.0013837106440913421 0.9984880872719288 -0.003534303152996171
 -7.54237705651524e-05 -0.00045044240289081273 7.795599795333906e-05 0.0007185271732880816 0.9984880872719288 -0.003534303152996171 0.001477771881580739 0.001383692482350649
0.01250521050438 0.0016167938209556238 0.002796485242969991 0.9983101518196574 -0.007069721138364209 0.00011131114857832256 0.0014372742293594126 -0.00010433002657383155 -0.0009031657685928126
 0.9983101518196574 -0.007069721138364209 0.00161696405966737 0.002796442136072355 -0.00010431512386959841 -0.0009031614538476473 0.0001102599719337014 0.0014374733670081822
 0.00011131114857832256 0.0014372742293594126 -0.00010431512386959841 -0.0009031614538476473 0.0016168034516705885 0.0027966504879377864 0.9983101531014968 -0.0070695537275844815
 -0.00010433002657383155 -0.0009031657685928126 0.0001102599719337014 0.0014374733670081822 0.9983101531014968 -0.0070695537275844815 0.0016169569355771803 0.002796611559372363
0.01875781575657 0.001766683455680453 0.00422971703633741 0.9981167744730666 -0.01061463870973034 0.00015109933546614325 0.0021569930572831746 -0.00013855522144005719 -0.001357531369026436
 0.9981167744730666 -0.01061463870973034 0.0017670659990152236 0.004229648125247578 -0.00013852198841666572 -0.0013575254602704344 0.00014873767714021493 0.0021573470351251836
 0.00015109933546614325 0.0021569930572831746 -0.00013852198841666572 -0.0013575254602704344 0.001766704676858002 0.004229964478182004 0.9981167769319155 -0.010614387766984156
 -0.00013855522144005719 -0.001357531369026436 0.00014873767714021493 0.0021573470351251836 0.9981167769319155 -0.010614387766984156 0.0017670495514953409 0.004229902038318074
0.02501042100875 0.001927666965840704 0.0056813477774068834 0.9979077481806605 -0.014170889005636221 0.00019765644765707023 0.002877648974914993 -0.00017817964064631168 -0.0018133508962795513
 0.9979077481806605 -0.014170889005636221 0.0019283463466417835 0.005681249989467228 -0.00017812095351478697 -0.0018133438526487528 0.00019346102406209015 0.002878202145781018
 0.00019765644765707023 0.002877648974914993 -0.00017812095351478697 -0.0018133438526487528 0.0019277042856241287 0.0056816771152624805 0.9979077521787105 -0.014170554542187535
 -0.00017817964064631168 -0.0018133508962795513 0.00019346102406209015 0.002878202145781018 0.9979077521787105 -0.014170554542187535 0.0019283167356340303 0.005681588309197664
0.03126302626094 0.0021000003015239155 0.007150376600078695 0.9976828547753898 -0.017739239514588254 0.0002510556704182885 0.0035992242070651314 -0.000223281610180641 -0.0022704982475125466
 0.9976828547753898 -0.017739239514588254 0.0021010609323124834 0.007150246698554738 -0.00022319041588234832 -0.002270490593635259 0.0002445022882784748 0.00360002652956654
 0.0002510556704182885 0.0035992242070651314 -0.00022319041588234832 -0.002270490593635259 0.0021000582216803864 0.007150787480167765 0.9976828606765785 -0.017738821503644028
 -0.000223281610180641 -0.0022704982475125466 0.0002445022882784748 0.00360002652956654 0.9976828606765785 -0.017738821503644028 0.002101014311746537 0.007150669349416824
0.037515631513130004 0.0022839340382608763 0.0086361628561299 0.9974418704871403 -0.021320090215264976 0.0003113702474258067 0.004321675115377702 -0.00027393807267287644 -0.0027288691977671938
 0.9974418704871403 -0.021320090215264976 0.002285460240352659 0.008635997443664991 -0.0002738073812082961 -0.0027288615240557705 0.00030193356934676884 0.004322782212629283
 0.0003113702474258067 0.004321675115377702 -0.0002738073812082961 -0.0027288615240557705 0.0022840170550721905 0.008636654859248805 0.9974418786586599 -0.02131958860386673
 -0.00027393807267287644 -0.0027288691977671938 0.00030193356934676884 0.004322782212629283 0.9974418786586599 -0.02131958860386673 0.0022853927573906734 0.008636504345833932
0.043768236765320004 0.0024797156408778906 0.010138239132144225 0.997184568340081 -0.024913660499516543 0.0003786731113202241 0.005044944459097927 -0.00033022480356648863 -0.003188369126186287
 0.997184568340081 -0.024913660499516543 0.002481791666810041 0.010138034653059331 -0.0003300476833672965 -0.0031883620889639024 0.0003658265348075243 0.0050464176856341745
 0.0003786731113202241 0.005044944459097927 -0.0003300476833672965 -0.0031883620889639024 0.0024798282448862227 0.010138811772346039 0.9971845791528154 -0.024913075209165796
 -0.00033022480356648863 -0.003188369126186287 0.0003658265348075243 0.0050464176856341745 0.9971845791528154 -0.024913075209165796 0.0024816994609039703 0.010138625721836044
0.050020842017509996 0.0026875905232287885 0.011656233980814232 0.9969107193486609 -0.028520066378524597 0.0004530366722787128 0.005768966453417365 -0.00039221649546654363 -0.0036489079474821503
 0.9969107193486609 -0.028520066378524597 0.002690300576298756 0.011655986722694004 -0.00039198607045346504 -0.003648902269022064 0.00043625226848442895 0.005770872965572145
 0.0004530366722787128 0.005768966453417365 -0.00039198607045346504 -0.003648902269022064 0.0026877371993963618 0.011656886705468156 0.9969107331785326 -0.028519397304484544
 -0.00039221649546654363 -0.0036489079474821503 0.00043625226848442895 0.005770872965572145 0.9969107331785326 -0.028519397304484544 0.0026901797784045474 0.01165666186944726
0.055454545454549996 0.002878250786709372 0.012988100883240525 0.9966591193763936 -0.03166460688024693 0.0005234507461675318 0.006398719075036722 -0.0004507794987419913 -0.0040499054458137135
 0.9966591193763936 -0.03166460688024693 0.002881580186648991 0.012987813312934287 -0.00045049720754742847 -0.004049901585972011 0.0005028144589694759 0.0064010612248073025
 0.0005234507461675318 0.006398719075036722 -0.00045049720754742847 -0.004049901585972011 0.002878430709906271 0.012988822701811915 0.996659136137441 -0.031663864890843524
 -0.0004507794987419913 -0.0040499054458137135 0.0005028144589694759 0.0064010612248073025 0.996659136137441 -0.031663864890843524 0.0028814313919537345 0.012988561450337107
0.056273447269699996 0.0029078026013750527 0.01318983399234032 0.996620093210763 -0.03213935834912745 0.00053453267206086 0.006493669251687014 -0.00045998678788030815 -0.004110397621730751
 0.996620093210763 -0.03213935834912745 0.0029112308528945552 0.013189540087042779 -0.00045969623539879594 -0.00411039409028054 0.0005132811605787465 0.006496082079610049
 0.00053453267206086 0.006493669251687014 -0.00045969623539879594 -0.00411039409028054 0.0029079878279748574 0.013190566179785505 0.9966201104386118 -0.03213860536191106
 -0.00045998678788030815 -0.004110397621730751 0.0005132811605787465 0.006496082079610049 0.9966201104386118 -0.03213860536191106 0.002911077584290547 0.013190299217734194
0.06252605252188 0.0031405945993592784 0.014738762948652416 0.996312458756061 -0.03577154217785061 0.0006232320755065418 0.007218976304768543 -0.0005336082644653028 -0.004572750789201951
 0.996312458756061 -0.03577154217785061 0.003144825205002127 0.014738418372895655 -0.0005332508138619983 -0.004572750258983127 0.0005969828227356164 0.007221974425301595
 0.0006232320755065418 0.007218976304768543 -0.0005332508138619983 -0.004572750258983127 0.003140822847608153 0.014739573901725247 0.9963124797688331 -0.035770705129173255
 -0.0005336082644653028 -0.004572750789201951 0.0005969828227356164 0.007221974425301595 0.9963124797688331 -0.035770705129173255 0.0031446355767987774 0.014739261382509219
0.06877865777407 0.003386208219340333 0.016302769383231566 0.9959875842620567 -0.0394165912813888 0.0007192049791018808 0.007944807171159635 -0.0006131524354773631 -0.005035879956703281
 0.9959875842620567 -0.0394165912813888 0.0033913253347939197 0.016302369958722755 -0.0006127213670878522 -0.005035883347891214 0.0006874260131873288 0.007948475581052493
 0.0007192049791018808 0.007944807171159635 -0.0006127213670878522 -0.005035883347891214 0.0033864839530568366 0.01630365833292917 0.9959876094538954 -0.039415669999654034
 -0.0006131524354773631 -0.005035879956703281 0.0006874260131873288 0.007948475581052493 0.9959876094538954 -0.039415669999654034 0.0033910954476093816 0.016303296735899055
0.07503126302626001 0.003644884235207275 0.017881618698317402 0.9956452376954997 -0.04307445455126612 0.0008225205310918373 0.008671078032500341 -0.0006986897095202667 -0.005499696980888944
 0.9956452376954997 -0.04307445455126612 0.003650972031337642 0.01788116009156074 -0.0006981783539419224 -0.00549970527960488 0.0007846785692184023 0.008675507821713826
 0.0008225205310918373 0.008671078032500341 -0.0006981783539419224 -0.00549970527960488 0.0036452119092831004 0.017882584803655642 0.9956452674676424 -0.04307344884118041
 -0.0006986897095202667 -0.005499696980888944 0.0007846785692184023 0.008675507821713826 0.9956452674676424 -0.04307344884118041 0.0036506979740077113 0.01788217051929751
0.08128386827845 0.003916862532939593 0.01947508792433522 0.9952851869042566 -0.04674506153895771 0.0009332468590776981 0.009397702036335548 -0.0007902893580056452 -0.00596411272681809
 0.9952851869042566 -0.04674506153895771 0.0039240052110495974 0.019474565645881115 -0.0007896910956531512 -0.005964126985085656 0.0008888073441863951 0.009402990461197566
 0.0009332468590776981 0.009397702036335548 -0.0007896910956531512 -0.005964126985085656 0.0039172465925695656 0.01947613026930752 0.9952852216657119 -0.0467439711838245
 -0.0007902893580056452 -0.00596411272681809 0.0008888073441863951 0.009402990461197566 0.9952852216657119 -0.0467439711838245 0.00392368305962134 0.019475659599594727
0.08753647353064001 0.00420238212069176 0.021082962084186772 0.994907199780493 -0.050428326038342186 0.0010514510018748797 0.010124589529943478 -0.0008880194750880664 -0.0064290368379769005
 0.994907199780493 -0.050428326038342186 0.004210663927169084 0.021082371487577016 -0.0008873277357884173 -0.00642905817369499 0.0009998781471554862 0.010130840086037691
 0.0010514510018748797 0.010124589529943478 -0.0008873277357884173 -0.00642905817369499 0.0042028270009847905 0.0210840796770519 0.9949072399494892 -0.05042715080022936
 -0.0008880194750880664 -0.0064290368379769005 0.0009998781471554862 0.010130840086037691 0.9949072399494892 -0.05042715080022936 0.004210289745501126 0.02108354883523988
0.09378907878283 0.004501681115606393 0.0227050316019038 0.9945110444037741 -0.054124148626626754 0.0011771988441187447 0.010851648236452535 -0.0009919469343845193 -0.0068943775667057484
 0.9945110444037741 -0.054124148626626754 0.004511186357021877 0.022704367882216404 -0.0009911551972561566 -0.006894407163603994 0.001117955683594392 0.010858970731047721
 0.0011771988441187447 0.010851648236452535 -0.0009911551972561566 -0.006894407163603994 0.004502191240111601 0.02270622337570161 0.9945110904078746 -0.05412288824521651
 -0.0009919469343845193 -0.0068943775667057484 0.001117955683594392 0.010858970731047721 0.9945110904078746 -0.05412288824521651 0.004510756195008481 0.02270562848582008
0.100041684035 0.004814996713995873 0.024341090400077963 0.9940964891699923 -0.05783241851933093 0.0013105550530936483 0.011578783379207282 -0.0011021373428098278 -0.007360041659006454
 0.9940964891699923 -0.05783241851933093 0.0048258097719462816 0.024340348591905456 -0.0011012391361316465 -0.007360080766593378 0.0012431034977749605 0.011587294003321888
 0.0013105550530936483 0.011578783379207282 -0.0011012391361316465 -0.007360080766593378 0.0048155764938754946 0.024342355210741944 0.9940965414469911 -0.057831072713305225
 -0.0011021373428098278 -0.007360041659006454 0.0012431034977749605 0.011587294003321888 0.9940965414469911 -0.057831072713305225 0.004825319665476905 0.024341692306632468
0.1059090909091 0.005121968567200082 0.02588889939533731 0.9936905326569504 -0.061323449749610966 0.0014426719188736766 0.012261105573877228 -0.0012112927256855124 -0.007797227647614364
 0.9936905326569504 -0.061323449749610966 0.005134085696335414 0.025888079648410688 -0.0012102887665128045 -0.007797276874922791 0.0013670273225859853 0.012270842555205672
 0.0014426719188736766 0.012261105573877228 -0.0012102887665128045 -0.007797276874922791 0.005122617711307441 0.025890231636581554 0.993690591228349 -0.06132202350417956
 -0.0012112927256855124 -0.007797227647614364 0.0013670273225859853 0.012270842555205672 0.993690591228349 -0.06132202350417956 0.005133535719577511 0.025889501219578157
0.1062942892872 0.005142565150126779 0.025990934463331485 0.9936633029109893 -0.06155301496222314 0.0014515830167727171 0.012305897781249403 -0.001218654992572428 -0.007825934267215947
 0.9936633029109893 -0.06155301496222314 0.005154770496197071 0.025990109438461508 -0.0012176438938390783 -0.007825984200710226 0.0013753839152862715 0.012315719180964566
 0.0014515830167727171 0.012305897781249403 -0.0012176438938390783 -0.007825984200710226 0.00514321898320579 0.025992271091521406 0.9936633619097162 -0.06155158342689864
 -0.001218654992572428 -0.007825934267215947 0.0013753839152862715 0.012315719180964566 0.9936633619097162 -0.06155158342689864 0.005154216466068011 0.02599153611541357
0.11254689453939999 0.0054846216453837485 0.027654360748284985 0.9932112550073834 -0.06528580827985311 0.0016003447827658123 0.013032891942961923 -0.0013415628114890287 -0.008291958887244044
 0.9932112550073834 -0.06528580827985311 0.005498303856238269 0.027653447212819617 -0.0013404324474194963 -0.008292021027524603 0.0015148579863363226 0.01304415329016501
 0.0016003447827658123 0.013032891942961923 -0.0013404324474194963 -0.008292021027524603 0.005485353914770478 0.02765576789486072 0.9932113211881345 -0.06528429069122971
 -0.0013415628114890287 -0.008291958887244044 0.0015148579863363226 0.01304415329016501 0.9932113211881345 -0.06528429069122971 0.005497681907812009 0.027654956695462217
0.11879949979160001 0.005841400350474038 0.02933116632148677 0.9927401154962345 -0.06903066069934782 0.0017569009979237207 0.013759664105655003 -0.001470922312065922 -0.008758017312852634
 0.9927401154962345 -0.06903066069934782 0.005856644122932532 0.02933015881255546 -0.0014696663587446001 -0.008758093106371639 0.0016615854288609207 0.013772501168079787
 0.0017569009979237207 0.013759664105655003 -0.0014696663587446001 -0.008758093106371639 0.005842215423672233 0.02933264261200143 0.9927401893321556 -0.06902905670919467
 -0.001470922312065922 -0.008758017312852634 0.0016615854288609207 0.013772501168079787 0.9927401893321556 -0.06902905670919467 0.005855950245616788 0.029331750942151683
0.1250521050438 0.006213134282176283 0.031021147686984944 0.992249655176399 -0.0727874269880566 0.001921310848377674 0.014486110304907571 -0.0016067935393481983 -0.009224009603310558
 0.992249655176399 -0.0727874269880566 0.006230024448519031 0.031020040568926602 -0.001605405722439172 -0.009224100562011008 0.0018156245720611058 0.014500665515272465
 0.001921310848377674 0.014486110304907571 -0.001605405722439172 -0.009224100562011008 0.006214036509815406 0.031022691665707057 0.992249737153396 -0.07278573622948331
 -0.0016067935393481983 -0.009224009603310558 0.0018156245720611058 0.014500665515272465 0.992249737153396 -0.07278573622948331 0.006229254614811023 0.031021715179557652
0.131304710296 0.006600055254846846 0.03272410024175254 0.9917396457098488 -0.07655595496663122 0.0020936319996318602 0.015212124418302164 -0.0017492350180998953 -0.009689834059575277
 0.9917396457098488 -0.07655595496663122 0.006618676798423144 0.0327228877018099 -0.001747709113068951 -0.009689941760790763 0.001977032299772078 0.015228546942664305
 0.0020936319996318602 0.015212124418302164 -0.001747709113068951 -0.009689941760790763 0.0066010489697547435 0.03272571037633255 0.9917397363279183 -0.07655417704904123
 -0.0017492350180998953 -0.009689834059575277 0.001977032299772078 0.015228546942664305 0.9917397363279183 -0.07655417704904123 0.006617826963543023 0.03272464462598685
0.1375573155481 0.006908860442992065 0.03421722482251415 0.9913034190992688 -0.08011342628324992 0.002251374935440514 0.015914870269647306 -0.0018759011206107648 -0.010132574548975119
 0.9913034190992688 -0.08011342628324992 0.00692930408468846 0.034215925370498154 -0.0018742279072089885 -0.010132698960039307 0.00212359755530341 0.01593312464018106
 0.002251374935440514 0.015914870269647306 -0.0018742279072089885 -0.010132698960039307 0.006909949475692045 0.034218899728641554 0.9913035187558399 -0.08011156096712792
 -0.0018759011206107648 -0.010132574548975119 0.00212359755530341 0.01593312464018106 0.9913035187558399 -0.08011156096712792 0.006928370882141191 0.0342177645145967
0.1438099208003 0.00722835991181411 0.035703251839978085 0.9908521480869048 -0.08366265963533705 0.0024155127457382275 0.016615179845133502 -0.002007648942786836 -0.010573141981645724
 0.9908521480869048 -0.08366265963533705 0.007250711716896 0.035701861090614725 -0.0020058217282707146 -0.010573284638338334 0.0022760642586933796 0.01663540123800371
 0.0024155127457382275 0.016615179845133502 -0.0020058217282707146 -0.010573284638338334 0.007229548478821522 0.035704989929189024 0.9908522572815002 -0.08366070653469525
 -0.002007648942786836 -0.010573141981645724 0.0022760642586933796 0.01663540123800371 0.9908522572815002 -0.08366070653469525 0.007249691199266088 0.035703782263650535
0.1500625260525 0.007558450899443323 0.0371820801665373 0.9903859387233878 -0.08720359027762035 0.0025859956635707515 0.017312994845247526 -0.002144431237179447 -0.01101148276384083
 0.9903859387233878 -0.08720359027762035 0.007582797111703078 0.03718059347297991 -0.002142443340374022 -0.011011645263261333 0.0024343851378548424 0.017335323345094265
 0.0025859956635707515 0.017312994845247526 -0.002142443340374022 -0.011011645263261333 0.007559743194007402 0.03718387978498944 0.9903860579674092 -0.08720154899274175
 -0.002144431237179447 -0.01101148276384083 0.0024343851378548424 0.017335323345094265 0.9903860579674092 -0.08720154899274175 0.007581685322560711 0.037182596475027876
0.15631513130469998 0.007899030031973429 0.03865361185549508 0.9899048974675256 -0.09073615324229267 0.002762773402831492 0.018008257828136285 -0.002286200238490965 -0.011447544355531103
