! Created with skrf 1.8.0 (http://scikit-rf.org).
# GHz S RI R 50.0 
!freq ReS11 ImS11 ReS12 ImS12 ReS13 ImS13
! ReS14 ImS14
! ReS21 ImS21 ReS22 ImS22 ReS23 ImS23
! ReS24 ImS24
! ReS31 ImS31 ReS32 ImS32 ReS33 ImS33
! ReS34 ImS34
! ReS41 ImS41 ReS42 ImS42 ReS43 ImS43
! ReS44 ImS44
!
0.0 0.001615277465654 0.0 0.9983847224983 0.0 6.252803958062e-05 0.0 -6.252803918178e-05 7.657476304092716e-21
 0.9983847224983 0.0 0.001615277465641 0.0 -6.252803918093e-05 7.657476303988621e-21 6.252803958146e-05 0.0
 6.252803958062e-05 0.0 -6.252803918093e-05 7.657476303988621e-21 0.001615277483654 0.0 0.9983847225163 0.0
 -6.252803918178e-05 7.657476304092716e-21 6.252803958146e-05 0.0 0.9983847225163 0.0 0.001615277483686 0.0
0.005 0.0017381510649050783 0.001319345062900104 0.9982292388418893 -0.00338341283931604 8.798337024374352e-05 0.0007005451275757595 -8.540129083288713e-05 -0.00043764677257672246
 0.9982292388418893 -0.00338341283931604 0.0017381463461052734 0.0013193478513867929 -8.540075555594347e-05 -0.0004376464395719498 8.802191994510871e-05 0.0007005306065422506
 8.798337024374352e-05 0.0007005451275757595 -8.540075555594347e-05 -0.0004376464395719498 0.0017381505820947432 0.0013192781242010903 0.9982292384725789 -0.00338347990323982
 -8.540129083288713e-05 -0.00043764677257672246 8.802191994510871e-05 0.0007005306065422506 0.9982292384725789 -0.00338347990323982 0.001738146095302716 0.001319280666272902
0.006252605252188 0.0017704435547946547 0.0016543709182814017 0.9981881098410479 -0.004230083909247783 9.527996142405779e-05 0.0008760118720149452 -9.189024442371524e-05 -0.0005476228875477307
 0.9981881098410479 -0.004230083909247783 0.0017704361776807614 0.001654374421314908 -9.188941087961912e-05 -0.0005476224786753425 9.534019344170298e-05 0.0008759929869193369
 9.527996142405779e-05 0.0008760118720149452 -9.188941087961912e-05 -0.0005476224786753425 0.001770442883812218 0.0016542872699578193 0.9981881093478602 -0.004230167723074171
 -9.189024442371524e-05 -0.0005476228875477307 9.534019344170298e-05 0.0008759929869193369 0.9981881093478602 -0.004230167723074171 0.0017704358702830302 0.0016542904511172205
0.01250521050438 0.0019408249715076418 0.0033433684425934022 0.9979696351885998 -0.00846090763529778 0.00013725220059485204 0.0017523252849776059 -0.00012887388243709917 -0.0010978670972545954
 0.9979696351885998 -0.00846090763529778 0.0019407955039625043 0.0033433756138729802 -0.00012887058995772376 -0.0010978663618564618 0.00013749244715461479 0.0017522795935964682
 0.00013725220059485204 0.0017523252849776059 -0.00012887058995772376 -0.0010978663618564618 0.0019408228368955726 0.003343201483273342 0.9979696337704711 -0.008461075032619841
 -0.00012887388243709917 -0.0010978670972545954 0.00013749244715461479 0.0017522795935964682 0.9979696337704711 -0.008461075032619841 0.00194079483797194 0.0033432078650373464
0.01875781575657 0.002126807861052252 0.005056340379578664 0.9977290169121114 -0.01270275388396489 0.00018854465668313153 0.0026295291706914035 -0.00017359595205401673 -0.0016499139628054472
 0.9977290169121114 -0.01270275388396489 0.0021267416257136538 0.0050563513852013575 -0.0001735885991879432 -0.0016499130026831246 0.000189084473353171 0.002629447180488634
 0.00018854465668313153 0.0026295291706914035 -0.0001735885991879432 -0.0016499130026831246 0.002126803474715733 0.0050560903392663815 0.9977290141474259 -0.012703004785011345
 -0.00017359595205401673 -0.0016499139628054472 0.000189084473353171 0.002629447180488634 0.9977290141474259 -0.012703004785011345 0.0021267405735227738 0.005056099924200666
0.02501042100875 0.0023287661332719294 0.006790867617829731 0.9974659618915657 -0.01695766007255271 0.0002492582137644972 0.0035076517503632395 -0.0002261693082850606 -0.0022034987600832775
 0.9974659618915657 -0.01695766007255271 0.0023286484683793305 0.0067908826172245204 -0.0002261563094477318 -0.0022034976979376205 0.000250217275231299 0.0035075224398597926
 0.0002492582137644972 0.0035076517503632395 -0.0002261563094477318 -0.0022034976979376205 0.0023287586983640842 0.0067905347329508285 0.9974659573542686 -0.01695799443485439
 -0.0002261693082850606 -0.0022034987600832775 0.000250217275231299 0.0035075224398597926 0.9974659573542686 -0.01695799443485439 0.0023286470110393726 0.006790547498565383
0.03126302626094 0.0025470582326206216 0.008545695808571249 0.9971801625925234 -0.021226486619222645 0.0003194939508594834 0.0043866388084891576 -0.00028670337585321565 -0.002758432488207406
 0.9971801625925234 -0.021226486619222645 0.002546874480788606 0.008545714952641196 -0.00028668315848797 -0.0027584314678616435 0.00032099215673261303 0.0043864496155973645
 0.0003194939508594834 0.0043866388084891576 -0.00028668315848797 -0.0027584314678616435 0.0025470469462202943 0.008545280328807747 0.9971801558541643 -0.021226904431227076
 -0.00028670337585321565 -0.002758432488207406 0.00032099215673261303 0.0043864496155973645 0.9971801558541643 -0.021226904431227076 0.0025468726118793228 0.008545296225210353
0.037515631513130004 0.00278203467956594 0.010319999940086883 0.9968713048829757 -0.02550965230686864 0.00039935217799583124 0.005266403415692862 -0.00035530495017927833 -0.0033145521626166564
 0.9968713048829757 -0.02550965230686864 0.002781770181592488 0.010320023369880992 -0.0003552759536585759 -0.0033145513491472634 0.0004015096998669135 0.0052661402203870835
 0.00039935217799583124 0.005266403415692862 -0.0003552759536585759 -0.0033145513491472634 0.002782018736949314 0.010319502136462223 0.9968712955156397 -0.02551015358023089
 -0.00035530495017927833 -0.0033145521626166564 0.0004015096998669135 0.0052661402203870835 0.9968712955156397 -0.02551015358023089 0.0027817679096087556 0.010319521084755588
0.043768236765320004 0.0030340409824733895 0.012113160531432292 0.9965390712188823 -0.029807358018041186 0.0004889319747573596 0.0061468410416597495 -0.0004320784783614379 -0.0038717057150892725
 0.9965390712188823 -0.029807358018041186 0.0030336810701768043 0.012113188377481036 -0.00043203915313769795 -0.003871705294920749 0.0004918692777403867 0.006146488147012367
 0.0004889319747573596 0.0061468410416597495 -0.00043203915313769795 -0.003871705294920749 0.003034019574205079 0.012112580703460685 0.9965390587913047 -0.02980794278087605
 -0.0004320784783614379 -0.0038717057150892725 0.0004918692777403867 0.006146488147012367 0.9965390587913047 -0.02980794278087605 0.003033678416597955 0.012112602594532467
0.050020842017509996 0.0033034189812959722 0.013924671149200289 0.9961831422653884 -0.034119679145626886 0.0005883309105758258 0.00702783579680116 -0.0005171261501686905 -0.004429745767177795
 0.9961831422653884 -0.034119679145626886 0.0033029489721695896 0.013924703530863957 -0.0005170749574715088 -0.004429745948160896 0.0005921687613516888 0.007027375909228579
 0.0005883309105758258 0.00702783579680116 -0.0005170749574715088 -0.004429745948160896 0.003303391294128801 0.013924009633195731 0.9961831263426757 -0.034120347434633866
 -0.0005171261501686905 -0.004429745767177795 0.0005921687613516888 0.007027375909228579 0.9961831263426757 -0.034120347434633866 0.003302945971191742 0.013924034326768957
0.055454545454549996 0.003551887807242085 0.015513489260772858 0.9958543371030074 -0.037879084178715924 0.0006827604295234921 0.00779380312794881 -0.0005978324500715906 -0.004915306224939542
 0.9958543371030074 -0.037879084178715924 0.003551310181164098 0.015513525672043834 -0.0005977697027078132 -0.004915307113832725 0.000687479195167658 0.007793234960671551
 0.0006827604295234921 0.00779380312794881 -0.0005977697027078132 -0.004915307113832725 0.003551854001971845 0.015512757047895176 0.9958543177879724 -0.03787982510034967
 -0.0005978324500715906 -0.004915306224939542 0.000687479195167658 0.007793234960671551 0.9958543177879724 -0.03787982510034967 0.003551306917767318 0.015512784038234076
0.056273447269699996 0.0035905075310873535 0.015754093013912996 0.9958031978620288 -0.03844661091621922 0.0006976448384717475 0.007909263510455844 -0.0006105479110474856 -0.004988526570897446
 0.9958031978620288 -0.03844661091621922 0.0035899127224671675 0.01575413003907411 -0.0006104833226408392 -0.00498852758237724 0.0007025043051890338 0.007908677719697301
 0.0006976448384717475 0.007909263510455844 -0.0006104833226408392 -0.00498852758237724 0.0035904727502959494 0.01575335017331343 0.9958031780069779 -0.03844736278662041
 -0.0006105479110474856 -0.004988526570897446 0.0007025043051890338 0.007908677719697301 0.9958031780069779 -0.03844736278662041 0.0035899094234220622 0.01575337749717349
0.06252605252188 0.003895642860440768 0.017601030043674356 0.9953989176669935 -0.0427880932798639 0.0008169677290825277 0.008790993419520046 -0.0007124414313090929 -0.005547902343770124
 0.9953989176669935 -0.0427880932798639 0.0038949085243025713 0.017601071808479647 -0.0007123619293849614 -0.00554790443665551 0.0008229701760216567 0.0087902611784524
 0.0008169677290825277 0.008790993419520046 -0.0007123619293849614 -0.00554790443665551 0.003895600168526845 0.01760020627349657 0.9953988934379017 -0.04278892880138164
 -0.0007124414313090929 -0.005547902343770124 0.0008229701760216567 0.0087902611784524 0.9953988934379017 -0.04278892880138164 0.0038949049901353915 0.017600236022929018
0.06877865777407 0.004219158751988756 0.019465113970874883 0.9949699816274 -0.047144025731922896 0.0009463915255558811 0.00967288918144726 -0.0008229020519934144 -0.006107726284705564
 0.9949699816274 -0.047144025731922896 0.004218270129348716 0.019465160559805312 -0.0008228061291864866 -0.0061077297315351425 0.000953658603682227 0.00967198828595728
 0.0009463915255558811 0.00967288918144726 -0.0008228061291864866 -0.0061077297315351425 0.004219107330716218 0.019464209701669465 0.994969952578547 -0.04714494498513525
 -0.0008229020519934144 -0.006107726284705564 0.000953658603682227 0.00967198828595728 0.994969952578547 -0.04714494498513525 0.0042182664381157755 0.019464241638999104
0.07503126302626001 0.004561386618089615 0.021345994922470524 0.99451607034996 -0.051514276677051836 0.0010860060107633815 0.01055480953058031 -0.0009420227160047276 -0.0066678499522448
 0.99451607034996 -0.051514276677051836 0.004560328913817197 0.021346046408399145 -0.0009419088754633562 -0.006667855047232903 0.0010946596455135476 0.010553716099470608
 0.0010860060107633815 0.01055480953058031 -0.0009419088754633562 -0.006667855047232903 0.004561325648520198 0.02134501061835371 0.9945160360307705 -0.05151527975561008
 -0.0009420227160047276 -0.0066678499522448 0.0010946596455135476 0.010553716099470608 0.9945160360307705 -0.05151527975561008 0.004560325158397537 0.0213450444727902
0.08128386827845 0.004922655509478635 0.023243335145360547 0.9940368654073273 -0.055898689654202624 0.0012358986834215236 0.011436608710077959 -0.0010698938885213866 -0.007228122873083943
 0.9940368654073273 -0.055898689654202624 0.004921413886746026 0.023243391589943607 -0.0010697606439278853 -0.0072281299321887045 0.0012460610602461107 0.011435297165096949
 0.0012358986834215236 0.011436608710077959 -0.0010697606439278853 -0.0072281299321887045 0.004922584172473779 0.023242271302871535 0.9940368253616297 -0.05589977666623633
 -0.0010698938885213866 -0.007228122873083943 0.0012460610602461107 0.011435297165096949 0.9940368253616297 -0.05589977666623633 0.004921410175477993 0.023242306770371802
0.08753647353064001 0.005303292080401011 0.025156804671573035 0.9935320496063429 -0.06029708762848293 0.0013961546376772415 0.012318136794362793 -0.001206603472211145 -0.007788392266192265
 0.9935320496063429 -0.06029708762848293 0.005301851655379376 0.025156866125722634 -0.0012064493479871238 -0.007788401627151778 0.0014079481857126755 0.012316579840456152
 0.0013961546376772415 0.012318136794362793 -0.0012064493479871238 -0.007788401627151778 0.005303209557518003 0.02515566182236636 0.9935320033718276 -0.060298258694208226
 -0.001206603472211145 -0.007788392266192265 0.0014079481857126755 0.012316579840456152 0.9935320033718276 -0.060298258694208226 0.005301848112175236 0.025155698565781794
0.09378907878283 0.005703620522794389 0.027086078223793053 0.9930013072280276 -0.064709276049661 0.0015668564473859477 0.013199239914925333 -0.0013522367164878033 -0.008348502869946758
 0.9930013072280276 -0.064709276049661 0.005701966359330735 0.02708614472833061 -0.0013520602479567647 -0.008348514892323366 0.0015804038215196492 0.013197408520630413
 0.0015668564473859477 0.013199239914925333 -0.0013520602479567647 -0.008348514892323366 0.005703525997300788 0.027084856937006588 0.9930012543364498 -0.06471053129911365
 -0.0013522367164878033 -0.008348502869946758 0.0015804038215196492 0.013197408520630413 0.9930012543364498 -0.06471053129911365 0.005701963124252987 0.027084894586435596
0.100041684035 0.006123962478953798 0.029030832958689357 0.992444324250327 -0.06913504508003343 0.0017480840519197363 0.014079760447432706 -0.0015068761240070224 -0.008908296814450822
 0.992444324250327 -0.06913504508003343 0.006122079582525107 0.02903090454529916 -0.0015066758575161235 -0.008908311879678778 0.001763508113572313 0.01407762382550698
 0.0017480840519197363 0.014079760447432706 -0.0015066758575161235 -0.008908311879678778 0.006123855136386623 0.029029533836462097 0.9924442642266649 -0.06913638465788824
 -0.0015068761240070224 -0.008908296814450822 0.001763508113572313 0.01407762382550698 0.9924442642266649 -0.06913638465788824 0.006122076812722377 0.029029571989638788
0.1059090909091 0.006536895081478933 0.03086957203363538 0.9918975112105014 -0.07330031245390271 0.0019277888306822484 0.014905362135000747 -0.0016602508108910115 -0.009433173077036757
 0.9918975112105014 -0.07330031245390271 0.0065347838498516445 0.03086964841073818 -0.0016600269005256085 -0.009433191364068784 0.0019450858717754487 0.014902909507900432
 0.0019277888306822484 0.014905362135000747 -0.0016600269005256085 -0.009433191364068784 0.0065367749729998105 0.030868200451262266 0.9918974440550017 -0.07330173130647202
 -0.0016602508108910115 -0.009433173077036757 0.0019450858717754487 0.014902909507900432 0.9918974440550017 -0.07330173130647202 0.006534781674018486 0.030868238683158952
0.1062942892872 0.006564636937618547 0.03099074675989789 0.991860788558176 -0.07357417128039115 0.0019399146439431402 0.014959537151852022 -0.001670601354157524 -0.009467613547463482
 0.991860788558176 -0.07357417128039115 0.006562510250426879 0.030990823452091754 -0.001670375847359811 -0.009467632058869137 0.0019573384407571147 0.014957062740222104
 0.0019399146439431402 0.014959537151852022 -0.001670375847359811 -0.009467632058869137 0.0065645159661326296 0.030989370441081292 0.9918607209195118 -0.07357559534221506
 -0.001670601354157524 -0.009467613547463482 0.0019573384407571147 0.014957062740222104 0.9918607209195118 -0.07357559534221506 0.006562508119304948 0.030989408664162818
0.11254689453939999 0.007025960117731348 0.0329654969508087 0.9912503901433382 -0.07802641888366378 0.002142422558360868 0.015838405298476084 -0.001843489125009497 -0.010026289781233825
 0.9912503901433382 -0.07802641888366378 0.007023574512824414 0.03296557876518841 -0.0018432369470361856 -0.010026312164064941 0.0021619693025427883 0.01583555874141549
 0.002142422558360868 0.015838405298476084 -0.0018432369470361856 -0.010026312164064941 0.0070258247095184535 0.03296404410833126 0.9912503143992082 -0.0780279275987525
 -0.001843489125009497 -0.010026289781233825 0.0021619693025427883 0.01583555874141549 0.9912503143992082 -0.0780279275987525 0.007023573211592582 0.032964081936718154
0.11879949979160001 0.007508245342796587 0.03495475928574525 0.9906128212992099 -0.0824915407984456 0.0023556791621675596 0.016716196775823543 -0.0020256131134238796 -0.010584159464435689
 0.9906128212992099 -0.0824915407984456 0.007505585618446227 0.03495484623348525 -0.002025332845167564 -0.01058418616588676 0.0023774722082021507 0.016712941905430358
 0.0023556791621675596 0.016716196775823543 -0.002025332845167564 -0.01058418616588676 0.00750809469437082 0.034953230631156906 0.9906127369502893 -0.08249313434535921
 -0.0020256131134238796 -0.010584159464435689 0.0023774722082021507 0.016712941905430358 0.9906127369502893 -0.08249313434535921 0.007505585355807734 0.03495326757060423
0.1250521050438 0.008011802907178296 0.036958207167700194 0.9899477768094387 -0.08696927939397266 0.002579752745376086 0.01759274018296587 -0.002217043854341971 -0.011141053776591745
 0.9899477768094387 -0.08696927939397266 0.008008853780906796 0.03695829925620638 -0.002216734088646785 -0.011141085265815144 0.0026039155664823715 0.017589039001020507
 0.002579752745376086 0.01759274018296587 -0.002216734088646785 -0.011141085265815144 0.008011636220456681 0.036956603446508786 0.989947683347728 -0.08697095796520862
 -0.002217043854341971 -0.011141053776591745 0.0026039155664823715 0.017589039001020507 0.989947683347728 -0.08697095796520862 0.00800885478404073 0.03695663897444099
0.131304710296 0.008536939936398303 0.038975511017332695 0.989254954133926 -0.09145936714246068 0.002814708412405295 0.018467860922016 -0.002417848639128962 -0.011696801129666014
 0.989254954133926 -0.09145936714246068 0.008533686039643867 0.03897560825206952 -0.002417507981106279 -0.011696837897763539 0.0028413645764999063 0.018463673582132935
 0.002814708412405295 0.018467860922016 -0.002417507981106279 -0.011696837897763539 0.008536756419238855 0.03897383301021775 0.9892548510417657 -0.09146113094327961
 -0.002417848639128962 -0.011696801129666014 0.0028413645764999063 0.018463673582132935 0.9892548510417657 -0.09146113094327961 0.008533688554110378 0.03897386657722428
0.1375573155481 0.008966115474326504 0.040743166448314216 0.9886519490964332 -0.09569822022936718 0.0030315482402981154 0.019315239380791802 -0.002599001518521921 -0.012225126031237682
 0.9886519490964332 -0.09569822022936718 0.008962540971755006 0.040743267933715216 -0.0025986281202268705 -0.012225168149946862 0.0030607539383686664 0.01931057080015587
 0.0030315482402981154 0.019315239380791802 -0.0025986281202268705 -0.012225168149946862 0.008965915252917098 0.04074141435938427 0.9886518359312696 -0.09570006935759004
 -0.002599001518521921 -0.012225126031237682 0.0030607539383686664 0.01931057080015587 0.9886518359312696 -0.09570006935759004 0.008962544190270696 0.040741445508618794
0.1438099208003 0.00941047030113701 0.04250103724857962 0.9880275851632752 -0.09992585080993038 0.003257127586463672 0.020158922054859696 -0.002787385107221436 -0.01275004635457782
 0.9880275851632752 -0.09992585080993038 0.009406559658793607 0.04250114306503133 -0.0027869775092695965 -0.01275009430339302 0.0032889943607078533 0.02015373575138457
 0.003257127586463672 0.020158922054859696 -0.0027869775092695965 -0.01275009430339302 0.009410252756850795 0.04249921183072623 0.9880274614094225 -0.0999277854611035
 -0.002787385107221436 -0.01275004635457782 0.0032889943607078533 0.02015373575138457 0.9880274614094225 -0.0999277854611035 0.009406563663276142 0.04249924018039415
0.1500625260525 0.009869841198483628 0.04424896250345224 0.987382030098198 -0.10414213953078619 0.0034913638728812308 0.02099881409412652 -0.002982918701209936 -0.013271472128371384
 0.987382030098198 -0.10414213953078619 0.009865578803656478 0.04424907276195132 -0.002982475450381637 -0.013271526405803768 0.0035260025789103817 0.02099307225148671
 0.0034913638728812308 0.02099881409412652 -0.002982475450381637 -0.013271526405803768 0.009869605729068228 0.04424706453880114 0.9873818952321175 -0.10414415990627376
 -0.002982918701209936 -0.013271472128371384 0.0035260025789103817 0.02099307225148671 0.9873818952321175 -0.10414415990627376 0.009865583681572114 0.04424708972186464
0.15631513130469998 0.010344063705297273 0.04598678611903007 0.9867154526143147 -0.10834696777050763 0.003734173490228885 0.021834822358850235 -0.0031855205523877678 -0.013789315365348496
 0.9867154526143147 -0.10834696777050763 0.010339433864594353 0.045986900964062924 -0.0031850402017989166 -0.013789376488776409 0.003771694287014009 0.021828485840322733
