! Created with skrf 1.8.0 (http://scikit-rf.org).
# GHz S RI R 50.0 
!freq ReS11 ImS11 ReS12 ImS12 ReS13 ImS13
! ReS14 ImS14
! ReS21 ImS21 ReS22 ImS22 ReS23 ImS23
! ReS24 ImS24
! ReS31 ImS31 ReS32 ImS32 ReS33 ImS33
! ReS34 ImS34
! ReS41 ImS41 ReS42 ImS42 ReS43 ImS43
! ReS44 ImS44
!
0.0 0.001910089979649 0.0 0.9980899099726 0.0 7.421484514279e-05 0.0 -7.421484532638e-05 9.088697277816717e-21
 0.9980899099726 0.0 0.001910089979638 0.0 -7.42148453254e-05 9.088697277696702e-21 7.421484514269e-05 0.0
 7.421484514279e-05 0.0 -7.42148453254e-05 9.088697277696702e-21 0.001910090003518 0.0 0.9980899099965 0.0
 -7.421484532638e-05 9.088697277816717e-21 7.421484514269e-05 0.0 0.9980899099965 0.0 0.001910090003557 0.0
0.005 0.0020563672788354915 0.0015627507898113597 0.9979046176372968 -0.0039996604326679504 0.00010461370095088704 0.0008097718936011649 -0.00010146089217194931 -0.000509439591362916
 0.9979046176372968 -0.0039996604326679504 0.0020564011252185662 0.001562731074114752 -0.00010146094121643248 -0.000509439708783474 0.00010439998591335233 0.0008098534077088473
 0.00010461370095088704 0.0008097718936011649 -0.00010146094121643248 -0.000509439708783474 0.002056366463517136 0.0015626840424265238 0.9979046172481891 -0.003999727498660037
 -0.00010146089217194931 -0.000509439591362916 0.00010439998591335233 0.0008098534077088473 0.9979046172481891 -0.003999727498660037 0.002056401172100887 0.0015626636984507503
0.006252605252188 0.0020951167278580973 0.0019595252851725394 0.9978551595964406 -0.005000489960061227 0.00011352995184807518 0.001012584152128563 -0.00010932878177251046 -0.000637432626070062
 0.9978551595964406 -0.005000489960061227 0.002095169635555016 0.001959500249427988 -0.0001093288574673037 -0.0006374327725755486 0.00011319604805157245 0.001012690108109669
 0.00011352995184807518 0.001012584152128563 -0.0001093288574673037 -0.0006374327725755486 0.002095115526567533 0.0019594418640102268 0.9978551590616345 -0.005000573791852639
 -0.00010932878177251046 -0.000637432626070062 0.00011319604805157245 0.001012690108109669 0.9978551590616345 -0.005000573791852639 0.002095169783056024 0.001959416026923062
0.01250521050438 0.002301344872775308 0.003959461025020904 0.9975899059850981 -0.010001295839492875 0.00016588295195853084 0.00202534415183095 -0.0001549101606423341 -0.0012776870047398327
 0.9975899059850981 -0.010001295839492875 0.0023015561285880176 0.003959406991783995 -0.00015491045130307495 -0.0012776872957793314 0.00016455154265693206 0.0020256005534937866
 0.00016588295195853084 0.00202534415183095 -0.00015491045130307495 -0.0012776872957793314 0.0023013406242130066 0.00395929459305287 0.9975899044025967 -0.010001463252502642
 -0.0001549101606423341 -0.0012776870047398327 0.00016455154265693206 0.0020256005534937866 0.9975899044025967 -0.010001463252502642 0.002301557283816251 0.00395923878332247
0.01875781575657 0.0025293043300565125 0.005987139624100182 0.9972937635489858 -0.015014488056284076 0.00023140500546968548 0.0030388786972414226 -0.000211114603690391 -0.0019197899029729586
 0.9972937635489858 -0.015014488056284076 0.002529779026401672 0.005987052295117343 -0.0002111152413502905 -0.0019197903392453545 0.00022841444933518709 0.0030393402417797036
 0.00023140500546968548 0.0030388786972414226 -0.0002111152413502905 -0.0019197903392453545 0.002529295202471108 0.005986890482139576 0.9972937604184625 -0.015014739003280242
 -0.000211114603690391 -0.0019197899029729586 0.00022841444933518709 0.0030393402417797036 0.9972937604184625 -0.015014739003280242 0.0025297820764243824 0.005986800186300168
0.02501042100875 0.0027795041430282545 0.008039620604679821 0.9969663295325787 -0.02004239012483639 0.0003102290904716789 0.004053154992364095 -0.00027809082256207866 -0.0025633890585385253
 0.9969663295325787 -0.02004239012483639 0.0027803471695613097 0.0080394953817943 -0.0002780919344521158 -0.0025633896430855988 0.00030491777170643533 0.004053886308506253
 0.0003102290904716789 0.004053154992364095 -0.0002780919344521158 -0.0025633896430855988 0.002779488294048851 0.008039289106517895 0.9969663243397642 -0.020042724599373563
 -0.00027809082256207866 -0.0025633890585385253 0.00030491777170643533 0.004053886308506253 0.9969663243397642 -0.020042724599373563 0.002780353004397184 0.008039159470293083
0.03126302626094 0.003052431850832182 0.010115337297565266 0.9966071839098274 -0.025085931993095875 0.00040248763064594056 0.005068046107548102 -0.00035598194506110083 -0.003208215745574517
 0.9966071839098274 -0.025085931993095875 0.003053747961298677 0.010115169289531373 -0.0003559836545502134 -0.0032082164838051256 0.00039419339873379954 0.0050691218160306695
 0.00040248763064594056 0.005068046107548102 -0.0003559836545502134 -0.0032082164838051256 0.003052407444271253 0.010114923841486016 0.9966071761408526 -0.025086350038449685
 -0.00035598194506110083 -0.003208215745574517 0.00039419339873379954 0.0050691218160306695 0.9966071761408526 -0.025086350038449685 0.003053757490415613 0.01011474967612076
0.037515631513130004 0.0033485631204385673 0.0122132277149867 0.9962158995199569 -0.03014551913165456 0.0005083109931576479 0.006083386829962109 -0.0004449264924099591 -0.003854028979788482
 0.9962158995199569 -0.03014551913165456 0.0033504569802888084 0.012213011739966974 -0.00044492891959567053 -0.003854029879550765 0.000496370942952956 0.006084891639008957
 0.0005083109931576479 0.006083386829962109 -0.00044492891959567053 -0.003854029879550765 0.0033485283231676774 0.012212732768828753 0.9962158886559129 -0.030146020816378984
 -0.0004449264924099591 -0.003854028979788482 0.000496370942952956 0.006084891639008957 0.9962158886559129 -0.030146020816378984 0.0033504711285961414 0.01221250855302329
0.043768236765320004 0.003668365425051514 0.014332470100802535 0.9957920462572882 -0.03522129693228815 0.00062782675152365 0.007098990677791146 -0.0005450586866563897 -0.004500598573424145
 0.9957920462572882 -0.03522129693228815 0.003670941652217234 0.014332200686851157 -0.0005450619488364054 -0.0045005996450632165 0.0006115771498857509 0.007101019489016751
 0.00062782675152365 0.007098990677791146 -0.0005450619488364054 -0.0045005996450632165 0.0036683184081972146 0.014331894203143439 0.9957920317722235 -0.03522188234938688
 -0.0005450586866563897 -0.004500598573424145 0.0006115771498857509 0.007101019489016751 0.9957920317722235 -0.03522188234938688 0.003670961359903561 0.014331614083003834
0.050020842017509996 0.004012299712650643 0.01647237364768152 0.9953351932569195 -0.04031325994100876 0.000761159219524192 0.008114656940616282 -0.0006565085189514612 -0.005147698174592979
 0.9953351932569195 -0.04031325994100876 0.004015662913409114 0.016472045031610115 -0.0006565127309696001 -0.005147699431005105 0.0007399355100990129 0.008117314958682762
 0.000761159219524192 0.008114656940616282 -0.0006565127309696001 -0.005147699431005105 0.004012238654216926 0.01647171739658382 0.9953351746178765 -0.040313929219685546
 -0.0006565085189514612 -0.005147698174592979 0.0007399355100990129 0.008117314958682762 0.9953351746178765 -0.040313929219685546 0.00401568913759603 0.01647137518396947
0.055454545454549996 0.004331140848718818 0.01834831623854202 0.9949110401207543 -0.044751396538795986 0.000888343872492548 0.0089971883982275 -0.0007626508603837211 -0.00571030233238946
 0.9949110401207543 -0.044751396538795986 0.004335272923435596 0.018347931265616645 -0.0007626559894510675 -0.005710303761877688 0.0008622572112951024 0.009000486740272247
 0.000888343872492548 0.0089971883982275 -0.0007626559894510675 -0.005710303761877688 0.004331066114215907 0.018347590701200168 0.9949110174317618 -0.04475213881758713
 -0.0007626508603837211 -0.00571030233238946 0.0008622572112951024 0.009000486740272247 0.9949110174317618 -0.04475213881758713 0.004335305600902113 0.018347189241002673
0.056273447269699996 0.004380821219731321 0.01863232485570844 0.9948449102337253 -0.04542130545700574 0.0009084291009692879 0.009130174172806642 -0.000779401714896331 -0.00579510186466925
 0.9948449102337253 -0.04542130545700574 0.004385076023361341 0.018631930980663215 -0.0007794069894749147 -0.005795103321366968 0.0008815659567254322 0.009133577016048128
 0.0009084291009692879 0.009130174172806642 -0.0007794069894749147 -0.005795103321366968 0.0043807443057553635 0.01863158892320566 0.9948448868985648 -0.045422058748530385
 -0.000779401714896331 -0.00579510186466925 0.0008815659567254322 0.009133577016048128 0.9948448868985648 -0.045422058748530385 0.004385109737868981 0.018631178092727886
0.06252605252188 0.004774379862649257 0.020811758075925387 0.9943207684051109 -0.050545262957285765 0.0010697532032349197 0.010145322123573481 -0.0009138596418768167 -0.006442582330816197
 0.9943207684051109 -0.050545262957285765 0.004779630954669246 0.02081129258746255 -0.0009138660898914503 -0.006442584005963235 0.0010365846114073866 0.010149595934186396
 0.0010697532032349197 0.010145322123573481 -0.0009138660898914503 -0.006442584005963235 0.004774285289403094 0.020810943204857695 0.9943207398221151 -0.05054610043842407
 -0.0009138596418768167 -0.006442582330816197 0.0010365846114073866 0.010149595934186396 0.9943207398221151 -0.05054610043842407 0.004779673151040869 0.020810456889588623
0.06877865777407 0.005193420396741222 0.023010137958789426 0.9937623411884084 -0.055684911628677725 0.0012452441826943026 0.011159872921297338 -0.0010599991878693117 -0.007089909796450845
 0.9937623411884084 -0.055684911628677725 0.005199772551312102 0.023009594199844663 -0.0010600069186431876 -0.007089911710912168 0.0012051035521852046 0.011165154474406448
 0.0012452441826943026 0.011159872921297338 -0.0010600069186431876 -0.007089911710912168 0.005193306373016095 0.023009244961366727 0.9937623067950921 -0.05568583350336521
 -0.0010599991878693117 -0.007089909796450845 0.0012051035521852046 0.011165154474406448 0.9937623067950921 -0.05568583350336521 0.005199824239689037 0.023008675947200026
0.07503126302626001 0.005638382439327921 0.025226948338972727 0.9931692047673699 -0.06083999147705584 0.0014350103102756353 0.012173591849404147 -0.0012179326212471006 -0.007736851372978483
 0.9931692047673699 -0.06083999147705584 0.005645940551680568 0.025226319343342844 -0.00121794174282335 -0.007736853550350203 0.0013872305969745678 0.012180028660250445
 0.0014350103102756353 0.012173591849404147 -0.00121794174282335 -0.007736853550350203 0.005638247187975429 0.02522597809902829 0.9931691639891781 -0.06084099797429722
 -0.0012179326212471006 -0.007736851372978483 0.0013872305969745678 0.012180028660250445 0.9931691639891781 -0.06084099797429722 0.0056460027607917835 0.025225318817761768
0.08128386827845 0.006109700402517018 0.02746168485554493 0.9925409385750364 -0.06601021071575619 0.0016391552513260173 0.013186237886920076 -0.0013877674375425625 -0.008383170659963829
 0.9925409385750364 -0.06601021071575619 0.006118569521058708 0.027460963339987078 -0.0013877780569309325 -0.008383173126590713 0.0015830690974064508 0.013193988315973645
 0.0016391552513260173 0.013186237886920076 -0.0013877780569309325 -0.008383173126590713 0.006109542163025277 0.027460638329058203 0.9925408908242926 -0.06601130208900784
 -0.0013877674375425625 -0.008383170659963829 0.0015830690974064508 0.013193988315973645 0.9925408908242926 -0.06601130208900784 0.00611864329942939 0.027459880850187583
0.08753647353064001 0.006607803371180981 0.02971384987489468 0.9918771257254702 -0.07119525086626903 0.001857777853159852 0.014197564112796442 -0.0015696061996583698 -0.009028627494940687
 0.9918771257254702 -0.07119525086626903 0.006618088729244242 0.029713028229930192 -0.0015696184230626342 -0.009028630279947774 0.001792717737586564 0.014206797468319146
 0.001857777853159852 0.014197564112796442 -0.0015696184230626342 -0.009028630279947774 0.006607620401130751 0.029712728089930685 0.9918770704000773 -0.0711964273936498
 -0.0015696061996583698 -0.009028627494940687 0.001792717737586564 0.014206797468319146 0.9918770704000773 -0.0711964273936498 0.00661817514544698 0.02971186411090176
0.09378907878283 0.007133114939326474 0.031982948876866424 0.9911773534099233 -0.07639477041178046 0.0020909719398299977 0.015207318022774991 -0.0017635463717044296 -0.009672977804429578
 0.9911773534099233 -0.07639477041178046 0.0071449219874205 0.03198201915602567 -0.001763560304781826 -0.009672980939724117 0.002016270338820957 0.015218214660589622
 0.0020909719398299977 0.015207318022774991 -0.001763560304781826 -0.009672980939724117 0.00713290551666123 0.03198175293390621 0.9911772898921167 -0.07639603239542066
 -0.0017635463717044296 -0.009672977804429578 0.002016270338820957 0.015218214660589622 0.9911772898921167 -0.07639603239542066 0.00714502213061573 0.03198077376917065
0.100041684035 0.0076860530166978965 0.03426848782258149 0.9904412132661603 -0.08160840748509451 0.0023388261113381865 0.016215241789014248 -0.0019696801498966196 -0.010315973526122311
 0.9904412132661603 -0.08160840748509451 0.007699487454622731 0.03426744173021832 -0.0019696958980768564 -0.01031597704638339 0.0022538156673153832 0.016227993209315106
 0.0023388261113381865 0.016215241789014248 -0.0019696958980768564 -0.01031597704638339 0.0076858154424803045 0.03426721889383496 0.9904411409215765 -0.08160975525166433
 -0.0019696801498966196 -0.010315973526122311 0.0022538156673153832 0.016227993209315106 0.9904411409215765 -0.08160975525166433 0.007699602435494863 0.03426611546226496
0.1059090909091 0.008230419861949983 0.03642773428651378 0.9897169881268191 -0.08651335420316089 0.0025848183168488722 0.017159172699315346 -0.0021742821439380625 -0.010917900329641343
 0.9897169881268191 -0.08651335420316089 0.008245477815079822 0.03642657112400082 -0.0021742996911722767 -0.01091790424516594 0.0024895274656772607 0.01717384881308874
 0.0025848183168488722 0.017159172699315346 -0.0021742996911722767 -0.01091790424516594 0.00823015434717838 0.036426397999867584 0.9897169069063178 -0.08651478278500915
 -0.0021742821439380625 -0.010917900329641343 0.0024895274656772607 0.01717384881308874 0.9897169069063178 -0.08651478278500915 0.00824560774947181 0.036425169333316784
0.1062942892872 0.008267029617480314 0.03656997119999979 0.9896683017337264 -0.08683578189569308 0.0026014235470380367 0.017221072487062956 -0.00218809429111528 -0.010957362577860378
 0.9896683017337264 -0.08683578189569308 0.008282197425892026 0.03656880007762118 -0.002188111959712047 -0.010957366520553138 0.0025054372450710608 0.01723588142791921
 0.0026014235470380367 0.017221072487062956 -0.002188111959712047 -0.010957366520553138 0.008266762217245557 0.036568630529986774 0.9896682199099761 -0.08683721579543908
 -0.00218809429111528 -0.010957362577860378 0.0025054372450710608 0.01723588142791921 0.9896682199099761 -0.08683721579543908 0.008282328377190012 0.03656739334096753
0.11254689453939999 0.0088764506301079 0.03888690054577962 0.9888582203935506 -0.09207649669758342 0.00287884181225511 0.018224542297688284 -0.002418869940297518 -0.011596888866085233
 0.9888582203935506 -0.09207649669758342 0.008893458102857342 0.03888559535675308 -0.0024188896348140234 -0.011596893271427702 0.002771213163457288 0.018241622825210375
 0.00287884181225511 0.018224542297688284 -0.0024188896348140234 -0.011596893271427702 0.008876151756691708 0.03888548945159194 0.988858128419192 -0.09207801710357552
 -0.002418869940297518 -0.011596888866085233 0.002771213163457288 0.018241622825210375 0.988858128419192 -0.09207801710357552 0.008893606180174785 0.03888410858950088
0.11879949979160001 0.009514715576745405 0.04121877332068994 0.9880105762995604 -0.09733013942114624 0.003171152668147256 0.01922537869494363 -0.0026620824573099756 -0.012234292322546768
 0.9880105762995604 -0.09733013942114624 0.00953366935296935 0.041217324633414834 -0.0026621042836890577 -0.01223429723347114 0.0030512158992103155 0.019244956289724717
 0.003171152668147256 0.01922537869494363 -0.0026621042836890577 -0.01223429723347114 0.00951438361215625 0.04121729319147017 0.9880104734825037 -0.09733174672929656
 -0.0026620824573099756 -0.012234292322546768 0.0030512158992103155 0.019244956289724717 0.9880104734825037 -0.09733174672929656 0.00953383573494436 0.041215758298653364
0.1250521050438 0.010182217363263765 0.04356508203923436 0.9871249823017815 -0.10259628306855914 0.003478421884636238 0.020223304626806268 -0.002917801244114989 -0.012869308962931385
 0.9871249823017815 -0.10259628306855914 0.010203224459242332 0.04356348000866292 -0.0029178253089291 -0.012869314425102987 0.003345512133132013 0.02024561626662497
 0.003478421884636238 0.020223304626806268 -0.0029178253089291 -0.012869314425102987 0.010181850721091118 0.04356353433342261 0.9871248679285785 -0.10259797769966005
 -0.002917801244114989 -0.012869308962931385 0.003345512133132013 0.02024561626662497 0.9871248679285785 -0.10259797769966005 0.010203410348552851 0.043561834591516316
0.131304710296 0.010879342022213932 0.04592531359396354 0.9862010573649491 -0.10787448693264085 0.0038007090561054356 0.021218038689004615 -0.003186089572709357 -0.01350167096708884
 0.9862010573649491 -0.10787448693264085 0.010902509862976471 0.045923547941480375 -0.0031861159834549904 -0.013501677028814177 0.0036541625712640043 0.021243332927585182
 0.0038007090561054356 0.021218038689004615 -0.0031861159834549904 -0.013501677028814177 0.010878939149784893 0.04592369984298825 0.9862009306990165 -0.10787626932791444
 -0.003186089572709357 -0.01350167096708884 0.0036541625712640043 0.021243332927585182 0.9862009306990165 -0.10787626932791444 0.010902716487020098 0.045921823952741185
0.1375573155481 0.011459628728619926 0.04799287641683465 0.9853853485956428 -0.11285802081387118 0.004101806770355708 0.022180713502407454 -0.003430915220707952 -0.014102420798382719
 0.9853853485956428 -0.11285802081387118 0.011485073930474352 0.047990972489336536 -0.0034309443535176943 -0.014102427470985635 0.003941290341057043 0.022208984424502264
 0.004101806770355708 0.022180713502407454 -0.0034309443535176943 -0.014102427470985635 0.011459189025851581 0.047991197473499864 0.9853852090521085 -0.11285989122694022
 -0.003430915220707952 -0.014102420798382719 0.003941290341057043 0.022208984424502264 0.9853852090521085 -0.11285989122694022 0.011485301298467048 0.047989170834942044
0.1438099208003 0.01206067141003319 0.050046999688116656 0.9845402028244798 -0.1178263159530065 0.004414969219811724 0.023137755921026248 -0.0036853958909917215 -0.014698091222164002
 0.9845402028244798 -0.1178263159530065 0.012088503314874391 0.05004494891502682 -0.0036854279025374656 -0.014698098544792074 0.004239880143893566 0.023169233848804323
 0.004414969219811724 0.023137755921026248 -0.0036854279025374656 -0.014698098544792074 0.012060193544881843 0.05004525707767847 0.984540049665765 -0.11782827481218745
 -0.0036853958909917215 -0.014698091222164002 0.004239880143893566 0.023169233848804323 0.984540049665765 -0.11782827481218745 0.012088752468360438 0.05004307019626993
0.1500625260525 0.012682215331308517 0.052087436306926804 0.9836658800589194 -0.12277917124395345 0.004740059913543421 0.024089012890538712 -0.0039494008547899554 -0.015288543283869957
 0.9836658800589194 -0.12277917124395345 0.012712543706454795 0.05208522953174834 -0.0039494359056760926 -0.015288551296116625 0.00454980031805969 0.02412393654404904
 0.004740059913543421 0.024089012890538712 -0.0039494359056760926 -0.015288551296116625 0.01268169801555639 0.05208563160938156 0.9836657125282376 -0.12278121899207638
 -0.0039494008547899554 -0.015288543283869957 0.00454980031805969 0.02412393654404904 0.9836657125282376 -0.12278121899207638 0.012712815696239872 0.05208327437450034
0.15631513130469998 0.013324003438885776 0.05411394662728695 0.9827626421885383 -0.12771638815194053 0.00507694044041906 0.025034334638750762 -0.004222797513184292 -0.015873641560114837
 0.9827626421885383 -0.12771638815194053 0.013356938487177306 0.05411157408656181 -0.004222835768086656 -0.015873650301901687 0.0048709173717086515 0.025072951027223546
