! Created with skrf 1.8.0 (http://scikit-rf.org).
# GHz S RI R 50.0 
!freq ReS11 ImS11 ReS12 ImS12 ReS13 ImS13
! ReS14 ImS14
! ReS21 ImS21 ReS22 ImS22 ReS23 ImS23
! ReS24 ImS24
! ReS31 ImS31 ReS32 ImS32 ReS33 ImS33
! ReS34 ImS34
! ReS41 ImS41 ReS42 ImS42 ReS43 ImS43
! ReS44 ImS44
!
0.0 0.001214311514838 0.0 0.9987856884852 0.0 4.649219257411e-05 0.0 -4.649219288478e-05 5.6936515201687176e-21
 0.9987856884852 0.0 0.001214311514835 0.0 -4.649219288466e-05 5.693651520154022e-21 4.64921925736e-05 0.0
 4.649219257411e-05 0.0 -4.649219288466e-05 5.693651520154022e-21 0.001214311495754 0.0 0.9987856884661 0.0
 -4.649219288478e-05 5.6936515201687176e-21 4.64921925736e-05 0.0 0.9987856884661 0.0 0.00121431149575 0.0
0.005 0.0013057837454297726 0.0009900048315284369 0.9986700791539155 -0.002544886846700415 6.523719739804473e-05 0.0005357773949388972 -6.332814027410964e-05 -0.00033232625087329157
 0.9986700791539155 -0.002544886846700415 0.0013057717580552569 0.0009900118632899812 -6.333016049013848e-05 -0.00033232782459606997 6.529347007841323e-05 0.0005357558313939514
 6.523719739804473e-05 0.0005357773949388972 -6.333016049013848e-05 -0.00033232782459606997 0.0013057829376193879 0.0009900725780370174 0.9986700794817861 -0.0025448197925870115
 -6.332814027410964e-05 -0.00033232625087329157 6.529347007841323e-05 0.0005357558313939514 0.9986700794817861 -0.0025448197925870115 0.001305773221597829 0.0009900782263048706
0.006252605252188 0.0013295541003265036 0.0012414500557629581 0.9986398840225631 -0.0031817672634571323 7.045563347480056e-05 0.0006699854763512733 -6.7979588554669e-05 -0.0004158562025237955
 0.9986398840225631 -0.0031817672634571323 0.0013295353619227925 0.0012414590241253776 -6.798273204909524e-05 -0.00041585814421916733 7.054355373949186e-05 0.0006699575306344354
 7.045563347480056e-05 0.0006699854763512733 -6.798273204909524e-05 -0.00041585814421916733 0.001329552768107184 0.0012415347403167433 0.9986398844661045 -0.003181683448103822
 -6.7979588554669e-05 -0.0004158562025237955 7.054355373949186e-05 0.0006699575306344354 0.9986398844661045 -0.003181683448103822 0.0013295375810390784 0.0012415419728195516
0.01250521050438 0.0014534048622941794 0.002509380513801909 0.9984816959101158 -0.006364552676931103 9.965953637311377e-05 0.001340342346297591 -9.382401440089863e-05 -0.0008338956059441575
 0.9984816959101158 -0.006364552676931103 0.0014533300381791158 0.0025094002579688596 -9.383640168595926e-05 -0.0008338992150246677 0.00010001011028467884 0.0013402758920261126
 9.965953637311377e-05 0.001340342346297591 -9.383640168595926e-05 -0.0008338992150246677 0.0014533989650385665 0.00250954969220103 0.9984816971081044 -0.00636438528421156
 -9.382401440089863e-05 -0.0008338956059441575 0.00010001011028467884 0.0013402758920261126 0.9984816971081044 -0.00636438528421156 0.0014533383312120352 0.002509565885182253
0.01875781575657 0.0015860875732229308 0.0037958311514547298 0.9983109609670897 -0.009556153203385646 0.00013416416282163276 0.0020115766091879208 -0.00012409524528824648 -0.0012535128961729568
 0.9983109609670897 -0.009556153203385646 0.0015859194370957763 0.0037958636115315884 -0.00012412286903748873 -0.0012535178569172093 0.00013495161919361914 0.0020114593298955416
 0.00013416416282163276 0.0020115766091879208 -0.00012412286903748873 -0.0012535178569172093 0.0015860738928053352 0.0037960847846217195 0.9983109632389865 -0.009555902351580133
 -0.00012409524528824648 -0.0012535128961729568 0.00013495161919361914 0.0020114593298955416 0.9983109632389865 -0.009555902351580133 0.001585937661730253 0.003796111749491779
0.02501042100875 0.0017278218016190414 0.005099039655536212 0.9981275109750949 -0.012758162580775972 0.00017403038069662216 0.002683754223794015 -0.000158861396850421 -0.0016745397696217744
 0.9981275109750949 -0.012758162580775972 0.0017275232037920743 0.005099086894369553 -0.0001589101789676529 -0.0016745457186407996 0.00017542899127831512 0.002683572138005829
 0.00017403038069662216 0.002683754223794015 -0.0001589101789676529 -0.0016745457186407996 0.0017277971136955808 0.005099377785351534 0.998127514632721 -0.012757828337324069
 -0.000158861396850421 -0.0016745397696217744 0.00017542899127831512 0.002683572138005829 0.998127514632721 -0.012757828337324069 0.0017275552096207814 0.0050994174104252105
0.03126302626094 0.0018788176967084143 0.00641812225593036 0.9979311675992117 -0.015971290654932076 0.000219319711746117 0.0033568774242811288 -0.00019818901062651582 -0.0020968686594628294
 0.9979311675992117 -0.015971290654932076 0.0018783515476458567 0.006418186457937502 -0.0001982648148008655 -0.0020968751848859796 0.00022150396730835953 0.0033566148796764887
 0.000219319711746117 0.0033568774242811288 -0.0001982648148008655 -0.0020968751848859796 0.001878778780401231 0.006418544957713848 0.9979311729576291 -0.015970873083894076
 -0.00019818901062651582 -0.0020968686594628294 0.00022150396730835953 0.0033566148796764887 0.9979311729576291 -0.015970873083894076 0.0018784011885057599 0.006418599206999412
0.037515631513130004 0.0020392810332355237 0.007752520255829627 0.9977217475274054 -0.01919591680373813 0.00027009378104739376 0.004030923821572913 -0.0002421435893332804 -0.002520413628752604
 0.9977217475274054 -0.01919591680373813 0.002038610293206062 0.007752603726817574 -0.000242252227467997 -0.002520420269944954 0.00027323847581880024 0.004030563479492983
 0.00027009378104739376 0.004030923821572913 -0.000242252227467997 -0.002520420269944954 0.0020392246644031138 0.007753027646864394 0.9977217548992184 -0.019195415957424796
 -0.0002421435893332804 -0.002520413628752604 0.00027323847581880024 0.004030563479492983 0.9977217548992184 -0.019195415957424796 0.002038681422359795 0.007753098559428075
0.043768236765320004 0.002209415164576101 0.009101831616729934 0.9974990645170395 -0.022432258301582828 0.0003264140686206979 0.004705858293111634 -0.00029078980096446366 -0.002945098470348282
 0.9974990645170395 -0.022432258301582828 0.0022085028365201823 0.00910193678389287 -0.00029093703709514527 -0.0029451047177925884 0.0003306943459749031 0.004705381110101391
 0.0003264140686206979 0.004705858293111634 -0.00029093703709514527 -0.0029451047177925884 0.0022093381161251307 0.00910242384693831 0.9974990742128914 -0.022431674230085737
 -0.00029078980096446366 -0.002945098470348282 0.0003306943459749031 0.004705381110101391 0.9974990742128914 -0.022431674230085737 0.0022085993078052755 0.009102513536348457
0.050020842017509996 0.0023894219414917215 0.01046574134894772 0.9972629304080027 -0.02568043987644352 0.00038834176651986754 0.005381637889864377 -0.0003441915668972794 -0.0033708517887531043
 0.9972629304080027 -0.02568043987644352 0.0023882310651949057 0.01046587076113447 -0.00034438311977361195 -0.0033708570839910594 0.00039393314379018284 0.005381023097943351
 0.00038834176651986754 0.005381637889864377 -0.00034438311977361195 -0.0033708570839910594 0.0023893209854932503 0.010466418597201266 0.9972629427384423 -0.02567977263157588
 -0.0003441915668972794 -0.0033708517887531043 0.00039393314379018284 0.005381023097943351 0.9972629427384423 -0.02567977263157588 0.0023883567355725186 0.010466529251129775
0.055454545454549996 0.0025540270768166944 0.011662671387886086 0.9970466516263563 -0.028512876250197806 0.0004467599537074844 0.005969559717985097 -0.0003945105201024952 -0.0037416584414851992
 0.9970466516263563 -0.028512876250197806 0.002552564142368475 0.011662824034507304 -0.0003947451960835336 -0.003741662417664695 0.0004536335582248392 0.005968807118942446
 0.0004467599537074844 0.005969559717985097 -0.0003947451960835336 -0.003741662417664695 0.002553902720966663 0.011663422691451071 0.9970466664976375 -0.02851213676447698
 -0.0003945105201024952 -0.0037416584414851992 0.0004536335582248392 0.005968807118942446 0.9970466664976375 -0.02851213676447698 0.002552718321298096 0.0116635533981183
0.056273447269699996 0.0025795021950366565 0.011843987351539402 0.9970131557002113 -0.02894052781726062 0.00045593768412537545 0.0060582142329488895 -0.0004024120960556003 -0.0037976045926525004
 0.9970131557002113 -0.02894052781726062 0.0025779958422216817 0.011844143679655071 -0.0004026536409372166 -0.0037976083282642886 0.0004630160653768816 0.006057439319244881
 0.00045593768412537545 0.0060582142329488895 -0.0004026536409372166 -0.0037976083282642886 0.0025793741009624382 0.011844749831571681 0.9970131709746601 -0.028939777446924747
 -0.0004024120960556003 -0.0037976045926525004 0.0004630160653768816 0.006057439319244881 0.9970131709746601 -0.028939777446924747 0.0025781545703633213 0.011844883711431541
0.06252605252188 0.002779856008473126 0.013236341629607221 0.9967495499234521 -0.032212548704224284 0.0005292621742032691 0.00673553484102495 -0.0004655138952386983 -0.004225288957506778
 0.9967495499234521 -0.032212548704224284 0.002777997278306124 0.01323652766703403 -0.0004658110651602166 -0.0042252904770932525 0.0005380038547523335 0.006734575527094946
 0.0005292621742032691 0.00673553484102495 -0.0004658110651602166 -0.0042252904770932525 0.002779697544525221 0.013237189584465342 0.9967495684507857 -0.03221171525827303
 -0.0004655138952386983 -0.004225288957506778 0.0005380038547523335 0.006734575527094946 0.9967495684507857 -0.03221171525827303 0.002778192926137706 0.013237349025189487
0.06877865777407 0.002990682875447647 0.014642599090927823 0.9964719218936257 -0.03549650056064757 0.0006083750729788546 0.007413543907978677 -0.0005335587629040961 -0.004653837238952778
 0.9964719218936257 -0.03549650056064757 0.0029884348903417655 0.014642817754137429 -0.0005339171495793609 -0.0046538358371314955 0.0006189567384574451 0.0074123741289510315
 0.0006083750729788546 0.007413543907978677 -0.0005339171495793609 -0.0046538358371314955 0.002990490807275909 0.014643532795482521 0.9964719439815405 -0.03549558408864736
 -0.0005335587629040961 -0.004653837238952778 0.0006189567384574451 0.0074123741289510315 0.9964719439815405 -0.03549558408864736 0.002988671322099674 0.0146437202053221
0.07503126302626001 0.003212181789234284 0.016062570451141338 0.9961800799032845 -0.03879235989727774 0.0006933356473289395 0.008092182799903268 -0.0006066077740704992 -0.005083181568143276
 0.9961800799032845 -0.03879235989727774 0.003209507691328594 0.016062824780294558 -0.0006070329286506214 -0.005083176490551719 0.0007059343685408809 0.008090774683574196
 0.0006933356473289395 0.008092182799903268 -0.0006070329286506214 -0.005083176490551719 0.003211952881198767 0.01606359020986434 0.9961801058586156 -0.0387913604509651
 -0.0006066077740704992 -0.005083181568143276 0.0007059343685408809 0.008090774683574196 0.9961801058586156 -0.0387913604509651 0.00320978877418438 0.016063808070347813
0.08128386827845 0.003444551291095286 0.017496077504839228 0.9958738318718363 -0.042100086391868755 0.0007842025461675963 0.008771390383297294 -0.000684721259592547 -0.0055132535172699735
 0.9958738318718363 -0.042100086391868755 0.0034414142383073104 0.01749637066455402 -0.0006852186930938611 -0.0055132439605754015 0.0007989957707892988 0.008769714229208846
 0.0007842025461675963 0.008771390383297294 -0.0006852186930938611 -0.0055132439605754015 0.00344428230593477 0.01749718365388609 0.9958738620009061 -0.04209900402345123
 -0.000684721259592547 -0.0055132535172699735 0.0007989957707892988 0.008769714229208846 0.9958738620009061 -0.04209900402345123 0.0034417438425751058 0.017497434519743546
0.08753647353064001 0.0036879894911103755 0.018942949853893366 0.995552985471323 -0.04541962611312746 0.0008810337553563724 0.009451103250548713 -0.0007679587804867822 -0.0059439838692667895
 0.995552985471323 -0.04541962611312746 0.003684352653485284 0.01894328513411805 -0.000768533964180244 -0.00594396898118189 0.000898199297063604 0.009449127509131324
 0.0008810337553563724 0.009451103250548713 -0.000768533964180244 -0.00594396898118189 0.0036876771898069 0.01894414276183177 0.9955530200789607 -0.04541846087478361
 -0.0007679587804867822 -0.0059439838692667895 0.000898199297063604 0.009449127509131324 0.9955530200789607 -0.04541846087478361 0.0036847346521644933 0.018944429261129776
0.09378907878283 0.003942694069199652 0.020403022575943536 0.9952173482329542 -0.048750913805875505 0.000983886553617016 0.01013125588130245 -0.0008563791000607415 -0.006375302453181643
 0.9952173482329542 -0.048750913805875505 0.003938520625602419 0.02040340339282724 -0.0008570374657518052 -0.006375281332477713 0.0010036025792128087 0.01012894713308915
 0.000983886553617016 0.01013125588130245 -0.0008570374657518052 -0.006375281332477713 0.003942335211493667 0.020404302639988083 0.9952173876229975 -0.04874966575385512
 -0.0008563791000607415 -0.006375302453181643 0.0010036025792128087 0.01012894713308915 0.9952173876229975 -0.04874966575385512 0.003938958894518816 0.0204046274742941
0.100041684035 0.004208862263066829 0.021876134500598603 0.9948667276434267 -0.05209387457019385 0.0010928174701978154 0.01081178076229549 -0.0009500401532099825 -0.00680713802267811
 0.9948667276434267 -0.05209387457019385 0.004204115397517857 0.02187656439758299 -0.0009507870933441995 -0.006807109719219939 0.0011152624850851102 0.010809103697276641
 0.0010928174701978154 0.01081178076229549 -0.0009507870933441995 -0.006807109719219939 0.004208453607661673 0.021877502152022377 0.9948667721189356 -0.052092543759665835
 -0.0009500401532099825 -0.00680713802267811 0.0011152624850851102 0.010809103697276641 0.9948667721189356 -0.052092543759665835 0.004204613815736509 0.02187786809663117
0.1059090909091 0.00446923420567603 0.023270211411065105 0.994523908764709 -0.0552414311134964 0.0012006152246554509 0.011450657929618796 -0.0010427483596552709 -0.007212775610492196
 0.994523908764709 -0.0552414311134964 0.0044639157623337 0.023270690701595816 -0.0010435832869355262 -0.007212739659094706 0.0012257837425469244 0.011447601422137715
 0.0012006152246554509 0.011450657929618796 -0.0010435832869355262 -0.007212739659094706 0.004468775871570818 0.023271661671889453 0.9945239582868713 -0.05524002269699459
 -0.0010427483596552709 -0.007212775610492196 0.0012257837425469244 0.011447601422137715 0.9945239582868713 -0.05524002269699459 0.004464474154740413 0.023272068784317493
0.1062942892872 0.004486690846598034 0.023362126924373363 0.994500931232822 -0.055448425103555334 0.0012078822431760596 0.01149260847431926 -0.00104899901413937 -0.007239418169147943
 0.994500931232822 -0.055448425103555334 0.004481333744870142 0.023362609573278976 -0.0010498398819343206 -0.007239381683915138 0.0012332350750991973 0.011489525871367765
 0.0012078822431760596 0.01149260847431926 -0.0010498398819343206 -0.007239381683915138 0.004486229151176292 0.023363582623809335 0.9945009810956141 -0.05544701159358959
 -0.00104899901413937 -0.007239418169147943 0.0012332350750991973 0.011489525871367765 0.9945009810956141 -0.05544701159358959 0.004481896194251387 0.02336399252816689
0.11254689453939999 0.004776376099746328 0.024860842617774565 0.9941197666562351 -0.05881447465266534 0.0013291357779503183 0.012173667763337111 -0.0011533118627583656 -0.007672069252310758
 0.9941197666562351 -0.05881447465266534 0.0047703719460180875 0.024861381820044014 -0.0011542519722560999 -0.007672023537432933 0.0013575755596588342 0.012170140469917125
 0.0013291357779503183 0.012173667763337111 -0.0011542519722560999 -0.007672023537432933 0.004775858121437723 0.024862386859954098 0.9941198222070898 -0.05881297850180922
 -0.0011533118627583656 -0.007672069252310758 0.0013575755596588342 0.012170140469917125 0.9941198222070898 -0.05881297850180922 0.004771002311306888 0.024862843648053905
0.11879949979160001 0.00507811377302327 0.026372125053310654 0.9937230417715609 -0.06219192574622162 0.0014566321065212619 0.012854885593609727 -0.0012630339495974402 -0.00810501635069645
 0.9937230417715609 -0.06219192574622162 0.005071425746326912 0.02637272474137378 -0.0012640785756100172 -0.008104960309502298 0.0014883382571229333 0.012850872505542192
 0.0014566321065212619 0.012854885593609727 -0.0012640785756100172 -0.008104960309502298 0.005077536268577861 0.02637375836367301 0.9937231033101924 -0.06219034701617903
 -0.0012630339495974402 -0.00810501635069645 0.0014883382571229333 0.012850872505542192 0.9937231033101924 -0.06219034701617903 0.005072127915285026 0.026374265034660963
0.1250521050438 0.005392099047793501 0.027895817790149702 0.9933105647143811 -0.06558067477306409 0.0015904243463802066 0.013536187193265097 -0.0013782195600944764 -0.008538183221464428
 0.9933105647143811 -0.06558067477306409 0.0053846903186714505 0.0278964820288231 -0.0013793739381820671 -0.00853811570851457 0.0016255765517120642 0.013531645234763924
 0.0015904243463802066 0.013536187193265097 -0.0013793739381820671 -0.00853811570851457 0.005391458773573463 0.02789754072676271 0.9933106325391983 -0.06557901352703205
 -0.0013782195600944764 -0.008538183221464428 0.0016255765517120642 0.013531645234763924 0.9933106325391983 -0.06557901352703205 0.005385468181536894 0.02789810035564025
0.131304710296 0.0057185264915874945 0.0294317639849821 0.99288214397075 -0.06898061243620987 0.0017305646597670084 0.014217496090363498 -0.0014989219778656713 -0.008971492271586109
 0.99288214397075 -0.06898061243620987 0.005710360218669099 0.02943249697307439 -0.0015001913042178704 -0.008971412092737753 0.0017693428517582864 0.014212380194295222
 0.0017305646597670084 0.014217496090363498 -0.0015001913042178704 -0.008971412092737753 0.0057178202041568505 0.029433577139341832 0.9928822183789681 -0.06897886873831466
 -0.0014989219778656713 -0.008971492271586109 0.0017693428517582864 0.014212380194295222 0.9928822183789681 -0.06897886873831466 0.005711217668650167 0.029434192877711454
0.1375573155481 0.005975726348878912 0.03077787971590668 0.9925194740611918 -0.0721896311198774 0.0018571631321401233 0.014877419016029422 -0.0016052110210413926 -0.009383588396044628
 0.9925194740611918 -0.0721896311198774 0.005966763567782655 0.03077866826178712 -0.0016066029762936047 -0.009383495690950223 0.001899663243815699 0.014871743325982437
 0.0018571631321401233 0.014877419016029422 -0.0016066029762936047 -0.009383495690950223 0.0059749513596456675 0.030779783661269523 0.9925195553487666 -0.07218780504637576
 -0.0016052110210413926 -0.009383588396044628 0.001899663243815699 0.014871743325982437 0.9925195553487666 -0.07218780504637576 0.005967703948926341 0.030780441339516375
0.1438099208003 0.006241708953012343 0.03211801342952995 0.9921445299782854 -0.07539166793548346 0.0019888706977159035 0.015535462123466976 -0.0017157726535698792 -0.00979394493503714
 0.9921445299782854 -0.07539166793548346 0.006231912485329769 0.03211886046589775 -0.0017172928252058458 -0.009793838552729653 0.002035257783400187 0.01552918603720488
 0.0019888706977159035 0.015535462123466976 -0.0017172928252058458 -0.009793838552729653 0.006240862119447297 0.032120008780727835 0.9921446184397156 -0.07538975955649055
 -0.0017157726535698792 -0.00979394493503714 0.002035257783400187 0.01552918603720488 0.9921446184397156 -0.07538975955649055 0.006232939596167957 0.032120710262140355
0.1500625260525 0.006516394762164777 0.03345208678685477 0.9917573941261051 -0.07858667811707233 0.0021256505433475746 0.01619158415833603 -0.0018305706602001505 -0.010202520908714234
 0.9917573941261051 -0.07858667811707233 0.006505727404168524 0.03345299539015092 -0.0018322246280844277 -0.010202399652504674 0.002176088910902487 0.01618466560544073
 0.0021256505433475746 0.01619158415833603 -0.0018322246280844277 -0.010202399652504674 0.006515472948720333 0.033454174183234056 0.991757490054737 -0.0785846875060732
 -0.0018305706602001505 -0.010202520908714234 0.002176088910902487 0.01618466560544073 0.991757490054737 -0.0785846875060732 0.006506845039752841 0.03345492143201752
0.15631513130469998 0.006799703829187359 0.03478002401581213 0.9913581491521202 -0.08177461641703693 0.0022674655233658947 0.016845744419789872 -0.0019495684716617362 -0.010609276111803694
