! Created with skrf 1.8.0 (http://scikit-rf.org).
# GHz S RI R 50.0 
!freq ReS11 ImS11 ReS12 ImS12 ReS13 ImS13
! ReS14 ImS14
! ReS21 ImS21 ReS22 ImS22 ReS23 ImS23
! ReS24 ImS24
! ReS31 ImS31 ReS32 ImS32 ReS33 ImS33
! ReS34 ImS34
! ReS41 ImS41 ReS42 ImS42 ReS43 ImS43
! ReS44 ImS44
!
0.0 0.001382353227338 0.0 0.9986176467272 0.0 5.29119583075e-05 0.0 -5.291195781854e-05 6.479845977909478e-21
 0.9986176467272 0.0 0.001382353227348 0.0 -5.291195781897e-05 6.479845977962138e-21 5.2911958307e-05 0.0
 5.29119583075e-05 0.0 -5.291195781897e-05 6.479845977962138e-21 0.001382353250101 0.0 0.9986176467499 0.0
 -5.291195781854e-05 6.479845977909478e-21 5.2911958307e-05 0.0 0.9986176467499 0.0 0.001382353250081 0.0
0.005 0.0014868564373092588 0.001133803095713397 0.9984855330426861 -0.0028959908756072475 7.341222478422657e-05 0.0005675667050664106 -7.151157510386155e-05 -0.0003590070341566265
 0.9984855330426861 -0.0028959908756072475 0.001486838944783217 0.0011338132511541775 -7.151012606209887e-05 -0.0003590058872388105 7.352042900365408e-05 0.000567525473452733
 7.341222478422657e-05 0.0005675667050664106 -7.151012606209887e-05 -0.0003590058872388105 0.001486857020313553 0.0011337354648942681 0.998485532701497 -0.0028960579309493134
 -7.151157510386155e-05 -0.0003590070341566265 7.352042900365408e-05 0.000567525473452733 0.998485532701497 -0.0028960579309493134 0.0014868376818353668 0.001133746772736163
0.006252605252188 0.001514142195735917 0.0014217193024171867 0.99845084697755 -0.0036207153450904294 7.917485609872361e-05 0.000709749901001939 -7.670223346414504e-05 -0.0004492265288799686
 0.99845084697755 -0.0036207153450904294 0.0015141148525373092 0.001421732232570363 -7.669997888185152e-05 -0.00044922511373712956 7.934391586176525e-05 0.0007096963990517416
 7.917485609872361e-05 0.000709749901001939 -7.669997888185152e-05 -0.00044922511373712956 0.0015141431804508913 0.001421634753933757 0.9984508465170666 -0.0036207991704976603
 -7.670223346414504e-05 -0.0004492265288799686 7.934391586176525e-05 0.0007096963990517416 0.9984508465170666 -0.0036207991704976603 0.0015141129509404238 0.0014216491336944046
0.01250521050438 0.001657068061898801 0.002873308893560402 0.9982680881088855 -0.007242341898895977 0.00011172632943421757 0.0014199651451015506 -0.0001058274191420867 -0.0009006941212957189
 0.9982680881088855 -0.007242341898895977 0.0016569588908937664 0.0028733371304989768 -0.00010581853683491479 -0.000900691492101636 0.00011240050943244512 0.0014198371030972035
 0.00011172632943421757 0.0014199651451015506 -0.00010581853683491479 -0.000900691492101636 0.0016570725490400206 0.0028731400115305336 0.9982680868183234 -0.007242509295404166
 -0.0001058274191420867 -0.0009006941212957189 0.00011240050943244512 0.0014198371030972035 0.9982680868183234 -0.007242509295404166 0.0016569518410486205 0.0028731712540705384
0.01875781575657 0.001811416785038727 0.004345697307955815 0.9980691614122471 -0.010873717920217563 0.00015063949854059075 0.0021311219294262965 -0.00014037125840668657 -0.0013537900831198614
 0.9980691614122471 -0.010873717920217563 0.00181117149307763 0.004345743385800354 -0.00014035145409178258 -0.0013537864752310076 0.00015215399462381582 0.0021308945032027684
 0.00015063949854059075 0.0021311219294262965 -0.00014035145409178258 -0.0013537864752310076 0.0018114273072347233 0.004345444132731159 0.998069158937881 -0.010873968797847836
 -0.00014037125840668657 -0.0013537900831198614 0.00015215399462381582 0.0021308945032027684 0.998069158937881 -0.010873968797847836 0.001811156067946213 0.004345494927201098
0.02501042100875 0.001977467298329032 0.005836857102243624 0.9978538506319756 -0.014516629962697921 0.0001959878286078679 0.0028432644139721307 -0.0001804152999831302 -0.0018083295683465979
 0.9978538506319756 -0.014516629962697921 0.0019770317154369703 0.005836923695579414 -0.00018038033149162582 -0.0018083252558333729 0.00019867799426145823 0.0028429091061395865
 0.0001959878286078679 0.0028432644139721307 -0.00018038033149162582 -0.0018083252558333729 0.0019774863831566853 0.0058365196291499145 0.9978538466116917 -0.014516964267529986
 -0.0001804152999831302 -0.0018083295683465979 0.00019867799426145823 0.0028429091061395865 0.9978538466116917 -0.014516964267529986 0.001977004680525373 0.005836592851544603
0.03126302626094 0.002155486907299535 0.007345758584207644 0.9976219275769317 -0.0181718591056961 0.00024784514826173455 0.00355637373829876 -0.00022603911912272124 -0.002264186653525628
 0.9976219275769317 -0.0181718591056961 0.002154806959099723 0.007345848504665793 -0.00022598478737967812 -0.0022641819497406087 0.0002520468171480751 0.0035558583794227474
 0.00024784514826173455 0.00355637373829876 -0.00022598478737967812 -0.0022641819497406087 0.002155517087935761 0.007345336778909386 0.9976219216497629 -0.018172276804659444
 -0.00022603911912272124 -0.002264186653525628 0.0002520468171480751 0.0035558583794227474 0.9976219216497629 -0.018172276804659444 0.0021547650808769326 0.007345435488635098
0.037515631513130004 0.0023457373143032766 0.00887174072268149 0.9973731582978874 -0.021839809987476574 0.00030628508265107907 0.004270406333347227 -0.00027732086888250057 -0.002721256028596221
 0.9973731582978874 -0.021839809987476574 0.0023447590040067807 0.008871856917037506 -0.0002772430132417378 -0.002721251286320502 0.00031233471826667 0.004269695045529744
 0.00030628508265107907 0.004270406333347227 -0.0002772430132417378 -0.002721251286320502 0.0023457811299384492 0.00887123452886838 0.9973731501035653 -0.02184031106051161
 -0.00027732086888250057 -0.002721256028596221 0.00031233471826667 0.004269695045529744 0.9973731501035653 -0.02184031106051161 0.0023446990494001576 0.008871361967470423
0.043768236765320004 0.0025484769612866007 0.01041431970457588 0.9971073055799715 -0.025520702184447946 0.00037138078054894095 0.0049853055860561634 -0.0003343374878850335 -0.003179441327102834
 0.9971073055799715 -0.025520702184447946 0.002547146355854922 0.010414465253518496 -0.0003342319833189114 -0.0031794369386102155 0.0003796155523288126 0.0049843587410559114
 0.00037138078054894095 0.0049853055860561634 -0.0003342319833189114 -0.0031794369386102155 0.0025485369554232276 0.010413729049992992 0.9971072947567192 -0.025521286618389597
 -0.0003343374878850335 -0.003179441327102834 0.0003796155523288126 0.0049843587410559114 0.9971072947567192 -0.025521286618389597 0.0025470650902537687 0.010413888640425526
0.050020842017509996 0.002763962116008568 0.01197310981789151 0.9968241301802142 -0.0292146492625498 0.00044320475288833316 0.005701006645058924 -0.00039716477843305785 -0.003638650314333007
 0.9968241301802142 -0.0292146492625498 0.0027622253346436107 0.011973287935060183 -0.0003970275337413827 -0.00363864671138194 0.0004539625732281173 0.005699780820110183
 0.00044320475288833316 0.005701006645058924 -0.0003970275337413827 -0.00363864671138194 0.0027640408378865914 0.011972434609084736 0.9968241163656487 -0.029215317056157698
 -0.00039716477843305785 -0.003638650314333007 0.0004539625732281173 0.005699780820110183 0.9968241163656487 -0.029215317056157698 0.002762119522785434 0.011972629955500937
0.055454545454549996 0.002961773973912957 0.013340656488359231 0.99656378724226 -0.03243544060069156 0.0005111418928831145 0.006323568905674266 -0.0004565406096740286 -0.004038477919270631
 0.99656378724226 -0.03243544060069156 0.0029596404880413273 0.013340865621047358 -0.0004563724845762586 -0.004038475380290718 0.0005243673326338631 0.0063220623930418905
 0.0005111418928831145 0.006323568905674266 -0.0004563724845762586 -0.004038475380290718 0.0029618710454947547 0.013339907712759466 0.9965637705333575 -0.03243618083875304
 -0.0004565406096740286 -0.004038477919270631 0.0005243673326338631 0.0063220623930418905 0.9965637705333575 -0.03243618083875304 0.002959510717220358 0.013340137199975783
0.056273447269699996 0.002992447440151753 0.013547784615340473 0.9965233915490217 -0.03292169754807223 0.0005218287560718126 0.006417438780749884 -0.0004658774307646724 -0.004098792521906679
 0.9965233915490217 -0.03292169754807223 0.0029902506435739635 0.013547998646822764 -0.0004657043872645792 -0.004098790175746649 0.0005354482940822112 0.006415886713302742
 0.0005218287560718126 0.006417438780749884 -0.0004657043872645792 -0.004098790175746649 0.00299254744475894 0.013547024743851582 0.9965233743800499 -0.03292244870568948
 -0.0004658774307646724 -0.004098792521906679 0.0005354482940822112 0.006415886713302742 0.9965233743800499 -0.03292244870568948 0.002990117050092323 0.013547259631643806
0.06252605252188 0.003234186303461812 0.015138055563562245 0.996204848299906 -0.03664184741410321 0.000607323700633777 0.007134526677355073 -0.0005405490167122448 -0.004559777952049244
 0.996204848299906 -0.03664184741410321 0.003231475684134937 0.015138308987442515 -0.0005403361473966854 -0.00455977737338664 0.000624144380249088 0.007132597219311887
 0.000607323700633777 0.007134526677355073 -0.0005403361473966854 -0.00455977737338664 0.0032343101510811404 0.015137210902439137 0.9962048274116936 -0.0366426819488931
 -0.0005405490167122448 -0.004559777952049244 0.000624144380249088 0.007132597219311887 0.9962048274116936 -0.0366426819488931 0.0032313110728358794 0.015137489298679677
0.06877865777407 0.003489430955320967 0.01674365930901224 0.9958682585398579 -0.04037506595219347 0.0006997595708675709 0.007852191208639992 -0.0006212519686022772 -0.005021516300259696
 0.9958682585398579 -0.04037506595219347 0.003486152728094183 0.01674395573540671 -0.0006209952774711711 -0.005021518039241609 0.0007201215583751717 0.00784982928039652
 0.0006997595708675709 0.007852191208639992 -0.0006209952774711711 -0.005021518039241609 0.0034895812120919844 0.016742729716787724 0.9958682335663438 -0.04037598388198564
 -0.0006212519686022772 -0.005021516300259696 0.0007201215583751717 0.00784982928039652 0.9958682335663438 -0.04037598388198564 0.0034859538630049912 0.016743055770743587
0.07503126302626001 0.0037584326176460835 0.018364349610530156 0.9955133801232267 -0.04412129497951817 0.0007992053535901536 0.008570349920267442 -0.0007080575465191534 -0.005483916473693601
 0.9955133801232267 -0.04412129497951817 0.0037545330104738154 0.01836469278163134 -0.0007077530681483369 -0.005483921119874858 0.0008234495367962774 0.008567496464767524
 0.0007992053535901536 0.008570349920267442 -0.0007077530681483369 -0.005483921119874858 0.003758611855250081 0.018363334928658912 0.9955133506966286 -0.044122296329167136
 -0.0007080575465191534 -0.005483916473693601 0.0008234495367962774 0.008567496464767524 0.9955133506966286 -0.044122296329167136 0.003754296655682295 0.0183637129727009
0.08128386827845 0.004041441523925438 0.01999989196461406 0.9951399708547579 -0.04788045635591791 0.0009057289696874749 0.009288917362700315 -0.0008010358002697942 -0.005946886261472815
 0.9951399708547579 -0.04788045635591791 0.004036866768996582 0.020000285755191576 -0.0008006795994681791 -0.005946894443777961 0.0009341969312681582 0.009285509299646253
 0.0009057289696874749 0.009288917362700315 -0.0008006795994681791 -0.005946894443777961 0.004041652319677955 0.01999879201707579 0.9951399366051458 -0.04788154115739282
 -0.0008010358002697942 -0.005946886261472815 0.0009341969312681582 0.009285509299646253 0.9951399366051458 -0.04788154115739282 0.004036589689157321 0.01999922656781607
0.08753647353064001 0.004338706925819681 0.02165005988586603 0.9947477886626387 -0.05165245564857489 0.0010193972100845836 0.010007805312225119 -0.0009002555254904579 -0.006410332119556266
 0.9947477886626387 -0.05165245564857489 0.0043334032503647675 0.021650508303915513 -0.0008998436970802065 -0.006410344506251084 0.0010524311954729338 0.010003775492540277
 0.0010193972100845836 0.010007805312225119 -0.0008998436970802065 -0.006410344506251084 0.00433895186277319 0.021648874480545175 0.9947477492182903 -0.05165362393944612
 -0.0009002555254904579 -0.006410332119556266 0.0010524311954729338 0.010003775492540277 0.9947477492182903 -0.05165362393944612 0.0043330822112854555 0.021649370240170655
0.09378907878283 0.004650477075640644 0.02331463225581736 0.994336591750631 -0.055437184731350876 0.0011402756721531483 0.010726922938929592 -0.00100578421724174 -0.0068741590114280784
 0.994336591750631 -0.055437184731350876 0.00464439069340456 0.02331513944344235 -0.0010053128859457338 -0.006874176310062636 0.0011782185537277372 0.010722200099560429
 0.0011402756721531483 0.010726922938929592 -0.0010053128859457338 -0.006874176310062636 0.004650758742392762 0.02331336118490802 0.994336546737378 -0.055438436553993733
 -0.00100578421724174 -0.0068741590114280784 0.0011782185537277372 0.010722200099560429 0.994336546737378 -0.055438436553993733 0.004644022461971415 0.023313923042877268
0.100041684035 0.004976999192233036 0.024993391368621446 0.9939061387354178 -0.05923452369020118 0.0012684286984289818 0.011446176926728103 -0.001117688020358562 -0.007338270299578391
 0.9939061387354178 -0.05923452369020118 0.004970076293927879 0.02499396160336933 -0.0011171533406444335 -0.007338293256964528 0.0013116239357936548 0.011440685645856392
 0.0012684286984289818 0.011446176926728103 -0.0011171533406444335 -0.007338293256964528 0.004977320182550976 0.024992034408139425 0.9939060877761368 -0.05923585909216276
 -0.001117688020358562 -0.007338270299578391 0.0013116239357936548 0.011440685645856392 0.9939060877761368 -0.05923585909216276 0.004969657638933537 0.024992667443053347
0.1059090909091 0.005297041590865777 0.026581439215677224 0.9934844764748805 -0.0628092761625865 0.001395359017759844 0.012121159303322554 -0.0012285536558935507 -0.00777396061489428
 0.9934844764748805 -0.0628092761625865 0.005289284744264078 0.02658207262567326 -0.0012279560595006554 -0.007773989596544656 0.001443795892336581 0.01211487458272685
 0.001395359017759844 0.012121159303322554 -0.0012279560595006554 -0.007773989596544656 0.005297401846477988 0.026580001435951035 0.9934844195908815 -0.06281069004531756
 -0.0012285536558935507 -0.00777396061489428 0.001443795892336581 0.01211487458272685 0.9934844195908815 -0.06281069004531756 0.00528881583537375 0.02658070605224569
0.1062942892872 0.0053185194137159155 0.02668612147032999 0.9934561887743075 -0.06304434223864862 0.001403919315077923 0.012165471568487091 -0.001236031678313927 -0.007802567664949617
 0.9934561887743075 -0.06304434223864862 0.00531070615881778 0.026686759166533628 -0.0012354298344641984 -0.00780259706708705 0.0014527109125144217 0.012159132221161176
 0.001403919315077923 0.012165471568487091 -0.0012354298344641984 -0.00780259706708705 0.0053188823274161945 0.02668467837652625 0.9934561314896238 -0.0630457612759025
 -0.001236031678313927 -0.007802567664949617 0.0014527109125144217 0.012159132221161176 0.9934561314896238 -0.0630457612759025 0.0053102338514371804 0.026685387858348914
0.11254689453939999 0.005675282742370477 0.02839260762984843 0.9929865016867057 -0.06686650080471503 0.0015468091714634204 0.01288470884137956 -0.001360878480220158 -0.008266951049069956
 0.9929865016867057 -0.06686650080471503 0.005666525249462193 0.028393317340545333 -0.0013602056862878362 -0.00826698772111099 0.001601541632496673 0.012877437555738554
 0.0015468091714634204 0.01288470884137956 -0.0013602056862878362 -0.00826698772111099 0.005675690184291701 0.028391078143675294 0.9929864376939654 -0.0668680035369796
 -0.001360878480220158 -0.008266951049069956 0.001601541632496673 0.012877437555738554 0.9929864376939654 -0.0668680035369796 0.005665996063320411 0.028391869536221647
0.11879949979160001 0.006047532979903904 0.03011263486686919 0.9924968380692604 -0.07070085136480606 0.001697158479534863 0.01360378846907558 -0.001492290206692956 -0.008731318612619745
 0.9924968380692604 -0.07070085136480606 0.006037777317989374 0.030113421285807258 -0.0014915427065627634 -0.008731363418803675 0.0017581767591993216 0.013595497083097409
 0.001697158479534863 0.01360378846907558 -0.0014915427065627634 -0.008731363418803675 0.0060479875605669 0.03011101871107975 0.9924967669826835 -0.07070243785804763
 -0.001492290206692956 -0.008731318612619745 0.0017581767591993216 0.013595497083097409 0.9924967669826835 -0.07070243785804763 0.006037188030265258 0.03011189767474788
0.1250521050438 0.006435512658645415 0.031845987459975106 0.9919869594086466 -0.07454723810067684 0.0018550259536895895 0.014322607974453653 -0.0016303270744779227 -0.009195566706649649
 0.9919869594086466 -0.07454723810067684 0.006424704838038344 0.03184685542401417 -0.0016295011419875606 -0.009195620550236129 0.0019226754084576364 0.014313203993273136
 0.0018550259536895895 0.014322607974453653 -0.0016295011419875606 -0.009195620550236129 0.006436016993863248 0.03184428433961911 0.9919868808392666 -0.07454890842646665
 -0.0016303270744779227 -0.009195566706649649 0.0019226754084576364 0.014313203993273136 0.9919868808392666 -0.07454890842646665 0.006424052229472579 0.03184525673453228
0.131304710296 0.006839462967016494 0.03359244838754479 0.9914566281914514 -0.07840549792792648 0.0020204687505572024 0.015041062724987916 -0.001775047680429193 -0.009659589854345061
 0.9914566281914514 -0.07840549792792648 0.006827548929870955 0.033593402879426144 -0.0017741396193669506 -0.009659653677568728 0.0020950950861067397 0.015030449278955497
 0.0020204687505572024 0.015041062724987916 -0.0017741396193669506 -0.009659653677568728 0.00684001967755796 0.03359065799038011 0.9914565417462776 -0.07840725216264825
 -0.001775047680429193 -0.009659589854345061 0.0020950950861067397 0.015030449278955497 0.9914565417462776 -0.07840725216264825 0.006826829785558639 0.033591729879722663
0.1375573155481 0.00716314376000518 0.03512449092040041 0.9910021214449951 -0.08204805725244543 0.002171119894717491 0.01573602190005555 -0.0019040037950165895 -0.010100328465942533
 0.9910021214449951 -0.08204805725244543 0.007150064409733169 0.035125514311741074 -0.0019030080569185002 -0.01010040226739036 0.0022528981390873394 0.015724220239415682
 0.002171119894717491 0.01573602190005555 -0.0019030080569185002 -0.01010040226739036 0.00716375474450857 0.0351226130548998 0.991002026767453 -0.08204989541512703
 -0.0019040037950165895 -0.010100328465942533 0.0022528981390873394 0.015724220239415682 0.991002026767453 -0.08204989541512703 0.00714927617071071 0.03512376754542737
0.1438099208003 0.007498094336349216 0.036649155383993555 0.9905318765849043 -0.08568207173262615 0.0023278393499401493 0.016428590749615956 -0.002038124617730703 -0.010538827392104063
 0.9905318765849043 -0.08568207173262615 0.007483794727346258 0.03665025117071498 -0.002037037215917014 -0.010538912092967288 0.0024170848165637276 0.016415512834018105
 0.0023278393499401493 0.016428590749615956 -0.002037037215917014 -0.010538912092967288 0.007498762092049978 0.03664718974225959 0.9905317732848054 -0.0856839938949242
 -0.002038124617730703 -0.010538827392104063 0.0024170848165637276 0.016415512834018105 0.9905317732848054 -0.0856839938949242 0.007482934302790731 0.03664843140532375
0.1500625260525 0.007844206213667408 0.038166334568562284 0.9900460056183786 -0.08930747162065215 0.002490577594733818 0.017118712920442994 -0.002177361086440312 -0.010975031163947617
 0.9900460056183786 -0.08930747162065215 0.007828631299097626 0.038167506446321234 -0.002176178040659296 -0.010975127722408305 0.00258760394555346 0.017104267506689086
 0.002490577594733818 0.017118712920442994 -0.002176178040659296 -0.010975127722408305 0.007844933234046012 0.038164280831890524 0.9900458933026209 -0.08930947785551496
 -0.002177361086440312 -0.010975031163947617 0.00258760394555346 0.017104267506689086 0.9900458933026209 -0.08930947785551496 0.007827695609733176 0.038165614480846745
0.15631513130469998 0.008201370251158375 0.03967592459332165 0.9895446210006251 -0.09292418701605121 0.0026592845848305846 0.017806332934752582 -0.0023216635914930822 -0.011408885413971063
 0.9895446210006251 -0.09292418701605121 0.008184464879504388 0.03967717646173952 -0.0023203809280364553 -0.011408994825054761 0.002764403807563816 0.017790425607511484
