! Created with skrf 1.8.0 (http://scikit-rf.org).
# GHz S RI R 50.0 
!freq ReS11 ImS11 ReS12 ImS12 ReS13 ImS13
! ReS14 ImS14
! ReS21 ImS21 ReS22 ImS22 ReS23 ImS23
! ReS24 ImS24
! ReS31 ImS31 ReS32 ImS32 ReS33 ImS33
! ReS34 ImS34
! ReS41 ImS41 ReS42 ImS42 ReS43 ImS43
! ReS44 ImS44
!
0.0 0.001657785214623 0.0 0.9983422147775 0.0 6.400676952895e-05 0.0 -6.400676952355e-05 7.838568542077786e-21
 0.9983422147775 0.0 0.001657785214694 0.0 -6.400676952458e-05 7.838568542203926e-21 6.400676953028e-05 0.0
 6.400676952895e-05 0.0 -6.400676952458e-05 7.838568542203926e-21 0.001657785203192 0.0 0.9983422147661 0.0
 -6.400676952355e-05 7.838568542077786e-21 6.400676953028e-05 0.0 0.9983422147661 0.0 0.00165778520321 0.0
0.005 0.001783962933960775 0.0013583322525754047 0.9981825360457965 -0.003472059181821097 8.951167745094733e-05 0.0006907742244139046 -8.698853936378833e-05 -0.0004360517616529794
 0.9981825360457965 -0.003472059181821097 0.0017839752381881243 0.00135832505200981 -8.698683414057138e-05 -0.00043605041127501535 8.943661688248244e-05 0.0006908027357890453
 8.951167745094733e-05 0.0006907742244139046 -8.698683414057138e-05 -0.00043605041127501535 0.001783963660783273 0.0013582645154379036 0.9981825356763421 -0.0034721262393011846
 -8.698853936378833e-05 -0.0004360517616529794 8.943661688248244e-05 0.0006908027357890453 0.9981825356763421 -0.0034721262393011846 0.0017839737804549538 0.001358258681734164
0.006252605252188 0.0018171587262365287 0.0017032326767296832 0.9981402465870249 -0.00434090526664241 9.685203390361009e-05 0.0008638025190732697 -9.35197926105218e-05 -0.0005456188686536971
 0.9981402465870249 -0.00434090526664241 0.0018171779603104333 0.0017032235600842403 -9.351713947353257e-05 -0.0005456172030441307 9.673475842549177e-05 0.0008638395655023684
 9.685203390361009e-05 0.0008638025190732697 -9.351713947353257e-05 -0.0005456172030441307 0.0018171599448531849 0.0017031479947711998 0.9981402460912427 -0.004340989096961463
 -9.35197926105218e-05 -0.0005456188686536971 9.673475842549177e-05 0.0008638395655023684 0.9981402460912427 -0.004340989096961463 0.0018171757631546407 0.0017031405981734367
0.01250521050438 0.0019925093293033324 0.003441897016383286 0.9979153176222215 -0.008682481102083528 0.0001392309781915958 0.0017279598797512955 -0.00013080583430737905 -0.001093800522670832
 0.9979153176222215 -0.008682481102083528 0.0019925861364591987 0.003441877605915439 -0.0001307953826172478 -0.0010937974376136767 0.00013876329381837436 0.0017280492179499597
 0.0001392309781915958 0.0017279598797512955 -0.0001307953826172478 -0.0010937974376136767 0.0019925147436654334 0.0034417278916737586 0.9979153161805059 -0.008682648515704135
 -0.00013080583430737905 -0.001093800522670832 0.00013876329381837436 0.0017280492179499597 0.9979153161805059 -0.008682648515704135 0.0019925778973292336 0.0034417120591082625
0.01875781575657 0.002184241975228582 0.005205059822334544 0.9976671325538818 -0.013035265918754854 0.00019124520471616057 0.002593015825722349 -0.00017598358175781353 -0.0016437598257354657
 0.9976671325538818 -0.013035265918754854 0.0021844145740634664 0.005205028824469396 -0.00017596027998768702 -0.0016437556169511644 0.00019019456544435573 0.00259317583626902
 0.00019124520471616057 0.002593015825722349 -0.00017596027998768702 -0.0016437556169511644 0.002184254581172144 0.005204806336055412 0.9976671297313324 -0.013035516854029842
 -0.00017598358175781353 -0.0016437598257354657 0.00019019456544435573 0.00259317583626902 0.9976671297313324 -0.013035516854029842 0.0021843964726535143 0.005204780979592516
0.02501042100875 0.002392748343209568 0.006990231763422069 0.9973953838070482 -0.017401341167627496 0.00025299765906172965 0.003458983330633834 -0.0002291675340537512 -0.0021952354311302285
 0.9973953838070482 -0.017401341167627496 0.002393054882706011 0.006990187782694312 -0.00022912639323787362 -0.002195230449035558 0.0002511314186261364 0.003459235433935684
 0.00025299765906172965 0.003458983330633834 -0.00022912639323787362 -0.002195230449035558 0.0023927711387428325 0.006989893974559028 0.9973953791615613 -0.017401675613905706
 -0.0002291675340537512 -0.0021952354311302285 0.0002511314186261364 0.003459235433935684 0.9973953791615613 -0.017401675613905706 0.0023930230978444133 0.006989857969726438
0.03126302626094 0.002618403911773543 0.008796117857954472 0.9970997489365259 -0.02178158083475958 0.0003245914682297751 0.004325797061838057 -0.00029046870783044665 -0.0027480372952858687
 0.9970997489365259 -0.02178158083475958 0.002618882493735945 0.008796059399735648 -0.0002904047910886518 -0.0027480319455666677 0.0003216766715317654 0.004326165737453334
 0.0003245914682297751 0.004325797061838057 -0.0002904047910886518 -0.0027480319455666677 0.002618439906770845 0.008795695810198997 0.9970997420255859 -0.021781998825529735
 -0.00029046870783044665 -0.0027480372952858687 0.0003216766715317654 0.004326165737453334 0.9970997420255859 -0.021781998825529735 0.0026188332103242694 0.00879564799911606
0.037515631513130004 0.0028615757964597856 0.010621863167528589 0.9967798987580728 -0.026176405685795094 0.0004061289114461436 0.005193360400164488 -0.0003599954009691348 -0.0033019996696555683
 0.9967798987580728 -0.026176405685795094 0.0028622644903708223 0.010621788639253452 -0.00035990381812411035 -0.003301994413395045 0.0004019322041707336 0.0051938732179199415
 0.0004061289114461436 0.005193360400164488 -0.00035990381812411035 -0.003301994413395045 0.0028616280091282747 0.010621356921786139 0.9967798891329857 -0.02617690726605276
 -0.0003599954009691348 -0.0033019996696555683 0.0004019322041707336 0.0051938732179199415 0.9967798891329857 -0.02617690726605276 0.0028621938949041346 0.010621296115155231
0.043768236765320004 0.0031226257574570784 0.012466823286819874 0.9964355006531354 -0.030586012703913614 0.0004977109303529945 0.006061559736124113 -0.0004378534503524535 -0.0038569668191233094
 0.9964355006531354 -0.030586012703913614 0.003123562612818421 0.012466730998563514 -0.0004377293548089998 -0.0038569621728171237 0.0004919985194116906 0.006062247390953689
 0.0004977109303529945 0.006061559736124113 -0.0004377293548089998 -0.0038569621728171237 0.0031226972182895646 0.012466232895982676 0.996435487861362 -0.03058659795516518
 -0.0004378534503524535 -0.0038569668191233094 0.0004919985194116906 0.006062247390953689 0.996435487861362 -0.03058659795516518 0.003123466896598054 0.012466157874498932
0.050020842017509996 0.0034019115954378575 0.01433046945990847 0.9960662202667923 -0.035010469899849246 0.0005994368249338732 0.006930270384570616 -0.0005241463143258457 -0.004412787125958645
 0.9960662202667923 -0.035010469899849246 0.0034031346527148565 0.014330357624266219 -0.0005239849010684723 -0.004412783661459891 0.0005919744657735097 0.006931166732766149
 0.0005994368249338732 0.006930270384570616 -0.0005239849010684723 -0.004412783661459891 0.003402005347599407 0.014329794985667818 0.9960662038499283 -0.035011138923026486
 -0.0005241463143258457 -0.004412787125958645 0.0005919744657735097 0.006931166732766149 0.9960662038499283 -0.035011138923026486 0.0034030100118186165 0.014329704501092342
0.055454545454549996 0.003659704644670529 0.015964851608563417 0.9957248367277797 -0.03886750773167779 0.0006961535018355714 0.00768551849889469 -0.0006060660949234642 -0.00489638788960223
 0.9957248367277797 -0.03886750773167779 0.0036612073139583763 0.01596472125823451 -0.000605868380451455 -0.004896385959507237 0.0006869798014325913 0.007686626186398031
 0.0006961535018355714 0.00768551849889469 -0.000605868380451455 -0.004896385959507237 0.0036598202504491465 0.01596410411897282 0.9957248167834121 -0.038868249653228784
 -0.0006060660949234642 -0.00489638788960223 0.0006869798014325913 0.007686626186398031 0.9957248167834121 -0.038868249653228784 0.00366105445177346 0.015963999160870275
0.056273447269699996 0.0036997878524306542 0.016212342036251003 0.9956717225139707 -0.03944976278465874 0.0007114040325166929 0.007799359490142553 -0.000618975075368636 -0.004969310207787018
 0.9956717225139707 -0.03944976278465874 0.0037013351529559856 0.016212208768156128 -0.0006187715796193314 -0.004969308552261593 0.0007019570328510767 0.007800501586219451
 0.0007114040325166929 0.007799359490142553 -0.0006187715796193314 -0.004969308552261593 0.003699906952482809 0.016211583545619593 0.9956717020072186 -0.03945051570322548
 -0.000618975075368636 -0.004969310207787018 0.0007019570328510767 0.007800501586219451 0.9956717020072186 -0.03945051570322548 0.00370117778907596 0.016211476321509714
0.06252605252188 0.00401660617967631 0.018112024870202796 0.9952516722589984 -0.04390381990343034 0.0008337079489832226 0.008668687630442321 -0.0007224384014448031 -0.005526385343376763
 0.9952516722589984 -0.04390381990343034 0.004018515775049794 0.01811186818628269 -0.000722188097767388 -0.005526386179224246 0.0008220411832880792 0.008670115764151456
 0.0008337079489832226 0.008668687630442321 -0.000722188097767388 -0.005526386179224246 0.004016753698628871 0.01811118243273344 0.9952516471903047 -0.04390465686576831
 -0.0007224384014448031 -0.005526385343376763 0.0008220411832880792 0.008670115764151456 0.9952516471903047 -0.04390465686576831 0.0040183218966360285 0.018111057164861694
0.06877865777407 0.0043527155172833724 0.020029130065245686 0.9948057348110325 -0.048372528029860244 0.0009664417728030809 0.009538109781206216 -0.00083463248411822 -0.006083860542312826
 0.9948057348110325 -0.048372528029860244 0.004355025478936801 0.020028947882797403 -0.0008343306858200871 -0.006083864607091426 0.0009523197046862075 0.009539867514452943
 0.0009664417728030809 0.009538109781206216 -0.0008343306858200871 -0.006083864607091426 0.004352894541869831 0.020028203757018342 0.994805704700703 -0.048373449204925985
 -0.00083463248411822 -0.006083860542312826 0.0009523197046862075 0.009539867514452943 0.994805704700703 -0.048373449204925985 0.004354791302703283 0.020028059113391804
0.07503126302626001 0.004708462166931669 0.021963288305656276 0.9943335763171103 -0.05285574177979536 0.0011096963625134382 0.010407475935015656 -0.0009556509625725242 -0.006641581967408106
 0.9943335763171103 -0.05285574177979536 0.004711210595276942 0.02196307844134863 -0.0009552930213332046 -0.006641590053746658 0.0010928830727989208 0.010409610138538644
 0.0011096963625134382 0.010407475935015656 -0.0009552930213332046 -0.006641590053746658 0.0047086757993417315 0.021962278205061105 0.9943335406760964 -0.0528567473607592
 -0.0009556509625725242 -0.006641581967408106 0.0010928830727989208 0.010409610138538644 0.9943335406760964 -0.0528567473607592 0.004710932346087242 0.021962112825788308
0.08128386827845 0.005084189793342024 0.023914142422591444 0.9938348640888695 -0.0573532899972025 0.0012635601034644325 0.011276631522116401 -0.0010855848374191964 -0.007199393561502321
 0.9938348640888695 -0.0573532899972025 0.005087414826780332 0.023913902590882788 -0.0010851661430723444 -0.007199406517007964 0.001243819322826642 0.011279192411818299
 0.0012635601034644325 0.011276631522116401 -0.0010851661430723444 -0.007199406517007964 0.005084441152974234 0.023913048613503327 0.9938348224183932 -0.05735438019776667
 -0.0010855848374191964 -0.007199393561502321 0.001243819322826642 0.011279192411818299 0.9938348224183932 -0.05735438019776667 0.005087088739709526 0.023912861110233594
0.08753647353064001 0.005480239381491341 0.02588134295478172 0.9933092668882968 -0.06186498015294855 0.0014281187790524189 0.012145417713353214 -0.001224522379014252 -0.007757136798919844
 0.9933092668882968 -0.06186498015294855 0.0054839792054006 0.025881070765982235 -0.0012240383593988822 -0.0077571555260823955 0.001405213924469208 0.012148458886134953
 0.0014281187790524189 0.012145417713353214 -0.0012240383593988822 -0.0077571555260823955 0.0054805316051607265 0.025880165528417053 0.9933092186788718 -0.06186615520501386
 -0.001224522379014252 -0.007757136798919844 0.001405213924469208 0.012148458886134953 0.9933092186788718 -0.06186615520501386 0.005483601526700944 0.02587995448343008
0.09378907878283 0.005896949160486097 0.027864544978555204 0.9927564551858281 -0.06639060148221038 0.0016034554465395286 0.013013671644478378 -0.001372549030330755 -0.008314650522435445
 0.9927564551858281 -0.06639060148221038 0.005901242016361122 0.02786423793647422 -0.0013719951513313441 -0.008314675978517802 0.0015771496608502705 0.013017250113551286
 0.0016034554465395286 0.013013671644478378 -0.0013719951513313441 -0.008314675978517802 0.005897285403698941 0.027863284026019813 0.9927563999166309 -0.06639186164252642
 -0.001372549030330755 -0.008314650522435445 0.0015771496608502705 0.013017250113551286 0.9927563999166309 -0.06639186164252642 0.005900809004751533 0.0278630479911319
0.100041684035 0.0063346545053508336 0.029863405788470382 0.9921761013986793 -0.07092992727901515 0.0017896503149447366 0.01388122659622174 -0.0015297473070901445 -0.008871770831599821
 0.9921761013986793 -0.07092992727901515 0.0063395386998875035 0.029863061287846635 -0.0015291190726579387 -0.008871804028528303 0.0017597065090884283 0.013885402825888194
 0.0017896503149447366 0.01388122659622174 -0.0015291190726579387 -0.008871804028528303 0.006335037942775765 0.029862061403697036 0.9921760385363874 -0.07093127282568616
 -0.0015297473070901445 -0.008871770831599821 0.0017597065090884283 0.013885402825888194 0.9921760385363874 -0.07093127282568616 0.006339046628014626 0.029861798898581655
0.1059090909091 0.006764785928388291 0.031753061291018195 0.9916061617998758 -0.0752018527175113 0.001974318709882461 0.014694547417917125 -0.001685673554976793 -0.009394062879003025
 0.9916061617998758 -0.0752018527175113 0.006770259937030123 0.03175267917021436 -0.0016849714908104706 -0.009394104308819054 0.0019407452107580503 0.014699342678230561
 0.001974318709882461 0.014694547417917125 -0.0016849714908104706 -0.009394104308819054 0.0067652165576220485 0.03175163870328662 0.991606091315436 -0.07520327866006163
 -0.001685673554976793 -0.009394062879003025 0.0019407452107580503 0.014699342678230561 0.991606091315436 -0.07520327866006163 0.006769709066578098 0.03175134998210701
0.1062942892872 0.006793687821933995 0.03187758315505974 0.991567880116929 -0.07548271662243142 0.001986780625403929 0.014747912136604018 -0.0016961966947281687 -0.009428331016117763
 0.991567880116929 -0.07548271662243142 0.006799201736047814 0.03187719847850935 -0.0016954896470455089 -0.00942837302036375 0.0019529615231047336 0.014752750076298263
 0.001986780625403929 0.014747912136604018 -0.0016954896470455089 -0.00942837302036375 0.006794121648129185 0.031876155436475484 0.9915678091149566 -0.0754841478524367
 -0.0016961966947281687 -0.009428331016117763 0.0019529615231047336 0.014752750076298263 0.9915678091149566 -0.0754841478524367 0.006798646891402133 0.03187586494685098
0.11254689453939999 0.007274378418547702 0.03390673400423546 0.9909314683197536 -0.08004871568945848 0.002194920532232309 0.015613554245010292 -0.0018719735444092775 -0.009984161514808201
 0.9909314683197536 -0.08004871568945848 0.0072805605165182025 0.0339063063188894 -0.0018711832640089653 -0.009984213447254205 0.002156988716792588 0.015619121362713893
 0.002194920532232309 0.015613554245010292 -0.0018711832640089653 -0.009984213447254205 0.007274865848884414 0.03390522305208702 0.9909313886172844 -0.08005023292057876
 -0.0018719735444092775 -0.009984161514808201 0.002156988716792588 0.015619121362713893 0.9909313886172844 -0.08005023292057876 0.007279939203110625 0.03390490302736285
0.11879949979160001 0.007777052367572729 0.035950513391426055 0.990266545584484 -0.08462765878225444 0.002414140985854175 0.0164779754226412 -0.002057150966847145 -0.010539089895772506
 0.990266545584484 -0.08462765878225444 0.007783941206222068 0.03595003974525541 -0.0020562730729201317 -0.010539152931595117 0.0023718589489935033 0.016484342737471833
 0.002414140985854175 0.0164779754226412 -0.0020562730729201317 -0.010539152931595117 0.007777596638887961 0.035948919305919994 0.9902664566055308 -0.08462926235407502
 -0.002057150966847145 -0.010539089895772506 0.0023718589489935033 0.016484342737471833 0.9902664566055308 -0.08462926235407502 0.007783249746064577 0.03594856815656292
0.1250521050438 0.008302032359103663 0.038008573697602514 0.9895727942907161 -0.0892192691425912 0.002644509616395882 0.01734099478883776 -0.0022517987257992594 -0.01109294085834373
 0.9895727942907161 -0.0892192691425912 0.008309666596978118 0.03800805101519793 -0.0022508288763131595 -0.011093016226841754 0.0025976398087669485 0.01734823690293007
 0.002644509616395882 0.01734099478883776 -0.0022508288763131595 -0.011093016226841754 0.008302636730294207 0.038006896578911646 0.9895726954432287 -0.08922095941553987
 -0.0022517987257992594 -0.01109294085834373 0.0025976398087669485 0.01734823690293007 0.9895726954432287 -0.08922095941553987 0.008308901331129092 0.038006512673465
0.131304710296 0.008849637548558153 0.04008056399013311 0.9888498998216109 -0.09382325961082635 0.0028860906182602308 0.01820242817686624 -0.0024559831305511833 -0.011645536243315607
 0.9888498998216109 -0.09382325961082635 0.008858055954931894 0.0400799890682771 -0.002454917022647222 -0.011645625227766488 0.0028343955017409925 0.018210623306329863
 0.0028860906182602308 0.01820242817686624 -0.002454917022647222 -0.011645625227766488 0.008850305301640927 0.04007880393990283 0.988849790496637 -0.09382503696375093
 -0.0024559831305511833 -0.011645536243315607 0.0028343955017409925 0.018210623306329863 0.988849790496637 -0.09382503696375093 0.008857213245479037 0.04007838560144465
0.1375573155481 0.009298271368771604 0.041897089849812816 0.9882195164497565 -0.09817015345280289 0.0031096488740125286 0.019035892676960004 -0.0026405364742751714 -0.012170472562410033
 0.9882195164497565 -0.09817015345280289 0.009307515270896408 0.04189646971994106 -0.0026393675888276144 -0.012170575338090794 0.0030530121778157802 0.019045032604397414
 0.0031096488740125286 0.019035892676960004 -0.0026393675888276144 -0.012170575338090794 0.009299004864544111 0.04189524710884853 0.9882193961571013 -0.09817201810840709
 -0.0026405364742751714 -0.012170472562410033 0.0030530121778157802 0.019045032604397414 0.9882193961571013 -0.09817201810840709 0.00930659219278467 0.041894802378315714
0.1438099208003 0.00976281240267934 0.04370339279126837 0.9875667276523056 -0.10250534394303652 0.0033422153672246773 0.019865496831972147 -0.0028324386918648424 -0.012691890159386866
 0.9875667276523056 -0.10250534394303652 0.009772921097680697 0.04370272473283003 -0.002831162383701565 -0.012692007999450425 0.003280421450806053 0.019875653420874106
 0.0033422153672246773 0.019865496831972147 -0.002831162383701565 -0.012692007999450425 0.009763614791039354 0.043701467502152765 0.9875665957828568 -0.1025072962723867
 -0.0028324386918648424 -0.012691890159386866 0.003280421450806053 0.019875653420874106 0.9875665957828568 -0.1025072962723867 0.00977191416973226 0.043700995176617664
0.1500625260525 0.010243087045547007 0.04549930190078894 0.9868917115590907 -0.10682870266075287 0.003583703036332724 0.020691140375815334 -0.003031605634174439 -0.013209695845163615
 0.9868917115590907 -0.10682870266075287 0.01025409994683393 0.04549858302311965 -0.0030302172690985603 -0.013209830074071524 0.0035165376667183642 0.020702388116364264
 0.003583703036332724 0.020691140375815334 -0.0030302172690985603 -0.013209830074071524 0.010243961488005267 0.045497294209769855 0.9868915674895864 -0.10683074304903761
 -0.003031605634174439 -0.013209695845163615 0.0035165376667183642 0.020702388116364264 0.9868915674895864 -0.10683074304903761 0.010253005715840657 0.04549679297739924
0.15631513130469998 0.010738920341589102 0.04728465136733808 0.9861946473359969 -0.11114010209193552 0.0038340237122260145 0.021512724889934574 -0.003237952049040431 -0.01372379851759847
 0.9861946473359969 -0.11114010209193552 0.010750876982564434 0.04728387860460854 -0.0032364470041470732 -0.013723950510901339 0.003761274086851522 0.02152514087000235
