! Created with skrf 1.8.0 (http://scikit-rf.org).
# GHz S RI R 50.0 
!freq ReS11 ImS11 ReS12 ImS12 ReS13 ImS13
! ReS14 ImS14
! ReS21 ImS21 ReS22 ImS22 ReS23 ImS23
! ReS24 ImS24
! ReS31 ImS31 ReS32 ImS32 ReS33 ImS33
! ReS34 ImS34
! ReS41 ImS41 ReS42 ImS42 ReS43 ImS43
! ReS44 ImS44
!
0.0 0.001741776165038 0.0 0.998258223835 0.0 6.744106127137e-05 0.0 -6.744106118224e-05 8.259147970793102e-21
 0.998258223835 0.0 0.001741776165018 0.0 -6.744106118134e-05 8.259147970682885e-21 6.744106126985e-05 0.0
 6.744106127137e-05 0.0 -6.744106118134e-05 8.259147970682885e-21 0.001741776161547 0.0 0.9982582238315 0.0
 -6.744106118224e-05 8.259147970793102e-21 6.744106126985e-05 0.0 0.9982582238315 0.0 0.00174177616157 0.0
0.005 0.0018746500702989518 0.0014257397919104125 0.9980900420539116 -0.003647748569725709 9.453476220653392e-05 0.0007348303356019041 -9.191855878037593e-05 -0.00046254508475147973
 0.9980900420539116 -0.003647748569725709 0.001874626054777741 0.0014257537902514833 -9.191560436930595e-05 -0.0004625427921946355 9.469967770314167e-05 0.0007347675831222976
 9.453476220653392e-05 0.0007348303356019041 -9.191560436930595e-05 -0.0004625427921946355 0.0018746513473853756 0.0014256717296723877 0.9980900416765213 -0.003647815630014528
 -9.191855878037593e-05 -0.00046254508475147973 9.469967770314167e-05 0.0007347675831222976 0.9980900416765213 -0.003647815630014528 0.0018746240320224245 0.0014256877399214149
0.006252605252188 0.001909694925056058 0.0017877496743164327 0.9980453829200961 -0.004560546338554193 0.00010234542700924319 0.0009188876359866306 -9.891392554561616e-05 -0.000578765880459123
 0.9980453829200961 -0.004560546338554193 0.0019096573844600737 0.0017877674412125765 -9.890932845541407e-05 -0.0005787630540425167 0.00010260309097976481 0.0009188060899037981
 0.00010234542700924319 0.0009188876359866306 -9.890932845541407e-05 -0.0005787630540425167 0.0019096969989120026 0.001787664596315813 0.9980453824071588 -0.004560630162656207
 -9.891392554561616e-05 -0.000578765880459123 0.00010260309097976481 0.0009188060899037981 0.9980453824071588 -0.004560630162656207 0.0019096542991502326 0.001787684888895886
0.01250521050438 0.002095318964299067 0.003612606200341863 0.9978071784878072 -0.009121663487842368 0.00014751013275516133 0.0018380940903817637 -0.00013905754386475216 -0.0011602026796044
 0.9978071784878072 -0.009121663487842368 0.002095169065445834 0.0036126444338532415 -0.00013903943002109898 -0.0011601974614489086 0.00014853762781543038 0.0018378972336031603
 0.00014751013275516133 0.0018380940903817637 -0.00013903943002109898 -0.0011601974614489086 0.0020953278117522125 0.0036124362804634508 0.9978071769958141 -0.00912183089423019
 -0.00013905754386475216 -0.0011602026796044 0.00014853762781543038 0.0018378972336031603 0.9978071769958141 -0.00912183089423019 0.0020951572995072977 0.003612479707783224
0.01875781575657 0.0022990931091934536 0.005463060612967313 0.9975432861694697 -0.013694403674891498 0.00020304803687286145 0.0027581982719194595 -0.00018800312961672104 -0.0017434553333537006
 0.9975432861694697 -0.013694403674891498 0.002298756280975313 0.0054631221881741975 -0.00018796273984410453 -0.0017434482513933559 0.00020535616246422937 0.002757845124232405
 0.00020304803687286145 0.0027581982719194595 -0.00018796273984410453 -0.0017434482513933559 0.0022991134369790413 0.005462805907561777 0.9975432832421218 -0.013694654616946344
 -0.00018800312961672104 -0.0017434553333537006 0.00020535616246422937 0.002757845124232405 0.9975432832421218 -0.013694654616946344 0.0022987302650386327 0.005462875587846919
0.02501042100875 0.002521446677352685 0.007336475867813321 0.9972533677586448 -0.018280932086430075 0.000269072274844105 0.0036792077715660826 -0.0002458768709547229 -0.0023282318199252046
 0.9972533677586448 -0.018280932086430075 0.0025208484936951187 0.007336563807514124 -0.0002458055531017638 -0.0023282235040676543 0.00027317196905025535 0.0036786503482134068
 0.000269072274844105 0.0036792077715660826 -0.0002458055531017638 -0.0023282235040676543 0.0025214831855455175 0.007336136419413244 0.9972533629272785 -0.018281266549057856
 -0.0002458768709547229 -0.0023282318199252046 0.00027317196905025535 0.0036786503482134068 0.9972533629272785 -0.018281266549057856 0.0025208026578492633 0.007336235715139179
0.03126302626094 0.002762791186498848 0.009231469202308894 0.9969370693403354 -0.02288214448044096 0.00034569561424085363 0.004601045710057947 -0.0003128008339822062 -0.002914316493148401
 0.9969370693403354 -0.02288214448044096 0.0027618573207119994 0.009231586670938697 -0.0003126900252173685 -0.0029143076762873014 0.00035209840466445154 0.004600228977815328
 0.00034569561424085363 0.004601045710057947 -0.0003126900252173685 -0.0029143076762873014 0.00276284858760035 0.009231045025792337 0.9969370621391426 -0.022882562494066436
 -0.0003128008339822062 -0.002914316493148401 0.00035209840466445154 0.004600228977815328 0.9969370621391426 -0.022882562494066436 0.00276178610885964 0.00923117753795
0.037515631513130004 0.003023528759903741 0.011147119543785248 0.9965940300633457 -0.027498459717906043 0.0004330294928663528 0.00552360131543252 -0.000388893802416337 -0.0035015195502880194
 0.9965940300633457 -0.027498459717906043 0.0030221849516123504 0.011147269844072268 -0.0003887350202149975 -0.0035015110685206997 0.0004422476865620042 0.005522463122243976
 0.0004330294928663528 0.00552360131543252 -0.0003887350202149975 -0.0035015110685206997 0.0030236117707057816 0.011146610643567935 0.996594020018762 -0.02749896134090566
 -0.000388893802416337 -0.0035015195502880194 0.0004422476865620042 0.005522463122243976 0.996594020018762 -0.02749896134090566 0.003022082812006482 0.011146780209500808
0.043768236765320004 0.003304055348142985 0.013082726349471418 0.9962238857268886 -0.032130060852239226 0.0005311835419523082 0.006446745327926894 -0.00047427155851877584 -0.004089661662345683
 0.9962238857268886 -0.032130060852239226 0.0033022273761976603 0.013082912920533502 -0.0004740563954743122 -0.0040896544550241744 0.0005437303032123562 0.00644521632447235
 0.0005311835419523082 0.006446745327926894 -0.0004740563954743122 -0.0040896544550241744 0.0033041686956700117 0.013082132717093171 0.9962238723610041 -0.03213064617303137
 -0.00047427155851877584 -0.004089661662345683 0.0005437303032123562 0.00644521632447235 0.9962238723610041 -0.03213064617303137 0.0033020887661570006 0.013082343409807932
0.050020842017509996 0.003604762213805011 0.015037709903531801 0.9958262706324887 -0.036776994761377746 0.0006402652821656896 0.007370336358373228 -0.0005690469636795856 -0.004678567652292415
 0.9958262706324887 -0.036776994761377746 0.0036023758713224843 0.015037936319908761 -0.0005687670841713392 -0.004678562761984805 0.0006566546506625577 0.0073683399164834
 0.0006402652821656896 0.007370336358373228 -0.0005687670841713392 -0.004678562761984805 0.0036049106361678326 0.015037031526120997 0.9958262534619389 -0.036777663889534254
 -0.0005690469636795856 -0.004678567652292415 0.0006566546506625577 0.0073683399164834 0.9958262534619389 -0.036777663889534254 0.0036021952582941997 0.015037287654627439
0.055454545454549996 0.003882775347067752 0.01675199050732233 0.9954581371287344 -0.0408277434406611 0.0007440169913832335 0.008173211381702693 -0.0006591271573329268 -0.005190829938612789
 0.9954581371287344 -0.0408277434406611 0.0038798434922432483 0.01675225455855046 -0.0006587843218900226 -0.005190827988659547 0.0007641638318043396 0.008170740774855929
 0.0007440169913832335 0.008173211381702693 -0.0006587843218900226 -0.005190827988659547 0.0038829581063761862 0.016751238464043663 0.995458116253201 -0.040828485510922184
 -0.0006591271573329268 -0.005190829938612789 0.0007641638318043396 0.008170740774855929 0.995458116253201 -0.040828485510922184 0.0038796218913497616 0.016751537761392234
0.056273447269699996 0.003926036672776704 0.01701156242329466 0.9954008186965242 -0.041439220974534494 0.0007603798934665006 0.008294224027818225 -0.0006733299513976029 -0.005268063396851775
 0.9954008186965242 -0.041439220974534494 0.00392301774404767 0.017011832394847208 -0.0006729770895222547 -0.005268061969262342 0.0007811267662814577 0.008291676157763165
 0.0007603798934665006 0.008294224027818225 -0.0006729770895222547 -0.005268061969262342 0.003926224918188634 0.017010799276942542 0.9954007972299764 -0.041439974046817
 -0.0006733299513976029 -0.005268063396851775 0.0007811267662814577 0.008291676157763165 0.9954007972299764 -0.041439974046817 0.003922789604439265 0.01701110538763404
0.06252605252188 0.004268262469971421 0.019003821154187223 0.9949471642034483 -0.04611663851635348 0.0008916300230599723 0.009218250698791095 -0.0007872274743532127 -0.005857974143005228
 0.9949471642034483 -0.04611663851635348 0.004264536707971619 0.01900413852669633 -0.000786793432547724 -0.005857977426883607 0.000917250112501723 0.009215059966368488
 0.0008916300230599723 0.009218250698791095 -0.000786793432547724 -0.005857977426883607 0.004268495299400784 0.01900297320608645 0.994947137941958 -0.04611747569401973
 -0.0007872274743532127 -0.005857974143005228 0.000917250112501723 0.009215059966368488 0.994947137941958 -0.04611747569401973 0.004264255530108682 0.019003334084752212
0.06877865777407 0.004631819956770679 0.021014052348969837 0.9944649423644896 -0.05080910187423788 0.0010341156144318333 0.01014225251962691 -0.0009108434250107624 -0.006448123518604756
 0.9944649423644896 -0.05080910187423788 0.0046273130613896565 0.02101442110552193 -0.0009103200732192334 -0.006448132865625359 0.0010651253886682377 0.010138319963663796
 0.0010341156144318333 0.01014225251962691 -0.0009103200732192334 -0.006448132865625359 0.004632102143789851 0.021013119559985048 0.9944649107998478 -0.05081002333980583
 -0.0009108434250107624 -0.006448123518604756 0.0010651253886682377 0.010138319963663796 0.9944649107998478 -0.05081002333980583 0.004626973345702002 0.021013540234768834
0.07503126302626001 0.005017086148614291 0.023041841116040507 0.9939537897616613 -0.0555164311048822 0.00118793374786372 0.011066060101903122 -0.0010442785411226803 -0.007038332917596485
 0.9939537897616613 -0.0555164311048822 0.005011723744351404 0.023042265379341117 -0.0010436578162825426 -0.0070383497822464865 0.0012248503583425975 0.011061279152537748
 0.00118793374786372 0.011066060101903122 -0.0010436578162825426 -0.0070383497822464865 0.005017422479945265 0.0230408234371344 0.9939537523750744 -0.05551743706501981
 -0.0010442785411226803 -0.007038332917596485 0.0012248503583425975 0.011061279152537748 0.9939537523750744 -0.05551743706501981 0.005011320004735788 0.023041309182187813
0.08128386827845 0.00542443470863128 0.025086784667745592 0.9934133447231667 -0.06023841854984876 0.0013531784892396048 0.011989498981634022 -0.0011876302999575105 -0.0076284211095963
 0.9934133447231667 -0.06023841854984876 0.005418142323008646 0.025087268703084708 -0.0011869042057835962 -0.007628447049036985 0.001396519687963382 0.011983755379655396
 0.0013531784892396048 0.011989498981634022 -0.0011869042057835962 -0.007628447049036985 0.005424829986056377 0.025085682037606246 0.9934133009859463 -0.06023950923699962
 -0.0011876302999575105 -0.0076284211095963 0.001396519687963382 0.011983755379655396 0.9934133009859463 -0.06023950923699962 0.005417669089504355 0.02508623837761494
0.08753647353064001 0.00585423588181766 0.027148487652699206 0.992843247653508 -0.06497483347678042 0.0015299407434604063 0.012912389952587516 -0.0013409928058290036 -0.008218203985818932
 0.992843247653508 -0.06497483347678042 0.005846938923372006 0.02714903587187057 -0.0013401534128000868 -0.008218240659734952 0.0015802247919367359 0.012905561669996735
 0.0015299407434604063 0.012912389952587516 -0.0013401534128000868 -0.008218240659734952 0.00585469492140157 0.027147300005908898 0.9928431970241072 -0.06497600914012851
 -0.0013409928058290036 -0.008218203985818932 0.0015802247919367359 0.012905561669996735 0.9928431970241072 -0.06497600914012851 0.005846390742197658 0.02714793272143702
0.09378907878283 0.006306856392813447 0.02922655885183486 0.9922431413321641 -0.06972542536665517 0.001718308111402661 0.01383454932193249 -0.001504456672595228 -0.008807494391288612
 0.9922431413321641 -0.06972542536665517 0.006298480129602226 0.0292271758177832 -0.0015034961181395784 -0.008807543561720893 0.0017760536823895787 0.013826506484014733
 0.001718308111402661 0.01383454932193249 -0.0015034961181395784 -0.008807543561720893 0.00630738402674737 0.02922528610656967 0.9922430832563903 -0.06972668628363977
 -0.001504456672595228 -0.008807494391288612 0.0017760536823895787 0.013826506484014733 0.9922430832563903 -0.06972668628363977 0.006297851565666235 0.029226001240252552
0.100041684035 0.006782659321165963 0.03132060873280461 0.991612671192361 -0.07448992635326314 0.0019183647492510625 0.014755789111198556 -0.0016781089027542307 -0.009396102020674413
 0.991612671192361 -0.07448992635326314 0.0067731288583735986 0.0313212991652712 -0.001677019391548353 -0.009396165551840772 0.0019840908221545753 0.014746393920180114
 0.0019183647492510625 0.014755789111198556 -0.001677019391548353 -0.009396165551840772 0.006783260397972509 0.03131925079739305 0.9916126051022348 -0.0744912728220136
 -0.0016781089027542307 -0.009396102020674413 0.0019840908221545753 0.014746393920180114 0.9916126051022348 -0.0744912728220136 0.006772414496539782 0.031320054660990505
0.1059090909091 0.007250554162597351 0.03329983778678487 0.990993112993601 -0.0789733031088594 0.0021167997687476232 0.015619267530444488 -0.001850403531407562 -0.009947654533802534
 0.990993112993601 -0.0789733031088594 0.0072398723255254396 0.033300601597661225 -0.0018491859783690088 -0.009947733327336703 0.002190486879080438 0.015608470850518896
 0.0021167997687476232 0.015619267530444488 -0.0018491859783690088 -0.009947733327336703 0.007251228582271574 0.033298399816107986 0.9909930388526178 -0.07897473014884394
 -0.001850403531407562 -0.009947654533802534 0.002190486879080438 0.015608470850518896 0.9909930388526178 -0.07897473014884394 0.007239072545874449 0.03329929293049837
0.1062942892872 0.00728200395702031 0.03343024764146738 0.9909514855860885 -0.07926805303619536 0.0021301912296322546 0.01567591722249644 -0.0018620327638489687 -0.009983833357988246
 0.9909514855860885 -0.07926805303619536 0.007271244215013824 0.03343101642344912 -0.001860806568126906 -0.00998391321610062 0.0022044169808022518 0.01566502388288728
 0.0021301912296322546 0.01567591722249644 -0.001860806568126906 -0.00998391321610062 0.00728268334198227 0.03342880441277007 0.9909514108983147 -0.07926948537624544
 -0.0018620327638489687 -0.009983833357988246 0.0022044169808022518 0.01566502388288728 0.9909514108983147 -0.07926948537624544 0.007270438661947439 0.03342970359510975
0.11254689453939999 0.007805245642547376 0.03555508442300833 0.9902592360371738 -0.08405950787538317 0.0023538644044027025 0.01659473758535321 -0.002056307663101495 -0.010570491644884371
 0.9902592360371738 -0.08405950787538317 0.0077931813347347926 0.035555936608158645 -0.0020549371232510888 -0.010570589897907942 0.002437109092200758 0.01658219223119527
 0.0023538644044027025 0.01659473758535321 -0.0020549371232510888 -0.010570589897907942 0.007806008218712548 0.03555355578349034 0.990259152152506 -0.08406102642941829
 -0.002056307663101495 -0.010570491644884371 0.002437109092200758 0.01658219223119527 0.990259152152506 -0.08406102642941829 0.007792279220447929 0.03555455715938156
0.11879949979160001 0.008352735603494067 0.0376947253544879 0.9895355774874017 -0.0888639802852489 0.0025894572685862646 0.01751205028499523 -0.0022610090209223724 -0.011155876876948032
 0.9895355774874017 -0.0888639802852489 0.008339291213886125 0.03769566617553762 -0.002259486545978257 -0.011155995694418967 0.002682240114172093 0.017497690909106738
 0.0025894572685862646 0.01751205028499523 -0.002259486545978257 -0.011155995694418967 0.00835358627199134 0.03769311117323205 0.9895354837897876 -0.08886558541713051
 -0.0022610090209223724 -0.011155876876948032 0.002682240114172093 0.017497690909106738 0.9895354837897876 -0.08886558541713051 0.008338287193771585 0.03769422191322259
0.1250521050438 0.008924820771644014 0.03984877331511227 0.9887801685375748 -0.09368114750296017 0.002837038825554334 0.018427651683119568 -0.0024762081436629536 -0.011739785817054099
 0.9887801685375748 -0.09368114750296017 0.008909920532577937 0.0398498081932028 -0.0024745262119323127 -0.011739927469772229 0.002939878889592243 0.018411308068406615
 0.002837038825554334 0.018427651683119568 -0.0024745262119323127 -0.011739927469772229 0.008925764452317651 0.039847073445822744 0.9887800643926828 -0.09368283959849201
 -0.0024762081436629536 -0.011739785817054099 0.002939878889592243 0.018411308068406615 0.9887800643926828 -0.09368283959849201 0.008908809289106874 0.03984830102698235
0.131304710296 0.009521843600347399 0.04201682712795644 0.9879926716833475 -0.09851067529711514 0.0030966739535374255 0.019341334532316797 -0.002701972096107147 -0.01232201202474036
 0.9879926716833475 -0.09851067529711514 0.009505411470022946 0.042017961682888835 -0.0027001232558872077 -0.012322178884548885 0.0032100900085964756 0.019322828185265
 0.0030966739535374255 0.019341334532316797 -0.0027001232558872077 -0.012322178884548885 0.009522885232616173 0.04201504140881247 0.9879925564378607 -0.0985124547628668
 -0.002701972096107147 -0.01232201202474036 0.0032100900085964756 0.019322828185265 0.9879925564378607 -0.0985124547628668 0.009504187714648445 0.04201639362651012
0.1375573155481 0.010014108884495948 0.04391692105165337 0.9873028542446644 -0.10307047746125444 0.003336937301732967 0.02022560406880547 -0.002906753797141723 -0.012875185469180232
 0.9873028542446644 -0.10307047746125444 0.009996062081099913 0.0439181363942337 -0.0029047268624212744 -0.012875377949863803 0.0034611856995586388 0.02020494855047176
 0.003336937301732967 0.02022560406880547 -0.0029047268624212744 -0.012875377949863803 0.010015252538193905 0.04391504934690476 0.9873027273753885 -0.10307234453367789
 -0.002906753797141723 -0.012875185469180232 0.0034611856995586388 0.02020494855047176 0.9873027273753885 -0.10307234453367789 0.009994721167818967 0.043916509170559684
0.1438099208003 0.010523908367497819 0.04580577670241268 0.9865883755606533 -0.10761746320591054 0.003586841781246879 0.021105601421793598 -0.0031196704550801525 -0.013424346906596388
 0.9865883755606533 -0.10761746320591054 0.010504169464702725 0.04580707721280791 -0.0031174574030015975 -0.013424567366155828 0.0037223935763650465 0.021082632226735825
 0.003586841781246879 0.021105601421793598 -0.0031174574030015975 -0.013424567366155828 0.010525158854061852 0.04580381887336765 0.9865882364138753 -0.10761941828082468
 -0.0031196704550801525 -0.013424346906596388 0.0037223935763650465 0.021082632226735825 0.9865882364138753 -0.10761941828082468 0.010502706260171827 0.045805392890787826
0.1500625260525 0.011051043988645268 0.04768319919894831 0.9858494387212839 -0.11215148178028207 0.0038462882010824755 0.02198121508743502 -0.0033406237179458356 -0.013969388568751405
 0.9858494387212839 -0.11215148178028207 0.011029535267259544 0.04768458957980464 -0.003338216548105591 -0.013969639460247475 0.0039936111599877455 0.021955761696933314
 0.0038462882010824755 0.02198121508743502 -0.003338216548105591 -0.013969639460247475 0.011052406128363078 0.04768115509826745 0.9858492866269668 -0.11215352526845442
 -0.0033406237179458356 -0.013969388568751405 0.0039936111599877455 0.021955761696933314 0.9858492866269668 -0.11215352526845442 0.011027944672800457 0.04768285030934028
0.15631513130469998 0.011595316055048925 0.049548999455343225 0.9850862481017671 -0.1166723838108721 0.00411517607174609 0.02285233576350263 -0.0035695139003818835 -0.014510205198480688
 0.9850862481017671 -0.1166723838108721 0.01157195949562842 0.04955048474482572 -0.003566904635211479 -0.014510489069562456 0.004274734616949865 0.02282422171541311
