! Created with skrf 1.8.0 (http://scikit-rf.org).
# GHz S RI R 50.0 
!freq ReS11 ImS11 ReS12 ImS12 ReS13 ImS13
! ReS14 ImS14
! ReS21 ImS21 ReS22 ImS22 ReS23 ImS23
! ReS24 ImS24
! ReS31 ImS31 ReS32 ImS32 ReS33 ImS33
! ReS34 ImS34
! ReS41 ImS41 ReS42 ImS42 ReS43 ImS43
! ReS44 ImS44
!
0.0 0.001679455142585 0.0 0.9983205448318 0.0 6.516126693085e-05 0.0 -6.516126604376e-05 7.97995358888798e-21
 0.9983205448318 0.0 0.001679455142598 0.0 -6.516126604303e-05 7.97995358879858e-21 6.516126693237e-05 0.0
 6.516126693085e-05 0.0 -6.516126604303e-05 7.97995358879858e-21 0.001679455155358 0.0 0.9983205448446 0.0
 -6.516126604376e-05 7.97995358888798e-21 6.516126693237e-05 0.0 0.9983205448446 0.0 0.001679455155406 0.0
0.005 0.0018074271387345875 0.0013706403212673122 0.9981585768454594 -0.0035177415534271743 9.192171715163485e-05 0.0007352740562917908 -8.9194933548027e-05 -0.0004584022530916398
 0.9981585768454594 -0.0035177415534271743 0.0018074117475103883 0.0013706493794268136 -8.919500738605732e-05 -0.00045840238119902857 9.201252607265117e-05 0.0007352394274924742
 9.192171715163485e-05 0.0007352740562917908 -8.919500738605732e-05 -0.00045840238119902857 0.0018074271178871403 0.0013707076622877527 0.998158577218782 -0.003517674496509975
 -8.9194933548027e-05 -0.0004584022530916398 9.201252607265117e-05 0.0007352394274924742 0.998158577218782 -0.003517674496509975 0.0018074125129988931 0.0013707161520925093
0.006252605252188 0.0018411215726988092 0.0017186875336687283 0.9981156454158092 -0.004398017915991865 9.962105771233577e-05 0.0009194334481155502 -9.604249262942658e-05 -0.0005735914764432182
 0.9981156454158092 -0.004398017915991865 0.001841097512822237 0.0017186990474649124 -9.604260694717801e-05 -0.0005735916359180051 9.976293699683663e-05 0.0009193884704126774
 9.962105771233577e-05 0.0009194334481155502 -9.604260694717801e-05 -0.0005735916359180051 0.0018411214586900706 0.0017187717178131672 0.9981156459184555 -0.004397934093574133
 -9.604249262942658e-05 -0.0005735914764432182 9.976293699683663e-05 0.0009193884704126774 0.9981156459184555 -0.004397934093574133 0.0018410986290864958 0.0017187825073764309
0.01250521050438 0.0020192598988199835 0.003473290269061833 0.9978870983765619 -0.008796706707254546 0.00014406121057931477 0.0018391261547225273 -0.00013522697936448416 -0.0011498927728455007
 0.9978870983765619 -0.008796706707254546 0.002019163817690612 0.0034733152313597545 -0.00013522742299947377 -0.0011498930854556535 0.00014462696533624006 0.0018390178423134576
 0.00014406121057931477 0.0018391261547225273 -0.00013522742299947377 -0.0011498930854556535 0.0020192588744984753 0.0034734584511219285 0.99788709982344 -0.0087965393178519
 -0.00013522697936448416 -0.0011498927728455007 0.00014462696533624006 0.0018390178423134576 0.99788709982344 -0.0087965393178519 0.0020191677219954752 0.003473481816335792
0.01875781575657 0.0022142860817482434 0.005252716909527291 0.9976346004258856 -0.013206743246328251 0.00019858978454658345 0.0027596938145076294 -0.0001828414295172463 -0.0017280301028621636
 0.9976346004258856 -0.013206743246328251 0.0022140701630149347 0.005252757412624334 -0.00018284240928582426 -0.0017280305635714035 0.0001998606237784566 0.002759499975699804
 0.00019858978454658345 0.0027596938145076294 -0.00018284240928582426 -0.0017280305635714035 0.0022142833396567793 0.005252969073554223 0.9976346032543139 -0.013206492386013416
 -0.0001828414295172463 -0.0017280301028621636 0.0001998606237784566 0.002759499975699804 0.9976346032543139 -0.013206492386013416 0.0022140785279313154 0.005253006925289426
0.02501042100875 0.002426602184098792 0.007054436647587694 0.9973578355860333 -0.017630230231455334 0.0002633156496630951 0.003681158787656258 -0.0002390077399157628 -0.002307715360148832
 0.9973578355860333 -0.017630230231455334 0.0024262186944361067 0.007054494925581698 -0.00023900945712452553 -0.0023077159648522525 0.0002655728336884539 0.003680853518213789
 0.0002633156496630951 0.003681158787656258 -0.00023900945712452553 -0.0023077159648522525 0.002426596911248949 0.007054772810905708 0.9973578402360355 -0.01762989597358745
 -0.0002390077399157628 -0.002307715360148832 0.0002655728336884539 0.003680853518213789 0.9973578402360355 -0.01762989597358745 0.00242623320040023 0.007054827169371894
0.03126302626094 0.0026565936101390483 0.008877129283383545 0.9970564728119811 -0.02206804603999508 0.00033834764710082065 0.004603456049721188 -0.0003038439083432718 -0.00288874027931805
 0.9970564728119811 -0.02206804603999508 0.0026559948729568805 0.008877207709373594 -0.00030384655981209856 -0.00288874102486897 0.0003418727402257969 0.004603009711346546
 0.00033834764710082065 0.004603456049721188 -0.00030384655981209856 -0.00288874102486897 0.002656584980453557 0.008877549506172906 0.9970564797181599 -0.022067628425717904
 -0.0003038439083432718 -0.00288874027931805 0.0003418727402257969 0.004603009711346546 0.9970564797181599 -0.022067628425717904 0.0026560172004932423 0.008877622497656145
0.037515631513130004 0.0029046370800726038 0.010719920568331799 0.9967301742867132 -0.026520609324091695 0.00042379358270092343 0.005526485762779406 -0.0003774648890723211 -0.0034709238949859355
 0.9967301742867132 -0.026520609324091695 0.002903775456773859 0.010720021653505777 -0.0003774686676623178 -0.0034709247792317774 0.00042886856113536414 0.00552586494678066
 0.00042379358270092343 0.005526485762779406 -0.0003774686676623178 -0.0034709247792317774 0.0029046242625411574 0.010720424925798246 0.9967301838870246 -0.026520108390128194
 -0.0003774648890723211 -0.0034709238949859355 0.00042886856113536414 0.00552586494678066 0.9967301838870246 -0.026520108390128194 0.002903807294714147 0.010720518781322307
0.043768236765320004 0.0031711037092710895 0.01258214946088245 0.9963785988213137 -0.03098811168448338 0.0005197597322046784 0.006450129269634628 -0.000459982893451934 -0.00405409657178569
 0.9963785988213137 -0.03098811168448338 0.0031699315853007124 0.012582275854117727 -0.0004599879884919671 -0.004054097593623968 0.0005266670299255138 0.006449296756026141
 0.0005197597322046784 0.006450129269634628 -0.0004599879884919671 -0.004054097593623968 0.003171085862595673 0.012582738041205339 0.996378611551761 -0.030987527465358204
 -0.000459982893451934 -0.00405409657178569 0.0005266670299255138 0.006449296756026141 0.996378611551761 -0.030987527465358204 0.003169974624800721 0.012582855095680774
0.050020842017509996 0.003456360417562495 0.014463271969194372 0.9960014035877881 -0.035470613756655424 0.0006263505370040852 0.007374255706324473 -0.0005515074833043149 -0.00463809341795499
 0.9960014035877881 -0.035470613756655424 0.0034548301892653463 0.014463426457428503 -0.0005515140809109991 -0.004638094577405798 0.0006353730584846381 0.0073731704211551525
 0.0006263505370040852 0.007374255706324473 -0.0005515140809109991 -0.004638094577405798 0.0034563366936866662 0.014463944881401578 0.9960014198853004 -0.03546994627680068
 -0.0005515074833043149 -0.00463809341795499 0.0006353730584846381 0.0073731704211551525 0.9960014198853004 -0.03546994627680068 0.003454886126677162 0.01446408757337423
0.055454545454549996 0.0037197993299144774 0.016112998881162223 0.9956525363968332 -0.03937820904759448 0.0007276892640451329 0.008177633383030776 -0.0006384426801549324 -0.005146146810554964
 0.9956525363968332 -0.03937820904759448 0.003717919237893068 0.01611318015575996 -0.0006384507324016517 -0.005146148090514198 0.0007387800923409533 0.008176292048861944
 0.0007276892640451329 0.008177633383030776 -0.0006384507324016517 -0.005146148090514198 0.0037197698036027095 0.01611374517824324 0.995652556149004 -0.03937746923063781
 -0.0006384426801549324 -0.005146146810554964 0.0007387800923409533 0.008176292048861944 0.995652556149004 -0.03937746923063781 0.0037179877640704903 0.016113912210964455
0.056273447269699996 0.0037607706447021203 0.01636281394900169 0.995598245161733 -0.039968092344688275 0.0007436683772873502 0.0082987252607812 -0.0006521455780158561 -0.005222751057237361
 0.995598245161733 -0.039968092344688275 0.0037588347077048972 0.016362999457780126 -0.0006521538613529567 -0.005222752355486812 0.000755089490380198 0.008297342232805696
 0.0007436683772873502 0.0082987252607812 -0.0006521538613529567 -0.005222752355486812 0.003760740187565505 0.016363571314152933 0.995598265463225 -0.03996734162750127
 -0.0006521455780158561 -0.005222751057237361 0.000755089490380198 0.008297342232805696 0.995598265463225 -0.03996734162750127 0.0037589052427005917 0.016363742185925158
0.06252605252188 0.004084694716766255 0.01828034515776787 0.9951687802210897 -0.0444804663041766 0.0008718133881378692 0.009223390959409767 -0.0007620014133509672 -0.00580790587850186
 0.9951687802210897 -0.0444804663041766 0.0040823054548939095 0.018280564752360423 -0.0007620115628907511 -0.005807907317956263 0.0008859169034591181 0.0092216612766113
 0.0008718133881378692 0.009223390959409767 -0.0007620115628907511 -0.005807907317956263 0.004084656663957036 0.018281187114475263 0.9951688049644649 -0.04447963236634586
 -0.0007620014133509672 -0.00580790587850186 0.0008859169034591181 0.0092216612766113 0.9951688049644649 -0.04447963236634586 0.004082392291179179 0.018281388812799382
0.06877865777407 0.004428490026732837 0.020215463788985408 0.9947126660630481 -0.04900761195076341 0.0010108832964634599 0.010148099752142193 -0.0008811764754510023 -0.0063933929931993755
 0.9947126660630481 -0.04900761195076341 0.004425599800596953 0.020215720675886374 -0.0008811886690730707 -0.006393394577554665 0.0010279534374395445 0.010145970518461053
 0.0010108832964634599 0.010148099752142193 -0.0008811886690730707 -0.006393394577554665 0.004428443507964273 0.020216390489150554 0.9947126956866137 -0.04900669480694654
 -0.0008811764754510023 -0.0063933929931993755 0.0010279534374395445 0.010145970518461053 0.9947126956866137 -0.04900669480694654 0.0044257046446028086 0.02021662576599762
0.07503126302626001 0.004792511099487372 0.02216778667342666 0.9942295610113321 -0.05354937280939319 0.0011609732713513477 0.011072693205235908 -0.0010097694184195588 -0.0069790455919056995
 0.9942295610113321 -0.05354937280939319 0.00478907223640623 0.02216808420215828 -0.0010097838317477527 -0.006979047326171104 0.0011812946369409924 0.011070107497670236
 0.0011609732713513477 0.011072693205235908 -0.0010097838317477527 -0.006979047326171104 0.004792455238421435 0.02216879828463866 0.9942295959539934 -0.05354837246961249
 -0.0010097694184195588 -0.0069790455919056995 0.0011812946369409924 0.011070107497670236 0.9942295959539934 -0.05354837246961249 0.00478919679713674 0.02216906999877395
0.08128386827845 0.005177109588797262 0.02413694276043588 0.9937191247579185 -0.05810556609059846 0.0013221757828510926 0.011997007972397397 -0.0011478759712097884 -0.007564694529628844
 0.9937191247579185 -0.05810556609059846 0.005173074371798369 0.024137284425792275 -0.0011478927777025607 -0.007564696420182923 0.0013460333048326675 0.011993904798597703
 0.0013221757828510926 0.011997007972397397 -0.0011478927777025607 -0.007564696420182923 0.005177043502697494 0.024138039465083534 0.9937191654597142 -0.05810448256136682
 -0.0011478759712097884 -0.007564694529628844 0.0013460333048326675 0.011993904798597703 0.9937191654597142 -0.05810448256136682 0.005173220360489285 0.024138350583728707
0.08753647353064001 0.005582634225871468 0.026122568622521644 0.9931810186621495 -0.0626759871518581 0.0014945804656811674 0.012920876135911533 -0.001295588837708202 -0.00815016804849487
 0.9931810186621495 -0.0626759871518581 0.0055779548832062655 0.026122958067301416 -0.0012956082088656916 -0.008150170103121525 0.0015222593611609874 0.012917190392522034
 0.0014945804656811674 0.012920876135911533 -0.0012956082088656916 -0.008150170103121525 0.005582557026176362 0.0261237506128725 0.9931810655646124 -0.06267482044118637
 -0.001295588837708202 -0.00815016804849487 0.0015222593611609874 0.012917190392522034 0.9931810655646124 -0.06267482044118637 0.005578124012850601 0.02612410421399642
0.09378907878283 0.006009430736296362 0.028124305238789078 0.9926149060222181 -0.06726041268878953 0.0016782739868506408 0.013844125458819072 -0.001452997591303651 -0.008735291597058078
 0.9926149060222181 -0.06726041268878953 0.0060040594311363115 0.028124746256804684 -0.001453019696859852 -0.008735293824979557 0.0017100597070879553 0.013839787890427908
 0.0016782739868506408 0.013844125458819072 -0.001453019696859852 -0.008735293824979557 0.006009341528586852 0.02812557272591693 0.9926149595674598 -0.06725916279724485
 -0.001452997591303651 -0.008735291597058078 0.0017100597070879553 0.013839787890427908 0.9926149595674598 -0.06725916279724485 0.006004253415495187 0.028125972000886814
0.100041684035 0.006457841732418395 0.03014179565036637 0.992020452324853 -0.071858603062761 0.0018733399157820235 0.01476657958462048 -0.001620188565988974 -0.009319887709812902
 0.992020452324853 -0.071858603062761 0.006451730551960888 0.030142292190062266 -0.0016202135740280385 -0.009319890121727986 0.0019095180915841945 0.014761516743672357
 0.0018733399157820235 0.01476657958462048 -0.0016202135740280385 -0.009319890121727986 0.006457739617112008 0.030143148858010553 0.9920205129570513 -0.07185726998983516
 -0.001620188565988974 -0.009319887709812902 0.0019095180915841945 0.014761516743672357 0.9920205129570513 -0.07185726998983516 0.006451951105777638 0.030143597114625123
0.1059090909091 0.006898588386696182 0.03204900662110081 0.9914365488484413 -0.07618580972391806 0.0020668032926727093 0.015631321150708685 -0.0017860503511872826 -0.009867828752084752
 0.9914365488484413 -0.07618580972391806 0.006891739258818069 0.03204955899425281 -0.0017860782344716226 -0.009867831347718329 0.002107363209541614 0.015625507149778384
 0.0020668032926727093 0.015631321150708685 -0.0017860782344716226 -0.009867831347718329 0.006898473336313288 0.03205044048395419 0.9914366165359905 -0.0761843985918393
 -0.0017860503511872826 -0.009867828752084752 0.002107363209541614 0.015625507149778384 0.9914366165359905 -0.0761843985918393 0.006891986304759666 0.03205093781999397
0.1062942892872 0.006928206589730888 0.03217468320364758 0.9913973254840265 -0.07647030405022595 0.002079858596011338 0.01568805820072659 -0.0017972447449909337 -0.009903775931099479
 0.9913973254840265 -0.07647030405022595 0.0069213075348741925 0.03217523937202046 -0.0017972728221535934 -0.009903778539203137 0.0021207149800920406 0.015682192408217315
 0.002079858596011338 0.01568805820072659 -0.0017972728221535934 -0.009903778539203137 0.0069280906622320015 0.03217612236879022 0.991397393648494 -0.07646888779374687
 -0.0017972447449909337 -0.009903775931099479 0.0021207149800920406 0.015682192408217315 0.991397393648494 -0.07646888779374687 0.006921556372827164 0.03217662303496138
0.11254689453939999 0.00742086130902335 0.03422261020821312 0.990745196067709 -0.08109524818668491 0.0022979070186691787 0.01660837717673782 -0.0019842456470027772 -0.010486772772193434
 0.990745196067709 -0.08109524818668491 0.007413126283812517 0.034223230275232434 -0.0019842769586374365 -0.010486775590187172 0.0023437274255678903 0.01660162648392683
 0.0022979070186691787 0.01660837717673782 -0.0019842769586374365 -0.010486775590187172 0.00742073065988356 0.034224135584044725 0.9907452722116652 -0.08109374873996035
 -0.0019842456470027772 -0.010486772772193434 0.0023437274255678903 0.01660162648392683 0.9907452722116652 -0.08109374873996035 0.007413405119935037 0.034224692211719546
0.11879949979160001 0.007936138368621275 0.03628521690800124 0.9900637375188398 -0.08573315580706786 0.0025275586970035908 0.01752734868669203 -0.0021812672114936444 -0.011068691692753796
 0.9900637375188398 -0.08573315580706786 0.007927519169538362 0.03628590531153188 -0.002181301921836383 -0.011068694735898669 0.0025786289402896577 0.017519626837852516
 0.0025275586970035908 0.01752734868669203 -0.002181301921836383 -0.011068694735898669 0.007935992084314038 0.036286828760716476 0.9900638220914167 -0.0857315731621418
 -0.0021812672114936444 -0.011068691692753796 0.0025786289402896577 0.017519626837852516 0.9900638220914167 -0.0857315731621418 0.007927829716912764 0.03628744503051068
0.1250521050438 0.008474366569016073 0.03836214066615185 0.9893526263706076 -0.09038373588233221 0.0027688835417984435 0.01844478132170258 -0.002388381682778274 -0.01164934310043239
 0.9893526263706076 -0.09038373588233221 0.008464814874554822 0.03836290201734843 -0.0023884199550939286 -0.011649346385517878 0.0028254893694036136 0.018435997717881
 0.0027688835417984435 0.01844478132170258 -0.0023884199550939286 -0.011649346385517878 0.008474203731850092 0.038363839277463514 0.9893527198227935 -0.09038207002761288
 -0.002388381682778274 -0.01164934310043239 0.0028254893694036136 0.018435997717881 0.9893527198227935 -0.09038207002761288 0.00846515884459109 0.038364519003581364
0.131304710296 0.009035870870126472 0.040453015327521734 0.9886115424573908 -0.09504668668869035 0.0030219477382465083 0.019360480193384287 -0.0026056574935263634 -0.012228534368012354
 0.9886115424573908 -0.09504668668869035 0.00902533822994905 0.04045385441663885 -0.0026056994902604064 -0.012228537913385844 0.003084374765419325 0.01935053985742983
 0.0030219477382465083 0.019360480193384287 -0.0026056994902604064 -0.012228537913385844 0.009035690558756056 0.0404548009922844 0.98861164524267 -0.09504493761137846
 -0.0026056574935263634 -0.012228534368012354 0.003084374765419325 0.01935053985742983 0.98861164524267 -0.09504493761137846 0.009025717331768155 0.04045554812813025
0.1375573155481 0.009497000132646028 0.04228464651505004 0.9879641998371469 -0.09944871119597337 0.0032559477545314876 0.02024732054001709 -0.0028022271811916992 -0.01277921885542566
 0.9879641998371469 -0.09944871119597337 0.009485435640468842 0.04228555061173552 -0.002802273343939204 -0.01277922267184171 0.003324339978410307 0.0202362327589189
 0.0032559477545314876 0.02024732054001709 -0.002802273343939204 -0.01277922267184171 0.009496802424790271 0.04228651913323653 0.9879643123761925 -0.09944687893583454
 -0.0028022271811916992 -0.01277921885542566 0.003324339978410307 0.0202362327589189 0.9879643123761925 -0.09944687893583454 0.009485850647712435 0.04228732100928966
0.1438099208003 0.00997449481596063 0.04410574482586314 0.9872938162522252 -0.10383869019281516 0.00349936586785603 0.021130095699486918 -0.0030066299503306066 -0.01332613156560332
 0.9872938162522252 -0.10383869019281516 0.009961849516703118 0.04410671769557217 -0.0030066804903761024 -0.013326135665202429 0.00357398316560122 0.021117773101698732
 0.00349936586785603 0.021130095699486918 -0.0030066804903761024 -0.013326135665202429 0.009974278967043093 0.04410770466003409 0.9872939389939192 -0.10383677474701598
 -0.0030066299503306066 -0.01332613156560332 0.00357398316560122 0.021117773101698732 0.9872939389939192 -0.10383677474701598 0.009962301967323043 0.04410856428208449
0.1500625260525 0.010468173824042519 0.045916131917396505 0.9866005776117288 -0.10821648807994082 0.0037521094045567128 0.02200870016828874 -0.003218774668323072 -0.013869171650444675
 0.9866005776117288 -0.10821648807994082 0.01045439863632133 0.04591717755175969 -0.0032188297993819464 -0.013869176045328065 0.003833209896431167 0.021995052194773424
 0.0037521094045567128 0.02200870016828874 -0.0032188297993819464 -0.013869176045328065 0.010467939098107608 0.045918179239356545 0.9866007110063538 -0.10821448944573485
 -0.003218774668323072 -0.013869171650444675 0.003833209896431167 0.021995052194773424 0.9866007110063538 -0.10821448944573485 0.01045489005560977 0.04591909981272599
0.15631513130469998 0.01097785461390228 0.04771563476561099 0.9858846709514729 -0.11258197032495326 0.004014084502338606 0.022883030430645712 -0.0034385689903298476 -0.014408240553139553
 0.9858846709514729 -0.11258197032495326 0.01096290032682677 0.04771675738845789 -0.0034386289286810357 -0.014408245255231192 0.004101924521902536 0.022867963371633052
