! Created with skrf 1.8.0 (http://scikit-rf.org).
# GHz S RI R 50.0 
!freq ReS11 ImS11 ReS12 ImS12 ReS13 ImS13
! ReS14 ImS14
! ReS21 ImS21 ReS22 ImS22 ReS23 ImS23
! ReS24 ImS24
! ReS31 ImS31 ReS32 ImS32 ReS33 ImS33
! ReS34 ImS34
! ReS41 ImS41 ReS42 ImS42 ReS43 ImS43
! ReS44 ImS44
!
0.0 0.001603438799815 0.0 0.9983965611822 0.0 6.217640307466e-05 0.0 -6.21764030131e-05 7.614413293248877e-21
 0.9983965611822 0.0 0.001603438799852 0.0 -6.217640301395e-05 7.614413293352971e-21 6.217640307454e-05 0.0
 6.217640307466e-05 0.0 -6.217640301395e-05 7.614413293352971e-21 0.00160343880882 0.0 0.9983965611912 0.0
 -6.21764030131e-05 7.614413293248877e-21 6.217640307454e-05 0.0 0.9983965611912 0.0 0.001603438808808 0.0
0.005 0.0017254007900021331 0.0013072967643439147 0.998242221798816 -0.0033588545594469108 8.784790045494776e-05 0.0007106849549011109 -8.517056328380725e-05 -0.00044157470755364536
 0.998242221798816 -0.0033588545594469108 0.001725402837740542 0.0013072955189929651 -8.516569817554203e-05 -0.0004415709806146549 8.785836061264903e-05 0.0007106810989447052
 8.784790045494776e-05 0.0007106849549011109 -8.516569817554203e-05 -0.0004415709806146549 0.0017254035952403899 0.0013073623701538122 0.9982422221574674 -0.0033587874960631526
 -8.517056328380725e-05 -0.00044157470755364536 8.785836061264903e-05 0.0007106810989447052 0.9982422221574674 -0.0033587874960631526 0.001725400747647896 0.0013073640393214154
0.006252605252188 0.0017574430738426104 0.0016392757070003822 0.9982014076708641 -0.004199382698143103 9.52082493399727e-05 0.0008886852514251173 -9.169278078758605e-05 -0.0005525416428160975
 0.9982014076708641 -0.004199382698143103 0.0017574462749843543 0.0016392741172989406 -9.168521019566669e-05 -0.0005525370481227623 9.522459384364235e-05 0.0008886802232975549
 9.52082493399727e-05 0.0008886852514251173 -9.168521019566669e-05 -0.0005525370481227623 0.0017574473878908855 0.0016393576954680934 0.9982014081601639 -0.004199298883946478
 -9.169278078758605e-05 -0.0005525416428160975 9.522459384364235e-05 0.0008886802232975549 0.9982014081601639 -0.004199298883946478 0.0017574429360459928 0.0016393597554566959
0.01250521050438 0.0019264427054204363 0.0033129653648504014 0.9979846751620342 -0.008399529315840341 0.0001375562840331469 0.0017776300978643276 -0.0001288603846465092 -0.0011077476838196652
 0.9979846751620342 -0.008399529315840341 0.0019264554908783448 0.0033129618210847355 -0.00012883054865235957 -0.001107739198200762 0.0001376215085846721 0.0017776178047256455
 0.0001375562840331469 0.0017776300978643276 -0.00012883054865235957 -0.001107739198200762 0.001926459388055806 0.0033131290459467266 0.9979846765683964 -0.008399361921095775
 -0.0001288603846465092 -0.0011077476838196652 0.0001376215085846721 0.0017776178047256455 0.9979846765683964 -0.008399361921095775 0.0019264416057269522 0.00331313290927093
0.01875781575657 0.0021108189355312735 0.005010492740194709 0.997746085656786 -0.012610652668299362 0.00018932043064741262 0.002667448876544173 -0.0001737966760652008 -0.0016647743791950893
 0.997746085656786 -0.012610652668299362 0.0021108476712405604 0.005010486779076576 -0.0001737301395473655 -0.0016647628475718796 0.00018946706168035523 0.002667426655829637
 0.00018932043064741262 0.002667448876544173 -0.0001737301395473655 -0.0016647628475718796 0.002110856009472945 0.00501073786699431 0.9977460883981136 -0.012610401805232006
 -0.0001737966760652008 -0.0016647743791950893 0.00018946706168035523 0.002667426655829637 0.9977460883981136 -0.012610401805232006 0.00211081604139636 0.0050107433057806315
0.02501042100875 0.0023109410102830764 0.006729457404831463 0.9974853498621112 -0.01683477777159153 0.00025060183349696484 0.0035581752265283623 -0.00022661494121427555 -0.0022233519506862846
 0.9974853498621112 -0.01683477777159153 0.002310992051937325 0.00672944846489631 -0.0002264974414857128 -0.0022233383735705955 0.00025086247940355263 0.0035581399963969477
 0.00025060183349696484 0.0035581752265283623 -0.0002264974414857128 -0.0022233383735705955 0.0023110064870680096 0.00672978371703279 0.9974853543559246 -0.016834443496549285
 -0.00022661494121427555 -0.0022233519506862846 0.00025086247940355263 0.0035581399963969477 0.9974853543559246 -0.016834443496549285 0.0023109354868396264 0.006729790526063765
0.03126302626094 0.002527162883828082 0.008468615655460397 0.997202164196158 -0.021072760896692525 0.00032150194124240354 0.004449757525542107 -0.000287425017045935 -0.0027832891878806785
 0.997202164196158 -0.021072760896692525 0.0025272425774102384 0.008468603075983606 -0.0002872424346569511 -0.0027832747231569797 0.00032190932294759016 0.004449705779688094
 0.00032150194124240354 0.004449757525542107 -0.0002872424346569511 -0.0027832747231569797 0.0025272647671371476 0.008469022837064348 0.997202170860303 -0.021072343252210468
 -0.000287425017045935 -0.0027832891878806785 0.00032190932294759016 0.004449705779688094 0.997202170860303 -0.021072343252210468 0.0025271538912367236 0.008469030832859544
0.037515631513130004 0.002759830689214207 0.010227150206770314 0.9968962185261985 -0.025325019815702177 0.0004021214923201425 0.005342110381831291 -0.0003563341167944878 -0.003344421969944104
 0.9968962185261985 -0.025325019815702177 0.0027599453709168135 0.01022713322630003 -0.00035607246076254994 -0.003344407933383839 0.00040270845868346875 0.005342038183116101
 0.0004021214923201425 0.005342110381831291 -0.00035607246076254994 -0.003344407933383839 0.002759976977127172 0.010227637882891789 0.9968962277795533 -0.025324518832897974
 -0.0003563341167944878 -0.003344421969944104 0.00040270845868346875 0.005342038183116101 0.9968962277795533 -0.025324518832897974 0.0027598173812209154 0.010227646903527107
0.043768236765320004 0.0030092856228584146 0.012004447948030334 0.9965671993201531 -0.02959175597497538 0.0004925600420171241 0.0062351302919686005 -0.0004334471119021455 -0.003906597619477134
 0.9965671993201531 -0.02959175597497538 0.0030094416174142433 0.012004425703031337 -0.0004330925110034383 -0.003906585484929692 0.0004933595790232854 0.0062350332655505035
 0.0004925600420171241 0.0062351302919686005 -0.0004330925110034383 -0.003906585484929692 0.0030094843067292056 0.01200501567243976 0.9965672115805633 -0.029591171685034147
 -0.0004334471119021455 -0.003906597619477134 0.0004933595790232854 0.0062350332655505035 0.9965672115805633 -0.029591171685034147 0.003009267142374578 0.01200502557773651
0.050020842017509996 0.0032758652749096413 0.013800008081032487 0.9962147912485384 -0.03387304628551449 0.0005929156686489825 0.00712870211373264 -0.0005188666327555594 -0.004469668443499248
 0.9962147912485384 -0.03387304628551449 0.0032760688941995456 0.013799979604395279 -0.0005184053299957169 -0.00446965984293511 0.0005939609052980191 0.007128575439997539
 0.0005929156686489825 0.00712870211373264 -0.0005184053299957169 -0.00446965984293511 0.0032761243412841572 0.013800655354980896 0.9962148069351445 -0.033872378699877644
 -0.0005188666327555594 -0.004469668443499248 0.0005939609052980191 0.007128575439997539 0.9962148069351445 -0.033872378699877644 0.0032758407536406012 0.01380066602672915
0.055454545454549996 0.0035216984209980543 0.015374897644900076 0.9958892977922055 -0.03760543648748294 0.0006882565368417391 0.007905595503764287 -0.0005999227338081644 -0.004959607742108554
 0.9958892977922055 -0.03760543648748294 0.003521948542189611 0.015374862885915885 -0.0005993576175151742 -0.00495960366085032 0.0006895423125193737 0.007905438800624108
 0.0006882565368417391 0.007905595503764287 -0.0005993576175151742 -0.00495960366085032 0.0035220164431113967 0.015375613586280987 0.99588931679659 -0.0376046965262455
 -0.0005999227338081644 -0.004959607742108554 0.0006895423125193737 0.007905438800624108 0.99588931679659 -0.0376046965262455 0.0035216679336128355 0.015375624845469223
0.056273447269699996 0.003559904309866568 0.015613397068955509 0.9958386781405959 -0.038168888104522486 0.0007032847648249433 0.00802270224515451 -0.0006126930823396539 -0.005033488572140305
 0.9958386781405959 -0.038168888104522486 0.003560161850951396 0.015613361288636947 -0.0006121114313506082 -0.005033485295647737 0.0007046089767402561 0.008022540652476364
 0.0007032847648249433 0.00802270224515451 -0.0006121114313506082 -0.005033485295647737 0.0035602317398555727 0.015614123319641763 0.9958386976727297 -0.038168137235367855
 -0.0006126930823396539 -0.005033488572140305 0.0007046089767402561 0.008022540652476364 0.9958386976727297 -0.038168137235367855 0.0035598728651527536 0.015614134662037883
0.06252605252188 0.0038617348211084056 0.017444223838065362 0.9954385436183221 -0.04247922396787598 0.0008237618669872566 0.008917000376569282 -0.0007150246093385563 -0.0055979122290312445
 0.9954385436183221 -0.04247922396787598 0.0038620525641026044 0.017444179575675674 -0.0007143090719465536 -0.005597916224771247 0.0008253984790092946 0.008916798133919919
 0.0008237618669872566 0.008917000376569282 -0.0007143090719465536 -0.005597916224771247 0.003862138590521837 0.01744502842178273 0.9954385674162063 -0.04247838982384003
 -0.0007150246093385563 -0.0055979122290312445 0.0008253984790092946 0.008916798133919919 0.9954385674162063 -0.04247838982384003 0.003861695554067828 0.017445040361898954
0.06877865777407 0.0041816865114332686 0.019292125007544916 0.9950140715610301 -0.04680395629935911 0.0009544395101291203 0.00981146053986592 -0.000825957054286948 -0.006162792709675717
 0.9950140715610301 -0.04680395629935911 0.0041820707172866714 0.019292070977048825 -0.0008250941989691106 -0.006162806083812087 0.0009564220978560999 0.009811211449340352
 0.0009544395101291203 0.00981146053986592 -0.0008250941989691106 -0.006162806083812087 0.004182174591231677 0.019293007212033277 0.9950141000463231 -0.04680303888215517
 -0.000825957054286948 -0.006162792709675717 0.0009564220978560999 0.009811211449340352 0.9950141000463231 -0.04680303888215517 0.0041816385051035515 0.019293019700397457
0.07503126302626001 0.0045200867700378265 0.021156755529851613 0.9945649464704426 -0.05114295671484559 0.0010954080936097098 0.010705941784756288 -0.000945583882884678 -0.006727981738339139
 0.9945649464704426 -0.05114295671484559 0.004520543678068835 0.021156690336243934 -0.0009445603837875125 -0.006728006754959555 0.0010977703841482211 0.010705639174030203
 0.0010954080936097098 0.010705941784756288 -0.0009445603837875125 -0.006728006754959555 0.004520667124983339 0.021157714567655292 0.9945649800653922 -0.05114195602482011
 -0.000945583882884678 -0.006727981738339139 0.0010977703841482211 0.010705639174030203 0.9945649800653922 -0.05114195602482011 0.004520029086058926 0.021157727578789972
0.08128386827845 0.00487726068188676 0.02303778245689483 0.994090853772239 -0.05549607220689158 0.001246755756514131 0.011600298630027423 -0.001073996107922132 -0.007293329055853447
 0.994090853772239 -0.05549607220689158 0.004877796507519945 0.02303770459488861 -0.0010727987443737948 -0.007293368136848446 0.001249531628974983 0.011599935344668076
 0.001246755756514131 0.011600298630027423 -0.0010727987443737948 -0.007293368136848446 0.004877941271259654 0.023038817471330752 0.9940908929011228 -0.055494988235843784
 -0.001073996107922132 -0.007293329055853447 0.001249531628974983 0.011599935344668076 0.9940908929011228 -0.055494988235843784 0.004877192359034763 0.023038831004482334
0.08753647353064001 0.005253530995710325 0.02493488064437652 0.9935914800802426 -0.05986312939721936 0.00140856825757479 0.012494381388941848 -0.0012112822055473367 -0.007858682139181557
 0.9935914800802426 -0.05986312939721936 0.005254151927534667 0.024934788497272622 -0.0012098978617777181 -0.007858737864130242 0.0014117917428527924 0.01249394978474201
 0.00140856825757479 0.012494381388941848 -0.0012098978617777181 -0.007858737864130242 0.005254319771675272 0.02493599069935574 0.9935915251683706 -0.05986196213770876
 -0.0012112822055473367 -0.007858682139181557 0.0014117917428527924 0.01249394978474201 0.9935915251683706 -0.05986196213770876 0.005253451046718735 0.02493600477914742
0.09378907878283 0.005649218059640224 0.026847729672956688 0.9930665134317181 -0.06424393757967536 0.0015809288592066402 0.013388036407827377 -0.001357528025776593 -0.00842388601417609
 0.9930665134317181 -0.06424393757967536 0.005649930256708317 0.02684762151148526 -0.001355943691059554 -0.008423961120191573 0.001584634139605713 0.013387528342994521
 0.0015809288592066402 0.013388036407827377 -0.001355943691059554 -0.008423961120191573 0.005650122967694174 0.02684891376104388 0.9930665649065346 -0.06424268701568031
 -0.001357528025776593 -0.00842388601417609 0.001584634139605713 0.013387528342994521 0.9930665649065346 -0.06424268701568031 0.005649125469271845 0.026848928438305008
0.100041684035 0.006064639736740961 0.028776011605698214 0.9925156435069644 -0.06863829093356516 0.0017639182137143717 0.01428110625180875 -0.0015128166999903115 -0.008988783127529444
 0.9925156435069644 -0.06863829093356516 0.00606544932586834 0.02877588558684684 -0.001511019468923749 -0.008988880509090531 0.0017681396222027934 0.014280513079091676
 0.0017639182137143717 0.01428110625180875 -0.001511019468923749 -0.008988880509090531 0.006065668714579034 0.028777268639048538 0.9925157017975501 -0.06863695704858086
 -0.0015128166999903115 -0.008988783127529444 0.0017681396222027934 0.014280513079091676 0.9925157017975501 -0.06863695704858086 0.0060645334588578185 0.02877728399160142
0.1059090909091 0.006472698214752057 0.030599253221211726 0.9919748769572778 -0.0727740495124966 0.0019453705038465201 0.015118481940264232 -0.001666834610369034 -0.009518457471294508
 0.9919748769572778 -0.0727740495124966 0.0064736047370946865 0.030599108666648764 -0.001664825955588611 -0.009518578528596711 0.0019501076026046925 0.015117800581082336
 0.0019453705038465201 0.015118481940264232 -0.001664825955588611 -0.009518578528596711 0.006473850831044725 0.030600577648099866 0.9919749420360899 -0.07277263742005226
 -0.001666834610369034 -0.009518457471294508 0.0019501076026046925 0.015117800581082336 0.9919749420360899 -0.07277263742005226 0.006472578111691753 0.030600593729953978
0.1062942892872 0.006500111303683257 0.03071940929677806 0.9919385618345155 -0.07304597019334626 0.0019576142513302165 0.015173429855170015 -0.0016772285456025278 -0.009553213260604583
 0.9919385618345155 -0.07304597019334626 0.006501024376663108 0.030719263462744544 -0.0016752056186011284 -0.009553335969354499 0.0019623862705505364 0.015172742414001421
 0.0019576142513302165 0.015173429855170015 -0.0016752056186011284 -0.009553335969354499 0.006501272281038495 0.030720738110843294 0.9919386273723578 -0.07304455296559788
 -0.0016772285456025278 -0.009553213260604583 0.0019623862705505364 0.015172742414001421 0.9919386273723578 -0.07304455296559788 0.006499990259028197 0.030720754244409426
0.11254689453939999 0.006955945337774823 0.032677605110086425 0.9913349619886188 -0.07746674391587892 0.002162092069309412 0.01606484264457849 -0.0018508409690647803 -0.010117013477207783
 0.9913349619886188 -0.07746674391587892 0.006956967947946915 0.03267743738733806 -0.0018485796529481608 -0.010117164721746551 0.002167449330353111 0.016064051253057602
 0.002162092069309412 0.01606484264457849 -0.0018485796529481608 -0.010117164721746551 0.006957246235213016 0.032679004460237616 0.9913350352072374 -0.07746524332056325
 -0.0018508409690647803 -0.010117013477207783 0.002167449330353111 0.016064051253057602 0.9913350352072374 -0.07746524332056325 0.006955808410826962 0.03267902150936885
0.11879949979160001 0.007432451593116082 0.034650279919273975 0.9907045397783648 -0.08190036947399583 0.0023774238226022073 0.016955176649723545 -0.0020337283667849707 -0.010680018090683582
 0.9907045397783648 -0.08190036947399583 0.00743358975254667 0.03465008811760693 -0.0020312160755011164 -0.010680201236315304 0.00238340110355291 0.0169542710966259
 0.0023774238226022073 0.016955176649723545 -0.0020312160755011164 -0.010680201236315304 0.007433900321644203 0.03465174848106368 0.990704621113969 -0.08189878548213532
 -0.0020337283667849707 -0.010680018090683582 0.00238340110355291 0.0169542710966259 0.990704621113969 -0.08189878548213532 0.007432297629659178 0.0346517666101628
0.1250521050438 0.007929936871267628 0.03663711232596159 0.9900469934349653 -0.08634659384013169 0.00260367861483538 0.017844260597237684 -0.0022259620254522815 -0.011242058654682316
 0.9900469934349653 -0.08634659384013169 0.007931196547494669 0.036636894137591 -0.0022231862809331733 -0.011242277223155074 0.0026103108391459613 0.017843230133937953
 0.00260367861483538 0.017844260597237684 -0.0022231862809331733 -0.011242277223155074 0.00793154133149194 0.03663864869185344 0.9900470833263517 -0.08634492642068417
 -0.0022259620254522815 -0.011242058654682316 0.0026103108391459613 0.017843230133937953 0.9900470833263517 -0.08634492642068417 0.007929764675673903 0.03663866809615467
0.131304710296 0.008448704883833124 0.038637778037912546 0.9893620237927999 -0.09080515421802242 0.002840922390319107 0.018731920003795144 -0.0024276100213595623 -0.01180296396185796
 0.9893620237927999 -0.09080515421802242 0.008450091996557075 0.03863753103671139 -0.002424558454536971 -0.011803221631041689 0.002848244624971561 0.018730753336155235
 0.002840922390319107 0.018731920003795144 -0.002424558454536971 -0.011803221631041689 0.008450472965187016 0.038639380719780354 0.989362122681818 -0.090803403334382
 -0.0024276100213595623 -0.01180296396185796 0.002848244624971561 0.018730753336155235 0.989362122681818 -0.090803403334382 0.00844851321603756 0.03863940162659007
0.1375573155481 0.008872340995579943 0.04039029064850463 0.9887660996056091 -0.09501398872585795 0.003059931763946063 0.019591793307899175 -0.0026094470644556474 -0.012336402923836632
 0.9887660996056091 -0.09501398872585795 0.008873860555079252 0.040390015474078673 -0.0026061013418436653 -0.012336700107076949 0.0030679573310713527 0.019590491799138816
 0.003059931763946063 0.019591793307899175 -0.0026061013418436653 -0.012336700107076949 0.008874280092393551 0.04039195808683992 0.9887662078987993 -0.09501215439808226
 -0.0026094470644556474 -0.012336402923836632 0.0030679573310713527 0.019590491799138816 0.9887662078987993 -0.09501215439808226 0.008872128268223282 0.040391984036640946
0.1438099208003 0.009310942655406567 0.042133128234968245 0.9881490882104318 -0.09921171974534747 0.003287778720869268 0.02044796434317132 -0.002798550906839417 -0.012866442990526495
 0.9881490882104318 -0.09921171974534747 0.009312600359653063 0.042132822704088184 -0.0027948977419857924 -0.012866783315752145 0.0032965389664386183 0.020446517670222514
 0.003287778720869268 0.02044796434317132 -0.0027948977419857924 -0.012866783315752145 0.009313060554851016 0.042134858891289276 0.988149206345688 -0.09920980194696884
 -0.002798550906839417 -0.012866442990526495 0.0032965389664386183 0.020446517670222514 0.988149206345688 -0.09920980194696884 0.009310707511984392 0.042134890458499386
0.1500625260525 0.009764349143334187 0.04386613236522739 0.9875111548351474 -0.10339823004701038 0.0035243807719934736 0.02130033816622071 -0.0029948411777748654 -0.01339299426992635
 0.9875111548351474 -0.10339823004701038 0.0097661506365137 0.04386579421190272 -0.0029908673169374927 -0.013393381510811635 0.0035339069293802198 0.02129873561275423
 0.0035243807719934736 0.02130033816622071 -0.0029908673169374927 -0.013393381510811635 0.009766653616855222 0.0438679246387836 0.987511283252252 -0.10339622875041618
 -0.0029948411777748654 -0.01339299426992635 0.0035339069293802198 0.02129873561275423 0.987511283252252 -0.10339622875041618 0.009764090183194653 0.04386796242865167
0.15631513130469998 0.010232398518900374 0.04558914936388908 0.9868524656387979 -0.10757340309257254 0.0037696544033306583 0.022148821526856058 -0.0031982364708179143 -0.013915968843378278
 0.9868524656387979 -0.10757340309257254 0.010234349390578403 0.045588776240513364 -0.0031939286935844767 -0.013916406918663827 0.0037799775934515287 0.022147051985212707
