! Created with skrf 1.8.0 (http://scikit-rf.org).
# GHz S RI R 50.0 
!freq ReS11 ImS11 ReS12 ImS12 ReS13 ImS13
! ReS14 ImS14
! ReS21 ImS21 ReS22 ImS22 ReS23 ImS23
! ReS24 ImS24
! ReS31 ImS31 ReS32 ImS32 ReS33 ImS33
! ReS34 ImS34
! ReS41 ImS41 ReS42 ImS42 ReS43 ImS43
! ReS44 ImS44
!
0.0 0.001752992883198 0.0 0.9982470071047 0.0 6.811968298199e-05 0.0 -6.811968248717e-05 8.342255111684675e-21
 0.9982470071047 0.0 0.001752992883178 0.0 -6.81196824866e-05 8.34225511161487e-21 6.811968297992e-05 0.0
 6.811968298199e-05 0.0 -6.81196824866e-05 8.34225511161487e-21 0.001752992889229 0.0 0.9982470071107 0.0
 -6.811968248717e-05 8.342255111684675e-21 6.811968297992e-05 0.0 0.9982470071107 0.0 0.001752992889238 0.0
0.005 0.0018867943894500196 0.0014306388153050213 0.9980776050729095 -0.0036714442157764456 9.628649232842603e-05 0.0007678155975853072 -9.334863313812585e-05 -0.0004787996398946982
 0.9980776050729095 -0.0036714442157764456 0.0018868021474924563 0.0014306343283587456 -9.334724738700381e-05 -0.0004787986747991412 9.624884763640061e-05 0.0007678300947518943
 9.628649232842603e-05 0.0007678155975853072 -9.334724738700381e-05 -0.0004787986747991412 0.001886794242994959 0.0014305716924352886 0.9980776047035307 -0.0036715112742584256
 -9.334863313812585e-05 -0.0004787996398946982 9.624884763640061e-05 0.0007678300947518943 0.9980776047035307 -0.0036715112742584256 0.0018868015582032696 0.0014305673357213392
0.006252605252188 0.0019220918922634718 0.0017939106630956003 0.9980326006518718 -0.004590171295405444 0.00010444910928839585 0.0009601198328888131 -0.00010057037535873285 -0.0005991097671826635
 0.9980326006518718 -0.004590171295405444 0.001922104018740127 0.0017939049337208951 -0.00010056821824122524 -0.000599108579763953 0.0001043902953682342 0.0009601386443397947
 0.00010444910928839585 0.0009601198328888131 -0.00010056821824122524 -0.000599108579763953 0.0019220917286857293 0.0017938267746458153 0.9980326001402738 -0.004590255112474543
 -0.00010057037535873285 -0.0005991097671826635 0.0001043902953682342 0.0009601386443397947 0.9980326001402738 -0.004590255112474543 0.0019221031639761145 0.001793821191669158
0.01250521050438 0.002109101128172122 0.0036251944619292743 0.9977924336462991 -0.009180918922982707 0.00015186943128044726 0.0019204476167271947 -0.00014207478978535545 -0.0012010000682515422
 0.9977924336462991 -0.009180918922982707 0.0021091495370129274 0.0036251817714779183 -0.00014206627952657985 -0.0012009979045497121 0.00015163496066171046 0.0019204927664534686
 0.00015186943128044726 0.0019204476167271947 -0.00014206627952657985 -0.0012009979045497121 0.002109101021668414 0.003625027024013351 0.9977924321582715 -0.009181086315331976
 -0.00014207478978535545 -0.0012010000682515422 0.00015163496066171046 0.0019204927664534686 0.9977924321582715 -0.009181086315331976 0.0021091466896515833 0.003625014462460304
0.01875781575657 0.0023144718748601516 0.005482257466147238 0.9975261772590399 -0.013783367772676277 0.0002104966619722544 0.0028816107800383683 -0.00019276993278278382 -0.0018047479170565182
 0.9975261772590399 -0.013783367772676277 0.002314580628932967 0.005482236469307777 -0.00019275094218488152 -0.001804745037795267 0.000209970106487717 0.00288169144843007
 0.0002104966619722544 0.0028816107800383683 -0.00019275094218488152 -0.001804745037795267 0.002314472041866038 0.005482006692221036 0.9975261743376713 -0.013783618641251744
 -0.00019276993278278382 -0.0018047479170565182 0.000209970106487717 0.00288169144843007 0.9975261743376713 -0.013783618641251744 0.002314574675074501 0.00548198563968955
0.02501042100875 0.002538639422225997 0.007362439757773749 0.9972334886059455 -0.018399693214024057 0.00028044819820135977 0.003843617508947742 -0.000252787309627943 -0.002410041017106116
 0.9972334886059455 -0.018399693214024057 0.002538832520732206 0.007362409002176169 -0.00025275375722499124 -0.0024100377364625375 0.0002795131887111347 0.0038437444718338845
 0.00028044819820135977 0.003843617508947742 -0.00025275375722499124 -0.0024100377364625375 0.002538640066653267 0.007362105838546474 0.9972334837915818 -0.018400027500822983
 -0.000252787309627943 -0.002410041017106116 0.0002795131887111347 0.0038437444718338845 0.9972334837915818 -0.018400027500822983 0.0025388223587502964 0.007362074670547288
0.03126302626094 0.0027820209305980106 0.009264344344475713 0.9969140090055746 -0.02303079217275365 0.0003618413689118672 0.004806384487450912 -0.0003222539760239579 -0.0030166500452415523
 0.9969140090055746 -0.02303079217275365 0.002782322322451655 0.00926430227107071 -0.0003222018186472273 -0.0030166467313682338 0.0003603814901797074 0.004806570123031115
 0.0003618413689118672 0.004806384487450912 -0.0003222018186472273 -0.0030166467313682338 0.002782022249773879 0.009263927461281457 0.996914001840086 -0.02303120984776733
 -0.0003222539760239579 -0.0030166500452415523 0.0003603814901797074 0.004806570123031115 0.996914001840086 -0.02303120984776733 0.0027823068665683787 0.00926388444140178
0.037515631513130004 0.0030450239293154193 0.0111870390250345 0.9965673728488627 -0.027677081209510023 0.0004547922178023581 0.005769791743301357 -0.0004012934596953353 -0.00362437383881005
 0.9965673728488627 -0.027677081209510023 0.003045457521096712 0.011186983968233309 -0.00040121868878368363 -0.003624370914058157 0.0004526909650530988 0.0057700500457641924
 0.0004547922178023581 0.005769791743301357 -0.00040121868878368363 -0.003624370914058157 0.0030450261130710644 0.011186539372012897 0.9965673628739813 -0.02767758224893264
 -0.0004012934596953353 -0.00362437383881005 0.0004526909650530988 0.0057700500457641924 0.9965673628739813 -0.02767758224893264 0.003045435699464589 0.011186482651658934
0.043768236765320004 0.003328049582054906 0.013129813533871765 0.9961932112392214 -0.032338739308623334 0.0005594149159905877 0.0067336993365016105 -0.0004900260688192867 -0.00423302274190383
 0.9961932112392214 -0.032338739308623334 0.0033286392443464185 0.013129743721261657 -0.0004899247083628943 -0.004233020682941721 0.0005565556780239855 0.0067340459317424255
 0.0005594149159905877 0.0067336993365016105 -0.0004899247083628943 -0.004233020682941721 0.003328052811452107 0.013129231314861564 0.9961931979942225 -0.032339323698282234
 -0.0004900260688192867 -0.00423302274190383 0.0005565556780239855 0.0067340459317424255 0.9961931979942225 -0.032339323698282234 0.0033286099969097533 0.013129158932739833
0.050020842017509996 0.00363149418191327 0.015092079161900853 0.995791153865975 -0.037015808190293036 0.0006758213959244814 0.0076979542623467805 -0.0005885689836762919 -0.004842411741967351
 0.995791153865975 -0.037015808190293036 0.003632263754753656 0.015091992713735363 -0.0005884370890273515 -0.004842411079867953 0.0006720874520259948 0.007698406424412551
 0.0006758213959244814 0.0076979542623467805 -0.0005884370890273515 -0.004842411079867953 0.0036314986317940107 0.015091414589122651 0.995791136889377 -0.03701647592715036
 -0.0005885689836762919 -0.004842411741967351 0.0006720874520259948 0.007698406424412551 0.995791136889377 -0.03701647592715036 0.0036322260349796113 0.015091324470526869
0.055454545454549996 0.003912084092599511 0.016812774286323728 0.9954188112264613 -0.04109280387370415 0.0007866370766199995 0.008536076960544526 -0.0006822615859701009 -0.005372447607247467
 0.9954188112264613 -0.04109280387370415 0.003913029354070427 0.016812671770884708 -0.0006820999765022799 -0.005372448632657441 0.0007820481148600105 0.008536636184609453
 0.0007866370766199995 0.008536076960544526 -0.0006820999765022799 -0.005372448632657441 0.0039120897409960585 0.01681203832980812 0.9954187906316543 -0.041093544042896835
 -0.0006822615859701009 -0.005372447607247467 0.0007820481148600105 0.008536636184609453 0.9954187906316543 -0.041093544042896835 0.003912983432248888 0.016811931024162445
0.056273447269699996 0.003955749898734672 0.017073319500295354 0.9953608301367916 -0.04170824150393637 0.0008041210810271781 0.00866239385933697 -0.0006970362525762142 -0.005452357108047771
 0.9953608301367916 -0.04170824150393637 0.003956723196456563 0.01707321442881169 -0.000696869909777225 -0.005452358428348907 0.0007993956073191724 0.008662970527105645
 0.0008041210810271781 0.00866239385933697 -0.000696869909777225 -0.005452358428348907 0.003955755738858635 0.017072572800606724 0.995360808966649 -0.04170899259015979
 -0.0006970362525762142 -0.005452357108047771 0.0007993956073191724 0.008662970527105645 0.995360808966649 -0.04170899259015979 0.00395667597169463 0.01707246275670095
0.06252605252188 0.004301205158225473 0.019073063364815995 0.9949018699457817 -0.0464159318475718 0.0009444206658055832 0.009626847680336989 -0.0008155387375918077 -0.006062674573240997
 0.9949018699457817 -0.0464159318475718 0.004302405974021852 0.019072937573419727 -0.0008153340629997464 -0.006062678516000137 0.0009385867463965874 0.009627569474227495
 0.0009444206658055832 0.009626847680336989 -0.0008153340629997464 -0.006062678516000137 0.004301212551681214 0.019072234775361567 0.9949018441171389 -0.046416766295046576
 -0.0008155387375918077 -0.006062674573240997 0.0009385867463965874 0.009627569474227495 0.9949018441171389 -0.046416766295046576 0.004302348223424905 0.019072102502079524
0.06877865777407 0.004668244815318817 0.02109086865836961 0.9944139042423399 -0.0511387268568945 0.0010968239220596461 0.01059113863286384 -0.0009441840323026564 -0.0066731782561052595
 0.9944139042423399 -0.0511387268568945 0.004669696925621665 0.021090719940653944 -0.0009439371724810224 -0.006673185515947353 0.0010897645648509432 0.010592027871367102
 0.0010968239220596461 0.01059113863286384 -0.0009439371724810224 -0.006673185515947353 0.004668253920451732 0.02108995843275098 0.9944138732883209 -0.05113964468129992
 -0.0009441840323026564 -0.0066731782561052595 0.0010897645648509432 0.010592027871367102 0.9944138732883209 -0.05113964468129992 0.004669627641270548 0.02108980150973305
0.07503126302626001 0.005057250209088031 0.02312631215727928 0.9938965654856763 -0.05587643937948638 0.0012614315214876256 0.011555083709636678 -0.0010830763624335967 -0.0072836800003510714
 0.9938965654856763 -0.05587643937948638 0.005058977377793033 0.023126138195776996 -0.0010827834941792385 -0.007283691326486258 0.0012530296767895247 0.011556164425614699
 0.0012614315214876256 0.011555083709636678 -0.0010827834941792385 -0.007283691326486258 0.005057261179921706 0.023125320557551243 0.993896528937532 -0.05587744060843673
 -0.0010830763624335967 -0.0072836800003510714 0.0012530296767895247 0.011556164425614699 0.993896528937532 -0.05587744060843673 0.005058895564664816 0.02312513644679762
0.08128386827845 0.0054685991432324044 0.02517898270738276 0.9933494880309451 -0.060628854248681 0.0014383408680911352 0.012518494495530908 -0.0012323164752944757 -0.007893988946918989
 0.9933494880309451 -0.060628854248681 0.005470625125712972 0.02517878107223097 -0.001231973805793674 -0.00789400514316622 0.0014284794499116811 0.012519792452165508
 0.0014383408680911352 0.012518494495530908 -0.001231973805793674 -0.00789400514316622 0.005468612129886896 0.025177910014533286 0.9933494454169274 -0.06062993891145618
 -0.0012323164752944757 -0.007893988946918989 0.0014284794499116811 0.012519792452165508 0.9933494454169274 -0.06062993891145618 0.005470529801459223 0.02517769605895283
0.08753647353064001 0.00590266581317856 0.027248476539328607 0.9927723084652663 -0.06539573294841372 0.001627645938210314 0.013481177527525305 -0.0013920015209919802 -0.008503911262285174
 0.9927723084652663 -0.06539573294841372 0.0059050143602657045 0.027248244686752097 -0.0013916052880620557 -0.008503933187078616 0.0016162078471938087 0.013482720233975619
 0.001627645938210314 0.013481177527525305 -0.0013916052880620557 -0.008503933187078616 0.005902680962159622 0.027247323049184455 0.9927722593107032 -0.06539690108011678
 -0.0013920015209919802 -0.008503911262285174 0.0016162078471938087 0.013482720233975619 0.9927722593107032 -0.06539690108011678 0.005904904555151389 0.027247076470985065
0.09378907878283 0.006359820700276832 0.029334393930414444 0.9921646659163808 -0.0701768169419709 0.0018294371238085213 0.014442934574506208 -0.0015622249292703842 -0.009113249956278031
 0.9921646659163808 -0.0701768169419709 0.006362515562869345 0.029334129200905112 -0.0015617714017879065 -0.00911327852265258 0.00181630527222351 0.014444751301063744
 0.0018294371238085213 0.014442934574506208 -0.0015617714017879065 -0.00911327852265258 0.006359838155571958 0.029333159951779965 0.9921646097434037 -0.07017806858555824
 -0.0015622249292703842 -0.009113249956278031 0.00181630527222351 0.014444751301063744 0.9921646097434037 -0.07017806858555824 0.0063623903194247695 0.02933287785064948
0.100041684035 0.006840430440465831 0.031436336760926824 0.9915262023390167 -0.07497183011727925 0.0020438010802238536 0.015403562857313707 -0.0017430762819571435 -0.0097218047692155
 0.9915262023390167 -0.07497183011727925 0.006843495372487119 0.031436036377414094 -0.0017425617600989607 -0.009721840944797711 0.002028858418150447 0.015405684650155781
 0.0020438010802238536 0.015403562857313707 -0.0017425617600989607 -0.009721840944797711 0.00684045034367109 0.031435022617278735 0.9915261386659145 -0.07497316532190305
 -0.0017430762819571435 -0.0097218047692155 0.002028858418150447 0.015405684650155781 0.9915261386659145 -0.07497316532190305 0.006843353746356388 0.031434701968382835
0.1059090909091 0.007313086729081209 0.033423007297486165 0.9908987243781132 -0.07948385007020976 0.002256467495202222 0.01630379954769892 -0.0019225284019475657 -0.010291974669495574
 0.9908987243781132 -0.07948385007020976 0.007316520542996148 0.03342267082410405 -0.0019219533068015483 -0.01029201891413576 0.0022397191817594875 0.016306237443540844
 0.002256467495202222 0.01630379954769892 -0.0019219533068015483 -0.01029201891413576 0.007313109056644811 0.033421618235468284 0.9908986532255818 -0.07948526373761632
 -0.0019225284019475657 -0.010291974669495574 0.0022397191817594875 0.016306237443540844 0.9908986532255818 -0.07948526373761632 0.007316362695368326 0.033421258549706595
0.1062942892872 0.007344857673826587 0.03355390668769171 0.9908565627861828 -0.0797804806261089 0.002270820576064695 0.016362855229763017 -0.0019346411827906441 -0.010329372107914002
 0.9908565627861828 -0.0797804806261089 0.007348316437130546 0.03355356775336414 -0.0019340619986269317 -0.01032941691487157 0.0022539501188866143 0.016365314925213512
 0.002270820576064695 0.016362855229763017 -0.0019340619986269317 -0.01032941691487157 0.007344880164794192 0.033552512718447475 0.9908564911275577 -0.07978189944597872
 -0.0019346411827906441 -0.010329372107914002 0.0022539501188866143 0.016365314925213512 0.9908564911275577 -0.07978189944597872 0.007348157496161188 0.03355215037026302
0.11254689453939999 0.007873460880675065 0.03568670376350268 0.9901553956705036 -0.08460246228915089 0.002510574344831108 0.017320600340740098 -0.002137001125792805 -0.010935745010524776
 0.9901553956705036 -0.08460246228915089 0.007877337248557756 0.035686323259455956 -0.0021363536436706794 -0.010935799525537864 0.0024916592020893186 0.017323432578998526
 0.002510574344831108 0.017320600340740098 -0.0021363536436706794 -0.010935799525537864 0.007873486098316803 0.03568523032375297 0.9901553155367351 -0.08460396478376801
 -0.002137001125792805 -0.010935745010524776 0.0024916592020893186 0.017323432578998526 0.9901553155367351 -0.08460396478376801 0.007877160073349349 0.0356848229957078
0.11879949979160001 0.008426594206965975 0.03783432536688891 0.98942235301775 -0.08943745570259927 0.0027631369390459255 0.01827658277385503 -0.002350233361902274 -0.011540713144015115
 0.98942235301775 -0.08943745570259927 0.00843091196806074 0.037833900149622506 -0.002349513979042769 -0.011540778498182002 0.0027420603439702314 0.018279824012184778
 0.0027631369390459255 0.01827658277385503 -0.002349513979042769 -0.011540778498182002 0.008426622289566397 0.037832772827032624 0.9894222639145358 -0.08943904193717718
 -0.002350233361902274 -0.011540713144015115 0.0027420603439702314 0.018279824012184778 0.9894222639145358 -0.08943904193717718 0.008430715651762994 0.03783231710695396
0.1250521050438 0.009004607279900404 0.03999636537290843 0.9886570907132755 -0.09428512911577251 0.0030285785852540276 0.019230583180777257 -0.002574410765329008 -0.012144062818049242
 0.9886570907132755 -0.09428512911577251 0.009009390242102394 0.039995892171578326 -0.0025736159123742313 -0.012144140196840738 0.0030052239255672175 0.019234271706111895
 0.0030285785852540276 0.019230583180777257 -0.0025736159123742313 -0.012144140196840738 0.00900463836618304 0.03999473411670516 0.9886569921419269 -0.09428679916311218
 -0.002574410765329008 -0.012144062818049242 0.0030052239255672175 0.019234271706111895 0.9886569921419269 -0.09428679916311218 0.009009173890904389 0.03999422645810442
0.131304710296 0.009607845019019831 0.042172413494906746 0.9878592687460972 -0.09914513915032123 0.0033069650409400025 0.020182378406821008 -0.002809601699455042 -0.012745577017127672
 0.9878592687460972 -0.09914513915032123 0.009613117013098853 0.04217188890841371 -0.002808727840984653 -0.012745667660263933 0.003281215890518406 0.02018655434780655
 0.0033069650409400025 0.020182378406821008 -0.002808727840984653 -0.012745667660263933 0.0096078792479203 0.04217070392399567 0.9878591602024149 -0.09914689308633637
 -0.002809601699455042 -0.012745577017127672 0.003281215890518406 0.02018655434780655 0.9878591602024149 -0.09914689308633637 0.00961287974562654 0.04217014064304654
0.1375573155481 0.010105523160521676 0.04407836507522374 0.9871597402788456 -0.10373327472161561 0.0035654828780082946 0.021104161703997433 -0.003023028406609365 -0.013317458621113862
 0.9871597402788456 -0.10373327472161561 0.01011131089050095 0.04407779751031328 -0.0030220705431930534 -0.013317562758217742 0.003537275615979285 0.021108822260474586
 0.0035654828780082946 0.021104161703997433 -0.0030220705431930534 -0.013317562758217742 0.010105561751411748 0.044076576888732115 0.9871596213097594 -0.10373511254833127
 -0.003023028406609365 -0.013317458621113862 0.003537275615979285 0.021108822260474586 0.9871596213097594 -0.10373511254833127 0.01011105064911812 0.04407596737806525
0.1438099208003 0.010620911157991544 0.04597289604615438 0.9864351897684265 -0.10830838527393045 0.0038344032966543097 0.022021361761966538 -0.0032449380759269645 -0.013885143854087057
 0.9864351897684265 -0.10830838527393045 0.010627238948349068 0.04597228285721363 -0.0032438924569824896 -0.013885262708168075 0.003803631282844956 0.022026544022162507
 0.0038344032966543097 0.022021361761966538 -0.0032438924569824896 -0.013885262708168075 0.010620954445080573 0.045971029578588576 0.9864350598740657 -0.1083103070574749
 -0.0032449380759269645 -0.013885143854087057 0.003803631282844956 0.022026544022162507 0.9864350598740657 -0.1083103070574749 0.01062695465609544 0.04597037104402548
0.1500625260525 0.01115380594451417 0.047855807315161945 0.9856858252720511 -0.11287031548004801 0.00411361971090664 0.022933857347113725 -0.0034752271820030606 -0.014448519348276938
 0.9856858252720511 -0.11287031548004801 0.011160698163813312 0.04785514571160203 -0.003474090071738533 -0.014448654190953123 0.004080177089294564 0.02293959974975629
 0.00411361971090664 0.022933857347113725 -0.003474090071738533 -0.014448654190953123 0.01115385427509501 0.04785386291217549 0.985685683948346 -0.11287232128739706
 -0.0034752271820030606 -0.014448519348276938 0.004080177089294564 0.02293959974975629 0.985685683948346 -0.11287232128739706 0.011160388741769552 0.047853152413720346
0.15631513130469998 0.011704002749406398 0.049726905738541806 0.984911856195868 -0.11741891150373812 0.0044030241196080094 0.023841529601286715 -0.0037137907839668795 -0.015007474402273471
 0.984911856195868 -0.11741891150373812 0.01171148381135949 0.04972619278210003 -0.0037125584618773783 -0.01500762655342054 0.004366805832905023 0.02384787191864581
