! Created with skrf 1.8.0 (http://scikit-rf.org).
# GHz S RI R 50.0 
!freq ReS11 ImS11 ReS12 ImS12 ReS13 ImS13
! ReS14 ImS14
! ReS21 ImS21 ReS22 ImS22 ReS23 ImS23
! ReS24 ImS24
! ReS31 ImS31 ReS32 ImS32 ReS33 ImS33
! ReS34 ImS34
! ReS41 ImS41 ReS42 ImS42 ReS43 ImS43
! ReS44 ImS44
!
0.0 0.001444285503882 0.0 0.9985557144961 0.0 5.568377957827e-05 0.0 -5.568377947808e-05 6.819296230225774e-21
 0.9985557144961 0.0 0.001444285503866 0.0 -5.568377947764e-05 6.81929623017189e-21 5.568377957728e-05 0.0
 5.568377957827e-05 0.0 -5.568377947764e-05 6.81929623017189e-21 0.001444285497031 0.0 0.9985557144893 0.0
 -5.568377947808e-05 6.819296230225774e-21 5.568377957728e-05 0.0 0.9985557144893 0.0 0.001444285497028 0.0
0.005 0.0015536890278501543 0.0011790953768688879 0.9984173386792402 -0.003025898290485453 7.826464644212591e-05 0.0006293726374430436 -7.592977416925257e-05 -0.0003923322636323602
 0.9984173386792402 -0.003025898290485453 0.0015536994628703486 0.0011790892174304084 -7.593177375225807e-05 -0.00039233370552118095 7.820532403684795e-05 0.000629395351062956
 7.826464644212591e-05 0.0006293726374430436 -7.593177375225807e-05 -0.00039233370552118095 0.001553688816749639 0.0011791627135628916 0.9984173390231108 -0.003025831219335711
 -7.592977416925257e-05 -0.0003923322636323602 7.820532403684795e-05 0.000629395351062956 0.9984173390231108 -0.003025831219335711 0.0015537003595985461 0.0011791560219523976
0.006252605252188 0.0015823018148859887 0.0014785310276736866 0.9983809310993328 -0.0037831265409517564 8.467398392881579e-05 0.0007870183028714696 -8.16100401726633e-05 -0.000490930933525734
 0.9983809310993328 -0.0037831265409517564 0.0015823181268499586 0.001478523153619403 -8.161315246940234e-05 -0.000490932709624857 8.458129931219576e-05 0.0007870477654334974
 8.467398392881579e-05 0.0007870183028714696 -8.161315246940234e-05 -0.000490932709624857 0.001582301427741883 0.0014786151630001563 0.9983809315792136 -0.0037830427295975563
 -8.16100401726633e-05 -0.000490930933525734 8.458129931219576e-05 0.0007870477654334974 0.9983809315792136 -0.0037830427295975563 0.001582319470446238 0.001478606638340483
0.01250521050438 0.0017324576985755678 0.002988250435102169 0.9981886561407696 -0.007567150604290871 0.00012120841874362067 0.0015743770712928903 -0.00011364633819046291 -0.000984308667705759
 0.9981886561407696 -0.007567150604290871 0.0017325228382846084 0.002988232922764158 -0.00011365861311093874 -0.0009843119322289256 0.00012083885219599184 0.001574447514435706
 0.00012120841874362067 0.0015743770712928903 -0.00011365861311093874 -0.0009843119322289256 0.0017324555649121235 0.0029884184051032635 0.9981886574614248 -0.007566983200606696
 -0.00011364633819046291 -0.000984308667705759 0.00012083885219599184 0.001574447514435706 0.9981886574614248 -0.007566983200606696 0.0017325275982464448 0.002988399732829125
0.01875781575657 0.001895065212591947 0.004519661218023391 0.9979786619094075 -0.011361301524217963 0.00016536872888415772 0.0023626314090235516 -0.0001518883250053909 -0.0014794118395096043
 0.9979786619094075 -0.011361301524217963 0.0018952115970126738 0.004519632188645029 -0.00015191571230150012 -0.0014794162492860943 0.00016453862569878742 0.002362756523631028
 0.00016536872888415772 0.0023626314090235516 -0.00015191571230150012 -0.0014794162492860943 0.0018950600178087957 0.004519912810400127 0.9979786644613315 -0.011361050654873778
 -0.0001518883250053909 -0.0014794118395096043 0.00016453862569878742 0.002362756523631028 0.9979786644613315 -0.011361050654873778 0.001895221857539277 0.004519882238574196
0.02501042100875 0.002070428100937188 0.006070631437316009 0.9977507122143665 -0.015167434743180401 0.00021723795994217765 0.003151828778794198 -0.00019642874818044448 -0.001976021880296283
 0.9977507122143665 -0.015167434743180401 0.002070688086391426 0.006070588905639624 -0.0001964771314157579 -0.0019760270308495282 0.0002157636418434892 0.0031520243399909688
 0.00021723795994217765 0.003151828778794198 -0.0001964771314157579 -0.0019760270308495282 0.0020704185252403396 0.00607096651891632 0.9977507163708018 -0.01516710045015704
 -0.00019642874818044448 -0.001976021880296283 0.0002157636418434892 0.0031520243399909688 0.9977507163708018 -0.01516710045015704 0.0020707058994713563 0.0060709221774332646
0.03126302626094 0.0022588374587509696 0.0076400720557823565 0.9975045582336727 -0.018986353945823323 0.00027689982182098273 0.003941942507454036 -0.00024735787898157017 -0.0024739894687060542
 0.9975045582336727 -0.018986353945823323 0.0022592433561877505 0.007640013931161188 -0.0002474330869039781 -0.002473994893442067 0.0002745974095831752 0.003942226384203893
 0.00027689982182098273 0.003941942507454036 -0.0002474330869039781 -0.002473994893442067 0.00225882219706728 0.007640490488905983 0.9975045643726405 -0.0189859362698198
 -0.00024735787898157017 -0.0024739894687060542 0.0002745974095831752 0.003942226384203893 0.9975045643726405 -0.0189859362698198 0.0022592707645342257 0.007640430390903959
0.037515631513130004 0.002460578190690245 0.009227279124420255 0.9972399451481828 -0.022818468814595212 0.0003444378368936388 0.004732916835542756 -0.0003047641946751285 -0.0029731894733343407
 0.9972399451481828 -0.022818468814595212 0.0024611622755430444 0.009227203211331232 -0.00030487200705353053 -0.00297319464323776 0.00034112316926789867 0.004733309010380491
 0.0003444378368936388 0.004732916835542756 -0.00030487200705353053 -0.00297319464323776 0.0024605559457664943 0.009227780776434947 0.9972399536465469 -0.022817967785190574
 -0.0003047641946751285 -0.0029731894733343407 0.00034112316926789867 0.004733309010380491 0.9972399536465469 -0.022817967785190574 0.0024612013067891606 0.009227702818942808
0.043768236765320004 0.0026759314946596573 0.010831733597193978 0.9969566148028934 -0.026663995148752354 0.0004199349476819025 0.0055246806052551035 -0.00036873462628317545 -0.003473507258878028
 0.9969566148028934 -0.026663995148752354 0.00267672601476352 0.010831637595402514 -0.00036888077734351316 -0.0034735115823173804 0.00041542354105312293 0.005525203197128715
 0.0004199349476819025 0.0055246806052551035 -0.00036888077734351316 -0.0034735115823173804 0.0026759009780567837 0.01083231834359555 0.9969566260373919 -0.02666341078114033
 -0.00036873462628317545 -0.003473507258878028 0.00041542354105312293 0.005525203197128715 0.9969566260373919 -0.02666341078114033 0.002676778683074313 0.010832220307802235
0.050020842017509996 0.0029051760231824024 0.012453018606604641 0.9966543070475627 -0.030523037520637154 0.0005034732828884834 0.006317152921072852 -0.000439354655271063 -0.003974833021376745
 0.9966543070475627 -0.030523037520637154 0.002906213204785693 0.012452900111115522 -0.00043954483573465584 -0.003974835843982796 0.0004975803128694025 0.006317830209530216
 0.0005034732828884834 0.006317152921072852 -0.00043954483573465584 -0.003974835843982796 0.0029051359557767 0.012453686318987873 0.9966543213969169 -0.030522369827526003
 -0.000439354655271063 -0.003974833021376745 0.0004975803128694025 0.006317830209530216 0.9966543213969169 -0.030522369827526003 0.0029062815128754 0.012453565870178856
0.055454545454549996 0.00311589278723253 0.013875355822894604 0.9963759775065064 -0.03388766659281646 0.0005826641390404705 0.007006342710157146 -0.0005061912067904281 -0.004411235197217862
 0.9963759775065064 -0.03388766659281646 0.003117167008690551 0.013875215745151576 -0.0005064242390407576 -0.00441123613533277 0.0005754201796588271 0.0070071758492530395
 0.0005826641390404705 0.007006342710157146 -0.0005064242390407576 -0.00441123613533277 0.0031158433870847138 0.013876095533441676 0.9963759948703952 -0.03388692649013055
 -0.0005061912067904281 -0.004411235197217862 0.0005754201796588271 0.0070071758492530395 0.9963759948703952 -0.03388692649013055 0.0031172505243635606 0.013875953620816905
0.056273447269699996 0.00314858848508108 0.014090778854484821 0.9963327605232557 -0.034395629817068986 0.0005951339955170745 0.0071102459227267885 -0.0005167083405567423 -0.004477059013523049
 0.9963327605232557 -0.034395629817068986 0.003149900539113812 0.01409063535548024 -0.000516948199126289 -0.004477059618099213 0.0005876742914481365 0.007111104372679932
 0.0005951339955170745 0.0071102459227267885 -0.000516948199126289 -0.004477059618099213 0.0031485375953636493 0.014091529408153752 0.9963327783663105 -0.03439487880099398
 -0.0005167083405567423 -0.004477059013523049 0.0005876742914481365 0.007111104372679932 0.9963327783663105 -0.03439487880099398 0.0031499864763347347 0.01409138409552467
0.06252605252188 0.0034064439709534464 0.015744698293289755 0.9959917131735605 -0.038281757492288716 0.0006949971368200035 0.007903866306074392 -0.0006008783101631762 -0.004980078024820508
 0.9959917131735605 -0.038281757492288716 0.003408063097953526 0.01574452717574223 -0.0006011734543621459 -0.004980075631253661 0.000685785185017048 0.007904934592798776
 0.0006949971368200035 0.007903866306074392 -0.0006011734543621459 -0.004980075631253661 0.00340638099511382 0.01574553156148477 0.9959917348902537 -0.03828092315126451
 -0.0006008783101631762 -0.004980078024820508 0.000685785185017048 0.007904934592798776 0.9959917348902537 -0.03828092315126451 0.0034081686414800523 0.01574535881775927
0.06877865777407 0.0036790161303359484 0.017414486809568277 0.9956309026125306 -0.04218137082097988 0.0008031415484416854 0.008697916237339783 -0.0006919457341950581 -0.005483782471357292
 0.9956309026125306 -0.04218137082097988 0.0036809745258660955 0.01741428535283582 -0.0006923017309974522 -0.005483776236550425 0.0007919915014870853 0.008699225271581556
 0.0008031415484416854 0.008697916237339783 -0.0006923017309974522 -0.005483776236550425 0.0036789398113517688 0.01741540266374029 0.9956309285836025 -0.042180453148127184
 -0.0006919457341950581 -0.005483782471357292 0.0007919915014870853 0.008699225271581556 0.9956309285836025 -0.042180453148127184 0.0036811016397537196 0.017415199804654915
0.07503126302626001 0.003966577259879198 0.019099871785248548 0.9952500664058793 -0.046094393276773234 0.0009196447674393802 0.009492293926567799 -0.0007899902843110821 -0.00598806382966607
 0.9952500664058793 -0.046094393276773234 0.003968907119473361 0.01909963716243907 -0.0007904126604981295 -0.005988052847471901 0.0009063704577444413 0.009493876879576793
 0.0009196447674393802 0.009492293926567799 -0.0007904126604981295 -0.005988052847471901 0.003966486348691343 0.01910087009642013 0.995250097014135 -0.04609339225886239
 -0.0007899902843110821 -0.00598806382966607 0.0009063704577444413 0.009493876879576793 0.995250097014135 -0.04609339225886239 0.003969057756122771 0.01910063432004959
0.08128386827845 0.0042693983373493175 0.02080059248544318 0.9948489423018688 -0.05002072708737655 0.001044582937127254 0.010286894019394175 -0.0008950900860124279 -0.00649281225565329
 0.9948489423018688 -0.05002072708737655 0.004272131861541846 0.020800321762657756 -0.0008955843282739242 -0.006492795556832142 0.0010289978945357487 0.010288786347802174
 0.001044582937127254 0.010286894019394175 -0.0008955843282739242 -0.006492795556832142 0.00426929159094375 0.020801673122687377 0.9948489779312166 -0.05001964270636455
 -0.0008950900860124279 -0.00649281225565329 0.0010289978945357487 0.010288786347802174 0.9948489779312166 -0.05001964270636455 0.004272307960570562 0.020801401508499594
0.08753647353064001 0.00458774901840822 0.022516396170607217 0.99442726842748 -0.053960257069254725 0.0011780307237050163 0.01108160786195022 -0.0010073216645403974 -0.00699791633398313
 0.99442726842748 -0.053960257069254725 0.004590918417295414 0.022516086306043973 -0.0010078932195467247 -0.006997892886151639 0.0011599481953285106 0.01108384733248286
 0.0011780307237050163 0.01108160786195022 -0.0010078932195467247 -0.006997892886151639 0.004587625200254567 0.022517559000133903 0.9944273094635809 -0.05395908930301952
 -0.0010073216645403974 -0.00699791633398313 0.0011599481953285106 0.01108384733248286 0.9944273094635809 -0.05395908930301952 0.004591121906028728 0.022517248508069635
0.09378907878283 0.004921897607023306 0.0242470353262956 0.9939847834614746 -0.05791285334842472 0.0013200612346546796 0.011876323701626779 -0.0011267598875132408 -0.007503262895208139
 0.9939847834614746 -0.05791285334842472 0.004925535105467234 0.02424668316917908 -0.0011274141618255239 -0.007503231602812885 0.0012992942074746706 0.011878950415594426
 0.0013200612346546796 0.011876323701626779 -0.0011274141618255239 -0.007503231602812885 0.004921755486847615 0.024248280211490298 0.993984830292321 -0.05791160217075912
 -0.0011267598875132408 -0.007503262895208139 0.0012992942074746706 0.011878950415594426 0.993984830292321 -0.05791160217075912 0.004925767899026046 0.024247927680716878
0.100041684035 0.005272111009420963 0.025992265620135974 0.9935212267942161 -0.06187837335821626 0.0014707459404010195 0.012670926833474943 -0.0012534779035963605 -0.00800873689123548
 0.9935212267942161 -0.06187837335821626 0.0052762488515876475 0.025991867909461223 -0.0012542202635296685 -0.008008696595522178 0.0014471071655143093 0.012673983250890409
 0.0014707459404010195 0.012670926833474943 -0.0012542202635296685 -0.008008696595522178 0.005271949362743583 0.02599359242463034 0.9935212798096988 -0.061877038735723686
 -0.0012534779035963605 -0.00800873689123548 0.0014471071655143093 0.012673983250890409 0.9935212798096988 -0.061877038735723686 0.005276512852475497 0.025993194572238188
0.1059090909091 0.005615596392747287 0.027643033440416 0.9930668321537113 -0.06561121043935148 0.0016200806091967047 0.01341637042066504 -0.0013790738102114485 -0.008483082313772976
 0.9930668321537113 -0.06561121043935148 0.005620233101807859 0.027642589917277784 -0.0013799036736717662 -0.008483032459224382 0.0015935765159889718 0.013419870808217178
 0.0016200806091967047 0.01341637042066504 -0.0013799036736717662 -0.008483032459224382 0.005615415313621045 0.027644436990335617 0.9930668913294117 -0.06560979747925111
 -0.0013790738102114485 -0.008483082313772976 0.0015935765159889718 0.013419870808217178 0.9930668913294117 -0.06560979747925111 0.005620528106585462 0.02764399351247718
0.1062942892872 0.005638654673180661 0.02775184438099085 0.9930363386752135 -0.06585666331927287 0.001630154595982716 0.013465299715968751 -0.0013875470798401354 -0.008514221305156836
 0.9930363386752135 -0.06585666331927287 0.0056433251275682834 0.02775139774410922 -0.001388382851182682 -0.00851417078416714 0.0016034566150111844 0.013468830679451895
 0.001630154595982716 0.013465299715968751 -0.001388382851182682 -0.00851417078416714 0.005638472280940589 0.027753252964962737 0.9930363982675067 -0.0658552452150097
 -0.0013875470798401354 -0.008514221305156836 0.0016034566150111844 0.013468830679451895 0.9930363982675067 -0.0658552452150097 0.005643622225897799 0.027752806384345956
0.11254689453939999 0.00602179251658046 0.02952552942448407 0.9925298603535349 -0.0698475593774271 0.0017983551646994019 0.014259322064929062 -0.0015290369364101518 -0.009019597087062884
 0.9925298603535349 -0.0698475593774271 0.006027027880901677 0.02952503037548342 -0.001529971404167134 -0.009019535055625008 0.0017684103374692492 0.014263374823149474
 0.0017983551646994019 0.014259322064929062 -0.001529971404167134 -0.009019535055625008 0.006021588164924253 0.0295270196435303 0.9925299269174855 -0.06984605775201144
 -0.0015290369364101518 -0.009019597087062884 0.0017684103374692492 0.014263374823149474 0.9925299269174855 -0.06984605775201144 0.006027359954150547 0.02952652080271926
0.11879949979160001 0.006421786850069596 0.031313078139289234 0.9920015342134366 -0.07385088848548801 0.0019754137419596344 0.015052870930737958 -0.0016780150802746443 -0.009524743110608306
 0.9920015342134366 -0.07385088848548801 0.0064276194559338105 0.031312523077281905 -0.0016790534882881677 -0.009524668220355957 0.0019420342754849478 0.015057495161583861
 0.0019754137419596344 0.015052870930737958 -0.0016790534882881677 -0.009524668220355957 0.006421559330002738 0.03131464984962768 0.9920016081464955 -0.07384930329193218
 -0.0016780150802746443 -0.009524743110608306 0.0019420342754849478 0.015057495161583861 0.9920016081464955 -0.07384930329193218 0.006427988368981702 0.031314095089331674
0.1250521050438 0.006838898290803239 0.03311424677299961 0.9914511039056183 -0.07786646909042139 0.00216139447962508 0.01584582076519496 -0.0018345471374044344 -0.010029536144185799
 0.9914511039056183 -0.07786646909042139 0.006845360508829134 0.033113631980063826 -0.0018356946879841594 -0.010029446983569673 0.0021243924587040753 0.015851068598416503
 0.00216139447962508 0.01584582076519496 -0.0018356946879841594 -0.010029446983569673 0.006838646397875595 0.033115899825984826 0.9914511856079457 -0.07786480027957775
 -0.0018345471374044344 -0.010029536144185799 0.0021243924587040753 0.015851068598416503 0.9914511856079457 -0.07786480027957775 0.00684576811374184 0.03311528535752009
0.131304710296 0.007273385672268306 0.03492878985198243 0.9908783144754247 -0.0818941116911323 0.002356359510633473 0.016638043482621198 -0.0019986966843802976 -0.010533850832075663
 0.9908783144754247 -0.0818941116911323 0.00728050991691667 0.03492811149105794 -0.001999958537891735 -0.010533745926404641 0.0023155469293938136 0.01664396952212175
 0.002356359510633473 0.016638043482621198 -0.001999958537891735 -0.010533745926404641 0.007273108206425474 0.03493052409855467 0.9908784043507954 -0.08189235920733613
 -0.0019986966843802976 -0.010533850832075663 0.0023155469293938136 0.01664396952212175 0.9908784043507954 -0.08189235920733613 0.007280958052965392 0.034929846001510445
0.1375573155481 0.007623501197374034 0.036519048341225005 0.9903849523588847 -0.08569611931352192 0.0025352829928306305 0.017405234033325334 -0.0021454862374019907 -0.011013365416332277
 0.9903849523588847 -0.08569611931352192 0.007631321514976042 0.03651831941879135 -0.0021468697390076797 -0.011013244695589834 0.002490560925816859 0.017411827851265126
 0.0025352829928306305 0.017405234033325334 -0.0021468697390076797 -0.011013244695589834 0.007623195973202514 0.036520864296206136 0.9903850507768766 -0.0856942831552774
 -0.0021454862374019907 -0.011013365416332277 0.002490560925816859 0.017411827851265126 0.9903850507768766 -0.0856942831552774 0.007631813070782511 0.03652013425682971
0.1438099208003 0.007985850663935886 0.038101303022967485 0.9898743876596063 -0.08948888058089816 0.0027214485298591197 0.018169576549292174 -0.0022981626293251743 -0.011490286385557708
 0.9898743876596063 -0.08948888058089816 0.00799439975191004 0.03810052088497304 -0.002299673273064625 -0.011490148412066196 0.00267264495685664 0.018176887960302333
 0.0027214485298591197 0.018169576549292174 -0.002299673273064625 -0.011490148412066196 0.007985516309530235 0.038103200602207024 0.989874495020652 -0.0894869607016695
 -0.0022981626293251743 -0.011490286385557708 0.00267264495685664 0.018176887960302333 0.989874495020652 -0.0894869607016695 0.007994936738888458 0.03810241574557739
0.1500625260525 0.008360311727713524 0.03967543306503658 0.989346746461158 -0.09327231307392381 0.002914795891367749 0.01893100120602838 -0.0024566676077775193 -0.011964547757572306
 0.989346746461158 -0.09327231307392381 0.008369622330548379 0.039674594915730645 -0.002458310873927401 -0.011964391036375716 0.002861739739596727 0.01893908184188423
 0.002914795891367749 0.01893100120602838 -0.002458310873927401 -0.011964391036375716 0.008359946863935454 0.039677412185426385 0.989346863168133 -0.09327030942337433
 -0.0024566676077775193 -0.011964547757572306 0.002861739739596727 0.01893908184188423 0.989346863168133 -0.09327030942337433 0.008370206760690625 0.03967656948199549
0.15631513130469998 0.008746761238193488 0.04124132134013139 0.9888021554198465 -0.09704633442615221 0.0031152641751052913 0.019689439289969975 -0.002620942238124793 -0.012436084896810005
