! Created with skrf 1.8.0 (http://scikit-rf.org).
# GHz S RI R 50.0 
!freq ReS11 ImS11 ReS12 ImS12 ReS13 ImS13
! ReS14 ImS14
! ReS21 ImS21 ReS22 ImS22 ReS23 ImS23
! ReS24 ImS24
! ReS31 ImS31 ReS32 ImS32 ReS33 ImS33
! ReS34 ImS34
! ReS41 ImS41 ReS42 ImS42 ReS43 ImS43
! ReS44 ImS44
!
0.0 0.001786613424798 0.0 0.9982133865582 0.0 6.938256749286e-05 0.0 -6.938256753861e-05 8.496913925278379e-21
 0.9982133865582 0.0 0.001786613424792 0.0 -6.938256753736e-05 8.496913925125298e-21 6.938256749432e-05 0.0
 6.938256749286e-05 0.0 -6.938256753736e-05 8.496913925125298e-21 0.001786613433292 0.0 0.9982133865667 0.0
 -6.938256753861e-05 8.496913925278379e-21 6.938256749432e-05 0.0 0.9982133865667 0.0 0.001786613433345 0.0
0.005 0.0019230642155255722 0.0014597038331727633 0.9980406099181649 -0.003741646509575125 9.790776297228908e-05 0.000771640670875473 -9.493615147072682e-05 -0.0004829482926666337
 0.9980406099181649 -0.003741646509575125 0.0019230856847684465 0.0014596913486637816 -9.493441695276543e-05 -0.0004829470663894432 9.77829394406207e-05 0.0007716883571906151
 9.790776297228908e-05 0.000771640670875473 -9.493441695276543e-05 -0.0004829470663894432 0.0019230642050142915 0.0014596366274979454 0.9980406095427621 -0.0037417135674932107
 -9.493615147072682e-05 -0.0004829482926666337 9.77829394406207e-05 0.0007716883571906151 0.9980406095427621 -0.0037417135674932107 0.0019230849439767096 0.0014596244355350562
0.006252605252188 0.0019590911662752627 0.001830343416165449 0.9979946635940228 -0.004677934618524765 0.00010620152111166422 0.0009649047346980516 -0.00010226359947314627 -0.0006042965034340406
 0.9979946635940228 -0.004677934618524765 0.001959124725875894 0.0018303275436096322 -0.00010226089961342428 -0.0006042949942983588 0.00010600649949497427 0.0009649666806125926
 0.00010620152111166422 0.0009649047346980516 -0.00010226089961342428 -0.0006042949942983588 0.00195909121893719 0.0018302594197239107 0.9979946630768296 -0.004678018437649777
 -0.00010226359947314627 -0.0006042965034340406 0.00010600649949497427 0.0009649666806125926 0.9979946630768296 -0.004678018437649777 0.001959123638021777 0.0018302438958895033
0.01250521050438 0.0021501420004745742 0.0036987064987829754 0.9977492119787996 -0.009356390401372743 0.00015452506077937462 0.0019300225431354602 -0.00014444304158834237 -0.0012113656412902165
 0.9977492119787996 -0.009356390401372743 0.0021502759933561258 0.0036986720452807658 -0.0001444323919726548 -0.001211362887505705 0.00015374744274276325 0.001930171923886171
 0.00015452506077937462 0.0019300225431354602 -0.0001444323919726548 -0.001211362887505705 0.0021501427670011365 0.0036985388378290222 0.9977492104802554 -0.00935655777368136
 -0.00014444304158834237 -0.0012113656412902165 0.00015374744274276325 0.001930171923886171 0.9977492104802554 -0.00935655777368136 0.002150272225599984 0.0036985049136467906
0.01875781575657 0.0023602334687468337 0.0055932680203418465 0.9974766911491216 -0.014046694643374436 0.0002144716837649834 0.002895964896078743 -0.00019606104029193472 -0.0018202852413013578
 0.9974766911491216 -0.014046694643374436 0.002360534537196586 0.0055932120430250195 -0.00019603727841802177 -0.001820281569811506 0.00021272505294409272 0.002896232791901791
 0.0002144716837649834 0.002895964896078743 -0.00019603727841802177 -0.001820281569811506 0.0023602355914574976 0.005593016845436272 0.9974766882031273 -0.014046945464542425
 -0.00019606104029193472 -0.0018202852413013578 0.00021272505294409272 0.002896232791901791 0.9974766882031273 -0.014046945464542425 0.0023605265104708127 0.005592961414263411
0.02501042100875 0.0025898161251349874 0.00751130953035833 0.9971767458254194 -0.01875105550602943 0.0002861615779316761 0.0038627295492936996 -0.0002572520291867595 -0.002430737976354057
 0.9971767458254194 -0.01875105550602943 0.002590350769153297 0.0075112288736029955 -0.0002572100508792983 -0.002430733781393945 0.00028305952650433346 0.003863152462414696
 0.0002861615779316761 0.0038627295492936996 -0.0002572100508792983 -0.002430733781393945 0.0025898202391847645 0.0075109749620459135 0.9971767409731013 -0.01875138968316578
 -0.0002572520291867595 -0.002430737976354057 0.00028305952650433346 0.003863152462414696 0.9971767409731013 -0.01875138968316578 0.002590336923187552 0.007510894706893235
0.03126302626094 0.002839321722983097 0.009451399147156625 0.9968490046049918 -0.02347037822553425 0.00036971484053132465 0.004830223349379572 -0.00032814581301122124 -0.003042488522162525
 0.9968490046049918 -0.02347037822553425 0.0028401563389787053 0.009451290446359192 -0.00032808056290556685 -0.003042484265905126 0.0003648706281572217 0.004830843235011827
 0.00036971484053132465 0.004830223349379572 -0.00032808056290556685 -0.003042484265905126 0.0028393284495551513 0.009450981275534143 0.9968489973873892 -0.023470795678046413
 -0.00032814581301122124 -0.003042488522162525 0.0003648706281572217 0.004830843235011827 0.9968489973873892 -0.023470795678046413 0.0028401351232669567 0.009450872672346847
0.037515631513130004 0.0031091719427711363 0.011412578307957296 0.9964930890845364 -0.028205078309795253 0.0004652501705465228 0.005798316600797007 -0.0004088684935802017 -0.0036553292224719494
 0.9964930890845364 -0.028205078309795253 0.003110372851093482 0.011412437990799796 -0.00040877496056265057 -0.0036553254352619732 0.00045827658305987043 0.005799180918988672
 0.0004652501705465228 0.005798316600797007 -0.00040877496056265057 -0.0036553254352619732 0.003109181893282837 0.011412077198865112 0.9964930790459959 -0.028205578963382057
 -0.0004088684935802017 -0.0036553292224719494 0.00045827658305987043 0.005799180918988672 0.9964930790459959 -0.028205578963382057 0.003110342726742251 0.011411936517698753
0.043768236765320004 0.0033997817485950784 0.01339411430280657 0.9961086176154185 -0.032955328939558715 0.0005728842429830364 0.006766859583926968 -0.0004995427703799892 -0.004269063610050045
 0.9961086176154185 -0.032955328939558715 0.003401415215285092 0.01339393858951627 -0.0004994159849401845 -0.004269060890527425 0.0005633935371767451 0.006768021357754807
 0.0005728842429830364 0.006766859583926968 -0.0004994159849401845 -0.004269060890527425 0.003399795521948115 0.013393530011546454 0.9961086043007319 -0.03295591271280335
 -0.0004995427703799892 -0.004269063610050045 0.0005633935371767451 0.006768021357754807 0.9961086043007319 -0.03295591271280335 0.003401374651424373 0.013393353316639557
0.050020842017509996 0.0037115609192847703 0.015395398014244966 0.9956952072393346 -0.037721163163783114 0.0006927313166301823 0.007735689408036422 -0.0006002880259733306 -0.004883499599497941
 0.9956952072393346 -0.037721163163783114 0.0037136931758271334 0.015395182917036445 -0.0006001230587855955 -0.004883498614666636 0.0006803352105949512 0.0077372072841903755
 0.0006927313166301823 0.007735689408036422 -0.0006001230587855955 -0.004883498614666636 0.0037115791049401243 0.015394730573187045 0.9956951901964477 -0.03772182998066151
 -0.0006002880259733306 -0.004883499599497941 0.0006803352105949512 0.0077372072841903755 0.9956951901964477 -0.03772182998066151 0.0037136406509442606 0.015394513722442096
0.055454545454549996 0.0040000135053537104 0.01715019439927473 0.9953121416234351 -0.04187543078066676 0.0008068872153489904 0.008577730918400006 -0.000696107791247384 -0.005417884532681762
 0.9953121416234351 -0.04187543078066676 0.004002633000220074 0.017149941675171337 -0.0006959056702764633 -0.005417885650168997 0.0007916504911423177 0.008579610300353839
 0.0008068872153489904 0.008577730918400006 -0.0006959056702764633 -0.005417885650168997 0.004000035995774044 0.017149454721475586 0.9953121209751764 -0.0418761696930788
 -0.000696107791247384 -0.005417884532681762 0.0007916504911423177 0.008579610300353839 0.9953121209751764 -0.0418761696930788 0.004002568850858343 0.017149199449032808
0.056273447269699996 0.004044914812818411 0.017415893713366888 0.9952524748636264 -0.04250252404331224 0.0008249029445232038 0.008704633382263037 -0.0007112203155519106 -0.0054984461696418315
 0.9952524748636264 -0.04250252404331224 0.004047612074190076 0.01741563503516774 -0.0007110122765741403 -0.005498447654916768 0.0008092126358845351 0.008706571692477554
 0.0008249029445232038 0.008704633382263037 -0.0007110122765741403 -0.005498447654916768 0.004044937989425551 0.017415143146947032 0.9952524536426323 -0.04250327381836965
 -0.0007112203155519106 -0.0054984461696418315 0.0008092126358845351 0.008706571692477554 0.9952524536426323 -0.04250327381836965 0.004047546074039405 0.017414881790697778
0.06252605252188 0.004400244746114159 0.019455111488798176 0.9947800380574308 -0.04729929216876774 0.0009695077382407616 0.009673510879217303 -0.0008324523050979589 -0.006113711561747364
 0.9947800380574308 -0.04729929216876774 0.004403573228512851 0.019454804821352378 -0.0008321963431863942 -0.0061137163209813265 0.0009501339410997652 0.009675939701652746
 0.0009695077382407616 0.009673510879217303 -0.0008321963431863942 -0.0061137163209813265 0.004400273482745051 0.019454277806495637 0.9947800122110869 -0.047300124814326716
 -0.0008324523050979589 -0.006113711561747364 0.0009501339410997652 0.009675939701652746 0.9947800122110869 -0.047300124814326716 0.004403492245914153 0.019453967385632907
0.06877865777407 0.004777948169925143 0.021512590805065065 0.9942775156486645 -0.0521113020578822 0.0011266511613730954 0.01064213446725714 -0.0009640931813855823 -0.006729102217879622
 0.9942775156486645 -0.0521113020578822 0.004781974107512435 0.021512231526423464 -0.0009637844841393143 -0.006729111123371706 0.0011032041563861575 0.01064512968754388
 0.0011266511613730954 0.01064213446725714 -0.0009637844841393143 -0.006729111123371706 0.004777983025095757 0.02151167400063193 0.994277484731874 -0.05211221748497765
 -0.0009640931813855823 -0.006729102217879622 0.0011032041563861575 0.01064512968754388 0.994277484731874 -0.05211221748497765 0.004781876640444713 0.021511309744189248
0.07503126302626001 0.0051784187166348675 0.02358789008205469 0.9937445281990476 -0.056938352541278194 0.0012964353397119722 0.01161031064497323 -0.0011062485452231895 -0.007344422126401036
 0.9937445281990476 -0.056938352541278194 0.00518320837811709 0.023587473353384375 -0.0011058823390140298 -0.007344436118897694 0.0012685250340891076 0.011613954016520935
 0.0012964353397119722 0.01161031064497323 -0.0011058823390140298 -0.007344436118897694 0.005178460239365305 0.0235868901406422 0.9937444917695788 -0.056939350652664485
 -0.0011062485452231895 -0.007344422126401036 0.0012685250340891076 0.011613954016520935 0.9937444917695788 -0.056939350652664485 0.005183092930059986 0.023586467062717754
0.08128386827845 0.005602046172096072 0.025680579789306407 0.9931806984087594 -0.06178021364395784 0.0014789588834933282 0.01257784033724372 -0.0012590202921251808 -0.007959472415605096
 0.9931806984087594 -0.06178021364395784 0.0056076658774345065 0.025680100551051358 -0.001258591842368901 -0.007959492504275667 0.0014461948792612736 0.012582219540570165
 0.0014789588834933282 0.01257784033724372 -0.001258591842368901 -0.007959492504275667 0.005602094901565192 0.02567949668134267 0.9931806560270146 -0.06178129434043853
 -0.0012590202921251808 -0.007959472415605096 0.0014461948792612736 0.012582219540570165 0.9931806560270146 -0.06178129434043853 0.005607530955667491 0.025679009577390794
0.08753647353064001 0.00604921639371511 0.027790237662847602 0.9925856514718274 -0.0666366313552979 0.0016743167153014168 0.013544519271298107 -0.0014225064873900207 -0.008574051077217397
 0.9925856514718274 -0.0666366313552979 0.006055732530697235 0.02778969063015659 -0.0014220110988485098 -0.008574078339617446 0.0016363083837908547 0.01354972797221551
 0.0016743167153014168 0.013544519271298107 -0.0014220110988485098 -0.008574078339617446 0.00604927285997068 0.027789071349232385 0.9925856027014283 -0.06663779453063749
 -0.0014225064873900207 -0.008574051077217397 0.0016363083837908547 0.01354972797221551 0.9925856027014283 -0.06663779453063749 0.006055576646311054 0.027788514791660585
0.09378907878283 0.006520311194401944 0.029916445306622286 0.9919590154013979 -0.07150733102574723 0.0018825999050117747 0.014510138250122427 -0.0015968012336974502 -0.009187952802724901
 0.9919590154013979 -0.07150733102574723 0.006527790234963226 0.029915824964175153 -0.0015962342509488307 -0.00918798838473393 0.0018389564669711023 0.01451627615674766
 0.0018825999050117747 0.014510138250122427 -0.0015962342509488307 -0.00918798838473393 0.006520375918014334 0.02991519573617194 0.9919589598089363 -0.07150857656941982
 -0.0015968012336974502 -0.009187952802724901 0.0018389564669711023 0.01451627615674766 0.9919589598089363 -0.07150857656941982 0.006527611901297381 0.02991456406940323
0.100041684035 0.007015708198627649 0.03205878571382604 0.991300421332415 -0.07639201985575125 0.002103895506893106 0.01547448338570581 -0.001781994536724841 -0.009800968870295879
 0.991300421332415 -0.07639201985575125 0.007024216715206244 0.03205808630993642 -0.0017813513446426816 -0.009801013986061072 0.0020542261173388168 0.015481656304013576
 0.002103895506893106 0.01547448338570581 -0.0017813513446426816 -0.009801013986061072 0.007015781691219766 0.032057452821553284 0.9913003584878073 -0.07639334765484283
 -0.001781994536724841 -0.009800968870295879 0.0020542261173388168 0.015481656304013576 0.9913003584878073 -0.07639334765484283 0.007024014447787936 0.032056740156229085
0.1059090909091 0.007503020900115602 0.0340834456597266 0.9906530096132383 -0.08098823011706559 0.0023234664878940513 0.01637806597885079 -0.001965767387498019 -0.010375224967843545
 0.9906530096132383 -0.08098823011706559 0.007512556121695164 0.03408266661749352 -0.001965048520022063 -0.010375280195007705 0.0022677869324631435 0.01638631185468454
 0.0023234664878940513 0.01637806597885079 -0.001965048520022063 -0.010375280195007705 0.007503103078700386 0.03408203451270091 0.9906529395750283 -0.08098963499409134
 -0.001965767387498019 -0.010375224967843545 0.0022677869324631435 0.01638631185468454 0.9906529395750283 -0.08098963499409134 0.007512330045842243 0.034081240268664235
0.1062942892872 0.007535780680957286 0.034216841406336455 0.9906095038090772 -0.08129038877874686 0.0023382864008019122 0.01643733628016129 -0.0019781721669088555 -0.010412887094382248
 0.9906095038090772 -0.08129038877874686 0.007545385363099621 0.03421605694618325 -0.001977448191210413 -0.010412943026207953 0.0022822002380736704 0.01644565616808118
 0.0023382864008019122 0.01643733628016129 -0.001977448191210413 -0.010412943026207953 0.0075358634451403 0.03421542511887654 0.990609433285662 -0.08129179871265774
 -0.0019781721669088555 -0.010412887094382248 0.0022822002380736704 0.01644565616808118 0.990609433285662 -0.08129179871265774 0.0075451576785527255 0.03421462532546649
0.11254689453939999 0.008080897388989065 0.03639019303494231 0.9898859010614005 -0.08620211389596559 0.0025858511344866216 0.017398474196200553 -0.0021854155206548565 -0.011023491796747468
 0.9898859010614005 -0.08620211389596559 0.008091665059763897 0.03638931727327356 -0.0021846062285954455 -0.011023559895009203 0.002522957493250757 0.017408059216042663
 0.0025858511344866216 0.017398474196200553 -0.0021846062285954455 -0.011023559895009203 0.008080989918694971 0.036388693267239036 0.989885822436016 -0.08620360583984983
 -0.0021854155206548565 -0.011023491796747468 0.002522957493250757 0.017408059216042663 0.989885822436016 -0.08620360583984983 0.008091410475102197 0.03638779996889767
0.11879949979160001 0.008651422356166534 0.03857841829558071 0.989129255273587 -0.09112685760824042 0.002846663769232093 0.018357670206886077 -0.002403801479406592 -0.011632563809067376
 0.989129255273587 -0.09112685760824042 0.008663419988617627 0.038577444728437216 -0.0024029023804506095 -0.011632645492024984 0.0027765721565051605 0.018368644776167023
 0.002846663769232093 0.018357670206886077 -0.0024029023804506095 -0.011632645492024984 0.008651525136819743 0.038576834949767956 0.9891291681272576 -0.0911284314343812
 -0.002403801479406592 -0.011632563809067376 0.0027765721565051605 0.018368644776167023 0.9891291681272576 -0.0911284314343812 0.008663137020485951 0.03857584151445088
0.1250521050438 0.009247714705141744 0.0407810910858847 0.9883392128468325 -0.09606426952057397 0.003120793726262678 0.019314693332274716 -0.0026334022688745333 -0.012239880499699516
 0.9883392128468325 -0.09606426952057397 0.009261009438785474 0.0407800129416787 -0.0026324089153579974 -0.012239977253401564 0.0030431139613528325 0.019327188172679255
 0.003120793726262678 0.019314693332274716 -0.0026324089153579974 -0.012239977253401564 0.009247828213715115 0.040779424054305576 0.9883391167641318 -0.0960659250955047
 -0.0026334022688745333 -0.012239880499699516 0.0030431139613528325 0.019327188172679255 0.9883391167641318 -0.0960659250955047 0.00926069660279757 0.040778323586087156
0.131304710296 0.009870128444554042 0.04299778084725273 0.9875154246557856 -0.10101398717480925 0.0034083056358868513 0.02026930867561656 -0.00287428531780189 -0.012845215812074377
 0.9875154246557856 -0.10101398717480925 0.00988478760146174 0.04299659107701357 -0.002873193305661299 -0.012845329190152813 0.0033226479525392265 0.02028346086010759
 0.0034083056358868513 0.02026930867561656 -0.002873193305661299 -0.012845329190152813 0.009870253149861471 0.04299603001139386 0.9875153192257687 -0.10101572436047843
 -0.00287428531780189 -0.012845215812074377 0.0033226479525392265 0.02028346086010759 0.9875153192257687 -0.10101572436047843 0.00988444341178902 0.04299481534105485
0.1375573155481 0.01038457014433775 0.044939611845599886 0.9867920554041404 -0.1056870264617408 0.0036758030688822927 0.02119355387499806 -0.0030931591690752675 -0.013420566921298928
 0.9867920554041404 -0.1056870264617408 0.010400667343478446 0.04493832838640603 -0.0030919622091532713 -0.013420697227373006 0.003581968205089858 0.021209355130250417
 0.0036758030688822927 0.02119355387499806 -0.0030919622091532713 -0.013420697227373006 0.010384707683679582 0.04493777637623559 0.9867919402149785 -0.10568884510356101
 -0.0030931591690752675 -0.013420566921298928 0.003581968205089858 0.021209355130250417 0.9867919402149785 -0.10568884510356101 0.010400289135678356 0.044936466682250674
0.1438099208003 0.010917340914614828 0.04686961939705436 0.9860427561288051 -0.11034659794420855 0.003954060256741966 0.02211300473820842 -0.003320717564556447 -0.013991564595555965
 0.9860427561288051 -0.11034659794420855 0.010934944695776723 0.04686823658780552 -0.003319410975915261 -0.013991713365137012 0.0038516933645857043 0.022130581683278985
 0.003954060256741966 0.02211300473820842 -0.003319410975915261 -0.013991713365137012 0.010917491955421365 0.046867699073903056 0.9860426307765484 -0.1103484978923263
 -0.003320717564556447 -0.013991564595555965 0.0038516933645857043 0.022130581683278985 0.9860426307765484 -0.1103484978923263 0.010934530765166045 0.046866288728510966
0.1500625260525 0.01146822756767821 0.04878759496482799 0.9852677450141978 -0.11499253736544661 0.004242964828085023 0.0230275334001565 -0.003556852186031519 -0.014558090925755201
 0.9852677450141978 -0.11499253736544661 0.011487406680843082 0.04878610679217622 -0.0035554313067722517 -0.014558259755223318 0.0041317136388101675 0.02304701728062645
 0.004242964828085023 0.0230275334001565 -0.0035554313067722517 -0.014558259755223318 0.011468392782890283 0.04878558955523424 0.9852676090994574 -0.1149945184638656
 -0.003556852186031519 -0.014558090925755201 0.0041317136388101675 0.02304701728062645 0.9852676090994574 -0.1149945184638656 0.011486955306197909 0.04878407258733545
0.15631513130469998 0.012037015095366354 0.05069333625428944 0.984467241693133 -0.11962468215424184 0.004542402898035962 0.023937014543814805 -0.0038014532189706374 -0.01512003081816579
 0.984467241693133 -0.11962468215424184 0.012057838506006141 0.05069173634245876 -0.0037999134068577183 -0.015120221364246832 0.004421917768064259 0.023958541175901092
