! Created with skrf 1.8.0 (http://scikit-rf.org).
# GHz S RI R 50.0 
!freq ReS11 ImS11 ReS12 ImS12 ReS13 ImS13
! ReS14 ImS14
! ReS21 ImS21 ReS22 ImS22 ReS23 ImS23
! ReS24 ImS24
! ReS31 ImS31 ReS32 ImS32 ReS33 ImS33
! ReS34 ImS34
! ReS41 ImS41 ReS42 ImS42 ReS43 ImS43
! ReS44 ImS44
!
0.0 0.00137986391672 0.0 0.9986201360833 0.0 5.294538594687e-05 0.0 -5.29453861692e-05 6.4839397701731325e-21
 0.9986201360833 0.0 0.001379863916725 0.0 -5.294538616913e-05 6.48393977016456e-21 5.294538594734e-05 0.0
 5.294538594687e-05 0.0 -5.294538616913e-05 6.48393977016456e-21 0.001379863908723 0.0 0.9986201360753 0.0
 -5.29453861692e-05 6.4839397701731325e-21 5.294538594734e-05 0.0 0.9986201360753 0.0 0.00137986390873 0.0
0.005 0.0014842011538367696 0.0011292079229096252 0.9984882227522542 -0.0028909926519343878 7.383816139693575e-05 0.0005829501323915141 -7.182905757873175e-05 -0.0003660433712684905
 0.9984882227522542 -0.0028909926519343878 0.0014841832242995 0.0011292184290789492 -7.183076426276265e-05 -0.00036604471323900843 7.394627749628578e-05 0.0005829090849176503
 7.383816139693575e-05 0.0005829501323915141 -7.183076426276265e-05 -0.00036604471323900843 0.0014842004587217147 0.0011292756204933005 0.9984882230949186 -0.0028909255911078943
 -7.182905757873175e-05 -0.0003660433712684905 7.394627749628578e-05 0.0005829090849176503 0.9984882230949186 -0.0028909255911078943 0.0014841845979383919 0.0011292848468089246
0.006252605252188 0.0015114424656581962 0.0014159693094692952 0.9984535894958616 -0.003614467618571791 7.971415572536014e-05 0.0007289797159293892 -7.710091597521476e-05 -0.0004580347127958359
 0.9984535894958616 -0.003614467618571791 0.001511414437997697 0.0014159826263565253 -7.710357149169792e-05 -0.0004580363684290873 7.988307966864075e-05 0.0007289264277821791
 7.971415572536014e-05 0.0007289797159293892 -7.710357149169792e-05 -0.0004580363684290873 0.001511441313831233 0.0014160539258095122 0.99845358996679 -0.0036143837994173423
 -7.710091597521476e-05 -0.0004580347127958359 7.988307966864075e-05 0.0007289264277821791 0.99845358996679 -0.0036143837994173423 0.0015114165208293495 0.0014160656342567313
0.01250521050438 0.0016541291292648133 0.00286178463146948 0.9982711100953223 -0.007229860927427805 0.00011292201296581927 0.0014583804014301593 -0.00010669227713501378 -0.0009183697623676765
 0.9982711100953223 -0.007229860927427805 0.0016540172075098203 0.0028618131238204764 -0.0001067027398615776 -0.0009183728364931274 0.00011359570834046572 0.0014582526331644167
 0.00011292201296581927 0.0014583804014301593 -0.0001067027398615776 -0.0009183728364931274 0.001654123937068216 0.0028619536388300383 0.9982711113912753 -0.007229693514991805
 -0.00010669227713501378 -0.0009183697623676765 0.00011359570834046572 0.0014582526331644167 0.9982711113912753 -0.007229693514991805 0.001654024942884187 0.0028619788109462054
0.01875781575657 0.0018082092889553595 0.004328386621910958 0.9980724895727738 -0.010855005925369242 0.00015264311805089504 0.0021887083138128925 -0.0001418050050699644 -0.0013803593971959173
 0.9980724895727738 -0.010855005925369242 0.0018079577841509224 0.004328432298367496 -0.00014182833435097983 -0.0013803636121927272 0.00015415665873704011 0.0021884810794938034
 0.00015264311805089504 0.0021887083138128925 -0.00014182833435097983 -0.0013803636121927272 0.0018081971818409666 0.004328639918561886 0.9980724920631165 -0.010854754997088437
 -0.0001418050050699644 -0.0013803593971959173 0.00015415665873704011 0.0021884810794938034 0.9980724920631165 -0.010854754997088437 0.0018079747484524564 0.004328680406769721
0.02501042100875 0.0019739613335216983 0.005813750436731116 0.9978575121517889 -0.01449168643827178 0.0001989520624258259 0.0029200126820240497 -0.00018252229165084582 -0.001843810634475376
 0.9978575121517889 -0.01449168643827178 0.001973514662253373 0.005813815434993869 -0.00018256348588912424 -0.0018438156670113905 0.00020164075738705176 0.0029196573460104585
 0.0001989520624258259 0.0029200126820240497 -0.00018256348588912424 -0.0018438156670113905 0.0019739394293917774 0.005814087960731703 0.997857516204251 -0.01449135200534001
 -0.00018252229165084582 -0.001843810634475376 0.00020164075738705176 0.0029196573460104585 0.997857516204251 -0.01449135200534001 0.0019735444246868935 0.005814145696465315
0.03126302626094 0.002151652033145696 0.0073168476376431904 0.997625950144041 -0.018140682171854244 0.00025192385657476677 0.003652276119690732 -0.00022892525014930326 -0.002308592930695406
 0.997625950144041 -0.018140682171854244 0.0021509546880093535 0.007316934220334368 -0.00022898925728876364 -0.002308598411071637 0.00025612356744940563 0.003651760375652423
 0.00025192385657476677 0.003652276119690732 -0.00022898925728876364 -0.002308598411071637 0.002151617443171913 0.007317269321658346 0.997625956128583 -0.01814026422428816
 -0.00022892525014930326 -0.002308592930695406 0.00025612356744940563 0.003651760375652423 0.997625956128583 -0.01814026422428816 0.002151000814729973 0.0073173463109659906
0.037515631513130004 0.0023415425624476356 0.008837017934227111 0.9973775701258266 -0.021802396912868168 0.00031163331756966573 0.0043854551818574795 -0.00028109351356325827 -0.002774597626740733
 0.9973775701258266 -0.021802396912868168 0.00234053909351091 0.008837128486830235 -0.0002811852366036516 -0.0027746031386933173 0.000317680605686433 0.0043847430149458
 0.00031163331756966573 0.0043854551818574795 -0.0002811852366036516 -0.0027746031386933173 0.002341492389568661 0.008837523713219261 0.9973775784144367 -0.02180189541176635
 -0.00028109351356325827 -0.002774597626740733 0.000317680605686433 0.0043847430149458 0.9973775784144367 -0.02180189541176635 0.0023406051466657307 0.008837622034288912
0.043768236765320004 0.0025438908278170415 0.01037377801937348 0.997112135415466 -0.02547704963038356 0.0003781547839971891 0.00511949269705176 -0.0003391054542433389 -0.0032417256105118377
 0.997112135415466 -0.02547704963038356 0.0025425258276618964 0.01037391504904809 -0.00033922975447514157 -0.003241730691149038 0.0003863869845204929 0.005118544340842429
 0.0003781547839971891 0.00511949269705176 -0.00033922975447514157 -0.003241730691149038 0.0025438221667989356 0.010374367826966286 0.9971121463837684 -0.02547646451165287
 -0.0003391054542433389 -0.0032417256105118377 0.0003863869845204929 0.005118544340842429 0.9971121463837684 -0.02547646451165287 0.002542615366440203 0.01037448962819005
0.050020842017509996 0.002758952558970171 0.011926742549485248 0.9968294073164276 -0.029164753430491432 0.00045156194550598276 0.005854322854490834 -0.00040303826962870634 -0.003709882223581145
 0.9968294073164276 -0.029164753430491432 0.0027571706506031237 0.011926908684273645 -0.00040319996879807467 -0.0037098863633635046 0.0004623172032082664 0.005853094745739229
 0.00045156194550598276 0.005854322854490834 -0.00040319996879807467 -0.0037098863633635046 0.0027588624951382914 0.011927416311243048 0.9968294213436112 -0.02916408461167498
 -0.00040303826962870634 -0.003709882223581145 0.0004623172032082664 0.005853094745739229 0.9968294213436112 -0.02916408461167498 0.0027572872297864943 0.011927563809831171
0.055454545454549996 0.002956370004284533 0.013289221410236399 0.9965694773179352 -0.03238011579404857 0.0005210036736744228 0.006493500495137237 -0.00046346539039827917 -0.004117487855881714
 0.9965694773179352 -0.03238011579404857 0.0029541808323644224 0.013289415066156177 -0.00046366347660754955 -0.004117490727995845 0.0005342267978838918 0.00649199091063857
 0.0005210036736744228 0.006493500495137237 -0.00046366347660754955 -0.004117490727995845 0.0029562589666142897 0.013289968064671271 0.9965694943152222 -0.03237937415549416
 -0.00046346539039827917 -0.004117487855881714 0.0005342267978838918 0.00649199091063857 0.9965694943152222 -0.03237937415549416 0.002954323794491421 0.013290139748214013
0.056273447269699996 0.0029869818732562287 0.013495585368607923 0.9965291458356728 -0.032865554267273785 0.0005319277219837332 0.006589873701944817 -0.0004729680091098951 -0.004178974758174397
 0.9965291458356728 -0.032865554267273785 0.002984727698929215 0.013495783357070315 -0.0004731718908703519 -0.004178977400917771 0.0005455450038267446 0.0065883184342842216
 0.0005319277219837332 0.006589873701944817 -0.0004731718908703519 -0.004178977400917771 0.0029868674827584784 0.013496343004852123 0.9965291633058994 -0.03286480164483627
 -0.0004729680091098951 -0.004178974758174397 0.0005455450038267446 0.0065883184342842216 0.9965291633058994 -0.03286480164483627 0.002984874869441835 0.01349651848559849
0.06252605252188 0.003228231590248181 0.015080018181011895 0.9962111101537663 -0.036579452206452256 0.0006193241672383916 0.007326068516210857 -0.0005489695708565405 -0.004648911083232285
 0.9962111101537663 -0.036579452206452256 0.00322544980095373 0.015080250892125568 -0.000549220381779392 -0.004648911626124806 0.0006361432596401428 0.007324134793417403
 0.0006193241672383916 0.007326068516210857 -0.000549220381779392 -0.004648911626124806 0.0032280899387342977 0.015080859603836042 0.9962111314562049 -0.0365786156590121
 -0.0005489695708565405 -0.004648911083232285 0.0006361432596401428 0.007324134793417403 0.9962111314562049 -0.0365786156590121 0.0032256311084872713 0.015081065418349209
0.06877865777407 0.003482953402539608 0.016679777837630493 0.9958750589549101 -0.040306414077292005 0.0007138223873099262 0.008062826617721211 -0.0006311166801731018 -0.0051195988285161935
 0.9958750589549101 -0.040306414077292005 0.003479588648083244 0.016680048260986364 -0.000631419130511527 -0.005119596622142757 0.0007341838827355661 0.008060459206790953
 0.0007138223873099262 0.008062826617721211 -0.000631419130511527 -0.005119596622142757 0.0034827815451974648 0.016680702952545902 0.9958750844848023 -0.040305493464087974
 -0.0006311166801731018 -0.0051195988285161935 0.0007341838827355661 0.008060459206790953 0.9958750844848023 -0.040305493464087974 0.0034798076327613595 0.01668094151866285
0.07503126302626001 0.003751397967850207 0.01829461827704323 0.9955207506804149 -0.04404638147194518 0.0008154924657826737 0.008800063889433232 -0.0007194818581297851 -0.00559094486680649
 0.9955207506804149 -0.04404638147194518 0.0037473948871636713 0.018294929523333812 -0.0007198406222944601 -0.0055909392151790955 0.0008397377413794667 0.008797203573688458
 0.0008154924657826737 0.008800063889433232 -0.0007198406222944601 -0.0055909392151790955 0.0037511929480570565 0.018295626984672103 0.9955207808388629 -0.04404537663140485
 -0.0007194818581297851 -0.00559094486680649 0.0008397377413794667 0.008797203573688458 0.9955207808388629 -0.04404537663140485 0.003747655082256569 0.018295900786106132
0.08128386827845 0.004033814948367825 0.019924305160345678 0.9951479437321288 -0.04779927605371907 0.0009244033945495443 0.009537693120826638 -0.0008141363824355827 -0.006062854973573106
 0.9951479437321288 -0.04779927605371907 0.004029118160094955 0.01992466046207283 -0.0008145560994424137 -0.006062845134162896 0.0009528745845592487 0.009534276653180376
 0.0009244033945495443 0.009537693120826638 -0.0008145560994424137 -0.006062845134162896 0.004033573798265932 0.01992539735422978 0.9951479789278262 -0.04779818680591001
 -0.0008141363824355827 -0.006062854973573106 0.0009528745845592487 0.009534276653180376 0.9951479789278262 -0.04779818680591001 0.004029423091674807 0.01992570894060334
0.08753647353064001 0.004330453017050461 0.02156861216048421 0.9947563966454903 -0.05156500321358468 0.0010406230071778085 0.010275624249278446 -0.0009151502439008945 -0.006535233591974951
 0.9947563966454903 -0.05156500321358468 0.0043250071098643005 0.02156901487304798 -0.0009156355175359273 -0.006535218775748084 0.0010736629704068208 0.010271584305778542
 0.0010406230071778085 0.010275624249278446 -0.0009156355175359273 -0.006535218775748084 0.004330172756147887 0.021569787726962435 0.9947564372945128 -0.051563829360611754
 -0.0009151502439008945 -0.006535233591974951 0.0010736629704068208 0.010271584305778542 0.9947564372945128 -0.051563829360611754 0.00432536029565967 0.0215701397140353
0.09378907878283 0.004641559839413281 0.02322731830766342 0.9943458682411052 -0.05534345467369916 0.0011642179144652957 0.011013764532220716 -0.0010225920989603132 -0.00700798366995518
 0.9943458682411052 -0.05534345467369916 0.004635309362754697 0.02322777191063967 -0.0010231474979745748 -0.007007963041424069 0.0012021701976671969 0.011009029665904056
 0.0011642179144652957 0.011013764532220716 -0.0010231474979745748 -0.007007963041424069 0.004641237474353405 0.023228577127774853 0.9943459147676077 -0.05534219599811013
 -0.0010225920989603132 -0.00700798366995518 0.0012021701976671969 0.011009029665904056 0.9943459147676077 -0.05534219599811013 0.004635714311146401 0.02322897219795086
0.100041684035 0.0049673820396378176 0.024900206045390092 0.993916117762875 -0.05913451038341049 0.001295253441206351 0.01175201867786687 -0.0011365292196450494 -0.007481006541618608
 0.993916117762875 -0.05913451038341049 0.004960271494245714 0.024900714144139788 -0.0011371592778377851 -0.00748097921888125 0.0013384622388707432 0.011746513273076263
 0.001295253441206351 0.01175201867786687 -0.0011371592778377851 -0.00748097921888125 0.004967014564030894 0.02490154799267217 0.9939161706001794 -0.059133166650675695
 -0.0011365292196450494 -0.007481006541618608 0.0013384622388707432 0.011746513273076263 0.9939161706001794 -0.059133166650675695 0.004960731703661097 0.024901988895911154
0.1059090909091 0.005286733827274312 0.02648273967301809 0.9934951462757092 -0.06270336147210993 0.001425040553523625 0.012444808413269679 -0.0012494131604580813 -0.007925047059758761
 0.9934951462757092 -0.06270336147210993 0.005278765670960372 0.02648330230305551 -0.00125011737067728 -0.007925012611840634 0.0014734956125635242 0.01243850741503967
 0.001425040553523625 0.012444808413269679 -0.00125011737067728 -0.007925012611840634 0.005286321273407388 0.02648415950685026 0.9934952054373591 -0.06270193769196644
 -0.0012494131604580813 -0.007925047059758761 0.0014734956125635242 0.01243850741503967 0.9934952054373591 -0.06270193769196644 0.005279280908596657 0.026484645981708226
0.1062942892872 0.005308165153634119 0.026587059763763795 0.9934669050055027 -0.06293803994136823 0.0014337935635438306 0.012490288943916513 -0.0012570274416491905 -0.007954201843806517
 0.9934669050055027 -0.06293803994136823 0.0053001389820675465 0.026587626091367913 -0.001257736657869163 -0.007954166898602812 0.0014826036746402157 0.012483933171022126
 0.0014337935635438306 0.012490288943916513 -0.001257736657869163 -0.007954166898602812 0.005307749547045632 0.026588484707358463 0.9934669645962628 -0.06293661089727307
 -0.0012570274416491905 -0.007954201843806517 0.0014826036746402157 0.012483933171022126 0.9934669645962628 -0.06293661089727307 0.0053006579395341235 0.026588974262236015
0.11254689453939999 0.00566415357244811 0.028287664682507825 0.9929979904354127 -0.06675390367143295 0.0015799008470999828 0.01322847521743972 -0.0013841511103368242 -0.008427467454460318
 0.9929979904354127 -0.06675390367143295 0.0056551561496771124 0.028288293101974026 -0.0013849439484612954 -0.008427423912230822 0.0016346576292448419 0.013221184988145819
 0.0015799008470999828 0.01322847521743972 -0.0013849439484612954 -0.008427423912230822 0.0056636868003321 0.02828917248541845 0.9929980572324231 -0.06675238904407674
 -0.0013841511103368242 -0.008427467454460318 0.0016346576292448419 0.013221184988145819 0.9929980572324231 -0.06675238904407674 0.005655737330267894 0.02828971358060115
0.11879949979160001 0.006035590479217302 0.030001805973476167 0.9925091353069996 -0.07058195346263862 0.0017336363851890772 0.013966475081633593 -0.0015179630258764026 -0.00890069944747003
 0.9925091353069996 -0.07058195346263862 0.006025566103074911 0.030002500480272646 -0.0015188439147297002 -0.008900646287419541 0.001794685706120574 0.013958162004769906
 0.0017336363851890772 0.013966475081633593 -0.0015188439147297002 -0.008900646287419541 0.006035069492245847 0.03000339649382097 0.9925092097741609 -0.07058035296176085
 -0.0015179630258764026 -0.00890069944747003 0.001794685706120574 0.013958162004769906 0.9925092097741609 -0.07058035296176085 0.00602621296860281 0.030003992089839504
0.1250521050438 0.006422717778933833 0.03172926807016706 0.9920001017746481 -0.07442203342599793 0.0018950597373392905 0.014704183869727449 -0.0016585243869096237 -0.009373792063529209
 0.9920001017746481 -0.07442203342599793 0.0064116106604149275 0.03173003279508628 -0.001659497720180596 -0.0093737282186922 0.001962747924260279 0.014694755207774274
 0.0018950597373392905 0.014704183869727449 -0.001659497720180596 -0.0093737282186922 0.006422139512527766 0.03173094116203591 0.9920001843869386 -0.07442034674240451
 -0.0016585243869096237 -0.009373792063529209 0.001962747924260279 0.014694755207774274 0.9920001843869386 -0.07442034674240451 0.006412326658311889 0.03173159429341715
0.131304710296 0.006825776024287805 0.0334698341139222 0.9914706530025278 -0.07827398041826202 0.0020642288678127214 0.015441494713287303 -0.001805894733503356 -0.009846637690014601
 0.9914706530025278 -0.07827398041826202 0.0068135302780132 0.0334706733263279 -0.0018069648695420355 -0.009846562047340515 0.0021389026547421978 0.01543085333946215
 0.0020642288678127214 0.015441494713287303 -0.0018069648695420355 -0.009846562047340515 0.0068251373983136895 0.03347158962704742 0.9914707442473698 -0.07827220722482232
 -0.001805894733503356 -0.009846637690014601 0.0021389026547421978 0.01543085333946215 0.9914707442473698 -0.07827220722482232 0.006814318840523172 0.03347230340471512
0.1375573155481 0.0071487608697819675 0.03499607584583058 0.9910168291683913 -0.08191032221159988 0.002218331678156094 0.016155085646478818 -0.00193717554283012 -0.010295985221589669
 0.9910168291683913 -0.08191032221159988 0.0071353173176858 0.03499697713664751 -0.0019383489960989248 -0.010295897786206001 0.002300160772455813 0.016143253204563328
 0.002218331678156094 0.016155085646478818 -0.0019383489960989248 -0.010295897786206001 0.00714805955026803 0.034997913588135886 0.9910169294422505 -0.08190846231286505
 -0.00193717554283012 -0.010295985221589669 0.002300160772455813 0.016143253204563328 0.9910169294422505 -0.08190846231286505 0.007136181288029309 0.03499867472512253
0.1438099208003 0.007482984425487894 0.03651494378676948 0.9905472958138363 -0.08553812164272338 0.002378646550591577 0.016866236578711502 -0.002073718898592371 -0.010743054831607684
 0.9905472958138363 -0.08553812164272338 0.007468286562228583 0.03651591043764885 -0.002075000365153015 -0.010742954516476529 0.0024679462314562625 0.01685312490804514
 0.002378646550591577 0.016866236578711502 -0.002075000365153015 -0.010742954516476529 0.0074822174446573745 0.03651686357767716 0.9905474056031432 -0.08553617471575593
 -0.002073718898592371 -0.010743054831607684 0.0024679462314562625 0.01685312490804514 0.9905474056031432 -0.08553617471575593 0.007469229244308546 0.036517674193547366
0.1500625260525 0.007828338244764057 0.03802633079123883 0.9900621649439664 -0.0891573088279513 0.002545122926636448 0.01757488981931631 -0.0022154747725656805 -0.01118778987732114
 0.9900621649439664 -0.0891573088279513 0.007812329456194054 0.03802736627289102 -0.00221686894064144 -0.011187675551817832 0.0026422068022649804 0.017560407560577435
 0.002545122926636448 0.01757488981931631 -0.00221686894064144 -0.011187675551817832 0.007827502628021801 0.038028332440471414 0.9900622847453121 -0.08915527453957839
 -0.0022154747725656805 -0.01118778987732114 0.0026422068022649804 0.017560407560577435 0.9900622847453121 -0.08915527453957839 0.007813354132038739 0.03802919479777197
0.15631513130469998 0.008184713218293213 0.03953013303998114 0.9895615490166939 -0.09276781374042617 0.0027177097114445175 0.01828098857026097 -0.002362392575826014 -0.01163013484249444
