! Created with skrf 1.8.0 (http://scikit-rf.org).
# GHz S RI R 50.0 
!freq ReS11 ImS11 ReS12 ImS12 ReS13 ImS13
! ReS14 ImS14
! ReS21 ImS21 ReS22 ImS22 ReS23 ImS23
! ReS24 ImS24
! ReS31 ImS31 ReS32 ImS32 ReS33 ImS33
! ReS34 ImS34
! ReS41 ImS41 ReS42 ImS42 ReS43 ImS43
! ReS44 ImS44
!
0.0 0.001364578456887 0.0 0.99863542147 0.0 5.212127797533e-05 0.0 -5.21212782859e-05 6.383015662029588e-21
 0.99863542147 0.0 0.001364578456962 0.0 -5.21212782876e-05 6.383015662237778e-21 5.212127797644e-05 0.0
 5.212127797533e-05 0.0 -5.21212782876e-05 6.383015662237778e-21 0.001364578493445 0.0 0.9986354215066 0.0
 -5.21212782859e-05 6.383015662029588e-21 5.212127797644e-05 0.0 0.9986354215066 0.0 0.00136457849344 0.0
0.005 0.0014676636885072468 0.0011206314451065933 0.9985050986074974 -0.0028587969981317537 7.214819330413767e-05 0.0005503924974073087 -7.02612671236258e-05 -0.00034972310597033605
 0.9985050986074974 -0.0028587969981317537 0.0014676681888103969 0.0011206288543800793 -7.026207242621547e-05 -0.00034972376709622023 7.209591680293344e-05 0.0005504120455097368
 7.214819330413767e-05 0.0005503924974073087 -7.026207242621547e-05 -0.00034972376709622023 0.0014676633874099521 0.0011206989179182206 0.9985050989468888 -0.0028587299398741377
 -7.02612671236258e-05 -0.00034972310597033605 7.209591680293344e-05 0.0005504120455097368 0.9985050989468888 -0.0028587299398741377 0.0014676691685738077 0.0011206954993654952
0.006252605252188 0.001494561897470022 0.0014051984591957408 0.9984709034686781 -0.003574215170671689 7.779050952236e-05 0.000688277041647094 -7.531543940396534e-05 -0.00043760831012092387
 0.9984709034686781 -0.003574215170671689 0.0014945689326556185 0.0014051952556623562 -7.53166921944972e-05 -0.00043760912636174316 7.770882745042168e-05 0.0006883024673509608
 7.779050952236e-05 0.000688277041647094 -7.53166921944972e-05 -0.00043760912636174316 0.0014945613548118307 0.0014052828095886696 0.9984709039276496 -0.0035741313438292922
 -7.531543940396534e-05 -0.00043760831012092387 7.770882745042168e-05 0.0006883024673509608 0.9984709039276496 -0.0035741313438292922 0.0014945703930341792 0.0014052785614237235
0.01250521050438 0.001635356956462893 0.0028398903369955568 0.9982908507937928 -0.007149344108279219 0.00010972948759701229 0.0013770325778863673 -0.00010363020145952461 -0.0008774002886235855
 0.9982908507937928 -0.007149344108279219 0.0016353850472600134 0.002839884304152832 -0.00010363513475509336 -0.000877401810997438 0.00010940361468572892 0.0013770939964425591
 0.00010972948759701229 0.0013770325778863673 -0.00010363513475509336 -0.000877401810997438 0.0016353542263612356 0.0028400588294988215 0.9982908520696109 -0.00714917672490513
 -0.00010363020145952461 -0.0008774002886235855 0.00010940361468572892 0.0013770939964425591 0.9982908520696109 -0.00714917672490513 0.0016353903279209428 0.00284005059744691
0.01875781575657 0.001787242496953761 0.004295125715190831 0.9980950600293891 -0.010734112925844077 0.00014800835906291073 0.002066717988006679 -0.00013714620603867377 -0.0013187931786293298
 0.9980950600293891 -0.010734112925844077 0.0017873056107485872 0.004295117274654021 -0.0001371572023141524 -0.0013187952792406768 0.00014727598152406443 0.002066827782219577
 0.00014800835906291073 0.002066717988006679 -0.0001371572023141524 -0.0013187952792406768 0.001787235925408783 0.004295378346617948 0.9980950624715345 -0.010733862075820874
 -0.00013714620603867377 -0.0013187931786293298 0.00014727598152406443 0.002066827782219577 0.9980950624715345 -0.010733862075820874 0.0017873170646915152 0.004295366406541149
0.02501042100875 0.001950490629238602 0.005768906804278485 0.9978833204804944 -0.014330288215004277 0.00019269829953057522 0.0027573734896551437 -0.00017594206419328665 -0.001761611519570993
 0.9978833204804944 -0.014330288215004277 0.0019506027024899682 0.005768896436173146 -0.00017596147599219182 -0.0017616140502147598 0.0001913968316403496 0.002757545804853915
 0.00019269829953057522 0.0027573734896551437 -0.00017596147599219182 -0.0017616140502147598 0.0019504785622861058 0.005769243603696022 0.9978833244414975 -0.014329953979864753
 -0.00017594206419328665 -0.001761611519570993 0.0001913968316403496 0.002757545804853915 0.9978833244414975 -0.014329953979864753 0.0019506226892867325 0.005769228255465379
0.03126302626094 0.002125362088164953 0.007260220637188215 0.9976554097099763 -0.017938644322906764 0.0002438710785720374 0.003448979304710605 -0.0002200945423623752 -0.002205735949252936
 0.9976554097099763 -0.017938644322906764 0.0021255370374224044 0.007260208883720659 -0.00022012469745980224 -0.0022057387411174765 0.00024183751453300362 0.0034492300635375153
 0.0002438710785720374 0.003448979304710605 -0.00022012469745980224 -0.0022057387411174765 0.0021253428673244056 0.007260641681208776 0.997655415541424 -0.017938226760550877
 -0.0002200945423623752 -0.002205735949252936 0.00024183751453300362 0.0034492300635375153 0.997655415541424 -0.017938226760550877 0.0021255679201842167 0.007260623252038907
0.037515631513130004 0.0023121121556715957 0.008768418193354482 0.9974110995984538 -0.021559584173285424 0.00030159840627469784 0.004141492125105706 -0.00026967908478190507 -0.0026510667276072545
 0.9974110995984538 -0.021559584173285424 0.002312363885106777 0.008768405661426523 -0.0002697222888894568 -0.0026510695911877388 0.00029866925039229056 0.004141839049095734
 0.00030159840627469784 0.004141492125105706 -0.0002697222888894568 -0.0026510695911877388 0.0023120841161257282 0.008768923584732701 0.997411107649277 -0.0215590833394165
 -0.00026967908478190507 -0.0026510667276072545 0.00029866925039229056 0.004141839049095734 0.997411107649277 -0.0215590833394165 0.0023124080290505087 0.008768902431528265
0.043768236765320004 0.0025109929559659024 0.010293025457165868 0.9971501587797922 -0.02519332814577243 0.00036595162475311686 0.0048348561968504546 -0.0003247700116452963 -0.0030975126428392746
 0.9971501587797922 -0.02519332814577243 0.0025113353644922684 0.01029301282043646 -0.0003248285500454537 -0.00309751536794062 0.0003619628551179283 0.004835318830185012
 0.00036595162475311686 0.0048348561968504546 -0.0003248285500454537 -0.00309751536794062 0.002510954429263526 0.010293615325924144 0.9971501693986878 -0.025192744092989706
 -0.0003247700116452963 -0.0030975126428392746 0.0003619628551179283 0.004835318830185012 0.9971501693986878 -0.025192744092989706 0.0025113951397976574 0.010293591836729257
0.050020842017509996 0.002722254527650766 0.011833665335185761 0.9968723538539335 -0.028839992094241432 0.00043700152833957235 0.005529007906197929 -0.00038544059481970296 -0.0035449864164393895
 0.9968723538539335 -0.028839992094241432 0.0027227015150311394 0.011833653335871878 -0.0003855167334357004 -0.0035449887721777304 0.0004317885784040605 0.005529607640401338
 0.00043700152833957235 0.005529007906197929 -0.0003855167334357004 -0.0035449887721777304 0.0027222038399932424 0.011834339839573476 0.9968723673880785 -0.02883932487118394
 -0.00038544059481970296 -0.0035449864164393895 0.0004317885784040605 0.005529607640401338 0.9968723673880785 -0.02883932487118394 0.0027227792951926406 0.011834314435002212
0.055454545454549996 0.00291609497464424 0.013185300110712214 0.9966170549595773 -0.032019585914391836 0.0005042390540306357 0.006132832772698785 -0.00044275266841185893 -0.003934622945317806
 0.9966170549595773 -0.032019585914391836 0.002916644137922767 0.01318528932260406 -0.0004428459279144706 -0.003934624776520469 0.000497828176967592 0.006133570477900924
 0.0005042390540306357 0.006132832772698785 -0.0004428459279144706 -0.003934624776520469 0.002916032357178726 0.013186048311139589 0.9966170713091136 -0.032018846455721305
 -0.00044275266841185893 -0.003934622945317806 0.000497828176967592 0.006133570477900924 0.9966170713091136 -0.032018846455721305 0.002916739496550504 0.013186021609708807
0.056273447269699996 0.0029461453821737244 0.013390019331525066 0.9965774500907094 -0.03249962560691945 0.0005148182398349063 0.006223878010877556 -0.0004517630797782517 -0.003993402464637816
 0.9965774500907094 -0.03249962560691945 0.0029467108553093996 0.013390008782071545 -0.0004518590659617354 -0.0039934041994743215 0.0005082159903079443 0.006224638109971977
 0.0005148182398349063 0.006223878010877556 -0.0004518590659617354 -0.0039934041994743215 0.0029460808566546728 0.013390778652991377 0.9965774668870798 -0.032498875263465794
 -0.0004517630797782517 -0.003993402464637816 0.0005082159903079443 0.006224638109971977 0.9965774668870798 -0.032498875263465794 0.002946809018904074 0.013390751787261092
0.06252605252188 0.003182912814793715 0.014961806470885094 0.9962652118871219 -0.03617223301973303 0.0005994711117747486 0.006919392878726377 -0.0005238086826740127 -0.0044426756542789185
 0.9962652118871219 -0.03617223301973303 0.0031836106933915763 0.014961798255419375 -0.0005239267457062681 -0.0044426764960448645 0.0005913138897606022 0.006920338504654045
 0.0005994711117747486 0.006919392878726377 -0.0005239267457062681 -0.0044426764960448645 0.003182832770438689 0.014962650813881593 0.996265232291782 -0.036171399607396154
 -0.0005238086826740127 -0.0044426756542789185 0.0005913138897606022 0.006920338504654045 0.996265232291782 -0.036171399607396154 0.0031837316233153112 0.014962622975761196
0.06877865777407 0.0034328030763616925 0.01654877073210645 0.995935403089196 -0.03985778592099893 0.0006910286443433413 0.007615475221110998 -0.0006016475704829055 -0.0048927205659784825
 0.995935403089196 -0.03985778592099893 0.0034336472990138573 0.016548765807712324 -0.0006017899219801355 -0.004892720221903394 0.0006811502274097346 0.007616633459285086
 0.0006910286443433413 0.007615475221110998 -0.0006017899219801355 -0.004892720221903394 0.003432705827768678 0.016549700328539762 0.99593542744666 -0.03985686948862696
 -0.0006016475704829055 -0.0048927205659784825 0.0006811502274097346 0.007616633459285086 0.99593542744666 -0.03985686948862696 0.003433793381817478 0.016549672042131015
0.07503126302626001 0.0036960614645229163 0.018150673085485704 0.9955877872355898 -0.04355623105417886 0.0007895584132774116 0.00831204455262102 -0.0006853488305929606 -0.005343451033246262
 0.9955877872355898 -0.04355623105417886 0.003697065994576187 0.018150672483428335 -0.0006855176648428705 -0.005343449189998067 0.0007777920369334984 0.008313444437527379
 0.0007895584132774116 0.00831204455262102 -0.0006855176648428705 -0.005343449189998067 0.0036959453235472246 0.018151688190487215 0.9955878158900819 -0.04355523165232806
 -0.0006853488305929606 -0.005343451033246262 0.0007777920369334984 0.008313444437527379 0.9955878158900819 -0.04355523165232806 0.0036972396214279644 0.01815166001585311
0.08128386827845 0.003972932366870611 0.019767286188471674 0.9952221277562675 -0.04726749556468213 0.0008951270013365629 0.009009017504326026 -0.0007749804357166931 -0.005794779830425257
 0.9952221277562675 -0.04726749556468213 0.0039741111985351395 0.019767291015121296 -0.000775177929883227 -0.005794776154136363 0.0008813053696679479 0.009010690045112641
 0.0008951270013365629 0.009009017504326026 -0.000775177929883227 -0.005794776154136363 0.003972795642166408 0.01976838708054543 0.995222161051002 -0.0472664132456355
 -0.0007749804357166931 -0.005794779830425257 0.0008813053696679479 0.009010690045112641 0.995222161051002 -0.0472664132456355 0.003974314764674396 0.01976835961417456
0.08753647353064001 0.004263659268624296 0.0213983907167478 0.994838188137559 -0.050991490613895525 0.001007799934543276 0.009706308037013672 -0.0008706092033604151 -0.0062466184631144684
 0.994838188137559 -0.050991490613895525 0.004265026432657489 0.021398402154519203 -0.0008708375176288065 -0.006246612599428257 0.000991755232856018 0.009708286243053268
 0.001007799934543276 0.009706308037013672 -0.0008708375176288065 -0.006246612599428257 0.004263500265879488 0.021399577697551735 0.9948382264144982 -0.05099032543204041
 -0.0008706092033604151 -0.0062466184631144684 0.000991755232856018 0.009708286243053268 0.9948382264144982 -0.05099032543204041 0.004265262337398173 0.021399551572689125
0.09378907878283 0.004568484738350343 0.023043772739227503 0.9944357320684294 -0.05472811395187121 0.0011276416203587997 0.010403827597867803 -0.000972300752151236 -0.006698877017768432
 0.9944357320684294 -0.05472811395187121 0.004570054308411399 0.023043792047289173 -0.0009725620298861491 -0.006698868591869987 0.0011092055298489356 0.010406146504229623
 0.0011276416203587997 0.010403827597867803 -0.0009725620298861491 -0.006698868591869987 0.00456830176056401 0.023045046137961323 0.9944357756686834 -0.05472686595952907
 -0.000972300752151236 -0.006698877017768432 0.0011092055298489356 0.010406146504229623 0.9944357756686834 -0.05472686595952907 0.004570324954627645 0.023045022024810256
0.100041684035 0.0048876503967651575 0.024703221802128146 0.9940145235726983 -0.0584772517842261 0.0012547152873112737 0.011101485233428554 -0.0010801194558802039 -0.007151464057670894
 0.9940145235726983 -0.0584772517842261 0.004889436495590057 0.024703250316895804 -0.0010804158237159955 -0.007151452674324148 0.0012337190013089405 0.011104181926245411
 0.0012547152873112737 0.011101485233428554 -0.0010804158237159955 -0.007151452674324148 0.004887441745123576 0.024704581969553843 0.9940145728365036 -0.058475921037631585
 -0.0010801194558802039 -0.007151464057670894 0.0012337190013089405 0.011104181926245411 0.9940145728365036 -0.058475921037631585 0.0048897442902392585 0.02470456057531124
0.1059090909091 0.00520041012437428 0.026273046867449867 0.9936019991450434 -0.0620066915239584 0.0013805930895833866 0.011756205459413107 -0.0011869246630099542 -0.0075763848881296916
 0.9936019991450434 -0.0620066915239584 0.005202412305904465 0.026273085306424 -0.001187255878421722 -0.007576370351919517 0.0013570403847932432 0.011759292243409422
 0.0013805930895833866 0.011756205459413107 -0.001187255878421722 -0.007576370351919517 0.0052001758334452855 0.026274488798581613 0.993602054032013 -0.06200528317390937
 -0.0011869246630099542 -0.0075763848881296916 0.0013570403847932432 0.011759292243409422 0.993602054032013 -0.06200528317390937 0.005202757152753726 0.026274470631745907
0.1062942892872 0.00522139687426208 0.02637652947186211 0.9935743271316644 -0.062238780182799734 0.0013890829255869064 0.011799187681137805 -0.0011941283956396034 -0.007604286543089898
 0.9935743271316644 -0.062238780182799734 0.005223413679685341 0.026376568607481013 -0.0011944619634799713 -0.007604271786685283 0.0013653571672180682 0.011802301322834188
 0.0013890829255869064 0.011799187681137805 -0.0011944619634799713 -0.007604271786685283 0.005221160847591727 0.026377976782909367 0.9935743823980662 -0.06223736673980872
 -0.0011941283956396034 -0.007604286543089898 0.0013653571672180682 0.011802301322834188 0.9935743823980662 -0.06223736673980872 0.005223761033212221 0.026377958851597175
0.11254689453939999 0.00556996375747646 0.028063488230112406 0.9931149077989923 -0.06601256614775884 0.001530805228341421 0.01249683943872934 -0.0013143893102662229 -0.008057249776417443
 0.9931149077989923 -0.06601256614775884 0.00557222550908184 0.028063539478635345 -0.0013147621714010055 -0.008057231211005652 0.0015041802693944594 0.012500411293146808
 0.001530805228341421 0.01249683943872934 -0.0013147621714010055 -0.008057231211005652 0.005569698653480385 0.028065023085080975 0.9931149694060937 -0.06601107006665008
 -0.0013143893102662229 -0.008057249776417443 0.0015041802693944594 0.012500411293146808 0.9931149694060937 -0.06601107006665008 0.005572614835499475 0.0280650093973241
0.11879949979160001 0.005933589530461246 0.029763890612188513 0.9926360313122671 -0.06979846842950733 0.00167994153333458 0.013194342822842738 -0.0014409625457002613 -0.008510257361025043
 0.9926360313122671 -0.06979846842950733 0.0059361105358693616 0.029763955543698227 -0.001441376776771882 -0.008510234530364862 0.001650247214333908 0.013198416280117645
 0.00167994153333458 0.013194342822842738 -0.001441376776771882 -0.008510234530364862 0.005933293645461643 0.029765513434404943 0.9926360995969401 -0.06979688977151113
 -0.0014409625457002613 -0.008510257361025043 0.001650247214333908 0.013198416280117645 0.9926360995969401 -0.06979688977151113 0.005936544252421917 0.029765504806964337
0.1250521050438 0.006312511508991105 0.03147752851408935 0.9921374641998033 -0.07359633818542256 0.0018365497648927755 0.013891598018393863 -0.0015739070032171267 -0.008963211172307977
 0.9921374641998033 -0.07359633818542256 0.006315306150326601 0.031477608776566114 -0.0015743646642169542 -0.008963183599911198 0.0018036155161460859 0.013896218619696126
 0.0018365497648927755 0.013891598018393863 -0.0015743646642169542 -0.008963183599911198 0.006312183138289828 0.0314792397548658 0.992137539497792 -0.07359467700990845
 -0.0015739070032171267 -0.008963211172307977 0.0018036155161460859 0.013896218619696126 0.992137539497792 -0.07359467700990845 0.006315786677302119 0.03147923704003418
0.131304710296 0.006706965769895064 0.03320419265284934 0.9916189738852211 -0.0774060194868548 0.002000686375941219 0.014588503120563838 -0.001713280086850013 -0.009416011339207388
 0.9916189738852211 -0.0774060194868548 0.006710048510462221 0.033204289971878846 -0.0017137832211323078 -0.009415978528379026 0.0019643412395488544 0.01459371858260496
 0.002000686375941219 0.014588503120563838 -0.0017137832211323078 -0.009415978528379026 0.00670660320840888 0.03320599278397882 0.9916190565311733 -0.0774042758588943
 -0.001713280086850013 -0.009416011339207388 0.0019643412395488544 0.01459371858260496 0.9916190565311733 -0.0774042758588943 0.00671057827111204 0.03320599686880471
0.1375573155481 0.007022268908977272 0.03471925295958175 0.9911752756844677 -0.08100284740728246 0.002150542156473463 0.015262376286034664 -0.0018373245818369918 -0.009845958029481303
 0.9911752756844677 -0.08100284740728246 0.007025656738985111 0.03471936482813187 -0.0018378763263263368 -0.009845919991062565 0.0021107133247171496 0.015268175536307901
 0.002150542156473463 0.015262376286034664 -0.0018378763263263368 -0.009845919991062565 0.007021871192436178 0.03472114223253358 0.991175366007919 -0.08100102140530951
 -0.0018373245818369918 -0.009845958029481303 0.0021107133247171496 0.015268175536307901 0.991175366007919 -0.08100102140530951 0.007026237430005746 0.03472115026479874
0.1438099208003 0.007348525408144046 0.03622710888913101 0.9907162456597934 -0.08459132524386145 0.0023064527864794238 0.015933910148333914 -0.0019663355101802627 -0.010273765200727097
 0.9907162456597934 -0.08459132524386145 0.007352233325563947 0.036227236516075394 -0.001966938081205969 -0.010273721448274565 0.0022629865048989905 0.015940336334331656
 0.0023064527864794238 0.015933910148333914 -0.001966938081205969 -0.010273721448274565 0.0073480909656706075 0.03622908777553939 0.9907163439918957 -0.08458941693852011
 -0.0019663355101802627 -0.010273765200727097 0.0022629865048989905 0.015940336334331656 0.9907163439918957 -0.08458941693852011 0.007352867243812437 0.036229100154241245
0.1500625260525 0.007685630443552005 0.03772765701427102 0.9902419919536138 -0.08817138668599601 0.0024683702598490933 0.01660304938289392 -0.002100266397488792 -0.010699380377232795
 0.9902419919536138 -0.08817138668599601 0.007689673545239782 0.037727801632389625 -0.0021009220086428866 -0.010699330404681693 0.0024211135451076703 0.016610147217820396
 0.0024683702598490933 0.01660304938289392 -0.0021009220086428866 -0.010699330404681693 0.007685157712916798 0.0377297260050229 0.9902420986243261 -0.08816939615019627
 -0.002100266397488792 -0.010699380377232795 0.0024211135451076703 0.016610147217820396 0.9902420986243261 -0.08816939615019627 0.007690362982035564 0.037729743122115404
0.15631513130469998 0.008033478568855825 0.03922079713773585 0.989752623122123 -0.09174296521750634 0.0026362460733030846 0.017269739503511943 -0.0022390702615234315 -0.011122752113110743
