! Created with skrf 1.8.0 (http://scikit-rf.org).
# GHz S RI R 50.0 
!freq ReS11 ImS11 ReS12 ImS12 ReS13 ImS13
! ReS14 ImS14
! ReS21 ImS21 ReS22 ImS22 ReS23 ImS23
! ReS24 ImS24
! ReS31 ImS31 ReS32 ImS32 ReS33 ImS33
! ReS34 ImS34
! ReS41 ImS41 ReS42 ImS42 ReS43 ImS43
! ReS44 ImS44
!
0.0 0.001511487969457 0.0 0.9984885120078 0.0 5.869821875966e-05 0.0 -5.869821804835e-05 7.188458484856522e-21
 0.9984885120078 0.0 0.001511487969492 0.0 -5.869821804985e-05 7.18845848504022e-21 5.869821875964e-05 0.0
 5.869821875966e-05 0.0 -5.869821804985e-05 7.18845848504022e-21 0.001511487980868 0.0 0.9984885120191 0.0
 -5.869821804835e-05 7.188458484856522e-21 5.869821875964e-05 0.0 0.9984885120191 0.0 0.001511487980827 0.0
0.005 0.0016262566618319813 0.0012282105895662237 0.9983433130183865 -0.003166718442129314 8.341249410161708e-05 0.0006973750525397856 -8.076761329114453e-05 -0.00042889702419730933
 0.9983433130183865 -0.003166718442129314 0.001626240638070136 0.001228219925201179 -8.076611112430841e-05 -0.00042889582650140827 8.350953670418667e-05 0.0006973379697121754
 8.341249410161708e-05 0.0006973750525397856 -8.076611112430841e-05 -0.00042889582650140827 0.0016262572787684908 0.001228142920332766 0.9983433126575735 -0.003166785501355458
 -8.076761329114453e-05 -0.00042889702419730933 8.350953670418667e-05 0.0006973379697121754 0.9983433126575735 -0.003166785501355458 0.0016262393036092742 0.0012281534791241423
0.006252605252188 0.0016563361259239687 0.0015401369390857004 0.9983050218002415 -0.003959180089648052 9.044748976790873e-05 0.00087203564599296 -8.699530768043863e-05 -0.0005366888653961368
 0.9983050218002415 -0.003959180089648052 0.0016563110785158001 0.0015401488398537517 -8.699297052978131e-05 -0.0005366873876562879 9.059910844559799e-05 0.0008719875211195547
 9.044748976790873e-05 0.00087203564599296 -8.699297052978131e-05 -0.0005366873876562879 0.001656337172569617 0.0015400523469651498 0.9983050213179905 -0.003959263915823971
 -8.699530768043863e-05 -0.0005366888653961368 9.059910844559799e-05 0.0008719875211195547 0.9983050213179905 -0.003959263915823971 0.0016563090738841186 0.0015400657867886349
0.01250521050438 0.0018145590880625322 0.0031128801343750677 0.998102291131529 -0.007919233946431977 0.00013065625111070665 0.0017442988971513725 -0.00012231271595087518 -0.0010760435087137554
 0.998102291131529 -0.007919233946431977 0.0018144590809716318 0.0031129062559832887 -0.0001223035094937042 -0.0010760407647722506 0.00013126082938649854 0.0017441835471705448
 0.00013065625111070665 0.0017442988971513725 -0.0001223035094937042 -0.0010760407647722506 0.0018145638366490104 0.0031127111693205175 0.9981022897670071 -0.00791940134723927
 -0.00012231271595087518 -0.0010760435087137554 0.00013126082938649854 0.0017441835471705448 0.9981022897670071 -0.00791940134723927 0.001814451632682107 0.003112740487755992
0.01875781575657 0.00198649817884024 0.004708268609205223 0.9978800709953691 -0.011889813125268345 0.0001794173275378666 0.0026174360443865586 -0.00016475956722846908 -0.0016172208574734622
 0.9978800709953691 -0.011889813125268345 0.0019862734733250053 0.0047083113967979085 -0.00016473904197187328 -0.001617217097239855 0.00018077534978087835 0.0026172306619636067
 0.0001794173275378666 0.0026174360443865586 -0.00016473904197187328 -0.001617217097239855 0.001986509287164434 0.004708015321331813 0.9978800683504501 -0.011890064018581635
 -0.00016475956722846908 -0.0016172208574734622 0.00018077534978087835 0.0026172306619636067 0.9978800683504501 -0.011890064018581635 0.0019862571492987044 0.004708063136012518
0.02501042100875 0.002172484879399479 0.006324054831299102 0.9976381027101999 -0.015872845573677605 0.00023682448890393292 0.003491502030407138 -0.00021444126593939315 -0.0021599632626190138
 0.9976381027101999 -0.015872845573677605 0.0021720858482110004 0.006324116840924008 -0.00021440502717919193 -0.0021599587789864357 0.000239236499290049 0.0034911802401874407
 0.00023682448890393292 0.003491502030407138 -0.00021440502717919193 -0.0021599587789864357 0.002172505010895476 0.006323717234230032 0.997638098387348 -0.015873179915612434
 -0.00021444126593939315 -0.0021599632626190138 0.000239236499290049 0.0034911802401874407 0.997638098387348 -0.015873179915612434 0.0021720572190542806 0.00632378632500416
0.03126302626094 0.0023728369195004364 0.00795908305749645 0.9973761142701223 -0.019869157251175502 0.0003029719569891068 0.004366465382077075 -0.0002714601390570793 -0.002704093665023343
 0.9973761142701223 -0.019869157251175502 0.0023722140202190253 0.007959166953010879 -0.0002714038374783654 -0.0027040887944042883 0.0003067388432695969 0.004365997222207093
 0.0003029719569891068 0.004366465382077075 -0.0002714038374783654 -0.0027040887944042883 0.002372868740523202 0.007958661139800987 0.9973761078678707 -0.01986957502468027
 -0.0002714601390570793 -0.002704093665023343 0.0003067388432695969 0.004365997222207093 0.9973761078678707 -0.01986957502468027 0.002372169654359064 0.007958754445979094
0.037515631513130004 0.0025878651434955123 0.009612600388807832 0.9970938274302313 -0.02387916101411549 0.0003779535033599964 0.005242260715042702 -0.00033591625819991627 -0.0032494631028514185
 0.9970938274302313 -0.02387916101411549 0.0025869689004788337 0.009612708940429414 -0.0003358355850615026 -0.0032494582253383684 0.00038337662495905163 0.0052416126026033055
 0.0003779535033599964 0.005242260715042702 -0.0003358355850615026 -0.0032494582253383684 0.0025879113288454158 0.009612094124683826 0.997093818547783 -0.02387966221821992
 -0.00033591625819991627 -0.0032494631028514185 0.00038337662495905163 0.0052416126026033055 0.997093818547783 -0.02387966221821992 0.002586905368660326 0.0096122147440779
0.043768236765320004 0.002817876169937049 0.011284047123099356 0.9967909605858334 -0.027903066195038986 0.0004618620354107185 0.006118804676669846 -0.00040790772900416644 -0.00379593477315438
 0.9967909605858334 -0.027903066195038986 0.0028166571599766315 0.011284183206311351 -0.0004077984132159643 -0.0037959303125392886 0.00046924328477559665 0.0061179393679706845
 0.0004618620354107185 0.006118804676669846 -0.0004077984132159643 -0.0037959303125392886 0.002817939401647999 0.011283456473286647 0.9967909488208534 -0.027903650843728957
 -0.00040790772900416644 -0.00379593477315438 0.00046924328477559665 0.0061179393679706845 0.9967909488208534 -0.027903650843728957 0.0028165710338838874 0.011283607661941562
0.050020842017509996 0.003063173624233936 0.012972970095613011 0.9964672302245531 -0.031940965192467474 0.0005547893429725997 0.006996002544162335 -0.0004875308027774754 -0.004343377438086985
 0.9964672302245531 -0.031940965192467474 0.0030615824640666763 0.012973136690587538 -0.00048738860902870247 -0.004343373861846615 0.000564431171590615 0.006994879093008968
 0.0005547893429725997 0.006996002544162335 -0.00048738860902870247 -0.004343373861846615 0.0030632565917019386 0.01297229501091761 0.9964672151726894 -0.0319416333109395
 -0.0004875308027774754 -0.004343377438086985 0.000564431171590615 0.006994879093008968 0.9964672151726894 -0.0319416333109395 0.0030614703162624777 0.01297248018335554
0.055454545454549996 0.0032889930249382702 0.014454584814685183 0.9961687340138327 -0.035461401772779864 0.0006429406535121433 0.007758765410322594 -0.0005629968438023666 -0.004819810130409491
 0.9961687340138327 -0.035461401772779864 0.0032870383717913177 0.014454780426678434 -0.0005628226653277718 -0.0048198077362875845 0.0006547930593931618 0.007757381464619597
 0.0006429406535121433 0.007758765410322594 -0.0005628226653277718 -0.0048198077362875845 0.0032890953330741114 0.01445383630620486 0.9961687157748581 -0.03546214245770938
 -0.0005629968438023666 -0.004819810130409491 0.0006547930593931618 0.007757381464619597 0.9961687157748581 -0.03546214245770938 0.003286900827576367 0.014454053908002763
0.056273447269699996 0.003324058771573524 0.014678980164469606 0.9961223517832678 -0.03599287591695637 0.000656825918672184 0.007873751464214818 -0.0005748799058112355 -0.0048916621918014555
 0.9961223517832678 -0.03599287591695637 0.003322046105991229 0.014679180355819763 -0.0005747006332701437 -0.004891660011086169 0.000669031341578589 0.00787232517927384
 0.000656825918672184 0.007873751464214818 -0.0005747006332701437 -0.004891660011086169 0.003324164171325035 0.01467822058403561 0.9961223330371693 -0.035993627543195454
 -0.0005748799058112355 -0.0048916621918014555 0.000669031341578589 0.00787232517927384 0.9961223330371693 -0.035993627543195454 0.003321904509979659 0.014678443313702981
0.06252605252188 0.003600830855736449 0.01640172882131494 0.9957560402137071 -0.04005876511476296 0.0007680608156857517 0.008751942228429592 -0.0006700476256633585 -0.005440660694805117
 0.9957560402137071 -0.04005876511476296 0.00359834734646607 0.01640196579816455 -0.0006698271070605787 -0.005440660464389991 0.0007831334021257477 0.008750164630247671
 0.0007680608156857517 0.008751942228429592 -0.0006698271070605787 -0.005440660464389991 0.0036009613918922766 0.016400884674867295 0.9957560173630852 -0.04005960029693082
 -0.0006700476256633585 -0.005440660694805117 0.0007831334021257477 0.008750164630247671 0.9957560173630852 -0.04005960029693082 0.003598172877520277 0.016401148695103722
0.06877865777407 0.0038937872769264433 0.018140894259272754 0.9953680103906573 -0.04413856223762257 0.0008885815255045415 0.009630460333998406 -0.0007731246738665933 -0.0059902441268512106
 0.9953680103906573 -0.04413856223762257 0.0038907835924217194 0.018141171315548127 -0.0007728587749249111 -0.005990246445096842 0.0009068253793128707 0.009628279111940983
 0.0008885815255045415 0.009630460333998406 -0.0007728587749249111 -0.005990246445096842 0.003893945661941788 0.018139965466034687 0.9953679830223494 -0.044139481034948046
 -0.0007731246738665933 -0.0059902441268512106 0.0009068253793128707 0.009628279111940983 0.9953679830223494 -0.044139481034948046 0.0038905728281197847 0.01814027467117996
0.07503126302626001 0.0042032236760805655 0.019896172533130065 0.9949579774301336 -0.04823216822446009 0.0010184738649159882 0.010509186670546712 -0.0008841998362105972 -0.00654028251774089
 0.9949579774301336 -0.04823216822446009 0.004199650480192389 0.01989649306833284 -0.0008838844550436647 -0.006540288026557269 0.0010401935979521151 0.010506545639948073
 0.0010184738649159882 0.010509186670546712 -0.0008838844550436647 -0.006540288026557269 0.004203412630274342 0.019895159001638903 0.9949579451272998 -0.04823317070715009
 -0.0008841998362105972 -0.00654028251774089 0.0010401935979521151 0.010506545639948073 0.9949579451272998 -0.04823317070715009 0.004199400001585994 0.019895517448534114
0.08128386827845 0.004529433958171389 0.021667271680588553 0.9945256569505194 -0.052339461326524575 0.0011578218735658133 0.011387997966585583 -0.001003359910310735 -0.007090644322973939
 0.9945256569505194 -0.052339461326524575 0.0045252419003999214 0.021667639200725574 -0.001002990977294715 -0.0070906537077506816 0.0011833225727703354 0.01138483702618423
 0.0011578218735658133 0.011387997966585583 -0.001002990977294715 -0.0070906537077506816 0.004529656209943254 0.021666173309692453 0.994525619291809 -0.05234054757437
 -0.001003359910310735 -0.007090644322973939 0.0011833225727703354 0.01138483702618423 0.994525619291809 -0.05234054757437 0.004524948291222148 0.02166658521962716
0.08753647353064001 0.004872710275683212 0.02345390765968264 0.994070765296139 -0.056460301121126336 0.0013067077135206074 0.01226676711414507 -0.0011306896389468646 -0.007641196125868073
 0.994070765296139 -0.056460301121126336 0.004867849980225856 0.023454325778674213 -0.001130263116376716 -0.007641210115442636 0.001336294903783945 0.012263022203885377
 0.0013067077135206074 0.01226676711414507 -0.001130263116376716 -0.007641210115442636 0.004872968562298445 0.023452724335234452 0.9940707218565316 -0.05646147122664293
 -0.0011306896389468646 -0.007641196125868073 0.001336294903783945 0.012263022203885377 0.9940707218565316 -0.05646147122664293 0.004867509829354811 0.02345319409601084
0.09378907878283 0.005233342985931987 0.025255801446524763 0.9935930197394325 -0.06059453137041322 0.0014652115730151875 0.013145363400498385 -0.0012662716376869918 -0.008191802437241233
 0.9935930197394325 -0.06059453137041322 0.005227765041403032 0.02525627388789303 -0.0012657835196752093 -0.008191821803830534 0.001499191175686699 0.013140966459906853
 0.0014652115730151875 0.013145363400498385 -0.0012657835196752093 -0.008191821803830534 0.005233640052529279 0.025254533044373362 0.9935929700886134 -0.06059578543535836
 -0.0012662716376869918 -0.008191802437241233 0.001499191175686699 0.013140966459906853 0.9935929700886134 -0.06059578543535836 0.00522737494222468 0.025255065212836117
0.100041684035 0.00561162058737828 0.02707267690473671 0.9930921386643621 -0.06474198211351695 0.0016334115717671403 0.014023652688153827 -0.001410186319047779 -0.008742325551928345
 0.9930921386643621 -0.06474198211351695 0.005605275536435086 0.027073207503604972 -0.0014096326314971554 -0.008742351111071366 0.0016720898603586791 0.014018531615199134
 0.0016334115717671403 0.014023652688153827 -0.0014096326314971554 -0.008742351111071366 0.005611959187828279 0.027071323292936975 0.9930920823670081 -0.06474332024640292
 -0.001410186319047779 -0.008742325551928345 0.0016720898603586791 0.014018531615199134 0.9930920823670081 -0.06474332024640292 0.0056048320881727605 0.027071922597875466
0.1059090909091 0.005982897123308249 0.028791002648711306 0.99260082366776 -0.06864578655524738 0.0018001356541765266 0.014847432445552622 -0.0015528830956701087 -0.009258732742940923
 0.99260082366776 -0.06864578655524738 0.005975787193128262 0.028791591411843842 -0.0015522642919489145 -0.00925876489340263 0.0018435019852458968 0.014841562639399902
 0.0018001356541765266 0.014847432445552622 -0.0015522642919489145 -0.00925876489340263 0.005983277210970422 0.02878956894255398 0.9926007607322211 -0.06864720368861738
 -0.0015528830956701087 -0.009258732742940923 0.0018435019852458968 0.014841562639399902 0.9926007607322211 -0.06864720368861738 0.005975290595101598 0.02879023570468436
0.1062942892872 0.006007829642211103 0.02890425919566527 0.9925678417394198 -0.0689024712236523 0.0018113836680649347 0.014901497552928564 -0.0015625118141646336 -0.009292625452187848
 0.9925678417394198 -0.0689024712236523 0.006000667970928795 0.02890485190126131 -0.0015618886147448863 -0.009292658062685418 0.0018550672204889597 0.014895576163519796
 0.0018113836680649347 0.014901497552928564 -0.0015618886147448863 -0.009292658062685418 0.006008212538951422 0.02890282022668034 0.9925677783544458 -0.06890389354720292
 -0.0015625118141646336 -0.009292625452187848 0.0018550672204889597 0.014895576163519796 0.9925677783544458 -0.06890389354720292 0.0060001677792052635 0.028903491572008184
0.11254689453939999 0.006422254687332929 0.030750273549181986 0.9920198500818977 -0.07307580561048314 0.0019992015664916786 0.015778757399936998 -0.001723323892274565 -0.009842559738409059
 0.9920198500818977 -0.07307580561048314 0.00641422681457314 0.030750932427576153 -0.0017226272704532323 -0.009842600302248587 0.0020481972149606472 0.015771955388184357
 0.0019992015664916786 0.015778757399936998 -0.0017226272704532323 -0.009842600302248587 0.006422684651474531 0.030748749065364567 0.9920197791623262 -0.07307731225573597
 -0.001723323892274565 -0.009842559738409059 0.0020481972149606472 0.015771955388184357 0.9920197791623262 -0.07307731225573597 0.0064136664923738086 0.03074949753375756
0.11879949979160001 0.006855178137015838 0.03261044432196887 0.9914478864171647 -0.07726178214075073 0.002196936626303814 0.016655288559475432 -0.0018926958788046569 -0.01039198358530278
 0.9914478864171647 -0.07726178214075073 0.00684623440385264 0.03261117355932511 -0.001891921955935057 -0.010392033047588338 0.00225155140486538 0.01664752145861771
 0.002196936626303814 0.016655288559475432 -0.001891921955935057 -0.010392033047588338 0.0068556579484453225 0.032608834153851095 0.9914478075095605 -0.07726337324834691
 -0.0018926958788046569 -0.01039198358530278 0.00225155140486538 0.01664752145861771 0.9914478075095605 -0.07726337324834691 0.006845610572296786 0.03260966501072563
0.1250521050438 0.007306880178320942 0.034484494249792545 0.9908516752328332 -0.08146018837136623 0.0024046577707664 0.017530944371501923 -0.0020706985718319595 -0.01094074971483946
 0.9908516752328332 -0.08146018837136623 0.007296970837441062 0.03448529815586522 -0.002069843501258062 -0.010940809063724223 0.002465198860583034 0.017522123515628336
 0.0024046577707664 0.017530944371501923 -0.002069843501258062 -0.010940809063724223 0.007307412625833565 0.03448279821528495 0.9908515878771843 -0.08146186409192588
 -0.0020706985718319595 -0.01094074971483946 0.002465198860583034 0.017522123515628336 0.9908515878771843 -0.08146186409192588 0.007296280126649716 0.034483716913121756
0.131304710296 0.0077776386612387165 0.036372143848937846 0.9902309429304169 -0.0856708031392705 0.0026224313964520146 0.018405575262118022 -0.002257400158023775 -0.011488708382806552
 0.9902309429304169 -0.0856708031392705 0.007766713865852666 0.03637302686121556 -0.0022564601251800205 -0.01148877864938537 0.0026892060690095953 0.018395607748740005
 0.0026224313964520146 0.018405575262118022 -0.0022564601251800205 -0.01148877864938537 0.007778226542420887 0.03637036175382441 0.9902308466592135 -0.08567256363247829
 -0.002257400158023775 -0.011488708382806552 0.0026892060690095953 0.018395607748740005 0.9902308466592135 -0.08567256363247829 0.007765952915747933 0.03637137393700776
0.1375573155481 0.008159618369644727 0.03802485432161387 0.9896935727371309 -0.0896450168637402 0.0028225093770185613 0.019253473454536155 -0.0024249857632350318 -0.012010228052581054
 0.9896935727371309 -0.0896450168637402 0.008147623174700408 0.03802579836378652 -0.0024239549998735887 -0.012010309294602443 0.0028956763032799387 0.01924237447080408
 0.0028225093770185613 0.019253473454536155 -0.0024239549998735887 -0.012010309294602443 0.00816026366550047 0.0380229861206409 0.9896934671430668 -0.0896468622034848
 -0.0024249857632350318 -0.012010228052581054 0.0028956763032799387 0.01924237447080408 0.9896934671430668 -0.0896468622034848 0.008146789333090564 0.038024074476518024
0.1438099208003 0.008555013031444313 0.03966883084536818 0.989137339873152 -0.09360917355582896 0.0030306737364906556 0.020098115099136882 -0.0025992956298137716 -0.012528723160868895
 0.989137339873152 -0.09360917355582896 0.008541896651304053 0.039669838861051805 -0.0025981700157982767 -0.012528816393198932 0.003110513457390906 0.020085799703821874
 0.0030306737364906556 0.020098115099136882 -0.0025981700157982767 -0.012528816393198932 0.008555718404390313 0.0396668763658079 0.98913722449105 -0.09361110389417666
 -0.0025992956298137716 -0.012528723160868895 0.003110513457390906 0.020085799703821874 0.98913722449105 -0.09361110389417666 0.008540986699150491 0.039668045028572296
0.1500625260525 0.008963683885754161 0.041303936106817395 0.9885623872704085 -0.09756317551738145 0.0032468537730863598 0.020939419158629843 -0.0027802600530016913 -0.013044114821505718
 0.9885623872704085 -0.09756317551738145 0.008949395403983184 0.0413050112267934 -0.002779035475514782 -0.013044221099967534 0.003333645195588136 0.02092579931080008
 0.0032468537730863598 0.020939419158629843 -0.002779035475514782 -0.013044221099967534 0.008964451997277224 0.04130189516771546 0.9885622616293036 -0.09756519101363896
 -0.0027802600530016913 -0.013044114821505718 0.003333645195588136 0.02092579931080008 0.9885622616293036 -0.09756519101363896 0.008948406139955978 0.04130314850504197
0.15631513130469998 0.00938549118336771 0.042930036941427364 0.9879688585945463 -0.10150692538097067 0.003470977959880016 0.02177730595731305 -0.002967808470976181 -0.013556325812443135
 0.9879688585945463 -0.10150692538097067 0.009369979548976002 0.04293118248907663 -0.002966480824520164 -0.013556446233647773 0.0035649983322731805 0.02176229054849335
