! Created with skrf 1.8.0 (http://scikit-rf.org).
# GHz S RI R 50.0 
!freq ReS11 ImS11 ReS12 ImS12 ReS13 ImS13
! ReS14 ImS14
! ReS21 ImS21 ReS22 ImS22 ReS23 ImS23
! ReS24 ImS24
! ReS31 ImS31 ReS32 ImS32 ReS33 ImS33
! ReS34 ImS34
! ReS41 ImS41 ReS42 ImS42 ReS43 ImS43
! ReS44 ImS44
!
0.0 0.001473065568957 0.0 0.9985269344253 0.0 5.685647374211e-05 0.0 -5.685647356374e-05 6.96290983606403e-21
 0.9985269344253 0.0 0.001473065568947 0.0 -5.685647356454e-05 6.962909836162001e-21 5.685647374141e-05 0.0
 5.685647374211e-05 0.0 -5.685647356454e-05 6.962909836162001e-21 0.001473065571833 0.0 0.9985269344282 0.0
 -5.685647356374e-05 6.96290983606403e-21 5.685647374141e-05 0.0 0.9985269344282 0.0 0.001473065571779 0.0
0.005 0.0015847442554692793 0.0012023095035602225 0.9983856822541086 -0.0030861101123084707 7.991530102085602e-05 0.0006439161925404569 -7.759203961477608e-05 -0.000401151107882167
 0.9983856822541086 -0.0030861101123084707 0.0015847309920982097 0.0012023171606235865 -7.759229228248939e-05 -0.0004011512343503508 8.001060701024044e-05 0.0006438801249470963
 7.991530102085602e-05 0.0006439161925404569 -7.759229228248939e-05 -0.0004011512343503508 0.0015847448102040821 0.0012023763922964859 0.9983856826058096 -0.003086043048020816
 -7.759203961477608e-05 -0.000401151107882167 8.001060701024044e-05 0.0006438801249470963 0.9983856826058096 -0.003086043048020816 0.0015847311314363703 0.0012023843905713313
0.006252605252188 0.0016139795278222685 0.0015076379975599856 0.9983484836376847 -0.0038584026836060298 8.645243000613032e-05 0.0008052040067896215 -8.342137766445666e-05 -0.0005019649158711346
 0.9983484836376847 -0.0038584026836060298 0.0016139587949194826 0.0015076476679652272 -8.342177137369167e-05 -0.0005019650703964759 8.660133982691206e-05 0.0008051571506468458
 8.645243000613032e-05 0.0008052040067896215 -8.342177137369167e-05 -0.0005019650703964759 0.0016139803299049873 0.001507721589632619 0.9983484841222378 -0.0038583188612788116
 -8.342137766445666e-05 -0.0005019649158711346 8.660133982691206e-05 0.0008051571506468458 0.9983484841222378 -0.0038583188612788116 0.0016139589467942914 0.0015077316988283433
0.01250521050438 0.001767561846888295 0.003047049650813488 0.9981518342760755 -0.007717682479933465 0.00012367482634148184 0.0016107502503424464 -0.00011636169407013683 -0.0010064169722059232
 0.9981518342760755 -0.007717682479933465 0.0017674790666244143 0.003047069970219549 -0.0001163632522816647 -0.0010064172415091448 0.00012426873409085437 0.0016106375038980696
 0.00012367482634148184 0.0016107502503424464 -0.0001163632522816647 -0.0010064172415091448 0.001767564465542641 0.0030472164741010502 0.9981518356231991 -0.007717515053540372
 -0.00011636169407013683 -0.0010064169722059232 0.00012426873409085437 0.0016106375038980696 0.9981518356231991 -0.007717515053540372 0.0017674790736979995 0.003047237800710506
0.01875781575657 0.0019341365098906468 0.004608543500413587 0.9979367498694398 -0.011587247264708436 0.00016860903309388948 0.002417207307053345 -0.0001557768449236996 -0.0015126135370515693
 0.9979367498694398 -0.011587247264708436 0.0019339505129281527 0.004608575491615262 -0.00015578032905846212 -0.0015126138716796112 0.0001699433940663407 0.002417006079220655
 0.00016860903309388948 0.002417207307053345 -0.00015578032905846212 -0.0015126138716796112 0.0019341419864734543 0.0046087932604065435 0.9979367524841056 -0.011586996298690786
 -0.0001557768449236996 -0.0015126135370515693 0.0001699433940663407 0.002417006079220655 0.9979367524841056 -0.011586996298690786 0.0019339500907575827 0.0046088269761202635
0.02501042100875 0.002114018619734192 0.006189939767789078 0.997702984964007 -0.015468983892173544 0.0002213411322517973 0.0032246231201125235 -0.00020176314695262705 -0.002020327355515352
 0.997702984964007 -0.015468983892173544 0.0021136883248935256 0.006189984479801574 -0.000201769312382507 -0.0020203276956892637 0.0002237116451019674 0.0032243073812180663
 0.0002213411322517973 0.0032246231201125235 -0.000201769312382507 -0.0020203276956892637 0.0021140279833249155 0.0061902721581396335 0.9977029892406962 -0.015468649374988036
 -0.00020176314695262705 -0.002020327355515352 0.0002237116451019674 0.0032243073812180663 0.9977029892406962 -0.015468649374988036 0.002113687161728168 0.006190319480433477
0.03126302626094 0.002307510202248849 0.00779012217314688 0.9974502811719014 -0.019363706338083406 0.00028195761087134054 0.0040329695546204546 -0.00025441428432899753 -0.0025294020768661446
 0.9974502811719014 -0.019363706338083406 0.002306994591570267 0.007790180676614801 -0.0002544238814383286 -0.002529402352364717 0.0002856604908462648 0.004032509813722577
 0.00028195761087134054 0.0040329695546204546 -0.0002544238814383286 -0.002529402352364717 0.0023075244850806974 0.007790536834876313 0.9974502875114406 -0.019363288222584575
 -0.00025441428432899753 -0.0025294020768661446 0.0002856604908462648 0.004032509813722577 0.9974502875114406 -0.019363288222584575 0.0023069923637186835 0.007790599022677781
0.037515631513130004 0.002514906833651829 0.009408367011563135 0.9971783739943116 -0.023271826563282617 0.00035054459354082825 0.004842188597716678 -0.00031382201619267286 -0.00303970606106316
 0.9971783739943116 -0.023271826563282617 0.0025141649350415587 0.009408440395962541 -0.00031383579087541116 -0.0030397061911373174 0.0003558766972460663 0.00484155186551193
 0.00035054459354082825 0.004842188597716678 -0.00031383579087541116 -0.0030397061911373174 0.0025149270672768878 0.009408863531423757 0.9971783828020343 -0.023271324767873667
 -0.00031382201619267286 -0.00303970606106316 0.0003558766972460663 0.00484155186551193 0.9971783828020343 -0.023271324767873667 0.002514161303102126 0.009408941882696892
0.043768236765320004 0.0027365001964624303 0.01104413899080728 0.9968869955715854 -0.027193558607933887 0.0004271874846683669 0.0056522063985856305 -0.0003800764304529838 -0.00355111833874023
 0.9968869955715854 -0.027193558607933887 0.00273549106955924 0.011044228362354684 -0.0003800951243549089 -0.0035511182320358127 0.00043444637121777305 0.005651356145808871
 0.0004271874846683669 0.0056522063985856305 -0.0003800951243549089 -0.0035511182320358127 0.002736527410660418 0.01104471689865324 0.9968870072581024 -0.02719297301866212
 -0.0003800764304529838 -0.00355111833874023 0.00043444637121777305 0.005651356145808871 0.9968870072581024 -0.02719297301866212 0.0027354856775386022 0.01104481274874028
0.050020842017509996 0.0029725792674228035 0.012697006859577939 0.9965758760673342 -0.031129002893423605 0.0005119707517676893 0.006462939067914117 -0.0004532660399479379 -0.0040635228115203734
 0.9965758760673342 -0.031129002893423605 0.0029712619908671364 0.01269711333970802 -0.0004532903905544771 -0.00406352236602259 0.0005214547101019054 0.0064618351818532226
 0.0005119707517676893 0.006462939067914117 -0.0004532903905544771 -0.00406352236602259 0.00297261448953406 0.012697665619048105 0.9965758910501331 -0.031128333372919592
 -0.0004532660399479379 -0.0040635228115203734 0.0005214547101019054 0.0064618351818532226 0.9965758910501331 -0.031128333372919592 0.002971254466052104 0.012697780339459584
0.055454545454549996 0.0031897261572215647 0.014146995657141533 0.9962892611661385 -0.03456018247016319 0.0005923257435503037 0.007168000298652129 -0.0005225698343955369 -0.004509534991316524
 0.9962892611661385 -0.03456018247016319 0.0031881078622744245 0.014147117926776608 -0.0005225996966444806 -0.00450953416021128 0.0006039861763303706 0.007166640604717137
 0.0005923257435503037 0.007168000298652129 -0.0005225996966444806 -0.00450953416021128 0.003189769169959704 0.014147724203575057 0.9962892793584246 -0.034559439869245784
 -0.0005225698343955369 -0.004509534991316524 0.0006039861763303706 0.007166640604717137 0.9962892793584246 -0.034559439869245784 0.0031880981670994978 0.014147856464223998
0.056273447269699996 0.0032234309324932096 0.014366601978312743 0.996244744482204 -0.035078187582632384 0.0006049777702213141 0.0072742955287002035 -0.0005334778083508071 -0.004576805402764377
 0.996244744482204 -0.035078187582632384 0.0032217645924409906 0.014366726702439454 -0.0005335085491084074 -0.004576804505723496 0.0006169858264226353 0.007272894268855458
 0.0006049777702213141 0.0072742955287002035 -0.0005335085491084074 -0.004576804505723496 0.0032234751864698313 0.014367340999747081 0.9962447631866491 -0.03507743395668048
 -0.0005334778083508071 -0.004576805402764377 0.0006169858264226353 0.007272894268855458 0.9962447631866491 -0.03507743395668048 0.003221754544092029 0.014367475997389014
0.06252605252188 0.00348934031985244 0.01605259556558752 0.9958933291894002 -0.039041091266682704 0.000706290700088217 0.008086179077655114 -0.0006207971392517608 -0.005090852500385418
 0.9958933291894002 -0.039041091266682704 0.0034872839984691805 0.01605273968224218 -0.0006208349995020533 -0.005090851028273983 0.0007211226110205701 0.00808443303099708
 0.000706290700088217 0.008086179077655114 -0.0006208349995020533 -0.005090851028273983 0.0034893946242239605 0.016053414193309162 0.9958933520482861 -0.03904025333653812
 -0.0006207971392517608 -0.005090852500385418 0.0007211226110205701 0.00808443303099708 0.9958933520482861 -0.03904025333653812 0.0034872710164852616 0.01605357090993522
0.06877865777407 0.0037705909759297206 0.017754685113213545 0.9955213583153973 -0.04301765648577974 0.0008159903799403108 0.00889848831886172 -0.0007153078442477923 -0.005605550030538716
 0.9955213583153973 -0.04301765648577974 0.0037681037402775884 0.01775484978350431 -0.00071535354919428 -0.005605547848990357 0.000833946617540798 0.008896346355016987
 0.0008159903799403108 0.00889848831886172 -0.00071535354919428 -0.005605547848990357 0.003770656343820439 0.017755582627886735 0.9955213857718048 -0.04301673402553793
 -0.0007153078442477923 -0.005605550030538716 0.000833946617540798 0.008896346355016987 0.9955213857718048 -0.04301673402553793 0.0037680873954737044 0.017755762539946613
0.07503126302626001 0.004067464954354854 0.01947258577574397 0.9951285600382017 -0.047007798279275384 0.0009341562303919483 0.009711117759729685 -0.00081709209858861 -0.006120782872501495
 0.9951285600382017 -0.047007798279275384 0.004064505845891619 0.019472772173020892 -0.0008171463692735094 -0.006120779836250129 0.000955537958949616 0.009708524986213257
 0.0009341562303919483 0.009711117759729685 -0.0008171463692735094 -0.006120779836250129 0.004067542390850589 0.01947356139738425 0.9951285925444434 -0.04700679103241616
 -0.00081709209858861 -0.006120782872501495 0.000955537958949616 0.009708524986213257 0.9951285925444434 -0.04700679103241616 0.004064485687299994 0.019473766016151084
0.08128386827845 0.004380242844463317 0.021206024655674945 0.9947146628271878 -0.05101140984343126 0.0010608661638369403 0.010523958207682524 -0.0009262303884781105 -0.0066364344764646395
 0.9947146628271878 -0.05101140984343126 0.00437677086762652 0.021206233965723558 -0.0009262939416622529 -0.006636430429310039 0.0010859752116046389 0.010520855925337205
 0.0010608661638369403 0.010523958207682524 -0.0009262939416622529 -0.006636430429310039 0.004380333346827166 0.021207077538821024 0.9947147008477117 -0.05101031752753219
 -0.0009262303884781105 -0.0066364344764646395 0.0010859752116046389 0.010520855925337205 0.9947147008477117 -0.05101031752753219 0.004376746423345164 0.021207308410857988
0.08753647353064001 0.0047092037644204075 0.02295473683493082 0.9942793956519771 -0.055028366447557694 0.00119619649796675 0.011336897049779035 -0.0010428014523868464 -0.007152386602306502
 0.9942793956519771 -0.055028366447557694 0.0047051778761823615 0.02295497025624591 -0.001042875000467064 -0.007152381377052988 0.001225335324535875 0.011333222708500327
 0.00119619649796675 0.011336897049779035 -0.001042875000467064 -0.007152381377052988 0.004709308319726274 0.022955866067365157 0.9942794396627879 -0.055027188755163284
 -0.0010428014523868464 -0.007152386602306502 0.001225335324535875 0.011333222708500327 0.9942794396627879 -0.055027188755163284 0.004705148651081275 0.022956124775248832
0.09378907878283 0.005054625326817985 0.02471846254201662 0.9938224881658752 -0.05905852821818184 0.0013402218720473846 0.012149818455370477 -0.0011668822181437142 -0.0076685191393129695
 0.9938224881658752 -0.05905852821818184 0.00505000442557493 0.02471872128659975 -0.0011669664690125837 -0.007668512557737834 0.0013736935318786766 0.012145505610191305
 0.0013402218720473846 0.012149818455370477 -0.0011669664690125837 -0.007668512557737834 0.005054744911096833 0.024719667150192786 0.9938225386563169 -0.0590572648113937
 -0.0011668822181437142 -0.0076685191393129695 0.0013736935318786766 0.012145505610191305 0.9938225386563169 -0.0590572648113937 0.005049969901035611 0.024719955313604443
0.100041684035 0.005416783585299156 0.026496945086220303 0.9933436708740556 -0.06310174216125011 0.0014930151644341977 0.012962603531274444 -0.0012985477371442117 -0.008184709977544226
 0.9933436708740556 -0.06310174216125011 0.0054115264998250145 0.02649723038058911 -0.0012986433941280541 -0.008184701850343272 0.001531123267262206 0.012957581798922821
 0.0014930151644341977 0.012962603531274444 -0.0012986433941280541 -0.008184701850343272 0.005416919162264016 0.026498224030602563 0.9933437283476896 -0.06310039267609392
 -0.0012985477371442117 -0.008184709977544226 0.001531123267262206 0.012957581798922821 0.9933437283476896 -0.06310039267609392 0.005411486132295624 0.026498543307830965
0.1059090909091 0.005772097021375962 0.02817905618171068 0.992874185727067 -0.06690759395068933 0.0016444330917505115 0.013725083636264061 -0.0014290652600854497 -0.00866904274860881
 0.992874185727067 -0.06690759395068933 0.005766205427931403 0.0281793675199279 -0.0014291722559025034 -0.008669032988937791 0.0016871685916015023 0.013719329129650973
 0.0016444330917505115 0.013725083636264061 -0.0014291722559025034 -0.008669032988937791 0.005772248469802533 0.028180403878710424 0.9928742502250101 -0.06690616333572566
 -0.0014290652600854497 -0.00866904274860881 0.0016871685916015023 0.013719329129650973 0.9928742502250101 -0.06690616333572566 0.005766159060240024 0.028180753896993944
0.1062942892872 0.005795952968609979 0.028289929292370043 0.9928426752920898 -0.06715784368821727 0.001654647411651992 0.01377513044128543 -0.001437871115883045 -0.008700834919194482
 0.9928426752920898 -0.06715784368821727 0.005790018446959118 0.028290242378987564 -0.0014379788775265643 -0.00870082504595509 0.0016976960800422246 0.013769325457134858
 0.001654647411651992 0.01377513044128543 -0.0014379788775265643 -0.00870082504595509 0.005796105487979457 0.028291281468839895 0.992842740267472 -0.06715640773332715
 -0.001437871115883045 -0.008700834919194482 0.0016976960800422246 0.013769325457134858 0.992842740267472 -0.06715640773332715 0.0057899716672706065 0.028291633558436162
0.11254689453939999 0.006192406202358808 0.03009716031149602 0.9923192340947768 -0.07122665777123798 0.0018251877278775608 0.014587274503379384 -0.0015849234456991902 -0.00921676761652068
 0.9923192340947768 -0.07122665777123798 0.006185752900729976 0.03009750245052707 -0.0015850440056994189 -0.009216755785684563 0.0018734815524117997 0.014580607879051065
 0.0018251877278775608 0.014587274503379384 -0.0015850440056994189 -0.009216755785684563 0.006192576598989545 0.03009858454876985 0.9923193071066982 -0.07122513493033086
 -0.0015849234456991902 -0.00921676761652068 0.0018734815524117997 0.014580607879051065 0.9923193071066982 -0.07122513493033086 0.006185699112920159 0.03009897119180595
0.11879949979160001 0.006606414223743336 0.031918382691493434 0.9917730812609172 -0.07530799984358737 0.0020047032250699167 0.015398908273691725 -0.0017397737311816068 -0.009732379527647297
 0.9917730812609172 -0.07530799984358737 0.006599000695133609 0.0319187551629337 -0.001739907778187783 -0.009732365516477246 0.0020585472171561143 0.015391297555156369
 0.0020047032250699167 0.015398908273691725 -0.001739907778187783 -0.009732365516477246 0.006606603415623563 0.03191987775593731 0.9917731628610468 -0.0753063896706919
 -0.0017397737311816068 -0.009732379527647297 0.0020585472171561143 0.015391297555156369 0.9917731628610468 -0.0753063896706919 0.0065989392752137995 0.03192030073839475
0.1250521050438 0.007038246088691627 0.03375333964642832 0.9912039522130738 -0.07940167650642972 0.002193258933382805 0.016209901616282975 -0.0019024888172040405 -0.010247539891073873
 0.9912039522130738 -0.07940167650642972 0.007030030771561136 0.0337537437526171 -0.0019026370347240988 -0.010247523465626846 0.0022529584761209675 0.016201260242620957
 0.002193258933382805 0.016209901616282975 -0.0019026370347240988 -0.010247523465626846 0.007038454976094251 0.03375490423779342 0.9912040429717718 -0.07939997853035968
 -0.0019024888172040405 -0.010247539891073873 0.0022529584761209675 0.016201260242620957 0.9912040429717718 -0.07939997853035968 0.007029961066853311 0.03375536539347596
0.131304710296 0.00748816887436336 0.035601772471149276 0.990611583955446 -0.08350748609598543 0.002390917722170145 0.017020121766642984 -0.002073133315019613 -0.010762115711055445
 0.990611583955446 -0.08350748609598543 0.007479110081100773 0.035602209539676924 -0.002073296381169997 -0.010762096626156518 0.0024567785191539444 0.01701035902952507
 0.002390917722170145 0.017020121766642984 -0.002073296381169997 -0.010762096626156518 0.007488398338078412 0.03560340522367232 0.9906116844620467 -0.08350569981935924
 -0.002073133315019613 -0.010762115711055445 0.0024567785191539444 0.01701035902952507 0.9906116844620467 -0.08350569981935924 0.0074790314088537015 0.03560390643745057
0.1375573155481 0.007851832734495943 0.03722160302224686 0.9901003703892837 -0.08738329474024689 0.002572031653498685 0.017804798325710993 -0.0022259841195774606 -0.011251407398192931
 0.9901003703892837 -0.08738329474024689 0.00784188425452266 0.03722206565208027 -0.0022261628403864625 -0.0112513856272312 0.002644199143411599 0.017793930544747504
 0.002572031653498685 0.017804798325710993 -0.0022261628403864625 -0.0112513856272312 0.007852082886510663 0.037223303117729006 0.9901004810983514 -0.08738141984561593
 -0.0022259841195774606 -0.011251407398192931 0.002644199143411599 0.017793930544747504 0.9901004810983514 -0.08738141984561593 0.007841796934983875 0.0372238367140753
0.1438099208003 0.008228242215382682 0.0388331427096469 0.9895712787429346 -0.0912495387444014 0.0027604564546092813 0.018586544733635506 -0.00238496186450877 -0.01173797058491882
 0.9895712787429346 -0.0912495387444014 0.008217361465477734 0.03883363185899791 -0.002385156933766281 -0.01173794589152654 0.0028392078261652905 0.018574489261923694
 0.0027604564546092813 0.018586544733635506 -0.002385156933766281 -0.01173794589152654 0.00822851376938978 0.03883490876518169 0.9895714002444128 -0.09124757473952444
 -0.00238496186450877 -0.01173797058491882 0.0028392078261652905 0.018574489261923694 0.9895714002444128 -0.09124757473952444 0.008217264953569677 0.038835476185131904
0.1500625260525 0.00861726868798422 0.040436264300613874 0.989024441616569 -0.09510612992566217 0.002956129414083826 0.019365289189031604 -0.0025500046791516497 -0.012221735285375774
 0.989024441616569 -0.09510612992566217 0.008605412932063565 0.040436781025805266 -0.0025502167871514227 -0.012221707423897665 0.0030417403041377174 0.01935196036867628
 0.002956129414083826 0.019365289189031604 -0.0025502167871514227 -0.012221707423897665 0.008617562329872343 0.04043809487986903 0.98902457451686 -0.09510407629885279
 -0.0025500046791516497 -0.012221735285375774 0.0030417403041377174 0.01935196036867628 0.98902457451686 -0.09510407629885279 0.008605306665371446 0.040438697679714454
0.15631513130469998 0.009018782653574574 0.042030844436644024 0.9884599922392385 -0.09895298025143563 0.0031589871083811272 0.02014096107028444 -0.0027210499536307977 -0.01270263296109023
