! Created with skrf 1.8.0 (http://scikit-rf.org).
# GHz S RI R 50.0 
!freq ReS11 ImS11 ReS12 ImS12 ReS13 ImS13
! ReS14 ImS14
! ReS21 ImS21 ReS22 ImS22 ReS23 ImS23
! ReS24 ImS24
! ReS31 ImS31 ReS32 ImS32 ReS33 ImS33
! ReS34 ImS34
! ReS41 ImS41 ReS42 ImS42 ReS43 ImS43
! ReS44 ImS44
!
0.0 0.001512990627862 0.0 0.9984870093665 0.0 5.84153585846e-05 0.0 -5.841535849544e-05 7.153818180248574e-21
 0.9984870093665 0.0 0.001512990627831 0.0 -5.841535849477e-05 7.153818180166523e-21 5.841535858325e-05 0.0
 5.84153585846e-05 0.0 -5.841535849477e-05 7.153818180166523e-21 0.001512990623583 0.0 0.9984870093622 0.0
 -5.841535849544e-05 7.153818180248574e-21 5.841535858325e-05 0.0 0.9984870093622 0.0 0.001512990623587 0.0
0.005 0.0016277929590108229 0.001235786302283563 0.9983417842248812 -0.003169563734484593 8.206307239914183e-05 0.0006556675593949446 -7.96668108373925e-05 -0.00040946160024409327
 0.9983417842248812 -0.003169563734484593 0.0016277914145950642 0.0012357873006683298 -7.966380987313303e-05 -0.0004094594085065889 8.208051948308058e-05 0.0006556609533935389
 8.206307239914183e-05 0.0006556675593949446 -7.966380987313303e-05 -0.0004094594085065889 0.0016277942752497845 0.001235852863014945 0.9983417845715011 -0.0031694966689263014
 -7.96668108373925e-05 -0.00040946160024409327 8.208051948308058e-05 0.0006556609533935389 0.9983417845715011 -0.0031694966689263014 0.0016277907869363271 0.0012358548672623526
0.006252605252188 0.0016578775461167123 0.0015496070491570451 0.9983034920579431 -0.003962734672878014 8.879591629080086e-05 0.0008198986731193304 -8.565614897171351e-05 -0.0005123605606057502
 0.9983034920579431 -0.003962734672878014 0.001657875130939145 0.0015496083242505594 -8.565147830428771e-05 -0.000512357860518152 8.88231763221947e-05 0.0008198900888852874
 8.879591629080086e-05 0.0008198986731193304 -8.565147830428771e-05 -0.000512357860518152 0.0016578795490689508 0.0015496902526344032 0.9983034925456942 -0.003962650844706813
 -8.565614897171351e-05 -0.0005123605606057502 8.88231763221947e-05 0.0008198900888852874 0.9983034925456942 -0.003962650844706813 0.0016578740962274437 0.001549692768551531
0.01250521050438 0.0018161061572202258 0.003131786335725904 0.9981007903654093 -0.007926308768132828 0.00012728517474258982 0.001640135174780497 -0.00011958114009761331 -0.0010272320074928912
 0.9981007903654093 -0.007926308768132828 0.0018160964995677063 0.0031317891507606885 -0.0001195627219981617 -0.0010272270421464772 0.00012739389993973702 0.0016401144913726557
 0.00012728517474258982 0.001640135174780497 -0.0001195627219981617 -0.0010272270421464772 0.0018161135574306117 0.0031319525323047336 0.9981007917269916 -0.007926141367316506
 -0.00011958114009761331 -0.0010272320074928912 0.00012739389993973702 0.0016401144913726557 0.9981007917269916 -0.007926141367316506 0.0018160917895247686 0.003131957674936458
0.01875781575657 0.001988017368770501 0.004736578560214538 0.9978786555634397 -0.011900375816486891 0.0001739719146262523 0.002461275331621669 -0.0001602939463076474 -0.0015438594608830232
 0.9978786555634397 -0.011900375816486891 0.001987995640792985 0.004736583176512632 -0.0001602528571565938 -0.001543852751715069 0.00017421619882936748 0.0024612383661730733
 0.0001739719146262523 0.002461275331621669 -0.0001602528571565938 -0.001543852751715069 0.001988033554843141 0.0047368276718432484 0.9978786582047251 -0.011900124917300433
 -0.0001602939463076474 -0.0015438594608830232 0.00017421619882936748 0.0024612383661730733 0.9978786582047251 -0.011900124917300433 0.0019879846536006622 0.004736835582130112
0.02501042100875 0.00217394228057773 0.006361737943931095 0.9976368292540924 -0.015886865735332056 0.00022894597242960994 0.0032833596204356022 -0.00020789486784213268 -0.002062007796314616
 0.9976368292540924 -0.015886865735332056 0.0021739036484165345 0.006361744617600242 -0.0002078222851948586 -0.0020619999600927684 0.00022937995928157677 0.003283301543051693
 0.00022894597242960994 0.0032833596204356022 -0.0002078222851948586 -0.0020619999600927684 0.0021739706121320715 0.00636206988212144 0.9976368335731232 -0.01588653137537896
 -0.00020789486784213268 -0.002062007796314616 0.00022937995928157677 0.003283301543051693 0.9976368335731232 -0.01588653137537896 0.0021738837870919855 0.006362080725481742
0.03126302626094 0.0023741982763155972 0.008006110538087497 0.9973750396877711 -0.01988660648746316 0.0002922976165251376 0.004106351601838964 -0.000262481402086624 -0.0025815132426258007
 0.9973750396877711 -0.01988660648746316 0.0023741378977829557 0.008006119519322966 -0.00026236858745437683 -0.002581504992627889 0.0002929755506579241 0.0041062669308513326
 0.0002922976165251376 0.004106351601838964 -0.00026236858745437683 -0.002581504992627889 0.002374242096535268 0.008006525188966928 0.997375046085587 -0.01988618868263965
 -0.000262481402086624 -0.0025815132426258007 0.0002929755506579241 0.0041062669308513326 0.997375046085587 -0.01988618868263965 0.0023741065781074855 0.008006539154174371
0.037515631513130004 0.0025890959049575018 0.009668945282374377 0.9970930088571854 -0.02390001296161509 0.0003641166898693309 0.004930184515202252 -0.00032414896198132306 -0.0031022367910070363
 0.9970930088571854 -0.02390001296161509 0.002589008927298322 0.009668956815078508 -0.0003239872520480837 -0.0031022289374602495 0.00036509294070228985 0.004930067109857956
 0.0003641166898693309 0.004930184515202252 -0.0003239872520480837 -0.0031022289374602495 0.0025891585365889536 0.009669442513062244 0.9970930177336557 -0.02389951169955127
 -0.00032414896198132306 -0.0031022367910070363 0.00036509294070228985 0.004930067109857956 0.9970930177336557 -0.02389951169955127 0.002588963571973074 0.00966945981181358
0.043768236765320004 0.0028189415287937602 0.011349684356027753 0.9967904553580186 -0.02792729655213935 0.00044449220910995277 0.005754775441815313 -0.0003929911309654854 -0.0036240500332231844
 0.9967904553580186 -0.02792729655213935 0.0028188230865799353 0.011349698677421784 -0.0003927719325021937 -0.003624043483521633 0.0004458212832592445 0.005754618494062942
 0.00044449220910995277 0.005754775441815313 -0.0003927719325021937 -0.003624043483521633 0.002819026279022166 0.01135026399514518 0.996790467116843 -0.027926711811382718
 -0.0003929911309654854 -0.0036240500332231844 0.0004458212832592445 0.005754618494062942 0.996790467116843 -0.027926711811382718 0.0028187611285329264 0.011350284861910137
0.050020842017509996 0.0030640385605552483 0.013047876515424847 0.9964670958424243 -0.031968551750180735 0.0005335121204125623 0.006580031160867614 -0.00046909975766869265 -0.004146829308178298
 0.9964670958424243 -0.031968551750180735 0.003063883774109988 0.013047893855708547 -0.0004688145443764565 -0.004146825067028312 0.0005352486679291716 0.00657982718676483
 0.0005335121204125623 0.006580031160867614 -0.0004688145443764565 -0.004146825067028312 0.0030641487201400258 0.013048538354793622 0.9964671108902038 -0.03196788349817677
 -0.00046909975766869265 -0.004146829308178298 0.0005352486679291716 0.00657982718676483 0.9964671108902038 -0.03196788349817677 0.0030638026541584974 0.01304856304672395
0.055454545454549996 0.003289655215267557 0.014537529148875482 0.9961689687025639 -0.03549188859062462 0.000617960795519505 0.007297665264804368 -0.0005412117589377258 -0.004601830278030786
 0.9961689687025639 -0.03549188859062462 0.0032894648694385673 0.014537549293892494 -0.0005408623028054638 -0.004601828934680885 0.0006200959456185682 0.007297413813983516
 0.000617960795519505 0.007297665264804368 -0.0005408623028054638 -0.004601828934680885 0.003289790114739028 0.01453826223392683 0.9961689869400134 -0.03549114772065867
 -0.0005412117589377258 -0.004601830278030786 0.0006200959456185682 0.007297413813983516 0.9961689869400134 -0.03549114772065867 0.0032893650227817208 0.01453829047653592
0.056273447269699996 0.0033246880962600287 0.014763134567075101 0.9961226458710087 -0.03602379860066864 0.0006312631266935944 0.007405851022503432 -0.0005525649764908747 -0.004670452833989161
 0.9961226458710087 -0.03602379860066864 0.0033244920701212934 0.014763155149082137 -0.0005522052869617026 -0.00467045200351097 0.0006334619436264571 0.007405591853456266
 0.0006312631266935944 0.007405851022503432 -0.0005522052869617026 -0.00467045200351097 0.003324826938030292 0.01476387837245575 0.9961226646162697 -0.036023046782673374
 -0.0005525649764908747 -0.004670452833989161 0.0006334619436264571 0.007405591853456266 0.9961226646162697 -0.036023046782673374 0.0033243892344250693 0.014763907169427538
0.06252605252188 0.0036011892558910296 0.01649511199911601 0.9957568204761101 -0.0400930060032318 0.0007378305502438499 0.008232128524886266 -0.0006434751906208869 -0.00519479913938759
 0.9957568204761101 -0.0400930060032318 0.0036009470767326573 0.016495136038131405 -0.0006430326269622883 -0.005194802919192934 0.0007405465786728921 0.008231805298789658
 0.0007378305502438499 0.008232128524886266 -0.0006430326269622883 -0.005194802919192934 0.0036013600364347277 0.01649593749506715 0.9957568433314079 -0.040092170557145056
 -0.0006434751906208869 -0.00519479913938759 0.0007405465786728921 0.008231805298789658 0.9957568433314079 -0.040092170557145056 0.003600819978092533 0.01649597069977912
0.06877865777407 0.003893839362288386 0.018243489026198018 0.9953693345676473 -0.0441761056030336 0.0008532982130078735 0.009058752260932362 -0.0007419170351914007 -0.005719746129212167
 0.9953693345676473 -0.0441761056030336 0.0038935460973258495 0.018243516729722062 -0.0007413832622126656 -0.005719755816468539 0.0008565865395589931 0.009058355413208447
 0.0008532982130078735 0.009058752260932362 -0.0007413832622126656 -0.005719755816468539 0.0038940453208351623 0.018244395901235753 0.9953693619491625 -0.0441751864539143
 -0.0007419170351914007 -0.005719746129212167 0.0008565865395589931 0.009058355413208447 0.9953693619491625 -0.0441751864539143 0.0038933921932549865 0.01824443383938622
0.07503126302626001 0.004202934026509404 0.020007963763464465 0.9949599032485091 -0.04827300055665708 0.0009777483301909606 0.009885606519820957 -0.0008479753255340271 -0.00624517049910502
 0.9949599032485091 -0.04827300055665708 0.004202584722047426 0.020007995331058556 -0.0008473420703528615 -0.006245187488573661 0.0009816641829996388 0.009885125774506795
 0.0009777483301909606 0.009885606519820957 -0.0008473420703528615 -0.006245187488573661 0.004203178385854368 0.020008951669557705 0.9949599355771822 -0.048271997616840104
 -0.0008479753255340271 -0.00624517049910502 0.0009816641829996388 0.009885125774506795 0.9949599355771822 -0.048271997616840104 0.004202401474468721 0.020008994690166676
0.08128386827845 0.004528767173311478 0.021788246335567495 0.9945282420737732 -0.0523835713670785 0.0011112614090662038 0.010712571690913476 -0.0009617329984277348 -0.006770947352117895
 0.9945282420737732 -0.0523835713670785 0.0045283568526374406 0.021788281958767784 -0.0009609920501672399 -0.006770973136192706 0.001115860154020751 0.010711996051700551
 0.0011112614090662038 0.010712571690913476 -0.0009609920501672399 -0.006770973136192706 0.004529053138567926 0.021789314887889863 0.99452827977464 -0.052382484536201375
 -0.0009617329984277348 -0.006770947352117895 0.001115860154020751 0.010711996051700551 0.99452827977464 -0.052382484536201375 0.004528141726943215 0.0217893633635536
0.08753647353064001 0.0048716310262003374 0.023584054822536234 0.9940740672725308 -0.05650767988669412 0.001253916153345937 0.011539524548786189 -0.0010832710462746352 -0.007296949938647412
 0.9940740672725308 -0.05650767988669412 0.004871154687818651 0.023584094684786155 -0.0010824142561417526 -0.007296986107357263 0.001259253289444884 0.011538842290071145
 0.001253916153345937 0.011539524548786189 -0.0010824142561417526 -0.007296986107357263 0.0048719617849367035 0.023585203597976653 0.9940741107760962 -0.05650650905283399
 -0.0010832710462746352 -0.007296949938647412 0.001259253289444884 0.011538842290071145 0.9940741107760962 -0.05650650905283399 0.0048709051519120585 0.023585257925279306
0.09378907878283 0.005231816065533655 0.025395112350493354 0.9935970959472221 -0.06064517218032636 0.0014057893701410785 0.012366338462025204 -0.001212668447432012 -0.007823049477124273
 0.9935970959472221 -0.06064517218032636 0.005231268681519841 0.02539515662710579 -0.001211687728860013 -0.007823097718138711 0.00141192052415343 0.012365537120036817
 0.0014057893701410785 0.012366338462025204 -0.001211687728860013 -0.007823097718138711 0.005232194787920007 0.025396340887016203 0.9935971456896583 -0.0606439172203441
 -0.001212668447432012 -0.007823049477124273 0.00141192052415343 0.012365537120036817 0.9935971456896583 -0.0606439172203441 0.005230982205733042 0.02539640148699855
0.100041684035 0.005609610967419409 0.02722114496235626 0.9930970462555878 -0.06479588061351811 0.0015669558787795277 0.013192883552143268 -0.0013500020933962904 -0.008349115029440376
 0.9930970462555878 -0.06479588061351811 0.00560898748148067 0.027221193820635547 -0.0013488894223665994 -0.008349177128049423 0.0015739367992588197 0.013191949916051998
 0.0015669558787795277 0.013192883552143268 -0.0013488894223665994 -0.008349177128049423 0.005610040805496743 0.02722245276092947 0.993097102679088 -0.0647945413909093
 -0.0013500020933962904 -0.008349115029440376 0.0015739367992588197 0.013191949916051998 0.993097102679088 -0.0647945413909093 0.0056086615372315934 0.02722252007959104
0.1059090909091 0.005980402889887354 0.02894805969367371 0.9926065631510994 -0.06870274018838446 0.0017267105251189921 0.013968145527021258 -0.001486159678422586 -0.00884262223805859
 0.9926065631510994 -0.06870274018838446 0.005979703364719745 0.028948112996441087 -0.001484915942308283 -0.008842699051180406 0.0017345396670373563 0.013967075058655559
 0.0017267105251189921 0.013968145527021258 -0.001484915942308283 -0.008842699051180406 0.005980883545038694 0.028949441380904824 0.9926066262520412 -0.06870132176150762
 -0.001486159678422586 -0.00884262223805859 0.0017345396670373563 0.013967075058655559 0.9926066262520412 -0.06870132176150762 0.005979338084406629 0.028949515432767598
0.1062942892872 0.006005302527417113 0.029061880022032457 0.9925736375821034 -0.0689596254127252 0.001737488421121 0.014019026818732126 -0.0014953467132822504 -0.008875013414914586
 0.9925736375821034 -0.0689596254127252 0.006004597852985135 0.029061933621342333 -0.0014940941287237034 -0.008875091253989864 0.0017453749721970079 0.014017946921870566
 0.001737488421121 0.014019026818732126 -0.0014940941287237034 -0.008875091253989864 0.006005786614926353 0.02906326654274121 0.9925737011353832 -0.06895820178124915
 -0.0014953467132822504 -0.008875013414914586 0.0017453749721970079 0.014017946921870566 0.9925737011353832 -0.06895820178124915 0.006004229912295633 0.029063341051693403
0.11254689453939999 0.006419175573350004 0.03091704499069142 0.9920265907001212 -0.0731362158591471 0.001917457572743038 0.01484463224337525 -0.0016487747967291592 -0.009400609150548333
 0.9920265907001212 -0.0731362158591471 0.006418384591605173 0.030917103482611428 -0.0016473744009995264 -0.009400704710494263 0.0019263057272113037 0.014843391354446494
 0.001917457572743038 0.01484463224337525 -0.0016473744009995264 -0.009400704710494263 0.0064197170254950715 0.03091850965467848 0.992026661838973 -0.07313470766062083
 -0.0016487747967291592 -0.009400609150548333 0.0019263057272113037 0.014843391354446494 0.992026661838973 -0.07313470766062083 0.006417972126592643 0.0309185918517431
0.11879949979160001 0.006851512869325266 0.03278636648018835 0.9914556279291105 -0.07732545121106858 0.002106931654818288 0.015669560876407366 -0.0018103565151143968 -0.009925764413459326
 0.9914556279291105 -0.07732545121106858 0.006850630427441424 0.03278643000874931 -0.0018088004746268519 -0.009925879772123976 0.0021167974869435277 0.015668143490819943
 0.002106931654818288 0.015669560876407366 -0.0018088004746268519 -0.009925879772123976 0.006852114782376942 0.03278790866876472 0.9914557071166797 -0.07732385827609191
 -0.0018103565151143968 -0.009925764413459326 0.0021167974869435277 0.015668143490819943 0.9914557071166797 -0.07732385827609191 0.006850170909121299 0.03278799907877701
0.1250521050438 0.007302595013192407 0.03466956950083562 0.9908604732875789 -0.08152712143792247 0.0023059766466723515 0.016493670914738395 -0.0019801596416143567 -0.01045033901745352
 0.9908604732875789 -0.08152712143792247 0.007301615921972117 0.0346696382028944 -0.001978440187437165 -0.010450476350067989 0.0023169163245416653 0.016492060746011124
 0.0023059766466723515 0.016493670914738395 -0.001978440187437165 -0.010450476350067989 0.0073032604639701034 0.03467118855704676 0.9908605609950325 -0.08152544358409834
 -0.0019801596416143567 -0.01045033901745352 0.0023169163245416653 0.016492060746011124 0.9908605609950325 -0.08152544358409834 0.007301106820004463 0.03467128773265158
0.131304710296 0.0077727003274597785 0.03656637686646031 0.9902408526426123 -0.08574100780322072 0.0025146560983751575 0.017316817769444458 -0.0021582494705526317 -0.010974190405234946
 0.9902408526426123 -0.08574100780322072 0.007771619359832453 0.036566450871917525 -0.0021563588991296606 -0.010974351984251406 0.002526725876154688 0.01731499774065575
 0.0025146560983751575 0.017316817769444458 -0.0021563588991296606 -0.010974351984251406 0.0077734323732568215 0.03656807209069469 0.9902409493494273 -0.08573924483939761
 -0.0021582494705526317 -0.010974190405234946 0.002526725876154688 0.01731499774065575 0.9902409493494273 -0.08573924483939761 0.007771058141551786 0.036568180613239895
0.1375573155481 0.0081538212351187 0.03822872577849559 0.989704818185176 -0.0897189880047361 0.002706475499653797 0.018113869083117493 -0.0023181232338675343 -0.011472215213003118
 0.989704818185176 -0.0897189880047361 0.008152634052221289 0.038228802948048875 -0.0023160504700434604 -0.01147240121931247 0.002719701962811569 0.018111841957529618
 0.002706475499653797 0.018113869083117493 -0.0023160504700434604 -0.01147240121931247 0.008154624131231575 0.03823049579604078 0.9897049243035266 -0.08971713983359836
 -0.0023181232338675343 -0.011472215213003118 0.002719701962811569 0.018111841957529618 0.9897049243035266 -0.08971713983359836 0.008152017107997329 0.03823061348576238
0.1438099208003 0.008548334775034737 0.03988238771846706 0.9891499645391939 -0.09368696241251132 0.002906041286868466 0.01890777284140457 -0.0024843975434298005 -0.011967343447477716
 0.9891499645391939 -0.09368696241251132 0.00854703627585515 0.03988246803067354 -0.002482134369926623 -0.011967556105982081 0.0029204754495019214 0.01890552302595123
 0.002906041286868466 0.01890777284140457 -0.002482134369926623 -0.011967556105982081 0.008549211768761477 0.03988423172279899 0.9891500805466773 -0.09368502884974347
 -0.0024843975434298005 -0.011967343447477716 0.0029204754495019214 0.01890552302595123 0.9891500805466773 -0.09368502884974347 0.008546360874487959 0.039884359190533805
0.1500625260525 0.008956103271642112 0.04152722669618663 0.9885764334579681 -0.09764483479427619 0.0031132853421096036 0.0196984504649451 -0.0026570059170793266 -0.012459500157128992
 0.9885764334579681 -0.09764483479427619 0.008954688333538123 0.04152731013569764 -0.002654544138553208 -0.012459741781429312 0.003128977957384833 0.019695961790946515
 0.0031132853421096036 0.0196984504649451 -0.002654544138553208 -0.012459741781429312 0.008957057605737562 0.041529143847638075 0.9885765598389251 -0.09764281564687255
 -0.0026570059170793266 -0.012459500157128992 0.003128977957384833 0.019695961790946515 0.9885765598389251 -0.09764281564687255 0.008953951728593978 0.04152928174201552
0.15631513130469998 0.009376988084961863 0.04316311083990682 0.9879843674024174 -0.10159250921021143 0.0033281387486008684 0.020485824695328215 -0.0028358810587687795 -0.012948611965930279
 0.9879843674024174 -0.10159250921021143 0.00937545156273034 0.043163197398309865 -0.0028332125021597967 -0.012948884957895085 0.0033451403056220614 0.020483080423503656
