! Created with skrf 1.8.0 (http://scikit-rf.org).
# GHz S RI R 50.0 
!freq ReS11 ImS11 ReS12 ImS12 ReS13 ImS13
! ReS14 ImS14
! ReS21 ImS21 ReS22 ImS22 ReS23 ImS23
! ReS24 ImS24
! ReS31 ImS31 ReS32 ImS32 ReS33 ImS33
! ReS34 ImS34
! ReS41 ImS41 ReS42 ImS42 ReS43 ImS43
! ReS44 ImS44
!
0.0 0.001579966451323 0.0 0.9984200335419 0.0 6.091027788359e-05 0.0 -6.091027730682e-05 7.459357613897479e-21
 0.9984200335419 0.0 0.001579966451328 0.0 -6.091027730665e-05 7.459357613876659e-21 6.091027788458e-05 0.0
 6.091027788359e-05 0.0 -6.091027730665e-05 7.459357613876659e-21 0.001579966452428 0.0 0.998420033543 0.0
 -6.091027730682e-05 7.459357613897479e-21 6.091027788458e-05 0.0 0.998420033543 0.0 0.001579966452447 0.0
0.005 0.0017000116814206042 0.001294224915629685 0.9982681691201575 -0.003309357788544617 8.504910904375912e-05 0.000660626395305548 -8.273216077652608e-05 -0.00041646488766387596
 0.9982681691201575 -0.003309357788544617 0.0016999962098444795 0.0012942339036541282 -8.273112989646074e-05 -0.0004164640468762969 8.514436659746908e-05 0.0006605900433637192
 8.504910904375912e-05 0.000660626395305548 -8.273112989646074e-05 -0.0004164640468762969 0.0017000121029448634 0.0012941573479227481 0.9982681687542239 -0.003309424854578617
 -8.273216077652608e-05 -0.00041646488766387596 8.514436659746908e-05 0.0006605900433637192 0.9982681687542239 -0.003309424854578617 0.0016999950624736833 0.001294167344604153
0.006252605252188 0.00173152997668826 0.0016228594742000034 0.9982280462849902 -0.0041375007803658445 9.193723674730625e-05 0.0008261075029107829 -8.890359683123654e-05 -0.0005211152072886719
 0.9982280462849902 -0.0041375007803658445 0.0017315057925956791 0.0016228709179566159 -8.890199308946485e-05 -0.0005211141696138577 9.208606680887974e-05 0.0008260603084638792
 9.193723674730625e-05 0.0008261075029107829 -8.890199308946485e-05 -0.0005211141696138577 0.0017315307161082595 0.0016227750349569695 0.9982280457928102 -0.004137584589334713
 -8.890359683123654e-05 -0.0005211152072886719 9.208606680887974e-05 0.0008260603084638792 0.9982280457928102 -0.004137584589334713 0.001731504078615511 0.001622787751152064
0.01250521050438 0.0018976470787425254 0.003279599602900984 0.9980151950432723 -0.008275759628408812 0.00013139718697947206 0.0016526074902536898 -0.00012397467422825794 -0.0010447260016271096
 0.9980151950432723 -0.008275759628408812 0.0018975505210194249 0.003279624597971158 -0.0001239683587269398 -0.0010447240720011224 0.00013199065885239375 0.0016524941324371658
 0.00013139718697947206 0.0016526074902536898 -0.0001239683587269398 -0.0010447240720011224 0.0018976506070978575 0.0032794309136511372 0.998015193644287 -0.00827592703486443
 -0.00012397467422825794 -0.0010447260016271096 0.00013199065885239375 0.0016524941324371658 0.998015193644287 -0.00827592703486443 0.0018975442386182386 0.0032794585856732003
0.01875781575657 0.002078687254549746 0.004959814665975438 0.9977812101571151 -0.012424838406644134 0.0001793843567732975 0.0024800384452044882 -0.0001662325583664982 -0.0015700882724063855
 0.9977812101571151 -0.012424838406644134 0.002078470302710822 0.004959855471266415 -0.00016621848109675194 -0.0015700856237798753 0.0001807174620103104 0.002479836154925913
 0.0001793843567732975 0.0024800384452044882 -0.00016621848109675194 -0.0015700856237798753 0.0020786956236020873 0.004959561811854236 0.9977812074340929 -0.01242508932251597
 -0.0001662325583664982 -0.0015700882724063855 0.0001807174620103104 0.002479836154925913 0.9977812074340929 -0.01242508932251597 0.0020784565990278757 0.004959606880085374
0.02501042100875 0.002275008719051578 0.006661148226994849 0.9975258111173444 -0.016586738312446423 0.00023599356107606955 0.003308428674754987 -0.00021578271672042528 -0.002096961893587431
 0.9975258111173444 -0.016586738312446423 0.0022746234603721774 0.0066612072376098655 -0.00021575786634266006 -0.0020969587293339885 0.00023836136417144848 0.0033081110144325436
 0.00023599356107606955 0.003308428674754987 -0.00021575786634266006 -0.0020969587293339885 0.0022750239888767536 0.006660811252924838 0.9975258066519138 -0.01658707271023094
 -0.00021578271672042528 -0.002096961893587431 0.00023836136417144848 0.0033081110144325436 0.9975258066519138 -0.01658707271023094 0.002274599483781347 0.006660876341615034
0.03126302626094 0.0024869549123690874 0.008382382827550935 0.9972487033546193 -0.020762310147551057 0.0003013197604668665 0.004137731527348367 -0.0002727276071498541 -0.002625175606335944
 0.9972487033546193 -0.020762310147551057 0.0024863535152379293 0.008382462571920045 -0.00027268900435000024 -0.0026251721606097363 0.0003050176749414248 0.0041372683702846046
 0.0003013197604668665 0.004137731527348367 -0.00027268900435000024 -0.0026251721606097363 0.0024869791517746504 0.008381961771215063 0.9972486967269908 -0.020762728027520883
 -0.0002727276071498541 -0.002625175606335944 0.0003050176749414248 0.0041372683702846046 0.9972486967269908 -0.020762728027520883 0.002486316415038181 0.008382049685729573
0.037515631513130004 0.002714861793797763 0.010122721027869411 0.9969495857858415 -0.024951973213948944 0.0003754572547479264 0.004967870595346002 -0.00033716738969382813 -0.0031545818326668635
 0.9969495857858415 -0.024951973213948944 0.0027139964901281796 0.010122824166126098 -0.000337112083851604 -0.0031545783704504796 0.00038078116691377134 0.004967228089288563
 0.0003754572547479264 0.004967870595346002 -0.000337112083851604 -0.0031545783704504796 0.002714897081776148 0.010122215917689817 0.9969495765739605 -0.02495247460595573
 -0.00033716738969382813 -0.0031545818326668635 0.00038078116691377134 0.004967228089288563 0.9969495765739605 -0.02495247460595573 0.0027139434170832697 0.010122329643740897
0.043768236765320004 0.002959060659344954 0.011881566599741376 0.9966281538817424 -0.029155934048167128 0.0004584992915831808 0.005798753477234255 -0.0004092001792902882 -0.003685042922146384
 0.9966281538817424 -0.029155934048167128 0.0029578837305708093 0.011881695922835904 -0.0004091252464625803 -0.0036850397392523466 0.0004657456191092987 0.005797894002934236
 0.0004584992915831808 0.005798753477234255 -0.0004091252464625803 -0.0036850397392523466 0.0029591090848970197 0.011880977471125905 0.9966281416604788 -0.02915651899541257
 -0.0004092001792902882 -0.003685042922146384 0.0004657456191092987 0.005797894002934236 0.9966281416604788 -0.02915651899541257 0.002957811836663162 0.011881120174456047
0.050020842017509996 0.0032198794445553744 0.013658434116102998 0.9962841012226401 -0.03337427675743402 0.0005505378276689722 0.006630277448993586 -0.0004889221288718419 -0.0042164254897303945
 0.9962841012226401 -0.03337427675743402 0.003218343209509587 0.013658592545390764 -0.0004888246704781851 -0.0042164229127776565 0.0005600035438728474 0.006629159576774725
 0.0005505378276689722 0.006630277448993586 -0.0004888246704781851 -0.0042164229127776565 0.003219943107442733 0.013657761003234185 0.9962840855629307 -0.033374945324428286
 -0.0004889221288718419 -0.0042164254897303945 0.0005600035438728474 0.006629159576774725 0.9962840855629307 -0.033374945324428286 0.0032182496486778036 0.013657936029857902
0.055454545454549996 0.0034602889415523987 0.015216895243125153 0.9959664994983192 -0.03705183036290248 0.0006378986786186705 0.007353332156654382 -0.0005645206705506706 -0.00467885894086253
 0.9959664994983192 -0.03705183036290248 0.003458401756024135 0.015217081440181655 -0.0005644013017939503 -0.004678857179627109 0.0006495347233576367 0.007351953090113094
 0.0006378986786186705 0.007353332156654382 -0.0005644013017939503 -0.004678857179627109 0.0034603675603681466 0.01521614917586349 0.9959664804991059 -0.03705257166319533
 -0.0005645206705506706 -0.00467885894086253 0.0006495347233576367 0.007351953090113094 0.9959664804991059 -0.03705257166319533 0.003458287056858428 0.01521635515025297
0.056273447269699996 0.003497643392995144 0.015452904555233401 0.9959171204220871 -0.037607007342722445 0.0006516633508156571 0.007462332266795049 -0.0005764274433051824 -0.00474859762500423
 0.9959171204220871 -0.037607007342722445 0.003495700196394655 0.01545309514226171 -0.0005763045852337831 -0.0047485960113593 0.0006636459874861093 0.007460910712195556
 0.0006516633508156571 0.007462332266795049 -0.0005763045852337831 -0.0047485960113593 0.0034977244043191236 0.015452147496064233 0.9959171008909159 -0.037607759610177524
 -0.0005764274433051824 -0.00474859762500423 0.0006636459874861093 0.007460910712195556 0.9959171008909159 -0.037607759610177524 0.003495582125420694 0.01545235837289476
0.06252605252188 0.003792675406728269 0.01726460090967091 0.9955269037385569 -0.04185407802036031 0.0007619647377818537 0.008294801690369306 -0.0006718083515864362 -0.005281427384450469
 0.9955269037385569 -0.04185407802036031 0.0037902776087159608 0.017264826836440723 -0.0006716572435498918 -0.005281427122180242 0.0007767623747976807 0.008293027269435085
 0.0007619647377818537 0.008294801690369306 -0.0006716572435498918 -0.005281427122180242 0.0037927758890069965 0.017263759943603574 0.995526879897648 -0.04185491408727383
 -0.0006718083515864362 -0.005281427384450469 0.0007767623747976807 0.008293027269435085 0.995526879897648 -0.04185491408727383 0.003790132187689867 0.017264010379364564
0.06877865777407 0.0041052962298445345 0.019093173635691955 0.9951131435220193 -0.04611540170734094 0.0008815291274862356 0.0091275644121012 -0.0007751550603267901 -0.005814781882324418
 0.9951131435220193 -0.04611540170734094 0.004102396195506897 0.019093438215124135 -0.0007749728754272567 -0.005814783390138957 0.0008994403722620644 0.009125383996632111
 0.0008815291274862356 0.0091275644121012 -0.0007749728754272567 -0.005814783390138957 0.0041054183173842 0.019092248807690223 0.9951131149274849 -0.04611632168665801
 -0.0007751550603267901 -0.005814781882324418 0.0008994403722620644 0.009125383996632111 0.9951131149274849 -0.04611632168665801 0.0041022205885548136 0.019092542694213364
0.07503126302626001 0.004435824526681568 0.0209382914362647 0.9946755325605001 -0.05039086117795736 0.0010104418056996207 0.009960494643028162 -0.000886555692587743 -0.006348526729338024
 0.9946755325605001 -0.05039086117795736 0.0044323746157547625 0.020938598113080582 -0.0008863396269911249 -0.006348530456537675 0.001031765765411336 0.009957851115965331
 0.0010104418056996207 0.009960494643028162 -0.0008863396269911249 -0.006348530456537675 0.004435970366144976 0.020937282792534907 0.9946754987622582 -0.0503918652006397
 -0.000886555692587743 -0.006348526729338024 0.001031765765411336 0.009957851115965331 0.9946754987622582 -0.0503918652006397 0.004432165992164088 0.020937624206289945
0.08128386827845 0.004784576899346041 0.02279963512087093 0.9942137643697768 -0.05468031514903857 0.001148786096289566 0.010793462507540277 -0.0010060962177552133 -0.006882525667616355
 0.9942137643697768 -0.05468031514903857 0.004780529456302062 0.02279998747271258 -0.001005843490485235 -0.006882532094025259 0.0011738223445207285 0.010790294718671253
 0.001148786096289566 0.010793462507540277 -0.001005843490485235 -0.006882532094025259 0.004784748650368751 0.0227985427104181 0.9942137249111088 -0.05468140336216033
 -0.0010060962177552133 -0.006882525667616355 0.0011738223445207285 0.010790294718671253 0.9942137249111088 -0.05468140336216033 0.004780284991546405 0.022798935914479283
0.08753647353064001 0.0051518678601215635 0.024676893369306317 0.9937275334413052 -0.05898360246687292 0.0012966432557449217 0.011626334328443363 -0.0011338603763180498 -0.0074166403205294116
 0.9937275334413052 -0.05898360246687292 0.005147175204085703 0.024677295108292755 -0.0011335682290955294 -0.007416649956436203 0.0013256917943142378 0.011622577050494685
 0.0012966432557449217 0.011626334328443363 -0.0011335682290955294 -0.007416649956436203 0.0051520676959582136 0.0246757172434892 0.9937274878584305 -0.05898477503379844
 -0.0011338603763180498 -0.0074166403205294116 0.0013256917943142378 0.011622577050494685 0.9937274878584305 -0.05898477503379844 0.0051468920811182164 0.024676166689735594
0.09378907878283 0.005538009777846798 0.026569759701122322 0.9932165354679133 -0.06330054509459125 0.0014540923713306584 0.012458972832147109 -0.001269929599178256 -0.00795073002774757
 0.9932165354679133 -0.06330054509459125 0.005532624192351972 0.02657021467565079 -0.00126959529634392 -0.007950743413840533 0.001487453588347897 0.012454556717349607
 0.0014540923713306584 0.012458972832147109 -0.00126959529634392 -0.007950743413840533 0.005538239884469282 0.026568499918163537 0.9932164832883781 -0.06330180219009165
 -0.001269929599178256 -0.00795073002774757 0.001487453588347897 0.012454556717349607 0.9932164832883781 -0.06330180219009165 0.005532299601294249 0.026569010249869872
0.100041684035 0.0059433127992047415 0.02847793026113569 0.9926804675488289 -0.06763095028983385 0.0016212102602714707 0.013291237310218994 -0.0014143829245646252 -0.008484651729561277
 0.9926804675488289 -0.06763095028983385 0.005937186522374663 0.02847844245813539 -0.001414003753031372 -0.008484669436860189 0.001659184884883401 0.013286088847491544
 0.0016212102602714707 0.013291237310218994 -0.001414003753031372 -0.008484669436860189 0.005943575377021341 0.02847658687613574 0.9926804082919148 -0.06763229210971898
 -0.0014143829245646252 -0.008484651729561277 0.001659184884883401 0.013286088847491544 0.9926804082919148 -0.06763229210971898 0.005936817662848344 0.028477162930934236
0.1059090909091 0.006341347756618506 0.03028219514747829 0.9921543554079914 -0.07170663715770456 0.0017868926660703406 0.014071760834020855 -0.001557630530077376 -0.008985398209429124
 0.9921543554079914 -0.07170663715770456 0.0063344829311829205 0.030282764793396477 -0.001557206806606995 -0.00898542051801542 0.0018294702556687905 0.014065854537115589
 0.0017868926660703406 0.014071760834020855 -0.001557206806606995 -0.00898542051801542 0.0063416428194279255 0.030280773363729415 0.9921542890644061 -0.07170805867330513
 -0.001557630530077376 -0.008985398209429124 0.0018294702556687905 0.014065854537115589 0.9921542890644061 -0.07170805867330513 0.006334069992634623 0.030281415668435542
0.1062942892872 0.0063680847570320226 0.030401102151938884 0.9921190283841089 -0.07197461224208376 0.0017980713707063769 0.014122983747521604 -0.0015672969120385447 -0.00901825989028647
 0.9921190283841089 -0.07197461224208376 0.00636116997132553 0.0304016756994025 -0.0015668701812822697 -0.009018282520072054 0.001840960424858079 0.014117025220169825
 0.0017980713707063769 0.014122983747521604 -0.0015668701812822697 -0.009018282520072054 0.006368382020992916 0.03039967522413472 0.9921189615599845 -0.07197603899546995
 -0.0015672969120385447 -0.00901825989028647 0.001840960424858079 0.014117025220169825 0.9921189615599845 -0.07197603899546995 0.006360754053219936 0.030400322037262822
0.11254689453939999 0.00681263106657803 0.03233897216285442 0.9915319184606517 -0.07633131332021456 0.001984747683305856 0.01495406492992813 -0.0017287455548380506 -0.009551406447877045
 0.9915319184606517 -0.07633131332021456 0.006804879888494297 0.032339611332826694 -0.0017282685969142548 -0.009551434631622625 0.0020328524309260795 0.014947214374222457
 0.001984747683305856 0.01495406492992813 -0.0017282685969142548 -0.009551434631622625 0.006812965246045378 0.032337461751852994 0.9915318435693358 -0.07633282523288273
 -0.0017287455548380506 -0.009551406447877045 0.0020328524309260795 0.014947214374222457 0.9915318435693358 -0.07633282523288273 0.006804414132630892 0.032338184559887996
0.11879949979160001 0.007277254610815209 0.03429123578416812 0.990918840231042 -0.08070082504196163 0.0021813086134878502 0.015784330535439466 -0.0018988001908296617 -0.010083940786276578
 0.990918840231042 -0.08070082504196163 0.0072686190806817794 0.03429194499611161 -0.0018982703604345516 -0.01008397518557415 0.0022349305073152154 0.0157765016997014
 0.0021813086134878502 0.015784330535439466 -0.0018982703604345516 -0.01008397518557415 0.007277627950287086 0.034289641953338224 0.9909187567620777 -0.08070242235251021
 -0.0018988001908296617 -0.010083940786276578 0.0022349305073152154 0.0157765016997014 0.9909187567620777 -0.08070242235251021 0.007268100720380682 0.034290446198179024
0.1250521050438 0.007762255619499873 0.03625758643223344 0.9902794982882044 -0.08508290883972629 0.0023878209144306576 0.01661362721855064 -0.002077529412239954 -0.01061570972038212
 0.9902794982882044 -0.08508290883972629 0.007752687691585545 0.03625837025669101 -0.0020769440867988115 -0.01061575102684278 0.0024472615406572287 0.016604729523221732
 0.0023878209144306576 0.01661362721855064 -0.0020769440867988115 -0.01061575102684278 0.007762670379301158 0.0362559092441117 0.990279405719843 -0.08508459180354412
 -0.002077529412239954 -0.01061570972038212 0.0024472615406572287 0.016604729523221732 0.990279405719843 -0.08508459180354412 0.007752113973447398 0.03625680057750082
0.131304710296 0.00826793154239013 0.03823771482884087 0.9896135995372051 -0.08947731667951445 0.002604348580424349 0.017441798685167677 -0.002264998974700452 -0.011146557496778097
 0.9896135995372051 -0.08947731667951445 0.008257383073950252 0.03823857799167745 -0.0022643555544130003 -0.011146606431982876 0.0026699096012747694 0.0174317371836313
 0.002604348580424349 0.017441798685167677 -0.0022643555544130003 -0.011146606431982876 0.008268389998335417 0.03823595434764478 0.9896134973359239 -0.08947908556580338
 -0.002264998974700452 -0.011146557496778097 0.0026699096012747694 0.0174317371836313 0.9896134973359239 -0.08947908556580338 0.008256751259275497 0.0382369386359162
0.1375573155481 0.008680047871318026 0.03997384617260978 0.9890354322385696 -0.09362619312712984 0.0028035956294680934 0.01824318491506112 -0.0024338456801900124 -0.011650898656061613
 0.9890354322385696 -0.09362619312712984 0.008668466051065051 0.03997477354260199 -0.0024331401660111127 -0.01165095529000034 0.0028754309824564135 0.018231972102770267
 0.0028035956294680934 0.01824318491506112 -0.0024331401660111127 -0.01165095529000034 0.008680551388563005 0.03997200266720421 0.9890353199593797 -0.09362804808574897
 -0.0024338456801900124 -0.011650898656061613 0.0028754309824564135 0.018231972102770267 0.9890353199593797 -0.09362804808574897 0.008667774155590217 0.03997306531511514
0.1438099208003 0.009106723740481435 0.04170061424746075 0.9884368418370226 -0.09776432201738817 0.0030108685539107062 0.019041224494141303 -0.002609434580906508 -0.01215211252063246
 0.9884368418370226 -0.09776432201738817 0.009094059565572405 0.041701609321062434 -0.002608664154116554 -0.01215217756847025 0.003089253324944045 0.019028773270819966
 0.0030108685539107062 0.019041224494141303 -0.002608664154116554 -0.01215217756847025 0.00910727445304106 0.041698687824073044 0.9884367189474406 -0.09776626330919486
 -0.002609434580906508 -0.01215211252063246 0.003089253324944045 0.019028773270819966 0.9884367189474406 -0.09776626330919486 0.009093305006928789 0.04169983343591925
0.1500625260525 0.009547806149516974 0.0434178677349642 0.9878179856321533 -0.10189159345053969 0.0032260934038441185 0.0198358331205994 -0.002791692706516348 -0.012650117445080454
 0.9878179856321533 -0.10189159345053969 0.009534010494216419 0.04341893421820704 -0.002790854553518161 -0.01265019165096246 0.0033113010455188057 0.01982205318977262
 0.0032260934038441185 0.0198358331205994 -0.002790854553518161 -0.01265019165096246 0.009548406196305636 0.04341585850216881 0.9878178515900315 -0.10189362134804532
 -0.002791692706516348 -0.012650117445080454 0.0033113010455188057 0.01982205318977262 0.9878178515900315 -0.10189362134804532 0.009533190712915637 0.04341709193469628
0.15631513130469998 0.01000314097802285 0.04512545984726956 0.9871790217619943 -0.10600789806386317 0.0034491953376990995 0.020626927987790894 -0.0029805461681834183 -0.013144833542973085
 0.9871790217619943 -0.10600789806386317 0.009988164589744273 0.045126601661058065 -0.0029796374805493996 -0.013144917679922217 0.003541497644416234 0.020611725889454355
