! Created with skrf 1.8.0 (http://scikit-rf.org).
# GHz S RI R 50.0 
!freq ReS11 ImS11 ReS12 ImS12 ReS13 ImS13
! ReS14 ImS14
! ReS21 ImS21 ReS22 ImS22 ReS23 ImS23
! ReS24 ImS24
! ReS31 ImS31 ReS32 ImS32 ReS33 ImS33
! ReS34 ImS34
! ReS41 ImS41 ReS42 ImS42 ReS43 ImS43
! ReS44 ImS44
!
0.0 0.001301619202932 0.0 0.9986983807925 0.0 4.977138397765e-05 0.0 -4.977138420004e-05 6.0952366349712135e-21
 0.9986983807925 0.0 0.001301619202923 0.0 -4.977138419917e-05 6.095236634864669e-21 4.977138397745e-05 0.0
 4.977138397765e-05 0.0 -4.977138419917e-05 6.095236634864669e-21 0.001301619198021 0.0 0.9986983807876 0.0
 -4.977138420004e-05 6.0952366349712135e-21 4.977138397745e-05 0.0 0.9986983807876 0.0 0.001301619198054 0.0
0.005 0.0013998318887983598 0.0010657569025356603 0.9985742334615431 -0.0027272892510533603 6.927628032808149e-05 0.0005453094341111906 -6.738435482628324e-05 -0.000342921436720541
 0.9985742334615431 -0.0027272892510533603 0.0013998278417732886 0.0010657593167480277 -6.738397608980721e-05 -0.00034292120590272596 6.929046975630262e-05 0.0005453038754488503
 6.927628032808149e-05 0.0005453094341111906 -6.738397608980721e-05 -0.00034292120590272596 0.0013998321058857207 0.0010658240762047068 0.9985742337966067 -0.0027272221866188316
 -6.738435482628324e-05 -0.000342921436720541 6.929046975630262e-05 0.0005453038754488503 0.9985742337966067 -0.0027272221866188316 0.0013998282898310635 0.0010658262672044072
0.006252605252188 0.0014254149905214802 0.0013364109660449156 0.9985417212126921 -0.0034098058181717857 7.474201137243259e-05 0.0006819140632560978 -7.227507927705897e-05 -0.0004291046215088563
 0.9985417212126921 -0.0034098058181717857 0.0014254086643343332 0.0013364140798579165 -7.227448945547034e-05 -0.00042910433805683386 7.476417941108319e-05 0.0006819068767316388
 7.474201137243259e-05 0.0006819140632560978 -7.227448945547034e-05 -0.00042910433805683386 0.001425415263269307 0.0013364949236638849 0.9985417216703099 -0.003409722000262773
 -7.227507927705897e-05 -0.0004291046215088563 7.476417941108319e-05 0.0006819068767316388 0.9985417216703099 -0.003409722000262773 0.0014254092988452793 0.001336497747528605
0.01250521050438 0.0015590704297493783 0.0027010593585459334 0.9983708898185506 -0.0068205752908025545 0.0001055236131161038 0.0013642621736952058 -9.958383181664195e-05 -0.0008603975383014274
 0.9983708898185506 -0.0068205752908025545 0.0015590451648383827 0.0027010665636942144 -9.958150133092363e-05 -0.0008603970269864168 0.00010561196039265921 0.0013642452389214196
 0.0001055236131161038 0.0013642621736952058 -9.958150133092363e-05 -0.0008603970269864168 0.0015590709342338973 0.0027012270580301758 0.9983708910701761 -0.006820407889396882
 -9.958383181664195e-05 -0.0008603975383014274 0.00010561196039265921 0.0013642452389214196 0.9983708910701761 -0.006820407889396882 0.001559047127706329 0.002701233569377369
0.01875781575657 0.0017028406201964772 0.004085410484135763 0.9981857004841146 -0.01024064620930879 0.00014218227999935988 0.0020475213439152653 -0.00013177375887830242 -0.0012932847028518366
 0.9981857004841146 -0.01024064620930879 0.001702783838388606 0.004085422831695791 -0.0001317685532254223 -0.001293284030303532 0.00014238061746989154 0.0020474916266179977
 0.00014218227999935988 0.0020475213439152653 -0.0001317685532254223 -0.001293284030303532 0.0017028413123322175 0.004085661840184573 0.9981857028740583 -0.010240395295989715
 -0.00013177375887830242 -0.0012932847028518366 0.00014238061746989154 0.0020474916266179977 0.9981857028740583 -0.010240395295989715 0.0017027878351586834 0.0040856729641046575
0.02501042100875 0.0018569750609876861 0.005487565964810749 0.9979859608168558 -0.013671713581357575 0.00018478487402543217 0.0027317437118642937 -0.00016891912213994148 -0.001727593426349663
 0.9979859608168558 -0.013671713581357575 0.001856874205584912 0.005487584578491226 -0.00016890991739926278 -0.0017275926712615685 0.0001851369585514069 0.0027316977339416054
 0.00018478487402543217 0.0027317437118642937 -0.00016890991739926278 -0.0017275926712615685 0.0018569758862457628 0.005487900897584608 0.9979859646905629 -0.013671379189959325
 -0.00016891912213994148 -0.001727593426349663 0.0001851369585514069 0.0027316977339416054 0.9979859646905629 -0.013671379189959325 0.0018568809457245406 0.005487917619208198
0.03126302626094 0.0020217127238587383 0.006906567758749752 0.9977714673620157 -0.017114525577674993 0.00023339886462629475 0.0034169196289854527 -0.00021109245822270814 -0.0021632093058951683
 0.9977714673620157 -0.017114525577674993 0.002021555255089409 0.006906593835249928 -0.00021107813914890574 -0.002163208559182349 0.00023394844539660498 0.003416853468594667
 0.00023339886462629475 0.0034169196289854527 -0.00021107813914890574 -0.002163208559182349 0.0020217136158146086 0.0069069861870467986 0.9977714730654763 -0.017114107710982974
 -0.00021109245822270814 -0.0021632093058951683 0.00023394844539660498 0.003416853468594667 0.9977714730654763 -0.017114107710982974 0.0020215654504192465 0.006907009551759381
0.037515631513130004 0.002197287603119061 0.008341805510706795 0.9975420112717336 -0.020569476130388103 0.00028809172822875315 0.004103015386663971 -0.0002583651109800491 -0.0026000384909982653
 0.9975420112717336 -0.020569476130388103 0.0021970609956401673 0.008341840320312465 -0.0002583445700739975 -0.002600037855901996 0.00028888256829947954 0.004102924675332433
 0.00028809172822875315 0.004103015386663971 -0.0002583445700739975 -0.002600037855901996 0.0021972884832571348 0.008342307342698575 0.9975420191515304 -0.02056897476933408
 -0.0002583651109800491 -0.0026000384909982653 0.00028888256829947954 0.004102924675332433 0.9975420191515304 -0.02056897476933408 0.0021970753596823496 0.00834233845641318
0.043768236765320004 0.0023839308652142503 0.009792836233308816 0.9972973805726625 -0.02403678519420781 0.00034893067269496875 0.004789984677512694 -0.0003108074310063773 -0.003037996212398859
 0.9972973805726625 -0.02403678519420781 0.002383622606876582 0.009792881120357245 -0.00031077956800321175 -0.0030379958045492323 0.00035000656022817633 0.004789864596366341
 0.00034893067269496875 0.004789984677512694 -0.00031077956800321175 -0.0030379958045492323 0.0023839316445655586 0.009793421365367086 0.9972973909783197 -0.02403620029896835
 -0.0003108074310063773 -0.003037996212398859 0.00035000656022817633 0.004789864596366341 0.9972973909783197 -0.02403620029896835 0.0023836418561044596 0.00979346139476909
0.050020842017509996 0.002581871856205847 0.011259309741786584 0.9970373612933772 -0.027516573252084453 0.0004159824764954481 0.005477773336741035 -0.0003684888570975282 -0.003477002030683088
 0.9970373612933772 -0.027516573252084453 0.002581469446650985 0.011259366125265602 -0.0003684525785905863 -0.003477001978161817 0.00041738723025472714 0.005477618612326051
 0.0004159824764954481 0.005477773336741035 -0.0003684525785905863 -0.003477001978161817 0.002581872434615592 0.01125997804876561 0.9970373745779334 -0.02751590477173671
 -0.0003684888570975282 -0.003477002030683088 0.00041738723025472714 0.005477618612326051 0.9970373745779334 -0.02751590477173671 0.002581494299793145 0.011260028221577848
0.055454545454549996 0.0027632408577520106 0.012546031789249176 0.996798732050095 -0.030550794828029755 0.0004793495864557347 0.006076101687325302 -0.00042292382459814315 -0.0038593016364507184
 0.996798732050095 -0.030550794828029755 0.00276274648500983 0.012546099374217431 -0.0004228793500185309 -0.0038593020064485745 0.0004810757467544009 0.006075912217857906
 0.0004793495864557347 0.006076101687325302 -0.0004228793500185309 -0.0038593020064485745 0.0027632411709978487 0.012546772262970442 0.9967987481252155 -0.030550053656066195
 -0.00042292382459814315 -0.0038593016364507184 0.0004810757467544009 0.006075912217857906 0.9967987481252155 -0.030550053656066195 0.0027627767924945676 0.012546832295409992
0.056273447269699996 0.0027913386295600087 0.01274093209163062 0.9967617381148794 -0.031008897817778266 0.0004893133783605043 0.0061663216515568 -0.0004314779446003824 -0.003916977517694263
 0.9967617381148794 -0.031008897817778266 0.0027908295798098224 0.01274100146566479 -0.0004314321639079244 -0.003916977961085375 0.000491090850162099 0.006166126551499749
 0.0004893133783605043 0.0061663216515568 -0.0004314321639079244 -0.003916977961085375 0.00279133889491138 0.012741683432212528 0.9967617546338533 -0.031008145684839047
 -0.0004314779446003824 -0.003916977517694263 0.000491090850162099 0.006166126551499749 0.9967617546338533 -0.031008145684839047 0.002790860756428658 0.012741745037495204
0.06252605252188 0.003012558239902799 0.01423744544428424 0.9964702947876678 -0.03451377351100103 0.00056898899156248 0.006855565640135837 -0.000499842367768626 -0.00435784496968548
 0.9964702947876678 -0.03451377351100103 0.003011930071507841 0.01423752937874765 -0.0004997860047969778 -0.004357846062125256 0.0005711830661588342 0.006855323968742341
 0.00056898899156248 0.006855565640135837 -0.0004997860047969778 -0.004357846062125256 0.003012558067862918 0.014238279666031677 0.9964703149001977 -0.03451293763637025
 -0.000499842367768626 -0.00435784496968548 0.0005711830661588342 0.006855323968742341 0.9964703149001977 -0.03451293763637025 0.003011968291577405 0.01423835405450999
0.06877865777407 0.0032457569094078106 0.0157486160985674 0.9961628144255288 -0.03803118396824885 0.0006550742326471123 0.0075454378064077525 -0.0005736489057304433 -0.004799526646254508
 0.9961628144255288 -0.03803118396824885 0.0032449971541126583 0.01574871623961256 -0.0005735808869099119 -0.004799528553478992 0.0006577288264006618 0.00754514290021353
 0.0006550742326471123 0.0075454378064077525 -0.0005735808869099119 -0.004799528553478992 0.0032457561638406895 0.01574953302475975 0.9961628384953108 -0.03803026425425593
 -0.0005736489057304433 -0.004799526646254508 0.0006577288264006618 0.00754514290021353 0.9961628384953108 -0.03803026425425593 0.0032450431381950053 0.01574962160910845
0.07503126302626001 0.0034911601204039374 0.017274226860527424 0.995839079726223 -0.04156108941644084 0.0007476332574947687 0.008235867619123618 -0.0006529634199609737 -0.0052419442867341825
 0.995839079726223 -0.04156108941644084 0.003490256319692445 0.01727434493118959 -0.0006528826782457019 -0.005241947187123176 0.0007507923158018377 0.008235512342473888
 0.0007476332574947687 0.008235867619123618 -0.0006528826782457019 -0.005241947187123176 0.003491158651959842 0.01727522629808037 0.9958391081208864 -0.04156008574897982
 -0.0006529634199609737 -0.0052419442867341825 0.0007507923158018377 0.008235512342473888 0.9958391081208864 -0.04156008574897982 0.003490310787155524 0.017275330553314434
0.08128386827845 0.0037489926595931982 0.018814072006479148 0.995498873147952 -0.04510343165558604 0.0008467294031735511 0.008926781829201516 -0.0007378508246449983 -0.005685018790230633
 0.995498873147952 -0.04510343165558604 0.0037479323645828438 0.018814209807229976 -0.0007377562995296766 -0.005685022874851731 0.0008504368969749469 0.008926358569842993
 0.0008467294031735511 0.008926781829201516 -0.0007377562995296766 -0.005685022874851731 0.0037489903068439606 0.018815153743487748 0.9954989062407124 -0.04510234390649362
 -0.0007378508246449983 -0.005685018790230633 0.0008504368969749469 0.008926358569842993 0.9954989062407124 -0.04510234390649362 0.0037479960343612994 0.018815275207256954
0.08753647353064001 0.004019478633818376 0.020367953758437002 0.9951419770571303 -0.0486581375307588 0.0009524251322740889 0.00961810469058339 -0.0008283750533199956 -0.006128669994139924
 0.9951419770571303 -0.0486581375307588 0.004018249404664168 0.02036811316789187 -0.0008282656908772732 -0.006128675466785136 0.0009567250538973562 0.009617605355308591
 0.0009524251322740889 0.00961810469058339 -0.0008282656908772732 -0.006128675466785136 0.004019475221306088 0.020369117567209036 0.9951420152261621 -0.04865696555478166
 -0.0008283750533199956 -0.006128669994139924 0.0009567250538973562 0.009617605355308591 0.9951420152261621 -0.04865696555478166 0.0040183229930861215 0.02036925784022428
0.09378907878283 0.0043028414616388035 0.021935679800973537 0.9947681738573486 -0.05222512136505051 0.0010647819794806627 0.010309758118075548 -0.0009245990220840439 -0.006572816517777268
 0.9947681738573486 -0.05222512136505051 0.004301430867689611 0.02193586277639762 -0.0009244737750554873 -0.0065728235949998525 0.0010697183380149232 0.010309174128428085
 0.0010647819794806627 0.010309758118075548 -0.0009244737750554873 -0.0065728235949998525 0.004302836800803954 0.02193692543044381 0.9947682174868575 -0.05222386500747501
 -0.0009245990220840439 -0.006572816517777268 0.0010697183380149232 0.010309174128428085 0.9947682174868575 -0.05222386500747501 0.004301515088809445 0.021937086176857974
0.100041684035 0.004599303852059954 0.023517061429087823 0.9943772461047639 -0.05580428676364083 0.001183860499526247 0.011001661803782493 -0.0010265845905184801 -0.007017375649618516
 0.9943772461047639 -0.05580428676364083 0.004597699471485146 0.023517270007121723 -0.0010264424183380465 -0.007017384560773718 0.001189477315558992 0.011000984091788055
 0.001183860499526247 0.011001661803782493 -0.0010264424183380465 -0.007017384560773718 0.004599297740332844 0.023518388614479326 0.9943772955852903 -0.055802945850627
 -0.0010265845905184801 -0.007017375649618516 0.001189477315558992 0.011000984091788055 0.9943772955852903 -0.055802945850627 0.004597795036241216 0.023518571562286317
0.1059090909091 0.0048896140054341935 0.025013273834317135 0.993994633811534 -0.0591739387608829 0.0013017693844847979 0.011651094225386216 -0.0011275814819348738 -0.00743484758643045
 0.993994633811534 -0.0591739387608829 0.004887816486842467 0.025013508361276943 -0.0011274224869873366 -0.007434858438556251 0.0013080647793057008 0.011650319878027782
 0.0013017693844847979 0.011651094225386216 -0.0011274224869873366 -0.007434858438556251 0.004889606335160421 0.0250146772908025 0.9939946891436344 -0.05917251833397238
 -0.0011275814819348738 -0.00743484758643045 0.0013080647793057008 0.011650319878027782 0.9939946891436344 -0.05917251833397238 0.0048879233393504555 0.02501488270114389
0.1062942892872 0.004909087771041559 0.025111912172313747 0.993968976615478 -0.05939552794421316 0.0013097202158269703 0.011693733306951483 -0.0011343925206955764 -0.007462263263340395
 0.993968976615478 -0.05939552794421316 0.0049072771906415865 0.02511214846964103 -0.001134232389616584 -0.007462274250608331 0.0013160615158943753 0.011692952311007638
 0.0013097202158269703 0.011693733306951483 -0.001134232389616584 -0.007462274250608331 0.004909079991531938 0.025113320626408885 0.993969032344273 -0.059394102291627296
 -0.0011343925206955764 -0.007462263263340395 0.0013160615158943753 0.011692952311007638 0.993969032344273 -0.059394102291627296 0.004907384805977497 0.02511352756792143
0.11254689453939999 0.005232414399374721 0.026720046735169378 0.9935431485657125 -0.06299873075353997 0.0014424195697553572 0.012385888122030788 -0.0012480824347421476 -0.007907393758014048
 0.9935431485657125 -0.06299873075353997 0.005230385214633695 0.026720312949158935 -0.0012479033179415508 -0.007907407076431153 0.0014495293803423873 0.012384993782800101
 0.0014424195697553572 0.012385888122030788 -0.0012479033179415508 -0.007907407076431153 0.005232404720597831 0.026721536153471573 0.9935432109472413 -0.06299722016182109
 -0.0012480824347421476 -0.007907393758014048 0.0014495293803423873 0.012384993782800101 0.9935432109472413 -0.06299722016182109 0.005230505582757027 0.02672176894574497
0.11879949979160001 0.005569504084251186 0.028341280167548576 0.9930995455876231 -0.06661377345674169 0.0015820158702861908 0.013078039737062085 -0.0013677127711125053 -0.008352680010343705
 0.9930995455876231 -0.06661377345674169 0.00556724389898369 0.02834157857697296 -0.0013675136487762687 -0.008352695927834806 0.0015899382114736723 0.013077021493476053
 0.0015820158702861908 0.013078039737062085 -0.0013675136487762687 -0.008352695927834806 0.005569492259840745 0.028342850226627046 0.9930996150343018 -0.06661217771265171
 -0.0013677127711125053 -0.008352680010343705 0.0015899382114736723 0.013077021493476053 0.9930996150343018 -0.06661217771265171 0.00556737771700989 0.02834311079200547
0.1250521050438 0.005920576285258356 0.029975427211877865 0.992637951862124 -0.07024052735254192 0.0017285652434511232 0.01377009967944156 -0.0014933407400269968 -0.0087980333419755
 0.992637951862124 -0.07024052735254192 0.005918072711728456 0.029975760177674952 -0.001493120599485985 -0.008798052139367242 0.0017373441224970592 0.01376894646479746
 0.0017285652434511232 0.01377009967944156 -0.001493120599485985 -0.008798052139367242 0.005920562053416087 0.0299770775705546 0.9926380287945248 -0.07023884622812272
 -0.0014933407400269968 -0.0087980333419755 0.0017373441224970592 0.01376894646479746 0.9926380287945248 -0.07023884622812272 0.005918220670625239 0.029977367897123994
0.131304710296 0.006285849515956268 0.03162230177633714 0.9921581522090959 -0.07387885726544889 0.0018821225826323854 0.014461977554948513 -0.001625022277612645 -0.0092433634960762
 0.9921581522090959 -0.07387885726544889 0.006283090174903914 0.03162267174227808 -0.0016247801134883617 -0.009243385467118429 0.0018918019869590427 0.014460677793121716
 0.0018821225826323854 0.014461977554948513 -0.0016247801134883617 -0.009243385467118429 0.006285832599138253 0.03162403207445257 0.9921582370563968 -0.07387709051935114
 -0.001625022277612645 -0.0092433634960762 0.0018918019869590427 0.014460677793121716 0.9921582370563968 -0.07387709051935114 0.006283252958658388 0.03162435421660945
0.1375573155481 0.006576162648528207 0.03306665637066427 0.9917493367108708 -0.07731348623674511 0.002021678664922291 0.015131494365819016 -0.0017417436396515178 -0.009666509767003407
 0.9917493367108708 -0.07731348623674511 0.006573135233727757 0.033067056296923206 -0.0017414781532952427 -0.009666534912140349 0.0020322864497026353 0.015130051061668358
 0.002021678664922291 0.015131494365819016 -0.0017414781532952427 -0.009666534912140349 0.006576143631769361 0.03306846594776843 0.9917494298331408 -0.07731163372903882
 -0.0017417436396515178 -0.009666509767003407 0.0020322864497026353 0.015130051061668358 0.9917494298331408 -0.07731163372903882 0.006573312785645925 0.033068813229381974
0.1438099208003 0.006876494851851226 0.03450433665232827 0.9913265087269595 -0.08074035690663574 0.0021668705227811547 0.01579887928104573 -0.0018631475685562029 -0.010087688059205341
 0.9913265087269595 -0.08074035690663574 0.006873187032276042 0.03450476824481272 -0.0018628577120183827 -0.01008771666057722 0.002178447721214582 0.015797281893720948
 0.0021668705227811547 0.01579887928104573 -0.0018628577120183827 -0.01008771666057722 0.006876473591437857 0.03450622508851223 0.9913266105518851 -0.08073841839993458
 -0.0018631475685562029 -0.010087688059205341 0.002178447721214582 0.015797281893720948 0.9913266105518851 -0.08073841839993458 0.006873379892405999 0.03450659889696503
0.1500625260525 0.007186752475611263 0.03593525027073191 0.9908897650530876 -0.08415941258096744 0.0023176552133963367 0.016464083419258767 -0.0019891920730102405 -0.010506850830927405
 0.9908897650530876 -0.08415941258096744 0.007183151932679867 0.03593571531109217 -0.001988876801715269 -0.010506883181766593 0.002330242651535543 0.016462321023873232
 0.0023176552133963367 0.016464083419258767 -0.001988876801715269 -0.010506883181766593 0.007186728822791131 0.035937217128156555 0.9908898760157395 -0.08415738782827879
 -0.0019891920730102405 -0.010506850830927405 0.002330242651535543 0.016462321023873232 0.9908898760157395 -0.08415738782827879 0.007183360625694719 0.035937618916208634
0.15631513130469998 0.007506841346172502 0.03735930781274584 0.9904392028201223 -0.08757059622729312 0.0024739893731499027 0.017127058606173567 -0.0021198347225555646 -0.010923951456733038
