! Created with skrf 1.8.0 (http://scikit-rf.org).
# GHz S RI R 50.0 
!freq ReS11 ImS11 ReS12 ImS12 ReS13 ImS13
! ReS14 ImS14
! ReS21 ImS21 ReS22 ImS22 ReS23 ImS23
! ReS24 ImS24
! ReS31 ImS31 ReS32 ImS32 ReS33 ImS33
! ReS34 ImS34
! ReS41 ImS41 ReS42 ImS42 ReS43 ImS43
! ReS44 ImS44
!
0.0 0.001442937395707 0.0 0.9985570626043 0.0 5.546797806675e-05 0.0 -5.546797893279e-05 6.79286828552141e-21
 0.9985570626043 0.0 0.001442937395706 0.0 -5.546797893237e-05 6.792868285469975e-21 5.546797806646e-05 0.0
 5.546797806675e-05 0.0 -5.546797893237e-05 6.792868285469975e-21 0.001442937378012 0.0 0.9985570625866 0.0
 -5.546797893279e-05 6.79286828552141e-21 5.546797806646e-05 0.0 0.9985570625866 0.0 0.001442937378035 0.0
0.005 0.0015521912205912973 0.0011810166739880672 0.9984188784662038 -0.003022907019822473 7.755209741260406e-05 0.0006088250625145335 -7.52993163787791e-05 -0.0003826166808862842
 0.9984188784662038 -0.003022907019822473 0.0015522184142482646 0.0011810007590410563 -7.529979104202087e-05 -0.00038261697739580216 7.737908223067651e-05 0.0006088907832016142
 7.755209741260406e-05 0.0006088250625145335 -7.529979104202087e-05 -0.00038261697739580216 0.0015521916642047885 0.0011810836199761727 0.9984188788085375 -0.0030228399604178926
 -7.52993163787791e-05 -0.0003826166808862842 7.737908223067651e-05 0.0006088907832016142 0.9984188788085375 -0.0030228399604178926 0.0015522186488593369 0.0011810679257676017
0.006252605252188 0.0015807601629008509 0.0014809264673764188 0.9983825261914444 -0.0037793856821117513 8.383129447743597e-05 0.0007613314525561404 -8.085901201118696e-05 -0.00047876971935233663
 0.9983825261914444 -0.0037793856821117513 0.001580802672032981 0.0014809062759496825 -8.085975116961793e-05 -0.00047877008356691445 8.356097121867794e-05 0.0007614167843531167
 8.383129447743597e-05 0.0007613314525561404 -8.085975116961793e-05 -0.00047877008356691445 0.0015807607984306656 0.001481010131708473 0.9983825266682252 -0.003779301866906128
 -8.085901201118696e-05 -0.00047876971935233663 8.356097121867794e-05 0.0007614167843531167 0.9983825266682252 -0.003779301866906128 0.0015808029800146782 0.0014809902285191552
0.01250521050438 0.0017306587215705827 0.002992983351457213 0.9981905711845565 -0.007559654069072363 0.00011968079955175767 0.001523047131591934 -0.00011219236057944696 -0.0009599099546059649
 0.9981905711845565 -0.007559654069072363 0.0017308284692678026 0.0029929399716542727 -0.00011219528026067817 -0.0009599106121521025 0.00011860273139681444 0.0015232519555612792
 0.00011968079955175767 0.001523047131591934 -0.00011219528026067817 -0.0009599106121521025 0.0017306606876863167 0.002993150345244838 0.9981905725120895 -0.007559486660455469
 -0.00011219236057944696 -0.0009599099546059649 0.00011860273139681444 0.0015232519555612792 0.9981905725120895 -0.007559486660455469 0.0017308291123899996 0.002993107670065325
0.01875781575657 0.0018929441616673856 0.004526688245084251 0.9979809706605336 -0.011350022523793551 0.0001630958977091531 0.0022856621307414476 -0.00014956090182650857 -0.0014427418602475696
 0.9979809706605336 -0.011350022523793551 0.0018933256063668738 0.004526618465689449 -0.00014956742227517446 -0.0014427427251071736 0.00016067394051300492 0.0022860269404223698
 0.0001630958977091531 0.0022856621307414476 -0.00014956742227517446 -0.0014427427251071736 0.0018929481667365737 0.0045269383214421735 0.997980973222442 -0.011349771599445653
 -0.00014956090182650857 -0.0014427418602475696 0.00016067394051300492 0.0022860269404223698 0.997980973222442 -0.011349771599445653 0.0018933266087226247 0.004526869805146743
0.02501042100875 0.002067919251769817 0.006079913362632417 0.9977534892013539 -0.01515234501799369 0.0002141577831765342 0.0030492157242331445 -0.00019305481664827834 -0.0019270577686646296
 0.9977534892013539 -0.01515234501799369 0.002068596690498859 0.006079813789014305 -0.00019306634427308195 -0.0019270587384097116 0.00020985546004282507 0.0030497871166656767
 0.0002141577831765342 0.0030492157242331445 -0.00019306634427308195 -0.0019270587384097116 0.0020679260078350172 0.006080246275334633 0.9977534933832446 -0.01515201059841202
 -0.00019305481664827834 -0.0019270577686646296 0.00020985546004282507 0.0030497871166656767 0.9977534933832446 -0.01515201059841202 0.0020685980644196524 0.0060801486797728566
0.03126302626094 0.002255874166312458 0.0076515723468203335 0.99750787879032 -0.018967425304412977 0.00027294841899898716 0.003813677604947557 -0.0002427619375066436 -0.002412714827078305
 0.99750787879032 -0.018967425304412977 0.0022569317798434266 0.0076514394074856515 -0.00024277986727585501 -0.002412715782671401 0.0002662284169010903 0.003814508316498098
 0.00027294841899898716 0.003813677604947557 -0.00024277986727585501 -0.002412715782671401 0.0022558843844608487 0.007651987827016382 0.9975078849764476 -0.018967007375846386
 -0.0002427619375066436 -0.002412714827078305 0.0002662284169010903 0.003814508316498098 0.9975078849764476 -0.018967007375846386 0.002256933521838827 0.007651857751817135
0.037515631513130004 0.002457092915200609 0.00924096340021363 0.9972438854091858 -0.022795673728056135 0.00033954964114909337 0.004578990101389109 -0.0002987683879069458 -0.0028995927638997727
 0.9972438854091858 -0.022795673728056135 0.0024586147981484367 0.009240793350167094 -0.00029879410449033545 -0.002899593569578895 0.0003298735804910105 0.004580139070741058
 0.00033954964114909337 0.004578990101389109 -0.00029879410449033545 -0.002899593569578895 0.0024571073086007388 0.009241461142712135 0.9972438939867972 -0.02279517225581139
 -0.0002987683879069458 -0.0028995927638997727 0.0003298735804910105 0.004580139070741058 0.9972438939867972 -0.02279517225581139 0.0024586168927365508 0.009241295028968206
0.043768236765320004 0.0026718558253584586 0.010847569402214194 0.9969612516924569 -0.026637307043059097 0.00041404274964880374 0.005345080997283755 -0.0003611588112363057 -0.0033875810601643468
 0.9969612516924569 -0.026637307043059097 0.002673926009717356 0.010847358325212733 -0.00036119368964236453 -0.003387581563370676 0.00040087107081204803 0.005346613436913906
 0.00041404274964880374 0.005345080997283755 -0.00036119368964236453 -0.003387581563370676 0.0026718751091647282 0.010848149062140811 0.9969612630534141 -0.02663672197451299
 -0.0003611588112363057 -0.0033875810601643468 0.00040087107081204803 0.005346613436913906 0.9969612630534141 -0.02663672197451299 0.002673928429986927 0.010847943194892781
0.050020842017509996 0.0029004407038255063 0.01247097529187801 0.9966597182672844 -0.03049243096147277 0.0004965082657390717 0.006111868842278324 -0.00043001645945133594 -0.0038765736332743283
 0.9966597182672844 -0.03049243096147277 0.0029031431795081756 0.012470719101795726 -0.00043006186544481404 -0.0038765736645901554 0.0004793001773591038 0.00611385631342113
 0.0004965082657390717 0.006111868842278324 -0.00043006186544481404 -0.0038765736645901554 0.0029004655922615532 0.012471636490300057 0.9966597328063844 -0.0304917622200476
 -0.00043001645945133594 -0.0038765736332743283 0.0004793001773591038 0.00611385631342113 0.9966597328063844 -0.0304917622200476 0.0029031458844832833 0.012471387000203794
0.055454545454549996 0.003110527326851247 0.013895132079719912 0.9963821253341021 -0.03385363510765957 0.0005747096975580393 0.006778728436618062 -0.0004951716479225735 -0.004302257622250235
 0.9963821253341021 -0.03385363510765957 0.003113847473884007 0.013894833235354053 -0.0004952273047959907 -0.004302257092756672 0.0005535536902627229 0.006781174448766848
 0.0005747096975580393 0.006778728436618062 -0.0004952273047959907 -0.004302257092756672 0.0031105576652458223 0.013895863801827973 0.9963821429592723 -0.03385289357251959
 -0.0004951716479225735 -0.004302257622250235 0.0005535536902627229 0.006781174448766848 0.9963821429592723 -0.03385289357251959 0.0031138503830575063 0.013895573140745248
0.056273447269699996 0.003143123435145332 0.01411082751249311 0.996339024531399 -0.034361080640638524 0.0005870257668356573 0.006879265535537934 -0.0005054232146493074 -0.004366466250749394
 0.996339024531399 -0.034361080640638524 0.0031465421682477183 0.014110521954265872 -0.0005054805048981192 -0.004366465623843837 0.0005652392312352369 0.0068817860247566524
 0.0005870257668356573 0.006879265535537934 -0.0005054805048981192 -0.004366465623843837 0.003143154641887352 0.014111569834110391 0.9963390426484227 -0.034360328127842316
 -0.0005054232146493074 -0.004366466250749394 0.0005652392312352369 0.0068817860247566524 0.9963390426484227 -0.034360328127842316 0.0031465451043673417 0.014111272698575284
0.06252605252188 0.003400178309647072 0.01576681173235549 0.9959989091653185 -0.03824324289607707 0.0006856737547791268 0.007647177769974475 -0.0005874595819301439 -0.004857155086288017
 0.9959989091653185 -0.03824324289607707 0.0034043972600673743 0.01576645238229687 -0.0005875301041349236 -0.004857153597872221 0.0006587654978971765 0.007650315766476376
 0.0006856737547791268 0.007647177769974475 -0.0005875301041349236 -0.004857153597872221 0.0034002165459764994 0.015767634720397487 0.995998931264628 -0.03824240649628923
 -0.0005874595819301439 -0.004857155086288017 0.0006587654978971765 0.007650315766476376 0.995998931264628 -0.03824240649628923 0.003404400359760278 0.015767285764123527
0.06877865777407 0.003671878199532729 0.017438639543162136 0.995639110496061 -0.042138869439308405 0.0007925295486794667 0.008415507873974819 -0.0006762046595683461 -0.005348535881500551
 0.995639110496061 -0.042138869439308405 0.003676981337962257 0.017438221808794417 -0.0006762897525013551 -0.005348533311276451 0.0007599550875953084 0.008419354447041276
 0.0007925295486794667 0.008415507873974819 -0.0006762897525013551 -0.005348533311276451 0.0036719241741392855 0.017439542697259464 0.9956391369880284 -0.042137949021620096
 -0.0006762046595683461 -0.005348535881500551 0.0007599550875953084 0.008419354447041276 0.9956391369880284 -0.042137949021620096 0.003676984520086295 0.017439137592347425
0.07503126302626001 0.003958494649423655 0.01912604003280209 0.9952593667780893 -0.04604788524398147 0.0009076691882171471 0.009184154352891905 -0.0007717360996961212 -0.005840503411061439
 0.9952593667780893 -0.04604788524398147 0.003964565973783056 0.01912555915222727 -0.0007718370931568928 -0.0058404995216876044 0.0008688828713066217 0.00918880722925622
 0.0009076691882171471 0.009184154352891905 -0.0007718370931568928 -0.0058404995216876044 0.003958549067260792 0.019127022815615253 0.9952593980796866 -0.04604688065537162
 -0.0007717360996961212 -0.005840503411061439 0.0008688828713066217 0.00918880722925622 0.9952593980796866 -0.04604688065537162 0.003964569143212419 0.019126557081096045
0.08128386827845 0.004260297910028338 0.020828754182340568 0.9948594164213337 -0.049970194091352504 0.0010311673445350831 0.009953012258683763 -0.0008741300611958616 -0.006332951123156291
 0.9948594164213337 -0.049970194091352504 0.004267421461866153 0.020828205223136644 -0.0008742482759860063 -0.006332945660212334 0.0009856224016690988 0.009958575899495425
 0.0010311673445350831 0.009953012258683763 -0.0008742482759860063 -0.006332945660212334 0.004260361471062673 0.020829816012721665 0.9948594529563828 -0.04996910516333129
 -0.0008741300611958616 -0.006332951123156291 0.0009856224016690988 0.009958575899495425 0.9948594529563828 -0.04996910516333129 0.004267424508684748 0.02082928501360618
0.08753647353064001 0.004577556935898687 0.022546530981605535 0.99443899818605 -0.0539056824006435 0.0011630972363728747 0.010721973436512036 -0.0009834611569485537 -0.006825770906468307
 0.99443899818605 -0.0539056824006435 0.004585816816622794 0.02254590883914272 -0.0009835979047541764 -0.006825763598420586 0.0011102458373620878 0.010728559113806895
 0.0011630972363728747 0.010721973436512036 -0.0009835979047541764 -0.006825763598420586 0.004577630334562837 0.02254767123724066 0.9944390403859602 -0.053904508946333474
 -0.0009834611569485537 -0.006825770906468307 0.0011102458373620878 0.010728559113806895 0.9944390403859602 -0.053904508946333474 0.004585819616361562 0.02254707018316829
0.09378907878283 0.004910539357900673 0.024279124662039898 0.993997851354857 -0.057854221945903346 0.0013035305496253654 0.01149092671308239 -0.001099802397088842 -0.007318852919047832
 0.993997851354857 -0.057854221945903346 0.004920019745122364 0.02427842405738092 -0.0010999589803589126 -0.007318843477224918 0.0012428238693832012 0.011498652585512432
 0.0013035305496253654 0.01149092671308239 -0.0010999589803589126 -0.007318843477224918 0.004910623281229914 0.02428034267876217 0.9939978996592118 -0.05785296376076338
 -0.001099802397088842 -0.007318852919047832 0.0012428238693832012 0.011498652585512432 0.9939978996592118 -0.05785296376076338 0.004920022157706193 0.02427966662189663
0.100041684035 0.005259511436788934 0.026026292660758614 0.993535715890373 -0.061815671845857526 0.001452537358801877 0.01225975803328369 -0.0012232251297282545 -0.007812085472559623
 0.993535715890373 -0.061815671845857526 0.0052702966004637445 0.026025508137967154 -0.001223402841540117 -0.007812073591132231 0.0013834256481529382 0.012268749221181622
 0.001452537358801877 0.01225975803328369 -0.001223402841540117 -0.007812073591132231 0.005259606563889517 0.02602758773245229 0.9935357707472549 -0.06181432870756527
 -0.0012232251297282545 -0.007812085472559623 0.0013834256481529382 0.012268749221181622 0.9935357707472549 -0.06181432870756527 0.005270298470221332 0.02602683156505679
0.1059090909091 0.005601763066173985 0.02767886510627721 0.9930827309278616 -0.06554467893314277 0.0016002228849691913 0.01298100973474208 -0.0013455468572514653 -0.008274967638124759
 0.9930827309278616 -0.06554467893314277 0.005613849363405981 0.02767799671262756 -0.0013457455635356116 -0.008274953173940712 0.0015227231973776502 0.012991308349052086
 0.0016002228849691913 0.01298100973474208 -0.0013457455635356116 -0.008274953173940712 0.005601869316506727 0.027680231805854556 0.9930827923499046 -0.0655432558577138
 -0.0013455468572514653 -0.008274967638124759 0.0015227231973776502 0.012991308349052086 0.9930827923499046 -0.0655432558577138 0.005613850567938244 0.027679395672700006
0.1062942892872 0.005624738004167874 0.027787794094792897 0.9930523325810968 -0.0657898800475561 0.001610186049842576 0.013028350571972786 -0.0013537989795318248 -0.008305354945342335
 0.9930523325810968 -0.0657898800475561 0.005636912323044508 0.02778692001771794 -0.0013539991034665524 -0.008305340301305605 0.0015321187113488432 0.013038739231429501
 0.001610186049842576 0.013028350571972786 -0.0013539991034665524 -0.008305340301305605 0.005624845005282091 0.027789165473240663 0.9930523944486039 -0.06578845171614879
 -0.0013537989795318248 -0.008305354945342335 0.0015321187113488432 0.013038739231429501 0.9930523944486039 -0.06578845171614879 0.005636913478313829 0.027788323924649132
0.11254689453939999 0.006006482393008208 0.02956338859165981 0.9925474431819405 -0.06977668445833725 0.001776543244404936 0.013796584819798464 -0.0014915917840208064 -0.008798545725199218
 0.9925474431819405 -0.06977668445833725 0.006020130371303504 0.029562419140172443 -0.0014918155939622156 -0.008798527978361573 0.0016889689129114857 0.013808510215817953
 0.001776543244404936 0.013796584819798464 -0.0014918155939622156 -0.008798527978361573 0.006006601928056097 0.029564835484878232 0.9925475125278972 -0.06977517067782152
 -0.0014915917840208064 -0.008798545725199218 0.0016889689129114857 0.013808510215817953 0.9925475125278972 -0.06977517067782152 0.006020130623918813 0.029563903117746846
0.11879949979160001 0.006405006359859421 0.03135283537677418 0.9920207905468462 -0.0737759138251796 0.0019516737244227513 0.014564338656786536 -0.0016366695291571954 -0.009291540168570448
 0.9920207905468462 -0.0737759138251796 0.006420212643378382 0.0313517645424255 -0.0016369182890841835 -0.00929151896155189 0.0018540403514006824 0.014577947235312779
 0.0019516737244227513 0.014564338656786536 -0.0016369182890841835 -0.00929151896155189 0.006405139077300642 0.03135435695266917 0.9920208678500678 -0.07377431432001016
 -0.0016366695291571954 -0.009291540168570448 0.0018540403514006824 0.014577947235312779 0.9920208678500678 -0.07377431432001016 0.006420211788356395 0.03135332815881706
0.1250521050438 0.006820570000458584 0.03315589255798585 0.9914721187593983 -0.07778738842183834 0.0021356403575109612 0.015331487417680504 -0.0017890962831509849 -0.0097842185719517
 0.9914721187593983 -0.07778738842183834 0.006837419393893099 0.033154714139043674 -0.0017893712470770868 -0.009784193530169953 0.002027395299350587 0.015346932876555856
 0.0021356403575109612 0.015331487417680504 -0.0017893712470770868 -0.009784193530169953 0.006820716536723468 0.03315748793981819 0.9914722045100017 -0.07778570290142411
 -0.0017890962831509849 -0.0097842185719517 0.002027395299350587 0.015346932876555856 0.9914722045100017 -0.07778570290142411 0.006837417208744262 0.033156356935435734
0.131304710296 0.00725343166106418 0.034972316547067187 0.9909011732600044 -0.08181092060376707 0.002328504022601711 0.016097903947637104 -0.0019489341299620561 -0.010276459157177292
 0.9909011732600044 -0.08181092060376707 0.007272009144254553 0.03497102414298099 -0.0019492365415534354 -0.010276429888872243 0.0022090941321318996 0.016115347306314552
 0.002328504022601711 0.016097903947637104 -0.0019492365415534354 -0.010276429888872243 0.007253592638857707 0.03497398481702481 0.990901267960485 -0.08180914875905505
 -0.0019489341299620561 -0.010276459157177292 0.0022090941321318996 0.016115347306314552 0.990901267960485 -0.08180914875905505 0.00727200538908111 0.034972745637144524
0.1375573155481 0.0076019458554278975 0.03656498913904293 0.9904096359071328 -0.08560936021644105 0.0025057994126791803 0.016839630836755458 -0.0020918624206014056 -0.01074422308531261
 0.9904096359071328 -0.08560936021644105 0.00762234202406871 0.03656360356499701 -0.0020921939181949957 -0.010744189564937685 0.0023749529855084674 0.016859041097556163
 0.0025057994126791803 0.016839630836755458 -0.0020921939181949957 -0.010744189564937685 0.007602121090637406 0.03656672990414743 0.9904097399693563 -0.08560750186594647
 -0.0020918624206014056 -0.01074422308531261 0.0023749529855084674 0.016859041097556163 0.9904097399693563 -0.08560750186594647 0.007622337424368852 0.03656540293606731
0.1438099208003 0.007962635111036693 0.038149698252018444 0.9899009618358402 -0.0893985975109058 0.002690277225803478 0.01757853299663466 -0.002240515827179934 -0.011209457433047056
 0.9899009618358402 -0.0893985975109058 0.007984936020137771 0.038148214716676676 -0.002240877710989846 -0.011209419281552193 0.0025474912965930377 0.017600056791604857
 0.002690277225803478 0.01757853299663466 -0.002240877710989846 -0.011209419281552193 0.007962825060220322 0.038151510606118245 0.989901075761002 -0.08939665235012872
 -0.002240515827179934 -0.011209457433047056 0.0025474912965930377 0.017600056791604857 0.989901075761002 -0.08939665235012872 0.007984930485707841 0.03815009141001029
0.1500625260525 0.008335377909676832 0.03972632408529047 0.9893752761996037 -0.0931785510776675 0.002881877941423276 0.018314540694215682 -0.0023948376997688444 -0.011672098163735703
 0.9893752761996037 -0.0931785510776675 0.008359669809901769 0.03972473750526208 -0.0023952312649582605 -0.011672054987254014 0.00272665233113748 0.018338329990954288
 0.002881877941423276 0.018314540694215682 -0.0023952312649582605 -0.011672054987254014 0.008335583006527302 0.0397282070863118 0.9893754004993776 -0.09317651879229225
 -0.0023948376997688444 -0.011672098163735703 0.00272665233113748 0.018338329990954288 0.9893754004993776 -0.09317651879229225 0.008359663245129606 0.03972669094042538
0.15631513130469998 0.008720051939087106 0.04129475051682443 0.9888327047101575 -0.09694913954304944 0.0030805413727162615 0.01904758529674353 -0.0025547707271675623 -0.012132082545084988
