! Created with skrf 1.8.0 (http://scikit-rf.org).
# GHz S RI R 50.0 
!freq ReS11 ImS11 ReS12 ImS12 ReS13 ImS13
! ReS14 ImS14
! ReS21 ImS21 ReS22 ImS22 ReS23 ImS23
! ReS24 ImS24
! ReS31 ImS31 ReS32 ImS32 ReS33 ImS33
! ReS34 ImS34
! ReS41 ImS41 ReS42 ImS42 ReS43 ImS43
! ReS44 ImS44
!
0.0 0.001631886179275 0.0 0.998368113798 0.0 6.304213383316e-05 0.0 -6.3042134544e-05 7.72043482807264e-21
 0.998368113798 0.0 0.001631886179277 0.0 -6.304213454333e-05 7.720434827990587e-21 6.3042133833e-05 0.0
 6.304213383316e-05 0.0 -6.304213454333e-05 7.720434827990587e-21 0.001631886182079 0.0 0.9983681138008 0.0
 -6.3042134544e-05 7.72043482807264e-21 6.3042133833e-05 0.0 0.9983681138008 0.0 0.00163188618212 0.0
0.005 0.0017560243452800232 0.0013357085162607571 0.9982110149392888 -0.0034180487790752023 8.838002911778082e-05 0.0006888406947378093 -8.579958042434056e-05 -0.00043334101534287726
 0.9982110149392888 -0.0034180487790752023 0.0017560484296821055 0.0013356943864504102 -8.579929103833534e-05 -0.00043334072930685427 8.8223268256316e-05 0.0006889002182945501
 8.838002911778082e-05 0.0006888406947378093 -8.579929103833534e-05 -0.00043334072930685427 0.0017560251887838994 0.0013357752453901181 0.9982110153098128 -0.0034179817189449128
 -8.579958042434056e-05 -0.00043334101534287726 8.8223268256316e-05 0.0006889002182945501 0.9982110153098128 -0.0034179817189449128 0.0017560483225877732 0.0013357617742181423
0.006252605252188 0.0017886587647507302 0.0016748744961107723 0.9981694406202475 -0.004273383660144633 9.567324409995035e-05 0.0008613812962719679 -9.225833644966522e-05 -0.0005422303600727176
 0.9981694406202475 -0.004273383660144633 0.0017886964140596312 0.001674856599700665 -9.225788663529151e-05 -0.0005422300060567976 9.542831840457324e-05 0.0008614586374964653
 9.567324409995035e-05 0.0008613812962719679 -9.225788663529151e-05 -0.0005422300060567976 0.0017886599989350824 0.0016749578922513597 0.9981694411146893 -0.004273299841987865
 -9.225833644966522e-05 -0.0005422303600727176 9.542831840457324e-05 0.0008614586374964653 0.9981694411146893 -0.004273299841987865 0.0017886961614465965 0.0016749408321649452
0.01250521050438 0.0019609002193613774 0.0033846796782948134 0.9979484970284082 -0.008547474368169695 0.00013778403955001605 0.0017230929715495878 -0.00012908395196252814 -0.0010870310689745847
 0.9979484970284082 -0.008547474368169695 0.001961050568348233 0.0033846415250911774 -0.00012908218547649325 -0.0010870303990855692 0.00013680727863010173 0.0017232794307200084
 0.00013778403955001605 0.0017230929715495878 -0.00012908218547649325 -0.0010870303990855692 0.001960904601174215 0.0033848461350392306 0.997948498450393 -0.008547306966916315
 -0.00012908395196252814 -0.0010870310689745847 0.00013680727863010173 0.0017232794307200084 0.997948498450393 -0.008547306966916315 0.00196104899749513 0.0033848097968055915
0.01875781575657 0.0021490038962002716 0.005118655808525289 0.9977049962201244 -0.012832653739973197 0.00018947386710599845 0.002585689348549302 -0.00017363560119949077 -0.0016336135031175816
 0.9977049962201244 -0.012832653739973197 0.002149341764500297 0.0051185948477850225 -0.0001736316704134481 -0.0016336125610545906 0.0001872795585976298 0.002586023148300746
 0.00018947386710599845 0.002585689348549302 -0.0001736316704134481 -0.0016336125610545906 0.002149013336103839 0.005118905087477121 0.9977049989987943 -0.012832402846248921
 -0.00017363560119949077 -0.0016336135031175816 0.0001872795585976298 0.002586023148300746 0.9977049989987943 -0.012832402846248921 0.0021493377981811356 0.005118847098085686
0.02501042100875 0.0023533504668754686 0.006874357271337789 0.997438639589735 -0.01713097672626368 0.00025084385833983903 0.0034491881430894233 -0.0002260258236365658 -0.0021817189616566593
 0.997438639589735 -0.01713097672626368 0.002353950544206978 0.006874270791216877 -0.00022601889381049798 -0.0021817177976465644 0.0002469460540756098 0.0034497137536255787
 0.00025084385833983903 0.0034491881430894233 -0.00022601889381049798 -0.0021817177976465644 0.0023533668773617297 0.006874689134336801 0.9974386441545388 -0.017130642383077436
 -0.0002260258236365658 -0.0021817189616566593 0.0002469460540756098 0.0034497137536255787 0.9974386441545388 -0.017130642383077436 0.002353943095866141 0.006874606994862157
0.03126302626094 0.0025743048538812564 0.008650514589014675 0.9971491139326756 -0.021443309582065775 0.0003219955282320856 0.0043135280346496075 -0.0002863637819197557 -0.0027311610069471305
 0.9971491139326756 -0.021443309582065775 0.0025752417435834884 0.00865039972287029 -0.0002863530289366105 -0.002731159677849319 0.00031590760968471806 0.004314296213207978
 0.0003219955282320856 0.0043135280346496075 -0.0002863530289366105 -0.002731159677849319 0.0025743301461931957 0.008650928783744993 0.9971491207109427 -0.02144289179900446
 -0.0002863637819197557 -0.0027311610069471305 0.00031590760968471806 0.004314296213207978 0.9971491207109427 -0.02144289179900446 0.0025752297140967115 0.008650819875645185
0.037515631513130004 0.002812223888517654 0.010446291761979067 0.9968360993775779 -0.025770072465636024 0.0004030297004662336 0.005178616193720754 -0.00035475601902901905 -0.0032817779393426397
 0.9968360993775779 -0.025770072465636024 0.002813572137848056 0.010446145491300247 -0.00035474062822250736 -0.003281776508617553 0.000394264190699215 0.005179684048613454
 0.0004030297004662336 0.005178616193720754 -0.00035474062822250736 -0.003281776508617553 0.0028122599790531325 0.010446787992745187 0.9968361088017934 -0.025769571247581682
 -0.00035475601902901905 -0.0032817779393426397 0.000394264190699215 0.005179684048613454 0.9968361088017934 -0.025769571247581682 0.002813554422074475 0.010446649581348565
0.043768236765320004 0.0030674592665662333 0.012261060239858733 0.9964992726211768 -0.030111465395562562 0.0004940459883109677 0.006044342750185804 -0.0004313067288212579 -0.0038334183382244275
 0.9964992726211768 -0.030111465395562562 0.0030692933907416732 0.012260879395944259 -0.00043128589418470274 -0.003833416875891875 0.0004821144700109107 0.0060457738123707834
 0.0004940459883109677 0.006044342750185804 -0.00043128589418470274 -0.003833416875891875 0.0030675080706519405 0.012261638188717937 0.9964992851239024 -0.030110880721095853
 -0.0004313067288212579 -0.0038334183382244275 0.0004821144700109107 0.0060457738123707834 0.9964992851239024 -0.030110880721095853 0.003069268871982021 0.012261467425468239
0.050020842017509996 0.0033403589077474474 0.01409430553922348 0.9961383085722701 -0.03446756155973353 0.000595142485494655 0.006910586761132269 -0.0005161178397068897 -0.004385935108404343
 0.9961383085722701 -0.03446756155973353 0.003342753411877069 0.01409408680405603 -0.0005160907633791971 -0.004385933691005179 0.0005795555747812285 0.006912451058728071
 0.000595142485494655 0.006910586761132269 -0.0005160907633791971 -0.004385933691005179 0.003340422341979568 0.01409496484578411 0.9961383245894824 -0.034466893400923286
 -0.0005161178397068897 -0.004385935108404343 0.0005795555747812285 0.006912451058728071 0.9961383245894824 -0.034466893400923286 0.0033427209646617593 0.014094758769502684
0.055454545454549996 0.0035921303969928013 0.015702108892468224 0.9958047643433935 -0.03826507736611168 0.0006912596432095139 0.007663699219775389 -0.0005966071886143739 -0.0048666874864547755
 0.9958047643433935 -0.03826507736611168 0.003595072402185576 0.015701854418084756 -0.0005965740461075702 -0.0048666861752858425 0.0006720979011740933 0.007666001986430221
 0.0006912596432095139 0.007663699219775389 -0.0005965740461075702 -0.0048666861752858425 0.0035922081014693706 0.015702838580397362 0.9958047837713162 -0.03826433662414235
 -0.0005966071886143739 -0.0048666874864547755 0.0006720979011740933 0.007666001986430221 0.9958047837713162 -0.03826433662414235 0.003595032143547237 0.015702599324187827
0.056273447269699996 0.003631267650066874 0.015945581389614008 0.9957528813347437 -0.038838353098050706 0.000706415540347387 0.0077772191557508 -0.0006092890238566483 -0.004939182554401106
 0.9957528813347437 -0.038838353098050706 0.003634297048406747 0.015945321295903765 -0.0006092549156779857 -0.0049391812649408435 0.0006866828947549756 0.0077795932897332075
 0.000706415540347387 0.0077772191557508 -0.0006092549156779857 -0.0049391812649408435 0.0036313476305445997 0.015946321658362413 0.9957529013054978 -0.038837601412726325
 -0.0006092890238566483 -0.004939182554401106 0.0006866828947549756 0.0077795932897332075 0.9957529013054978 -0.038837601412726325 0.0036342555378378162 0.015946077195857555
0.06252605252188 0.003940527611302497 0.01781448453925997 0.9953426648638719 -0.043223776229568904 0.0008279595772922921 0.008644104350715014 -0.0007109176624274571 -0.005493014789548365
 0.9953426648638719 -0.043223776229568904 0.003944266447577984 0.01781417946979889 -0.0007108757396739272 -0.005493013717458022 0.0008035899269873483 0.008647071570903511
 0.0008279595772922921 0.008644104350715014 -0.0007108757396739272 -0.005493013717458022 0.003940626052301925 0.017815305339983354 0.9953426892298272 -0.043222940960489946
 -0.0007109176624274571 -0.005493014789548365 0.0008035899269873483 0.008647071570903511 0.9953426892298272 -0.043222940960489946 0.003944214728310874 0.017815019305865005
0.06877865777407 0.004268478369558353 0.01970063973159914 0.9949073334445666 -0.047623726213844295 0.0009598669421829088 0.009511101223933316 -0.0008210987892170085 -0.006047284792378651
 0.9949073334445666 -0.047623726213844295 0.004273001234669994 0.01970028591809685 -0.0008210482763147044 -0.006047284033465447 0.0009303681362475064 0.009514751504792198
 0.0009598669421829088 0.009511101223933316 -0.0008210482763147044 -0.006047284033465447 0.004268597183243259 0.019701540589118594 0.994907362651417 -0.04762280729854787
 -0.0008210987892170085 -0.006047284792378651 0.0009303681362475064 0.009514751504792198 0.994907362651417 -0.04762280729854787 0.004272938151681504 0.01970120968515377
0.07503126302626001 0.004615457039101841 0.021603690176556264 0.994446562070977 -0.052038066823512134 0.0011022277616752436 0.010378063737976014 -0.000939925019598962 -0.006601843819244425
 0.994446562070977 -0.052038066823512134 0.004620838589962828 0.021603283697758466 -0.0009398651478958767 -0.006601843475653784 0.0010671068272120829 0.010382493853881883
 0.0011022277616752436 0.010378063737976014 -0.0009398651478958767 -0.006601843475653784 0.004615598135269963 0.021604670579909533 0.9944465965692709 -0.05203706418482132
 -0.000939925019598962 -0.006601843819244425 0.0010671068272120829 0.010382493853881883 0.9944465965692709 -0.05203706418482132 0.0046207629791628025 0.02160429139357015
0.08128386827845 0.004981798276582854 0.023523291222259244 0.9939600267601583 -0.05646663662280733 0.0012551298124037348 0.011244841364605478 -0.0010674864697603548 -0.007156541022038751
 0.9939600267601583 -0.05646663662280733 0.004988113254279945 0.02352282800142195 -0.001067416477335382 -0.007156541202219834 0.001213893023060874 0.011250154964269454
 0.0012551298124037348 0.011244841364605478 -0.001067416477335382 -0.007156541202219834 0.004981963560557878 0.02352435062469469 0.9939600670044048 -0.056465550168536355
 -0.0010674864697603548 -0.007156541022038751 0.001213893023060874 0.011250154964269454 0.9939600670044048 -0.056465550168536355 0.004988023941339343 0.02352391962708065
0.08753647353064001 0.005367834243142268 0.02545910598533203 0.9934474048253928 -0.06090925329439394 0.0014186583961219358 0.012111279386162344 -0.0012038706694413844 -0.007711223195324371
 0.9934474048253928 -0.06090925329439394 0.005375157491202789 0.025458581787001465 -0.001203789800937616 -0.007711224013987161 0.001370811348257906 0.012117587066140105
 0.0014186583961219358 0.012111279386162344 -0.001203789800937616 -0.007711224013987161 0.005368025615467207 0.025460243795980605 0.9934474512756701 -0.06090808292534731
 -0.0012038706694413844 -0.007711223195324371 0.001370811348257906 0.012117587066140105 0.9934474512756701 -0.06090808292534731 0.005375053292165947 0.02545975733909461
0.09378907878283 0.005773894535716725 0.0274108022203108 0.9929083751238069 -0.06536571673426429 0.0015928962184251232 0.012977219120657338 -0.0013491624703921917 -0.008265734606328429
 0.9929083751238069 -0.06536571673426429 0.00578230101835365 0.02741021264654956 -0.0013490699768892863 -0.008265736184415041 0.001537943913852597 0.012984638497781156
 0.0015928962184251232 0.012977219120657338 -0.0013490699768892863 -0.008265736184415041 0.0057741138912495 0.027412017805958228 0.9929084282456446 -0.06536446234227167
 -0.0013491624703921917 -0.008265734606328429 0.001537943913852597 0.012984638497781156 0.9929084282456446 -0.06536446234227167 0.005782180739459782 0.02741147211928934
0.100041684035 0.006200306095653327 0.029378050033868855 0.9923426182839765 -0.06983581130943295 0.0017779232707705003 0.01384249809797338 -0.001503443950961397 -0.008819916880589095
 0.9923426182839765 -0.06983581130943295 0.006209870916099241 0.02937739051960675 -0.0015033390897928342 -0.008819919345248332 0.0017153702052032714 0.013851153880397683
 0.0017779232707705003 0.01384249809797338 -0.0015033390897928342 -0.008819919345248332 0.006200555322494018 0.029379342724758298 0.9923426785490719 -0.06983447277127931
 -0.001503443950961397 -0.008819916880589095 0.0017153702052032714 0.013851153880397683 0.9923426785490719 -0.06983447277127931 0.0062097333540763735 0.0293787339110404
0.1059090909091 0.0066192461846998505 0.031237954148137948 0.9917871247081893 -0.07404271408668059 0.001961432992534054 0.014653721766837132 -0.001656467367544102 -0.009339515357784099
 0.9917871247081893 -0.07404271408668059 0.0066299664278420215 0.031237224696763218 -0.00165635023066472 -0.009339518775538597 0.0018912963944158836 0.014663657583426436
 0.001961432992534054 0.014653721766837132 -0.00165635023066472 -0.009339518775538597 0.006619525152551813 0.03123931854546871 0.9917871921111879 -0.07404129646761147
 -0.001656467367544102 -0.009339515357784099 0.0018912963944158836 0.014663657583426436 0.9917871921111879 -0.07404129646761147 0.006629811544017801 0.03123864683208219
0.1062942892872 0.006647393100689978 0.03136052017599443 0.9917498169211861 -0.07431930754635672 0.0019738167140605813 0.014706950203611955 -0.0016667943186359738 -0.009373608926714844
 0.9917498169211861 -0.07431930754635672 0.0066581915195972445 0.03135978598378222 -0.0016666763532881713 -0.009373612411271135 0.0019031669704451277 0.014716974260637858
 0.0019738167140605813 0.014706950203611955 -0.0016666763532881713 -0.009373612411271135 0.006647674078937034 0.031361889258383215 0.9917498848077618 -0.07431788473104968
 -0.0016667943186359738 -0.009373608926714844 0.0019031669704451277 0.014716974260637858 0.9917498848077618 -0.07431788473104968 0.006658035461071344 0.03136121328882262
0.11254689453939999 0.007115476845265895 0.033357882730086545 0.9911296558443382 -0.07881596342868709 0.0021806507639695227 0.015570405796972706 -0.0018392898104260158 -0.009926646893808946
 0.9911296558443382 -0.07881596342868709 0.007127584299025865 0.033357068944082045 -0.0018391580104415637 -0.0099266515377375 0.0021014081103977356 0.015581937227292295
 0.0021806507639695227 0.015570405796972706 -0.0018391580104415637 -0.0099266515377375 0.007115791446139584 0.03335932744887999 0.9911297318373318 -0.07881445619469322
 -0.0018392898104260158 -0.009926646893808946 0.0021014081103977356 0.015581937227292295 0.9911297318373318 -0.07881445619469322 0.007127408520881055 0.033358580157406496
0.11879949979160001 0.007604875609000404 0.035369806100546256 0.9904818222540404 -0.08332552540557871 0.00239849657747864 0.016432691820616307 -0.002021003591935137 -0.010478864144805713
 0.9904818222540404 -0.08332552540557871 0.00761836772842055 0.03536890761980299 -0.002020857232724315 -0.010478870093722026 0.0023101645691033282 0.016445877019063866
 0.00239849657747864 0.016432691820616307 -0.002020857232724315 -0.010478870093722026 0.007605225694188359 0.03537132566094319 0.9904819068462741 -0.08332393359910222
 -0.002021003591935137 -0.010478864144805713 0.0023101645691033282 0.016445877019063866 0.9904819068462741 -0.08332393359910222 0.007618170998175236 0.035370502737841536
0.1250521050438 0.00811590451973421 0.037395956221293755 0.989806005938308 -0.08784772918794885 0.0026274221404462648 0.017293631893189845 -0.002212005655280238 -0.011030091253575274
 0.989806005938308 -0.08784772918794885 0.008130857148805052 0.03739496775212038 -0.002211844018144616 -0.011030098659204644 0.0025295042252122877 0.017308624615746775
 0.0026274221404462648 0.017293631893189845 -0.002211844018144616 -0.011030098659204644 0.00811629193987409 0.037397549785738164 0.9898060996304909 -0.08784605264581496
 -0.002212005655280238 -0.011030091253575274 0.0025295042252122877 0.017308624615746775 0.9898060996304909 -0.08784605264581496 0.008130638223726087 0.03739664677048068
0.131304710296 0.008648875408770603 0.03943599592159972 0.9891018994633217 -0.09238230039575832 0.0028674921557916813 0.01815304640033585 -0.0024123627167024686 -0.011580156011157087
 0.9891018994633217 -0.09238230039575832 0.008665364622957855 0.03943491196931149 -0.0024121850885533208 -0.011580165031359816 0.002759491783697578 0.01817000782740039
 0.0028674921557916813 0.01815304640033585 -0.0024121850885533208 -0.011580165031359816 0.008649302002282179 0.039437662610115616 0.9891020027644737 -0.09238053894522023
 -0.0024123627167024686 -0.011580156011157087 0.002759491783697578 0.01817000782740039 0.9891020027644737 -0.09238053894522023 0.008665122250860151 0.0394366748831976
0.1375573155481 0.009084660969580625 0.041224238667405384 0.9884886843887827 -0.0966634807766934 0.0030897445467194954 0.018984768512771952 -0.0025932465704782176 -0.012102823887597347
 0.9884886843887827 -0.0966634807766934 0.009102767327584757 0.04122307429537519 -0.0025930517114237744 -0.012102834536614307 0.0029714203765714405 0.019003679966169213
 0.0030897445467194954 0.018984768512771952 -0.0025930517114237744 -0.012102834536614307 0.009085127714749688 0.041225978088232904 0.9884887977396564 -0.09666163434033194
 -0.0025932465704782176 -0.012102823887597347 0.0029714203765714405 0.019003679966169213 0.9884887977396564 -0.09666163434033194 0.009102501239748928 0.041224920775611774
0.1438099208003 0.009535869079999629 0.04300254082045519 0.9878537174656535 -0.10093326825382166 0.003320970495102324 0.019812705514716776 -0.002781342688907729 -0.012622076734410518
 0.9878537174656535 -0.10093326825382166 0.009555669605713971 0.043001291538145234 -0.0027811297994304574 -0.012622089173714254 0.0031918720412367494 0.01983371487996417
 0.003320970495102324 0.019812705514716776 -0.0027811297994304574 -0.012622089173714254 0.00953637764289496 0.043004352114202435 0.9878538413728991 -0.1009313366678823
 -0.002781342688907729 -0.012622076734410518 0.0031918720412367494 0.01983371487996417 0.9878538413728991 -0.1009313366678823 0.009555378714891647 0.04300322153346015
0.1500625260525 0.01000233278104888 0.0447707380073028 0.9871971700213075 -0.10519154039962962 0.0035610853439081588 0.020636759248097967 -0.002976569983234188 -0.013137824375126221
 0.9871971700213075 -0.10519154039962962 0.010023904731501967 0.044769399025667886 -0.00297633826300614 -0.013137838773289202 0.0034207650662876313 0.02066001979912822
 0.0035610853439081588 0.020636759248097967 -0.00297633826300614 -0.013137838773289202 0.010002884806163142 0.04477262028314013 0.9871973049984493 -0.10518952349432639
 -0.002976569983234188 -0.013137824375126221 0.0034207650662876313 0.02066001979912822 0.9871973049984493 -0.10518952349432639 0.010023587953048906 0.04477141248167682
0.15631513130469998 0.010483883834184056 0.04652867077551106 0.986519214356246 -0.10943817557215105 0.0038100033713095813 0.021456833321836823 -0.0031788463138531994 -0.013649978629229273
