! Created with skrf 1.8.0 (http://scikit-rf.org).
# GHz S RI R 50.0 
!freq ReS11 ImS11 ReS12 ImS12 ReS13 ImS13
! ReS14 ImS14
! ReS21 ImS21 ReS22 ImS22 ReS23 ImS23
! ReS24 ImS24
! ReS31 ImS31 ReS32 ImS32 ReS33 ImS33
! ReS34 ImS34
! ReS41 ImS41 ReS42 ImS42 ReS43 ImS43
! ReS44 ImS44
!
0.0 0.001788106320137 0.0 0.9982118936797 0.0 6.924020162759e-05 0.0 -6.924020180492e-05 8.479479151271207e-21
 0.9982118936797 0.0 0.001788106320111 0.0 -6.924020180476e-05 8.479479151251612e-21 6.924020162687e-05 0.0
 6.924020162759e-05 0.0 -6.924020180476e-05 8.479479151251612e-21 0.001788106320139 0.0 0.9982118936797 0.0
 -6.924020180492e-05 8.479479151271207e-21 6.924020162687e-05 0.0 0.9982118936797 0.0 0.00178810632012 0.0
0.005 0.0019246314453385568 0.001464701514400171 0.9980390410094971 -0.0037445525095257557 9.710604387942615e-05 0.0007473278363741264 -9.430812964582422e-05 -0.0004716619392309449
 0.9980390410094971 -0.0037445525095257557 0.0019246506804246719 0.0014646903267097043 -9.430868194416418e-05 -0.000471662428613641 9.69847569401994e-05 0.0007473740977642803
 9.710604387942615e-05 0.0007473278363741264 -9.430868194416418e-05 -0.000471662428613641 0.0019246304494251337 0.0014646348757014849 0.9980390406289756 -0.0037446195735818355
 -9.430812964582422e-05 -0.0004716619392309449 9.69847569401994e-05 0.0007473740977642803 0.9980390406289756 -0.0037446195735818355 0.0019246509284326996 0.0014646228500739245
0.006252605252188 0.0019606782153527265 0.0018365925652016858 0.9979930773827962 -0.004681566161154145 0.00010520177044210756 0.00093451315263143 -0.00010149061470626654 -0.0005901691101277422
 0.9979930773827962 -0.004681566161154145 0.0019607082827010525 0.0018365783465722045 -0.00010149147359074418 -0.0005901697147714536 0.00010501227346135898 0.000934573259893085
 0.00010520177044210756 0.00093451315263143 -0.00010149147359074418 -0.0005901697147714536 0.0019606767351036704 0.0018365092899845152 0.9979930768647923 -0.00468164998133106
 -0.00010149061470626654 -0.0005901691101277422 0.00010501227346135898 0.000934573259893085 0.9979930768647923 -0.00468164998133106 0.0019607087480582363 0.0018364940096417758
0.01250521050438 0.0021518351515390295 0.0037111960146101373 0.9977475498570798 -0.009363632891817412 0.0001523390338763296 0.0018693138999451469 -0.0001428054461123385 -0.00118302483360345
 0.9977475498570798 -0.009363632891817412 0.0021519552031861932 0.003711165208759609 -0.00014280882451427762 -0.0011830259650777285 0.00015158341760048574 0.0018694589687680225
 0.0001523390338763296 0.0018693138999451469 -0.00014280882451427762 -0.0011830259650777285 0.002151829786347458 0.003711029863738152 0.9977475483368525 -0.00936380031361552
 -0.0001428054461123385 -0.00118302483360345 0.00015158341760048574 0.0018694589687680225 0.9977475483368525 -0.00936380031361552 0.0021519576230943274 0.0037109967760544345
0.01875781575657 0.002362044623506545 0.005611986183766978 0.9974749704708532 -0.01405753257907663 0.00021076814663049942 0.002804968364126616 -0.0001933212950893946 -0.0017776976859883427
 0.9974749704708532 -0.01405753257907663 0.002362314371341157 0.005611936230754779 -0.00019332881999397972 -0.0017776992516992504 0.00020907087286035382 0.002805228688356401
 0.00021076814663049942 0.002804968364126616 -0.00019332881999397972 -0.0017776992516992504 0.0023620329851361758 0.005611737500941169 0.9974749674737878 -0.014057783565938273
 -0.0001933212950893946 -0.0017776976859883427 0.00020907087286035382 0.002805228688356401 0.9974749674737878 -0.014057783565938273 0.002362320258761126 0.005611683839129033
0.02501042100875 0.0025917571944530093 0.007536244784054135 0.9971749838680032 -0.01876547541921411 0.0002806067561942669 0.0037414676477482284 -0.0002531693228252737 -0.002373884541401516
 0.9971749838680032 -0.01876547541921411 0.002592236225901771 0.007536172952770742 -0.00025318259869578155 -0.002373886432190543 0.0002775922609209756 0.003741878800323583
 0.0002806067561942669 0.0037414676477482284 -0.00025318259869578155 -0.002373886432190543 0.002591736891531622 0.007535913971455834 0.9971749789085944 -0.01876581000182843
 -0.0002531693228252737 -0.002373884541401516 0.0002775922609209756 0.003741878800323583 0.9971749789085944 -0.01876581000182843 0.0025922471015390404 0.007535836750395086
0.03126302626094 0.0028414046590728606 0.009482540534350204 0.9968472185378221 -0.023488368283294352 0.00036197233723449023 0.0046787175621165085 -0.00032247625471833603 -0.002971358865870053
 0.9968472185378221 -0.023488368283294352 0.002842152472772665 0.009482443926619687 -0.00032249686730678566 -0.002971360955881975 0.0003572647023003556 0.004679320426219188
 0.00036197233723449023 0.0046787175621165085 -0.00032249686730678566 -0.002971360955881975 0.00284137330744669 0.00948212808062114 0.9968472111272597 -0.02348878653211051
 -0.00032247625471833603 -0.002971358865870053 0.0003572647023003556 0.004679320426219188 0.9968472111272597 -0.02348878653211051 0.0028421698757914115 0.009482024100467949
0.037515631513130004 0.0031114087774271166 0.011449915665169176 0.9964912959411198 -0.028226628158320284 0.000454980964973348 0.005616589499914722 -0.0004013652381243875 -0.00356991987515668
 0.9964912959411198 -0.028226628158320284 0.003112484808176049 0.011449791217457003 -0.0004013947564028105 -0.003569922021849544 0.0004482037833424536 0.005617430319982542
 0.000454980964973348 0.005616589499914722 -0.0004013947564028105 -0.003569922021849544 0.003111363998968708 0.01144942213849569 0.9964912855836512 -0.028227130191193855
 -0.0004013652381243875 -0.00356991987515668 0.0004482037833424536 0.005617430319982542 0.9964912855836512 -0.028227130191193855 0.003112510295361456 0.011449287985706325
0.043768236765320004 0.0034021846307293315 0.013437638355108226 0.9961068342628054 -0.032980429644066195 0.0005597467162455978 0.006554935931465105 -0.0004899561255228945 -0.004169377075898442
 0.9961068342628054 -0.032980429644066195 0.0034036482700642444 0.013437482839200765 -0.0004899961029172246 -0.004169379120095236 0.0005505230399774516 0.00655606637027401
 0.0005597467162455978 0.006554935931465105 -0.0004899961029172246 -0.004169379120095236 0.003402124053244698 0.013437064412445686 0.9961068204524044 -0.03298101561758589
 -0.0004899561255228945 -0.004169377075898442 0.0005505230399774516 0.00655606637027401 0.9961068204524044 -0.03298101561758589 0.003403683415149981 0.013436896459802155
0.050020842017509996 0.0037141421517124765 0.015445100431316274 0.9956934503444692 -0.037749807185610496 0.0006763812938814815 0.007493596809322729 -0.0005883655510263193 -0.004769543905127672
 0.9956934503444692 -0.037749807185610496 0.0037160527662645835 0.0154449104544357 -0.0005884175261872294 -0.004769545671083321 0.0006643336266070945 0.007495074007303982
 0.0006763812938814815 0.007493596809322729 -0.0005884175261872294 -0.004769545671083321 0.003714063413769873 0.015444446820483286 0.9956934325661634 -0.03775047729353231
 -0.0005883655510263193 -0.004769543905127672 0.0006643336266070945 0.007495074007303982 0.9956934325661634 -0.03775047729353231 0.0037160991645516137 0.015444241226431872
0.055454545454549996 0.004002759869663095 0.017205260007480776 0.9953104210750657 -0.04190714900145242 0.000787463979575447 0.008309445556692557 -0.0006819483325272523 -0.005291539125448003
 0.9953104210750657 -0.04190714900145242 0.0040051071258975675 0.01720503719922575 -0.000682011972680027 -0.005291540494056062 0.0007726551936339807 0.008311274803336129
 0.000787463979575447 0.008309445556692557 -0.000682011972680027 -0.005291540494056062 0.004002663440237192 0.017204537842071224 0.9953103994213155 -0.041907892409800994
 -0.0006819483325272523 -0.005291539125448003 0.0007726551936339807 0.008311274803336129 0.9953103994213155 -0.041907892409800994 0.004005164614962048 0.017204296249153865
0.056273447269699996 0.004047686890952605 0.017471767156549998 0.995250760858207 -0.04253470522389439 0.0008049937490259462 0.008432402731661445 -0.000696706915328394 -0.0053702346185161495
 0.995250760858207 -0.04253470522389439 0.004050103839722103 0.017471539160586982 -0.0006967724127362189 -0.005370235913981984 0.0007897440652811376 0.008434289366961828
 0.0008049937490259462 0.008432402731661445 -0.0006967724127362189 -0.005370235913981984 0.004047587642058722 0.01747103471779251 0.9952507385856233 -0.042535459696166074
 -0.000696706915328394 -0.0053702346185161495 0.0007897440652811376 0.008434289366961828 0.9952507385856233 -0.042535459696166074 0.004050163107307105 0.01747078742501323
0.06252605252188 0.0044032203971898646 0.01951714964705454 0.9947783831019015 -0.047335005722555216 0.0009456902539731803 0.009371176686927796 -0.0008150903224614159 -0.005971262605566898
 0.9947783831019015 -0.047335005722555216 0.00440620304803353 0.019516879907328553 -0.000815170852833709 -0.0059712632218587285 0.0009268600365056816 0.009373541035451988
 0.0009456902539731803 0.009371176686927796 -0.000815170852833709 -0.0059712632218587285 0.00440309829989921 0.019516339316447664 0.9947783557950364 -0.04733584482226198
 -0.0008150903224614159 -0.005971262605566898 0.0009268600365056816 0.009373541035451988 0.9947783557950364 -0.04733584482226198 0.004406276823302773 0.019516046049926055
0.06877865777407 0.004781140392675958 0.02158078841530732 0.9942759355929898 -0.052150544578444855 0.0010985739010297686 0.010309735116159737 -0.0009436224911231287 -0.006572439395841681
 0.9942759355929898 -0.052150544578444855 0.00478474813809043 0.021580473038757448 -0.0009437195516811251 -0.006572439107920186 0.001075784191025234 0.010312651111195616
 0.0010985739010297686 0.010309735116159737 -0.0009437195516811251 -0.006572439107920186 0.004780993125235989 0.021579901219726402 0.9942759026980078 -0.05215146860723502
 -0.0009436224911231287 -0.006572439395841681 0.001075784191025234 0.010312651111195616 0.9942759026980078 -0.05215146860723502 0.00478483808400215 0.021579557484110425
0.07503126302626001 0.0051818408227808895 0.023662242963759527 0.993743038543687 -0.0569811219907216 0.001263744519147377 0.01124788859695155 -0.001082406648151471 -0.00717357405271675
 0.993743038543687 -0.0569811219907216 0.005186133096146288 0.023661877886350616 -0.0010825217229304361 -0.007173572619240469 0.001236615976094833 0.011251435888020293
 0.001263744519147377 0.01124788859695155 -0.0010825217229304361 -0.007173572619240469 0.005181666080853128 0.023661280024094955 0.9937429994908596 -0.05698213128585939
 -0.001082406648151471 -0.00717357405271675 0.001236615976094833 0.011251435888020293 0.9937429994908596 -0.05698213128585939 0.005186240900620022 0.023660881100535863
0.08128386827845 0.005605711828632688 0.025761084847269945 0.9931793142639014 -0.06182650937155482 0.0014412985001166915 0.012185442319705154 -0.0012315424120298603 -0.0077744727842190406
 0.9931793142639014 -0.06182650937155482 0.005610748120106248 0.02576066583091208 -0.00123167697201942 -0.007774469947624304 0.0014094514696726256 0.012189706330483921
 0.0014412985001166915 0.012185442319705154 -0.00123167697201942 -0.007774469947624304 0.005605507327504516 0.02576004738234818 0.9931792684660654 -0.061827604302124826
 -0.0012315424120298603 -0.0077744727842190406 0.0014094514696726256 0.012189706330483921 0.9931792684660654 -0.061827604302124826 0.005610875497681103 0.02575958832462159
0.08753647353064001 0.006053139666512446 0.027876892915113843 0.992584387514508 -0.06668645408805211 0.0016313286319374347 0.013122196431526206 -0.0013911256692077092 -0.008374938696000525
 0.992584387514508 -0.06668645408805211 0.006058979538127144 0.027876415543917475 -0.0013912811724800355 -0.008374934182557966 0.0015943832195693636 0.013127268416658833
 0.0016313286319374347 0.013122196431526206 -0.0013912811724800355 -0.008374934182557966 0.006052903143069998 0.027875782235630572 0.9925843343657373 -0.06668763506115019
 -0.0013911256692077092 -0.008374938696000525 0.0015943832195693636 0.013127268416658833 0.9925843343657373 -0.06668763506115019 0.00605912823134892 0.027875257865746888
0.09378907878283 0.006524506592147001 0.030009249888335914 0.9919578858327233 -0.07156068288039667 0.0018339239371034954 0.014057946301587304 -0.0015612484446812318 -0.00897477163277147
 0.9919578858327233 -0.07156068288039667 0.00653120969441979 0.030008709564076735 -0.0015614263365737013 -0.008974765152648015 0.0017915000877291348 0.014063923402214757
 0.0018339239371034954 0.014057946301587304 -0.0015614263365737013 -0.008974765152648015 0.006524235807712523 0.030008067404526453 0.9919578247066448 -0.07156195033336249
 -0.0015612484446812318 -0.00897477163277147 0.0017915000877291348 0.014063923402214757 0.9919578247066448 -0.07156195033336249 0.006531381475028421 0.03000747230759735
0.100041684035 0.007020190718479653 0.032157739891219665 0.991299439831996 -0.0764489043373366 0.002049169514119374 0.014992482734786462 -0.0017419987699777617 -0.009573768081577365
 0.991299439831996 -0.0764489043373366 0.007027816805643341 0.032157131828336113 -0.001742200483146478 -0.009573759328911479 0.0020008870959006453 0.014999468032687582
 0.002049169514119374 0.014992482734786462 -0.001742200483146478 -0.009573759328911479 0.007019883460726885 0.032156487106346714 0.9912993700804955 -0.07645025874417821
 -0.0017419987699777617 -0.009573768081577365 0.0020008870959006453 0.014999468032687582 0.9912993700804955 -0.07645025874417821 0.0070280134760295696 0.03215581562483255
0.1059090909091 0.007507786969483722 0.03418817183796893 0.9906521789966555 -0.08104843401953887 0.002262732167055633 0.015868152251830473 -0.001921354214594487 -0.010134917660358319
 0.9906521789966555 -0.08104843401953887 0.0075163336321121856 0.03418749568510676 -0.0019215795732246549 -0.010134906482739148 0.002208606386600783 0.015876182725865034
 0.002262732167055633 0.015868152251830473 -0.0019215795732246549 -0.010134906482739148 0.007507443498804488 0.034186854536234754 0.9906521005405604 -0.08104987048370045
 -0.001921354214594487 -0.010134917660358319 0.002208606386600783 0.015876182725865034 0.9906521005405604 -0.08104987048370045 0.007516555326605939 0.03418610600861108
0.1062942892872 0.007540565855267308 0.034321946585851276 0.9906086834899896 -0.08135081078107963 0.0022771463820670645 0.015925592151467757 -0.001933460548010122 -0.010171721119385226
 0.9906086834899896 -0.08135081078107963 0.007549174801072948 0.03432126580556553 -0.0019336875024768027 -0.010171709772339084 0.0022226252744810145 0.015933694721753575
 0.0022771463820670645 0.015925592151467757 -0.0019336875024768027 -0.010171709772339084 0.007540219940500081 0.03432062509993612 0.9906086044412996 -0.08135225264846446
 -0.001933460548010122 -0.010171721119385226 0.0022226252744810145 0.015933694721753575 0.9906086044412996 -0.08135225264846446 0.007549398195574793 0.03431987132718158
0.11254689453939999 0.008086001332543521 0.03650145176577424 0.9898852544228666 -0.08626607970530772 0.0025179313270293937 0.016857056743980352 -0.002135713416529687 -0.01076842039436597
 0.9898852544228666 -0.08626607970530772 0.008095653146358515 0.03650069308954649 -0.002135967019769982 -0.010768406115194197 0.002456791512781997 0.016866391706138115
 0.0025179313270293937 0.016857056743980352 -0.002135967019769982 -0.010768406115194197 0.008085614608519783 0.03650006327358198 0.9898851653805556 -0.08626760957419141
 -0.002135713416529687 -0.01076842039436597 0.002456791512781997 0.016866391706138115 0.9898851653805556 -0.08626760957419141 0.00809590513294198 0.03649922104667095
0.11879949979160001 0.008656861814823443 0.03869583427514739 0.9891287941534439 -0.09119437490057733 0.002771596750694008 0.0177866546211431 -0.0023488326106987055 -0.01136365212988847
 0.9891287941534439 -0.09119437490057733 0.008667616657256603 0.038694992317462075 -0.0023491142576760014 -0.011363634564977267 0.0027034584107490625 0.017797343188449787
 0.002771596750694008 0.0177866546211431 -0.0023491142576760014 -0.011363634564977267 0.008656432162563862 0.03869438056917683 0.9891286943943088 -0.09119599334281771
 -0.0023488326106987055 -0.01136365212988847 0.0027034584107490625 0.017797343188449787 0.9891286943943088 -0.09119599334281771 0.00866789913830006 0.038693443461057575
0.1250521050438 0.009253507105040248 0.04090466916197888 0.9883389483722369 -0.09613534735878632 0.0030382105207028094 0.01871415994140681 -0.0025728888247799403 -0.011957199150587565
 0.9883389483722369 -0.09613534735878632 0.00926542530395248 0.04090373832228165 -0.0025731998979881313 -0.011957177930538833 0.0029626941327379123 0.018726329468528317
 0.0030382105207028094 0.01871415994140681 -0.0025731998979881313 -0.011957177930538833 0.009253032441735698 0.04090315212841794 0.9883388371448206 -0.09613705498045254
 -0.0025728888247799403 -0.011957199150587565 0.0029626941327379123 0.018726329468528317 0.9883388371448206 -0.09613705498045254 0.009265740218038417 0.04090211343930768
0.131304710296 0.009876291942304789 0.04312752701561852 0.9875153671937553 -0.10108863600657422 0.003317835822778162 0.01963934304102319 -0.002807948074038039 -0.01254884092440017
 0.9875153671937553 -0.10108863600657422 0.009889434008536504 0.04312650146953398 -0.0028082899434608392 -0.01254881566409125 0.0032345622622810665 0.019653127069780216
 0.003317835822778162 0.01963934304102319 -0.0028082899434608392 -0.01254881566409125 0.009875770223587373 0.04312594863726822 0.9875152437172631 -0.10109043344445455
 -0.002807948074038039 -0.01254884092440017 0.0032345622622810665 0.019653127069780216 0.9875152437172631 -0.10109043344445455 0.009889783331763493 0.043124801385301365
0.1375573155481 0.010390967312061239 0.04507572804990107 0.9867923710360024 -0.10576545181484792 0.003577882753392552 0.020534504818298025 -0.0030215214393512603 -0.013110835776812239
 0.9867923710360024 -0.10576545181484792 0.01040539936239581 0.04507462362891407 -0.00302189633509759 -0.013110806405890737 0.003486661035207258 0.020549895313385493
 0.003577882753392552 0.020534504818298025 -0.00302189633509759 -0.013110806405890737 0.010390397310782468 0.04507408969523857 0.986792234719312 -0.1057673394690086
 -0.0030215214393512603 -0.013110835776812239 0.003486661035207258 0.020549895313385493 0.986792234719312 -0.1057673394690086 0.01040578392510324 0.045072849431149295
0.1438099208003 0.010923992491865663 0.0470121287405441 0.9860434525861299 -0.11042882783280764 0.00384837850715982 0.021424978659642838 -0.0032435588932945526 -0.013668573871235674
 0.9860434525861299 -0.11042882783280764 0.010939776138169622 0.047010940771927016 -0.0032439683217235014 -0.013668540000270386 0.00374886397327635 0.02144209893916821
 0.00384837850715982 0.021424978659642838 -0.0032439683217235014 -0.013668540000270386 0.010923372366225882 0.047010432426689334 0.9860433026446787 -0.11043080632870506
 -0.0032435588932945526 -0.013668573871235674 0.00374886397327635 0.02144209893916821 0.9860433026446787 -0.11043080632870506 0.010940197764020889 0.04700909338476561
0.1500625260525 0.0114751550404581 0.048936521162924844 0.9852688292489535 -0.11507860065230183 0.004129213251070113 0.022310639620513304 -0.0034739546418316386 -0.014221940329167744
 0.9852688292489535 -0.11507860065230183 0.011492352097950836 0.04893524466920786 -0.003474400107590269 -0.014221901552479627 0.004021063780166533 0.022329617501427982
 0.004129213251070113 0.022310639620513304 -0.003474400107590269 -0.014221901552479627 0.011474482995373294 0.048934768981979064 0.9852686648721929 -0.11508067063900998
 -0.0034739546418316386 -0.014221940329167744 0.004021063780166533 0.022329617501427982 0.9852686648721929 -0.11508067063900998 0.011492812633468248 0.04893332505119807
0.15631513130469998 0.012044240714326778 0.050848703599706675 0.9844687198578298 -0.11971460853035917 0.004420275670888147 0.023191365251698026 -0.0037126014320970208 -0.014770823016176401
 0.9844687198578298 -0.11971460853035917 0.012062913206257322 0.050847333288898414 -0.0037130844379555856 -0.01477077891191297 0.004303151723630936 0.02321233299485685
