! Created with skrf 1.8.0 (http://scikit-rf.org).
# GHz S RI R 50.0 
!freq ReS11 ImS11 ReS12 ImS12 ReS13 ImS13
! ReS14 ImS14
! ReS21 ImS21 ReS22 ImS22 ReS23 ImS23
! ReS24 ImS24
! ReS31 ImS31 ReS32 ImS32 ReS33 ImS33
! ReS34 ImS34
! ReS41 ImS41 ReS42 ImS42 ReS43 ImS43
! ReS44 ImS44
!
0.0 0.001932500281224 0.0 0.9980674997184 0.0 7.524075166018e-05 0.0 -7.524075121569e-05 9.214334514173708e-21
 0.9980674997184 0.0 0.001932500281193 0.0 -7.524075121525e-05 9.214334514119824e-21 7.524075165882e-05 0.0
 7.524075166018e-05 0.0 -7.524075121525e-05 9.214334514119824e-21 0.001932500281201 0.0 0.9980674997183 0.0
 -7.524075121569e-05 9.214334514173708e-21 7.524075165882e-05 0.0 0.9980674997183 0.0 0.001932500281196 0.0
0.005 0.0020806399726991443 0.00157863769962016 0.9978798707192256 -0.004046643503997959 0.0001062511919087897 0.0008351686150961438 -0.00010317382945465914 -0.0005228551488583576
 0.9978798707192256 -0.004046643503997959 0.002080597668789069 0.0015786623393595342 -0.00010317734659601475 -0.0005228577060514828 0.00010650501547300197 0.000835071730093753
 0.0001062511919087897 0.0008351686150961438 -0.00010317734659601475 -0.0005228577060514828 0.0020806384827371455 0.0015785712110988905 0.9978798703297 -0.004046710558537224
 -0.00010317382945465914 -0.0005228551488583576 0.00010650501547300197 0.000835071730093753 0.9978798703297 -0.004046710558537224 0.002080598384641518 0.001578594722879119
0.006252605252188 0.002119919255980296 0.001979452694246377 0.9978297513791171 -0.005059226404745802 0.00011530107459300576 0.0010443376981289939 -0.0001112546933197745 -0.0006542204596201237
 0.9978297513791171 -0.005059226404745802 0.00211985312780001 0.0019794839783867915 -0.00011126016730322069 -0.0006542236076593724 0.00011569764189120469 0.0010442117645995683
 0.00011530107459300576 0.0010443376981289939 -0.00011126016730322069 -0.0006542236076593724 0.002119916992911406 0.001979369573829584 0.9978297508356259 -0.005059310224663995
 -0.0001112546933197745 -0.0006542204596201237 0.00011569764189120469 0.0010442117645995683 0.9978297508356259 -0.005059310224663995 0.002119854311841647 0.0019793994682787875
0.01250521050438 0.0023291759268257873 0.003999769711965169 0.9975607383161694 -0.010118741038165997 0.00016820744348685048 0.0020888359277816833 -0.0001581464779599707 -0.0013113331078115865
 0.9975607383161694 -0.010118741038165997 0.002328911884228529 0.003999837200826111 -0.0001581680625095077 -0.001311338860834948 0.0001697886853921672 0.002088531152797544
 0.00016820744348685048 0.0020888359277816833 -0.0001581680625095077 -0.001311338860834948 0.002329167491479747 0.003999603654577918 0.9975607367325592 -0.010118908436503572
 -0.0001581464779599707 -0.0013113331078115865 0.0001697886853921672 0.002088531152797544 0.9975607367325592 -0.010118908436503572 0.002328917189279203 0.003999668550538662
0.01875781575657 0.0025608120682206943 0.006048123055090454 0.9972600661538086 -0.015190751178689342 0.0002340975224369496 0.003134134998616075 -0.00021607761683001568 -0.001970314939908176
 0.9972600661538086 -0.015190751178689342 0.0025602187618898133 0.006048232120449388 -0.0002161257658108177 -0.0019703226208694176 0.00023764916776434296 0.0031335862175269928
 0.0002340975224369496 0.003134134998616075 -0.0002161257658108177 -0.0019703226208694176 0.0025607935596995575 0.006047874146951522 0.9972600630116689 -0.01519100206923356
 -0.00021607761683001568 -0.001970314939908176 0.00023764916776434296 0.0031335862175269928 0.9972600630116689 -0.01519100206923356 0.0025602310816579127 0.006047979557534327
0.02501042100875 0.0028153479089616192 0.008121528588657858 0.9969273229107044 -0.020277599764195454 0.00031310873660018513 0.004180211263363083 -0.0002852021820111084 -0.0026307955540348016
 0.9969273229107044 -0.020277599764195454 0.0028142942447515226 0.008121685008249396 -0.0002852872267314905 -0.0026308043420283367 0.00031941643750331336 0.004179341384794141
 0.00031310873660018513 0.004180211263363083 -0.0002852872267314905 -0.0026308043420283367 0.0028153154638526664 0.008121196921957003 0.9969273177042357 -0.02027793411078059
 -0.0002852021820111084 -0.0026307955540348016 0.00031941643750331336 0.004179341384794141 0.9969273177042357 -0.02027793411078059 0.0028143164713126593 0.008121348725522923
0.03126302626094 0.0030932816876217757 0.010218392214076643 0.9965620791782506 -0.02538021922013902 0.00040537725290124325 0.005226942213489183 -0.00036566828110607444 -0.0032924923568308385
 0.9965620791782506 -0.02538021922013902 0.0030916367435398673 0.01021860216405556 -0.0003658004498667102 -0.0032925012859067915 0.00041522725097373886 0.005225662147027253
 0.00040537725290124325 0.005226942213489183 -0.0003658004498667102 -0.0032925012859067915 0.003093231461147075 0.01021797791252211 0.9965620713964822 -0.025380637011140125
 -0.00036566828110607444 -0.0032924923568308385 0.00041522725097373886 0.005225662147027253 0.9965620713964822 -0.025380637011140125 0.0030916717536248403 0.0102181823454386
0.037515631513130004 0.0033950994091274654 0.012337630351422187 0.9961638984285288 -0.03049901094034676 0.0005110367693249551 0.006274165227238616 -0.0004576190983656641 -0.003955151918480404
 0.9961638984285288 -0.03049901094034676 0.0033927323760298573 0.012337900404013228 -0.0004578085259823148 -0.003955159877262882 0.0005252161565615927 0.006272373769165951
 0.0005110367693249551 0.006274165227238616 -0.0004578085259823148 -0.003955159877262882 0.0033950275783859447 0.012337133580099758 0.9961638875597462 -0.030499512179036545
 -0.0004576190983656641 -0.003955151918480404 0.0005252161565615927 0.006272373769165951 0.9961638875597462 -0.030499512179036545 0.0033927830375990596 0.01233739723429181
0.043768236765320004 0.003721278588432521 0.014478402295330171 0.9957323413045759 -0.0356341128832082 0.0006302178993644757 0.007321695461105226 -0.0005611932208107145 -0.004618532171450617
 0.9957323413045759 -0.0356341128832082 0.0037180587202967617 0.014478739419291396 -0.0005614499538684438 -0.004618537903029119 0.0006495147047236372 0.007319279167544649
 0.0006302178993644757 0.007321695461105226 -0.0005614499538684438 -0.004618537903029119 0.003721181349656477 0.014477823250811291 0.9957323268330318 -0.03563469759819441
 -0.0005611932208107145 -0.004618532171450617 0.0006495147047236372 0.007319279167544649 0.9957323268330318 -0.03563469759819441 0.0037181278920567565 0.014478153073674775
0.050020842017509996 0.00407228993395269 0.01663999960447525 0.9952669678517087 -0.040785510137162445 0.0007630477645641832 0.008369333264331785 -0.0006765247124149862 -0.005282395090113558
 0.9952669678517087 -0.040785510137162445 0.004068086502845802 0.016640411167398297 -0.0006768587122961524 -0.005282397191999842 0.0007882509472320978 0.008366166319966738
 0.0007630477645641832 0.008369333264331785 -0.0006768587122961524 -0.005282397191999842 0.004072163504476201 0.016639338533077048 0.995266949259461 -0.04078617836439033
 -0.0006765247124149862 -0.005282395090113558 0.0007882509472320978 0.008366166319966738 0.995266949259461 -0.04078617836439033 0.004068177038200796 0.01663974182925711
0.055454545454549996 0.004397857257197389 0.018534914925967406 0.9948347401013022 -0.04527537790258049 0.0008896612575652022 0.009279686143781978 -0.0007864003885531566 -0.00585951960336199
 0.9948347401013022 -0.04527537790258049 0.0043926928956498175 0.018535397474600895 -0.0007868095606563484 -0.005859517298878013 0.0009206386679582422 0.009275754975681973
 0.0008896612575652022 0.009279686143781978 -0.0007868095606563484 -0.005859517298878013 0.004397702402465143 0.018534182804330394 0.9948347175034608 -0.04527611874476281
 -0.0007864003885531566 -0.00585951960336199 0.0009206386679582422 0.009275754975681973 0.9948347175034608 -0.04527611874476281 0.004392804308678027 0.018534656163269946
0.056273447269699996 0.004448598169219565 0.01882179184851279 0.994767338893727 -0.04595308913702372 0.0009096496800404654 0.009416867842161749 -0.0008037430742997379 -0.005946503130559641
 0.994767338893727 -0.04595308913702372 0.00444328042347934 0.01882228562067093 -0.0008041642189236288 -0.005946500054688109 0.0009415490661911075 0.009412811927718505
 0.0009096496800404654 0.009416867842161749 -0.0008041642189236288 -0.005946500054688109 0.0044484387850533425 0.018821049036571523 0.9947673156578544 -0.045953840929948406
 -0.0008037430742997379 -0.005946503130559641 0.0009415490661911075 0.009412811927718505 0.9947673156578544 -0.045953840929948406 0.004443395169349329 0.018821533471321743
0.06252605252188 0.0048506624240107115 0.021023196779511973 0.9942330169828316 -0.05113666746706398 0.0010701428846309005 0.010464079297722374 -0.0009429731492506577 -0.006610617302824313
 0.9942330169828316 -0.05113666746706398 0.004844099547117222 0.021023780939728644 -0.0009434912338629641 -0.0066106073556200864 0.001109529065690084 0.010458983457979437
 0.0010701428846309005 0.010464079297722374 -0.0009434912338629641 -0.0066106073556200864 0.00485046634059596 0.021022372562099583 0.9942329885758396 -0.05113750288843745
 -0.0009429731492506577 -0.006610617302824313 0.001109529065690084 0.010458983457979437 0.9942329885758396 -0.05113750288843745 0.00484424134656724 0.021022946166306754
0.06877865777407 0.005278936387154848 0.023243662583192878 0.9936635671189299 -0.056336011597985965 0.0012446422978412172 0.011510739875067495 -0.0010943349922666653 -0.007274496054385548
 0.9936635671189299 -0.056336011597985965 0.005270997458010683 0.023244345726022065 -0.0010949597297352847 -0.00727447739683041 0.0012923065012893612 0.01150444038824646
 0.0012446422978412172 0.011510739875067495 -0.0010949597297352847 -0.00727447739683041 0.005278699879866966 0.023242757336971648 0.9936635330083878 -0.05633693072736055
 -0.0010943349922666653 -0.007274496054385548 0.0012923065012893612 0.01150444038824646 0.9936635330083878 -0.05633693072736055 0.0052711691515905925 0.023243428513702837
0.07503126302626001 0.005733868321081126 0.02548265662504218 0.993058557334297 -0.06155084814321301 0.00143325829157047 0.012556614776418586 -0.0012579437218880488 -0.007937894592447235
 0.993058557334297 -0.06155084814321301 0.005724422274773985 0.02548344776977222 -0.0012586847425479595 -0.00793786524018608 0.0014899922311087431 0.012548935025812542
 0.00143325829157047 0.012556614776418586 -0.0012586847425479595 -0.00793786524018608 0.005733587685149643 0.025481670773949826 0.9930585169819713 -0.061551851071635966
 -0.0012579437218880488 -0.007937894592447235 0.0014899922311087431 0.012548935025812542 0.9930585169819713 -0.061551851071635966 0.005724626701366702 0.025482448306697634
0.08128386827845 0.006215900988510846 0.02773965799663548 0.9924175591969021 -0.06678087133062069 0.0016360964722539222 0.013601462732485326 -0.0014339093587391752 -0.008600564466926619
 0.9924175591969021 -0.06678087133062069 0.006204816576476451 0.027740566598059898 -0.0014347762097927082 -0.008600522290435382 0.0017026921810446801 0.013592213080555306
 0.0016360964722539222 0.013601462732485326 -0.0014347762097927082 -0.008600522290435382 0.006215572538134643 0.02773859201092136 0.9924175120574792 -0.06678195816201421
 -0.0014339093587391752 -0.008600564466926619 0.0017026921810446801 0.013592213080555306 0.9924175120574792 -0.06678195816201421 0.006205056574439451 0.02773948507346425
0.08753647353064001 0.006725471517077787 0.030014152377542687 0.9917401482564557 -0.0720257481749136 0.0018532574695081744 0.014645036427878183 -0.0016223366556544733 -0.009262253312282694
 0.9917401482564557 -0.0720257481749136 0.006712617268532101 0.030015188338290887 -0.0016233388005173605 -0.009262196037025737 0.0019305071199521451 0.014634014093478748
 0.0018532574695081744 0.014645036427878183 -0.0016233388005173605 -0.009262196037025737 0.006725091586680284 0.030013006774256994 0.9917400937778406 -0.07202691902595444
 -0.0016223366556544733 -0.009262253312282694 0.0019305071199521451 0.014634014093478748 0.9917400937778406 -0.07202691902595444 0.006712895677230105 0.030014024942218068
0.09378907878283 0.007263011226333728 0.03230562837521659 0.9910259044565535 -0.07728512218880607 0.002084836729792983 0.015687082835646942 -0.0018233249225626488 -0.009922704694749273
 0.9910259044565535 -0.07728512218880607 0.007248255409004604 0.032306802060049176 -0.0018244717398858232 -0.009922629901410195 0.0021735324416497044 0.01567407177450342
 0.002084836729792983 0.015687082835646942 -0.0018244717398858232 -0.009922629901410195 0.007262576170387386 0.032304403721301264 0.9910258420788697 -0.07728637718619075
 -0.0018233249225626488 -0.009922704694749273 0.0021735324416497044 0.01567407177450342 0.9910258420788697 -0.07728637718619075 0.007248575069805917 0.03230555698547486
0.100041684035 0.00782894542393241 0.034613574877167076 0.9902744125205436 -0.08255861609931726 0.0023309243140168068 0.016727343491768114 -0.0020369678477367556 -0.010581658034231578
 0.9902744125205436 -0.08255861609931726 0.007812156005314519 0.03461489712896604 -0.0020382686303959934 -0.01058156315894493 0.002431857952184292 0.01671211428067812
 0.0023309243140168068 0.016727343491768114 -0.0020382686303959934 -0.01058156315894493 0.0078284516172163 0.03461227178763587 0.9902743416753058 -0.08255995538181939
 -0.0020369678477367556 -0.010581658034231578 0.002431857952184292 0.01671211428067812 0.9902743416753058 -0.08255995538181939 0.007812519762495682 0.03461357056914568
0.1059090909091 0.008386212508910052 0.03679386084590231 0.9895349748660677 -0.08751972019005594 0.0025751218974149463 0.017701658861050767 -0.002249036712112538 -0.011198417613249276
 0.9895349748660677 -0.08751972019005594 0.008367394387077377 0.03679533281522262 -0.002250490349038005 -0.01119830143287844 0.0026882593114643497 0.017684127477326443
 0.0025751218974149463 0.017701658861050767 -0.002250490349038005 -0.01119830143287844 0.008385660292349172 0.03679248475505136 0.9895348955503225 -0.08752113870252673
 -0.002249036712112538 -0.011198417613249276 0.0026882593114643497 0.017684127477326443 0.9895348955503225 -0.08752113870252673 0.00836780211528793 0.0367939299651936
0.1062942892872 0.008423693180793008 0.03693747907481004 0.989485262319268 -0.08784583391010739 0.0025916046983001273 0.017765554733425105 -0.0022633533169208043 -0.011238848577370387
 0.989485262319268 -0.08784583391010739 0.008404737788836148 0.036938961232582876 -0.002264817270622759 -0.011238730912028715 0.002705567661835383 0.017747864458244483
 0.0025916046983001273 0.017765554733425105 -0.002264817270622759 -0.011238730912028715 0.008423137018896337 0.036936098211467316 0.989485182429434 -0.08784725763025819
 -0.0022633533169208043 -0.011238848577370387 0.002705567661835383 0.017747864458244483 0.989485182429434 -0.08784725763025819 0.008405148491511383 0.03693755337867558
0.11254689453939999 0.009047667091084125 0.03927682497238644 0.9886580492264379 -0.09314636249710799 0.002866956577895223 0.01880144791184216 -0.0025025632311528457 -0.011894007411127942
 0.9886580492264379 -0.09314636249710799 0.009026412975564151 0.03927847889103931 -0.0025041994732406046 -0.011893864103716878 0.002994739580690251 0.01878104005964578
 0.002866956577895223 0.01880144791184216 -0.0025041994732406046 -0.011893864103716878 0.009047044990353493 0.0392753670500938 0.988657959704934 -0.09314787081511301
 -0.0025025632311528457 -0.011894007411127942 0.002994739580690251 0.01878104005964578 0.988657959704934 -0.09314787081511301 0.009026873478047488 0.039276989937473195
0.11879949979160001 0.009701273018908592 0.04163109225751708 0.9877923744625948 -0.09845977286092909 0.0031570526737540678 0.019834749592596124 -0.002754673324489913 -0.012546861504165192
 0.9877923744625948 -0.09845977286092909 0.009677587012281033 0.04163293032975878 -0.0027564908824314715 -0.012546689559151706 0.003299445517905166 0.019811353948219305
 0.0031570526737540678 0.019834749592596124 -0.0027564908824314715 -0.012546689559151706 0.0097005814170121 0.04162955803591335 0.987792274712052 -0.09846136595323574
 -0.002754673324489913 -0.012546861504165192 0.003299445517905166 0.019811353948219305 0.987792274712052 -0.09846136595323574 0.009678100175604437 0.041631360464808864
0.1250521050438 0.010384909836657805 0.043999755423177675 0.9868878454325668 -0.10378562114689446 0.003461959541986856 0.020865181743358847 -0.0030197529820372698 -0.013197133776288091
 0.9868878454325668 -0.10378562114689446 0.01035865831559873 0.04400179060325712 -0.003021760791984822 -0.013196930054982707 0.003619750884159309 0.0208385142904474
 0.003461959541986856 0.020865181743358847 -0.003021760791984822 -0.013196930054982707 0.010384145192940784 0.04399814571581701 0.9868877348447557 -0.10378729919722815
 -0.0030197529820372698 -0.013197133776288091 0.003619750884159309 0.0208385142904474 0.9868877348447557 -0.10378729919722815 0.010359227008567755 0.044000140017182776
0.131304710296 0.011098969155820508 0.04638228309600039 0.9859440760559157 -0.10912344947782958 0.003781737386136665 0.021892461918819578 -0.0032978650590709977 -0.013844543185942826
 0.9859440760559157 -0.10912344947782958 0.011070018002586527 0.04638452892558298 -0.003300071964266278 -0.013844304407050152 0.003955714497760505 0.021862224745689347
 0.003781737386136665 0.021892461918819578 -0.003300071964266278 -0.013844304407050152 0.011098127951778653 0.04638059876548669 0.9859439540110759 -0.109125212682235
 -0.0032978650590709977 -0.013844543185942826 0.003955714497760505 0.021862224745689347 0.9859439540110759 -0.109125212682235 0.0110706451027735 0.046382797804648164
0.1375573155481 0.011694720809213858 0.04846864103281918 0.9851098965047427 -0.11416303700561355 0.004079395363606748 0.022887096812340777 -0.0035518329987411315 -0.014459786824756989
 0.9851098965047427 -0.11416303700561355 0.011662924552306298 0.04847106679004541 -0.003554251896192489 -0.014459512189814241 0.004269956119213599 0.022853295033759782
 0.004079395363606748 0.022887096812340777 -0.003554251896192489 -0.014459512189814241 0.01169379804625846 0.04846688375438595 0.985109762473724 -0.11416488544454122
 -0.0035518329987411315 -0.014459786824756989 0.004269956119213599 0.022853295033759782 0.985109762473724 -0.11416488544454122 0.011663614250240421 0.04846925432704158
0.1438099208003 0.012311816162189486 0.050541205117384795 0.9842455855030988 -0.1191870062697995 0.0043889280270587375 0.023876096193922672 -0.003815809528262394 -0.015069721474995284
 0.9842455855030988 -0.1191870062697995 0.012277038324908002 0.050543822209741594 -0.0038184498574067405 -0.015069407717475775 0.004596787689678998 0.023838453523029334
 0.0043889280270587375 0.023876096193922672 -0.0038184498574067405 -0.015069407717475775 0.01231080808226724 0.050539375885323146 0.98424543886896 -0.11918894012647048
 -0.003815809528262394 -0.015069721474995284 0.004596787689678998 0.023838453523029334 0.98424543886896 -0.11918894012647048 0.012277793749898777 0.05054192849028356
0.1500625260525 0.012949991713660515 0.052599719259799 0.9833514124204137 -0.12419514792565016 0.004710196983435263 0.024859308778164214 -0.004089656948109475 -0.015674201399623187
 0.9833514124204137 -0.12419514792565016 0.012912095302546658 0.05260253985276456 -0.004092528107900381 -0.015673845122926668 0.004936065060396461 0.02481753884031838
 0.004710196983435263 0.024859308778164214 -0.004092528107900381 -0.015673845122926668 0.01294889456177589 0.052597819113300096 0.9833512525568416 -0.1241971673882343
 -0.004089656948109475 -0.015674201399623187 0.004936065060396461 0.02481753884031838 0.9833512525568416 -0.1241971673882343 0.012912919608189967 0.05260056495886826
0.15631513130469998 0.013608981535298713 0.05464393508633342 0.9824276486169043 -0.12918725541576512 0.005043061902249605 0.025836586650330347 -0.00437323557452239 -0.016273084614825933
 0.9824276486169043 -0.12918725541576512 0.013567829027743122 0.054646972129141415 -0.00437634692240414 -0.01627268229325859 0.005287642038160036 0.0257903931131999
