! Created with skrf 1.8.0 (http://scikit-rf.org).
# GHz S RI R 50.0 
!freq ReS11 ImS11 ReS12 ImS12 ReS13 ImS13
! ReS14 ImS14
! ReS21 ImS21 ReS22 ImS22 ReS23 ImS23
! ReS24 ImS24
! ReS31 ImS31 ReS32 ImS32 ReS33 ImS33
! ReS34 ImS34
! ReS41 ImS41 ReS42 ImS42 ReS43 ImS43
! ReS44 ImS44
!
0.0 0.001497050635364 0.0 0.9985029493021 0.0 5.77312256119e-05 0.0 -5.773122454592e-05 7.070035935101804e-21
 0.9985029493021 0.0 0.001497050635369 0.0 -5.773122454608e-05 7.070035935121398e-21 5.773122561174e-05 0.0
 5.77312256119e-05 0.0 -5.773122454608e-05 7.070035935121398e-21 0.001497050666618 0.0 0.9985029493334 0.0
 -5.773122454592e-05 7.070035935101804e-21 5.773122561174e-05 0.0 0.9985029493334 0.0 0.001497050666625 0.0
0.005 0.0016106011578212078 0.0012236369968602226 0.9983593338547422 -0.003136112882811907 8.088469432670096e-05 0.0006433766966773985 -7.862451455025406e-05 -0.0004025717490590827
 0.9983593338547422 -0.003136112882811907 0.0016105764061062858 0.0012236514006235897 -7.862383837533512e-05 -0.0004025711768465 8.104372906095004e-05 0.0006433162130749466
 8.088469432670096e-05 0.0006433766966773985 -7.862383837533512e-05 -0.0004025711768465 0.001610601419500718 0.0012235695307572245 0.9983593335009763 -0.0031361799458614
 -7.862451455025406e-05 -0.0004025717490590827 8.104372906095004e-05 0.0006433162130749466 0.9983593335009763 -0.0031361799458614 0.0016105754396441734 0.0012235847422701189
0.006252605252188 0.0016403475921423227 0.00153437042313642 0.9983214861270568 -0.003920914705844106 8.744841718195933e-05 0.000804533563408446 -8.45053568279352e-05 -0.0005037390442138345
 0.9983214861270568 -0.003920914705844106 0.001640308901042139 0.0015343887092696485 -8.450430505106701e-05 -0.0005037383375243854 8.769689561275081e-05 0.0008044550283730433
 8.744841718195933e-05 0.000804533563408446 -8.450430505106701e-05 -0.0005037383375243854 0.001640348071137345 0.001534286100338758 0.9983214856434709 -0.003920998520158423
 -8.45053568279352e-05 -0.0005037390442138345 8.769689561275081e-05 0.0008044550283730433 0.9983214856434709 -0.003920998520158423 0.0016403074594458916 0.0015343054073630798
0.01250521050438 0.0017967383744562522 0.0031009813120865502 0.9981212518018192 -0.007842678564234295 0.00012482176654135793 0.0016094391063071467 -0.00011777520881375678 -0.0010099515073801826
 0.9981212518018192 -0.007842678564234295 0.0017965838867916467 0.0031010207102977164 -0.0001177710688853815 -0.0010099501872518346 0.00012581268060793977 0.0016092504866385836
 0.00012482176654135793 0.0016094391063071467 -0.0001177710688853815 -0.0010099501872518346 0.0017967408759923128 0.0031008128541180936 0.9981212504516139 -0.007842845958450355
 -0.00011777520881375678 -0.0010099515073801826 0.00012581268060793977 0.0016092504866385836 0.9981212504516139 -0.007842845958450355 0.0017965787052801642 0.00310085441903624
0.01875781575657 0.001966556810606223 0.004689982525224344 0.9979020027076703 -0.011774845599267144 0.00016993847156906254 0.002415271533570644 -0.00015764173942190175 -0.0015179034974597556
 0.9979020027076703 -0.011774845599267144 0.001966209683234448 0.004690046044802934 -0.00015763251414102104 -0.0015179016729570587 0.00017216454623018455 0.0024149352536499444
 0.00016993847156906254 0.002415271533570644 -0.00015763251414102104 -0.0015179016729570587 0.001966562867140182 0.004689729981999006 0.9979020000926458 -0.011775096473578679
 -0.00015764173942190175 -0.0015179034974597556 0.00017216454623018455 0.0024149352536499444 0.9979020000926458 -0.011775096473578679 0.0019661984481199003 0.004689796977134571
0.02501042100875 0.0021501273082372993 0.0062991553730511055 0.9976634857785214 -0.01571932862243385 0.00022288609064282866 0.003222074143966654 -0.00020420273944835138 -0.00202736724877397
 0.9976634857785214 -0.01571932862243385 0.002149510859963278 0.0062992461790263654 -0.0002041864576608732 -0.0020273650469077617 0.0002268402983930842 0.003221546814887363
 0.00022288609064282866 0.003222074143966654 -0.0002041864576608732 -0.0020273650469077617 0.002150138466507628 0.006298818742540521 0.9976634815084459 -0.015719662926544063
 -0.00020420273944835138 -0.00202736724877397 0.0002268402983930842 0.003221546814887363 0.9976634815084459 -0.015719662926544063 0.002149491263389238 0.00629891453302923
0.03126302626094 0.0023477608548218075 0.007927361482849248 0.9974054347712081 -0.019676950324933298 0.00028375242109038794 0.004029815406492722 -0.0002575533159624507 -0.002538184483359334
 0.9974054347712081 -0.019676950324933298 0.0023467985237048995 0.007927482890004714 -0.00025752802811865273 -0.0025381820493332674 0.0002899284412726507 0.004029047792121021
 0.00028375242109038794 0.004029815406492722 -0.00025752802811865273 -0.0025381820493332674 0.0023477786670500584 0.007926940743935964 0.9974054284535452 -0.019677368025287176
 -0.0002575533159624507 -0.002538184483359334 0.0002899284412726507 0.004029047792121021 0.9974054284535452 -0.019677368025287176 0.0023467682536286714 0.007927068881941633
0.037515631513130004 0.0025597617776979597 0.00957386119018632 0.997127577235212 -0.023648124824351538 0.00035262478967455486 0.0048384343131774145 -0.0003177865854853545 -0.003050221071813029
 0.997127577235212 -0.023648124824351538 0.0025583770921570564 0.009574016659872705 -0.00031775036128270275 -0.0030502185690470074 0.0003615172158566065 0.004837371270973106
 0.00035262478967455486 0.0048384343131774145 -0.00031775036128270275 -0.0030502185690470074 0.0025597878047674784 0.009573356303537492 0.9971275684785562 -0.02364862590314635
 -0.0003177865854853545 -0.003050221071813029 0.0003615172158566065 0.004837371270973106 0.9971275684785562 -0.02364862590314635 0.0025583338354695077 0.009573520525556335
0.043768236765320004 0.0027864303562553567 0.011238106103180786 0.9968296373321542 -0.027633065030793613 0.00042958970987493414 0.005647854188381982 -0.0003849939274247208 -0.003563353227278989
 0.9968296373321542 -0.027633065030793613 0.002784546912063759 0.011238299241159131 -0.0003849448544175475 -0.003563350837407428 0.0004416941495381377 0.005646434602302722
 0.00042958970987493414 0.005647854188381982 -0.0003849448544175475 -0.003563350837407428 0.002786466166164182 0.011237517021578337 0.996829625743687 -0.02763364947566223
 -0.0003849939274247208 -0.003563353227278989 0.0004416941495381377 0.005646434602302722 0.996829625743687 -0.02763364947566223 0.002784488352908289 0.011237721246791446
0.050020842017509996 0.003028064036758039 0.012919653393389557 0.9965113372585673 -0.031631868285032866 0.000514732676998338 0.006457988375157764 -0.0004592650729033638 -0.004077461821367254
 0.9965113372585673 -0.031631868285032866 0.0030256054771289087 0.012919887948313674 -0.00045920125553690626 -0.00407745974419528 0.0005305457941512637 0.0064561450853240655
 0.000514732676998338 0.006457988375157764 -0.00045920125553690626 -0.00407745974419528 0.003028111204825576 0.012918980051227632 0.9965113224439942 -0.031632536099200775
 -0.0004592650729033638 -0.004077461821367254 0.0005305457941512637 0.0064561450853240655 0.9965113224439942 -0.031632536099200775 0.0030255292974435415 0.01291922838065368
0.055454545454549996 0.0032504338657303017 0.01439472483458739 0.9962179732854916 -0.03511822782814324 0.0005954315903855444 0.007162526920560616 -0.00052961409114941 -0.0045249396537527745
 0.9962179732854916 -0.03511822782814324 0.0032474135251898324 0.014394998536883518 -0.0005295359337143098 -0.004524938024680437 0.0006148718395719726 0.007160256129382183
 0.0005954315903855444 0.007162526920560616 -0.0005295359337143098 -0.004524938024680437 0.003250492189901353 0.01439397820771941 0.9962179553465583 -0.03511896809974782
 -0.00052961409114941 -0.0045249396537527745 0.0006148718395719726 0.007160256129382183 0.9962179553465583 -0.03511896809974782 0.0032473201489351036 0.014394268336607263
0.056273447269699996 0.003284958056558422 0.014618123706576912 0.9961723980808213 -0.03564455837723328 0.0006081380139481503 0.00726874304993086 -0.0005406881298466736 -0.004592429573293743
 0.9961723980808213 -0.03564455837723328 0.0032818480535978457 0.014618403569266414 -0.000540607688844736 -0.004592428026763096 0.00062815753726114 0.007266402780891055
 0.0006081380139481503 0.00726874304993086 -0.000540607688844736 -0.004592428026763096 0.0032850181661073716 0.014617366029660064 0.9961723796450288 -0.03564530956981154
 -0.0005406881298466736 -0.004592429573293743 0.00062815753726114 0.007266402780891055 0.9961723796450288 -0.03564530956981154 0.0032817519337127806 0.014617662745913909
0.06252605252188 0.003557405781831718 0.016333178035166356 0.995812540286934 -0.03967110860681814 0.0007098887522397298 0.008080018741959134 -0.0006293495652734665 -0.0051081395370192175
 0.995812540286934 -0.03967110860681814 0.003553568019078575 0.016333507238208554 -0.0006292506371281064 -0.005108138757167589 0.0007346134604967179 0.00807710203033945
 0.0007098887522397298 0.008080018741959134 -0.0006292506371281064 -0.005108138757167589 0.0035574804236652227 0.016332335943501208 0.9958125178330844 -0.039671943189754234
 -0.0006293495652734665 -0.0051081395370192175 0.0007346134604967179 0.00807710203033945 0.9958125178330844 -0.039671943189754234 0.003553449637834913 0.016332685511029687
0.06877865777407 0.0038456988862657685 0.018064503928754916 0.9954314841827241 -0.043711455507120384 0.0008200665234058148 0.008891711265362453 -0.000725334172251026 -0.005624474179054951
 0.9954314841827241 -0.043711455507120384 0.00384105704149503 0.01806488664671908 -0.0007252149088725878 -0.005624474419962387 0.0008499962147008956 0.008888132387450723
 0.0008200665234058148 0.008891711265362453 -0.0007252149088725878 -0.005624474419962387 0.0038457896586274426 0.018063577324750803 0.9954314573118753 -0.04371237350681214
 -0.000725334172251026 -0.005624474179054951 0.0008499962147008956 0.008888132387450723 0.9954314573118753 -0.04371237350681214 0.0038409140765240063 0.018063984390640858
0.07503126302626001 0.00415012743718939 0.019811806742384735 0.9950289501982478 -0.04776550753609537 0.0009387514627711955 0.009703712295470842 -0.0008287250206548971 -0.006141314815609815
 0.9950289501982478 -0.04776550753609537 0.004144605165719806 0.019812247292546832 -0.0008285835891140747 -0.006141316349358418 0.0009743869118805474 0.009699379195019904
 0.0009387514627711955 0.009703712295470842 -0.0008285835891140747 -0.006141316349358418 0.00415023594645867 0.019810795522608532 0.9950289185099661 -0.047766508981509796
 -0.0008287250206548971 -0.006141314815609815 0.0009743869118805474 0.009699379195019904 0.9950289185099661 -0.047766508981509796 0.004144435294562907 0.019811264917836524
0.08128386827845 0.004470979922455785 0.021574803824953283 0.9946046591397594 -0.051833150830932165 0.00106602211729065 0.010515909764199053 -0.0009396034011998112 -0.006658541234611185
 0.9946046591397594 -0.051833150830932165 0.004464500840826947 0.021575306668420172 -0.0009394379835287962 -0.006658544351238997 0.0011078650235448841 0.010510723980661952
 0.00106602211729065 0.010515909764199053 -0.0009394379835287962 -0.006658544351238997 0.004471107782242949 0.021573707875041596 0.9946046222306031 -0.05183423575851283
 -0.0009396034011998112 -0.006658541234611185 0.0011078650235448841 0.010510723980661952 0.9946046222306031 -0.05183423575851283 0.004464301740392928 0.021574244616279634
0.08753647353064001 0.004808543239704171 0.02335322049412943 0.9941583324050441 -0.05591425318056843 0.0012019553570650227 0.011328188137461141 -0.0010580487633574918 -0.007176031439809299
 0.9941583324050441 -0.05591425318056843 0.004801030908703342 0.023353790237686016 -0.0010578575563495551 -0.007176036447261303 0.0012505082847816093 0.011322044734835782
 0.0012019553570650227 0.011328188137461141 -0.0010578575563495551 -0.007176036447261303 0.004808692071016471 0.02335203968945539 0.9941582898691695 -0.05591542163341763
 -0.0010580487633574918 -0.007176031439809299 0.0012505082847816093 0.011322044734835782 0.9941582898691695 -0.05591542163341763 0.0048008002563889865 0.023352648981402865
0.09378907878283 0.005163102657058042 0.025146787161325318 0.9936896921762306 -0.060008666852920174 0.0013466262893803878 0.012140428614700587 -0.001184138648888431 -0.0076936614769546946
 0.9936896921762306 -0.060008666852920174 0.00515448056545142 0.02514742855961858 -0.0011839198640230966 -0.007693668701037274 0.0014023926018038241 0.012133216111154541
 0.0013466262893803878 0.012140428614700587 -0.0011839198640230966 -0.007693668701037274 0.005163274088706601 0.02514552136771662 0.9936896436051258 -0.06000991887983732
 -0.001184138648888431 -0.0076936614769546946 0.0014023926018038241 0.012133216111154541 0.9936896436051258 -0.06000991887983732 0.00515421603971011 0.02514620860589041
0.100041684035 0.005534941756195193 0.026955237225586706 0.9931984615959468 -0.06411623065798161 0.0015001081739842224 0.012952509280912324 -0.0013179486224138193 -0.008211305312004886
 0.9931984615959468 -0.06411623065798161 0.005525133304160393 0.026955955183964767 -0.0013177004857893785 -0.008211315096329351 0.0015635919619306766 0.012944109579214082
 0.0015001081739842224 0.012952509280912324 -0.0013177004857893785 -0.008211315096329351 0.005535137424654661 0.02695388629751686 0.9931984065780208 -0.06411756631502886
 -0.0013179486224138193 -0.008211305312004886 0.0015635919619306766 0.012944109579214082 0.9931984065780208 -0.06411756631502886 0.005524832584779812 0.02695465707173627
0.1059090909091 0.005899840062717078 0.028665575839328196 0.9927167024879654 -0.06798254948173202 0.001652211672304427 0.013714304281763347 -0.001450601939916717 -0.008696957525159022
 0.9927167024879654 -0.06798254948173202 0.005888848576850013 0.02866637023985892 -0.0014503246593299862 -0.008696970040343026 0.0017233965387430863 0.013704677159180693
 0.001652211672304427 0.013714304281763347 -0.0014503246593299862 -0.008696970040343026 0.00590005996935554 0.028664144880894207 0.9927166410429363 -0.06798396367237527
 -0.001450601939916717 -0.008696957525159022 0.0017233965387430863 0.013704677159180693 0.9927166410429363 -0.06798396367237527 0.005888511784983779 0.0286649993051718
0.1062942892872 0.00592434236041795 0.028778305490494087 0.9926843649325555 -0.06823677149306202 0.0016624723393600985 0.013764305229829923 -0.0014595521996599243 -0.008728834742633947
 0.9926843649325555 -0.06823677149306202 0.005913270842726887 0.028779105068445856 -0.001459272951868121 -0.008728847448582768 0.001734178345091508 0.01375459354874374
 0.0016624723393600985 0.013764305229829923 -0.001459272951868121 -0.008728847448582768 0.005924563909072102 0.0287768692729501 0.9926843030525412 -0.0682381908415583
 -0.0014595521996599243 -0.008728834742633947 0.001734178345091508 0.01375459354874374 0.9926843030525412 -0.0682381908415583 0.005912931611151878 0.02877772937119415
0.11254689453939999 0.006331584451106628 0.030615726952718025 0.992147127736724 -0.07237010552161985 0.0018337881001080614 0.014575688660377525 -0.0016090207733390877 -0.0092461193411028
 0.992147127736724 -0.07237010552161985 0.0063191730403769596 0.030616613367831533 -0.0016087086694613346 -0.009246135347768329 0.001914221636902118 0.014564533467165106
 0.0018337881001080614 0.014575688660377525 -0.0016087086694613346 -0.009246135347768329 0.0063318335310946485 0.0306142052791435 0.9921470585760417 -0.07237160862998777
 -0.0016090207733390877 -0.0092461193411028 0.001914221636902118 0.014564533467165106 0.9921470585760417 -0.07237160862998777 0.006318792980903856 0.03061516069215483
0.11879949979160001 0.006756946077047391 0.032467235865278256 0.9915864769933938 -0.07651603908304337 0.0020141226739294198 0.015386528959181533 -0.0017664235384624776 -0.009763026415920707
 0.9915864769933938 -0.07651603908304337 0.006743117806754658 0.03246821449782084 -0.0017660768480124123 -0.009763046120066394 0.002103789541837253 0.015373791903191367
 0.0020141226739294198 0.015386528959181533 -0.0017660768480124123 -0.009763046120066394 0.0067572243465909235 0.032465628557989415 0.9915864001294747 -0.07651762602607773
 -0.0017664235384624776 -0.009763026415920707 0.002103789541837253 0.015373791903191367 0.9915864001294747 -0.07651762602607773 0.006742694606626665 0.032466685484376465
0.1250521050438 0.007200703255674305 0.0343325649874503 0.9910021412689832 -0.0806743694212334 0.0022035410995519325 0.016196692775650855 -0.0019318274157686568 -0.010279420985739075
 0.9910021412689832 -0.0806743694212334 0.0071853810033310215 0.03433364138560838 -0.001931444422751418 -0.01027944480173712 0.002302947497669664 0.01618222862311778
 0.0022035410995519325 0.016196692775650855 -0.001931444422751418 -0.01027944480173712 0.007201012380388923 0.03433087185917455 0.9910020562749897 -0.08067604027834341
 -0.0019318274157686568 -0.010279420985739075 0.002302947497669664 0.01618222862311778 0.9910020562749897 -0.08067604027834341 0.007184912353522212 0.034332036711217186
0.131304710296 0.007663129869553717 0.036211445001170364 0.9903938508552479 -0.08484488525250009 0.0024021061549199846 0.017006044084474814 -0.002105296974468334 -0.010795165770805054
 0.9903938508552479 -0.08484488525250009 0.0076462363394095055 0.03621262488688187 -0.002104875977292472 -0.010795194130581725 0.002511758590241215 0.016989700654615324
 0.0024021061549199846 0.017006044084474814 -0.002104875977292472 -0.010795194130581725 0.007663471522281432 0.036209665851071444 0.990393757300159 -0.08484664011149654
 -0.002105296974468334 -0.010795165770805054 0.002511758590241215 0.016989700654615324 0.990393757300159 -0.08484664011149654 0.007645719935206322 0.036210945261034015
0.1375573155481 0.00803768039894545 0.03785833894676764 0.9898681984706378 -0.08878198123509301 0.0025839904068271136 0.017789630882828204 -0.0022608823494826616 -0.011285415193723163
 0.9898681984706378 -0.08878198123509301 0.008019131362336123 0.03785960179610634 -0.0022604206777943592 -0.01128544811608444 0.002704139962633944 0.017771433856536317
 0.0025839904068271136 0.017789630882828204 -0.0022604206777943592 -0.01128544811608444 0.00803805539380616 0.03785647383221284 0.9898680959658908 -0.08878382011481052
 -0.0022608823494826616 -0.011285415193723163 0.002704139962633944 0.017771433856536317 0.9898680959658908 -0.08878382011481052 0.008018565679335465 0.037857847562013186
0.1438099208003 0.008425389049603303 0.03949671348694254 0.9893241192778435 -0.09270926126097949 0.0027732037175068314 0.018570235269865846 -0.0024226971327451752 -0.011772861143398972
 0.9893241192778435 -0.09270926126097949 0.008405105895158653 0.039498063471370984 -0.002422192931394217 -0.011772899055840773 0.002904311169887624 0.01855004569977318
 0.0027732037175068314 0.018570235269865846 -0.002422192931394217 -0.011772899055840773 0.008425798913577353 0.039494762232777335 0.9893240073951142 -0.09271118424105372
 -0.0024226971327451752 -0.011772861143398972 0.002904311169887624 0.01855004569977318 0.9893240073951142 -0.09271118424105372 0.00840448877496645 0.03949623532175022
0.1500625260525 0.008826122128925784 0.04112643629417437 0.9887617510481438 -0.09662663267381852 0.002969681763421949 0.019347783946469434 -0.0025906773498373314 -0.012257431451860151
 0.9887617510481438 -0.09662663267381852 0.008804026035339614 0.041127877856492884 -0.002590128765936991 -0.012257474799271289 0.003112205223024157 0.019325457821592333
 0.002969681763421949 0.019347783946469434 -0.002590128765936991 -0.012257474799271289 0.008826568385832548 0.04112439872027439 0.9887616293558962 -0.09662863983524743
 -0.0025906773498373314 -0.012257431451860151 0.003112205223024157 0.019325457821592333 0.9887616293558962 -0.09662863983524743 0.008803355332806273 0.04112597651181192
0.15631513130469998 0.009239745025793184 0.042747379051889904 0.988181232223922 -0.10053400304171935 0.0031733594802692013 0.020122204847196058 -0.0027647582520057895 -0.012739055456208901
 0.988181232223922 -0.10053400304171935 0.00921575695573205 0.04274891691471094 -0.0027641634349233613 -0.01273910470085081 0.003327754352861269 0.020097593144848158
