! Created with skrf 1.8.0 (http://scikit-rf.org).
# GHz S RI R 50.0 
!freq ReS11 ImS11 ReS12 ImS12 ReS13 ImS13
! ReS14 ImS14
! ReS21 ImS21 ReS22 ImS22 ReS23 ImS23
! ReS24 ImS24
! ReS31 ImS31 ReS32 ImS32 ReS33 ImS33
! ReS34 ImS34
! ReS41 ImS41 ReS42 ImS42 ReS43 ImS43
! ReS44 ImS44
!
0.0 0.001533636118046 0.0 0.9984663638535 0.0 5.935641561508e-05 0.0 -5.935641614786e-05 7.269064504433502e-21
 0.9984663638535 0.0 0.001533636118046 0.0 -5.935641614775e-05 7.26906450442003e-21 5.935641561474e-05 0.0
 5.935641561508e-05 0.0 -5.935641614775e-05 7.26906450442003e-21 0.001533636115206 0.0 0.9984663638507 0.0
 -5.935641614786e-05 7.269064504433502e-21 5.935641561474e-05 0.0 0.9984663638507 0.0 0.00153363611521 0.0
0.005 0.0016500824080095684 0.0012506423589895386 0.9983190326561603 -0.003212793025403299 8.378765250094877e-05 0.0006783866628884267 -8.120412164829483e-05 -0.00042156174712335996
 0.9983190326561603 -0.003212793025403299 0.0016500947476722658 0.0012506351745849966 -8.120608302798384e-05 -0.0004215632886799648 8.370161378037279e-05 0.0006784193721639455
 8.378765250094877e-05 0.0006783866628884267 -8.120608302798384e-05 -0.0004215632886799648 0.0016500808793294052 0.0012505760311531616 0.9983190323036538 -0.003212860082552675
 -8.120412164829483e-05 -0.00042156174712335996 8.370161378037279e-05 0.0006784193721639455 0.9983190323036538 -0.003212860082552675 0.0016500955750139046 0.001250567390819178
0.006252605252188 0.0016806142868805516 0.001568242389932988 0.9982801574450669 -0.004016779934411532 9.077142340801048e-05 0.0008483005502464763 -8.737197893813195e-05 -0.0005275031724780375
 0.9982801574450669 -0.004016779934411532 0.0016806335759387908 0.0015682332685028931 -8.737503074055375e-05 -0.0005275050739762818 9.063699509389362e-05 0.0008483430300657767
 9.077142340801048e-05 0.0008483005502464763 -8.737503074055375e-05 -0.0005275050739762818 0.0016806119603327042 0.0015681594923724273 0.9982801569573138 -0.004016863749942022
 -8.737197893813195e-05 -0.0005275031724780375 9.063699509389362e-05 0.0008483430300657767 0.9982801569573138 -0.004016863749942022 0.0016806349330467836 0.0015681485412084857
0.01250521050438 0.001841291622937192 0.0031694950633675803 0.9980742103674297 -0.008034391669370847 0.00013084158576389773 0.0016968827722733228 -0.00012236459885080263 -0.0010575907982772173
 0.9980742103674297 -0.008034391669370847 0.0018413686418510126 0.0031694754162053394 -0.00012237662254253884 -0.001057594322686391 0.00013030549141212935 0.001696984907072312
 0.00013084158576389773 0.0016968827722733228 -0.00012237662254253884 -0.001057594322686391 0.0018412829037783552 0.0031693295872998154 0.9980742089955015 -0.008034559064542736
 -0.00012236459885080263 -0.0010575907982772173 0.00013030549141212935 0.001696984907072312 0.9980742089955015 -0.008034559064542736 0.0018413746442385995 0.0031693061618065423
0.01875781575657 0.0020160184256381017 0.004793655489442142 0.9978482671767813 -0.012062618281463766 0.00017965869858594592 0.0025463405951452207 -0.00016444249696649714 -0.0015894664237819122
 0.9978482671767813 -0.012062618281463766 0.0020161914851375053 0.004793623848909565 -0.00016446930596314242 -0.0015894712401988186 0.00017845436050495774 0.002546522894570334
 0.00017965869858594592 0.0025463405951452207 -0.00016446930596314242 -0.0015894712401988186 0.0020159992416609917 0.004793407662243048 0.9978482645104982 -0.012062869168323402
 -0.00016444249696649714 -0.0015894664237819122 0.00017845436050495774 0.002546522894570334 0.9978482645104982 -0.012062869168323402 0.002016205405034324 0.004793370111364967
0.02501042100875 0.0022051346227905137 0.006438441895549279 0.997602062362287 -0.016103411547841284 0.00023731619381760802 0.0033967140377511792 -0.00021371023403402416 -0.002122881660444944
 0.997602062362287 -0.016103411547841284 0.002205441954855369 0.006438396744737293 -0.00021375757104650646 -0.002122887379723185 0.0002351768960310218 0.0033970002329736077
 0.00023731619381760802 0.0033967140377511792 -0.00021375757104650646 -0.002122887379723185 0.002205100915872408 0.006438111963377397 0.9976020580021221 -0.01610374587469564
 -0.00021371023403402416 -0.002122881660444944 0.0002351768960310218 0.0033970002329736077 0.9976020580021221 -0.01610374587469564 0.0022054670779174754 0.006438058525016824
0.03126302626094 0.002408966055689909 0.008102679410471473 0.9973353168582385 -0.020157605777843656 0.00030390808538932986 0.004247961983134284 -0.00027026933988706355 -0.002657663359353991
 0.9973353168582385 -0.020157605777843656 0.002409445835421605 0.008102619186524138 -0.000270342888995595 -0.002657669533347005 0.00030056672616576976 0.004248379046489229
 0.00030390808538932986 0.004247961983134284 -0.000270342888995595 -0.002657669533347005 0.002408913765355782 0.008102267639238226 0.9973353103995055 -0.020158023528438544
 -0.00027026933988706355 -0.002657663359353991 0.00030056672616576976 0.004248379046489229 0.9973353103995055 -0.020158023528438544 0.0024094854471177866 0.008102196443669501
0.037515631513130004 0.0026278314867204046 0.009785601493894519 0.9970477452739367 -0.024225616323476664 0.0003795279672788641 0.005100011322834774 -0.00033421909090210905 -0.0031936644643463007
 0.9970477452739367 -0.024225616323476664 0.0026285218486749515 0.009785524590133108 -0.00033432448380719943 -0.0031936705857396946 0.00037471694778347885 0.005100589501142844
 0.0003795279672788641 0.005100011322834774 -0.00033432448380719943 -0.0031936705857396946 0.0026277565555387706 0.00978510819766348 0.9970477363120609 -0.024226117489212804
 -0.00033421909090210905 -0.0031936644643463007 0.00037471694778347885 0.005100589501142844 0.9970477363120609 -0.024226117489212804 0.0026285792403846625 0.009785017268766228
0.043768236765320004 0.0028620453089971947 0.011486637373500195 0.9967390588268723 -0.028307652073332402 0.00046426855510474754 0.005952771872546181 -0.00040565677988841026 -0.0037307490974295664
 0.9967390588268723 -0.028307652073332402 0.0028629843596671414 0.011486542140862059 -0.00040579959957346166 -0.003730754599668263 0.00045771972602014465 0.005953544724647173
 0.00046426855510474754 0.005952771872546181 -0.00040579959957346166 -0.003730754599668263 0.0028619436807261318 0.011486062909327611 0.9967390469552193 -0.02830823665903963
 -0.00040565677988841026 -0.0037307490974295664 0.00045771972602014465 0.005953544724647173 0.9967390469552193 -0.02830823665903963 0.002863062827464314 0.01148595016532825
0.050020842017509996 0.00311191880119358 0.013205324204242804 0.9964089668267407 -0.03240380322252208 0.0005582214048905854 0.006806142562106136 -0.00048467781970551146 -0.004268786372807516
 0.9964089668267407 -0.03240380322252208 0.0031131446310437654 0.013205208952302604 -0.0004848636028871212 -0.004268790630091423 0.0005496660440441809 0.006807146998168997
 0.0005582214048905854 0.006806142562106136 -0.0004848636028871212 -0.004268790630091423 0.00311178642256556 0.013204668969585208 0.9964089516375398 -0.03240447124954524
 -0.00048467781970551146 -0.004268786372807516 0.0005496660440441809 0.006807146998168997 0.9964089516375398 -0.03240447124954524 0.00311324747703317 0.013204532223184174
0.055454545454549996 0.003342023899621037 0.01471293956038575 0.9961044964010641 -0.035974958865710074 0.0006474208541903279 0.007548158611289279 -0.0005595808107805366 -0.004737030604062053
 0.9961044964010641 -0.035974958865710074 0.003343529878788559 0.014712805506695417 -0.0005598083922925962 -0.004737033225215354 0.0006369030732494377 0.007549396909377063
 0.0006474208541903279 0.007548158611289279 -0.0005598083922925962 -0.004737033225215354 0.0033418615077541736 0.01471221449934324 0.9961044779956436 -0.03597569942503067
 -0.0005595808107805366 -0.004737030604062053 0.0006369030732494377 0.007549396909377063 0.9961044779956436 -0.03597569942503067 0.0033436565958207863 0.014712055035727194
0.056273447269699996 0.003377760775124158 0.014941263919304606 0.9960571775544877 -0.03651408435210461 0.0006614767199391312 0.007660014447287444 -0.0005713757628212851 -0.004807647392683026
 0.9960571775544877 -0.03651408435210461 0.00337931146910241 0.014941126917047217 -0.0005716100015278551 -0.004807649719984528 0.0006506455286119552 0.007661290768905915
 0.0006614767199391312 0.007660014447287444 -0.0005716100015278551 -0.004807649719984528 0.0033775935948895165 0.014940528365444686 0.9960571586373811 -0.03651483584561869
 -0.0005713757628212851 -0.004807647392683026 0.0006506455286119552 0.007661290768905915 0.9960571586373811 -0.03651483584561869 0.0033794420005338046 0.014940365323695517
0.06252605252188 0.003659877918504299 0.016694099550568393 0.9956833988411994 -0.040638458041939995 0.0007741231936300296 0.008514272394683603 -0.0006658422861717127 -0.005347203573899965
 0.9956833988411994 -0.040638458041939995 0.003661791566540483 0.016693939026803543 -0.0006661304289344486 -0.00534720322699627 0.0007607463048417045 0.00851586433529475
 0.0007741231936300296 0.008514272394683603 -0.0006661304289344486 -0.00534720322699627 0.0036596718886279995 0.016693284172282333 0.995683375783301 -0.04063929304180204
 -0.0006658422861717127 -0.005347203573899965 0.0007607463048417045 0.00851586433529475 0.995683375783301 -0.04063929304180204 0.003661953096028883 0.016693092436112646
0.06877865777407 0.003958574974405868 0.018463501085109312 0.9952873384880173 -0.044776848951251176 0.0008962478784230028 0.009368796068686614 -0.0007681671494718007 -0.005887325676809801
 0.9952873384880173 -0.044776848951251176 0.003960889681537851 0.018463315228515 -0.0007685146020189375 -0.005887321852306202 0.0008800548743457534 0.009370750834003872
 0.0008962478784230028 0.009368796068686614 -0.0007685146020189375 -0.005887321852306202 0.003958326050765212 0.018462606426772953 0.9952873108735886 -0.044777767506489936
 -0.0007681671494718007 -0.005887325676809801 0.0008800548743457534 0.009370750834003872 0.9952873108735886 -0.044777767506489936 0.003961085527950551 0.018462383490183736
0.07503126302626001 0.0042741548250939095 0.020249156505338334 0.9948687045927728 -0.048929152719626196 0.0010279360669940211 0.010223460569954908 -0.0008784381409544717 -0.006427883187108902
 0.9948687045927728 -0.048929152719626196 0.0042769087216359865 0.02024894346441125 -0.0008788502668217125 -0.00642787502249365 0.0010086560025788984 0.010225828878334989
 0.0010279360669940211 0.010223460569954908 -0.0008788502668217125 -0.00642787502249365 0.004273858967882926 0.020248183161173303 0.9948686720032225 -0.04893015488887913
 -0.0008784381409544717 -0.006427883187108902 0.0010086560025788984 0.010225828878334989 0.9948686720032225 -0.04893015488887913 0.004277142209286114 0.020247926410144113
0.08128386827845 0.004606918513106671 0.02205076583202706 0.9944272058194105 -0.053095241870325806 0.0011692711816127547 0.01107813686538993 -0.0009967410138560632 -0.006968743910977799
 0.9944272058194105 -0.053095241870325806 0.004610149764656578 0.022050523714500055 -0.0009972231347350974 -0.0069687304846592505 0.0011466326134308613 0.011080972987890791
 0.0011692711816127547 0.01107813686538993 -0.0009972231347350974 -0.0069687304846592505 0.004606571687338966 0.022049714447778274 0.9944271678318751 -0.05309632772059996
 -0.0009967410138560632 -0.006968743910977799 0.0011466326134308613 0.011080972987890791 0.9944271678318751 -0.05309632772059996 0.004610424223174362 0.02204942115889547
0.08753647353064001 0.004957165222259644 0.023868037001865343 0.9939625516294114 -0.05727496988375562 0.001320334668879946 0.011932692089408498 -0.0011231594166044377 -0.0075097737037694645
 0.9939625516294114 -0.05727496988375562 0.004960912039740695 0.023867763873926567 -0.0011237168125388225 -0.007509754035132308 0.0012940656880264232 0.011936053889568289
 0.001320334668879946 0.011932692089408498 -0.0011237168125388225 -0.007509754035132308 0.004956763399146521 0.023866908273204607 0.9939625078176648 -0.05727613949267082
 -0.0011231594166044377 -0.0075097737037694645 0.0012940656880264232 0.011936053889568289 0.9939625078176648 -0.05727613949267082 0.004961230804843401 0.02386657561194404
0.09378907878283 0.0053251922314557585 0.025700682927641248 0.9934744524900753 -0.061468174094018065 0.001481205898504213 0.012786989765490284 -0.0012577748179149306 -0.008050836283502968
 0.9934744524900753 -0.061468174094018065 0.005329492881214642 0.025700376812796952 -0.0012584127274615359 -0.008050809332954087 0.0014510341669034005 0.012790938738670779
 0.001481205898504213 0.012786989765490284 -0.0012584127274615359 -0.008050809332954087 0.005324731388549869 0.025699477603744334 0.9934744024232238 -0.06146942754662435
 -0.0012577748179149306 -0.008050836283502968 0.0014510341669034005 0.012790938738670779 0.9934744024232238 -0.06146942754662435 0.00532985929368399 0.02569910262249038
0.100041684035 0.005711294846679935 0.02754841933876054 0.9929626200648292 -0.06567467781060969 0.0016519620641677214 0.013640889975202007 -0.001400666428780762 -0.008591793102112213
 0.9929626200648292 -0.06567467781060969 0.005716187660851348 0.02754807821637066 -0.0014013900490058879 -0.008591757771152684 0.0016176148540671194 0.0136454912874572
 0.0016519620641677214 0.013640889975202007 -0.0014013900490058879 -0.008591757771152684 0.005710770969067954 0.027547138219921045 0.992962563307366 -0.0656760152023949
 -0.001400666428780762 -0.008591793102112213 0.0016176148540671194 0.0136454912874572 0.992962563307366 -0.0656760152023949 0.005716605067057346 0.027546717855541
0.1059090909091 0.0060903120191635705 0.029295796447870916 0.992460478817898 -0.06963396283003241 0.0018212556232867442 0.014441695726091285 -0.001542350680831687 -0.009099202024963398
 0.992460478817898 -0.06963396283003241 0.00609579544680827 0.029295420595921735 -0.0015431594211282411 -0.009099157778380914 0.0017827418160751435 0.0144469717607078
 0.0018212556232867442 0.014441695726091285 -0.0015431594211282411 -0.009099157778380914 0.006089725346048322 0.029294444979584132 0.9924604153813633 -0.06963537908366092
 -0.001542350680831687 -0.009099202024963398 0.0017827418160751435 0.0144469717607078 0.9924604153813633 -0.06963537908366092 0.006096263753424486 0.029293979136915088
0.1062942892872 0.006115766319840247 0.029410963166068345 0.9924267673925975 -0.06989429190180002 0.001832678085846066 0.014494249496810581 -0.001551911122419432 -0.009132503252375832
 0.9924267673925975 -0.06989429190180002 0.006121289706252846 0.029410584969500376 -0.0015527256088519084 -0.009132458383657975 0.0017938823214711979 0.014499572023246724
 0.001832678085846066 0.014494249496810581 -0.0015527256088519084 -0.009132458383657975 0.006115175400844697 0.02940960710630197 0.9924267035039587 -0.06989571333649489
 -0.001551911122419432 -0.009132503252375832 0.0017938823214711979 0.014499572023246724 0.9924267035039587 -0.06989571333649489 0.006121761457931842 0.02940913817758049
0.11254689453939999 0.006538897754795465 0.03128803130294375 0.9918666090583312 -0.07412681600772197 0.0020234265139457822 0.015346921910624848 -0.0017115833512141966 -0.00967282341365779
 0.9918666090583312 -0.07412681600772197 0.006545090207648144 0.031287613917485135 -0.001712493817779159 -0.00967276779106688 0.001979908815944326 0.015353038273141011
 0.0020234265139457822 0.015346921910624848 -0.001712493817779159 -0.00967276779106688 0.006538235797151856 0.03128660121005308 0.9918665375926982 -0.07412832159776038
 -0.0017115833512141966 -0.00967282341365779 0.001979908815944326 0.015353038273141011 0.9918665375926982 -0.07412832159776038 0.006545619661816762 0.0312860804145564
0.11879949979160001 0.006980978005365814 0.03317933964789757 0.9912818613576012 -0.07837203947845468 0.0022242774336689733 0.016198757699183605 -0.0018797550632798407 -0.010212607808272113
 0.9912818613576012 -0.07837203947845468 0.006987878115392395 0.03317888090815088 -0.001880766582111641 -0.01021254015699132 0.0021757641652478004 0.016205744303651067
 0.0022242774336689733 0.016198757699183605 -0.001880766582111641 -0.01021254015699132 0.006980241021718361 0.033177836484288036 0.9912817818632711 -0.07837362934443919
 -0.0018797550632798407 -0.010212607808272113 0.0021757641652478004 0.016205744303651067 0.9912817818632711 -0.07837362934443919 0.006988468634077186 0.033177260395080635
0.1250521050438 0.007442293566131258 0.035084602348698715 0.990672242457857 -0.08262974211675983 0.0024352983706292628 0.017049604328385374 -0.002056495616937637 -0.010751708182632401
 0.990672242457857 -0.08262974211675983 0.007449940031288812 0.035084100035646715 -0.002057613218190563 -0.0107516271692519 0.0023815156859005662 0.01705754140107723
 0.0024352983706292628 0.017049604328385374 -0.002057613218190563 -0.0107516271692519 0.007441477580118304 0.035083027129501204 0.9906721544767777 -0.08263141638987001
 -0.002056495616937637 -0.010751708182632401 0.0023815156859005662 0.01705754140107723 0.9906721544767777 -0.08263141638987001 0.007450594981534851 0.03508239219134686
0.131304710296 0.007923128456914095 0.03700353119429387 0.9900374725545132 -0.08689969477985283 0.0026565541970733253 0.017899306322091295 -0.0022418716944922566 -0.011289973800718884
 0.9900374725545132 -0.08689969477985283 0.007931560092620383 0.03700298303208745 -0.0022431003661106848 -0.011289878033313657 0.002597228091120207 0.017908277945447488
 0.0026565541970733253 0.017899306322091295 -0.0022431003661106848 -0.011289878033313657 0.00792222950433276 0.037001884992585145 0.9900373756225037 -0.086901453596975
 -0.0022418716944922566 -0.011289973800718884 0.002597228091120207 0.017908277945447488 0.9900373756225037 -0.086901453596975 0.00793228284665452 0.03700118751783167
0.1375573155481 0.008313580186419414 0.03868469284004473 0.9894874991921743 -0.09093040798266866 0.0028605268581075208 0.01872237223549077 -0.0024084386546147298 -0.011801883507118388
 0.9894874991921743 -0.09093040798266866 0.008322839580933624 0.03868410972932787 -0.002409785881905721 -0.011801772880112986 0.0027955222303753745 0.018732365474502622
 0.0028605268581075208 0.01872237223549077 -0.002409785881905721 -0.011801772880112986 0.008312594984413725 0.03868297648253742 0.9894873929007924 -0.09093225140149813
 -0.0024084386546147298 -0.011801883507118388 0.0027955222303753745 0.018732365474502622 0.9894873929007924 -0.09093225140149813 0.008323632727570848 0.038682226309853754
0.1438099208003 0.008717761488155246 0.04035693432686799 0.988918181139298 -0.0949508544243054 0.0030727503109150094 0.019542080533024957 -0.002581673892830944 -0.012310753085500323
 0.988918181139298 -0.0949508544243054 0.008727888204263741 0.04035631475610459 -0.002583145052859252 -0.012310626227622336 0.003001818028280965 0.019553172266763057
 0.0030727503109150094 0.019542080533024957 -0.002583145052859252 -0.012310626227622336 0.00871668621212254 0.04035514889509528 0.9889180650266743 -0.09495278257557985
 -0.002581673892830944 -0.012310753085500323 0.003001818028280965 0.019553172266763057 0.9889180650266743 -0.09495278257557985 0.008728754980369128 0.04035434310130351
0.1500625260525 0.009135529180036713 0.042020114422354184 0.9883296656950769 -0.09896093283393509 0.003293151508061749 0.020358346188839204 -0.002761507014625307 -0.012816503297784939
 0.9883296656950769 -0.09896093283393509 0.009146562916661617 0.04201945675996849 -0.0027631074740509663 -0.012816358782356823 0.003216043892436785 0.02037061610520705
 0.003293151508061749 0.020358346188839204 -0.0027631074740509663 -0.012816358782356823 0.009134360024712922 0.04201826103978531 0.9883295392940251 -0.09896294585331601
 -0.002761507014625307 -0.012816503297784939 0.003216043892436785 0.02037061610520705 0.9883295392940251 -0.09896294585331601 0.009147506554293016 0.04201739652664931
0.15631513130469998 0.009566739050747213 0.043674096165073284 0.9877221009223446 -0.10296054232959803 0.003521656529339303 0.021171085613417906 -0.002947866750691176 -0.01331905659102009
