! Created with skrf 1.8.0 (http://scikit-rf.org).
# GHz S RI R 50.0 
!freq ReS11 ImS11 ReS12 ImS12 ReS13 ImS13
! ReS14 ImS14
! ReS21 ImS21 ReS22 ImS22 ReS23 ImS23
! ReS24 ImS24
! ReS31 ImS31 ReS32 ImS32 ReS33 ImS33
! ReS34 ImS34
! ReS41 ImS41 ReS42 ImS42 ReS43 ImS43
! ReS44 ImS44
!
0.0 0.001675483036013 0.0 0.998324516964 0.0 6.469674118952e-05 0.0 -6.469674083456e-05 7.923065657830977e-21
 0.998324516964 0.0 0.001675483035988 0.0 -6.469674083396e-05 7.923065657757499e-21 6.469674118949e-05 0.0
 6.469674118952e-05 0.0 -6.469674083396e-05 7.923065657757499e-21 0.001675483027476 0.0 0.9983245169555 0.0
 -6.469674083456e-05 7.923065657830977e-21 6.469674118949e-05 0.0 0.9983245169555 0.0 0.001675483027481 0.0
0.005 0.0018030550737075668 0.0013731726353123225 0.9981630619137754 -0.003509044314168558 9.047335365311488e-05 0.000695878170817293 -8.790600684638728e-05 -0.0004396838815927416
 0.9981630619137754 -0.003509044314168558 0.001803073902720231 0.0013731616721837999 -8.790897696698768e-05 -0.00043968618291280947 9.034600600884256e-05 0.0006959266709502063
 9.047335365311488e-05 0.000695878170817293 -8.790897696698768e-05 -0.00043968618291280947 0.0018030530716591838 0.0013731065695251874 0.9981630615510971 -0.003509111381496695
 -8.790600684638728e-05 -0.0004396838815927416 9.034600600884256e-05 0.0006959266709502063 0.9981630615510971 -0.003509111381496695 0.0018030751856832048 0.001373093608221788
0.006252605252188 0.001836633092869515 0.0017218371941540474 0.9981202789359258 -0.004387142750974143 9.790722060336917e-05 0.000870184568142004 -9.45081151246987e-05 -0.0005501621627577256
 0.9981202789359258 -0.004387142750974143 0.0018366625257037429 0.0017218232577769581 -9.45127367041655e-05 -0.0005501650001556446 9.770825273782521e-05 0.000870247571509078
 9.790722060336917e-05 0.000870184568142004 -9.45127367041655e-05 -0.0005501650001556446 0.0018366300164383608 0.0017217546402671661 0.9981202784223271 -0.004387226564345688
 -9.45081151246987e-05 -0.0005501621627577256 9.770825273782521e-05 0.000870247571509078 0.9981202784223271 -0.004387226564345688 0.001836664585149996 0.0017217381960393868
0.01250521050438 0.002014092022819633 0.00347945473147131 0.9978925932351714 -0.008774933183949157 0.00014090587414637736 0.0017407191588228866 -0.0001322318232966539 -0.0011028960791366381
 0.9978925932351714 -0.008774933183949157 0.0020142095430307244 0.0034794245209493558 -0.00013225003429452966 -0.0011029013207242463 0.0001401124524962668 0.0017408709616003007
 0.00014090587414637736 0.0017407191588228866 -0.00013225003429452966 -0.0011029013207242463 0.0020140803348733193 0.0034792899587302237 0.9978925917844308 -0.00877510058411585
 -0.0001322318232966539 -0.0011028960791366381 0.0001401124524962668 0.0017408709616003007 0.9978925917844308 -0.00877510058411585 0.002014218374877755 0.003479254598868555
0.01875781575657 0.0022082730121353537 0.005261799560821036 0.9976411586002139 -0.013174017598816194 0.0001937958573795312 0.0026121456610461217 -0.0001779887143467827 -0.0016574111547322486
 0.9976411586002139 -0.013174017598816194 0.0022085370754252767 0.005261750585134775 -0.00017802932190249285 -0.0016574182772552692 0.00019201356664014623 0.002612417428335766
 0.0001937958573795312 0.0026121456610461217 -0.00017802932190249285 -0.0016574182772552692 0.0022082471671229825 0.005261552844982233 0.9976411557640134 -0.013174268508980904
 -0.0001779887143467827 -0.0016574111547322486 0.00019201356664014623 0.002612417428335766 0.9976411557640134 -0.013174268508980904 0.0022085573627115183 0.00526149584768004
0.02501042100875 0.0024195754902398676 0.007066351934157966 0.9973656611671426 -0.017586495489200573 0.0002566818950124956 0.0034844732649787716 -0.00023189529603400065 -0.0022134423666509604
 0.9973656611671426 -0.017586495489200573 0.0024200444309541336 0.007066281569362051 -0.00023196700037497603 -0.0022134507479992654 0.0002535162206515394 0.0034849013626328086
 0.0002566818950124956 0.0034844732649787716 -0.00023196700037497603 -0.0022134507479992654 0.0024195299549651553 0.0070660235987866655 0.9973656565007019 -0.0175868298732409
 -0.00023189529603400065 -0.0022134423666509604 0.0002535162206515394 0.0034849013626328086 0.9973656565007019 -0.0175868298732409 0.002420080862333384 0.00706594201660002
0.03126302626094 0.0026483823564132296 0.008891799005423454 0.9970657720166552 -0.022013245927467215 0.00032966892523068994 0.0043576324916585795 -0.0002940644855693723 -0.0027707961663740737
 0.9970657720166552 -0.022013245927467215 0.002649114421234111 0.008891704499093834 -0.00029417589780537473 -0.0027708050845343456 0.00032472490167822197 0.004358258516847847
 0.00032966892523068994 0.0043576324916585795 -0.00029417589780537473 -0.0027708050845343456 0.00264831160746862 0.00889138942289128 0.9970657650773569 -0.02201366378941475
 -0.0002940644855693723 -0.0027707961663740737 0.00032472490167822197 0.004358258516847847 0.9970657650773569 -0.02201366378941475 0.002649171693425579 0.008891280086837572
0.037515631513130004 0.002895067941560633 0.010737272493364841 0.9967411554401251 -0.026454689840685015 0.00041286100982760655 0.00523152237385618 -0.0003646063913367904 -0.0033293033080123258
 0.9967411554401251 -0.026454689840685015 0.0028961213133722437 0.01073715096707752 -0.0003647660425829027 -0.0033293119408040234 0.0004057430712340008 0.005232393206283275
 0.00041286100982760655 0.00523152237385618 -0.0003647660425829027 -0.0033293119408040234 0.002894966458308584 0.01073678211335095 0.9967411457802967 -0.026455191196855996
 -0.0003646063913367904 -0.0033293033080123258 0.0004057430712340008 0.005232393206283275 0.9967411457802967 -0.026455191196855996 0.0028962041255420567 0.010736641634466535
0.043768236765320004 0.003160001058925735 0.012602116750603229 0.996391472298709 -0.03091102186928164 0.0005063608195523246 0.006106024811110851 -0.00044362857330320374 -0.0038888045088624574
 0.996391472298709 -0.03091102186928164 0.003161433876641965 0.01260196520139405 -0.0004438449200193366 -0.003888811933883692 0.0004966727371236758 0.0061071926704008885
 0.0005063608195523246 0.006106024811110851 -0.0004438449200193366 -0.003888811933883692 0.003159863328050253 0.012601546083963508 0.9963914594691822 -0.03091160676530562
 -0.00044362857330320374 -0.0038888045088624574 0.0004966727371236758 0.0061071926704008885 0.9963914594691822 -0.03091160676530562 0.0031615469355472147 0.01260137085351636
0.050020842017509996 0.0034435464203830188 0.014485792873743561 0.9960163817525234 -0.03538230618327617 0.0006102693138771762 0.006981010495783362 -0.0005312361262356072 -0.004449144543809592
 0.9960163817525234 -0.03538230618327617 0.0034454167956850883 0.014485608175045576 -0.000531517553486992 -0.00444914973844975 0.0005976141793601122 0.006982533001344125
 0.0006102693138771762 0.006981010495783362 -0.000531517553486992 -0.00444914973844975 0.0034433669335195765 0.014485142513817006 0.9960163652996672 -0.03538297467361902
 -0.0005312361262356072 -0.004449144543809592 0.0005976141793601122 0.006982533001344125 0.9960163652996672 -0.03538297467361902 0.0034455648143610017 0.014484928702994632
0.055454545454549996 0.00370535204697443 0.016137692647037932 0.9956695175491859 -0.03928011738273006 0.0007090990217828657 0.007741685339308609 -0.0006144218863182177 -0.004936658597268636
 0.9956695175491859 -0.03928011738273006 0.003707649858194069 0.01613747650553435 -0.000614766626484949 -0.004936660945368776 0.0006935425717624011 0.007743567076675315
 0.0007090990217828657 0.007741685339308609 -0.000614766626484949 -0.004936660945368776 0.003705131804331267 0.016136973567271586 0.9956694975758422 -0.0392808585807167
 -0.0006144218863182177 -0.004936658597268636 0.0006935425717624011 0.007743567076675315 0.9956694975758422 -0.0392808585807167 0.003707832091025055 0.016136722947716432
0.056273447269699996 0.0037460653445274814 0.016387831661878533 0.9956155422873305 -0.03986852345291704 0.0007246855091870506 0.007856341835421594 -0.0006275316808200607 -0.005010169348846679
 0.9956155422873305 -0.03986852345291704 0.0037484313783842193 0.016387610563848673 -0.0006278865045262757 -0.005010171190343797 0.0007086657464210444 0.007858282067182002
 0.0007246855091870506 0.007856341835421594 -0.0006278865045262757 -0.005010171190343797 0.0037458385997235773 0.016387102272416236 0.9956155217532191 -0.03986927561383849
 -0.0006275316808200607 -0.005010169348846679 0.0007086657464210444 0.007858282067182002 0.9956155217532191 -0.03986927561383849 0.0037486190770806066 0.01638684583121601
0.06252605252188 0.004067916128240019 0.01830780774488498 0.9951886124095227 -0.044369596654100694 0.0008497062911832159 0.00873187456384709 -0.0007326153630367368 -0.005571724441767598
 0.9951886124095227 -0.044369596654100694 0.004070835926673818 0.01830754687407204 -0.0007330518313990182 -0.005571721707280102 0.0008299236864172591 0.008734301123134388
 0.0008497062911832159 0.00873187456384709 -0.0007330518313990182 -0.005571721707280102 0.004067636631059404 0.018307000069601148 0.9951885873316848 -0.044370432574944864
 -0.0007326153630367368 -0.005571724441767598 0.0008299236864172591 0.008734301123134388 0.9951885873316848 -0.044370432574944864 0.004071068033793118 0.018306696725279126
0.06877865777407 0.004409454226520235 0.02024532417719765 0.9947352511540539 -0.04888540641434793 0.0009854262524351585 0.009607458705186523 -0.0008465847292409823 -0.006133653996158178
 0.9947352511540539 -0.04888540641434793 0.004412985915308742 0.02024502003589822 -0.000847111023638778 -0.006133645362851995 0.000961481997543829 0.00961044577533879
 0.0009854262524351585 0.009607458705186523 -0.000847111023638778 -0.006133645362851995 0.004409116490290587 0.020244439033154996 0.9947352210640283 -0.048886326204959224
 -0.0008465847292409823 -0.006133653996158178 0.000961481997543829 0.00961044577533879 0.9947352210640283 -0.048886326204959224 0.004413267167370984 0.020244084288052203
0.07503126302626001 0.004771032321337616 0.022200002650194367 0.9942551184863933 -0.05341580074681179 0.0011319375429974026 0.010482939203366159 -0.0009695346874943874 -0.006695800256538627
 0.9942551184863933 -0.05341580074681179 0.004775234061402066 0.022199651615104444 -0.0009701589230521944 -0.006695784301695577 0.0011034322892059243 0.01048656660975593
 0.0011319375429974026 0.010482939203366159 -0.0009701589230521944 -0.006695784301695577 0.004770630868474343 0.022199040940496573 0.9942550829098564 -0.05341680452563384
 -0.0009695346874943874 -0.006695800256538627 0.0011034322892059243 0.01048656660975593 0.9942550829098564 -0.05341680452563384 0.004775569203793616 0.02219863006937646
0.08128386827845 0.005153000321497855 0.024171477013194664 0.9937478756400857 -0.05796060148293723 0.0012893297317229334 0.011358156342400982 -0.0011015574081429777 -0.00725800316955356
 0.9937478756400857 -0.05796060148293723 0.005157930323610594 0.024171075333595873 -0.0011022876340105348 -0.007257978370677599 0.0012558636507887804 0.01136250961170695
 0.0012893297317229334 0.011358156342400982 -0.0011022876340105348 -0.007257978370677599 0.0051525296839832705 0.024170439714620767 0.9937478340954865 -0.05796168939021278
 -0.0011015574081429777 -0.00725800316955356 0.0012558636507887804 0.01136250961170695 0.9937478340954865 -0.05796168939021278 0.005158324110439411 0.024169967761404457
0.08753647353064001 0.005555705313582981 0.026159388768615406 0.993213185409679 -0.06251960873898194 0.001457689672267932 0.012232946054443578 -0.001242742228618329 -0.007820100134458718
 0.993213185409679 -0.06251960873898194 0.005561421853479457 0.026158932563938187 -0.001243586428052642 -0.00782006486940115 0.0014188625244283253 0.01223811647293222
 0.001457689672267932 0.012232946054443578 -0.001243586428052642 -0.00782006486940115 0.005555160034578284 0.026158276942585355 0.9932131374083485 -0.06252078092645182
 -0.001242742228618329 -0.007820100134458718 0.0014188625244283253 0.01223811647293222 0.9932131374083485 -0.06252078092645182 0.005561879048294402 0.026157738716582207
0.09378907878283 0.005979491482888796 0.028163383879468602 0.9926507124179208 -0.06709260407801047 0.0016371013739097794 0.013107140146088587 -0.001393175553107631 -0.008381925842592711
 0.9926507124179208 -0.06709260407801047 0.005986052916035941 0.028162869136389945 -0.001394141643361214 -0.008381878389700111 0.0015925125809440335 0.013113224816929147
 0.0016371013739097794 0.013107140146088587 -0.001394141643361214 -0.008381878389700111 0.005978866117411678 0.028162198668633058 0.9926506574630395 -0.06709386071308891
 -0.001393175553107631 -0.008381925842592711 0.0015925125809440335 0.013113224816929147 0.9926506574630395 -0.06709386071308891 0.005986578291891476 0.02816158874016728
0.100041684035 0.006424700008821062 0.030183110424720265 0.9920601233616847 -0.0716793528329374 0.001827645874528586 0.013980566481336195 -0.001552940749091873 -0.008943312167698655
 0.9920601233616847 -0.0716793528329374 0.006432164785613937 0.030182532993536224 -0.0015540365811876112 -0.008943250705962873 0.0017768945979038 0.013987668380622053
 0.001827645874528586 0.013980566481336195 -0.0015540365811876112 -0.008943250705962873 0.006423989125184359 0.03018185305487206 0.992060060947748 -0.07168069409738409
 -0.001552940749091873 -0.008943312167698655 0.0017768945979038 0.013987668380622053 0.992060060947748 -0.07168069409738409 0.006432763125602159 0.030181165750255753
0.1059090909091 0.006862265565781061 0.03209240396699437 0.9914800520424079 -0.0759958168765967 0.002016646308052551 0.014799329523285628 -0.0017114221804247524 -0.009469561781855275
 0.9914800520424079 -0.0759958168765967 0.006870631292269327 0.03209176381047349 -0.0017126468426285027 -0.00946948542976002 0.0019597474759472456 0.01480748491891017
 0.002016646308052551 0.014799329523285628 -0.0017126468426285027 -0.00946948542976002 0.0068614695049585344 0.03209108007218896 0.991479982160694 -0.0759972377357079
 -0.0017114221804247524 -0.009469561781855275 0.0019597474759472456 0.01480748491891017 0.991479982160694 -0.0759972377357079 0.006871302460240471 0.03209031477593197
0.1062942892872 0.0068916689446244985 0.0322182168426662 0.9914410872451297 -0.07627960584996553 0.002029401116294542 0.01485304912791802 -0.0017221180411762151 -0.009504088100414764
 0.9914410872451297 -0.07627960584996553 0.006900095625131231 0.0322175724331928 -0.0017233513995886516 -0.009504010709642513 0.001972086339056964 0.014861277159461285
 0.002029401116294542 0.01485304912791802 -0.0017233513995886516 -0.009504010709642513 0.006890867125365432 0.03221688862163102 0.991441016857099 -0.07628103194170774
 -0.0017221180411762151 -0.009504088100414764 0.001972086339056964 0.014861277159461285 0.991441016857099 -0.07628103194170774 0.006900771722193431 0.032216118017678104
0.11254689453939999 0.007380733083056727 0.0342683505948818 0.9907932756035128 -0.0808931008210096 0.0022424418225598475 0.015724408484464287 -0.0019007844030807645 -0.010064079709683042
 0.9907932756035128 -0.0808931008210096 0.007390180352584517 0.03426763477153754 -0.0019021630053271661 -0.010063984370667883 0.0021781624352970137 0.015733877533222865
 0.0022424418225598475 0.015724408484464287 -0.0019021630053271661 -0.010063984370667883 0.007379834926410447 0.03426695291699288 0.9907931967163953 -0.08089461195013264
 -0.0019007844030807645 -0.010064079709683042 0.0021781624352970137 0.015733877533222865 0.9907931967163953 -0.08089461195013264 0.007390939010044427 0.03426609283480561
0.11879949979160001 0.007892223812217944 0.03633315713674346 0.9901163627194873 -0.08551956331847536 0.0024668393760607196 0.01659446139300376 -0.0020890134486146275 -0.010623110126737475
 0.9901163627194873 -0.08551956331847536 0.007902750496191635 0.03633236531320085 -0.0020905449446989724 -0.010622994721488508 0.0023951942660960734 0.016605292376974896
 0.0024668393760607196 0.01659446139300376 -0.0020905449446989724 -0.010622994721488508 0.007891223933371747 0.03633169147812855 0.9901162747975056 -0.08552115971251631
 -0.0020890134486146275 -0.010623110126737475 0.0023951942660960734 0.016605292376974896 0.9901162747975056 -0.08552115971251631 0.007903596527942236 0.036330735476285944
0.1250521050438 0.008426468963242246 0.038412279099441615 0.9894100258343536 -0.09015870762830924 0.0027026616985881143 0.01746302124047477 -0.0022868753212109813 -0.011180999548015465
 0.9894100258343536 -0.09015870762830924 0.008438134042368269 0.03841140653253555 -0.0022885672931259493 -0.011180861859947065 0.002623249842252818 0.01747534116113443
 0.0027026616985881143 0.01746302124047477 -0.0022885672931259493 -0.011180861859947065 0.008425361995377087 0.038410747023797105 0.9894099283305391 -0.09016038952705709
 -0.0022868753212109813 -0.011180999548015465 0.002623249842252818 0.01747534116113443 0.9894099283305391 -0.09016038952705709 0.00843907227308366 0.038409688390824176
0.131304710296 0.00898379265104496 0.0405053556533329 0.9886739453561051 -0.09481023741170569 0.002949973131231441 0.0183298980567306 -0.0024944365833804993 -0.011737565249789967
 0.9886739453561051 -0.09481023741170569 0.008996655276942168 0.04050439743622791 -0.0024962965444596573 -0.01173740296395688 0.0028623936892393084 0.018343840047766447
 0.002949973131231441 0.0183298980567306 -0.0024962965444596573 -0.01173740296395688 0.008982573247207502 0.04050375880873536 0.9886738377112824 -0.09481200507065617
 -0.0024944365833804993 -0.011737565249789967 0.0028623936892393084 0.018343840047766447 0.9886738377112824 -0.09481200507065617 0.008997690541959065 0.0405025905550917
0.1375573155481 0.009440901681781542 0.04234039242751182 0.9880314728456046 -0.09920207763160536 0.003179136582160203 0.019168574556888328 -0.002682165180780158 -0.012266239321015202
 0.9880314728456046 -0.09920207763160536 0.009455026543482313 0.04233936525282821 -0.0026842043745304678 -0.012266052093258036 0.003083189698479895 0.019184125451745387
 0.003179136582160203 0.019168574556888328 -0.0026842043745304678 -0.012266052093258036 0.009439565134349633 0.04233873224137346 0.9880313545900955 -0.09920393117960574
 -0.002682165180780158 -0.012266239321015202 0.003083189698479895 0.019184125451745387 0.9880313545900955 -0.09920393117960574 0.009456162880945177 0.04233746922231223
0.1438099208003 0.00991423141419946 0.04416500499665897 0.9873661345427421 -0.10358199429936148 0.003417537294811776 0.02000328452686937 -0.0028773646337665556 -0.01279131544383308
 0.9873661345427421 -0.10358199429936148 0.009929678740179691 0.044163905162754744 -0.0028795911460662077 -0.012791100979176084 0.003312858652795014 0.020020566758836445
 0.003417537294811776 0.02000328452686937 -0.0028795911460662077 -0.012791100979176084 0.009912772517375067 0.044163283158764874 0.9873660051190704 -0.10358393398073842
 -0.0028773646337665556 -0.01279131544383308 0.003312858652795014 0.020020566758836445 0.9873660051190704 -0.10358393398073842 0.009930920858081439 0.04416191955181648
0.1500625260525 0.010403603413785354 0.04597901777253089 0.9866781133988489 -0.10794985468233191 0.0036650853867932543 0.02083392445507496 -0.0030799485053903644 -0.013312698129846789
 0.9866781133988489 -0.10794985468233191 0.01042043362534536 0.045977841325168974 -0.003082370400971849 -0.013312454040883206 0.003551313160774923 0.02085306491674036
 0.0036650853867932543 0.02083392445507496 -0.003082370400971849 -0.013312454040883206 0.010402016987469218 0.045977236037900895 0.9866779722393729 -0.10795188075205903
 -0.0030799485053903644 -0.013312698129846789 0.003551313160774923 0.02085306491674036 0.9866779722393729 -0.10795188075205903 0.010421786232764704 0.045975765681995386
0.15631513130469998 0.01090883784089088 0.0477822604044804 0.9859675934457145 -0.11230552704029273 0.003921689823750259 0.021660392754139342 -0.003289829219754636 -0.013830294044275993
 0.9859675934457145 -0.11230552704029273 0.010927111557080116 0.04778100312799672 -0.003292454541765867 -0.013830017851589332 0.003798464721792756 0.02168152274539665
