! Created with skrf 1.8.0 (http://scikit-rf.org).
# GHz S RI R 50.0 
!freq ReS11 ImS11 ReS12 ImS12 ReS13 ImS13
! ReS14 ImS14
! ReS21 ImS21 ReS22 ImS22 ReS23 ImS23
! ReS24 ImS24
! ReS31 ImS31 ReS32 ImS32 ReS33 ImS33
! ReS34 ImS34
! ReS41 ImS41 ReS42 ImS42 ReS43 ImS43
! ReS44 ImS44
!
0.0 0.001157207413903 0.0 0.998842792586 0.0 4.38112535076e-05 0.0 -4.38112540416e-05 5.365331202867699e-21
 0.998842792586 0.0 0.001157207413921 0.0 -4.381125404126e-05 5.3653312028260595e-21 4.381125350948e-05 0.0
 4.38112535076e-05 0.0 -4.381125404126e-05 5.3653312028260595e-21 0.001157207410351 0.0 0.9988427925825 0.0
 -4.38112540416e-05 5.365331202867699e-21 4.381125350948e-05 0.0 0.9988427925825 0.0 0.001157207410384 0.0
0.005 0.0012441668779027408 0.0009505111543493788 0.9987329288745522 -0.0024249413417180353 6.0363878634659846e-05 0.0004634334320893533 -5.886957018763149e-05 -0.00029439378777823083
 0.9987329288745522 -0.0024249413417180353 0.0012441575880690562 0.0009505165330927029 -5.8867746376841494e-05 -0.00029439236783276553 6.042117673050547e-05 0.0004634115757035503
 6.0363878634659846e-05 0.0004634334320893533 -5.8867746376841494e-05 -0.00029439236783276553 0.0012441675861916792 0.0009504434702027321 0.9987329285445462 -0.0024250083936325595
 -5.886957018763149e-05 -0.00029439378777823083 6.042117673050547e-05 0.0004634115757035503 0.9987329285445462 -0.0024250083936325595 0.001244156222161735 0.0009504501150292978
0.006252605252188 0.0012667251078775112 0.001191898219699373 0.9987042937376647 -0.0030318069663886615 6.494225871271648e-05 0.000579541441922106 -6.300629423898025e-05 -0.00036838234457133826
 0.9987042937376647 -0.0030318069663886615 0.001266710586912907 0.0011919050883062048 -6.300345633360653e-05 -0.0003683805925087339 6.503178248858098e-05 0.0005795131073170467
 6.494225871271648e-05 0.000579541441922106 -6.300345633360653e-05 -0.0003683805925087339 0.0012667263018237688 0.001191813601050069 0.9987042933081862 -0.003031890792444732
 -6.300629423898025e-05 -0.00036838234457133826 6.503178248858098e-05 0.0005795131073170467 0.9987042933081862 -0.003031890792444732 0.0012667085378098046 0.0011918220585820072
0.01250521050438 0.0013840287229993542 0.0024090147588113793 0.9985546218369642 -0.006064604899012247 9.04035639729364e-05 0.0011595780387861365 -8.586115385192669e-05 -0.000738683413385849
 0.9985546218369642 -0.006064604899012247 0.001383970748906387 0.0024090299542817244 -8.584997053039872e-05 -0.0007386801550891565 9.076057254502333e-05 0.0011595105999489558
 9.04035639729364e-05 0.0011595780387861365 -8.584997053039872e-05 -0.0007386801550891565 0.0013840340407652472 0.002408845756829906 0.9985546206668076 -0.006064772291683232
 -8.586115385192669e-05 -0.000738683413385849 9.076057254502333e-05 0.0011595105999489558 0.9985546206668076 -0.006064772291683232 0.001383963107811262 0.0024088642071290263
0.01875781575657 0.0015093211901642668 0.0036437813158655703 0.998393628970996 -0.009105822666735087 0.00012024690716261282 0.001740507761237217 -0.00011243443677513584 -0.0011104263371009314
 0.998393628970996 -0.009105822666735087 0.0015091909346572473 0.0036438063754406216 -0.00011240949744210318 -0.0011104218541575285 0.00012104891257507182 0.0017403887395572909
 0.00012024690716261282 0.001740507761237217 -0.00011240949744210318 -0.0011104218541575285 0.0015093335746194708 0.0036435279726852276 0.9983936267655781 -0.009106073551724653
 -0.00011243443677513584 -0.0011104263371009314 0.00012104891257507182 0.0017403887395572909 0.9983936267655781 -0.009106073551724653 0.001509174181825494 0.003643558075118486
0.02501042100875 0.0016428020967565841 0.004894528609053711 0.9982211629772788 -0.012156985573001058 0.00015452430741622433 0.0023223822522836536 -0.0001427836947992713 -0.0014834781349902261
 0.9982211629772788 -0.012156985573001058 0.0016425708008714116 0.00489456514120567 -0.00014273965248047334 -0.0014834727504028254 0.00015594892533350217 0.002322197546015715
 0.00015452430741622433 0.0023223822522836536 -0.00014273965248047334 -0.0014834727504028254 0.0016428244824631588 0.004894190948637103 0.9982211594327589 -0.012157319887824205
 -0.0001427836947992713 -0.0014834781349902261 0.00015594892533350217 0.002322197546015715 0.9982211594327589 -0.012157319887824205 0.0016425414096157317 0.004894234475847665
0.03126302626094 0.0017846623528169222 0.00616042378066102 0.9980370622040402 -0.015218777921069532 0.00019328829616108444 0.002905203000078861 -0.00017696532257515995 -0.001857753587232412
 0.9980370622040402 -0.015218777921069532 0.0017843013133196153 0.006160473463643652 -0.0001768968826246719 -0.001857747666176542 0.00019551342511789664 0.0029049368776689166
 0.00019328829616108444 0.002905203000078861 -0.0001768968826246719 -0.001857747666176542 0.001784697679184729 0.006160001783069924 0.9980370570187013 -0.015219195640942384
 -0.00017696532257515995 -0.001857753587232412 0.00019551342511789664 0.0029049368776689166 0.9980370570187013 -0.015219195640942384 0.0017842557604149498 0.00616006061948489
0.037515631513130004 0.0019350889040525346 0.007440943608179663 0.9978411602999857 -0.018291569761406553 0.00023659150716655712 0.0034889520993373903 -0.00021503496201032133 -0.0022331844682793047
 0.9978411602999857 -0.018291569761406553 0.001934569465115143 0.007441008189097247 -0.00021493687623431684 -0.0022331784183490383 0.0002397954159776692 0.003488587183466369
 0.00023659150716655712 0.0034889520993373903 -0.00021493687623431684 -0.0022331784183490383 0.0019351401144023154 0.007440437241167568 0.9978411531722563 -0.018292070867574627
 -0.00021503496201032133 -0.0022331844682793047 0.0002397954159776692 0.003488587183466369 0.9978411531722563 -0.018292070867574627 0.0019345042286746206 0.007440513382505231
0.043768236765320004 0.0020942665540214385 0.008735714241841188 0.997633288110903 -0.021375577107963065 0.00028448649306872807 0.004073601605375386 -0.00025704765480653977 -0.0026097101827345453
 0.997633288110903 -0.021375577107963065 0.002093560101300027 0.008735795535998235 -0.00025691471796425653 -0.0026097044540663826 0.00028884786902247226 0.004073118854064069
 0.00028448649306872807 0.004073601605375386 -0.00025691471796425653 -0.0026097044540663826 0.002094336594094365 0.008735123459609858 0.9976332787375986 -0.021376161588890292
 -0.00025704765480653977 -0.0026097101827345453 0.00028884786902247226 0.004073118854064069 0.9976332787375986 -0.021376161588890292 0.002093471658102138 0.008735219012642693
0.050020842017509996 0.002262378822478675 0.010044444954078186 0.9974132746142049 -0.02447092814074808 0.0003370256194928719 0.004659117392593416 -0.00030305790786708497 -0.0029872738957536023
 0.9974132746142049 -0.02447092814074808 0.0022614567778972256 0.010044544844429857 -0.00030288495527593 -0.002987268981077091 0.0003427235960925307 0.004658496079046549
 0.0003370256194928719 0.004659117392593416 -0.00030288495527593 -0.002987268981077091 0.002262470642766534 0.01004376968693754 0.9974132626918479 -0.024471596002265693
 -0.00030305790786708497 -0.0029872738957536023 0.0003427235960925307 0.004658496079046549 0.9974132626918479 -0.024471596002265693 0.0022613416056013625 0.010043886869550859
0.055454545454549996 0.002415871382368647 0.011192921477097498 0.9972120821551242 -0.02717015203442378 0.00038649579839090237 0.005168622129197539 -0.00034633067048156437 -0.0033161884641078328
 0.9972120821551242 -0.02717015203442378 0.0024147387979495615 0.011193039109499573 -0.0003461187789251879 -0.0033161846900738464 0.0003935011579140773 0.0051678622440272945
 0.00038649579839090237 0.005168622129197539 -0.0003461187789251879 -0.0033161846900738464 0.002415984529239755 0.011192172730939653 0.9972120677699499 -0.02717089235825409
 -0.00034633067048156437 -0.0033161884641078328 0.0003935011579140773 0.0051678622440272945 0.9972120677699499 -0.02717089235825409 0.002414597536194623 0.011192310597871798
0.056273447269699996 0.002439608398261438 0.011366895607621757 0.997180947448327 -0.027577695689308686 0.0003942609931123975 0.005245461042210068 -0.00035311972008619563 -0.0033658206342041166
 0.997180947448327 -0.027577695689308686 0.0024384422156846913 0.011367016044316705 -0.00035290162601692827 -0.0033658170688701237 0.0004014751653675618 0.005244678734026972
 0.0003942609931123975 0.005245461042210068 -0.00035290162601692827 -0.0033658170688701237 0.0024397249532946675 0.011366135779925724 0.9971809326724996 -0.027578446936570366
 -0.00035311972008619563 -0.0033658206342041166 0.0004014751653675618 0.005244678734026972 0.9971809326724996 -0.027578446936570366 0.0024382967917900827 0.011366276921210674
0.06252605252188 0.0026261373965664964 0.012702858802703899 0.9969361332483295 -0.030695915037180298 0.00045624440680110985 0.0058325908780711725 -0.00040728658914969233 -0.003745296240250138
 0.9969361332483295 -0.030695915037180298 0.002624698558027427 0.01270300180270813 -0.00040701826567750065 -0.0037452946022542865 0.00046515483849629964 0.005831623416090202
 0.00045624440680110985 0.0058325908780711725 -0.00040701826567750065 -0.0037452946022542865 0.002626281645422307 0.012702014319595775 0.9969361153131573 -0.03069674968771158
 -0.00040728658914969233 -0.003745296240250138 0.00046515483849629964 0.005831623416090202 0.9969361153131573 -0.03069674968771158 0.00262451935990589 0.01270218186009451
0.06877865777407 0.0028221475110148777 0.014052149203582859 0.9966786578777187 -0.03382559454744698 0.0005230272934278831 0.006420462584529164 -0.00046561150761679007 -0.0041256467435648175
 0.9966786578777187 -0.03382559454744698 0.0028204075228116477 0.014052316850318774 -0.0004652879037322769 -0.004125647653545375 0.0005338145190386427 0.0064192840614972655
 0.0005230272934278831 0.006420462584529164 -0.0004652879037322769 -0.004125647653545375 0.0028223224173631496 0.014051219960396018 0.9966786364760196 -0.033826512621600524
 -0.00046561150761679007 -0.0041256467435648175 0.0005338145190386427 0.0064192840614972655 0.9966786364760196 -0.033826512621600524 0.0028201910280960573 0.014051416452433688
0.07503126302626001 0.003027820100921314 0.015414596789198232 0.9964083465965928 -0.0369667223649505 0.0005946606871905022 0.007009029588177967 -0.0005281469502593285 -0.004506817970561815
 0.9964083465965928 -0.0369667223649505 0.003025750490001472 0.015414791232356746 -0.000527763051237141 -0.004506822091807736 0.0006075057091646064 0.007007612327290293
 0.0005946606871905022 0.007009029588177967 -0.000527763051237141 -0.004506822091807736 0.003028028633409294 0.015413582662705151 0.996408321420111 -0.03696772389439394
 -0.0005281469502593285 -0.004506817970561815 0.0006075057091646064 0.007007612327290293 0.996408321420111 -0.03696772389439394 0.0030254931768544722 0.015413810770738931
0.08128386827845 0.0032433362429796398 0.0167900423496459 0.9961250241965449 -0.04011927087341738 0.0006711951855377538 0.007598243322879696 -0.0005949448589112013 -0.004888755271296882
 0.9961250241965449 -0.04011927087341738 0.003240908553612786 0.01679026580497318 -0.0005944956858384983 -0.00488876330973965 0.0006862794692130243 0.00759655785626697
 0.0006711951855377538 0.007598243322879696 -0.0005944956858384983 -0.00488876330973965 0.0032435813751015116 0.016788943203608204 0.9961249949352218 -0.04012035589546215
 -0.0005949448589112013 -0.004888755271296882 0.0006862794692130243 0.00759655785626697 0.9961249949352218 -0.04012035589546215 0.003240606900730581 0.016789205704683327
0.08753647353064001 0.003468876754739888 0.01817833437740682 0.99582851510829 -0.04328319975890662 0.0007526809156629151 0.008188053397207573 -0.00066605662236997 -0.005271403344968323
 0.99582851510829 -0.04328319975890662 0.0034660625450431384 0.01817858912662886 -0.0006655372318168728 -0.005271416049176279 0.000770186380971494 0.008186068444425766
 0.0007526809156629151 0.008188053397207573 -0.0006655372318168728 -0.005271416049176279 0.003469161464939507 0.01817715006399081 0.9958284814501507 -0.04328436831487598
 -0.00066605662236997 -0.005271403344968323 0.000770186380971494 0.008186068444425766 0.9958284814501507 -0.04328436831487598 0.003465713031743842 0.018177449848308984
0.09378907878283 0.0037046222025287376 0.019579326839980933 0.995518643495781 -0.04645845819296802 0.0008391675005143351 0.008778407727044343 -0.0007415330551820071 -0.00565470610136395
 0.995518643495781 -0.04645845819296802 0.003701393041170233 0.019579615230729215 -0.0007409385389496098 -0.005654724262526571 0.0008592765121425109 0.008776090173592597
 0.0008391675005143351 0.008778407727044343 -0.0007409385389496098 -0.005654724262526571 0.003704949474264623 0.01957805719589369 0.9955186051267058 -0.04645971033174776
 -0.0007415330551820071 -0.00565470610136395 0.0008592765121425109 0.008776090173592597 0.9955186051267058 -0.04645971033174776 0.0037009921476490737 0.01957839726742632
0.100041684035 0.0039507528958211535 0.020992877551712263 0.9951952333375066 -0.04964498641761986 0.0009307040264936816 0.009369252622599675 -0.0008214243741201334 -0.006038606569037092
 0.9951952333375066 -0.04964498641761986 0.003947080358467747 0.02099320199759312 -0.0008207498590450192 -0.006038631020950006 0.0009535993822258961 0.009366567498493981
 0.0009307040264936816 0.009369252622599675 -0.0008207498590450192 -0.006038631020950006 0.003951125717515756 0.020991522400416518 0.9951951899411362 -0.04964632219339583
 -0.0008214243741201334 -0.006038606569037092 0.0009535993822258961 0.009366567498493981 0.9951951899411362 -0.04964632219339583 0.0039466245662440206 0.020991905877556685
0.1059090909091 0.004191326092842328 0.022330642195707122 0.9948792771526974 -0.05264539490993896 0.0010212374401514074 0.009924094879730715 -0.000900453379725925 -0.006399348465962018
 0.9948792771526974 -0.05264539490993896 0.004187211645798927 0.022331002729541714 -0.0008996993932739567 -0.006399379617337758 0.0010469141110047285 0.009921031353133472
 0.0010212374401514074 0.009924094879730715 -0.0008996993932739567 -0.006399379617337758 0.004191744381083899 0.022329206630933126 0.9948792287490906 -0.052646809225492294
 -0.000900453379725925 -0.006399348465962018 0.0010469141110047285 0.009921031353133472 0.9948792287490906 -0.052646809225492294 0.0041867011384288284 0.02232963377843278
0.1062942892872 0.004207448872883154 0.02241884693698864 0.9948581085014337 -0.052842716940416624 0.0010273390118634446 0.009960532857046763 -0.000905780173067924 -0.00642304682305619
 0.9948581085014337 -0.052842716940416624 0.004203304538842863 0.022419209917715743 -0.0009050208209472973 -0.0064230784420978735 0.0010532039293039885 0.00995744331547271
 0.0010273390118634446 0.009960532857046763 -0.0009050208209472973 -0.0064230784420978735 0.0042078702382565576 0.02241740608670436 0.9948580597591055 -0.052844136414278604
 -0.000905780173067924 -0.00642304682305619 0.0010532039293039885 0.00995744331547271 0.9948580597591055 -0.052844136414278604 0.004202790330967727 0.022417836203108072
0.11254689453939999 0.00447488987945161 0.023857097092593357 0.994507092814621 -0.056051575431587765 0.0011291203745738396 0.010552191721892491 -0.0009946493974716422 -0.006807967927272065
 0.994507092814621 -0.056051575431587765 0.0044702453285177775 0.023857501154167356 -0.000993800405007319 -0.006808007632378308 0.0011581384769116469 0.010548659017922693
 0.0011291203745738396 0.010552191721892491 -0.000993800405007319 -0.006808007632378308 0.004475362787559298 0.023855570337625663 0.9945070384052527 -0.0560530786700652
 -0.0009946493974716422 -0.006807967927272065 0.0011581384769116469 0.010548659017922693 0.9945070384052527 -0.0560530786700652 0.0044696691899659205 0.023856050443002794
0.11879949979160001 0.004753255342256337 0.02530749104764392 0.9941420101284075 -0.05927148142490134 0.001236095401280256 0.011144171064336534 -0.0010880803171139724 -0.0071933098958393985
 0.9941420101284075 -0.05927148142490134 0.004748082151120543 0.025307938802657394 -0.0010871369159035171 -0.007193358648469243 0.001268450701621895 0.01114015453383515
 0.001236095401280256 0.011144171064336534 -0.0010871369159035171 -0.007193358648469243 0.004753782797422041 0.02530587816751517 0.9941419497278808 -0.05927306850053955
 -0.0010880803171139724 -0.0071933098958393985 0.001268450701621895 0.01114015453383515 0.9941419497278808 -0.05927306850053955 0.004747440568988943 0.025306411728615055
0.1250521050438 0.005042724338029288 0.026769892181782537 0.9937626843809262 -0.06250234886190503 0.0013483107155901348 0.011736411322809785 -0.0011861204986729334 -0.007579011657939194
 0.9937626843809262 -0.06250234886190503 0.005036994076838534 0.026770386309786818 -0.0011850779552321795 -0.007579070462045575 0.0013841876005024451 0.01173186836138115
 0.0013483107155901348 0.011736411322809785 -0.0011850779552321795 -0.007579070462045575 0.005043309349781762 0.026768192940947823 0.9937626176623969 -0.06250401985331551
 -0.0011861204986729334 -0.007579011657939194 0.0013841876005024451 0.01173186836138115 0.9937626176623969 -0.06250401985331551 0.005036283540647363 0.026768783542577793
0.131304710296 0.005343475558809233 0.028244163752316396 0.9933689396581104 -0.0657440865285893 0.001465812246781181 0.012328851552900323 -0.0012888167772698198 -0.007965011033393114
 0.9933689396581104 -0.0657440865285893 0.00533715978777009 0.028244707000315936 -0.0012876703930966974 -0.007965080935376203 0.001505395458775473 0.012323737595049821
 0.001465812246781181 0.012328851552900323 -0.0012876703930966974 -0.007965080935376203 0.005344121142192632 0.02824237789959908 0.9933688662915979 -0.06574584152075354
 -0.0012888167772698198 -0.007965011033393114 0.001505395458775473 0.012323737595049821 0.9933688662915979 -0.06574584152075354 0.005336376790086118 0.028243029245737777
0.1375573155481 0.005578545601848963 0.029538045291770423 0.9930377612207889 -0.06880441847436995 0.0015713308458540007 0.01290163304390732 -0.0013788584063460863 -0.008331486416699717
 0.9930377612207889 -0.06880441847436995 0.0055716131178048 0.029538626085873418 -0.0013776012474439607 -0.008331567260311092 0.001614715382297431 0.012895963489968226
 0.0015713308458540007 0.01290163304390732 -0.0013776012474439607 -0.008331567260311092 0.005579254213383939 0.029536172568256795 0.9930376809072206 -0.06880625750020893
 -0.0013788584063460863 -0.008331486416699717 0.001614715382297431 0.012895963489968226 0.9930376809072206 -0.06880625750020893 0.005570754654302319 0.0295368739713135
0.1438099208003 0.005821588875516711 0.030826435021343943 0.9926954818036355 -0.07185832250353245 0.0016810892305966507 0.013472857189573565 -0.0014725037860179179 -0.008696506471571558
 0.9926954818036355 -0.07185832250353245 0.005814010782026992 0.030827055069959735 -0.001471130801115976 -0.008696599262005411 0.0017284440651830293 0.013466592051012263
 0.0016810892305966507 0.013472857189573565 -0.001471130801115976 -0.008696599262005411 0.0058223634364010105 0.03082447517137814 0.9926953942148322 -0.07186024564325005
 -0.0014725037860179179 -0.008696506471571558 0.0017284440651830293 0.013466592051012263 0.9926953942148322 -0.07186024564325005 0.00581307344025438 0.030825229318913166
0.1500625260525 0.0060725355068709415 0.032109264407563703 0.9923421738631653 -0.07490576250645403 0.001795057703568156 0.014042491371916927 -0.0015697235903120478 -0.009060038479258023
 0.9923421738631653 -0.07490576250645403 0.0060642828755873394 0.03210992550978331 -0.0015682297346014994 -0.00906014426156679 0.0018465510996372625 0.014035589217548735
 0.001795057703568156 0.014042491371916927 -0.0015682297346014994 -0.00906014426156679 0.006073378936902628 0.03210721716418004 0.9923420786686031 -0.07490776984463313
 -0.0015697235903120478 -0.009060038479258023 0.0018465510996372625 0.014035589217548735 0.9923420786686031 -0.07490776984463313 0.006063263251558792 0.03210802687360277
0.15631513130469998 0.006331315305759676 0.033386467233433074 0.9919779100267586 -0.07794670178604997 0.0019132063202045805 0.014610503400072061 -0.001670488228828601 -0.009422050320826924
